#  HZ   S   RI   R     50.00 
! Rohde & Schwarz ZVA40 4Ports - Version 3.90 - 1145.1110k42 SN: 100403
! Date: 2023-10-03 10:17:25
! Measurement: S12 
! 
 2.000000000000000E10    1.187480099349754E-3  -5.075991708666011E-5  
 2.000200000000000E10    1.101931746773146E-3  -1.090569032250507E-4  
 2.000400000000000E10    1.010515531639994E-3  -1.145436479104611E-4  
 2.000600000000000E10    1.095174676681191E-3  -1.557985524414110E-5  
 2.000800000000000E10    1.410425882096644E-3  -9.604276262653454E-5  
 2.001000000000000E10    1.696721413517716E-3  -5.431263872859196E-4  
 2.001200000000000E10    1.611734315017124E-3  -1.242885567293859E-3  
 2.001400000000000E10    1.063739764504135E-3  -1.748119986811538E-3  
 2.001600000000000E10    4.307894100130387E-4  -1.818667591353994E-3  
 2.001800000000000E10   -1.080238449324017E-5  -1.646769724579321E-3  
 2.002000000000000E10   -2.571533705010137E-4  -1.425422592962414E-3  
 2.002200000000000E10   -3.729801025690029E-4  -1.207548299988295E-3  
 2.002400000000000E10   -3.729043769173003E-4  -1.138948984904054E-3  
 2.002600000000000E10   -4.667101189333165E-4  -1.219017386585934E-3  
 2.002800000000000E10   -7.721374463864868E-4  -1.302810029391154E-3  
 2.003000000000000E10   -1.246883311124956E-3  -1.119247705238745E-3  
 2.003200000000000E10   -1.552317074477029E-3  -6.151015174655635E-4  
 2.003400000000000E10   -1.484986899110178E-3  -8.154620265912978E-5  
 2.003600000000000E10   -1.229127166206362E-3   2.338315060586427E-4  
 2.003800000000000E10   -1.014298977859226E-3   3.440005993643018E-4  
 2.004000000000000E10   -8.953377197749547E-4   4.483072466596410E-4  
 2.004200000000000E10   -7.013520261813185E-4   5.687013646461254E-4  
 2.004400000000000E10   -4.845843890237760E-4   5.594711236218796E-4  
 2.004600000000000E10   -3.540435591051470E-4   4.537262667091219E-4  
 2.004800000000000E10   -3.583799098348130E-4   3.334595699633621E-4  
 2.005000000000000E10   -4.645447996962402E-4   3.460350889787308E-4  
 2.005200000000000E10   -5.310204571377440E-4   4.939115203825044E-4  
 2.005400000000000E10   -4.509114739370108E-4   7.101992363639085E-4  
 2.005600000000000E10   -2.257345751988599E-4   7.982481433435081E-4  
 2.005800000000000E10   -1.068003389432475E-4   7.894374710438705E-4  
 2.006000000000000E10    2.019758288458242E-5   8.547192757063903E-4  
 2.006200000000000E10    2.357393318505521E-4   8.475313187335377E-4  
 2.006400000000000E10    3.904604455772328E-4   7.457035100719904E-4  
 2.006600000000000E10    4.741724229843161E-4   6.426134919977667E-4  
 2.006800000000000E10    5.937537557824896E-4   6.008929613241812E-4  
 2.007000000000000E10    7.675911837406917E-4   4.782554069045288E-4  
 2.007200000000000E10    9.132263561089834E-4   2.623367282119293E-4  
 2.007400000000000E10    9.447577751506076E-4  -6.812806038206076E-5  
 2.007600000000000E10    7.342100071571309E-4  -3.415181547299856E-4  
 2.007800000000000E10    5.183265635019376E-4  -3.496707330118681E-4  
 2.008000000000000E10    4.840693989895101E-4  -3.273637926157128E-4  
 2.008200000000000E10    4.728132503877545E-4  -4.025966059818956E-4  
 2.008400000000000E10    4.199582747080261E-4  -4.963245843594642E-4  
 2.008600000000000E10    3.043782802436639E-4  -6.260514556844202E-4  
 2.008800000000000E10    9.232323189976736E-5  -6.870405588954412E-4  
 2.009000000000000E10   -6.101395070732837E-5  -6.322125138220504E-4  
 2.009200000000000E10   -1.663251003512055E-4  -6.194840074677803E-4  
 2.009400000000000E10   -3.514628717963251E-4  -5.785407998633607E-4  
 2.009600000000000E10   -4.891831335111488E-4  -4.226609279062416E-4  
 2.009800000000000E10   -5.129927691693108E-4  -2.246652896886830E-4  
 2.010000000000000E10   -4.428893041705000E-4  -1.142025270562527E-4  
 2.010200000000000E10   -3.921171247148542E-4  -7.800586410420144E-5  
 2.010400000000000E10   -3.585594219017636E-4  -8.413519739361271E-5  
 2.010600000000000E10   -4.305560687947789E-4  -9.892217971310509E-5  
 2.010800000000000E10   -5.452086901821105E-4  -2.909660592486945E-6  
 2.011000000000000E10   -5.788208843484797E-4   1.772220603015740E-4  
 2.011200000000000E10   -5.001220708413994E-4   3.435252310512703E-4  
 2.011400000000000E10   -3.982046949619681E-4   4.353169775797906E-4  
 2.011600000000000E10   -2.815707099486005E-4   5.178204866954023E-4  
 2.011800000000000E10   -1.086411695813482E-4   5.082454055225776E-4  
 2.012000000000000E10   -5.509182723651549E-5   4.014638676538052E-4  
 2.012200000000000E10   -1.455057576948340E-4   3.454251875806267E-4  
 2.012400000000000E10   -2.424684252566946E-4   4.857598148562290E-4  
 2.012600000000000E10   -1.161095464295265E-4   7.317712146754343E-4  
 2.012800000000000E10    1.753785167418328E-4   7.850029800420652E-4  
 2.013000000000000E10    3.645850760850734E-4   6.869761941575066E-4  
 2.013200000000000E10    4.985979449199398E-4   6.280556438996653E-4  
 2.013400000000000E10    6.539909913561043E-4   5.087879196062318E-4  
 2.013600000000000E10    6.939048546849302E-4   3.248422574050679E-4  
 2.013800000000000E10    6.449045814619757E-4   2.305985652600174E-4  
 2.014000000000000E10    6.347062126560896E-4   2.791722853780138E-4  
 2.014200000000000E10    7.956127893398114E-4   3.613830688855048E-4  
 2.014400000000000E10    1.115661774141093E-3   2.621548628667370E-4  
 2.014600000000000E10    1.367625181080291E-3  -1.001347468614026E-4  
 2.014800000000000E10    1.400720009028360E-3  -5.946214135483276E-4  
 2.015000000000000E10    1.166203889972818E-3  -1.036555330947409E-3  
 2.015200000000000E10    8.287866266421332E-4  -1.282652119967949E-3  
 2.015400000000000E10    4.846694614065605E-4  -1.450457020927175E-3  
 2.015600000000000E10    6.726472058267349E-5  -1.473699368674446E-3  
 2.015800000000000E10   -2.702630542141075E-4  -1.309769047010276E-3  
 2.016000000000000E10   -4.164727299077505E-4  -1.070179367139016E-3  
 2.016200000000000E10   -4.311863097281736E-4  -9.159561042547411E-4  
 2.016400000000000E10   -4.101084885877316E-4  -8.720809544931040E-4  
 2.016600000000000E10   -4.718234336052528E-4  -9.372533122250053E-4  
 2.016800000000000E10   -6.488348094367043E-4  -9.777356207911158E-4  
 2.017000000000000E10   -8.722177094400484E-4  -9.262388533291718E-4  
 2.017200000000000E10   -1.053269344588949E-3  -7.997009864387413E-4  
 2.017400000000000E10   -1.181926029262904E-3  -6.943336989080973E-4  
 2.017600000000000E10   -1.417383423684464E-3  -6.017759812415153E-4  
 2.017800000000000E10   -1.687324828652229E-3  -3.241804936098763E-4  
 2.018000000000000E10   -1.800372603027449E-3   6.217999045340412E-5  
 2.018200000000000E10   -1.786939233518493E-3   4.533861985108184E-4  
 2.018400000000000E10   -1.647170508038943E-3   8.288844363522475E-4  
 2.018600000000000E10   -1.433166505676913E-3   1.113729696594363E-3  
 2.018800000000000E10   -1.162368661930992E-3   1.315714006691619E-3  
 2.019000000000000E10   -9.337988154629224E-4   1.419063985209774E-3  
 2.019200000000000E10   -7.631880307374638E-4   1.519855369100876E-3  
 2.019400000000000E10   -5.789179635883805E-4   1.667798752609043E-3  
 2.019600000000000E10   -3.079654814899658E-4   1.834096040657182E-3  
 2.019800000000000E10    2.704297977838849E-5   1.865811798330627E-3  
 2.020000000000000E10    2.722948722046927E-4   1.815561478221674E-3  
 2.020200000000000E10    4.362068656418059E-4   1.802168420033047E-3  
 2.020400000000000E10    6.861569263604413E-4   1.920806564517136E-3  
 2.020600000000000E10    1.149982472674714E-3   1.976361505422788E-3  
 2.020800000000000E10    1.719697980773578E-3   1.793090555885876E-3  
 2.021000000000000E10    2.194238697282142E-3   1.285202027999877E-3  
 2.021200000000000E10    2.302301248512519E-3   6.644448422090968E-4  
 2.021400000000000E10    2.214899987994153E-3   2.407608661559169E-4  
 2.021600000000000E10    2.101449300190089E-3  -5.625373570957757E-5  
 2.021800000000000E10    2.007992757070396E-3  -2.283280308252017E-4  
 2.022000000000000E10    2.077959621624079E-3  -3.368660763055547E-4  
 2.022200000000000E10    2.276718375031595E-3  -6.513270940401673E-4  
 2.022400000000000E10    2.322902238962275E-3  -1.233784017658988E-3  
 2.022600000000000E10    2.053577355166644E-3  -1.813041486053003E-3  
 2.022800000000000E10    1.629746496033522E-3  -2.272821051631997E-3  
 2.023000000000000E10    1.064556682436371E-3  -2.602949005517143E-3  
 2.023200000000000E10    4.092780118635684E-4  -2.701988009689951E-3  
 2.023400000000000E10   -2.021183943186232E-4  -2.559241942233510E-3  
 2.023600000000000E10   -5.821637345052521E-4  -2.288562285909315E-3  
 2.023800000000000E10   -8.359356534690310E-4  -2.032795897972437E-3  
 2.024000000000000E10   -1.003222342402341E-3  -1.802172868248122E-3  
 2.024200000000000E10   -1.105338914239388E-3  -1.610704375729885E-3  
 2.024400000000000E10   -1.160816785327539E-3  -1.510670197334279E-3  
 2.024600000000000E10   -1.326446014709403E-3  -1.508654307941964E-3  
 2.024800000000000E10   -1.610532739303179E-3  -1.441318274441141E-3  
 2.025000000000000E10   -1.926947331895339E-3  -1.272723590380248E-3  
 2.025200000000000E10   -2.263960557886296E-3  -9.735956253414906E-4  
 2.025400000000000E10   -2.536289566368969E-3  -5.447604940675291E-4  
 2.025600000000000E10   -2.682487989120462E-3  -3.583809931440555E-6  
 2.025800000000000E10   -2.659784385612534E-3   5.459469027334342E-4  
 2.026000000000000E10   -2.491034524239324E-3   1.053738478214745E-3  
 2.026200000000000E10   -2.220850101568633E-3   1.499935401097676E-3  
 2.026400000000000E10   -1.888474182191271E-3   1.844454285067817E-3  
 2.026600000000000E10   -1.503088284444846E-3   2.159280369035256E-3  
 2.026800000000000E10   -9.743572143768824E-4   2.365114848577866E-3  
 2.027000000000000E10   -4.463450197003966E-4   2.315481774003050E-3  
 2.027200000000000E10   -8.251759501024620E-5   2.114315980033559E-3  
 2.027400000000000E10    8.119965805010988E-5   1.923152314568008E-3  
 2.027600000000000E10    1.442596201090010E-4   1.855152554200663E-3  
 2.027800000000000E10    2.032301985489113E-4   1.979730261581732E-3  
 2.028000000000000E10    4.830370430064239E-4   2.214604244211022E-3  
 2.028200000000000E10    9.924336552137028E-4   2.328077825591152E-3  
 2.028400000000000E10    1.624460697151077E-3   2.181867379005309E-3  
 2.028600000000000E10    2.155139464540063E-3   1.719105224136585E-3  
 2.028800000000000E10    2.395244858538111E-3   1.139461029792366E-3  
 2.029000000000000E10    2.443812103413138E-3   6.035538993913818E-4  
 2.029200000000000E10    2.359308089693020E-3   1.176513788429733E-4  
 2.029400000000000E10    2.152999794041669E-3  -2.442334935264547E-4  
 2.029600000000000E10    1.950844344797970E-3  -4.193182847100414E-4  
 2.029800000000000E10    1.888129131489054E-3  -5.306089102911453E-4  
 2.030000000000000E10    1.890586750915297E-3  -7.124419595735769E-4  
 2.030200000000000E10    1.908191810304552E-3  -9.375293789442952E-4  
 2.030400000000000E10    1.940956004366371E-3  -1.319806307071337E-3  
 2.030600000000000E10    1.771490055101890E-3  -1.861772412307745E-3  
 2.030800000000000E10    1.275350799623095E-3  -2.299409034880407E-3  
 2.031000000000000E10    6.841616360125719E-4  -2.454918814984001E-3  
 2.031200000000000E10    1.552189266622457E-4  -2.394525104282815E-3  
 2.031400000000000E10   -2.571176406984897E-4  -2.228298943121860E-3  
 2.031600000000000E10   -5.552222751753612E-4  -2.020473025716198E-3  
 2.031800000000000E10   -7.347298612139753E-4  -1.840187775626503E-3  
 2.032000000000000E10   -9.076827598080315E-4  -1.668951857869548E-3  
 2.032200000000000E10   -1.007551318724398E-3  -1.508530702177481E-3  
 2.032400000000000E10   -1.091527232302376E-3  -1.473845281626708E-3  
 2.032600000000000E10   -1.312449514107020E-3  -1.471563309925482E-3  
 2.032800000000000E10   -1.596156204475757E-3  -1.364989949240821E-3  
 2.033000000000000E10   -1.893962295093563E-3  -1.187241564355331E-3  
 2.033200000000000E10   -2.165496222858812E-3  -8.998613295800710E-4  
 2.033400000000000E10   -2.419593818715694E-3  -5.782422082165234E-4  
 2.033600000000000E10   -2.660460223984204E-3  -3.936520790577763E-4  
 2.033800000000000E10   -2.839493525019031E-3   5.306937878399537E-4  
 2.034000000000000E10   -2.674988218019774E-3   1.263621536278983E-3  
 2.034200000000000E10   -2.249645667127622E-3   1.889908112826999E-3  
 2.034400000000000E10   -1.636360001600819E-3   2.287016393915739E-3  
 2.034600000000000E10   -1.021987623477608E-3   2.408695763643878E-3  
 2.034800000000000E10   -4.982948389456229E-4   2.371376860357913E-3  
 2.035000000000000E10   -4.721195871775027E-5   2.203836824377010E-3  
 2.035200000000000E10    2.483757759622632E-4   1.931969648411061E-3  
 2.035400000000000E10    3.283606442611343E-4   1.684191264499577E-3  
 2.035600000000000E10    2.628437187350183E-4   1.612597724342328E-3  
 2.035800000000000E10    2.534377114145937E-4   1.811575296875320E-3  
 2.036000000000000E10    5.502988674884869E-4   2.122906881763980E-3  
 2.036200000000000E10    1.174190606243541E-3   2.246249800570953E-3  
 2.036400000000000E10    1.839306635241726E-3   1.995493370441743E-3  
 2.036600000000000E10    2.319550848807450E-3   1.523782267741124E-3  
 2.036800000000000E10    2.632835523489817E-3   9.228120756301064E-4  
 2.037000000000000E10    2.703054483267076E-3   2.409721908653960E-4  
 2.037200000000000E10    2.524732419485112E-3  -3.061733240215683E-4  
 2.037400000000000E10    2.325208509846786E-3  -6.768997057260555E-4  
 2.037600000000000E10    2.154117340888875E-3  -1.020450708398849E-3  
 2.037800000000000E10    1.930449787458336E-3  -1.358083013824567E-3  
 2.038000000000000E10    1.640077144263979E-3  -1.662132601874570E-3  
 2.038200000000000E10    1.300995312861087E-3  -1.906792532629621E-3  
 2.038400000000000E10    9.180878470134406E-4  -2.077788275517064E-3  
 2.038600000000000E10    5.492106917958110E-4  -2.124779248311196E-3  
 2.038800000000000E10    2.730156217391293E-4  -2.178783999916948E-3  
 2.039000000000000E10   -1.116126228158397E-4  -2.291056140682396E-3  
 2.039200000000000E10   -6.048091411314630E-4  -2.249885796005895E-3  
 2.039400000000000E10   -1.024241529025690E-3  -2.043420437401460E-3  
 2.039600000000000E10   -1.308517290543719E-3  -1.786544996624192E-3  
 2.039800000000000E10   -1.555845871521735E-3  -1.554437513451702E-3  
 2.040000000000000E10   -1.844100600947845E-3  -1.319384080196880E-3  
 2.040200000000000E10   -2.156723943182532E-3  -9.735735179281532E-4  
 2.040400000000000E10   -2.379311153803159E-3  -4.725632078824911E-4  
 2.040600000000000E10   -2.398190720949644E-3   1.110684018464253E-4  
 2.040800000000000E10   -2.206446602940559E-3   6.228412528821257E-4  
 2.041000000000000E10   -1.910748734874766E-3   9.840762567487949E-4  
 2.041200000000000E10   -1.645614988067084E-3   1.169543776569175E-3  
 2.041400000000000E10   -1.484784036069925E-3   1.342050117486513E-3  
 2.041600000000000E10   -1.321915238175863E-3   1.596383388257689E-3  
 2.041800000000000E10   -1.050724959817290E-3   1.886717986637428E-3  
 2.042000000000000E10   -6.606589936662788E-4   2.144390058899184E-3  
 2.042200000000000E10   -1.465763009126718E-4   2.272784198277895E-3  
 2.042400000000000E10    3.557913220486817E-4   2.202880905113287E-3  
 2.042600000000000E10    7.807493100609679E-4   2.050311646688684E-3  
 2.042800000000000E10    1.196655850098641E-3   1.788351316878825E-3  
 2.043000000000000E10    1.447914004394854E-3   1.376445254276472E-3  
 2.043200000000000E10    1.490186194222375E-3   1.054329977997429E-3  
 2.043400000000000E10    1.532820143943860E-3   8.832342990237164E-4  
 2.043600000000000E10    1.649038147549203E-3   7.410681803630276E-4  
 2.043800000000000E10    1.841694125215765E-3   5.013451359614180E-4  
 2.044000000000000E10    1.922971583373937E-3   1.494222113835327E-4  
 2.044200000000000E10    1.930336051126138E-3  -1.091413653705752E-4  
 2.044400000000000E10    2.028022533466603E-3  -3.502569373346360E-4  
 2.044600000000000E10    2.159587395044021E-3  -7.504825257512247E-4  
 2.044800000000000E10    2.140249105538299E-3  -1.358565917514541E-3  
 2.045000000000000E10    1.787715666226031E-3  -1.990609437250245E-3  
 2.045200000000000E10    1.211591585205845E-3  -2.396348789104341E-3  
 2.045400000000000E10    5.791729048791308E-4  -2.558244696967764E-3  
 2.045600000000000E10    1.583589583327766E-5  -2.507916346974211E-3  
 2.045800000000000E10   -4.412556583791926E-4  -2.380946791949280E-3  
 2.046000000000000E10   -8.383969363848462E-4  -2.219803294994765E-3  
 2.046200000000000E10   -1.195895876505493E-3  -2.058826274824916E-3  
 2.046400000000000E10   -1.626117094592364E-3  -1.830423719330151E-3  
 2.046600000000000E10   -1.988233535631020E-3  -1.375006659841740E-3  
 2.046800000000000E10   -2.096242576055689E-3  -8.665902941073810E-4  
 2.047000000000000E10   -2.030254807323217E-3  -4.963315164607110E-4  
 2.047200000000000E10   -1.999702431077575E-3  -2.713798695131792E-4  
 2.047400000000000E10   -2.030070184120610E-3  -3.111702496010559E-5  
 2.047600000000000E10   -2.031674956396958E-3   2.615319429839283E-4  
 2.047800000000000E10   -1.985958101871757E-3   5.295630997150310E-4  
 2.048000000000000E10   -1.959337562575569E-3   7.867431009395256E-4  
 2.048200000000000E10   -1.964331522618455E-3   1.105428028012408E-3  
 2.048400000000000E10   -1.871315467769257E-3   1.566983098279179E-3  
 2.048600000000000E10   -1.537674375418804E-3   1.999513783641620E-3  
 2.048800000000000E10   -1.117490716336042E-3   2.238267219199995E-3  
 2.049000000000000E10   -7.679236486531152E-4   2.377779231648202E-3  
 2.049200000000000E10   -4.295306488653117E-4   2.509769302344433E-3  
 2.049400000000000E10   -8.446843904819638E-5   2.668362300567054E-3  
 2.049600000000000E10    3.900343162743490E-4   2.837028820067645E-3  
 2.049800000000000E10    1.035010489566183E-3   2.865062802340146E-3  
 2.050000000000000E10    1.688204862372835E-3   2.673563587674756E-3  
 2.050200000000000E10    2.273462896729694E-3   2.327174411074799E-3  
 2.050400000000000E10    2.812102345036872E-3   1.829288638323362E-3  
 2.050600000000000E10    3.196001173583447E-3   1.131772847679432E-3  
 2.050800000000000E10    3.262587210715370E-3   3.484053337654778E-4  
 2.051000000000000E10    3.104061359700598E-3  -2.574998749575268E-4  
 2.051200000000000E10    2.925455780055973E-3  -7.510215294098967E-4  
 2.051400000000000E10    2.660078651927136E-3  -1.215081886146908E-3  
 2.051600000000000E10    2.324749557531359E-3  -1.541862807547053E-3  
 2.051800000000000E10    2.057945292535020E-3  -1.766788442676634E-3  
 2.052000000000000E10    1.828472789687415E-3  -2.010416863256215E-3  
 2.052200000000000E10    1.616614827610277E-3  -2.263898995739443E-3  
 2.052400000000000E10    1.366088028859209E-3  -2.626723977794618E-3  
 2.052600000000000E10    8.851261744793091E-4  -2.975296895997025E-3  
 2.052800000000000E10    3.199900948172321E-4  -3.125124378129841E-3  
 2.053000000000000E10   -1.965384915281363E-4  -3.180752108793384E-3  
 2.053200000000000E10   -7.707085129862399E-4  -3.192222887006256E-3  
 2.053400000000000E10   -1.382536553766257E-3  -3.034139164137069E-3  
 2.053600000000000E10   -1.932285189985034E-3  -2.769190070713744E-3  
 2.053800000000000E10   -2.465666915623495E-3  -2.363206562873575E-3  
 2.054000000000000E10   -2.836057266657368E-3  -1.845983837236777E-3  
 2.054200000000000E10   -3.130024827924776E-3  -1.343086887909859E-3  
 2.054400000000000E10   -3.340040902710624E-3  -7.442061302114141E-4  
 2.054600000000000E10   -3.401269342888285E-3  -1.117303386477202E-4  
 2.054800000000000E10   -3.332029139898994E-3   5.160461849659498E-4  
 2.055000000000000E10   -3.106716977156423E-3   1.083955756549574E-3  
 2.055200000000000E10   -2.762102887011421E-3   1.557605572470269E-3  
 2.055400000000000E10   -2.371001821931130E-3   1.825010677063723E-3  
 2.055600000000000E10   -2.127309375798997E-3   1.990767269119345E-3  
