#  HZ   S   RI   R     50.00 
! Rohde & Schwarz ZVA40 4Ports - Version 3.90 - 1145.1110k42 SN: 100403
! Date: 2023-10-03 10:16:43
! Measurement: S12 
! 
 2.000000000000000E10    8.934051300966233E-4  -4.838504906512132E-5  
 2.000200000000000E10    8.049837992442274E-4  -7.394351721013065E-5  
 2.000400000000000E10    6.998483965426317E-4  -1.733297028328740E-5  
 2.000600000000000E10    7.774132833750958E-4   1.867768806422134E-4  
 2.000800000000000E10    1.161331312784565E-3   2.037478179585596E-4  
 2.001000000000000E10    1.543530525540006E-3  -1.807825158013859E-4  
 2.001200000000000E10    1.556899678345325E-3  -8.493660735502962E-4  
 2.001400000000000E10    1.098341484354817E-3  -1.344590558030417E-3  
 2.001600000000000E10    5.560422554773130E-4  -1.411430040420390E-3  
 2.001800000000000E10    2.162165361563886E-4  -1.278978351354139E-3  
 2.002000000000000E10    5.500432381369239E-5  -1.130300070017331E-3  
 2.002200000000000E10   -1.264243948581407E-5  -1.020764775378745E-3  
 2.002400000000000E10    1.575881017634546E-5  -1.050974514983104E-3  
 2.002600000000000E10   -9.183037785119512E-5  -1.234417979571003E-3  
 2.002800000000000E10   -4.290146141173127E-4  -1.412288102305996E-3  
 2.003000000000000E10   -9.631366208348992E-4  -1.301740415474791E-3  
 2.003200000000000E10   -1.317349992167404E-3  -8.288531213492893E-4  
 2.003400000000000E10   -1.290091079632932E-3  -3.287746719996840E-4  
 2.003600000000000E10   -1.096803099951810E-3  -2.679772038957949E-5  
 2.003800000000000E10   -9.306837314042293E-4   8.753270790873885E-5  
 2.004000000000000E10   -8.513643475797473E-4   2.067012104435204E-4  
 2.004200000000000E10   -6.873415358586875E-4   3.301308055814555E-4  
 2.004400000000000E10   -5.018454051764353E-4   3.059915141892378E-4  
 2.004600000000000E10   -4.097791073638793E-4   1.820614124282260E-4  
 2.004800000000000E10   -5.056569496468630E-4   5.255219487783809E-5  
 2.005000000000000E10   -7.120318552230030E-4   1.052287069171832E-4  
 2.005200000000000E10   -8.213353224018198E-4   3.376116764390604E-4  
 2.005400000000000E10   -7.466652788463292E-4   6.278644087379454E-4  
 2.005600000000000E10   -5.138261629835753E-4   7.658795103403921E-4  
 2.005800000000000E10   -3.972535136341666E-4   7.992447042500471E-4  
 2.006000000000000E10   -2.380685388290711E-4   9.212855785249623E-4  
 2.006200000000000E10   -1.458768376114266E-5   9.446722879783547E-4  
 2.006400000000000E10    1.491708891181689E-4   8.759509104710274E-4  
 2.006600000000000E10    2.384807814129172E-4   8.537573061994596E-4  
 2.006800000000000E10    4.106387639717188E-4   8.781683938328653E-4  
 2.007000000000000E10    6.529820877905369E-4   8.119550416698304E-4  
 2.007200000000000E10    9.119649402847048E-4   6.209782709428897E-4  
 2.007400000000000E10    1.043029980822141E-3   2.439486568529205E-4  
 2.007600000000000E10    8.743557050908484E-4  -1.131241355803239E-4  
 2.007800000000000E10    6.471037212663442E-4  -1.703245517118200E-4  
 2.008000000000000E10    6.128069362603129E-4  -1.413215075355069E-4  
 2.008200000000000E10    6.381055676002716E-4  -1.950243933134954E-4  
 2.008400000000000E10    6.601588355967538E-4  -3.110804391925228E-4  
 2.008600000000000E10    6.236323726041542E-4  -4.907928672120926E-4  
 2.008800000000000E10    4.816724664393675E-4  -6.322076320437401E-4  
 2.009000000000000E10    3.519199745214081E-4  -6.968829135981547E-4  
 2.009200000000000E10    1.960368429951623E-4  -7.857602396730811E-4  
 2.009400000000000E10   -3.507871624157064E-5  -8.051932713691408E-4  
 2.009600000000000E10   -2.323221575172710E-4  -7.080261592193672E-4  
 2.009800000000000E10   -3.381297204292805E-4  -5.631020415762110E-4  
 2.010000000000000E10   -3.552776363720436E-4  -4.770709762211752E-4  
 2.010200000000000E10   -3.806463166795396E-4  -4.460756594378410E-4  
 2.010400000000000E10   -4.401036729574312E-4  -4.695419339729482E-4  
 2.010600000000000E10   -6.107081560448672E-4  -4.734521374344030E-4  
 2.010800000000000E10   -8.252305527210024E-4  -3.127592838313738E-4  
 2.011000000000000E10   -9.064241149558576E-4  -3.130543241671378E-5  
 2.011200000000000E10   -8.487883553295993E-4   2.102621527625356E-4  
 2.011400000000000E10   -7.450742064496129E-4   3.995297432574348E-4  
 2.011600000000000E10   -5.798703212858229E-4   5.768465087557435E-4  
 2.011800000000000E10   -3.351204606528115E-4   6.069029933378225E-4  
 2.012000000000000E10   -2.323960899298728E-4   4.892212819258220E-4  
 2.012200000000000E10   -3.053834137253832E-4   4.318192197103821E-4  
 2.012400000000000E10   -4.073976794901638E-4   5.757866866614502E-4  
 2.012600000000000E10   -3.221936645120413E-4   8.267854664229440E-4  
 2.012800000000000E10   -6.510560382998342E-5   9.397029361223857E-4  
 2.013000000000000E10    1.332072098931076E-4   9.348708985338885E-4  
 2.013200000000000E10    3.155566377799054E-4   9.551663148128756E-4  
 2.013400000000000E10    5.702163131597142E-4   8.701409238156837E-4  
 2.013600000000000E10    7.054216650970005E-4   6.734099813522351E-4  
 2.013800000000000E10    7.096458019960842E-4   5.757451752572486E-4  
 2.014000000000000E10    7.545608610830774E-4   6.064938962432737E-4  
 2.014200000000000E10    9.926071408714473E-4   6.742951919615976E-4  
 2.014400000000000E10    1.391862702092210E-3   5.424221900460377E-4  
 2.014600000000000E10    1.705076902388086E-3   1.404019830609028E-4  
 2.014800000000000E10    1.795475385075152E-3  -4.294864759577340E-4  
 2.015000000000000E10    1.620857831217165E-3  -9.708284228415433E-4  
 2.015200000000000E10    1.295373183406828E-3  -1.344331649396523E-3  
 2.015400000000000E10    8.871334541681005E-4  -1.608061771399108E-3  
 2.015600000000000E10    3.968110437880543E-4  -1.672567928558668E-3  
 2.015800000000000E10    3.877175303959694E-5  -1.543617293759874E-3  
 2.016000000000000E10   -1.296739007366454E-4  -1.393374440321553E-3  
 2.016200000000000E10   -2.164576082742379E-4  -1.334643461396573E-3  
 2.016400000000000E10   -3.096263649932842E-4  -1.372695239854846E-3  
 2.016600000000000E10   -5.095012708990586E-4  -1.448815687532717E-3  
 2.016800000000000E10   -8.172148957449960E-4  -1.438739378035927E-3  
 2.017000000000000E10   -1.119301333417925E-3  -1.315602641782643E-3  
 2.017200000000000E10   -1.359614773093888E-3  -1.110444953013595E-3  
 2.017400000000000E10   -1.531786660456823E-3  -9.267065200260976E-4  
 2.017600000000000E10   -1.786622935005391E-3  -7.635015228268818E-4  
 2.017800000000000E10   -2.075603340058722E-3  -4.062760491240310E-4  
 2.018000000000000E10   -2.191412486825829E-3   6.166431233586881E-5  
 2.018200000000000E10   -2.193031720472155E-3   5.278799456732018E-4  
 2.018400000000000E10   -2.050186477701176E-3   9.991624485988769E-4  
 2.018600000000000E10   -1.800862330667399E-3   1.379289919196211E-3  
 2.018800000000000E10   -1.467207992361253E-3   1.670241972466034E-3  
 2.019000000000000E10   -1.138005355840603E-3   1.836205211778482E-3  
 2.019200000000000E10   -8.585673547062426E-4   1.962524006112552E-3  
 2.019400000000000E10   -5.772601280825160E-4   2.105376702338580E-3  
 2.019600000000000E10   -1.979644779559539E-4   2.233064695119613E-3  
 2.019800000000000E10    2.259107745492567E-4   2.193690628319243E-3  
 2.020000000000000E10    4.898423031729421E-4   2.071046232104057E-3  
 2.020200000000000E10    6.504022229344052E-4   2.049858980800635E-3  
 2.020400000000000E10    9.524563194248719E-4   2.193534969057076E-3  
 2.020600000000000E10    1.548992421041117E-3   2.220530380061809E-3  
 2.020800000000000E10    2.216029517475225E-3   1.904214652343328E-3  
 2.021000000000000E10    2.678186489928345E-3   1.226651557019831E-3  
 2.021200000000000E10    2.719131446876583E-3   4.811353493796149E-4  
 2.021400000000000E10    2.543145662303938E-3  -9.822338064241423E-6  
 2.021600000000000E10    2.342673034863279E-3  -3.476916628395334E-4  
 2.021800000000000E10    2.183873471784801E-3  -5.534794943315197E-4  
 2.022000000000000E10    2.189192200393834E-3  -6.888097805093684E-4  
 2.022200000000000E10    2.316187986713133E-3  -1.009030187351116E-3  
 2.022400000000000E10    2.316670717456888E-3  -1.593447566308357E-3  
 2.022600000000000E10    1.993226199774953E-3  -2.217659674040636E-3  
 2.022800000000000E10    1.450407320687187E-3  -2.679752805864309E-3  
 2.023000000000000E10    7.608233033123700E-4  -2.949807864763303E-3  
 2.023200000000000E10    2.838857298278072E-6  -2.953901337919597E-3  
 2.023400000000000E10   -6.533908435438642E-4  -2.659691417198858E-3  
 2.023600000000000E10   -1.033091458679779E-3  -2.243617428811612E-3  
 2.023800000000000E10   -1.228657706809296E-3  -1.887684053197166E-3  
 2.024000000000000E10   -1.340763698956726E-3  -1.568556087735443E-3  
 2.024200000000000E10   -1.349305226218431E-3  -1.298106908357469E-3  
 2.024400000000000E10   -1.311547970859173E-3  -1.176742576695059E-3  
 2.024600000000000E10   -1.387591323328546E-3  -1.193742921246300E-3  
 2.024800000000000E10   -1.625316810637038E-3  -1.163430199115212E-3  
 2.025000000000000E10   -1.914315083286430E-3  -1.002475715610256E-3  
 2.025200000000000E10   -2.202818101203001E-3  -7.157053878921786E-4  
 2.025400000000000E10   -2.410791059304412E-3  -3.128022207244235E-4  
 2.025600000000000E10   -2.518010489573634E-3   1.941399071260199E-4  
 2.025800000000000E10   -2.465653476600417E-3   7.086464744291189E-4  
 2.026000000000000E10   -2.264022912423859E-3   1.170864539056127E-3  
 2.026200000000000E10   -1.983191566005227E-3   1.575341337521411E-3  
 2.026400000000000E10   -1.629651280756228E-3   1.894522852593949E-3  
 2.026600000000000E10   -1.206658762369934E-3   2.158364534968273E-3  
 2.026800000000000E10   -6.540993869557611E-4   2.266129703019505E-3  
 2.027000000000000E10   -1.773744777952601E-4   2.116770316835171E-3  
 2.027200000000000E10    8.426500382220543E-5   1.855074854399013E-3  
 2.027400000000000E10    1.763209016165321E-4   1.662474416422470E-3  
 2.027600000000000E10    1.849897751137193E-4   1.603888112039846E-3  
 2.027800000000000E10    1.974052347989232E-4   1.734923584762302E-3  
 2.028000000000000E10    4.444324430375295E-4   1.966924687326262E-3  
 2.028200000000000E10    9.029515352533220E-4   2.081263162686256E-3  
 2.028400000000000E10    1.470656081489882E-3   1.969924994740528E-3  
 2.028600000000000E10    1.951620567191408E-3   1.541422785416921E-3  
 2.028800000000000E10    2.155845503824852E-3   1.008588580200027E-3  
 2.029000000000000E10    2.181471802616193E-3   5.529817287645345E-4  
 2.029200000000000E10    2.121975269827823E-3   1.416569328344707E-4  
 2.029400000000000E10    1.969522708421382E-3  -1.821942184165450E-4  
 2.029600000000000E10    1.806409674535655E-3  -3.707846882944705E-4  
 2.029800000000000E10    1.730865627860674E-3  -4.853916422985189E-4  
 2.030000000000000E10    1.710872072439043E-3  -6.366050771031331E-4  
 2.030200000000000E10    1.745093817470036E-3  -8.258662560720903E-4  
 2.030400000000000E10    1.800830296811805E-3  -1.170170620378920E-3  
 2.030600000000000E10    1.646796674007712E-3  -1.673306326991246E-3  
 2.030800000000000E10    1.184292671312827E-3  -2.071948957709987E-3  
 2.031000000000000E10    6.589670902704476E-4  -2.193093104402960E-3  
 2.031200000000000E10    1.959418586920947E-4  -2.139245129263205E-3  
 2.031400000000000E10   -1.753196344828739E-4  -2.005331412747257E-3  
 2.031600000000000E10   -4.270001659035653E-4  -1.822188537790145E-3  
 2.031800000000000E10   -5.757127667646933E-4  -1.670995508723053E-3  
 2.032000000000000E10   -7.517589040583483E-4  -1.542731075654949E-3  
 2.032200000000000E10   -8.423932432292851E-4  -1.406009646262897E-3  
 2.032400000000000E10   -8.934279599556616E-4  -1.397136480972907E-3  
 2.032600000000000E10   -1.096720509269417E-3  -1.430108156840896E-3  
 2.032800000000000E10   -1.381454603179308E-3  -1.361670126801227E-3  
 2.033000000000000E10   -1.662721507224435E-3  -1.213450674657469E-3  
 2.033200000000000E10   -1.918673698326627E-3  -9.708565649281377E-4  
 2.033400000000000E10   -2.180043375119567E-3  -7.165936585956488E-4  
 2.033600000000000E10   -2.425200816573491E-3  -5.984405664546961E-4  
 2.033800000000000E10   -2.691646948755708E-3   2.418542453260334E-4  
 2.034000000000000E10   -2.623563821124749E-3   9.685764055691446E-4  
 2.034200000000000E10   -2.284581899458980E-3   1.596629997109803E-3  
 2.034400000000000E10   -1.765075890412516E-3   1.994456016983638E-3  
 2.034600000000000E10   -1.233714237931825E-3   2.185671622845740E-3  
 2.034800000000000E10   -7.213276141196674E-4   2.227732589767303E-3  
 2.035000000000000E10   -2.639700626042277E-4   2.111729204754342E-3  
 2.035200000000000E10    3.319839024585729E-5   1.881215136896804E-3  
 2.035400000000000E10    1.117712242746536E-4   1.670440329802165E-3  
 2.035600000000000E10    4.839348075470652E-5   1.628917495819737E-3  
 2.035800000000000E10    7.464588749364127E-5   1.857479467965019E-3  
 2.036000000000000E10    3.992692979892003E-4   2.186480500455563E-3  
 2.036200000000000E10    1.011089684821114E-3   2.330316731767584E-3  
 2.036400000000000E10    1.657745806182210E-3   2.123510648032704E-3  
 2.036600000000000E10    2.166507479163661E-3   1.711314421917462E-3  
 2.036800000000000E10    2.519975399115572E-3   1.124610792157536E-3  
 2.037000000000000E10    2.589244620659899E-3   4.666282486605532E-4  
 2.037200000000000E10    2.450278597987361E-3  -1.029690212944767E-5  
 2.037400000000000E10    2.341164145695330E-3  -3.154804107757983E-4  
 2.037600000000000E10    2.289389291732216E-3  -6.554676313240680E-4  
 2.037800000000000E10    2.190596038866559E-3  -1.074828605604485E-3  
 2.038000000000000E10    1.970761721482340E-3  -1.502460886823941E-3  
 2.038200000000000E10    1.648486699188443E-3  -1.849062363291351E-3  
 2.038400000000000E10    1.245774415421296E-3  -2.103369798005364E-3  
 2.038600000000000E10    8.520267878892859E-4  -2.198722800853138E-3  
 2.038800000000000E10    5.557956921373622E-4  -2.304769535989735E-3  
 2.039000000000000E10    1.221087790806222E-4  -2.486715606823871E-3  
 2.039200000000000E10   -4.292864013758370E-4  -2.481027827272384E-3  
 2.039400000000000E10   -8.872179520496556E-4  -2.267602099098051E-3  
 2.039600000000000E10   -1.213841726179446E-3  -2.010041441569113E-3  
 2.039800000000000E10   -1.491683237772021E-3  -1.795960859962789E-3  
 2.040000000000000E10   -1.816007418370204E-3  -1.614532748681835E-3  
 2.040200000000000E10   -2.195736286019593E-3  -1.322644624721121E-3  
 2.040400000000000E10   -2.534238947363793E-3  -8.344297518152669E-4  
 2.040600000000000E10   -2.672243713872668E-3  -2.054486851245759E-4  
 2.040800000000000E10   -2.560131823828007E-3   4.087243172380338E-4  
 2.041000000000000E10   -2.298845592387972E-3   8.801896814467701E-4  
 2.041200000000000E10   -2.028072869918720E-3   1.168806979206579E-3  
 2.041400000000000E10   -1.826566704376428E-3   1.422375971413076E-3  
 2.041600000000000E10   -1.623932909366096E-3   1.749971537053616E-3  
 2.041800000000000E10   -1.308356200003759E-3   2.108900723480639E-3  
 2.042000000000000E10   -8.698288598500286E-4   2.427548067567587E-3  
 2.042200000000000E10   -2.838834533812824E-4   2.584703774440559E-3  
 2.042400000000000E10    2.824318655833618E-4   2.522311037322009E-3  
 2.042600000000000E10    7.654032157350777E-4   2.370500477191843E-3  
 2.042800000000000E10    1.260438333687070E-3   2.110708214595546E-3  
 2.043000000000000E10    1.587123521929416E-3   1.675341095307789E-3  
 2.043200000000000E10    1.655315333563421E-3   1.295008898785514E-3  
 2.043400000000000E10    1.711270089717314E-3   1.062816599146329E-3  
 2.043600000000000E10    1.860683157258196E-3   8.851999302927421E-4  
 2.043800000000000E10    2.093341099021673E-3   6.443444206360192E-4  
 2.044000000000000E10    2.245852826239825E-3   2.853690681681076E-4  
 2.044200000000000E10    2.316234396663284E-3  -6.246570199347146E-5  
 2.044400000000000E10    2.411296895854636E-3  -4.138254331532146E-4  
 2.044600000000000E10    2.515056010511984E-3  -9.329849628946236E-4  
 2.044800000000000E10    2.430973070531839E-3  -1.635014690332299E-3  
 2.045000000000000E10    1.999772129361920E-3  -2.294535563737461E-3  
 2.045200000000000E10    1.354566366131966E-3  -2.722933014601837E-3  
 2.045400000000000E10    6.284530412543703E-4  -2.918195202678381E-3  
 2.045600000000000E10   -2.459768089884987E-5  -2.879864599463749E-3  
 2.045800000000000E10   -5.267429442926783E-4  -2.744025076498036E-3  
 2.046000000000000E10   -1.008331058010336E-3  -2.572006910058207E-3  
 2.046200000000000E10   -1.449297449586016E-3  -2.356030453195788E-3  
 2.046400000000000E10   -1.929837564071602E-3  -2.044574178874094E-3  
 2.046600000000000E10   -2.325614579903430E-3  -1.510788096352615E-3  
 2.046800000000000E10   -2.433163227912024E-3  -9.295258181430247E-4  
 2.047000000000000E10   -2.365383290812190E-3  -4.985031544627554E-4  
 2.047200000000000E10   -2.290546758974224E-3  -1.801051822653397E-4  
 2.047400000000000E10   -2.279339815248494E-3   9.814249972023315E-5  
 2.047600000000000E10   -2.288071453042420E-3   4.215080024187795E-4  
 2.047800000000000E10   -2.247377282483772E-3   7.330413944655149E-4  
 2.048000000000000E10   -2.198755620392385E-3   1.062180025794317E-3  
 2.048200000000000E10   -2.121583588321698E-3   1.441880115384520E-3  
 2.048400000000000E10   -1.926026810554658E-3   1.930548780245147E-3  
 2.048600000000000E10   -1.509294373753631E-3   2.354208374234998E-3  
 2.048800000000000E10   -1.037545958744677E-3   2.566080276927156E-3  
 2.049000000000000E10   -6.275165655052314E-4   2.672775317014123E-3  
 2.049200000000000E10   -2.195663102102416E-4   2.784824367696918E-3  
 2.049400000000000E10    2.209720990587977E-4   2.888004773645183E-3  
 2.049600000000000E10    7.331996704375088E-4   2.976785321938404E-3  
 2.049800000000000E10    1.371503022878810E-3   2.940778632997057E-3  
 2.050000000000000E10    2.013264977997897E-3   2.685920431167501E-3  
 2.050200000000000E10    2.612184547271136E-3   2.293555935990418E-3  
 2.050400000000000E10    3.169633923366728E-3   1.720094167504751E-3  
 2.050600000000000E10    3.545884271976328E-3   9.187078469915800E-4  
 2.050800000000000E10    3.545263464037529E-3   4.140291140200869E-5  
 2.051000000000000E10    3.275377513005288E-3  -6.520994428694709E-4  
 2.051200000000000E10    2.966558941114894E-3  -1.190116314731017E-3  
 2.051400000000000E10    2.591191853277784E-3  -1.644517704192933E-3  
 2.051600000000000E10    2.184645379146125E-3  -1.923979770721784E-3  
 2.051800000000000E10    1.861576884390917E-3  -2.089017161375119E-3  
 2.052000000000000E10    1.578579510661770E-3  -2.273112507690312E-3  
 2.052200000000000E10    1.303093010126594E-3  -2.460610194308032E-3  
 2.052400000000000E10    1.039692995506397E-3  -2.748805660670125E-3  
 2.052600000000000E10    5.427762629356957E-4  -3.039280310035550E-3  
 2.052800000000000E10   -3.420386594460766E-5  -3.090257559032966E-3  
 2.053000000000000E10   -5.174791923036163E-4  -3.038011486507923E-3  
 2.053200000000000E10   -1.035577092519023E-3  -2.979574911871259E-3  
 2.053400000000000E10   -1.574832215472106E-3  -2.815503210266248E-3  
 2.053600000000000E10   -2.082152016184949E-3  -2.564569953407464E-3  
 2.053800000000000E10   -2.579692429230537E-3  -2.169790401778840E-3  
 2.054000000000000E10   -2.932144010845772E-3  -1.642018008532593E-3  
 2.054200000000000E10   -3.214030293747784E-3  -1.106356973414896E-3  
 2.054400000000000E10   -3.401140703478591E-3  -4.525466134854107E-4  
 2.054600000000000E10   -3.377962536504302E-3   2.100847759346359E-4  
 2.054800000000000E10   -3.207768731340461E-3   8.229191765695077E-4  
 2.055000000000000E10   -2.908904755051122E-3   1.362921291609667E-3  
 2.055200000000000E10   -2.514057769727560E-3   1.793812687313299E-3  
 2.055400000000000E10   -2.104726465756204E-3   2.019398180296484E-3  
 2.055600000000000E10   -1.834905771979365E-3   2.145312850099103E-3  
