#  HZ   S   RI   R     50.00 
! Rohde & Schwarz ZVA40 4Ports - Version 3.90 - 1145.1110k42 SN: 100403
! Date: 2023-10-03 10:15:45
! Measurement: S12 
! 
 2.000000000000000E10    7.676206662802509E-4  -4.538296523179147E-5  
 2.000200000000000E10    7.215366378300077E-4  -1.177843656256459E-5  
 2.000400000000000E10    6.747881897702171E-4   5.058244670057499E-5  
 2.000600000000000E10    7.976609020620403E-4   1.935388754196695E-4  
 2.000800000000000E10    1.149185767891690E-3   1.572099268899219E-4  
 2.001000000000000E10    1.475998620146219E-3  -2.437553567564644E-4  
 2.001200000000000E10    1.435229691308866E-3  -8.848375701173037E-4  
 2.001400000000000E10    9.471167951109417E-4  -1.302312562288142E-3  
 2.001600000000000E10    4.555645602163112E-4  -1.308924850524852E-3  
 2.001800000000000E10    1.841824834830024E-4  -1.162340654704122E-3  
 2.002000000000000E10    5.801116950115775E-5  -1.018412395403433E-3  
 2.002200000000000E10    2.353021867478404E-5  -9.211438347263562E-4  
 2.002400000000000E10    5.893102080998137E-5  -9.663171051530007E-4  
 2.002600000000000E10   -3.485261554431667E-5  -1.158963677611340E-3  
 2.002800000000000E10   -3.641041848710797E-4  -1.319413244390837E-3  
 2.003000000000000E10   -8.490373772844949E-4  -1.226734203274971E-3  
 2.003200000000000E10   -1.190946384241092E-3  -8.054960110903157E-4  
 2.003400000000000E10   -1.180755070778599E-3  -3.401267958120846E-4  
 2.003600000000000E10   -9.832129149732216E-4  -7.230251791087887E-5  
 2.003800000000000E10   -8.289541799092184E-4  -1.196637934714807E-5  
 2.004000000000000E10   -7.938620358429575E-4   6.337843436164279E-5  
 2.004200000000000E10   -6.995388776650308E-4   1.760097967897669E-4  
 2.004400000000000E10   -5.562828859475293E-4   1.999693462786116E-4  
 2.004600000000000E10   -4.782382647483898E-4   1.117370558836509E-4  
 2.004800000000000E10   -5.772182010804062E-4   2.172837679171170E-5  
 2.005000000000000E10   -7.486177427280281E-4   1.189983872061504E-4  
 2.005200000000000E10   -8.326587906785679E-4   3.423265021231118E-4  
 2.005400000000000E10   -7.525784255258373E-4   6.064411315974999E-4  
 2.005600000000000E10   -5.456280152968787E-4   7.368628910087326E-4  
 2.005800000000000E10   -4.545700654421969E-4   7.694108845712044E-4  
 2.006000000000000E10   -3.437358906843275E-4   9.155800338995494E-4  
 2.006200000000000E10   -1.157749356036535E-4   9.932066701973479E-4  
 2.006400000000000E10    9.074774865394484E-5   9.709966748400972E-4  
 2.006600000000000E10    2.488460070899125E-4   9.326200054119125E-4  
 2.006800000000000E10    4.456485912669451E-4   9.109262372712020E-4  
 2.007000000000000E10    6.685457019894212E-4   8.057072308822824E-4  
 2.007200000000000E10    8.790252333575930E-4   6.199063852509875E-4  
 2.007400000000000E10    9.894540309216139E-4   2.916498177247927E-4  
 2.007600000000000E10    8.480164867733825E-4   6.593742943584426E-6  
 2.007800000000000E10    7.030309564548972E-4  -1.080776746675839E-5  
 2.008000000000000E10    7.507927043156492E-4  -2.677952139537761E-5  
 2.008200000000000E10    8.270339321713022E-4  -1.610996585014495E-4  
 2.008400000000000E10    8.492262438974448E-4  -3.789995332035800E-4  
 2.008600000000000E10    7.505729014088435E-4  -6.513071568383848E-4  
 2.008800000000000E10    4.766195240706482E-4  -8.334676407415559E-4  
 2.009000000000000E10    2.431631466247326E-4  -8.625116811513350E-4  
 2.009200000000000E10    4.457053503835068E-5  -8.676839061081412E-4  
 2.009400000000000E10   -1.722992767750884E-4  -8.130306909780629E-4  
 2.009600000000000E10   -3.235813797621149E-4  -6.749923333790108E-4  
 2.009800000000000E10   -3.768614688054602E-4  -5.263291280659169E-4  
 2.010000000000000E10   -3.613727828372777E-4  -4.680139604771948E-4  
 2.010200000000000E10   -3.835586324351392E-4  -4.665627665990206E-4  
 2.010400000000000E10   -4.798728587496797E-4  -4.995524937884859E-4  
 2.010600000000000E10   -6.795868264614709E-4  -4.689120421657500E-4  
 2.010800000000000E10   -8.892245306116012E-4  -2.723023486553611E-4  
 2.011000000000000E10   -9.459902727861464E-4   3.390551085060536E-5  
 2.011200000000000E10   -8.517267300321917E-4   2.848174107508205E-4  
 2.011400000000000E10   -7.452947571931155E-4   4.382932958923235E-4  
 2.011600000000000E10   -6.074276156321077E-4   5.940121827060702E-4  
 2.011800000000000E10   -3.930651647452679E-4   6.501120939149442E-4  
 2.012000000000000E10   -2.770514599691479E-4   5.684459724256563E-4  
 2.012200000000000E10   -3.191136613482449E-4   5.409226509926404E-4  
 2.012400000000000E10   -3.762661531872266E-4   6.958097708124071E-4  
 2.012600000000000E10   -2.136059282534400E-4   9.423234617843489E-4  
 2.012800000000000E10    9.921914489147900E-5   9.866136680989539E-4  
 2.013000000000000E10    3.013321493873028E-4   8.872759278380762E-4  
 2.013200000000000E10    4.278833167282520E-4   8.431659928051595E-4  
 2.013400000000000E10    6.059555338270228E-4   7.570273901140434E-4  
 2.013600000000000E10    6.799943469188832E-4   6.145763801652250E-4  
 2.013800000000000E10    6.962009658174659E-4   5.886471861927414E-4  
 2.014000000000000E10    8.246712041673839E-4   6.378656188543473E-4  
 2.014200000000000E10    1.120570276714402E-3   6.579667370030541E-4  
 2.014400000000000E10    1.534185238630960E-3   4.339194676930798E-4  
 2.014600000000000E10    1.797864538398974E-3  -7.007869777383204E-5  
 2.014800000000000E10    1.788200514483047E-3  -6.634545567112022E-4  
 2.015000000000000E10    1.516813958454647E-3  -1.179581709252096E-3  
 2.015200000000000E10    1.130948343348724E-3  -1.510073149139867E-3  
 2.015400000000000E10    6.878252671514121E-4  -1.711147925011630E-3  
 2.015600000000000E10    2.048016571796235E-4  -1.715200566571712E-3  
 2.015800000000000E10   -1.345573843458242E-4  -1.534180268702776E-3  
 2.016000000000000E10   -2.767596254412683E-4  -1.344137372345560E-3  
 2.016200000000000E10   -3.402533270504878E-4  -1.269807869476485E-3  
 2.016400000000000E10   -4.120805785117419E-4  -1.274095310680108E-3  
 2.016600000000000E10   -5.831495660391672E-4  -1.347710310918406E-3  
 2.016800000000000E10   -8.694919855276377E-4  -1.344561601276107E-3  
 2.017000000000000E10   -1.161307552082027E-3  -1.238316050328223E-3  
 2.017200000000000E10   -1.417065602669746E-3  -1.048485327362554E-3  
 2.017400000000000E10   -1.591729215794692E-3  -8.480522794545526E-4  
 2.017600000000000E10   -1.835663125988234E-3  -6.739806712972990E-4  
 2.017800000000000E10   -2.116100856873357E-3  -3.148941100391065E-4  
 2.018000000000000E10   -2.237335658045831E-3   1.621248676077992E-4  
 2.018200000000000E10   -2.218973903376380E-3   6.623803853505740E-4  
 2.018400000000000E10   -2.051317650410865E-3   1.149023496430873E-3  
 2.018600000000000E10   -1.744021466116847E-3   1.571826336410955E-3  
 2.018800000000000E10   -1.301844556884909E-3   1.855661151183333E-3  
 2.019000000000000E10   -8.918841895474881E-4   1.931526002554614E-3  
 2.019200000000000E10   -6.150895583063917E-4   1.947154178870497E-3  
 2.019400000000000E10   -3.785418111537756E-4   2.035411687015936E-3  
 2.019600000000000E10   -2.923342123531369E-5   2.145742574982621E-3  
 2.019800000000000E10    3.634941190004028E-4   2.084452052382224E-3  
 2.020000000000000E10    6.259380685981870E-4   1.944291661206035E-3  
 2.020200000000000E10    7.898667963785063E-4   1.875608075801054E-3  
 2.020400000000000E10    1.056425560863666E-3   1.950596674793849E-3  
 2.020600000000000E10    1.563402474857867E-3   1.902806538122672E-3  
 2.020800000000000E10    2.096092788341605E-3   1.599497041078630E-3  
 2.021000000000000E10    2.471410367568886E-3   1.000700527112241E-3  
 2.021200000000000E10    2.481174025753583E-3   3.609887294091837E-4  
 2.021400000000000E10    2.328051188040847E-3  -6.094061685826653E-5  
 2.021600000000000E10    2.143419844983721E-3  -3.571238592956905E-4  
 2.021800000000000E10    2.006384423347535E-3  -4.994374007147588E-4  
 2.022000000000000E10    2.046963429929298E-3  -6.117448110110415E-4  
 2.022200000000000E10    2.213912133564368E-3  -9.349871119254350E-4  
 2.022400000000000E10    2.193049783530979E-3  -1.515853044829895E-3  
 2.022600000000000E10    1.872689375527387E-3  -2.083505978117939E-3  
 2.022800000000000E10    1.377903016996973E-3  -2.512323606851293E-3  
 2.023000000000000E10    7.527938103993183E-4  -2.776916926427756E-3  
 2.023200000000000E10    6.424818702501478E-5  -2.810458175516055E-3  
 2.023400000000000E10   -5.510208825005886E-4  -2.570466368378681E-3  
 2.023600000000000E10   -9.227620802796735E-4  -2.215734979045796E-3  
 2.023800000000000E10   -1.142664664470947E-3  -1.875123788062253E-3  
 2.024000000000000E10   -1.259576948934499E-3  -1.584224471891368E-3  
 2.024200000000000E10   -1.305554739061605E-3  -1.351815734610514E-3  
 2.024400000000000E10   -1.326746018430977E-3  -1.220381526954840E-3  
 2.024600000000000E10   -1.433647586964071E-3  -1.159673989290533E-3  
 2.024800000000000E10   -1.617134574593769E-3  -1.046025092184636E-3  
 2.025000000000000E10   -1.818663558497289E-3  -8.857524414822736E-4  
 2.025200000000000E10   -2.034834977009415E-3  -6.614826248820735E-4  
 2.025400000000000E10   -2.249636977658044E-3  -3.472399764211366E-4  
 2.025600000000000E10   -2.398287273805451E-3   1.031303360417232E-4  
 2.025800000000000E10   -2.381575802617051E-3   6.013497707353515E-4  
 2.026000000000000E10   -2.212699074413122E-3   1.068353180106683E-3  
 2.026200000000000E10   -1.925660012703803E-3   1.464813852820684E-3  
 2.026400000000000E10   -1.584925060735349E-3   1.748311199696252E-3  
 2.026600000000000E10   -1.210777787491679E-3   1.990309028230884E-3  
 2.026800000000000E10   -7.132244645617904E-4   2.117747093125442E-3  
 2.027000000000000E10   -2.525482178711689E-4   1.994108120094479E-3  
 2.027200000000000E10   -1.254510681502764E-5   1.739820764388567E-3  
 2.027400000000000E10    1.885471534972757E-5   1.578935825863831E-3  
 2.027600000000000E10   -1.001578556620920E-5   1.582357500691289E-3  
 2.027800000000000E10    1.290679821618084E-5   1.777200419225811E-3  
 2.028000000000000E10    2.759064031753368E-4   2.062055799696181E-3  
 2.028200000000000E10    7.684016514017628E-4   2.227227338647217E-3  
 2.028400000000000E10    1.416335027538424E-3   2.131314054246486E-3  
 2.028600000000000E10    1.947460535131855E-3   1.687650979829975E-3  
 2.028800000000000E10    2.188132891868368E-3   1.136453164005537E-3  
 2.029000000000000E10    2.244967389506875E-3   6.432416927885771E-4  
 2.029200000000000E10    2.183436097025320E-3   2.012581129365796E-4  
 2.029400000000000E10    2.013466539390294E-3  -1.092171065173727E-4  
 2.029600000000000E10    1.868327270422913E-3  -2.677124672724555E-4  
 2.029800000000000E10    1.845656059118977E-3  -3.970396740183833E-4  
 2.030000000000000E10    1.854424257072862E-3  -5.956566389535129E-4  
 2.030200000000000E10    1.878850738356971E-3  -8.345328912391893E-4  
 2.030400000000000E10    1.895920932580384E-3  -1.199764847743935E-3  
 2.030600000000000E10    1.729008008691448E-3  -1.700177521410364E-3  
 2.030800000000000E10    1.274108271585939E-3  -2.114438506441168E-3  
 2.031000000000000E10    7.397752301192579E-4  -2.262646651447371E-3  
 2.031200000000000E10    2.590200781497392E-4  -2.228726190227418E-3  
 2.031400000000000E10   -1.033491998110369E-4  -2.106817850245186E-3  
 2.031600000000000E10   -3.791662765937042E-4  -1.950551949751874E-3  
 2.031800000000000E10   -5.599801539282465E-4  -1.805420365632960E-3  
 2.032000000000000E10   -7.442400178492622E-4  -1.681072426166524E-3  
 2.032200000000000E10   -8.693874000146251E-4  -1.555817306651102E-3  
 2.032400000000000E10   -9.641082753300851E-4  -1.521063146445855E-3  
 2.032600000000000E10   -1.177112533090015E-3  -1.530629484971732E-3  
 2.032800000000000E10   -1.454651508089385E-3  -1.477935904763455E-3  
 2.033000000000000E10   -1.799128346007180E-3  -1.344478229221739E-3  
 2.033200000000000E10   -2.135635370871535E-3  -1.079579723286040E-3  
 2.033400000000000E10   -2.453178630129975E-3  -7.564903475505151E-4  
 2.033600000000000E10   -2.741958373973584E-3  -5.468930114911479E-4  
 2.033800000000000E10   -2.943287804768778E-3   4.377765024086623E-4  
 2.034000000000000E10   -2.774265974208161E-3   1.205841034800274E-3  
 2.034200000000000E10   -2.347087326609059E-3   1.842909861919413E-3  
 2.034400000000000E10   -1.739776785266988E-3   2.252165357478791E-3  
 2.034600000000000E10   -1.134400312029929E-3   2.413004245839002E-3  
 2.034800000000000E10   -5.736315714908235E-4   2.401569271805110E-3  
 2.035000000000000E10   -9.994426354863626E-5   2.229690474147598E-3  
 2.035200000000000E10    1.745156395496272E-4   1.959433968834304E-3  
 2.035400000000000E10    2.449681703216845E-4   1.750309514686649E-3  
 2.035600000000000E10    2.023431605064414E-4   1.725589291675499E-3  
 2.035800000000000E10    2.607499747996989E-4   1.944933846926340E-3  
 2.036000000000000E10    6.217411697704208E-4   2.227400630758501E-3  
 2.036200000000000E10    1.261974719387514E-3   2.286029976712149E-3  
 2.036400000000000E10    1.908671248842169E-3   1.981506900240978E-3  
 2.036600000000000E10    2.347326311455281E-3   1.483668721235001E-3  
 2.036800000000000E10    2.615161783372363E-3   8.805242257859606E-4  
 2.037000000000000E10    2.653533253634786E-3   2.520745336279319E-4  
 2.037200000000000E10    2.504126614327600E-3  -2.393716711617064E-4  
 2.037400000000000E10    2.359873836538122E-3  -6.124525673020586E-4  
 2.037600000000000E10    2.212287516068714E-3  -9.819534140133104E-4  
 2.037800000000000E10    2.000470562366608E-3  -1.354755648342824E-3  
 2.038000000000000E10    1.705682240024117E-3  -1.685740509541866E-3  
 2.038200000000000E10    1.335813008524754E-3  -1.940131673221419E-3  
 2.038400000000000E10    9.261599316457172E-4  -2.098482817894331E-3  
 2.038600000000000E10    5.525254398687847E-4  -2.116603572726434E-3  
 2.038800000000000E10    2.809483716034412E-4  -2.156379281968615E-3  
 2.039000000000000E10   -5.836656122550335E-5  -2.275951218181922E-3  
 2.039200000000000E10   -5.371938168536872E-4  -2.283094652043081E-3  
 2.039400000000000E10   -9.687964784349374E-4  -2.120949486040591E-3  
 2.039600000000000E10   -1.304519289449133E-3  -1.876801766892091E-3  
 2.039800000000000E10   -1.593613738401069E-3  -1.637066396838629E-3  
 2.040000000000000E10   -1.906594528851134E-3  -1.373379206698802E-3  
 2.040200000000000E10   -2.202472149359960E-3  -9.866037526754319E-4  
 2.040400000000000E10   -2.400575964539140E-3  -4.850733352618086E-4  
 2.040600000000000E10   -2.423596769617296E-3   9.250756673641320E-5  
 2.040800000000000E10   -2.255374508231511E-3   6.121540741052157E-4  
 2.041000000000000E10   -1.959652599683147E-3   1.007143481358610E-3  
 2.041200000000000E10   -1.666246528196850E-3   1.189680666559272E-3  
 2.041400000000000E10   -1.513120936758725E-3   1.332269855027582E-3  
 2.041600000000000E10   -1.387852847714115E-3   1.583060912247518E-3  
 2.041800000000000E10   -1.150861047610733E-3   1.898072497562770E-3  
 2.042000000000000E10   -7.765560466968628E-4   2.210193532116620E-3  
 2.042200000000000E10   -2.397969330985812E-4   2.396662938006131E-3  
 2.042400000000000E10    3.087474424880643E-4   2.372939889836643E-3  
 2.042600000000000E10    8.115710950755504E-4   2.227920754295257E-3  
 2.042800000000000E10    1.310476709881591E-3   1.953694696342688E-3  
 2.043000000000000E10    1.624573240585534E-3   1.476475874100019E-3  
 2.043200000000000E10    1.680009330070957E-3   1.094989273064759E-3  
 2.043400000000000E10    1.712101110671130E-3   8.534850878928456E-4  
 2.043600000000000E10    1.790300942957402E-3   6.526083086134384E-4  
 2.043800000000000E10    1.909594117652303E-3   4.023772716108296E-4  
 2.044000000000000E10    1.956648383013629E-3   8.878073564164321E-5  
 2.044200000000000E10    1.976377856745213E-3  -1.453481489551012E-4  
 2.044400000000000E10    2.082178616367373E-3  -3.945873486148309E-4  
 2.044600000000000E10    2.215209529148760E-3  -8.258957747818420E-4  
 2.044800000000000E10    2.181873567701306E-3  -1.458611822238675E-3  
 2.045000000000000E10    1.810052722439538E-3  -2.108395654409204E-3  
 2.045200000000000E10    1.209096198349639E-3  -2.525909504864687E-3  
 2.045400000000000E10    5.469018648045116E-4  -2.692638413497696E-3  
 2.045600000000000E10   -4.639510916604196E-5  -2.635279845699300E-3  
 2.045800000000000E10   -5.308741245154339E-4  -2.488935259918188E-3  
 2.046000000000000E10   -9.807535277587581E-4  -2.297400994180346E-3  
 2.046200000000000E10   -1.337907882119863E-3  -2.054485466538204E-3  
 2.046400000000000E10   -1.707098692552083E-3  -1.780940613559919E-3  
 2.046600000000000E10   -2.024248929372357E-3  -1.356623188684476E-3  
 2.046800000000000E10   -2.140928838792959E-3  -8.666410698716380E-4  
 2.047000000000000E10   -2.114580265809725E-3  -5.051729752233735E-4  
 2.047200000000000E10   -2.099009466438014E-3  -2.539291119858347E-4  
 2.047400000000000E10   -2.143904928945833E-3  -1.608198399031758E-6  
 2.047600000000000E10   -2.158164998148511E-3   3.193540615029634E-4  
 2.047800000000000E10   -2.101746157823522E-3   6.342099348577545E-4  
 2.048000000000000E10   -2.051937750276225E-3   9.352470148803185E-4  
 2.048200000000000E10   -2.003658629011041E-3   1.281057319166944E-3  
 2.048400000000000E10   -1.843539640065973E-3   1.752559946459017E-3  
 2.048600000000000E10   -1.445512859334732E-3   2.156217645761776E-3  
 2.048800000000000E10   -9.913458833815877E-4   2.354693136258442E-3  
 2.049000000000000E10   -6.103991979250202E-4   2.453555077038430E-3  
 2.049200000000000E10   -2.659174037326910E-4   2.542453398353156E-3  
 2.049400000000000E10    7.415037202637321E-5   2.659140445039045E-3  
 2.049600000000000E10    5.259767532590088E-4   2.795142420556075E-3  
 2.049800000000000E10    1.140694833866516E-3   2.806665381577648E-3  
 2.050000000000000E10    1.752803914168459E-3   2.605587482613362E-3  
 2.050200000000000E10    2.326171606618130E-3   2.293446486424885E-3  
 2.050400000000000E10    2.889862462280342E-3   1.777089565969360E-3  
 2.050600000000000E10    3.267127750326455E-3   1.019508856705126E-3  
 2.050800000000000E10    3.296561217234459E-3   2.053628296930527E-4  
 2.051000000000000E10    3.109402339445589E-3  -4.263306309664508E-4  
 2.051200000000000E10    2.877706828538651E-3  -9.195134877284737E-4  
 2.051400000000000E10    2.555711436326857E-3  -1.353243216412303E-3  
 2.051600000000000E10    2.192292307836958E-3  -1.619466143533772E-3  
 2.051800000000000E10    1.931001182162652E-3  -1.814859110091664E-3  
 2.052000000000000E10    1.707308484459825E-3  -2.028908396576658E-3  
 2.052200000000000E10    1.495738101283802E-3  -2.267100135393349E-3  
 2.052400000000000E10    1.236761077939544E-3  -2.594709140536043E-3  
 2.052600000000000E10    7.599186307440203E-4  -2.916142859001771E-3  
 2.052800000000000E10    1.906641298347372E-4  -3.028986665109794E-3  
 2.053000000000000E10   -2.947519633941996E-4  -3.046937393208529E-3  
 2.053200000000000E10   -8.188720532394027E-4  -3.048875613460018E-3  
 2.053400000000000E10   -1.372388048085994E-3  -2.898867791058657E-3  
 2.053600000000000E10   -1.908152145736012E-3  -2.668633809842078E-3  
 2.053800000000000E10   -2.435136649665642E-3  -2.273248430962364E-3  
 2.054000000000000E10   -2.798486739558018E-3  -1.750237584390022E-3  
 2.054200000000000E10   -3.056553134947648E-3  -1.242138008460587E-3  
 2.054400000000000E10   -3.232663546194450E-3  -6.646958817900332E-4  
 2.054600000000000E10   -3.286003359351998E-3  -5.864791792528533E-5  
 2.054800000000000E10   -3.205238806980628E-3   5.477063794746812E-4  
 2.055000000000000E10   -2.984370835079456E-3   1.092466889351699E-3  
 2.055200000000000E10   -2.644199992955467E-3   1.515812548107387E-3  
 2.055400000000000E10   -2.303354666326885E-3   1.760592356462170E-3  
 2.055600000000000E10   -2.089174326371264E-3   1.958536354962875E-3  
