#  HZ   S   RI   R     50.00 
! Rohde & Schwarz ZVA40 4Ports - Version 3.90 - 1145.1110k42 SN: 100403
! Date: 2023-10-03 10:14:41
! Measurement: S12 
! 
 2.000000000000000E10    3.665140959330731E-4  -8.709178935667433E-4  
 2.000200000000000E10    1.726331790484471E-4  -7.821256294846536E-4  
 2.000400000000000E10   -6.695857370720670E-6  -6.355511313476774E-4  
 2.000600000000000E10    9.327370544606667E-6  -3.769042862889668E-4  
 2.000800000000000E10    2.512315286030234E-4  -3.030531532001785E-4  
 2.001000000000000E10    4.559333222762992E-4  -5.277602208985223E-4  
 2.001200000000000E10    3.522786611466911E-4  -9.354199476850531E-4  
 2.001400000000000E10   -7.910605819671657E-5  -1.129456136065225E-3  
 2.001600000000000E10   -4.995294493036690E-4  -9.904707462906287E-4  
 2.001800000000000E10   -7.248596607328014E-4  -7.026963543871212E-4  
 2.002000000000000E10   -7.530802093377270E-4  -3.979469949155357E-4  
 2.002200000000000E10   -6.399896961671336E-4  -1.843283076865461E-4  
 2.002400000000000E10   -5.015075439587236E-4  -1.779589079820586E-4  
 2.002600000000000E10   -5.147777857793565E-4  -2.973186352324707E-4  
 2.002800000000000E10   -7.442087366211195E-4  -3.571793624562108E-4  
 2.003000000000000E10   -1.068686294645347E-3  -1.441031808671714E-4  
 2.003200000000000E10   -1.191809687211558E-3   3.537124063802401E-4  
 2.003400000000000E10   -9.474840200575139E-4   8.349753808471617E-4  
 2.003600000000000E10   -5.216360689330571E-4   1.048928365990934E-3  
 2.003800000000000E10   -1.877609110023413E-4   1.027850867507773E-3  
 2.004000000000000E10    4.843202683938823E-5   9.990723187069377E-4  
 2.004200000000000E10    3.338784865465843E-4   9.505542779893236E-4  
 2.004400000000000E10    6.272531075713536E-4   7.810666230162263E-4  
 2.004600000000000E10    8.171858240125908E-4   4.667693455876024E-4  
 2.004800000000000E10    7.957657583540790E-4   1.042024525506551E-4  
 2.005000000000000E10    6.137126065031799E-4  -1.079371566582402E-4  
 2.005200000000000E10    4.454052498288177E-4  -1.719921425252256E-4  
 2.005400000000000E10    3.690396983141977E-4  -1.467896560185451E-4  
 2.005600000000000E10    3.812962623433798E-4  -1.960636215732882E-4  
 2.005800000000000E10    2.742352754231198E-4  -2.644848072021786E-4  
 2.006000000000000E10    1.735260822762805E-4  -1.974782089409591E-4  
 2.006200000000000E10    1.977287933254115E-4  -1.385457965928557E-4  
 2.006400000000000E10    2.710337004693295E-4  -1.627456234321774E-4  
 2.006600000000000E10    2.769826985766284E-4  -2.380763288345878E-4  
 2.006800000000000E10    2.929077659414530E-4  -2.866763938477057E-4  
 2.007000000000000E10    3.051328175287280E-4  -4.034265886595543E-4  
 2.007200000000000E10    2.354560700176215E-4  -5.497039097395761E-4  
 2.007400000000000E10    9.794595549734638E-5  -7.060809789604888E-4  
 2.007600000000000E10   -1.838316044692571E-4  -7.910101407173056E-4  
 2.007800000000000E10   -4.437179574139279E-4  -6.258154139181393E-4  
 2.008000000000000E10   -5.080281547701884E-4  -4.086993166883649E-4  
 2.008200000000000E10   -4.833471029996872E-4  -2.821144304039923E-4  
 2.008400000000000E10   -4.273901092043768E-4  -2.396507544391271E-4  
 2.008600000000000E10   -4.625776038867318E-4  -2.789029181089804E-4  
 2.008800000000000E10   -5.970181373413653E-4  -2.528558697021153E-4  
 2.009000000000000E10   -6.762940837587749E-4  -1.271283452979333E-4  
 2.009200000000000E10   -7.230759710418406E-4   1.327572304203590E-6  
 2.009400000000000E10   -7.731929589580332E-4   1.506606249340284E-4  
 2.009600000000000E10   -7.739287339737296E-4   3.378102652883779E-4  
 2.009800000000000E10   -6.782953256603193E-4   5.079646739263640E-4  
 2.010000000000000E10   -5.355881186443624E-4   6.157992325757666E-4  
 2.010200000000000E10   -4.053919476939849E-4   6.599563488702256E-4  
 2.010400000000000E10   -2.999019709898642E-4   6.591769957190588E-4  
 2.010600000000000E10   -2.678807445422367E-4   6.622400984202547E-4  
 2.010800000000000E10   -2.746448078175524E-4   7.617464914262573E-4  
 2.011000000000000E10   -1.499678727230747E-4   9.239251052753795E-4  
 2.011200000000000E10    7.043888466863860E-5   9.949023779309185E-4  
 2.011400000000000E10    2.800090442178771E-4   1.016491101364847E-3  
 2.011600000000000E10    5.327146392557082E-4   1.009020424034033E-3  
 2.011800000000000E10    8.241053912098762E-4   8.258638230876792E-4  
 2.012000000000000E10    9.385775817834117E-4   5.141698250857493E-4  
 2.012200000000000E10    8.514524929018486E-4   2.846455350259526E-4  
 2.012400000000000E10    7.417688741245205E-4   2.340172865876445E-4  
 2.012600000000000E10    8.016605344083576E-4   2.842705903781785E-4  
 2.012800000000000E10    9.640103650141371E-4   1.884512728591088E-4  
 2.013000000000000E10    9.919354623114623E-4  -4.164708419314898E-5  
 2.013200000000000E10    9.326858993585188E-4  -1.923376505685695E-4  
 2.013400000000000E10    9.103931758242351E-4  -3.300667233782373E-4  
 2.013600000000000E10    8.123501471278293E-4  -4.712897298978297E-4  
 2.013800000000000E10    6.747766639347431E-4  -5.237508502668115E-4  
 2.014000000000000E10    6.055529035317402E-4  -4.762986705086575E-4  
 2.014200000000000E10    6.906245662658304E-4  -3.999135978692384E-4  
 2.014400000000000E10    9.283315071284221E-4  -5.215018442228299E-4  
 2.014600000000000E10    1.043309065237366E-3  -9.297598670754168E-4  
 2.014800000000000E10    8.647876739915876E-4  -1.375399266921536E-3  
 2.015000000000000E10    4.696472099533788E-4  -1.661662827245892E-3  
 2.015200000000000E10    1.866149385157903E-5  -1.748257325272317E-3  
 2.015400000000000E10   -3.949237310465563E-4  -1.728118970748727E-3  
 2.015600000000000E10   -8.030792254161229E-4  -1.554359681904316E-3  
 2.015800000000000E10   -1.064090554050550E-3  -1.252356765757281E-3  
 2.016000000000000E10   -1.137840527075309E-3  -9.691276915233446E-4  
 2.016200000000000E10   -1.143099347784839E-3  -7.885246822196577E-4  
 2.016400000000000E10   -1.165457759742384E-3  -6.938701909449366E-4  
 2.016600000000000E10   -1.282079744635633E-3  -6.461494852340332E-4  
 2.016800000000000E10   -1.471332934064170E-3  -5.088355025724957E-4  
 2.017000000000000E10   -1.624987861658964E-3  -2.470013817030661E-4  
 2.017200000000000E10   -1.639950472896022E-3   7.788900324225392E-5  
 2.017400000000000E10   -1.544588551580630E-3   2.738489269244451E-4  
 2.017600000000000E10   -1.582842850540247E-3   3.802205341074754E-4  
 2.017800000000000E10   -1.707973476085398E-3   6.522838009038458E-4  
 2.018000000000000E10   -1.692561406849159E-3   1.034238561125541E-3  
 2.018200000000000E10   -1.555525943533414E-3   1.433821080287022E-3  
 2.018400000000000E10   -1.269158536430311E-3   1.817245148467245E-3  
 2.018600000000000E10   -8.788802014249896E-4   2.116342851271232E-3  
 2.018800000000000E10   -3.636026489807086E-4   2.254423737112019E-3  
 2.019000000000000E10    1.142700941138039E-4   2.163522954409321E-3  
 2.019200000000000E10    4.426590425686705E-4   1.978439908405697E-3  
 2.019400000000000E10    6.628891353978328E-4   1.835218428082213E-3  
 2.019600000000000E10    8.951070507194986E-4   1.740871889827152E-3  
 2.019800000000000E10    1.148164324048493E-3   1.580903022032645E-3  
 2.020000000000000E10    1.319201443240874E-3   1.375916707156985E-3  
 2.020200000000000E10    1.425732703258594E-3   1.225318906276866E-3  
 2.020400000000000E10    1.611206439082270E-3   1.170541746196924E-3  
 2.020600000000000E10    1.946615106943581E-3   1.057477154837990E-3  
 2.020800000000000E10    2.332358922878350E-3   7.394971800278184E-4  
 2.021000000000000E10    2.599087026384142E-3   1.215827096193270E-4  
 2.021200000000000E10    2.477680488179128E-3  -5.603555128564714E-4  
 2.021400000000000E10    2.134563867002726E-3  -9.924144078804940E-4  
 2.021600000000000E10    1.787292076861141E-3  -1.238300163229859E-3  
 2.021800000000000E10    1.509908573805458E-3  -1.310087270448330E-3  
 2.022000000000000E10    1.417114524412210E-3  -1.347161406927087E-3  
 2.022200000000000E10    1.444332215383097E-3  -1.564382821218007E-3  
 2.022400000000000E10    1.311444134141008E-3  -2.003543613547529E-3  
 2.022600000000000E10    9.129884075028479E-4  -2.389201678818575E-3  
 2.022800000000000E10    3.926338535233367E-4  -2.619708267350992E-3  
 2.023000000000000E10   -2.304789692667934E-4  -2.700124349859026E-3  
 2.023200000000000E10   -8.644284378668227E-4  -2.542266053044134E-3  
 2.023400000000000E10   -1.385153335933056E-3  -2.152057640530445E-3  
 2.023600000000000E10   -1.659681977428220E-3  -1.684610046342843E-3  
 2.023800000000000E10   -1.779014895739103E-3  -1.253633406358185E-3  
 2.024000000000000E10   -1.788936111282695E-3  -8.532212340031511E-4  
 2.024200000000000E10   -1.706225551768310E-3  -5.366414272295381E-4  
 2.024400000000000E10   -1.586597305032666E-3  -3.720992406468011E-4  
 2.024600000000000E10   -1.558646809792629E-3  -3.291879321396765E-4  
 2.024800000000000E10   -1.624200324941841E-3  -2.261202747899073E-4  
 2.025000000000000E10   -1.707343841661458E-3  -9.113613163612578E-5  
 2.025200000000000E10   -1.821299135271046E-3   9.461323147493035E-5  
 2.025400000000000E10   -1.938882089840869E-3   3.855137027265436E-4  
 2.025600000000000E10   -1.988078851287288E-3   7.925726908810990E-4  
 2.025800000000000E10   -1.851720019692073E-3   1.243375591002405E-3  
 2.026000000000000E10   -1.562591879283665E-3   1.621288471613770E-3  
 2.026200000000000E10   -1.208893648624696E-3   1.927436441528025E-3  
 2.026400000000000E10   -7.761752564908454E-4   2.146050644417604E-3  
 2.026600000000000E10   -2.944151411712584E-4   2.247574799521654E-3  
 2.026800000000000E10    2.423195438933801E-4   2.176192433883747E-3  
 2.027000000000000E10    6.678751109305908E-4   1.885310371613337E-3  
 2.027200000000000E10    8.916007074596431E-4   1.502924521143238E-3  
 2.027400000000000E10    9.071481720268451E-4   1.173309063435429E-3  
 2.027600000000000E10    7.781868442651575E-4   1.004253022579683E-3  
 2.027800000000000E10    6.725199701678422E-4   1.082873377190144E-3  
 2.028000000000000E10    8.283361697707466E-4   1.285389561585530E-3  
 2.028200000000000E10    1.256983153763469E-3   1.346024999360520E-3  
 2.028400000000000E10    1.762951633685993E-3   1.092458467206194E-3  
 2.028600000000000E10    2.054300762850929E-3   5.445168267383621E-4  
 2.028800000000000E10    2.032735911025494E-3  -1.944309257884956E-5  
 2.029000000000000E10    1.839003288532021E-3  -4.303976656282666E-4  
 2.029200000000000E10    1.571936097375497E-3  -7.388969146025678E-4  
 2.029400000000000E10    1.254662435881242E-3  -8.690242819419063E-4  
 2.029600000000000E10    1.029821362829319E-3  -8.413866076066540E-4  
 2.029800000000000E10    9.794493024754857E-4  -8.203330303162890E-4  
 2.030000000000000E10    9.563327422020613E-4  -9.042103279002564E-4  
 2.030200000000000E10    9.332140088426296E-4  -1.025792793370783E-3  
 2.030400000000000E10    9.219882432026444E-4  -1.250401682530840E-3  
 2.030600000000000E10    7.428012775360711E-4  -1.609077819416093E-3  
 2.030800000000000E10    2.797242001785587E-4  -1.867383468413243E-3  
 2.031000000000000E10   -2.405125619757369E-4  -1.829649662357514E-3  
 2.031200000000000E10   -6.388354102253087E-4  -1.579529092716122E-3  
 2.031400000000000E10   -8.389930396030347E-4  -1.290571367092155E-3  
 2.031600000000000E10   -9.342553697664430E-4  -1.031956176221785E-3  
 2.031800000000000E10   -9.660783861936244E-4  -8.232320585564055E-4  
 2.032000000000000E10   -9.957554370716767E-4  -6.344716422501263E-4  
 2.032200000000000E10   -9.528508978999325E-4  -4.528815980948922E-4  
 2.032400000000000E10   -8.462273787396651E-4  -3.694485521582129E-4  
 2.032600000000000E10   -8.190938819165308E-4  -3.838570350867317E-4  
 2.032800000000000E10   -8.609314466378204E-4  -4.177284049715295E-4  
 2.033000000000000E10   -9.842925980963089E-4  -4.122696183104482E-4  
 2.033200000000000E10   -1.137545129663691E-3  -3.445452204215582E-4  
 2.033400000000000E10   -1.332296381911470E-3  -2.574550787728556E-4  
 2.033600000000000E10   -1.777880307700899E-3  -2.268557846373706E-4  
 2.033800000000000E10   -2.129637015362581E-3   7.101796455336389E-4  
 2.034000000000000E10   -1.803989099614599E-3   1.444093529479923E-3  
 2.034200000000000E10   -1.371334367259233E-3   1.951359755670031E-3  
 2.034400000000000E10   -6.517987144265876E-4   2.063899758030419E-3  
 2.034600000000000E10   -4.356664700295643E-5   1.991123737146457E-3  
 2.034800000000000E10    2.291733296631180E-4   1.642502111348289E-3  
 2.035000000000000E10    5.281867774168927E-4   1.358671782158867E-3  
 2.035200000000000E10    5.964723230270601E-4   1.044105376220412E-3  
 2.035400000000000E10    4.558182295618786E-4   8.721706992084232E-4  
 2.035600000000000E10    2.650576794554515E-4   9.008592374070929E-4  
 2.035800000000000E10    2.036772019454037E-4   1.089645786797283E-3  
 2.036000000000000E10    4.117759785407948E-4   1.365400363553178E-3  
 2.036200000000000E10    9.355409872821637E-4   1.545968888051532E-3  
 2.036400000000000E10    1.730410088957460E-3   1.277004722160874E-3  
 2.036600000000000E10    2.149214485177288E-3   7.282740876285568E-4  
 2.036800000000000E10    2.379003351692248E-3  -1.324188240148402E-4  
 2.037000000000000E10    2.248461341002473E-3  -6.982551928592363E-4  
 2.037200000000000E10    1.929112684188618E-3  -1.087937611845080E-3  
 2.037400000000000E10    1.632140225006475E-3  -1.313362630618805E-3  
 2.037600000000000E10    1.078397046377951E-3  -1.485388794982875E-3  
 2.037800000000000E10    8.086536636929615E-4  -1.578965952999338E-3  
 2.038000000000000E10    6.844560234134811E-4  -1.445814009962811E-3  
 2.038200000000000E10    5.023377517419350E-4  -1.573045298250185E-3  
 2.038400000000000E10    2.078935972854703E-4  -1.498617042131998E-3  
 2.038600000000000E10   -1.165295651406738E-5  -1.374719004767637E-3  
 2.038800000000000E10    2.638537369892690E-5  -1.495746352399389E-3  
 2.039000000000000E10   -1.613849320468338E-4  -1.633711219592779E-3  
 2.039200000000000E10   -5.722096194168209E-4  -1.681719820394560E-3  
 2.039400000000000E10   -1.072235974586672E-3  -1.311577192542178E-3  
 2.039600000000000E10   -1.239080568430600E-3  -1.053101546993410E-3  
 2.039800000000000E10   -1.364677540819954E-3  -8.938595398191227E-4  
 2.040000000000000E10   -1.548053127610021E-3  -7.548736240197388E-4  
 2.040200000000000E10   -1.702264882624149E-3  -4.573533084045200E-4  
 2.040400000000000E10   -1.738830357445059E-3  -2.854361944762922E-5  
 2.040600000000000E10   -1.670704115423616E-3   2.657992191854175E-4  
 2.040800000000000E10   -1.487810712273198E-3   6.008082116885043E-4  
 2.041000000000000E10   -1.362767652608454E-3   8.047860163194992E-4  
 2.041200000000000E10   -1.185748225974816E-3   9.197417400880821E-4  
 2.041400000000000E10   -1.235976000316441E-3   1.189546392264742E-3  
 2.041600000000000E10   -1.103108774663674E-3   1.481153424484310E-3  
 2.041800000000000E10   -5.331716858092007E-4   2.071019546646211E-3  
 2.042000000000000E10    8.503019947696610E-5   2.294610677011036E-3  
 2.042200000000000E10    6.852255979470942E-4   2.144741342851410E-3  
 2.042400000000000E10    1.058670610223931E-3   1.516768820928755E-3  
 2.042600000000000E10    1.324157860061085E-3   1.241386010035597E-3  
 2.042800000000000E10    1.570315402070129E-3   9.398284062087812E-4  
 2.043000000000000E10    1.653886486396746E-3   5.607896951173813E-4  
 2.043200000000000E10    1.512790857641786E-3   2.891690178162040E-4  
 2.043400000000000E10    1.405304073597546E-3   9.028484216994713E-5  
 2.043600000000000E10    1.363270152877603E-3  -1.111502233133819E-5  
 2.043800000000000E10    1.436973926266310E-3  -6.887882611610819E-5  
 2.044000000000000E10    1.411761726356215E-3  -1.848644013214787E-4  
 2.044200000000000E10    1.404968379237862E-3  -3.250571667363316E-4  
 2.044400000000000E10    1.471824478358031E-3  -5.156186396359570E-4  
 2.044600000000000E10    1.590618876636856E-3  -8.254312323751275E-4  
 2.044800000000000E10    1.669207372254244E-3  -1.251263315444467E-3  
 2.045000000000000E10    1.475015517186236E-3  -1.829080895900175E-3  
 2.045200000000000E10    9.740190408020109E-4  -2.266798703068937E-3  
 2.045400000000000E10    2.858967755283057E-4  -2.435797316677593E-3  
 2.045600000000000E10   -2.821827352077149E-4  -2.300249705849975E-3  
 2.045800000000000E10   -6.271033478831803E-4  -2.129185625731393E-3  
 2.046000000000000E10   -8.156359264696087E-4  -1.926536154415873E-3  
 2.046200000000000E10   -1.138751752916034E-3  -1.841621658833767E-3  
 2.046400000000000E10   -1.560376806150156E-3  -1.637856743332965E-3  
 2.046600000000000E10   -1.910324846566827E-3  -1.205915270407719E-3  
 2.046800000000000E10   -2.073070793240159E-3  -7.878709196423491E-4  
 2.047000000000000E10   -2.079608065455600E-3  -4.817546642799345E-4  
 2.047200000000000E10   -2.073533755416672E-3  -2.144811706212177E-4  
 2.047400000000000E10   -2.149829071842962E-3   1.003763135048320E-4  
 2.047600000000000E10   -2.192652853274787E-3   5.822372903047060E-4  
 2.047800000000000E10   -2.054805548309728E-3   8.909804401574312E-4  
 2.048000000000000E10   -1.934535611696818E-3   1.139540859084163E-3  
 2.048200000000000E10   -1.849318871757499E-3   1.426933889484240E-3  
 2.048400000000000E10   -1.624345128355479E-3   1.961074743626847E-3  
 2.048600000000000E10   -1.136891313190400E-3   2.327939831755227E-3  
 2.048800000000000E10   -5.965399975172694E-4   2.257251517019338E-3  
 2.049000000000000E10   -2.932898663588006E-4   2.307365381124396E-3  
 2.049200000000000E10   -1.666473043668605E-5   2.398706472444314E-3  
 2.049400000000000E10    2.919042583218672E-4   2.500047898609881E-3  
 2.049600000000000E10    6.884229585045466E-4   2.610749004546691E-3  
 2.049800000000000E10    1.240404615937560E-3   2.631775974468501E-3  
 2.050000000000000E10    1.840196860333284E-3   2.467887062165473E-3  
 2.050200000000000E10    2.397996166514026E-3   2.156445549594032E-3  
 2.050400000000000E10    2.950896095070574E-3   1.645362306455220E-3  
 2.050600000000000E10    3.282049067180467E-3   8.961051094552710E-4  
 2.050800000000000E10    3.305509315665674E-3   1.318049606332487E-4  
 2.051000000000000E10    3.082405965499305E-3  -4.342862391947872E-4  
 2.051200000000000E10    2.899880348532289E-3  -8.961750513494567E-4  
 2.051400000000000E10    2.607498154113139E-3  -1.410774459751944E-3  
 2.051600000000000E10    2.237597618390013E-3  -1.723025226965547E-3  
 2.051800000000000E10    1.925479086046970E-3  -1.944325243433317E-3  
 2.052000000000000E10    1.693247908001973E-3  -2.159119506056110E-3  
 2.052200000000000E10    1.447074947430304E-3  -2.331537237666824E-3  
 2.052400000000000E10    1.202756198364552E-3  -2.694858169114149E-3  
 2.052600000000000E10    6.911158561706543E-4  -2.985288552870905E-3  
 2.052800000000000E10    1.624704843076567E-4  -3.127986979153422E-3  
 2.053000000000000E10   -3.306121809011394E-4  -3.222017143680543E-3  
 2.053200000000000E10   -9.765704033068488E-4  -3.292885427880619E-3  
 2.053400000000000E10   -1.600328789747976E-3  -3.170924916587495E-3  
 2.053600000000000E10   -2.225437054962472E-3  -2.857979921693052E-3  
 2.053800000000000E10   -2.817220158047147E-3  -2.409551249541067E-3  
 2.054000000000000E10   -3.216304799058924E-3  -1.812664757448215E-3  
 2.054200000000000E10   -3.473631649588546E-3  -1.185124213979752E-3  
 2.054400000000000E10   -3.646188527690593E-3  -4.713264810292189E-4  
 2.054600000000000E10   -3.616228397866643E-3   2.327700699593320E-4  
 2.054800000000000E10   -3.460340598529136E-3   8.815993701487229E-4  
 2.055000000000000E10   -3.168443787015148E-3   1.487365932445283E-3  
 2.055200000000000E10   -2.747648852635865E-3   1.965741601048245E-3  
 2.055400000000000E10   -2.289740222126798E-3   2.218290533939446E-3  
 2.055600000000000E10   -1.971191041068071E-3   2.362815594231641E-3  
