#  HZ   S   RI   R     50.00 
! Rohde & Schwarz ZVA40 4Ports - Version 3.90 - 1145.1110k42 SN: 100403
! Date: 2023-10-03 10:14:08
! Measurement: S12 
! 
 2.000000000000000E10    5.076047619459806E-4  -8.739782130794117E-4  
 2.000200000000000E10    3.192582894202874E-4  -7.675997481715901E-4  
 2.000400000000000E10    1.717538123355351E-4  -6.053373131349132E-4  
 2.000600000000000E10    2.058771125222039E-4  -3.754388685424433E-4  
 2.000800000000000E10    4.597511142492295E-4  -3.314882299121194E-4  
 2.001000000000000E10    6.969104956456081E-4  -5.999419458762364E-4  
 2.001200000000000E10    5.913598105069941E-4  -1.072683768277919E-3  
 2.001400000000000E10    1.237577420801649E-4  -1.324566658931198E-3  
 2.001600000000000E10   -3.250069189730480E-4  -1.205911006157597E-3  
 2.001800000000000E10   -5.572421122687283E-4  -9.717549244804240E-4  
 2.002000000000000E10   -6.452214998986435E-4  -7.443842973939524E-4  
 2.002200000000000E10   -6.471341130910097E-4  -5.776829849411217E-4  
 2.002400000000000E10   -6.106118736271230E-4  -5.421419261471817E-4  
 2.002600000000000E10   -7.052461151033640E-4  -6.030772045185722E-4  
 2.002800000000000E10   -9.884628320664720E-4  -6.150684957564982E-4  
 2.003000000000000E10   -1.375308277568332E-3  -3.468573559075594E-4  
 2.003200000000000E10   -1.536281374110668E-3   2.422245516855684E-4  
 2.003400000000000E10   -1.274232131739458E-3   8.152192544743971E-4  
 2.003600000000000E10   -8.082777645473404E-4   1.082821365411359E-3  
 2.003800000000000E10   -4.270780902718091E-4   1.099510687506861E-3  
 2.004000000000000E10   -1.587377967856204E-4   1.078654007330813E-3  
 2.004200000000000E10    1.256697152577410E-4   1.046826222187115E-3  
 2.004400000000000E10    4.362050331784068E-4   8.832462265639120E-4  
 2.004600000000000E10    6.279595847310569E-4   5.752800282573811E-4  
 2.004800000000000E10    5.784790199767385E-4   2.504247440137314E-4  
 2.005000000000000E10    3.975065688050732E-4   1.006437255623664E-4  
 2.005200000000000E10    2.382573557379483E-4   1.159432574274467E-4  
 2.005400000000000E10    2.185799746291230E-4   2.557585033139697E-4  
 2.005600000000000E10    3.709230513777585E-4   2.541740336541639E-4  
 2.005800000000000E10    3.765108822672456E-4   1.417447681349047E-4  
 2.006000000000000E10    3.708338201114978E-4   1.910254709569186E-4  
 2.006200000000000E10    5.038591647192974E-4   1.958309687863760E-4  
 2.006400000000000E10    6.395948304863717E-4   6.196647074021812E-5  
 2.006600000000000E10    6.662970861523517E-4  -1.227134036728078E-4  
 2.006800000000000E10    6.625320831382717E-4  -2.489199223755687E-4  
 2.007000000000000E10    6.604911004951984E-4  -4.212107235583029E-4  
 2.007200000000000E10    6.145420441128038E-4  -6.319550448097289E-4  
 2.007400000000000E10    4.463657096493990E-4  -8.969778492529360E-4  
 2.007600000000000E10    6.277203438340048E-5  -1.031287710820497E-3  
 2.007800000000000E10   -2.497954852447880E-4  -8.771793283004728E-4  
 2.008000000000000E10   -3.595361216597397E-4  -6.975093382169252E-4  
 2.008200000000000E10   -4.142114291122804E-4  -5.830965043666463E-4  
 2.008400000000000E10   -4.364385224309647E-4  -5.340216685672878E-4  
 2.008600000000000E10   -5.294853084099790E-4  -5.423748322452109E-4  
 2.008800000000000E10   -6.872225634719212E-4  -4.549513967638767E-4  
 2.009000000000000E10   -7.640241895353906E-4  -3.013570816687274E-4  
 2.009200000000000E10   -8.056593274145768E-4  -1.989029874999283E-4  
 2.009400000000000E10   -8.824713748051890E-4  -8.105150152038766E-5  
 2.009600000000000E10   -9.498059042487984E-4   1.103982800419477E-4  
 2.009800000000000E10   -9.292712913722629E-4   3.418834228930927E-4  
 2.010000000000000E10   -7.807851868198702E-4   5.240771074399905E-4  
 2.010200000000000E10   -6.280252580634423E-4   5.990633098581048E-4  
 2.010400000000000E10   -5.451032128702436E-4   6.226661822034253E-4  
 2.010600000000000E10   -5.361132530702485E-4   6.700575381896840E-4  
 2.010800000000000E10   -5.388192970443655E-4   8.218711914701596E-4  
 2.011000000000000E10   -4.151867760811002E-4   1.055813804096370E-3  
 2.011200000000000E10   -1.542994049722674E-4   1.195351131846783E-3  
 2.011400000000000E10    9.783965112917403E-5   1.230683772721225E-3  
 2.011600000000000E10    3.856911067419721E-4   1.257871316435437E-3  
 2.011800000000000E10    7.260417871832572E-4   1.095710861220680E-3  
 2.012000000000000E10    8.728566851156454E-4   7.983687144048789E-4  
 2.012200000000000E10    8.537581651816491E-4   5.932756057181569E-4  
 2.012400000000000E10    8.337314033673870E-4   5.480346606216498E-4  
 2.012600000000000E10    9.609160047990306E-4   5.623826636346402E-4  
 2.012800000000000E10    1.198358523348967E-3   3.849423374049366E-4  
 2.013000000000000E10    1.240263921553614E-3   6.297408199989824E-5  
 2.013200000000000E10    1.142342294635320E-3  -1.152698532678187E-4  
 2.013400000000000E10    1.130694963244929E-3  -2.626658145648738E-4  
 2.013600000000000E10    1.068224177557837E-3  -4.509591887687782E-4  
 2.013800000000000E10    9.074674884754201E-4  -5.553384630561428E-4  
 2.014000000000000E10    7.984461262822152E-4  -5.159543426189986E-4  
 2.014200000000000E10    8.853998345633349E-4  -4.612204599349450E-4  
 2.014400000000000E10    1.130910693771309E-3  -6.109681885896458E-4  
 2.014600000000000E10    1.256615703890997E-3  -1.033802771147479E-3  
 2.014800000000000E10    1.096604219465344E-3  -1.543441088870168E-3  
 2.015000000000000E10    6.611053680966575E-4  -1.948192344840478E-3  
 2.015200000000000E10    1.170631669959187E-4  -2.101239041183834E-3  
 2.015400000000000E10   -4.217809473630041E-4  -2.089023236530247E-3  
 2.015600000000000E10   -9.148041027839538E-4  -1.877596726882513E-3  
 2.015800000000000E10   -1.215997216705647E-3  -1.532084756979236E-3  
 2.016000000000000E10   -1.348058240384691E-3  -1.193062229840844E-3  
 2.016200000000000E10   -1.407004172775757E-3  -9.286204693597501E-4  
 2.016400000000000E10   -1.427388223991902E-3  -7.687512638599234E-4  
 2.016600000000000E10   -1.531464866948901E-3  -6.564689317235241E-4  
 2.016800000000000E10   -1.699784369621840E-3  -4.660111670899723E-4  
 2.017000000000000E10   -1.822879111083845E-3  -1.823721398034616E-4  
 2.017200000000000E10   -1.830079109856376E-3   1.550729085229924E-4  
 2.017400000000000E10   -1.735423687259080E-3   3.934975970036317E-4  
 2.017600000000000E10   -1.749755655139409E-3   5.313999545587987E-4  
 2.017800000000000E10   -1.843048582991792E-3   8.141444025871655E-4  
 2.018000000000000E10   -1.798926395605560E-3   1.228099641459132E-3  
 2.018200000000000E10   -1.611332814381631E-3   1.678715490184173E-3  
 2.018400000000000E10   -1.240478155927526E-3   2.069977319075002E-3  
 2.018600000000000E10   -7.782948496579022E-4   2.320452265579392E-3  
 2.018800000000000E10   -2.170404887120067E-4   2.409821703892064E-3  
 2.019000000000000E10    2.808081324608928E-4   2.284264019517987E-3  
 2.019200000000000E10    6.193837314775146E-4   2.064867712626303E-3  
 2.019400000000000E10    8.512041186568914E-4   1.900757848354126E-3  
 2.019600000000000E10    1.094833658835678E-3   1.774693485694351E-3  
 2.019800000000000E10    1.368922569478552E-3   1.547482998662249E-3  
 2.020000000000000E10    1.510380469780002E-3   1.255487259994779E-3  
 2.020200000000000E10    1.528593254517074E-3   1.064112888545626E-3  
 2.020400000000000E10    1.638066704833398E-3   1.000676032466193E-3  
 2.020600000000000E10    1.904457195282535E-3   8.970244628101313E-4  
 2.020800000000000E10    2.256466541439295E-3   6.285924895632047E-4  
 2.021000000000000E10    2.515321528470075E-3   5.231620805177417E-5  
 2.021200000000000E10    2.400892010579507E-3  -5.900991813245196E-4  
 2.021400000000000E10    2.098364022525925E-3  -9.854478390749408E-4  
 2.021600000000000E10    1.787718605353601E-3  -1.227087712053348E-3  
 2.021800000000000E10    1.524581297956132E-3  -1.319611337277349E-3  
 2.022000000000000E10    1.428570865687949E-3  -1.373923530250236E-3  
 2.022200000000000E10    1.435149482589353E-3  -1.591276273959213E-3  
 2.022400000000000E10    1.292028809311214E-3  -2.003552159294486E-3  
 2.022600000000000E10    9.189429886949561E-4  -2.379991243489915E-3  
 2.022800000000000E10    4.079983099708680E-4  -2.648119047215140E-3  
 2.023000000000000E10   -2.493015053914860E-4  -2.770329196075047E-3  
 2.023200000000000E10   -9.529956689759815E-4  -2.629944200937947E-3  
 2.023400000000000E10   -1.539796905557591E-3  -2.190056834714833E-3  
 2.023600000000000E10   -1.816896738967410E-3  -1.612249123691409E-3  
 2.023800000000000E10   -1.857228171839207E-3  -1.100036156087838E-3  
 2.024000000000000E10   -1.789054165042385E-3  -7.218698328533384E-4  
 2.024200000000000E10   -1.659168331469927E-3  -4.379195085709432E-4  
 2.024400000000000E10   -1.500602311420220E-3  -3.195812395359908E-4  
 2.024600000000000E10   -1.470217067334387E-3  -3.052885532034217E-4  
 2.024800000000000E10   -1.551786735136476E-3  -2.143264783727420E-4  
 2.025000000000000E10   -1.633784354284958E-3  -7.120889441230922E-5  
 2.025200000000000E10   -1.750101895864915E-3   1.081550432933943E-4  
 2.025400000000000E10   -1.880460737824992E-3   3.794188928117770E-4  
 2.025600000000000E10   -1.927181793790725E-3   7.879964002684036E-4  
 2.025800000000000E10   -1.793998181474982E-3   1.230315977914466E-3  
 2.026000000000000E10   -1.506919200808086E-3   1.603347171718876E-3  
 2.026200000000000E10   -1.148995568251445E-3   1.888476385459028E-3  
 2.026400000000000E10   -7.339836706200409E-4   2.070196162633322E-3  
 2.026600000000000E10   -2.751415218140379E-4   2.153491687581495E-3  
 2.026800000000000E10    2.435465414439225E-4   2.068939972323952E-3  
 2.027000000000000E10    6.610338179463591E-4   1.777222574067613E-3  
 2.027200000000000E10    8.646097288604965E-4   1.405365523640756E-3  
 2.027400000000000E10    8.508705693573038E-4   1.100652256152696E-3  
 2.027600000000000E10    7.339520897302363E-4   9.373478910506325E-4  
 2.027800000000000E10    6.246761142931603E-4   9.949921621699577E-4  
 2.028000000000000E10    7.310159573400464E-4   1.184002172926234E-3  
 2.028200000000000E10    1.086425221594120E-3   1.282768263654025E-3  
 2.028400000000000E10    1.561683210268341E-3   1.127243951756370E-3  
 2.028600000000000E10    1.894051924830786E-3   6.693934103370542E-4  
 2.028800000000000E10    1.941934861760173E-3   1.445934936378358E-4  
 2.029000000000000E10    1.815483086156073E-3  -2.907577350183770E-4  
 2.029200000000000E10    1.580804060385735E-3  -6.139401380938513E-4  
 2.029400000000000E10    1.280866408099731E-3  -7.605973493169856E-4  
 2.029600000000000E10    1.062284159060154E-3  -7.689189234817471E-4  
 2.029800000000000E10    9.884881890482374E-4  -7.654121792357830E-4  
 2.030000000000000E10    9.699764626997490E-4  -8.343912454115021E-4  
 2.030200000000000E10    9.687306419773788E-4  -9.492999697276565E-4  
 2.030400000000000E10    9.743225269226566E-4  -1.172410035333424E-3  
 2.030600000000000E10    8.299093525339332E-4  -1.528737506035854E-3  
 2.030800000000000E10    3.942054215628931E-4  -1.788728551387235E-3  
 2.031000000000000E10   -9.218686287332042E-5  -1.784783792337058E-3  
 2.031200000000000E10   -4.647815701362022E-4  -1.607127892957242E-3  
 2.031400000000000E10   -7.035880504796904E-4  -1.370081626292732E-3  
 2.031600000000000E10   -8.451219570512576E-4  -1.125759583104540E-3  
 2.031800000000000E10   -9.019650536140912E-4  -9.279488003812733E-4  
 2.032000000000000E10   -9.563734034869683E-4  -7.511298560226958E-4  
 2.032200000000000E10   -9.262035040322829E-4  -5.830869475310600E-4  
 2.032400000000000E10   -8.495887374953816E-4  -5.422446432661403E-4  
 2.032600000000000E10   -8.862197153373726E-4  -5.514548004915317E-4  
 2.032800000000000E10   -9.894587500538265E-4  -5.349432596833343E-4  
 2.033000000000000E10   -1.148120491523986E-3  -4.788296129037109E-4  
 2.033200000000000E10   -1.298167609126756E-3  -3.515032186880018E-4  
 2.033400000000000E10   -1.464714093513235E-3  -2.265679897930198E-4  
 2.033600000000000E10   -1.712718849173851E-3  -1.521953920557819E-4  
 2.033800000000000E10   -1.893141384546956E-3   5.136505545427402E-4  
 2.034000000000000E10   -1.757640460575069E-3   1.108142836191864E-3  
 2.034200000000000E10   -1.383388971185519E-3   1.581451467548808E-3  
 2.034400000000000E10   -8.563082126245179E-4   1.846107529234831E-3  
 2.034600000000000E10   -3.032470359122036E-4   1.860393603608289E-3  
 2.034800000000000E10    1.321470950238614E-4   1.716225257108885E-3  
 2.035000000000000E10    4.730219230555964E-4   1.456314176148563E-3  
 2.035200000000000E10    6.243642958536469E-4   1.093087532488560E-3  
 2.035400000000000E10    5.531513080414799E-4   7.968472200445831E-4  
 2.035600000000000E10    3.554617427720655E-4   7.062794821750787E-4  
 2.035800000000000E10    2.213109444171467E-4   8.484590044072659E-4  
 2.036000000000000E10    3.071535051006962E-4   1.137046639255628E-3  
 2.036200000000000E10    6.804721477372504E-4   1.345162598968104E-3  
 2.036400000000000E10    1.159928092319105E-3   1.246177375799528E-3  
 2.036600000000000E10    1.531721502370029E-3   9.406418712050828E-4  
 2.036800000000000E10    1.773162594030577E-3   5.093211355550147E-4  
 2.037000000000000E10    1.791252103565192E-3   3.060482625490599E-5  
 2.037200000000000E10    1.645849564940565E-3  -3.243779205216992E-4  
 2.037400000000000E10    1.526557736926609E-3  -5.554906954919851E-4  
 2.037600000000000E10    1.432102199436890E-3  -8.114505541959296E-4  
 2.037800000000000E10    1.272745275249084E-3  -1.094659501514225E-3  
 2.038000000000000E10    1.032258655565481E-3  -1.351764024649229E-3  
 2.038200000000000E10    6.916489348643357E-4  -1.513360214799091E-3  
 2.038400000000000E10    3.198871207940910E-4  -1.561552583653894E-3  
 2.038600000000000E10    3.102753032214463E-6  -1.468877756485233E-3  
 2.038800000000000E10   -1.557571155933181E-4  -1.376765724099069E-3  
 2.039000000000000E10   -3.392945498624748E-4  -1.371568663873606E-3  
 2.039200000000000E10   -6.107339609621300E-4  -1.304067524701909E-3  
 2.039400000000000E10   -8.115260904930810E-4  -1.110892837729167E-3  
 2.039600000000000E10   -9.117735101392977E-4  -9.434140455495154E-4  
 2.039800000000000E10   -1.026676915999916E-3  -8.695509728837621E-4  
 2.040000000000000E10   -1.216104659424336E-3  -7.752279138744430E-4  
 2.040200000000000E10   -1.435922312170819E-3  -5.702944580224102E-4  
 2.040400000000000E10   -1.613018051203755E-3  -2.322835029594394E-4  
 2.040600000000000E10   -1.658895975668674E-3   1.801776084499175E-4  
 2.040800000000000E10   -1.533930961698018E-3   5.574252357258014E-4  
 2.041000000000000E10   -1.305397569753782E-3   8.436868471714358E-4  
 2.041200000000000E10   -1.071061585443440E-3   9.750234204585907E-4  
 2.041400000000000E10   -9.404463236461636E-4   1.070017913459904E-3  
 2.041600000000000E10   -8.340748328784551E-4   1.270619824666668E-3  
 2.041800000000000E10   -6.195988238754649E-4   1.511273970310059E-3  
 2.042000000000000E10   -2.814871032670555E-4   1.699138730246988E-3  
 2.042200000000000E10    1.721413363055844E-4   1.746125726236238E-3  
 2.042400000000000E10    5.708311175651573E-4   1.594154862686992E-3  
 2.042600000000000E10    8.345680975320716E-4   1.421830082243240E-3  
 2.042800000000000E10    1.126199650267760E-3   1.208154695901882E-3  
 2.043000000000000E10    1.320944434997660E-3   8.369359614637991E-4  
 2.043200000000000E10    1.284881602731292E-3   5.209681899200575E-4  
 2.043400000000000E10    1.226759757156725E-3   3.728118565588914E-4  
 2.043600000000000E10    1.249021488345332E-3   2.992548176768685E-4  
 2.043800000000000E10    1.368974732166087E-3   1.784051101249471E-4  
 2.044000000000000E10    1.423321862670559E-3  -4.815702602543212E-5  
 2.044200000000000E10    1.442313090794617E-3  -2.286541297238458E-4  
 2.044400000000000E10    1.530545651567755E-3  -4.056785807430667E-4  
 2.044600000000000E10    1.650804489919985E-3  -7.179409450920369E-4  
 2.044800000000000E10    1.641584581833471E-3  -1.209574523036955E-3  
 2.045000000000000E10    1.367849086549271E-3  -1.753715716336889E-3  
 2.045200000000000E10    8.643653968142139E-4  -2.135395236244357E-3  
 2.045400000000000E10    2.496087771659304E-4  -2.260298321575479E-3  
 2.045600000000000E10   -2.610951358090258E-4  -2.133098896592856E-3  
 2.045800000000000E10   -5.971764934387196E-4  -1.954913316122084E-3  
 2.046000000000000E10   -8.978016364077728E-4  -1.815661067936432E-3  
 2.046200000000000E10   -1.213511684909463E-3  -1.678962057835802E-3  
 2.046400000000000E10   -1.581345693449732E-3  -1.463904295599571E-3  
 2.046600000000000E10   -1.877174216874496E-3  -1.040339297442525E-3  
 2.046800000000000E10   -1.923379923768894E-3  -5.401603972401333E-4  
 2.047000000000000E10   -1.800994944965674E-3  -2.209256786887569E-4  
 2.047200000000000E10   -1.748960702335117E-3  -6.512541606045692E-5  
 2.047400000000000E10   -1.793895861030453E-3   1.178733687589152E-4  
 2.047600000000000E10   -1.802734608106591E-3   3.814001500830744E-4  
 2.047800000000000E10   -1.733642381926378E-3   6.156043253011175E-4  
 2.048000000000000E10   -1.704586117907807E-3   8.303188261817452E-4  
 2.048200000000000E10   -1.724408378962566E-3   1.112674832930444E-3  
 2.048400000000000E10   -1.651315229806911E-3   1.559555569353203E-3  
 2.048600000000000E10   -1.296447628798584E-3   1.969237147864920E-3  
 2.048800000000000E10   -8.597123108942202E-4   2.138201992406890E-3  
 2.049000000000000E10   -5.465054537462830E-4   2.222339217378586E-3  
 2.049200000000000E10   -2.504664961533208E-4   2.353668411227841E-3  
 2.049400000000000E10    9.634584475187931E-5   2.503193820033361E-3  
 2.049600000000000E10    5.472197943298078E-4   2.625879003769822E-3  
 2.049800000000000E10    1.120026904606709E-3   2.630522862697641E-3  
 2.050000000000000E10    1.735239807102416E-3   2.450741465306945E-3  
 2.050200000000000E10    2.324782518876924E-3   2.114333384842785E-3  
 2.050400000000000E10    2.837887715065370E-3   1.574298828253868E-3  
 2.050600000000000E10    3.121820692386893E-3   8.177541614579107E-4  
 2.050800000000000E10    3.072644213076544E-3   5.568639203880190E-5  
 2.051000000000000E10    2.846184462584831E-3  -4.848604547549730E-4  
 2.051200000000000E10    2.623955555329169E-3  -8.958003082726565E-4  
 2.051400000000000E10    2.352435590216407E-3  -1.246362463226197E-3  
 2.051600000000000E10    2.068900710178746E-3  -1.457723288762349E-3  
 2.051800000000000E10    1.877494233970841E-3  -1.627867170437067E-3  
 2.052000000000000E10    1.716225752951922E-3  -1.875535235740245E-3  
 2.052200000000000E10    1.561418287800970E-3  -2.147814405530140E-3  
 2.052400000000000E10    1.362714196417343E-3  -2.521065857123446E-3  
 2.052600000000000E10    9.063032813611683E-4  -2.914367717932220E-3  
 2.052800000000000E10    3.069189271492953E-4  -3.089819413920244E-3  
 2.053000000000000E10   -2.133110257192231E-4  -3.136910558505743E-3  
 2.053200000000000E10   -7.955461236027380E-4  -3.168570679715939E-3  
 2.053400000000000E10   -1.396957715904271E-3  -3.020081634598750E-3  
 2.053600000000000E10   -1.945596904045454E-3  -2.768474622388129E-3  
 2.053800000000000E10   -2.487875943727516E-3  -2.362554090925389E-3  
 2.054000000000000E10   -2.871464411900552E-3  -1.848267969088974E-3  
 2.054200000000000E10   -3.187998905088063E-3  -1.355441373393492E-3  
 2.054400000000000E10   -3.426467396180940E-3  -7.231265772134066E-4  
 2.054600000000000E10   -3.482332660092248E-3  -4.713213786965719E-5  
 2.054800000000000E10   -3.392399849232149E-3   6.139021241795962E-4  
 2.055000000000000E10   -3.139651587439908E-3   1.208270339433242E-3  
 2.055200000000000E10   -2.764019088957597E-3   1.668948986291610E-3  
 2.055400000000000E10   -2.381344282723688E-3   1.932822452444170E-3  
 2.055600000000000E10   -2.108115349309864E-3   2.123967597812966E-3  
