#  HZ   S   RI   R     50.00 
! Rohde & Schwarz ZVA40 4Ports - Version 3.90 - 1145.1110k42 SN: 100403
! Date: 2023-10-03 10:13:25
! Measurement: S12 
! 
 2.000000000000000E10    1.777663951981123E-3   1.947768450244675E-4  
 2.000200000000000E10    1.739869127050042E-3   7.824388066418814E-5  
 2.000400000000000E10    1.717766453684480E-3  -1.051759506851710E-5  
 2.000600000000000E10    1.850081715491359E-3  -5.004775529313420E-5  
 2.000800000000000E10    2.131764018149288E-3  -2.867919853694427E-4  
 2.001000000000000E10    2.316248577295078E-3  -8.372683961944726E-4  
 2.001200000000000E10    2.150561591541326E-3  -1.560998494150462E-3  
 2.001400000000000E10    1.611637951875175E-3  -2.048195188830573E-3  
 2.001600000000000E10    1.055666383493830E-3  -2.207688883774811E-3  
 2.001800000000000E10    6.217966546063071E-4  -2.250504153953107E-3  
 2.002000000000000E10    2.366791991840324E-4  -2.239732942716391E-3  
 2.002200000000000E10   -1.158316967862279E-4  -2.155623881629220E-3  
 2.002400000000000E10   -3.438603393819735E-4  -2.133239931599410E-3  
 2.002600000000000E10   -6.610741407644971E-4  -2.188488634096252E-3  
 2.002800000000000E10   -1.154404694076490E-3  -2.177044542299377E-3  
 2.003000000000000E10   -1.770195818540675E-3  -1.876833667564723E-3  
 2.003200000000000E10   -2.161678470050295E-3  -1.251766160647902E-3  
 2.003400000000000E10   -2.168866055500177E-3  -6.093368563732064E-4  
 2.003600000000000E10   -1.999456711389401E-3  -1.627636330441520E-4  
 2.003800000000000E10   -1.830327928204228E-3   1.188581265052091E-4  
 2.004000000000000E10   -1.691692801951259E-3   3.987218113723902E-4  
 2.004200000000000E10   -1.471519780655702E-3   6.369132304960794E-4  
 2.004400000000000E10   -1.216468625460510E-3   7.507016007029626E-4  
 2.004600000000000E10   -1.034443417598528E-3   7.275278740390032E-4  
 2.004800000000000E10   -1.031591293953911E-3   7.003703148155992E-4  
 2.005000000000000E10   -1.102510503389769E-3   8.672932701840722E-4  
 2.005200000000000E10   -1.052465164792483E-3   1.159927389515495E-3  
 2.005400000000000E10   -7.929138157999628E-4   1.476294563703791E-3  
 2.005600000000000E10   -3.797934564149560E-4   1.572233654938087E-3  
 2.005800000000000E10   -1.049800220816569E-4   1.504998770542443E-3  
 2.006000000000000E10    1.218220882206138E-4   1.486987871531811E-3  
 2.006200000000000E10    3.875087034733346E-4   1.422120641951484E-3  
 2.006400000000000E10    5.898905672236450E-4   1.284038070244370E-3  
 2.006600000000000E10    7.044875011261967E-4   1.170954257422300E-3  
 2.006800000000000E10    8.865127413257682E-4   1.125363934854115E-3  
 2.007000000000000E10    1.148712610032548E-3   9.975204873761095E-4  
 2.007200000000000E10    1.375088575985973E-3   7.327827732768600E-4  
 2.007400000000000E10    1.486830396094808E-3   3.503593877583087E-4  
 2.007600000000000E10    1.387910585402063E-3   1.136011916160998E-5  
 2.007800000000000E10    1.245564406013323E-3  -1.384945543476432E-4  
 2.008000000000000E10    1.218659915374937E-3  -2.506215322581637E-4  
 2.008200000000000E10    1.216954538702137E-3  -4.232101157497339E-4  
 2.008400000000000E10    1.202525993533157E-3  -6.585428534351566E-4  
 2.008600000000000E10    1.057169413090580E-3  -9.562881033936586E-4  
 2.008800000000000E10    7.803473466386399E-4  -1.161494214708607E-3  
 2.009000000000000E10    5.294037109706551E-4  -1.237322028760833E-3  
 2.009200000000000E10    2.890057685026140E-4  -1.291300864303830E-3  
 2.009400000000000E10    2.840634314688268E-5  -1.314194510794348E-3  
 2.009600000000000E10   -2.329394321552374E-4  -1.273680672359963E-3  
 2.009800000000000E10   -4.672972729032928E-4  -1.147991701684616E-3  
 2.010000000000000E10   -6.090617583443722E-4  -9.801967104000075E-4  
 2.010200000000000E10   -6.828179337187775E-4  -8.695818337232427E-4  
 2.010400000000000E10   -7.883660771228650E-4  -8.312401003894156E-4  
 2.010600000000000E10   -1.002891428975595E-3  -7.215423802672714E-4  
 2.010800000000000E10   -1.190476369595638E-3  -4.824222748909422E-4  
 2.011000000000000E10   -1.236004082279073E-3  -1.871946145978722E-4  
 2.011200000000000E10   -1.197994966922259E-3   6.092316561989720E-5  
 2.011400000000000E10   -1.143169347886686E-3   2.779482552728883E-4  
 2.011600000000000E10   -1.004221564572719E-3   4.841753441185036E-4  
 2.011800000000000E10   -8.102520713927571E-4   5.451963860886517E-4  
 2.012000000000000E10   -7.701616807564818E-4   5.195399560896612E-4  
 2.012200000000000E10   -8.564039383566492E-4   6.117812870932675E-4  
 2.012400000000000E10   -8.654685074428994E-4   8.743878182334205E-4  
 2.012600000000000E10   -6.583454647894812E-4   1.181802613212279E-3  
 2.012800000000000E10   -3.146920315447023E-4   1.281872710764960E-3  
 2.013000000000000E10   -9.198251899323186E-5   1.225993481326711E-3  
 2.013200000000000E10    4.796641493427430E-5   1.263930363132170E-3  
 2.013400000000000E10    2.833205335601061E-4   1.275295296821881E-3  
 2.013600000000000E10    4.599802357713796E-4   1.202445089196166E-3  
 2.013800000000000E10    5.696211247359990E-4   1.194150652736425E-3  
 2.014000000000000E10    7.720201543566807E-4   1.281771632083864E-3  
 2.014200000000000E10    1.158735538073988E-3   1.342903046558301E-3  
 2.014400000000000E10    1.706371510711809E-3   1.146193899869643E-3  
 2.014600000000000E10    2.155510303391903E-3   6.275356367782311E-4  
 2.014800000000000E10    2.304715733906186E-3  -6.856370843403664E-5  
 2.015000000000000E10    2.127312494579841E-3  -7.164069080587339E-4  
 2.015200000000000E10    1.776200106919364E-3  -1.170738009494488E-3  
 2.015400000000000E10    1.363245252933767E-3  -1.459326633873085E-3  
 2.015600000000000E10    9.330638072074013E-4  -1.524975247405194E-3  
 2.015800000000000E10    6.604724029010094E-4  -1.461092844019058E-3  
 2.016000000000000E10    5.569392082246918E-4  -1.424202803280895E-3  
 2.016200000000000E10    4.878019788992351E-4  -1.515340310073010E-3  
 2.016400000000000E10    3.594354407309934E-4  -1.700644458954533E-3  
 2.016600000000000E10    8.071394990515223E-5  -1.905591666905417E-3  
 2.016800000000000E10   -3.142656210844440E-4  -1.992963254451752E-3  
 2.017000000000000E10   -7.170280527875380E-4  -1.948333724781319E-3  
 2.017200000000000E10   -1.052919344079716E-3  -1.827887319787233E-3  
 2.017400000000000E10   -1.340315129642410E-3  -1.742107871298989E-3  
 2.017600000000000E10   -1.777182604807119E-3  -1.640846556121553E-3  
 2.017800000000000E10   -2.277975651883969E-3  -1.275672184958778E-3  
 2.018000000000000E10   -2.584445540344826E-3  -7.285568237960063E-4  
 2.018200000000000E10   -2.718519669509045E-3  -1.221931317424471E-4  
 2.018400000000000E10   -2.640003303962726E-3   4.799015091352717E-4  
 2.018600000000000E10   -2.420795322568329E-3   9.831038381283483E-4  
 2.018800000000000E10   -2.082072784779249E-3   1.365142046577401E-3  
 2.019000000000000E10   -1.750645197548524E-3   1.573521984499638E-3  
 2.019200000000000E10   -1.533469383570332E-3   1.706743483535118E-3  
 2.019400000000000E10   -1.368303183914611E-3   1.923655530575801E-3  
 2.019600000000000E10   -1.100376808877897E-3   2.216796520062619E-3  
 2.019800000000000E10   -7.153706650974023E-4   2.417238230851514E-3  
 2.020000000000000E10   -3.651437043488302E-4   2.518485791774260E-3  
 2.020200000000000E10   -5.627767974079621E-5   2.666085923987407E-3  
 2.020400000000000E10    3.913334588071815E-4   2.872685806963731E-3  
 2.020600000000000E10    1.053873548732588E-3   2.949077066861921E-3  
 2.020800000000000E10    1.807947190374964E-3   2.746393464298712E-3  
 2.021000000000000E10    2.440933715897026E-3   2.186916716810730E-3  
 2.021200000000000E10    2.686336119141844E-3   1.519759086443594E-3  
 2.021400000000000E10    2.746064672936444E-3   1.031251938979107E-3  
 2.021600000000000E10    2.795359507823984E-3   6.190350546536072E-4  
 2.021800000000000E10    2.855027534274592E-3   2.849589886695699E-4  
 2.022000000000000E10    3.008453287529174E-3  -7.492568157532436E-5  
 2.022200000000000E10    3.201399041615703E-3  -6.164638260896837E-4  
 2.022400000000000E10    3.167763274783890E-3  -1.385493867996114E-3  
 2.022600000000000E10    2.800928161445040E-3  -2.109900091050400E-3  
 2.022800000000000E10    2.241137032224625E-3  -2.651740322579389E-3  
 2.023000000000000E10    1.574188582944098E-3  -2.975879547496637E-3  
 2.023200000000000E10    9.105224722858381E-4  -3.068242549758267E-3  
 2.023400000000000E10    3.233568977857768E-4  -2.988383311916282E-3  
 2.023600000000000E10   -8.687820701635686E-5  -2.854778276135524E-3  
 2.023800000000000E10   -4.443019559537924E-4  -2.749359200674075E-3  
 2.024000000000000E10   -8.090577127101521E-4  -2.633750757754401E-3  
 2.024200000000000E10   -1.148399090635832E-3  -2.463163161236379E-3  
 2.024400000000000E10   -1.412589378930905E-3  -2.285249151841358E-3  
 2.024600000000000E10   -1.704274564636527E-3  -2.149214019516000E-3  
 2.024800000000000E10   -2.052493764225532E-3  -1.965186506923703E-3  
 2.025000000000000E10   -2.419349427024524E-3  -1.713972827592106E-3  
 2.025200000000000E10   -2.776877126759953E-3  -1.348565660279107E-3  
 2.025400000000000E10   -3.115312196314335E-3  -8.492913523999354E-4  
 2.025600000000000E10   -3.326160005397267E-3  -1.993298170014492E-4  
 2.025800000000000E10   -3.314337512064312E-3   5.104552794903242E-4  
 2.026000000000000E10   -3.098899636555602E-3   1.167956351613005E-3  
 2.026200000000000E10   -2.739147524590846E-3   1.708042587981456E-3  
 2.026400000000000E10   -2.307348246513694E-3   2.105847992761820E-3  
 2.026600000000000E10   -1.853391717843436E-3   2.417224140285894E-3  
 2.026800000000000E10   -1.304992612589289E-3   2.610335290362990E-3  
 2.027000000000000E10   -7.843862425673892E-4   2.583525980029393E-3  
 2.027200000000000E10   -4.365427464815892E-4   2.450024795339064E-3  
 2.027400000000000E10   -2.506603885666226E-4   2.389596585460284E-3  
 2.027600000000000E10   -8.889829674714108E-5   2.432911277369217E-3  
 2.027800000000000E10    1.423196539420773E-4   2.600360472031214E-3  
 2.028000000000000E10    5.962636097575781E-4   2.792274734626214E-3  
 2.028200000000000E10    1.225919234221456E-3   2.817933689113017E-3  
 2.028400000000000E10    1.916837503409220E-3   2.530236892333186E-3  
 2.028600000000000E10    2.408536771933238E-3   1.958435133996385E-3  
 2.028800000000000E10    2.598814295466852E-3   1.354332457089590E-3  
 2.029000000000000E10    2.641802800267383E-3   8.403952556869222E-4  
 2.029200000000000E10    2.604578121530790E-3   3.707322854703914E-4  
 2.029400000000000E10    2.470407126195453E-3   2.974475662793138E-5  
 2.029600000000000E10    2.375094280405729E-3  -1.832074539615186E-4  
 2.029800000000000E10    2.404365050433963E-3  -4.318022509795373E-4  
 2.030000000000000E10    2.414114937117255E-3  -7.709995972820455E-4  
 2.030200000000000E10    2.365083347454115E-3  -1.126389989318947E-3  
 2.030400000000000E10    2.296616116331684E-3  -1.563606878604602E-3  
 2.030600000000000E10    2.049722777748550E-3  -2.100863942393551E-3  
 2.030800000000000E10    1.527268245505790E-3  -2.532149828901446E-3  
 2.031000000000000E10    9.072346168708194E-4  -2.721308989243375E-3  
 2.031200000000000E10    3.361780782816587E-4  -2.703747461998353E-3  
 2.031400000000000E10   -1.028106942410684E-4  -2.556891879066825E-3  
 2.031600000000000E10   -4.470413971123183E-4  -2.385997584227611E-3  
 2.031800000000000E10   -7.208193527293151E-4  -2.212811744323483E-3  
 2.032000000000000E10   -9.617599404279007E-4  -2.032792281911329E-3  
 2.032200000000000E10   -1.124259002541227E-3  -1.855425122711394E-3  
 2.032400000000000E10   -1.263732069033992E-3  -1.767289867900588E-3  
 2.032600000000000E10   -1.503069143466376E-3  -1.704487492571827E-3  
 2.032800000000000E10   -1.787284626280544E-3  -1.566896469470252E-3  
 2.033000000000000E10   -2.100394874880159E-3  -1.354359672404826E-3  
 2.033200000000000E10   -2.383624677787776E-3  -1.063739363518026E-3  
 2.033400000000000E10   -2.654292172303906E-3  -7.325558539445479E-4  
 2.033600000000000E10   -2.909495797077263E-3  -5.403557076567303E-4  
 2.033800000000000E10   -3.130667144432664E-3   4.457118770073134E-4  
 2.034000000000000E10   -2.990917449265167E-3   1.219696830958128E-3  
 2.034200000000000E10   -2.568507049646643E-3   1.890309232597550E-3  
 2.034400000000000E10   -1.954327277080329E-3   2.314167933676530E-3  
 2.034600000000000E10   -1.344844435893551E-3   2.462610421288345E-3  
 2.034800000000000E10   -8.344973450423116E-4   2.452709858685180E-3  
 2.035000000000000E10   -4.168033041491139E-4   2.349981331025009E-3  
 2.035200000000000E10   -1.409718633685434E-4   2.171393242423182E-3  
 2.035400000000000E10   -2.108954733423028E-5   2.031042844195057E-3  
 2.035600000000000E10    2.721677958982548E-5   2.057843048263479E-3  
 2.035800000000000E10    1.748942967323173E-4   2.272619193212854E-3  
 2.036000000000000E10    5.702686526260720E-4   2.513411135792181E-3  
 2.036200000000000E10    1.201061954445861E-3   2.576014656504548E-3  
 2.036400000000000E10    1.849174818575934E-3   2.325345244672564E-3  
 2.036600000000000E10    2.340264497669759E-3   1.893222194027018E-3  
 2.036800000000000E10    2.724032581749338E-3   1.342515055849045E-3  
 2.037000000000000E10    2.909314396135785E-3   6.755414048071814E-4  
 2.037200000000000E10    2.836580534845039E-3   8.472140594946085E-5  
 2.037400000000000E10    2.717400840656073E-3  -3.670902321270357E-4  
 2.037600000000000E10    2.597196156986886E-3  -7.988298462738319E-4  
 2.037800000000000E10    2.404063163946073E-3  -1.228538635014384E-3  
 2.038000000000000E10    2.120909117231215E-3  -1.620941183150367E-3  
 2.038200000000000E10    1.766818704911404E-3  -1.924645319512045E-3  
 2.038400000000000E10    1.406617402271540E-3  -2.124074768895905E-3  
 2.038600000000000E10    1.089358240952370E-3  -2.248943231447980E-3  
 2.038800000000000E10    8.155105105187332E-4  -2.435688162222505E-3  
 2.039000000000000E10    4.027372579676686E-4  -2.664387519298881E-3  
 2.039200000000000E10   -1.691473713705179E-4  -2.733906472308768E-3  
 2.039400000000000E10   -6.971742970765466E-4  -2.598402392188157E-3  
 2.039600000000000E10   -1.101281493902206E-3  -2.398863227830993E-3  
 2.039800000000000E10   -1.464282059007221E-3  -2.183686441707391E-3  
 2.040000000000000E10   -1.830837361652542E-3  -1.952254049548949E-3  
 2.040200000000000E10   -2.231376883746298E-3  -1.642666972690711E-3  
 2.040400000000000E10   -2.559773192775471E-3  -1.165336937885042E-3  
 2.040600000000000E10   -2.735551972701042E-3  -5.975911130749242E-4  
 2.040800000000000E10   -2.744360783792757E-3  -2.763484883837885E-5  
 2.041000000000000E10   -2.606979588529578E-3   4.728698318272279E-4  
 2.041200000000000E10   -2.438410237017605E-3   8.582058233312436E-4  
 2.041400000000000E10   -2.286838505555082E-3   1.236348887215610E-3  
 2.041600000000000E10   -2.081268216931710E-3   1.655667968508270E-3  
 2.041800000000000E10   -1.762211650471997E-3   2.070526273369238E-3  
 2.042000000000000E10   -1.316844658167274E-3   2.435698527497826E-3  
 2.042200000000000E10   -7.527871208299918E-4   2.646032212026142E-3  
 2.042400000000000E10   -2.018761483163366E-4   2.659258018765185E-3  
 2.042600000000000E10    2.673556694019311E-4   2.594845507431914E-3  
 2.042800000000000E10    7.558868447732595E-4   2.474265742219157E-3  
 2.043000000000000E10    1.179400939252918E-3   2.170021067959843E-3  
 2.043200000000000E10    1.415466294727392E-3   1.867921660757727E-3  
 2.043400000000000E10    1.621320576372522E-3   1.659025433818224E-3  
 2.043600000000000E10    1.849125950010839E-3   1.470930671698793E-3  
 2.043800000000000E10    2.154103143968516E-3   1.205802783025084E-3  
 2.044000000000000E10    2.379083824861381E-3   8.143277200697750E-4  
 2.044200000000000E10    2.525852027314681E-3   4.619781943296808E-4  
 2.044400000000000E10    2.719567286678487E-3   7.473951188364514E-5  
 2.044600000000000E10    2.905811605699085E-3  -4.689711441406636E-4  
 2.044800000000000E10    2.910282402471812E-3  -1.196364829040788E-3  
 2.045000000000000E10    2.595045172643883E-3  -1.960556169419929E-3  
 2.045200000000000E10    2.027045676691665E-3  -2.555138155542039E-3  
 2.045400000000000E10    1.308026279460777E-3  -2.883024944889325E-3  
 2.045600000000000E10    6.583407176313579E-4  -2.938138743586563E-3  
 2.045800000000000E10    1.337094247530870E-4  -2.918561368628785E-3  
 2.046000000000000E10   -3.743074614451164E-4  -2.880563778388832E-3  
 2.046200000000000E10   -8.828845823666565E-4  -2.781492778686462E-3  
 2.046400000000000E10   -1.444682940254333E-3  -2.572138000417639E-3  
 2.046600000000000E10   -1.935640996735957E-3  -2.134637225902191E-3  
 2.046800000000000E10   -2.176485360703535E-3  -1.604500951038467E-3  
 2.047000000000000E10   -2.237358251241623E-3  -1.214043030308353E-3  
 2.047200000000000E10   -2.347951901524707E-3  -9.478585259919918E-4  
 2.047400000000000E10   -2.536300259331862E-3  -6.253118281839070E-4  
 2.047600000000000E10   -2.646536178266009E-3  -1.814049021588828E-4  
 2.047800000000000E10   -2.642717910930514E-3   2.429651708721563E-4  
 2.048000000000000E10   -2.615313149160809E-3   6.270346369732309E-4  
 2.048200000000000E10   -2.583645887810875E-3   1.045761319498221E-3  
 2.048400000000000E10   -2.468124006150498E-3   1.579127878088642E-3  
 2.048600000000000E10   -2.116828363526751E-3   2.061405986616458E-3  
 2.048800000000000E10   -1.710080627903894E-3   2.365108950201560E-3  
 2.049000000000000E10   -1.359723482487930E-3   2.621023424176706E-3  
 2.049200000000000E10   -9.783772833610851E-4   2.907486666959745E-3  
 2.049400000000000E10   -4.998056834598108E-4   3.180960684807764E-3  
 2.049600000000000E10    1.064789221682414E-4   3.380202817627125E-3  
 2.049800000000000E10    8.057954320166676E-4   3.434872918727774E-3  
 2.050000000000000E10    1.548151899543074E-3   3.305917493654071E-3  
 2.050200000000000E10    2.285251523264580E-3   3.003789844957215E-3  
 2.050400000000000E10    2.973231228275432E-3   2.458071103319526E-3  
 2.050600000000000E10    3.442796956126889E-3   1.656441186140809E-3  
 2.050800000000000E10    3.548634169554269E-3   8.123058683445884E-4  
 2.051000000000000E10    3.466723124600120E-3   1.655788763417621E-4  
 2.051200000000000E10    3.359539373950274E-3  -3.876797423732503E-4  
 2.051400000000000E10    3.166159106142544E-3  -9.289504830828973E-4  
 2.051600000000000E10    2.894112460867123E-3  -1.347545616294223E-3  
 2.051800000000000E10    2.680029357886977E-3  -1.695300650748390E-3  
 2.052000000000000E10    2.440184363405462E-3  -2.081159157333551E-3  
 2.052200000000000E10    2.157327917369980E-3  -2.462248688701678E-3  
 2.052400000000000E10    1.822460076288769E-3  -2.881687832996250E-3  
 2.052600000000000E10    1.282113720662892E-3  -3.268521986211892E-3  
 2.052800000000000E10    6.568606153854894E-4  -3.459958075028327E-3  
 2.053000000000000E10    1.029469878075260E-4  -3.551510283378540E-3  
 2.053200000000000E10   -5.271260570562273E-4  -3.632808017923877E-3  
 2.053400000000000E10   -1.225396701893597E-3  -3.537302690178708E-3  
 2.053600000000000E10   -1.882032961239694E-3  -3.295306892444691E-3  
 2.053800000000000E10   -2.506587016223758E-3  -2.887226451464274E-3  
 2.054000000000000E10   -2.976869612380311E-3  -2.356424867347987E-3  
 2.054200000000000E10   -3.389313308246158E-3  -1.803082073348816E-3  
 2.054400000000000E10   -3.684002198968773E-3  -1.096129874457364E-3  
 2.054600000000000E10   -3.767991826559107E-3  -3.391853005504581E-4  
 2.054800000000000E10   -3.677638721893784E-3   3.830181893944327E-4  
 2.055000000000000E10   -3.430485751272905E-3   1.011115278945201E-3  
 2.055200000000000E10   -3.077818244626677E-3   1.509357062685821E-3  
 2.055400000000000E10   -2.718065218586061E-3   1.842692671171217E-3  
 2.055600000000000E10   -2.462941385736620E-3   2.096258172834362E-3  
