#  HZ   S   RI   R     50.00 
! Rohde & Schwarz ZVA40 4Ports - Version 3.90 - 1145.1110k42 SN: 100403
! Date: 2023-10-03 10:18:41
! Measurement: S12 
! 
 2.000000000000000E10    1.460937541029295E-3  -8.054589667448210E-4  
 2.000200000000000E10    1.233592048633604E-3  -8.988236865208872E-4  
 2.000400000000000E10    1.031140387869493E-3  -9.101913188423182E-4  
 2.000600000000000E10    9.771320005605415E-4  -8.383699940627415E-4  
 2.000800000000000E10    1.096361798370980E-3  -9.161392701898328E-4  
 2.001000000000000E10    1.185310618704075E-3  -1.271201239672678E-3  
 2.001200000000000E10    9.613636110121047E-4  -1.792912801027564E-3  
 2.001400000000000E10    3.705322643453243E-4  -2.094484362636268E-3  
 2.001600000000000E10   -2.289997398663589E-4  -2.003537423573997E-3  
 2.001800000000000E10   -5.999944165294074E-4  -1.750607485531616E-3  
 2.002000000000000E10   -8.137385425252385E-4  -1.482320440018394E-3  
 2.002200000000000E10   -9.475692929233719E-4  -1.258883924850752E-3  
 2.002400000000000E10   -1.024532405243080E-3  -1.148988382120467E-3  
 2.002600000000000E10   -1.194376734006174E-3  -1.125712445119475E-3  
 2.002800000000000E10   -1.532670959864778E-3  -1.027698712761991E-3  
 2.003000000000000E10   -1.960421413814315E-3  -6.618643745164221E-4  
 2.003200000000000E10   -2.145720995190990E-3  -6.489805980140045E-6  
 2.003400000000000E10   -1.930974636914206E-3   6.205282627256136E-4  
 2.003600000000000E10   -1.540454290423987E-3   9.792040832614112E-4  
 2.003800000000000E10   -1.206955124000637E-3   1.132686652941949E-3  
 2.004000000000000E10   -9.329745002073047E-4   1.263991938852827E-3  
 2.004200000000000E10   -6.199317472630445E-4   1.372230485297576E-3  
 2.004400000000000E10   -2.816299871852640E-4   1.377790759091454E-3  
 2.004600000000000E10    2.790002633355350E-5   1.263476002115670E-3  
 2.004800000000000E10    2.066125555286684E-4   1.068787191277792E-3  
 2.005000000000000E10    2.627574852231791E-4   9.339799154652041E-4  
 2.005200000000000E10    3.013206082214161E-4   8.652503431336483E-4  
 2.005400000000000E10    3.820738956138661E-4   8.828594911120455E-4  
 2.005600000000000E10    5.588901833795901E-4   8.384713509269520E-4  
 2.005800000000000E10    6.502778212659941E-4   7.290124890952793E-4  
 2.006000000000000E10    7.820178248245010E-4   6.746647838600216E-4  
 2.006200000000000E10    9.568154092287884E-4   5.291269079524008E-4  
 2.006400000000000E10    1.050397290928680E-3   3.133419921812672E-4  
 2.006600000000000E10    1.047832719995724E-3   1.219734267666374E-4  
 2.006800000000000E10    1.079943373771219E-3  -2.486711941350616E-6  
 2.007000000000000E10    1.145845556003138E-3  -2.031096169678431E-4  
 2.007200000000000E10    1.178752824335790E-3  -4.787219149576033E-4  
 2.007400000000000E10    1.088954342704200E-3  -8.588699623622992E-4  
 2.007600000000000E10    7.162355720123024E-4  -1.143574149511366E-3  
 2.007800000000000E10    3.536734125571804E-4  -1.114817573343990E-3  
 2.008000000000000E10    1.997039482989655E-4  -1.050890164337388E-3  
 2.008200000000000E10    7.861580307479177E-5  -1.063969575535552E-3  
 2.008400000000000E10   -5.816355086457425E-5  -1.111833399113150E-3  
 2.008600000000000E10   -2.934875695973211E-4  -1.187318553368782E-3  
 2.008800000000000E10   -6.321326213721468E-4  -1.125984404885066E-3  
 2.009000000000000E10   -8.895623836850313E-4  -9.020104594222068E-4  
 2.009200000000000E10   -1.034450494500314E-3  -6.663011182105969E-4  
 2.009400000000000E10   -1.134702738595485E-3  -4.310919711588587E-4  
 2.009600000000000E10   -1.181919090494524E-3  -1.439784489161960E-4  
 2.009800000000000E10   -1.084726543513233E-3   1.527338656574483E-4  
 2.010000000000000E10   -9.078097607000172E-4   2.989430305968321E-4  
 2.010200000000000E10   -7.622452053229936E-4   3.381813105817921E-4  
 2.010400000000000E10   -7.132284341805420E-4   3.052207256286611E-4  
 2.010600000000000E10   -7.967925794992408E-4   3.088012550314263E-4  
 2.010800000000000E10   -9.260590398040269E-4   4.794940799417228E-4  
 2.011000000000000E10   -9.262375271686231E-4   8.044130457418273E-4  
 2.011200000000000E10   -7.140304044812705E-4   1.123139392955047E-3  
 2.011400000000000E10   -3.965607995521253E-4   1.283442883577264E-3  
 2.011600000000000E10   -4.994257023846944E-5   1.324590350806570E-3  
 2.011800000000000E10    2.878895500516430E-4   1.203161318095297E-3  
 2.012000000000000E10    4.407378042225991E-4   9.857840401367049E-4  
 2.012200000000000E10    4.540751737786620E-4   8.394315519270493E-4  
 2.012400000000000E10    4.466691153352814E-4   8.607857103845354E-4  
 2.012600000000000E10    6.164329047270111E-4   9.658808222063532E-4  
 2.012800000000000E10    9.169762260095310E-4   8.598837394022035E-4  
 2.013000000000000E10    1.076626909650168E-3   6.076990025832137E-4  
 2.013200000000000E10    1.117979030543875E-3   4.220897404812992E-4  
 2.013400000000000E10    1.171946610849152E-3   2.279169396192299E-4  
 2.013600000000000E10    1.133564449061061E-3  -4.829241524818378E-6  
 2.013800000000000E10    9.960705386947418E-4  -1.197263528736607E-4  
 2.014000000000000E10    9.252329758433588E-4  -6.603661839405024E-5  
 2.014200000000000E10    1.082866994388765E-3   2.171111130890210E-5  
 2.014400000000000E10    1.423868967094989E-3  -1.249789817732042E-4  
 2.014600000000000E10    1.662643281717380E-3  -5.666568379629460E-4  
 2.014800000000000E10    1.624827790910836E-3  -1.146935646560181E-3  
 2.015000000000000E10    1.274821522392701E-3  -1.677271694587531E-3  
 2.015200000000000E10    7.656010222143466E-4  -1.960735432726979E-3  
 2.015400000000000E10    2.497966509774580E-4  -2.027803172187469E-3  
 2.015600000000000E10   -2.246770060963581E-4  -1.916159000420185E-3  
 2.015800000000000E10   -5.387074670829270E-4  -1.672678960510242E-3  
 2.016000000000000E10   -6.760487585891913E-4  -1.443383740951066E-3  
 2.016200000000000E10   -7.496754281460442E-4  -1.334803815757337E-3  
 2.016400000000000E10   -8.428786647000156E-4  -1.304833475559112E-3  
 2.016600000000000E10   -1.041905679969968E-3  -1.314663995103336E-3  
 2.016800000000000E10   -1.347881060576549E-3  -1.219153718030226E-3  
 2.017000000000000E10   -1.597646390061075E-3  -9.806981899990192E-4  
 2.017200000000000E10   -1.730742716755519E-3  -7.063579621510160E-4  
 2.017400000000000E10   -1.800674058826556E-3  -5.105657822232751E-4  
 2.017600000000000E10   -1.984422605974020E-3  -3.462206508497363E-4  
 2.017800000000000E10   -2.224007102728545E-3   1.774123623192334E-6  
 2.018000000000000E10   -2.309620563089030E-3   4.812771109040107E-4  
 2.018200000000000E10   -2.260989370271666E-3   9.807756932999107E-4  
 2.018400000000000E10   -2.080260794188199E-3   1.482343727394438E-3  
 2.018600000000000E10   -1.744682820122919E-3   1.937340577394895E-3  
 2.018800000000000E10   -1.235307522299502E-3   2.243951799166587E-3  
 2.019000000000000E10   -7.459092886054274E-4   2.296507693903805E-3  
 2.019200000000000E10   -4.130514594997742E-4   2.262077376371651E-3  
 2.019400000000000E10   -1.531501382902925E-4   2.270948982750295E-3  
 2.019600000000000E10    1.373214359968180E-4   2.317657699969448E-3  
 2.019800000000000E10    4.987621941636936E-4   2.291829524554098E-3  
 2.020000000000000E10    8.043841846429058E-4   2.209219984475150E-3  
 2.020200000000000E10    1.072003311779100E-3   2.162088250705592E-3  
 2.020400000000000E10    1.431580434587819E-3   2.161969463321776E-3  
 2.020600000000000E10    1.945200688729449E-3   2.039101122992193E-3  
 2.020800000000000E10    2.503505191255990E-3   1.716213329568690E-3  
 2.021000000000000E10    2.940619563037436E-3   1.075185793681921E-3  
 2.021200000000000E10    2.977026063394421E-3   3.337804428081378E-4  
 2.021400000000000E10    2.783653593017875E-3  -1.571966337303319E-4  
 2.021600000000000E10    2.621091012772689E-3  -4.752441048296361E-4  
 2.021800000000000E10    2.503321625213095E-3  -7.149786123876884E-4  
 2.022000000000000E10    2.542546396469506E-3  -9.521609527539254E-4  
 2.022200000000000E10    2.662252575038985E-3  -1.403707605933538E-3  
 2.022400000000000E10    2.551267112621882E-3  -2.101111650564012E-3  
 2.022600000000000E10    2.116469305458342E-3  -2.759814118667518E-3  
 2.022800000000000E10    1.467399535648300E-3  -3.265650229099295E-3  
 2.023000000000000E10    6.632036974223074E-4  -3.528806977216743E-3  
 2.023200000000000E10   -1.572089494763017E-4  -3.489457268206549E-3  
 2.023400000000000E10   -8.519356619995932E-4  -3.203592968999890E-3  
 2.023600000000000E10   -1.340782976152302E-3  -2.792458427783782E-3  
 2.023800000000000E10   -1.671379268877157E-3  -2.377539272682003E-3  
 2.024000000000000E10   -1.883776329869126E-3  -1.998787265161081E-3  
 2.024200000000000E10   -2.037193874326447E-3  -1.660138699328284E-3  
 2.024400000000000E10   -2.134190481705451E-3  -1.375347020076422E-3  
 2.024600000000000E10   -2.265866070382798E-3  -1.137290250532973E-3  
 2.024800000000000E10   -2.417522120712369E-3  -8.604517874859826E-4  
 2.025000000000000E10   -2.537143738322032E-3  -5.601695531133477E-4  
 2.025200000000000E10   -2.673378760066645E-3  -2.495460625433214E-4  
 2.025400000000000E10   -2.788032071961318E-3   1.266522155907766E-4  
 2.025600000000000E10   -2.844433791728484E-3   6.057105671655291E-4  
 2.025800000000000E10   -2.797373090468255E-3   1.133662114809018E-3  
 2.026000000000000E10   -2.630833158236309E-3   1.665849901514770E-3  
 2.026200000000000E10   -2.313510725269572E-3   2.227901212170987E-3  
 2.026400000000000E10   -1.814480045674924E-3   2.693142083668967E-3  
 2.026600000000000E10   -1.218341606980847E-3   3.009826611773468E-3  
 2.026800000000000E10   -5.009502310962806E-4   3.149417271474773E-3  
 2.027000000000000E10    1.736553403220251E-4   2.996859037533240E-3  
 2.027200000000000E10    6.302909038731618E-4   2.680327172233980E-3  
 2.027400000000000E10    8.665750977558958E-4   2.359543460394437E-3  
 2.027600000000000E10    9.948600239129369E-4   2.166382992698905E-3  
 2.027800000000000E10    1.140650644590529E-3   2.141408302561880E-3  
 2.028000000000000E10    1.484873059936461E-3   2.172796030123866E-3  
 2.028200000000000E10    2.004515419270849E-3   2.041487554049909E-3  
 2.028400000000000E10    2.550615221951847E-3   1.639915166156998E-3  
 2.028600000000000E10    2.884586560776246E-3   9.731393534529174E-4  
 2.028800000000000E10    2.911796261567945E-3   2.879389715495945E-4  
 2.029000000000000E10    2.759005449615184E-3  -2.750320696135899E-4  
 2.029200000000000E10    2.496287051654729E-3  -7.220262151999741E-4  
 2.029400000000000E10    2.158552600167927E-3  -9.848748714457408E-4  
 2.029600000000000E10    1.923559268678453E-3  -1.111269634362663E-3  
 2.029800000000000E10    1.800389990270578E-3  -1.236366051848370E-3  
 2.030000000000000E10    1.710623565170817E-3  -1.423197544041883E-3  
 2.030200000000000E10    1.636714743040196E-3  -1.677685210913093E-3  
 2.030400000000000E10    1.493505433148134E-3  -2.055417634201823E-3  
 2.030600000000000E10    1.154319416419878E-3  -2.497625937404313E-3  
 2.030800000000000E10    5.379110110498229E-4  -2.805430267711359E-3  
 2.031000000000000E10   -1.252050651638595E-4  -2.840721783635752E-3  
 2.031200000000000E10   -7.310159727503050E-4  -2.667384952260756E-3  
 2.031400000000000E10   -1.226214275520362E-3  -2.323928062672458E-3  
 2.031600000000000E10   -1.534555294833291E-3  -1.899467708366644E-3  
 2.031800000000000E10   -1.651547871694858E-3  -1.523719930130891E-3  
 2.032000000000000E10   -1.752967549716627E-3  -1.201833655645072E-3  
 2.032200000000000E10   -1.785655964909451E-3  -9.013656678511181E-4  
 2.032400000000000E10   -1.758949204497500E-3  -6.797663419218722E-4  
 2.032600000000000E10   -1.770021322832299E-3  -5.213434006143694E-4  
 2.032800000000000E10   -1.822589895980553E-3  -3.752170400649300E-4  
 2.033000000000000E10   -1.940332493005099E-3  -2.194027609455487E-4  
 2.033200000000000E10   -2.054858544588457E-3   2.178198357000683E-5  
 2.033400000000000E10   -2.173188783481350E-3   2.846543135636312E-4  
 2.033600000000000E10   -2.390153293749535E-3   4.206146928801142E-4  
 2.033800000000000E10   -2.387070437492126E-3   1.277325585783448E-3  
 2.034000000000000E10   -2.090301746323665E-3   1.979186373030760E-3  
 2.034200000000000E10   -1.499603586929336E-3   2.512744697518596E-3  
 2.034400000000000E10   -7.461744410289894E-4   2.740580473920466E-3  
 2.034600000000000E10   -4.998116761540857E-5   2.665379160979382E-3  
 2.034800000000000E10    5.085761986215521E-4   2.423383738201710E-3  
 2.035000000000000E10    9.306060601874105E-4   2.055749491007874E-3  
 2.035200000000000E10    1.152935832775925E-3   1.614428099451794E-3  
 2.035400000000000E10    1.129387506917477E-3   1.228510497798390E-3  
 2.035600000000000E10    9.769048838491651E-4   1.065537976567341E-3  
 2.035800000000000E10    9.175560171096312E-4   1.116823807610416E-3  
 2.036000000000000E10    1.074663743303913E-3   1.258303551194967E-3  
 2.036200000000000E10    1.476720142828503E-3   1.291381159895681E-3  
 2.036400000000000E10    1.908311195893850E-3   1.026014522799458E-3  
 2.036600000000000E10    2.196024073957273E-3   5.959583224731260E-4  
 2.036800000000000E10    2.369442956575764E-3   7.567618573482810E-5  
 2.037000000000000E10    2.315473606406274E-3  -5.198266163836611E-4  
 2.037200000000000E10    2.045199285875828E-3  -9.851190405265418E-4  
 2.037400000000000E10    1.766371370174390E-3  -1.285066846975308E-3  
 2.037600000000000E10    1.459689031895480E-3  -1.532315722422672E-3  
 2.037800000000000E10    1.139092220463605E-3  -1.719092230334245E-3  
 2.038000000000000E10    8.290603167482172E-4  -1.878267202963248E-3  
 2.038200000000000E10    4.827006504741921E-4  -1.985691788009738E-3  
 2.038400000000000E10    8.213906308581143E-5  -2.021435668004680E-3  
 2.038600000000000E10   -2.919398060557784E-4  -1.909041615804742E-3  
 2.038800000000000E10   -5.165164270125259E-4  -1.794619661875948E-3  
 2.039000000000000E10   -8.079130634498134E-4  -1.762238391821972E-3  
 2.039200000000000E10   -1.203582991797360E-3  -1.608959177192122E-3  
 2.039400000000000E10   -1.474163462586742E-3  -1.278244270987819E-3  
 2.039600000000000E10   -1.587763360499651E-3  -9.475863241336332E-4  
 2.039800000000000E10   -1.672601222861635E-3  -6.967374551287548E-4  
 2.040000000000000E10   -1.786382489937354E-3  -4.617462371203241E-4  
 2.040200000000000E10   -1.900490098703137E-3  -1.662635535397551E-4  
 2.040400000000000E10   -1.964798720619949E-3   2.335427733842764E-4  
 2.040600000000000E10   -1.904559736580822E-3   6.857283567672466E-4  
 2.040800000000000E10   -1.656867754715910E-3   1.085736130080627E-3  
 2.041000000000000E10   -1.305014857656958E-3   1.326087208315270E-3  
 2.041200000000000E10   -1.044778458950390E-3   1.389922694889484E-3  
 2.041400000000000E10   -8.929329655204732E-4   1.476082469998452E-3  
 2.041600000000000E10   -7.276459592979005E-4   1.661431991312505E-3  
 2.041800000000000E10   -4.660149512466603E-4   1.889728558242107E-3  
 2.042000000000000E10   -9.310039880781968E-5   2.082831646598089E-3  
 2.042200000000000E10    4.125121253988462E-4   2.142010418575549E-3  
 2.042400000000000E10    9.398475895854244E-4   2.014583486754483E-3  
 2.042600000000000E10    1.387065351878093E-3   1.740202027442003E-3  
 2.042800000000000E10    1.775715028386773E-3   1.332406269351918E-3  
 2.043000000000000E10    1.970841722762205E-3   7.644587451357662E-4  
 2.043200000000000E10    1.864663570377062E-3   2.878809217703803E-4  
 2.043400000000000E10    1.672188665645021E-3   1.503970381064147E-6  
 2.043600000000000E10    1.548495377440757E-3  -1.318849879628385E-4  
 2.043800000000000E10    1.566811880404679E-3  -2.660075075150211E-4  
 2.044000000000000E10    1.526889086072429E-3  -5.010122631961386E-4  
 2.044200000000000E10    1.425726942376928E-3  -6.679519218876857E-4  
 2.044400000000000E10    1.416386870043902E-3  -8.027779994933613E-4  
 2.044600000000000E10    1.468816845401846E-3  -1.075552610536100E-3  
 2.044800000000000E10    1.395804735682445E-3  -1.510840813330386E-3  
 2.045000000000000E10    1.071434459647110E-3  -1.968191930384149E-3  
 2.045200000000000E10    5.441342300587860E-4  -2.219184901595975E-3  
 2.045400000000000E10   -1.183243742115558E-5  -2.229886127901564E-3  
 2.045600000000000E10   -4.402975747725877E-4  -2.071958434619828E-3  
 2.045800000000000E10   -7.114383156171174E-4  -1.926165488829635E-3  
 2.046000000000000E10   -9.855418769445972E-4  -1.818325292460866E-3  
 2.046200000000000E10   -1.284586402219663E-3  -1.690788897340773E-3  
 2.046400000000000E10   -1.661970643729064E-3  -1.512350550461791E-3  
 2.046600000000000E10   -2.032065990672221E-3  -1.114159757948503E-3  
 2.046800000000000E10   -2.184353815774921E-3  -5.772574635050727E-4  
 2.047000000000000E10   -2.114067411124298E-3  -1.463398512186794E-4  
 2.047200000000000E10   -1.999622622226328E-3   1.280737996450466E-4  
 2.047400000000000E10   -1.959965098329880E-3   3.604960604059793E-4  
 2.047600000000000E10   -1.913853896723036E-3   6.625127112454594E-4  
 2.047800000000000E10   -1.788640370214325E-3   9.500422529826410E-4  
 2.048000000000000E10   -1.647452760579778E-3   1.171783910136777E-3  
 2.048200000000000E10   -1.561129418909499E-3   1.399896214288163E-3  
 2.048400000000000E10   -1.409899917992014E-3   1.776449624397914E-3  
 2.048600000000000E10   -1.009965679159232E-3   2.112049665793889E-3  
 2.048800000000000E10   -5.739323718349396E-4   2.217806883690309E-3  
 2.049000000000000E10   -2.555893938103756E-4   2.217537886367291E-3  
 2.049200000000000E10    2.080303214268684E-6   2.264395451993364E-3  
 2.049400000000000E10    3.072157430233222E-4   2.357645456286963E-3  
 2.049600000000000E10    7.294397644662850E-4   2.443419558932528E-3  
 2.049800000000000E10    1.245623107121897E-3   2.420784727336816E-3  
 2.050000000000000E10    1.779279232137570E-3   2.225392057645980E-3  
 2.050200000000000E10    2.310335148759544E-3   1.901066409320467E-3  
 2.050400000000000E10    2.798132257617816E-3   1.366502661111066E-3  
 2.050600000000000E10    3.062197924508562E-3   6.023253143646222E-4  
 2.050800000000000E10    2.959811465625635E-3  -1.382336232021377E-4  
 2.051000000000000E10    2.675864386240683E-3  -6.273606941723540E-4  
 2.051200000000000E10    2.430154891194079E-3  -9.812149081081512E-4  
 2.051400000000000E10    2.132863255054148E-3  -1.300354374493428E-3  
 2.051600000000000E10    1.832830711345819E-3  -1.462019432051202E-3  
 2.051800000000000E10    1.664279328195432E-3  -1.542758639737075E-3  
 2.052000000000000E10    1.589305685617194E-3  -1.726350086563573E-3  
 2.052200000000000E10    1.481327947659676E-3  -2.004241149563379E-3  
 2.052400000000000E10    1.295108931485323E-3  -2.391743175404349E-3  
 2.052600000000000E10    8.584181211227029E-4  -2.807232245307196E-3  
 2.052800000000000E10    2.612526859817912E-4  -3.001744335770240E-3  
 2.053000000000000E10   -2.856516449631413E-4  -3.039660306892707E-3  
 2.053200000000000E10   -8.543513764611950E-4  -2.989682190079340E-3  
 2.053400000000000E10   -1.395100811834924E-3  -2.797362642791966E-3  
 2.053600000000000E10   -1.884772170006729E-3  -2.554706429720273E-3  
 2.053800000000000E10   -2.368011420837953E-3  -2.178718647644926E-3  
 2.054000000000000E10   -2.703220024896564E-3  -1.702476276719716E-3  
 2.054200000000000E10   -2.983205664943808E-3  -1.237871096436246E-3  
 2.054400000000000E10   -3.192062983455441E-3  -6.377937752703673E-4  
 2.054600000000000E10   -3.223781745091327E-3  -6.808419915794282E-6  
 2.054800000000000E10   -3.124541008975280E-3   5.786606754270219E-4  
 2.055000000000000E10   -2.889821419571571E-3   1.109593517060132E-3  
 2.055200000000000E10   -2.543746034483156E-3   1.525255658859272E-3  
 2.055400000000000E10   -2.193416377774789E-3   1.765013525494987E-3  
 2.055600000000000E10   -1.955741674374835E-3   1.922434498013007E-3  
