#  HZ   S   RI   R     50.00 
! Rohde & Schwarz ZVA40 4Ports - Version 3.90 - 1145.1110k42 SN: 100403
! Date: 2023-10-03 10:20:39
! Measurement: S12 
! 
 2.000000000000000E10    9.021332210558373E-4  -2.355790999813826E-3  
 2.000200000000000E10    3.847752653690891E-4  -2.454847010205128E-3  
 2.000400000000000E10   -2.073920916367338E-4  -2.342699163635511E-3  
 2.000600000000000E10   -6.058166491503947E-4  -1.961030851696990E-3  
 2.000800000000000E10   -6.703972194148343E-4  -1.607456051460908E-3  
 2.001000000000000E10   -5.928401338461588E-4  -1.543960636079220E-3  
 2.001200000000000E10   -7.460737342700946E-4  -1.771499404737366E-3  
 2.001400000000000E10   -1.290871650593762E-3  -1.848236506291255E-3  
 2.001600000000000E10   -1.835487793494829E-3  -1.492912179230877E-3  
 2.001800000000000E10   -2.112141000720148E-3  -9.662345690852024E-4  
 2.002000000000000E10   -2.196100356494203E-3  -4.414865123577524E-4  
 2.002200000000000E10   -2.109386100636895E-3   7.982915232615322E-5  
 2.002400000000000E10   -1.875171009566129E-3   4.256513707987474E-4  
 2.002600000000000E10   -1.679214082156220E-3   5.736413453475654E-4  
 2.002800000000000E10   -1.649385313369304E-3   6.807248046767320E-4  
 2.003000000000000E10   -1.713138790379582E-3   9.575121472647161E-4  
 2.003200000000000E10   -1.653286168991814E-3   1.436549138733849E-3  
 2.003400000000000E10   -1.289160376023731E-3   1.915154221693798E-3  
 2.003600000000000E10   -7.452325185917994E-4   2.175600041823132E-3  
 2.003800000000000E10   -2.071699983303325E-4   2.209846066395320E-3  
 2.004000000000000E10    2.396046077409077E-4   2.154731610406635E-3  
 2.004200000000000E10    7.027170058903228E-4   2.059397005970464E-3  
 2.004400000000000E10    1.189690095242190E-3   1.813422272426418E-3  
 2.004600000000000E10    1.573782062556580E-3   1.335947460077182E-3  
 2.004800000000000E10    1.648825989008992E-3   7.755823305006995E-4  
 2.005000000000000E10    1.492358730730329E-3   4.121572801598000E-4  
 2.005200000000000E10    1.340572008433840E-3   2.491678553920838E-4  
 2.005400000000000E10    1.292158346987280E-3   2.128209137784628E-4  
 2.005600000000000E10    1.402562000758088E-3   8.993899985551915E-5  
 2.005800000000000E10    1.422682153290989E-3  -1.548737816121180E-4  
 2.006000000000000E10    1.398567373791534E-3  -3.270203140593007E-4  
 2.006200000000000E10    1.412270791395548E-3  -5.692108004898171E-4  
 2.006400000000000E10    1.316596727546136E-3  -8.633922303570704E-4  
 2.006600000000000E10    1.112515034935909E-3  -1.079302083762217E-3  
 2.006800000000000E10    9.405141865926577E-4  -1.219058104641276E-3  
 2.007000000000000E10    7.824920608428283E-4  -1.379353298955126E-3  
 2.007200000000000E10    6.023373113707507E-4  -1.553771129633021E-3  
 2.007400000000000E10    3.365607772438324E-4  -1.777494644339929E-3  
 2.007600000000000E10   -1.497575465863793E-4  -1.907601625823374E-3  
 2.007800000000000E10   -6.040291699730320E-4  -1.732723671011627E-3  
 2.008000000000000E10   -8.528291716320833E-4  -1.495117073928470E-3  
 2.008200000000000E10   -1.037764372572364E-3  -1.321447941804221E-3  
 2.008400000000000E10   -1.217525228168126E-3  -1.157123782794632E-3  
 2.008600000000000E10   -1.413898886499520E-3  -9.907681143788982E-4  
 2.008800000000000E10   -1.641108666895410E-3  -7.243921267397612E-4  
 2.009000000000000E10   -1.732355646727753E-3  -3.534297289893534E-4  
 2.009200000000000E10   -1.702341506422455E-3  -5.901945788900032E-5  
 2.009400000000000E10   -1.687771415552546E-3   1.939037341230219E-4  
 2.009600000000000E10   -1.655359103808126E-3   4.672869087058914E-4  
 2.009800000000000E10   -1.544073988672024E-3   7.799541790406278E-4  
 2.010000000000000E10   -1.324624606933246E-3   1.010451729815653E-3  
 2.010200000000000E10   -1.108042268684218E-3   1.153588071733775E-3  
 2.010400000000000E10   -9.104434605362087E-4   1.227257576859231E-3  
 2.010600000000000E10   -8.126927269986783E-4   1.269858789442437E-3  
 2.010800000000000E10   -7.584215197645114E-4   1.414008906643853E-3  
 2.011000000000000E10   -6.247583433933972E-4   1.636029014636000E-3  
 2.011200000000000E10   -3.627626314101006E-4   1.848507492895020E-3  
 2.011400000000000E10   -2.745804645182421E-5   2.022474961558457E-3  
 2.011600000000000E10    4.362505507308591E-4   2.130364087015513E-3  
 2.011800000000000E10    1.006226769146422E-3   1.979562374399094E-3  
 2.012000000000000E10    1.369720490634012E-3   1.598228621411563E-3  
 2.012200000000000E10    1.498541888616090E-3   1.231022177689514E-3  
 2.012400000000000E10    1.542320070642626E-3   1.014771884203785E-3  
 2.012600000000000E10    1.668134685069200E-3   8.867242095183291E-4  
 2.012800000000000E10    1.856221498369619E-3   6.389674176548229E-4  
 2.013000000000000E10    1.925847975061939E-3   3.172949908891456E-4  
 2.013200000000000E10    1.937313998451480E-3   5.837923637782937E-5  
 2.013400000000000E10    1.999587189490474E-3  -2.385542382196743E-4  
 2.013600000000000E10    1.954514367042163E-3  -6.150843790222588E-4  
 2.013800000000000E10    1.750508010954646E-3  -9.194255012198671E-4  
 2.014000000000000E10    1.533701558359765E-3  -1.061270906448119E-3  
 2.014200000000000E10    1.454028948650930E-3  -1.111128275022064E-3  
 2.014400000000000E10    1.536973086166591E-3  -1.273050196200548E-3  
 2.014600000000000E10    1.591458242125963E-3  -1.640901018371001E-3  
 2.014800000000000E10    1.446733974617879E-3  -2.156339154613239E-3  
 2.015000000000000E10    1.006446696133756E-3  -2.654267959833268E-3  
 2.015200000000000E10    3.656391904750694E-4  -2.940134911840100E-3  
 2.015400000000000E10   -3.134561374442415E-4  -3.000494888926179E-3  
 2.015600000000000E10   -9.537277122338614E-4  -2.853614466893391E-3  
 2.015800000000000E10   -1.487276067482040E-3  -2.543708536612951E-3  
 2.016000000000000E10   -1.883147665253484E-3  -2.133506137509773E-3  
 2.016200000000000E10   -2.125966366487766E-3  -1.728868600624947E-3  
 2.016400000000000E10   -2.266081900876246E-3  -1.396354021496856E-3  
 2.016600000000000E10   -2.415288380565651E-3  -1.129721670790955E-3  
 2.016800000000000E10   -2.591640873402051E-3  -8.167251372046831E-4  
 2.017000000000000E10   -2.719813167335995E-3  -4.385761564996079E-4  
 2.017200000000000E10   -2.795216779764972E-3  -5.964353311827398E-5  
 2.017400000000000E10   -2.852987947417692E-3   3.021197444318560E-4  
 2.017600000000000E10   -2.973557561022756E-3   7.127169452592302E-4  
 2.017800000000000E10   -3.023818148675647E-3   1.324168407385058E-3  
 2.018000000000000E10   -2.807846155837792E-3   2.007645796294566E-3  
 2.018200000000000E10   -2.412578618008291E-3   2.599751602651345E-3  
 2.018400000000000E10   -1.888145055955299E-3   3.077849483217110E-3  
 2.018600000000000E10   -1.268790275004114E-3   3.415923683478693E-3  
 2.018800000000000E10   -5.291386966405767E-4   3.568620535970471E-3  
 2.019000000000000E10    1.378259491012528E-4   3.464146876523709E-3  
 2.019200000000000E10    6.236765301813193E-4   3.298788038254888E-3  
 2.019400000000000E10    1.074870496436402E-3   3.168794015085195E-3  
 2.019600000000000E10    1.558546374030718E-3   3.004568767898674E-3  
 2.019800000000000E10    2.052295182682114E-3   2.685489109046604E-3  
 2.020000000000000E10    2.405395705459847E-3   2.295186943393738E-3  
 2.020200000000000E10    2.646904507720913E-3   1.953612436222319E-3  
 2.020400000000000E10    2.934339357570673E-3   1.717611041625218E-3  
 2.020600000000000E10    3.374732100431628E-3   1.368095305434011E-3  
 2.020800000000000E10    3.793463750010349E-3   7.844585132470870E-4  
 2.021000000000000E10    4.029134133209785E-3  -7.237296493018789E-5  
 2.021200000000000E10    3.883952192517588E-3  -9.383736506445573E-4  
 2.021400000000000E10    3.563255267102778E-3  -1.584128005748209E-3  
 2.021600000000000E10    3.163431570846051E-3  -2.151361522897158E-3  
 2.021800000000000E10    2.665430425240854E-3  -2.569331753991330E-3  
 2.022000000000000E10    2.250727017912171E-3  -2.828144240327211E-3  
 2.022200000000000E10    1.986890262828320E-3  -3.130698444344748E-3  
 2.022400000000000E10    1.606052286765795E-3  -3.627982792548008E-3  
 2.022600000000000E10    9.084739913941658E-4  -4.093264769992711E-3  
 2.022800000000000E10    3.517987238317001E-5  -4.300014023887524E-3  
 2.023000000000000E10   -8.750808582863477E-4  -4.265788727949678E-3  
 2.023200000000000E10   -1.757348444477613E-3  -3.987983910658171E-3  
 2.023400000000000E10   -2.544074669028077E-3  -3.454918200878327E-3  
 2.023600000000000E10   -3.097771957263719E-3  -2.739182137788385E-3  
 2.023800000000000E10   -3.411138176327809E-3  -1.989916695182216E-3  
 2.024000000000000E10   -3.550051735453461E-3  -1.277994369769876E-3  
 2.024200000000000E10   -3.522619350196281E-3  -6.144864953203518E-4  
 2.024400000000000E10   -3.343633489123711E-3  -8.324697603116584E-5  
 2.024600000000000E10   -3.179891743992337E-3   3.099589576990701E-4  
 2.024800000000000E10   -3.029510786051674E-3   6.962078702521087E-4  
 2.025000000000000E10   -2.880151947929597E-3   1.007894901060519E-3  
 2.025200000000000E10   -2.828366688448829E-3   1.313504747617147E-3  
 2.025400000000000E10   -2.747903159271482E-3   1.770181143982145E-3  
 2.025600000000000E10   -2.523297244690574E-3   2.322145811485227E-3  
 2.025800000000000E10   -2.102480320750502E-3   2.852597717510023E-3  
 2.026000000000000E10   -1.544768646562572E-3   3.276189086851454E-3  
 2.026200000000000E10   -8.545355500515414E-4   3.557562946874664E-3  
 2.026400000000000E10   -1.067745461825228E-4   3.603428195962690E-3  
 2.026600000000000E10    5.570901090105796E-4   3.486384360748248E-3  
 2.026800000000000E10    1.209467800847665E-3   3.270660118878257E-3  
 2.027000000000000E10    1.778624141243873E-3   2.886932425645522E-3  
 2.027200000000000E10    2.199697809355188E-3   2.380079893517948E-3  
 2.027400000000000E10    2.453222998260778E-3   1.835231996934723E-3  
 2.027600000000000E10    2.542529922982855E-3   1.288028609260549E-3  
 2.027800000000000E10    2.461290896253147E-3   8.996679512745561E-4  
 2.028000000000000E10    2.482804395028471E-3   7.118522721331246E-4  
 2.028200000000000E10    2.658558915534015E-3   4.654563624467396E-4  
 2.028400000000000E10    2.851071505933817E-3   5.034554173399546E-5  
 2.028600000000000E10    2.912843776215252E-3  -5.488318826863351E-4  
 2.028800000000000E10    2.741335044181887E-3  -1.162519238682257E-3  
 2.029000000000000E10    2.387047814274276E-3  -1.671523466579800E-3  
 2.029200000000000E10    1.919578938120248E-3  -2.047422312778793E-3  
 2.029400000000000E10    1.406083298835582E-3  -2.237182394160656E-3  
 2.029600000000000E10    9.499658315936910E-4  -2.270046130987843E-3  
 2.029800000000000E10    6.095274749648885E-4  -2.252112972500271E-3  
 2.030000000000000E10    3.040694191066430E-4  -2.242500243187258E-3  
 2.030200000000000E10    2.796182791829886E-5  -2.174671838029361E-3  
 2.030400000000000E10   -1.565746477600992E-4  -2.175557364828486E-3  
 2.030600000000000E10   -4.528600637755000E-4  -2.316348140660689E-3  
 2.030800000000000E10   -1.003785542722163E-3  -2.331998197308171E-3  
 2.031000000000000E10   -1.544988041536676E-3  -2.061417145240638E-3  
 2.031200000000000E10   -1.939096127793868E-3  -1.607437267393610E-3  
 2.031400000000000E10   -2.148817865361954E-3  -1.101282247966884E-3  
 2.031600000000000E10   -2.226775369334797E-3  -5.832598963848206E-4  
 2.031800000000000E10   -2.123273283419480E-3  -1.326430009698607E-4  
 2.032000000000000E10   -1.977386461846807E-3   2.282053198537946E-4  
 2.032200000000000E10   -1.724607003622769E-3   5.443453585868895E-4  
 2.032400000000000E10   -1.412430823657953E-3   6.775387661979983E-4  
 2.032600000000000E10   -1.256121495937921E-3   6.929282628386877E-4  
 2.032800000000000E10   -1.150138226793811E-3   7.442944848894646E-4  
 2.033000000000000E10   -1.070129411551841E-3   7.893421740842212E-4  
 2.033200000000000E10   -1.026684826492896E-3   8.634416323726223E-4  
 2.033400000000000E10   -9.974377620735287E-4   9.709411169452128E-4  
 2.033600000000000E10   -1.086680558720918E-3   1.039153357312359E-3  
 2.033800000000000E10   -9.192799739233017E-4   1.409872969681466E-3  
 2.034000000000000E10   -7.062899032626839E-4   1.737367446580327E-3  
 2.034200000000000E10   -2.868932934378278E-4   2.016887673341627E-3  
 2.034400000000000E10    2.604035432824152E-4   2.082300337928313E-3  
 2.034600000000000E10    7.604223885860893E-4   1.943064431004503E-3  
 2.034800000000000E10    1.193700789439458E-3   1.677667063856383E-3  
 2.035000000000000E10    1.558973181345060E-3   1.240522984449786E-3  
 2.035200000000000E10    1.687074872500306E-3   6.848108773158076E-4  
 2.035400000000000E10    1.531197658812804E-3   1.934801798803472E-4  
 2.035600000000000E10    1.210712556585425E-3  -6.496805669444014E-5  
 2.035800000000000E10    9.476792277124378E-4  -6.219277288119163E-5  
 2.036000000000000E10    8.737555814719158E-4   5.719704472072041E-5  
 2.036200000000000E10    1.005157040731039E-3   1.351023979754276E-4  
 2.036400000000000E10    1.207109845871942E-3   1.984402122638758E-5  
 2.036600000000000E10    1.343100982787157E-3  -2.098487267426863E-4  
 2.036800000000000E10    1.399630048779825E-3  -5.554211902750251E-4  
 2.037000000000000E10    1.256836047434390E-3  -9.591521576924612E-4  
 2.037200000000000E10    9.312540400052760E-4  -1.224402695177545E-3  
 2.037400000000000E10    6.259968267167332E-4  -1.307688309972026E-3  
 2.037600000000000E10    3.741313867441498E-4  -1.346049165839920E-3  
 2.037800000000000E10    1.246829866551423E-4  -1.355142911336550E-3  
 2.038000000000000E10   -1.262360002841693E-4  -1.330803268217317E-3  
 2.038200000000000E10   -3.573530039332287E-4  -1.239543602947498E-3  
 2.038400000000000E10   -5.424122300685036E-4  -1.099621834915607E-3  
 2.038600000000000E10   -6.455566907500841E-4  -9.144560355834909E-4  
 2.038800000000000E10   -6.445954063209733E-4  -8.396439171882938E-4  
 2.039000000000000E10   -7.848811305679933E-4  -8.920289103206203E-4  
 2.039200000000000E10   -1.083250668708527E-3  -7.991707278223932E-4  
 2.039400000000000E10   -1.302010559864005E-3  -4.972109600801957E-4  
 2.039600000000000E10   -1.314193597676639E-3  -1.422758172855448E-4  
 2.039800000000000E10   -1.176470411565814E-3   1.047506319554049E-4  
 2.040000000000000E10   -1.083645711886723E-3   1.803214913351488E-4  
 2.040200000000000E10   -1.123596687509905E-3   2.751715119339818E-4  
 2.040400000000000E10   -1.143906445629558E-3   4.980448730924233E-4  
 2.040600000000000E10   -1.043605610513638E-3   7.585886024597865E-4  
 2.040800000000000E10   -8.203820507482860E-4   9.577025909938778E-4  
 2.041000000000000E10   -5.793102361537792E-4   1.020714831768455E-3  
 2.041200000000000E10   -4.493021137951088E-4   9.931763145428750E-4  
 2.041400000000000E10   -4.197231994763615E-4   1.037454510437240E-3  
 2.041600000000000E10   -3.500408507354650E-4   1.194733824032846E-3  
 2.041800000000000E10   -1.504800606153928E-4   1.390752706431435E-3  
 2.042000000000000E10    1.551045282852742E-4   1.537710047852049E-3  
 2.042200000000000E10    5.683806756465340E-4   1.551195863182101E-3  
 2.042400000000000E10    9.470224809744723E-4   1.390210664716124E-3  
 2.042600000000000E10    1.263583191084089E-3   1.142713964682977E-3  
 2.042800000000000E10    1.537552566666141E-3   7.713872543152867E-4  
 2.043000000000000E10    1.595505192270311E-3   2.591964621537599E-4  
 2.043200000000000E10    1.364126537999315E-3  -1.094073827947115E-4  
 2.043400000000000E10    1.101742844469079E-3  -2.018803758273638E-4  
 2.043600000000000E10    1.010198772974972E-3  -1.597653486006108E-4  
 2.043800000000000E10    1.078177338328075E-3  -1.680972145625042E-4  
 2.044000000000000E10    1.137835869025209E-3  -3.000132767330289E-4  
 2.044200000000000E10    1.162850550460196E-3  -4.175789836303566E-4  
 2.044400000000000E10    1.227364665062125E-3  -5.387609183535348E-4  
 2.044600000000000E10    1.347434585779875E-3  -7.520316474315991E-4  
 2.044800000000000E10    1.414097311864358E-3  -1.197333134319864E-3  
 2.045000000000000E10    1.174873391208488E-3  -1.728546120601979E-3  
 2.045200000000000E10    6.925054098126850E-4  -2.089043765869222E-3  
 2.045400000000000E10    1.256635004521344E-4  -2.209945121941007E-3  
 2.045600000000000E10   -3.727416538081512E-4  -2.123509002887786E-3  
 2.045800000000000E10   -7.364707558182043E-4  -1.974729705149684E-3  
 2.046000000000000E10   -1.075067501821759E-3  -1.817249347563113E-3  
 2.046200000000000E10   -1.376364176514187E-3  -1.636877159181783E-3  
 2.046400000000000E10   -1.721558468646290E-3  -1.404851091040659E-3  
 2.046600000000000E10   -2.012807989412528E-3  -9.799122809405619E-4  
 2.046800000000000E10   -2.074649809464935E-3  -4.827666231488556E-4  
 2.047000000000000E10   -1.981699516337534E-3  -1.480590890199061E-4  
 2.047200000000000E10   -1.916958728168973E-3   8.271997563654481E-5  
 2.047400000000000E10   -1.914173505487450E-3   3.098031714220375E-4  
 2.047600000000000E10   -1.884249377221544E-3   6.010944776834898E-4  
 2.047800000000000E10   -1.765522904648089E-3   8.650687626187419E-4  
 2.048000000000000E10   -1.678621111851600E-3   1.061673776281101E-3  
 2.048200000000000E10   -1.654274386560752E-3   1.309798292647051E-3  
 2.048400000000000E10   -1.556128768418981E-3   1.689414803701388E-3  
 2.048600000000000E10   -1.247318054802348E-3   2.049912525141620E-3  
 2.048800000000000E10   -8.527917908159672E-4   2.266418590275533E-3  
 2.049000000000000E10   -5.018385105628382E-4   2.392999693720675E-3  
 2.049200000000000E10   -1.570181933101343E-4   2.497558251076950E-3  
 2.049400000000000E10    2.062139621422695E-4   2.631343840793879E-3  
 2.049600000000000E10    6.753315458288839E-4   2.736438921395950E-3  
 2.049800000000000E10    1.254641415010908E-3   2.744481362279796E-3  
 2.050000000000000E10    1.875694929296343E-3   2.598780337644458E-3  
 2.050200000000000E10    2.513559833130658E-3   2.279980027657232E-3  
 2.050400000000000E10    3.104715197971820E-3   1.716724720519082E-3  
 2.050600000000000E10    3.458827812561896E-3   9.002627161956192E-4  
 2.050800000000000E10    3.453823316213771E-3   5.969595974641195E-5  
 2.051000000000000E10    3.223977000893328E-3  -5.744472838298193E-4  
 2.051200000000000E10    2.981059112367623E-3  -1.087172343989704E-3  
 2.051400000000000E10    2.668295958205874E-3  -1.550194010169173E-3  
 2.051600000000000E10    2.277285486283433E-3  -1.870666887829609E-3  
 2.051800000000000E10    1.956795027034948E-3  -2.077073102180727E-3  
 2.052000000000000E10    1.699002047640429E-3  -2.279987787720537E-3  
 2.052200000000000E10    1.469190958254959E-3  -2.499686752411503E-3  
 2.052400000000000E10    1.221845662336291E-3  -2.826989569927378E-3  
 2.052600000000000E10    7.219138459892706E-4  -3.183184859415694E-3  
 2.052800000000000E10    1.205894407243018E-4  -3.295132915255588E-3  
 2.053000000000000E10   -3.900611423408238E-4  -3.320330026686008E-3  
 2.053200000000000E10   -9.879882872840507E-4  -3.344909290863593E-3  
 2.053400000000000E10   -1.623890652520575E-3  -3.184719171198737E-3  
 2.053600000000000E10   -2.228858161127433E-3  -2.918286640925233E-3  
 2.053800000000000E10   -2.848342329325009E-3  -2.482833467239951E-3  
 2.054000000000000E10   -3.290563721186769E-3  -1.875699493447664E-3  
 2.054200000000000E10   -3.583411251121957E-3  -1.261306465258477E-3  
 2.054400000000000E10   -3.788623991403193E-3  -5.680182268421470E-4  
 2.054600000000000E10   -3.800777300671050E-3   1.812675222131681E-4  
 2.054800000000000E10   -3.636859104405216E-3   8.874666724265881E-4  
 2.055000000000000E10   -3.327283373968715E-3   1.511969005712021E-3  
 2.055200000000000E10   -2.875397407254320E-3   2.002044495601407E-3  
 2.055400000000000E10   -2.407261247098937E-3   2.278111024219313E-3  
 2.055600000000000E10   -2.073907914261024E-3   2.456398614693755E-3  
