#  HZ   S   RI   R     50.00 
! Rohde & Schwarz ZVA40 4Ports - Version 3.90 - 1145.1110k42 SN: 100403
! Date: 2023-10-03 10:21:12
! Measurement: S12 
! 
 2.000000000000000E10    1.115829278542488E-3  -2.183782652503363E-3  
 2.000200000000000E10    6.443320933074035E-4  -2.301067010396057E-3  
 2.000400000000000E10    9.474087602467518E-5  -2.262144090814723E-3  
 2.000600000000000E10   -2.952994508194496E-4  -1.985957440747707E-3  
 2.000800000000000E10   -3.976165349336548E-4  -1.708370111710220E-3  
 2.001000000000000E10   -3.465253765979368E-4  -1.677937844457726E-3  
 2.001200000000000E10   -5.195810334515517E-4  -1.943325123715180E-3  
 2.001400000000000E10   -1.107428287569847E-3  -2.066538039663876E-3  
 2.001600000000000E10   -1.714797927653073E-3  -1.751320358986656E-3  
 2.001800000000000E10   -2.052422949216432E-3  -1.251997141581443E-3  
 2.002000000000000E10   -2.195108466333261E-3  -7.361372527493924E-4  
 2.002200000000000E10   -2.172485847646992E-3  -1.892464467716679E-4  
 2.002400000000000E10   -2.000520557717041E-3   1.786624257133722E-4  
 2.002600000000000E10   -1.862053009164002E-3   3.612550671850504E-4  
 2.002800000000000E10   -1.861771120241395E-3   5.112915004482839E-4  
 2.003000000000000E10   -1.953382165757594E-3   8.301816716859188E-4  
 2.003200000000000E10   -1.914591752682571E-3   1.362308480397419E-3  
 2.003400000000000E10   -1.565410341653559E-3   1.908274945216599E-3  
 2.003600000000000E10   -1.019120798446238E-3   2.247751009202114E-3  
 2.003800000000000E10   -4.631111126703520E-4   2.348089866616108E-3  
 2.004000000000000E10    3.803132427425161E-5   2.339136528058185E-3  
 2.004200000000000E10    5.727106892865980E-4   2.265705942624697E-3  
 2.004400000000000E10    1.111067400348408E-3   2.018679407666679E-3  
 2.004600000000000E10    1.509508937252341E-3   1.552165865346238E-3  
 2.004800000000000E10    1.601722453617387E-3   1.013618958596554E-3  
 2.005000000000000E10    1.506840956776783E-3   6.708130650049835E-4  
 2.005200000000000E10    1.422847944518758E-3   4.901415797778303E-4  
 2.005400000000000E10    1.424551303325980E-3   4.209948776945197E-4  
 2.005600000000000E10    1.576941464682696E-3   2.777012322675782E-4  
 2.005800000000000E10    1.623558583324430E-3   8.140301495721489E-6  
 2.006000000000000E10    1.632770126754487E-3  -2.202883775613306E-4  
 2.006200000000000E10    1.664857302481930E-3  -5.318406382920566E-4  
 2.006400000000000E10    1.567939895688108E-3  -8.828220867413890E-4  
 2.006600000000000E10    1.346757143942846E-3  -1.152383202376465E-3  
 2.006800000000000E10    1.147099391177849E-3  -1.334479837505906E-3  
 2.007000000000000E10    9.360665722784622E-4  -1.530110680808624E-3  
 2.007200000000000E10    7.112666261727336E-4  -1.709878047997201E-3  
 2.007400000000000E10    4.293286690005550E-4  -1.947720759306793E-3  
 2.007600000000000E10   -5.377381226194471E-5  -2.096855814603192E-3  
 2.007800000000000E10   -5.365274544736303E-4  -1.952553814690974E-3  
 2.008000000000000E10   -8.519734730254170E-4  -1.735581619734014E-3  
 2.008200000000000E10   -1.098750797272833E-3  -1.542518618171690E-3  
 2.008400000000000E10   -1.308054559760624E-3  -1.352986489008698E-3  
 2.008600000000000E10   -1.532746681564108E-3  -1.179969886800757E-3  
 2.008800000000000E10   -1.821964806704610E-3  -8.782959431064903E-4  
 2.009000000000000E10   -1.943397870356286E-3  -4.577766931443304E-4  
 2.009200000000000E10   -1.928858252035247E-3  -1.019247138174251E-4  
 2.009400000000000E10   -1.913794669909058E-3   1.855985222694774E-4  
 2.009600000000000E10   -1.888812200545713E-3   5.004930534158593E-4  
 2.009800000000000E10   -1.765926782455710E-3   8.660150019245016E-4  
 2.010000000000000E10   -1.517336246454054E-3   1.146320633038327E-3  
 2.010200000000000E10   -1.260924273756919E-3   1.330710831098259E-3  
 2.010400000000000E10   -1.024183700792491E-3   1.410830196821027E-3  
 2.010600000000000E10   -8.806352745051739E-4   1.474923066173991E-3  
 2.010800000000000E10   -7.509551166246335E-4   1.641883635548530E-3  
 2.011000000000000E10   -5.383821930822538E-4   1.843931265520277E-3  
 2.011200000000000E10   -2.356030839749750E-4   2.006063479240294E-3  
 2.011400000000000E10    8.941573657837040E-5   2.121826901135070E-3  
 2.011600000000000E10    5.375110108784779E-4   2.206181822758582E-3  
 2.011800000000000E10    1.111116307718611E-3   2.052489133482730E-3  
 2.012000000000000E10    1.480521379832041E-3   1.658464747446555E-3  
 2.012200000000000E10    1.616551605467168E-3   1.297862993346321E-3  
 2.012400000000000E10    1.681987204830404E-3   1.054075186537510E-3  
 2.012600000000000E10    1.809574042757353E-3   8.621154594476578E-4  
 2.012800000000000E10    1.984803497584330E-3   5.865436288769600E-4  
 2.013000000000000E10    2.056896617567098E-3   2.401733127717982E-4  
 2.013200000000000E10    2.064988474120145E-3  -4.274598042549633E-5  
 2.013400000000000E10    2.094686108951767E-3  -3.733040023319148E-4  
 2.013600000000000E10    1.992555766331929E-3  -7.709628014169910E-4  
 2.013800000000000E10    1.748218494294970E-3  -1.060993156257879E-3  
 2.014000000000000E10    1.520274288917857E-3  -1.188737646400653E-3  
 2.014200000000000E10    1.413208786053238E-3  -1.221335234327449E-3  
 2.014400000000000E10    1.458385804047187E-3  -1.355295207489420E-3  
 2.014600000000000E10    1.487293159934106E-3  -1.688279362429900E-3  
 2.014800000000000E10    1.355572970135621E-3  -2.166775037982950E-3  
 2.015000000000000E10    9.438555700600977E-4  -2.667873054397879E-3  
 2.015200000000000E10    3.115575905044184E-4  -2.961608210440588E-3  
 2.015400000000000E10   -3.691769293423191E-4  -3.017808465907971E-3  
 2.015600000000000E10   -1.023083981299014E-3  -2.853719043303971E-3  
 2.015800000000000E10   -1.557772983451960E-3  -2.549890497768367E-3  
 2.016000000000000E10   -1.944703162061396E-3  -2.141524696964081E-3  
 2.016200000000000E10   -2.190311344478418E-3  -1.729110372252762E-3  
 2.016400000000000E10   -2.333589415583346E-3  -1.375594982635920E-3  
 2.016600000000000E10   -2.497797780152825E-3  -1.078468764683715E-3  
 2.016800000000000E10   -2.669737941619975E-3  -7.206096413062404E-4  
 2.017000000000000E10   -2.776341210981762E-3  -3.145771910634789E-4  
 2.017200000000000E10   -2.809293421537236E-3   7.381253224728560E-5  
 2.017400000000000E10   -2.828242929859294E-3   4.193907500141198E-4  
 2.017600000000000E10   -2.932847132561384E-3   8.162847952917220E-4  
 2.017800000000000E10   -2.976827332060095E-3   1.429198396012739E-3  
 2.018000000000000E10   -2.745217367730759E-3   2.093301672074530E-3  
 2.018200000000000E10   -2.332273491278843E-3   2.657229667184530E-3  
 2.018400000000000E10   -1.775190372157980E-3   3.112382531442024E-3  
 2.018600000000000E10   -1.134727279552155E-3   3.413013458527901E-3  
 2.018800000000000E10   -4.131101908300210E-4   3.536072007759854E-3  
 2.019000000000000E10    2.377481432631612E-4   3.412746815700775E-3  
 2.019200000000000E10    7.158438631988787E-4   3.225710113636322E-3  
 2.019400000000000E10    1.150900217773462E-3   3.070614774952884E-3  
 2.019600000000000E10    1.624451833777130E-3   2.899893214581190E-3  
 2.019800000000000E10    2.094646208678131E-3   2.573847184302631E-3  
 2.020000000000000E10    2.398469795783361E-3   2.182867067555587E-3  
 2.020200000000000E10    2.598319012947657E-3   1.851961365900934E-3  
 2.020400000000000E10    2.849142765626311E-3   1.624141595567818E-3  
 2.020600000000000E10    3.274812483815132E-3   1.303699561739686E-3  
 2.020800000000000E10    3.712411004084129E-3   7.537667406722905E-4  
 2.021000000000000E10    3.951223515388039E-3  -8.852084553196889E-5  
 2.021200000000000E10    3.791968976319940E-3  -9.519241543279755E-4  
 2.021400000000000E10    3.450465768023774E-3  -1.598277008505883E-3  
 2.021600000000000E10    3.051593071884580E-3  -2.118945397712567E-3  
 2.021800000000000E10    2.593299460217909E-3  -2.488756509221815E-3  
 2.022000000000000E10    2.233570088046017E-3  -2.724220812389697E-3  
 2.022200000000000E10    1.993638226176026E-3  -3.040512023424661E-3  
 2.022400000000000E10    1.616162674811979E-3  -3.558028653195059E-3  
 2.022600000000000E10    9.290313486147812E-4  -4.031125292250956E-3  
 2.022800000000000E10    7.105743100476470E-5  -4.257531422707770E-3  
 2.023000000000000E10   -8.277461596730132E-4  -4.237822084515184E-3  
 2.023200000000000E10   -1.743584918720579E-3  -3.955653135630268E-3  
 2.023400000000000E10   -2.538391009525017E-3  -3.397996916815087E-3  
 2.023600000000000E10   -3.046366756919910E-3  -2.691958263447440E-3  
 2.023800000000000E10   -3.330497907612612E-3  -1.967925060954359E-3  
 2.024000000000000E10   -3.450113383156283E-3  -1.297915035306856E-3  
 2.024200000000000E10   -3.425965301209579E-3  -6.626976580634989E-4  
 2.024400000000000E10   -3.283276265763023E-3  -1.634077014858593E-4  
 2.024600000000000E10   -3.174356633314381E-3   2.176621221426306E-4  
 2.024800000000000E10   -3.079108928364737E-3   6.004038473798169E-4  
 2.025000000000000E10   -2.943813110943194E-3   9.421562189581219E-4  
 2.025200000000000E10   -2.892338705283624E-3   1.295754867088464E-3  
 2.025400000000000E10   -2.807777832020764E-3   1.769514456908736E-3  
 2.025600000000000E10   -2.581905271788990E-3   2.331368538930461E-3  
 2.025800000000000E10   -2.162127686595476E-3   2.878407878732240E-3  
 2.026000000000000E10   -1.577634726547533E-3   3.299033346896370E-3  
 2.026200000000000E10   -8.826523812280762E-4   3.576691572864851E-3  
 2.026400000000000E10   -1.323866640127057E-4   3.631905117934501E-3  
 2.026600000000000E10    5.232615426562176E-4   3.543176653760452E-3  
 2.026800000000000E10    1.193541362967894E-3   3.335995021862565E-3  
 2.027000000000000E10    1.797170977591089E-3   2.934568104575630E-3  
 2.027200000000000E10    2.224689099454770E-3   2.419728673649607E-3  
 2.027400000000000E10    2.467245148080919E-3   1.885890313941572E-3  
 2.027600000000000E10    2.571169942341470E-3   1.363209556546752E-3  
 2.027800000000000E10    2.526166279696756E-3   9.817488931326405E-4  
 2.028000000000000E10    2.585139004858556E-3   7.561038127513948E-4  
 2.028200000000000E10    2.783769474330324E-3   4.652223304017551E-4  
 2.028400000000000E10    2.990310304556732E-3   3.142513041556644E-7  
 2.028600000000000E10    3.037851769477129E-3  -6.526747073857460E-4  
 2.028800000000000E10    2.797307584572722E-3  -1.308102238302430E-3  
 2.029000000000000E10    2.390944260965895E-3  -1.819989143836278E-3  
 2.029200000000000E10    1.894053356308077E-3  -2.174310575894736E-3  
 2.029400000000000E10    1.358214589008303E-3  -2.357214490917546E-3  
 2.029600000000000E10    8.773137082311291E-4  -2.370674654634463E-3  
 2.029800000000000E10    5.154835461224947E-4  -2.313533151108358E-3  
 2.030000000000000E10    2.106467320657059E-4  -2.268683010091384E-3  
 2.030200000000000E10   -4.724840875025149E-5  -2.208807177979637E-3  
 2.030400000000000E10   -2.427231391063996E-4  -2.219081692466582E-3  
 2.030600000000000E10   -5.563377948150177E-4  -2.330870014028969E-3  
 2.030800000000000E10   -1.106600557384944E-3  -2.304636769824558E-3  
 2.031000000000000E10   -1.627081681767272E-3  -2.028487588244456E-3  
 2.031200000000000E10   -2.013002918964183E-3  -1.580031002285304E-3  
 2.031400000000000E10   -2.230938653358155E-3  -1.063416349805064E-3  
 2.031600000000000E10   -2.292818476066545E-3  -5.255250488752845E-4  
 2.031800000000000E10   -2.167382648352672E-3  -6.575889064050795E-5  
 2.032000000000000E10   -2.014984264624892E-3   3.015333878229959E-4  
 2.032200000000000E10   -1.783822542401376E-3   6.322421077466398E-4  
 2.032400000000000E10   -1.459737191908062E-3   8.098048231288517E-4  
 2.032600000000000E10   -1.225910097774532E-3   8.352610920728358E-4  
 2.032800000000000E10   -1.080922230526253E-3   8.656199185039711E-4  
 2.033000000000000E10   -9.818262489581552E-4   8.666619520496441E-4  
 2.033200000000000E10   -9.491580141777243E-4   9.045494263301846E-4  
 2.033400000000000E10   -9.398376137984022E-4   1.002140334565883E-3  
 2.033600000000000E10   -1.033686735253367E-3   1.077941140263445E-3  
 2.033800000000000E10   -8.405176642419841E-4   1.445063428642849E-3  
 2.034000000000000E10   -5.924322715684496E-4   1.754927233344427E-3  
 2.034200000000000E10   -1.759357318894251E-4   1.996669340533791E-3  
 2.034400000000000E10    3.438629091424109E-4   2.022325104378440E-3  
 2.034600000000000E10    8.282256614485826E-4   1.874435218740945E-3  
 2.034800000000000E10    1.264070807438758E-3   1.615356248630970E-3  
 2.035000000000000E10    1.615430590593153E-3   1.184630621638563E-3  
 2.035200000000000E10    1.742109182049279E-3   6.195066962391138E-4  
 2.035400000000000E10    1.563594292814809E-3   1.095538561154778E-4  
 2.035600000000000E10    1.218799760358201E-3  -1.609327316853322E-4  
 2.035800000000000E10    9.260517243226922E-4  -1.552838997061675E-4  
 2.036000000000000E10    8.468783106999817E-4  -2.162241724203407E-5  
 2.036200000000000E10    9.668530870435968E-4   6.327056730191951E-5  
 2.036400000000000E10    1.149725134449977E-3  -5.411882820125255E-5  
 2.036600000000000E10    1.272221289885541E-3  -2.992292995461160E-4  
 2.036800000000000E10    1.308126120690119E-3  -6.382347373464319E-4  
 2.037000000000000E10    1.130224395267390E-3  -1.010907249076775E-3  
 2.037200000000000E10    7.957082125358286E-4  -1.208625173334170E-3  
 2.037400000000000E10    5.234697665501800E-4  -1.247751815417023E-3  
 2.037600000000000E10    2.942769478303726E-4  -1.280804927874771E-3  
 2.037800000000000E10    5.586176929581498E-5  -1.297170300623057E-3  
 2.038000000000000E10   -1.840687381681400E-4  -1.264713299288242E-3  
 2.038200000000000E10   -4.092444075164773E-4  -1.151429609981952E-3  
 2.038400000000000E10   -5.971259691890467E-4  -9.923849936091791E-4  
 2.038600000000000E10   -6.735703748374902E-4  -7.928603897906013E-4  
 2.038800000000000E10   -6.293572067214107E-4  -7.197002673314678E-4  
 2.039000000000000E10   -7.251909269985779E-4  -8.021556250578552E-4  
 2.039200000000000E10   -1.017793327466481E-3  -7.602683337474313E-4  
 2.039400000000000E10   -1.268361069917403E-3  -4.580315758681133E-4  
 2.039600000000000E10   -1.292038359679282E-3  -6.471139473702623E-5  
 2.039800000000000E10   -1.143210752936149E-3   1.954887778049818E-4  
 2.040000000000000E10   -1.012481615395734E-3   2.781025011026267E-4  
 2.040200000000000E10   -1.002454078169885E-3   3.655893898987280E-4  
 2.040400000000000E10   -9.847584986817782E-4   5.653184597139005E-4  
 2.040600000000000E10   -8.522324302854638E-4   7.890505604101001E-4  
 2.040800000000000E10   -6.331511443325630E-4   9.134097274875752E-4  
 2.041000000000000E10   -4.355507413425518E-4   9.163034847006202E-4  
 2.041200000000000E10   -3.432787607717156E-4   8.703098046006981E-4  
 2.041400000000000E10   -3.275891811224736E-4   8.969407666612556E-4  
 2.041600000000000E10   -2.759953387323078E-4   1.045106651468410E-3  
 2.041800000000000E10   -1.195726756661855E-4   1.216639255828880E-3  
 2.042000000000000E10    1.454289616689224E-4   1.342449479529427E-3  
 2.042200000000000E10    5.286189348057465E-4   1.360541601941266E-3  
 2.042400000000000E10    8.754573495092768E-4   1.212453478257413E-3  
 2.042600000000000E10    1.145938083667446E-3   9.930000912087660E-4  
 2.042800000000000E10    1.397267471205581E-3   6.726764302045384E-4  
 2.043000000000000E10    1.459369862762590E-3   1.908024639339635E-4  
 2.043200000000000E10    1.206793175596330E-3  -1.649951963271532E-4  
 2.043400000000000E10    9.244154121174858E-4  -2.346521486523906E-4  
 2.043600000000000E10    8.245365892502446E-4  -1.458788605372387E-4  
 2.043800000000000E10    9.032903364169654E-4  -9.373107604915274E-5  
 2.044000000000000E10    9.752705960569008E-4  -1.884061779559555E-4  
 2.044200000000000E10    1.039471979580682E-3  -2.828572325126044E-4  
 2.044400000000000E10    1.147068502312457E-3  -4.123750194493268E-4  
 2.044600000000000E10    1.288375789213374E-3  -6.664769736946458E-4  
 2.044800000000000E10    1.340767614439958E-3  -1.107938898106416E-3  
 2.045000000000000E10    1.094065871762319E-3  -1.597108008960883E-3  
 2.045200000000000E10    6.402574330827015E-4  -1.909640432266450E-3  
 2.045400000000000E10    1.078140431437297E-4  -2.011706966354891E-3  
 2.045600000000000E10   -3.156022807902277E-4  -1.915382579210456E-3  
 2.045800000000000E10   -6.287060656446827E-4  -1.774236391712394E-3  
 2.046000000000000E10   -9.134698107286737E-4  -1.627022667822463E-3  
 2.046200000000000E10   -1.171772937393851E-3  -1.484887303646516E-3  
 2.046400000000000E10   -1.486423041637022E-3  -1.305061254512381E-3  
 2.046600000000000E10   -1.777701364416216E-3  -9.481381254132701E-4  
 2.046800000000000E10   -1.843692937486426E-3  -5.054885394336588E-4  
 2.047000000000000E10   -1.761417038290313E-3  -2.086933328192337E-4  
 2.047200000000000E10   -1.715757668501249E-3  -1.121074698554975E-5  
 2.047400000000000E10   -1.731384071280007E-3   1.740041694170537E-4  
 2.047600000000000E10   -1.731591695850646E-3   4.211636324827042E-4  
 2.047800000000000E10   -1.647523211970650E-3   6.550784283145159E-4  
 2.048000000000000E10   -1.595934331244617E-3   8.264480555361069E-4  
 2.048200000000000E10   -1.605475256736908E-3   1.056378873289322E-3  
 2.048400000000000E10   -1.553174608421547E-3   1.425372652226576E-3  
 2.048600000000000E10   -1.303494440098466E-3   1.787493298589080E-3  
 2.048800000000000E10   -9.855313261074050E-4   2.002214012598550E-3  
 2.049000000000000E10   -7.043777193218746E-4   2.162584530500074E-3  
 2.049200000000000E10   -4.184449617578476E-4   2.330739128713807E-3  
 2.049400000000000E10   -9.693791367613746E-5   2.533314646118217E-3  
 2.049600000000000E10    3.440210911557424E-4   2.719078644144315E-3  
 2.049800000000000E10    9.335579212616993E-4   2.803798747697363E-3  
 2.050000000000000E10    1.597382464549608E-3   2.718130350802784E-3  
 2.050200000000000E10    2.277733736533534E-3   2.434287849744713E-3  
 2.050400000000000E10    2.910462216715570E-3   1.896481038312669E-3  
 2.050600000000000E10    3.295063981096502E-3   1.116162838621272E-3  
 2.050800000000000E10    3.330354923727337E-3   3.131499947307425E-4  
 2.051000000000000E10    3.178835967210708E-3  -2.977232951606211E-4  
 2.051200000000000E10    3.017329748857905E-3  -8.065370730710803E-4  
 2.051400000000000E10    2.757428558888259E-3  -1.291811849956435E-3  
 2.051600000000000E10    2.411392250063795E-3  -1.636682487851768E-3  
 2.051800000000000E10    2.123333022205366E-3  -1.884364958473102E-3  
 2.052000000000000E10    1.885773532127065E-3  -2.138560202352151E-3  
 2.052200000000000E10    1.655765283093961E-3  -2.386136609991944E-3  
 2.052400000000000E10    1.411715587083664E-3  -2.720757913603275E-3  
 2.052600000000000E10    9.482092120581205E-4  -3.089178922689624E-3  
 2.052800000000000E10    3.715956031724259E-4  -3.251443642915951E-3  
 2.053000000000000E10   -1.154907982304900E-4  -3.339624730870128E-3  
 2.053200000000000E10   -6.938129393987496E-4  -3.446723274127753E-3  
 2.053400000000000E10   -1.368720015441930E-3  -3.368103229958151E-3  
 2.053600000000000E10   -2.044927432305283E-3  -3.161405773695421E-3  
 2.053800000000000E10   -2.728632849606652E-3  -2.738453352961827E-3  
 2.054000000000000E10   -3.214479061878390E-3  -2.126269396049557E-3  
 2.054200000000000E10   -3.546964161580912E-3  -1.517166978576117E-3  
 2.054400000000000E10   -3.781931509298308E-3  -8.104805472410389E-4  
 2.054600000000000E10   -3.831880572424443E-3  -6.601334920290995E-5  
 2.054800000000000E10   -3.718061648585179E-3   6.363597316926140E-4  
 2.055000000000000E10   -3.478244559287474E-3   1.260516591611560E-3  
 2.055200000000000E10   -3.108784151091068E-3   1.784042166373520E-3  
 2.055400000000000E10   -2.697890089755809E-3   2.149308117589465E-3  
 2.055600000000000E10   -2.369605677409305E-3   2.408197873996364E-3  
