#  HZ   S   RI   R     50.00 
! Rohde & Schwarz ZVA40 4Ports - Version 3.90 - 1145.1110k42 SN: 100403
! Date: 2023-10-03 10:21:58
! Measurement: S12 
! 
 2.000000000000000E10    7.982367756827615E-4  -2.138328317563026E-3  
 2.000200000000000E10    4.362965452427937E-4  -2.120867905249137E-3  
 2.000400000000000E10    5.141395899985852E-5  -2.019021193949130E-3  
 2.000600000000000E10   -1.835011160422745E-4  -1.788102336922873E-3  
 2.000800000000000E10   -2.030737688336956E-4  -1.669137304283383E-3  
 2.001000000000000E10   -2.213630134654034E-4  -1.799772322191940E-3  
 2.001200000000000E10   -5.455169862996027E-4  -2.091164890720173E-3  
 2.001400000000000E10   -1.210864533354696E-3  -2.136312483424073E-3  
 2.001600000000000E10   -1.817214456821226E-3  -1.730356384605292E-3  
 2.001800000000000E10   -2.129542764623756E-3  -1.170752109481924E-3  
 2.002000000000000E10   -2.215612147946233E-3  -6.166053203698529E-4  
 2.002200000000000E10   -2.120310308275022E-3  -1.200673644313083E-4  
 2.002400000000000E10   -1.909840939373586E-3   1.683110787408824E-4  
 2.002600000000000E10   -1.811007533282481E-3   2.782856950913882E-4  
 2.002800000000000E10   -1.906826349444156E-3   4.214434241729091E-4  
 2.003000000000000E10   -2.058303332568207E-3   8.090585843878398E-4  
 2.003200000000000E10   -2.003212160442347E-3   1.427442292760757E-3  
 2.003400000000000E10   -1.576560213127070E-3   2.003953411928615E-3  
 2.003600000000000E10   -9.517918613296009E-4   2.302355804341362E-3  
 2.003800000000000E10   -3.842684778542002E-4   2.324069839926496E-3  
 2.004000000000000E10    8.011258429073474E-5   2.286557483439563E-3  
 2.004200000000000E10    5.545966447438325E-4   2.180322741550510E-3  
 2.004400000000000E10    9.992889783202081E-4   1.952297738670220E-3  
 2.004600000000000E10    1.351828182426592E-3   1.590940420865880E-3  
 2.004800000000000E10    1.483487295381602E-3   1.148619325109726E-3  
 2.005000000000000E10    1.474699615028180E-3   8.517693834722974E-4  
 2.005200000000000E10    1.478148738001518E-3   6.655717216846016E-4  
 2.005400000000000E10    1.557339515712046E-3   5.354827694452416E-4  
 2.005600000000000E10    1.700552985415793E-3   2.757719461734258E-4  
 2.005800000000000E10    1.666033554110620E-3  -3.534008260711418E-5  
 2.006000000000000E10    1.653143095359748E-3  -2.102713057575224E-4  
 2.006200000000000E10    1.705592169058452E-3  -4.767054095142490E-4  
 2.006400000000000E10    1.648932633907451E-3  -8.198432612363174E-4  
 2.006600000000000E10    1.490461814922469E-3  -1.119295884254651E-3  
 2.006800000000000E10    1.313425303182587E-3  -1.377568242781437E-3  
 2.007000000000000E10    1.089333785590505E-3  -1.648796902584942E-3  
 2.007200000000000E10    8.051190447842830E-4  -1.878108319683340E-3  
 2.007400000000000E10    4.428627774463036E-4  -2.119459646507403E-3  
 2.007600000000000E10   -1.076179066788818E-4  -2.239378726822727E-3  
 2.007800000000000E10   -6.139722062432590E-4  -2.045914602296016E-3  
 2.008000000000000E10   -9.123142956390684E-4  -1.799362310941685E-3  
 2.008200000000000E10   -1.134617766588978E-3  -1.589269107891137E-3  
 2.008400000000000E10   -1.316553254647561E-3  -1.424813258240641E-3  
 2.008600000000000E10   -1.544353672250881E-3  -1.290749530282398E-3  
 2.008800000000000E10   -1.860662853404042E-3  -1.047713421598149E-3  
 2.009000000000000E10   -2.081101516897909E-3  -6.622859989535651E-4  
 2.009200000000000E10   -2.185238809203436E-3  -2.635736640418825E-4  
 2.009400000000000E10   -2.236495671515316E-3   1.619443099662770E-4  
 2.009600000000000E10   -2.174295758731429E-3   6.210780704128257E-4  
 2.009800000000000E10   -1.958436553656483E-3   1.055380428019549E-3  
 2.010000000000000E10   -1.630193710841995E-3   1.326314840352084E-3  
 2.010200000000000E10   -1.345775162338679E-3   1.472617871931592E-3  
 2.010400000000000E10   -1.147455969072920E-3   1.545758543610164E-3  
 2.010600000000000E10   -1.043459311426606E-3   1.664495341855374E-3  
 2.010800000000000E10   -8.921739476028989E-4   1.929152368239558E-3  
 2.011000000000000E10   -5.876939887160485E-4   2.234986107170439E-3  
 2.011200000000000E10   -9.799604794787904E-5   2.436704461594382E-3  
 2.011400000000000E10    4.224991910536461E-4   2.434973400571628E-3  
 2.011600000000000E10    9.291872774367061E-4   2.334024461397623E-3  
 2.011800000000000E10    1.438706875484902E-3   2.023528368034706E-3  
 2.012000000000000E10    1.705587662236487E-3   1.571310199420281E-3  
 2.012200000000000E10    1.785586733244544E-3   1.218342477780229E-3  
 2.012400000000000E10    1.833681446571665E-3   1.002421648118936E-3  
 2.012600000000000E10    1.988754711856118E-3   8.304241836449167E-4  
 2.012800000000000E10    2.233586262270236E-3   5.039738179618860E-4  
 2.013000000000000E10    2.301901195642880E-3   4.281242100711319E-5  
 2.013200000000000E10    2.225169221153905E-3  -3.489370762679691E-4  
 2.013400000000000E10    2.106462392907473E-3  -7.169608284485500E-4  
 2.013600000000000E10    1.877745204644766E-3  -1.029184616850472E-3  
 2.013800000000000E10    1.623109109994837E-3  -1.204590367272098E-3  
 2.014000000000000E10    1.434327545543859E-3  -1.278200249707605E-3  
 2.014200000000000E10    1.397468810786068E-3  -1.329881169441040E-3  
 2.014400000000000E10    1.470568515769167E-3  -1.540467091158942E-3  
 2.014600000000000E10    1.435969667656115E-3  -1.974132751971892E-3  
 2.014800000000000E10    1.148129487122743E-3  -2.498886800934503E-3  
 2.015000000000000E10    5.830158296664628E-4  -2.919525947659411E-3  
 2.015200000000000E10   -1.150104578733585E-4  -3.059028192718395E-3  
 2.015400000000000E10   -8.032523198289586E-4  -2.989166840369237E-3  
 2.015600000000000E10   -1.435587987328007E-3  -2.691482063140133E-3  
 2.015800000000000E10   -1.852442915404448E-3  -2.242676723385626E-3  
 2.016000000000000E10   -2.078308288547094E-3  -1.812015738196426E-3  
 2.016200000000000E10   -2.232004457826641E-3  -1.473883116127226E-3  
 2.016400000000000E10   -2.374610222623121E-3  -1.184486482063735E-3  
 2.016600000000000E10   -2.544852012937023E-3  -8.823003524732977E-4  
 2.016800000000000E10   -2.711220367189461E-3  -4.937616881543314E-4  
 2.017000000000000E10   -2.783266939887131E-3  -6.143009114717630E-5  
 2.017200000000000E10   -2.761788204739022E-3   3.688793430751284E-4  
 2.017400000000000E10   -2.660595770383609E-3   7.376133516815394E-4  
 2.017600000000000E10   -2.640498516217529E-3   1.047013769665955E-3  
 2.017800000000000E10   -2.625441936576747E-3   1.531261137580635E-3  
 2.018000000000000E10   -2.414106726084309E-3   2.078344164268000E-3  
 2.018200000000000E10   -2.068310104749985E-3   2.573791295366646E-3  
 2.018400000000000E10   -1.582039460898805E-3   3.006875187296559E-3  
 2.018600000000000E10   -9.998792931098948E-4   3.316110787294877E-3  
 2.018800000000000E10   -2.869729001791407E-4   3.476357872857213E-3  
 2.019000000000000E10    4.031718542495301E-4   3.385451423011935E-3  
 2.019200000000000E10    9.291977134554947E-4   3.142304648868791E-3  
 2.019400000000000E10    1.334340172335608E-3   2.887326247021761E-3  
 2.019600000000000E10    1.719115200881759E-3   2.659833381292302E-3  
 2.019800000000000E10    2.103438527758945E-3   2.350257866120347E-3  
 2.020000000000000E10    2.374025498323950E-3   2.000786237762309E-3  
 2.020200000000000E10    2.587125222716067E-3   1.712260758555373E-3  
 2.020400000000000E10    2.903412612965037E-3   1.479854350219722E-3  
 2.020600000000000E10    3.337561732237273E-3   1.069508078865789E-3  
 2.020800000000000E10    3.680291188949789E-3   4.333059594460888E-4  
 2.021000000000000E10    3.813966308670587E-3  -4.154182650341776E-4  
 2.021200000000000E10    3.557083046508364E-3  -1.238961477472673E-3  
 2.021400000000000E10    3.118480645779353E-3  -1.795760423599121E-3  
 2.021600000000000E10    2.664988511401665E-3  -2.195867607612751E-3  
 2.021800000000000E10    2.217372865652454E-3  -2.437418810601649E-3  
 2.022000000000000E10    1.923400564413053E-3  -2.589717777880275E-3  
 2.022200000000000E10    1.739839299496350E-3  -2.892140622298005E-3  
 2.022400000000000E10    1.381461088902053E-3  -3.394536697337678E-3  
 2.022600000000000E10    7.186680019734779E-4  -3.819210602696194E-3  
 2.022800000000000E10   -1.013679932917894E-4  -4.010909887232572E-3  
 2.023000000000000E10   -9.903410711199232E-4  -3.958672350234211E-3  
 2.023200000000000E10   -1.821677759098112E-3  -3.603809915574981E-3  
 2.023400000000000E10   -2.485387949004709E-3  -3.005636698184395E-3  
 2.023600000000000E10   -2.867724268667819E-3  -2.337730324549910E-3  
 2.023800000000000E10   -3.070769095039621E-3  -1.721425504942357E-3  
 2.024000000000000E10   -3.177640933431022E-3  -1.133711976816799E-3  
 2.024200000000000E10   -3.191818348074586E-3  -5.626502671277098E-4  
 2.024400000000000E10   -3.081426321783082E-3  -6.360083995533878E-5  
 2.024600000000000E10   -2.932508670263739E-3   3.321227470625401E-4  
 2.024800000000000E10   -2.784337653281533E-3   6.875290877290521E-4  
 2.025000000000000E10   -2.627381021080255E-3   9.641263537193217E-4  
 2.025200000000000E10   -2.548101919911424E-3   1.223084933299505E-3  
 2.025400000000000E10   -2.475190714170291E-3   1.592458680109856E-3  
 2.025600000000000E10   -2.303909776420608E-3   2.061643874220326E-3  
 2.025800000000000E10   -1.964758530505697E-3   2.512263953660211E-3  
 2.026000000000000E10   -1.505888922814541E-3   2.878665114434843E-3  
 2.026200000000000E10   -9.476056352637158E-4   3.182767329875519E-3  
 2.026400000000000E10   -2.701776640745843E-4   3.337624267226569E-3  
 2.026600000000000E10    4.113016902633263E-4   3.310502044325095E-3  
 2.026800000000000E10    1.095146337135686E-3   3.104653837356018E-3  
 2.027000000000000E10    1.661780125024603E-3   2.677691558092343E-3  
 2.027200000000000E10    1.979320330975836E-3   2.127640250819865E-3  
 2.027400000000000E10    2.078991671717523E-3   1.646911046552039E-3  
 2.027600000000000E10    2.084292336948349E-3   1.296635296365658E-3  
 2.027800000000000E10    2.052197027478792E-3   1.116240890064266E-3  
 2.028000000000000E10    2.216595553362484E-3   1.018253569532728E-3  
 2.028200000000000E10    2.530734879712080E-3   7.845783478897246E-4  
 2.028400000000000E10    2.843855290938123E-3   3.122821263713438E-4  
 2.028600000000000E10    2.947345046730220E-3  -3.811894682129342E-4  
 2.028800000000000E10    2.737680839729816E-3  -1.042169257193620E-3  
 2.029000000000000E10    2.352323936584658E-3  -1.544847836608096E-3  
 2.029200000000000E10    1.867048498894636E-3  -1.884810794662270E-3  
 2.029400000000000E10    1.381342308065600E-3  -2.019802261870840E-3  
 2.029600000000000E10    1.017337732990522E-3  -2.014570068012264E-3  
 2.029800000000000E10    7.605293963841625E-4  -2.009202367677232E-3  
 2.030000000000000E10    5.116022037200386E-4  -2.055425991512457E-3  
 2.030200000000000E10    2.661721020922913E-4  -2.069379199987383E-3  
 2.030400000000000E10    3.934691218797891E-5  -2.148073304263142E-3  
 2.030600000000000E10   -3.096525933533149E-4  -2.290294406966234E-3  
 2.030800000000000E10   -8.390768207877939E-4  -2.281812904658121E-3  
 2.031000000000000E10   -1.320544985763024E-3  -2.031759432720120E-3  
 2.031200000000000E10   -1.675648199725227E-3  -1.648060165426154E-3  
 2.031400000000000E10   -1.891048212467970E-3  -1.223023558311440E-3  
 2.031600000000000E10   -1.966357724587798E-3  -7.988818615658366E-4  
 2.031800000000000E10   -1.907639508391124E-3  -4.508620977915303E-4  
 2.032000000000000E10   -1.859155084793450E-3  -1.577432400710492E-4  
 2.032200000000000E10   -1.753900164197901E-3   1.342797377855813E-4  
 2.032400000000000E10   -1.575314444783610E-3   3.432598713677140E-4  
 2.032600000000000E10   -1.433411651113376E-3   4.527668206520067E-4  
 2.032800000000000E10   -1.346727390326458E-3   5.233986213383623E-4  
 2.033000000000000E10   -1.318859199441418E-3   6.052049921505507E-4  
 2.033200000000000E10   -1.315647813163197E-3   7.461694518579441E-4  
 2.033400000000000E10   -1.324256841509778E-3   9.158721404624096E-4  
 2.033600000000000E10   -1.453661484725579E-3   1.019823675434168E-3  
 2.033800000000000E10   -1.291693213002294E-3   1.555055028385903E-3  
 2.034000000000000E10   -9.893066952751111E-4   2.010309541743601E-3  
 2.034200000000000E10   -4.612434468109453E-4   2.323418993321446E-3  
 2.034400000000000E10    1.933056722150475E-4   2.386637926625474E-3  
 2.034600000000000E10    7.723060263919968E-4   2.193260795803453E-3  
 2.034800000000000E10    1.216882046769451E-3   1.846291002496791E-3  
 2.035000000000000E10    1.527496225670727E-3   1.373737898753606E-3  
 2.035200000000000E10    1.620064579928997E-3   8.480644322400314E-4  
 2.035400000000000E10    1.464096660181543E-3   4.277922270486748E-4  
 2.035600000000000E10    1.194732873387563E-3   2.422953050536332E-4  
 2.035800000000000E10    1.034366629637053E-3   2.963786068198684E-4  
 2.036000000000000E10    1.101114431687405E-3   4.151241821256072E-4  
 2.036200000000000E10    1.372883915396558E-3   3.865714251531342E-4  
 2.036400000000000E10    1.626401871541165E-3   1.074657296086853E-4  
 2.036600000000000E10    1.716270798655030E-3  -2.361048183672431E-4  
 2.036800000000000E10    1.735275285190741E-3  -6.136321041503711E-4  
 2.037000000000000E10    1.597375171744509E-3  -1.046858167892836E-3  
 2.037200000000000E10    1.284811568455400E-3  -1.393264313822482E-3  
 2.037400000000000E10    9.518514611836222E-4  -1.574146648835703E-3  
 2.037600000000000E10    6.191078760304754E-4  -1.708790674436434E-3  
 2.037800000000000E10    2.554949310806865E-4  -1.768144574182413E-3  
 2.038000000000000E10   -8.971291513742585E-5  -1.752648293072632E-3  
 2.038200000000000E10   -4.324936087991256E-4  -1.663339354636963E-3  
 2.038400000000000E10   -7.476835129642031E-4  -1.508704339223052E-3  
 2.038600000000000E10   -9.476436895799962E-4  -1.244543100782607E-3  
 2.038800000000000E10   -9.777770771814923E-4  -1.053844017726567E-3  
 2.039000000000000E10   -1.090585302519363E-3  -1.011923186587035E-3  
 2.039200000000000E10   -1.351292368851153E-3  -9.063493788743135E-4  
 2.039400000000000E10   -1.595012504742858E-3  -6.147540352960081E-4  
 2.039600000000000E10   -1.676038245827634E-3  -2.386960132617315E-4  
 2.039800000000000E10   -1.626851122899157E-3   7.665202364177650E-5  
 2.040000000000000E10   -1.569542443297998E-3   3.210896340985138E-4  
 2.040200000000000E10   -1.537413109893641E-3   5.793786156233988E-4  
 2.040400000000000E10   -1.462665410451745E-3   9.032136582436019E-4  
 2.040600000000000E10   -1.245171461983831E-3   1.224466566627511E-3  
 2.040800000000000E10   -8.963710192171923E-4   1.435798830965940E-3  
 2.041000000000000E10   -5.367870465085800E-4   1.500123285206829E-3  
 2.041200000000000E10   -2.922175877252645E-4   1.419299008581527E-3  
 2.041400000000000E10   -1.993909456349708E-4   1.397914615835336E-3  
 2.041600000000000E10   -9.771895338230247E-5   1.521187329975267E-3  
 2.041800000000000E10    1.542336128291831E-4   1.707150485872487E-3  
 2.042000000000000E10    5.762188138685538E-4   1.817218005652086E-3  
 2.042200000000000E10    1.105153378398146E-3   1.709396617144694E-3  
 2.042400000000000E10    1.523647263814761E-3   1.370107046831834E-3  
 2.042600000000000E10    1.764543460227233E-3   9.657302700476249E-4  
 2.042800000000000E10    1.935881388786317E-3   5.112702523764423E-4  
 2.043000000000000E10    1.908780043032557E-3  -3.440124686768746E-5  
 2.043200000000000E10    1.630833556438670E-3  -4.137665343262315E-4  
 2.043400000000000E10    1.340870432963209E-3  -5.681797674734438E-4  
 2.043600000000000E10    1.167376169267996E-3  -5.754136167554790E-4  
 2.043800000000000E10    1.151625109154256E-3  -6.223129263768594E-4  
 2.044000000000000E10    1.111896995733529E-3  -7.680567222250056E-4  
 2.044200000000000E10    1.022182100941779E-3  -8.821957160186009E-4  
 2.044400000000000E10    9.992352919333675E-4  -9.703002799818465E-4  
 2.044600000000000E10    1.022156791787707E-3  -1.146921352068134E-3  
 2.044800000000000E10    9.767780768230243E-4  -1.479038894265911E-3  
 2.045000000000000E10    7.319200554969933E-4  -1.867355373515575E-3  
 2.045200000000000E10    2.857653524011051E-4  -2.150042908743985E-3  
 2.045400000000000E10   -2.760791423138415E-4  -2.237181499886579E-3  
 2.045600000000000E10   -7.992244526151114E-4  -2.106324845569820E-3  
 2.045800000000000E10   -1.188801918836727E-3  -1.859683824501247E-3  
 2.046000000000000E10   -1.519231225040694E-3  -1.589166784252773E-3  
 2.046200000000000E10   -1.782218300301802E-3  -1.284618694935664E-3  
 2.046400000000000E10   -2.028194869982158E-3  -9.306722183440991E-4  
 2.046600000000000E10   -2.175763156137267E-3  -4.279804885694350E-4  
 2.046800000000000E10   -2.078848157016706E-3   5.665221350157018E-5  
 2.047000000000000E10   -1.869197434711236E-3   3.457867717038232E-4  
 2.047200000000000E10   -1.714766846199371E-3   5.038381680821942E-4  
 2.047400000000000E10   -1.672027880914857E-3   6.493940086784902E-4  
 2.047600000000000E10   -1.612809913223980E-3   8.960473926071032E-4  
 2.047800000000000E10   -1.471329918763612E-3   1.129162491590490E-3  
 2.048000000000000E10   -1.328819851034586E-3   1.298220393494467E-3  
 2.048200000000000E10   -1.227662933812144E-3   1.472602954162451E-3  
 2.048400000000000E10   -1.085596414527566E-3   1.754664153241347E-3  
 2.048600000000000E10   -7.527028516270938E-4   1.998271597983682E-3  
 2.048800000000000E10   -4.038486327068621E-4   2.086514400111305E-3  
 2.049000000000000E10   -1.175006269497270E-4   2.124908714605028E-3  
 2.049200000000000E10    1.577652723094722E-4   2.177156454631842E-3  
 2.049400000000000E10    4.534825876026846E-4   2.243213928196023E-3  
 2.049600000000000E10    8.394741523494775E-4   2.325504585788861E-3  
 2.049800000000000E10    1.348403785173336E-3   2.300002376787846E-3  
 2.050000000000000E10    1.868757253208687E-3   2.083459597231695E-3  
 2.050200000000000E10    2.351607155790668E-3   1.759552243529769E-3  
 2.050400000000000E10    2.804868912390741E-3   1.258409029225447E-3  
 2.050600000000000E10    3.062837682434439E-3   5.506516267534025E-4  
 2.050800000000000E10    2.993520661621306E-3  -1.513244006837065E-4  
 2.051000000000000E10    2.767975478201839E-3  -6.342955068263529E-4  
 2.051200000000000E10    2.599490306625049E-3  -1.027631917514868E-3  
 2.051400000000000E10    2.366652519956988E-3  -1.438890797001743E-3  
 2.051600000000000E10    2.073174573267735E-3  -1.754956970991636E-3  
 2.051800000000000E10    1.771541862155788E-3  -1.999188151302529E-3  
 2.052000000000000E10    1.489516615290170E-3  -2.213261675010391E-3  
 2.052200000000000E10    1.202086662788670E-3  -2.406631232608514E-3  
 2.052400000000000E10    9.050993561017775E-4  -2.630541975250971E-3  
 2.052600000000000E10    4.577218324638424E-4  -2.849581935641003E-3  
 2.052800000000000E10   -3.613779759547125E-5  -2.891589141998886E-3  
 2.053000000000000E10   -4.496947536915694E-4  -2.906317782073458E-3  
 2.053200000000000E10   -9.702071737541483E-4  -2.900117309125261E-3  
 2.053400000000000E10   -1.512285565800291E-3  -2.735045438617039E-3  
 2.053600000000000E10   -2.013844903398801E-3  -2.497005600236939E-3  
 2.053800000000000E10   -2.527505282340738E-3  -2.121230167693194E-3  
 2.054000000000000E10   -2.899873302610712E-3  -1.588885704648205E-3  
 2.054200000000000E10   -3.133774115429331E-3  -1.053371783924022E-3  
 2.054400000000000E10   -3.272290281511956E-3  -4.655323146212596E-4  
 2.054600000000000E10   -3.270453272645447E-3   1.240765758153624E-4  
 2.054800000000000E10   -3.150683796718023E-3   6.685888859256848E-4  
 2.055000000000000E10   -2.927163385547218E-3   1.165705834405525E-3  
 2.055200000000000E10   -2.605579002659426E-3   1.575620882647478E-3  
 2.055400000000000E10   -2.284428638767641E-3   1.839274769860981E-3  
 2.055600000000000E10   -2.063467808640134E-3   2.036329040869775E-3  
