#  HZ   S   RI   R     50.00 
! Rohde & Schwarz ZVA40 4Ports - Version 3.90 - 1145.1110k42 SN: 100403
! Date: 2023-10-03 10:22:51
! Measurement: S12 
! 
 2.000000000000000E10    5.468119569438483E-4  -2.080918540056383E-3  
 2.000200000000000E10    1.460508522225925E-4  -1.979466025852038E-3  
 2.000400000000000E10   -2.143216719334703E-4  -1.760610765566270E-3  
 2.000600000000000E10   -3.514158137023559E-4  -1.440441002411853E-3  
 2.000800000000000E10   -2.511307654992516E-4  -1.292174637107414E-3  
 2.001000000000000E10   -2.035214287968206E-4  -1.439021583843313E-3  
 2.001200000000000E10   -4.550256824349447E-4  -1.722711802226704E-3  
 2.001400000000000E10   -1.011539380075887E-3  -1.756123992598874E-3  
 2.001600000000000E10   -1.485260006143059E-3  -1.414715744571725E-3  
 2.001800000000000E10   -1.733955138983227E-3  -9.887092990106688E-4  
 2.002000000000000E10   -1.824088367843843E-3  -5.666286132024438E-4  
 2.002200000000000E10   -1.780122665052428E-3  -1.594747747112999E-4  
 2.002400000000000E10   -1.632967368810781E-3   9.967051573726222E-5  
 2.002600000000000E10   -1.544608112902316E-3   2.080036567486825E-4  
 2.002800000000000E10   -1.629137832266253E-3   3.015776599475622E-4  
 2.003000000000000E10   -1.813376501877225E-3   6.243456028871572E-4  
 2.003200000000000E10   -1.794360991082906E-3   1.195854521400734E-3  
 2.003400000000000E10   -1.417659380360697E-3   1.714540512799265E-3  
 2.003600000000000E10   -8.900898513067301E-4   1.978608468644198E-3  
 2.003800000000000E10   -4.188220856620517E-4   2.041227209205935E-3  
 2.004000000000000E10   -3.863106130884093E-6   2.060757383921662E-3  
 2.004200000000000E10    4.382236771982014E-4   1.987978966391261E-3  
 2.004400000000000E10    8.644974059954049E-4   1.803634066031087E-3  
 2.004600000000000E10    1.220006145704812E-3   1.472940787938444E-3  
 2.004800000000000E10    1.365655007800838E-3   1.050560794575065E-3  
 2.005000000000000E10    1.353499924045803E-3   7.652347987469536E-4  
 2.005200000000000E10    1.330461147554197E-3   5.830496981533066E-4  
 2.005400000000000E10    1.372647037303608E-3   4.646956981271898E-4  
 2.005600000000000E10    1.460326085783658E-3   2.424300296441520E-4  
 2.005800000000000E10    1.412965199547281E-3   1.650805231957051E-5  
 2.006000000000000E10    1.393990822665398E-3  -9.339010649461044E-5  
 2.006200000000000E10    1.451022178222996E-3  -2.591747475444976E-4  
 2.006400000000000E10    1.493002036026451E-3  -4.973032038664911E-4  
 2.006600000000000E10    1.450042370975299E-3  -7.706857224176649E-4  
 2.006800000000000E10    1.381768134129056E-3  -1.045475529097872E-3  
 2.007000000000000E10    1.250182629613007E-3  -1.346674844446772E-3  
 2.007200000000000E10    1.048976195988417E-3  -1.629627580079035E-3  
 2.007400000000000E10    7.577979874502502E-4  -1.960899247538058E-3  
 2.007600000000000E10    2.381506999810185E-4  -2.186425169147683E-3  
 2.007800000000000E10   -3.019229496981910E-4  -2.125761916887522E-3  
 2.008000000000000E10   -6.841288551196359E-4  -1.948188231113610E-3  
 2.008200000000000E10   -9.803176323595515E-4  -1.748866098255950E-3  
 2.008400000000000E10   -1.207501249783211E-3  -1.574073049716740E-3  
 2.008600000000000E10   -1.471630142260279E-3  -1.418776185189057E-3  
 2.008800000000000E10   -1.795062975019472E-3  -1.158785524826685E-3  
 2.009000000000000E10   -2.003308186100048E-3  -7.850670847042941E-4  
 2.009200000000000E10   -2.120286625986405E-3  -3.917808220205026E-4  
 2.009400000000000E10   -2.163668017563859E-3   1.237970481176275E-5  
 2.009600000000000E10   -2.133886890568184E-3   4.248295035399233E-4  
 2.009800000000000E10   -1.974440137092757E-3   8.373433970643115E-4  
 2.010000000000000E10   -1.710464529195694E-3   1.129879407448875E-3  
 2.010200000000000E10   -1.470058979029710E-3   1.301061468603244E-3  
 2.010400000000000E10   -1.310205709297701E-3   1.410301056619955E-3  
 2.010600000000000E10   -1.215605335722379E-3   1.592998133127111E-3  
 2.010800000000000E10   -1.058516473776331E-3   1.883814585510499E-3  
 2.011000000000000E10   -7.541467241423973E-4   2.183729443587463E-3  
 2.011200000000000E10   -3.093077519638332E-4   2.388616384193370E-3  
 2.011400000000000E10    1.536598224644681E-4   2.451693752331441E-3  
 2.011600000000000E10    6.443923537911341E-4   2.474269651828704E-3  
 2.011800000000000E10    1.223112374054159E-3   2.287362123715298E-3  
 2.012000000000000E10    1.627763909983601E-3   1.886067079538555E-3  
 2.012200000000000E10    1.799702470392305E-3   1.503863158861354E-3  
 2.012400000000000E10    1.903806025455554E-3   1.253173500074610E-3  
 2.012600000000000E10    2.126298980345771E-3   1.047212390534605E-3  
 2.012800000000000E10    2.368960028771086E-3   6.705388239523996E-4  
 2.013000000000000E10    2.419395645136596E-3   1.812151974649852E-4  
 2.013200000000000E10    2.344144479075425E-3  -1.668465505270523E-4  
 2.013400000000000E10    2.329187717889664E-3  -5.077149294625974E-4  
 2.013600000000000E10    2.207915930589232E-3  -9.031970895866735E-4  
 2.013800000000000E10    1.975279552415106E-3  -1.201662533877015E-3  
 2.014000000000000E10    1.762543592657852E-3  -1.373382758411918E-3  
 2.014200000000000E10    1.681962158709176E-3  -1.492068880692949E-3  
 2.014400000000000E10    1.699826613443261E-3  -1.774338080344512E-3  
 2.014600000000000E10    1.594549124915474E-3  -2.267385118458961E-3  
 2.014800000000000E10    1.230188865306595E-3  -2.804740989827662E-3  
 2.015000000000000E10    5.917119986199491E-4  -3.207079391524439E-3  
 2.015200000000000E10   -1.677682773876332E-4  -3.340797906428904E-3  
 2.015400000000000E10   -9.190943446774979E-4  -3.243253532246334E-3  
 2.015600000000000E10   -1.583106256234011E-3  -2.897279248470165E-3  
 2.015800000000000E10   -2.035198291517804E-3  -2.433716180533575E-3  
 2.016000000000000E10   -2.288944882412127E-3  -1.976686060548530E-3  
 2.016200000000000E10   -2.485781956283266E-3  -1.604888968941090E-3  
 2.016400000000000E10   -2.660684953670113E-3  -1.246484284268926E-3  
 2.016600000000000E10   -2.843515993436000E-3  -8.877615683187259E-4  
 2.016800000000000E10   -3.009695349374713E-3  -4.450598930632147E-4  
 2.017000000000000E10   -3.072289171284340E-3   5.678808985536754E-5  
 2.017200000000000E10   -3.013605123821707E-3   5.560899987207946E-4  
 2.017400000000000E10   -2.867379580204813E-3   9.453612376097102E-4  
 2.017600000000000E10   -2.826702450774553E-3   1.288818647563531E-3  
 2.017800000000000E10   -2.785670759141572E-3   1.824145604418901E-3  
 2.018000000000000E10   -2.508977966838270E-3   2.417997767965657E-3  
 2.018200000000000E10   -2.077294462652873E-3   2.936922778191501E-3  
 2.018400000000000E10   -1.502675602295186E-3   3.362482009229262E-3  
 2.018600000000000E10   -8.531847544016914E-4   3.643947681982987E-3  
 2.018800000000000E10   -9.191812834875361E-5   3.760815066537634E-3  
 2.019000000000000E10    6.483911466485435E-4   3.635935530304064E-3  
 2.019200000000000E10    1.247215447882662E-3   3.343822260026487E-3  
 2.019400000000000E10    1.723566010582378E-3   3.004930304238270E-3  
 2.019600000000000E10    2.144168529704439E-3   2.666365617655658E-3  
 2.019800000000000E10    2.514586522105770E-3   2.250435473891369E-3  
 2.020000000000000E10    2.769317365773930E-3   1.803624457124502E-3  
 2.020200000000000E10    2.927150307548672E-3   1.379844084691291E-3  
 2.020400000000000E10    3.105715364085342E-3   1.064162634446102E-3  
 2.020600000000000E10    3.391350430718338E-3   6.441598533005115E-4  
 2.020800000000000E10    3.646081295791780E-3   5.505085916604865E-5  
 2.021000000000000E10    3.699789147134036E-3  -7.633246285741150E-4  
 2.021200000000000E10    3.370041082576520E-3  -1.541367561759314E-3  
 2.021400000000000E10    2.887563579134393E-3  -2.056385348929554E-3  
 2.021600000000000E10    2.394019481302177E-3  -2.404294414208724E-3  
 2.021800000000000E10    1.919714995092714E-3  -2.601728088401835E-3  
 2.022000000000000E10    1.579135380552704E-3  -2.691764955691528E-3  
 2.022200000000000E10    1.394232953161771E-3  -2.905080072003660E-3  
 2.022400000000000E10    1.048091811096284E-3  -3.317140401972824E-3  
 2.022600000000000E10    4.403708961559058E-4  -3.678299570296849E-3  
 2.022800000000000E10   -3.221582203047881E-4  -3.830475490312455E-3  
 2.023000000000000E10   -1.162658368849913E-3  -3.747404733387569E-3  
 2.023200000000000E10   -1.949488128462350E-3  -3.395253190548099E-3  
 2.023400000000000E10   -2.596956986090806E-3  -2.812019535545422E-3  
 2.023600000000000E10   -2.969536697778852E-3  -2.137716482138091E-3  
 2.023800000000000E10   -3.155746802616443E-3  -1.476826122840329E-3  
 2.024000000000000E10   -3.206603739104939E-3  -8.596720607834586E-4  
 2.024200000000000E10   -3.157877585070102E-3  -2.926977009467701E-4  
 2.024400000000000E10   -2.995527489638250E-3   1.926566721235968E-4  
 2.024600000000000E10   -2.784431922513157E-3   5.693823981041261E-4  
 2.024800000000000E10   -2.579416386420331E-3   8.582575373747082E-4  
 2.025000000000000E10   -2.401445327732835E-3   1.078118767163908E-3  
 2.025200000000000E10   -2.299587716063674E-3   1.296365880612487E-3  
 2.025400000000000E10   -2.225190464888993E-3   1.614363249820250E-3  
 2.025600000000000E10   -2.055528646231576E-3   2.042452876523155E-3  
 2.025800000000000E10   -1.710399099648902E-3   2.469678698024082E-3  
 2.026000000000000E10   -1.233845027552418E-3   2.809058470349928E-3  
 2.026200000000000E10   -6.607031576096240E-4   3.018699997914759E-3  
 2.026400000000000E10   -5.068028263056978E-5   3.072805784123482E-3  
 2.026600000000000E10    5.249186977726591E-4   2.999838642343709E-3  
 2.026800000000000E10    1.107262465071895E-3   2.796813648301581E-3  
 2.027000000000000E10    1.602926622550920E-3   2.392675396495404E-3  
 2.027200000000000E10    1.901167957182656E-3   1.880297412281987E-3  
 2.027400000000000E10    1.967694047148391E-3   1.422388707575730E-3  
 2.027600000000000E10    1.925369107993285E-3   1.103076436707197E-3  
 2.027800000000000E10    1.916943335187400E-3   9.566887312769255E-4  
 2.028000000000000E10    2.064529720661081E-3   8.536963696847333E-4  
 2.028200000000000E10    2.336826691226211E-3   6.404891619046886E-4  
 2.028400000000000E10    2.633138286957478E-3   2.152280665273164E-4  
 2.028600000000000E10    2.742737675817790E-3  -4.363760833258982E-4  
 2.028800000000000E10    2.529793828562391E-3  -1.073205419857085E-3  
 2.029000000000000E10    2.135079990615518E-3  -1.541055099836674E-3  
 2.029200000000000E10    1.682407144923222E-3  -1.861916377198948E-3  
 2.029400000000000E10    1.171823285851448E-3  -1.984881263052014E-3  
 2.029600000000000E10    7.740719061032862E-4  -1.914202646455768E-3  
 2.029800000000000E10    5.374546976559629E-4  -1.833654824070543E-3  
 2.030000000000000E10    3.570342703037485E-4  -1.807635061054103E-3  
 2.030200000000000E10    2.087443557363470E-4  -1.799487228456420E-3  
 2.030400000000000E10    7.386957109047483E-5  -1.888256125480212E-3  
 2.030600000000000E10   -1.864466109714129E-4  -2.065013955342022E-3  
 2.030800000000000E10   -6.539634428040754E-4  -2.121000009566916E-3  
 2.031000000000000E10   -1.144491866801439E-3  -1.957844895013585E-3  
 2.031200000000000E10   -1.541665454438098E-3  -1.640318363778472E-3  
 2.031400000000000E10   -1.796582584239878E-3  -1.215083531852731E-3  
 2.031600000000000E10   -1.900297940969245E-3  -7.467565737695786E-4  
 2.031800000000000E10   -1.814266389436779E-3  -3.532219708628349E-4  
 2.032000000000000E10   -1.684788344683022E-3  -6.884875508422579E-5  
 2.032200000000000E10   -1.517749387877750E-3   1.423687752841320E-4  
 2.032400000000000E10   -1.367023890619396E-3   2.395270477281077E-4  
 2.032600000000000E10   -1.296765442082787E-3   2.807801741554245E-4  
 2.032800000000000E10   -1.278791344561985E-3   3.461438403824617E-4  
 2.033000000000000E10   -1.311688465895813E-3   4.443290719198126E-4  
 2.033200000000000E10   -1.338067940759078E-3   5.956791325714424E-4  
 2.033400000000000E10   -1.367589934990261E-3   7.717399106827664E-4  
 2.033600000000000E10   -1.527376161890002E-3   8.996649703811657E-4  
 2.033800000000000E10   -1.383551380836552E-3   1.500622721717613E-3  
 2.034000000000000E10   -1.045776609249540E-3   1.979132943418947E-3  
 2.034200000000000E10   -4.827756084997797E-4   2.296414450478271E-3  
 2.034400000000000E10    1.847567627018920E-4   2.338910193989650E-3  
 2.034600000000000E10    7.693883885393372E-4   2.115349683373289E-3  
 2.034800000000000E10    1.209770154165864E-3   1.752326362911938E-3  
 2.035000000000000E10    1.503569670199957E-3   1.287071043386514E-3  
 2.035200000000000E10    1.562097024839749E-3   7.575292110310250E-4  
 2.035400000000000E10    1.381393281045235E-3   3.346008500627716E-4  
 2.035600000000000E10    1.083926435896107E-3   1.695211679046146E-4  
 2.035800000000000E10    8.909817432925983E-4   2.501132952001988E-4  
 2.036000000000000E10    9.173910035378387E-4   4.055463056043422E-4  
 2.036200000000000E10    1.148743420203425E-3   4.609912901854600E-4  
 2.036400000000000E10    1.434473538550434E-3   2.975533740105507E-4  
 2.036600000000000E10    1.603154196026971E-3   7.652198661207372E-6  
 2.036800000000000E10    1.717066364207503E-3  -3.555148299744764E-4  
 2.037000000000000E10    1.673669218582260E-3  -8.176746359253404E-4  
 2.037200000000000E10    1.418664595861722E-3  -1.202803624246205E-3  
 2.037400000000000E10    1.126331457128016E-3  -1.451634687478119E-3  
 2.037600000000000E10    8.167599843206044E-4  -1.642255800760796E-3  
 2.037800000000000E10    4.903067454583046E-4  -1.756833216513412E-3  
 2.038000000000000E10    1.398784733729020E-4  -1.820586563449607E-3  
 2.038200000000000E10   -2.335114197993395E-4  -1.795398893228781E-3  
 2.038400000000000E10   -5.760316159737322E-4  -1.660711711419907E-3  
 2.038600000000000E10   -8.280159610136233E-4  -1.417471124846341E-3  
 2.038800000000000E10   -9.130417466311577E-4  -1.263444231924801E-3  
 2.039000000000000E10   -1.090780384648467E-3  -1.233769001431702E-3  
 2.039200000000000E10   -1.417877309532759E-3  -1.078899891733782E-3  
 2.039400000000000E10   -1.685826498257173E-3  -7.344775565476917E-4  
 2.039600000000000E10   -1.766448633546998E-3  -3.389467798697788E-4  
 2.039800000000000E10   -1.731988629329989E-3  -2.750480440589546E-6  
 2.040000000000000E10   -1.677529505572353E-3   2.455256569950936E-4  
 2.040200000000000E10   -1.667030983706292E-3   4.905494816988334E-4  
 2.040400000000000E10   -1.621896136137675E-3   8.208925730493386E-4  
 2.040600000000000E10   -1.460918171237065E-3   1.197957776352490E-3  
 2.040800000000000E10   -1.139043436592923E-3   1.523737773138167E-3  
 2.041000000000000E10   -6.954401618124446E-4   1.666810922120488E-3  
 2.041200000000000E10   -3.499904203723063E-4   1.595844203714947E-3  
 2.041400000000000E10   -1.986618072798971E-4   1.536159210021397E-3  
 2.041600000000000E10   -8.480511670074989E-5   1.604324115269768E-3  
 2.041800000000000E10    1.387684369164710E-4   1.750437334930830E-3  
 2.042000000000000E10    5.099056954145894E-4   1.868106157136588E-3  
 2.042200000000000E10    9.999299649298362E-4   1.808073096197196E-3  
 2.042400000000000E10    1.435859568639867E-3   1.543481448756933E-3  
 2.042600000000000E10    1.741474518323202E-3   1.188878773060049E-3  
 2.042800000000000E10    1.982638297791102E-3   7.621100673615085E-4  
 2.043000000000000E10    2.047553149756560E-3   2.127906524167443E-4  
 2.043200000000000E10    1.871815231473868E-3  -2.348048076960909E-4  
 2.043400000000000E10    1.632206590917361E-3  -4.991934929955890E-4  
 2.043600000000000E10    1.437441608454379E-3  -6.046531948419840E-4  
 2.043800000000000E10    1.377577494490131E-3  -7.014891262302370E-4  
 2.044000000000000E10    1.292758312874529E-3  -8.615838080586101E-4  
 2.044200000000000E10    1.216487513914355E-3  -9.603776015790842E-4  
 2.044400000000000E10    1.248381256565806E-3  -1.101690302306768E-3  
 2.044600000000000E10    1.274065850766309E-3  -1.412997634432844E-3  
 2.044800000000000E10    1.117298409166609E-3  -1.869347911768720E-3  
 2.045000000000000E10    6.932925136759479E-4  -2.295678730418428E-3  
 2.045200000000000E10    8.185574955602103E-5  -2.520532627151095E-3  
 2.045400000000000E10   -5.787478799543393E-4  -2.478896801777702E-3  
 2.045600000000000E10   -1.097295376271994E-3  -2.203763658000953E-3  
 2.045800000000000E10   -1.428022795418688E-3  -1.887752978172604E-3  
 2.046000000000000E10   -1.709559982877731E-3  -1.603400565743338E-3  
 2.046200000000000E10   -1.967960606622330E-3  -1.293873667620752E-3  
 2.046400000000000E10   -2.222138875384264E-3  -9.150258137231958E-4  
 2.046600000000000E10   -2.376548160770406E-3  -3.854940955734023E-4  
 2.046800000000000E10   -2.289970113775190E-3   1.624984026008144E-4  
 2.047000000000000E10   -2.015503777235490E-3   5.359139485649323E-4  
 2.047200000000000E10   -1.782656699148453E-3   7.114740059622488E-4  
 2.047400000000000E10   -1.670287413578856E-3   8.403008236422434E-4  
 2.047600000000000E10   -1.568204923152321E-3   1.033025320387211E-3  
 2.047800000000000E10   -1.434523824232036E-3   1.189698851482941E-3  
 2.048000000000000E10   -1.350145838268239E-3   1.361781735488613E-3  
 2.048200000000000E10   -1.262938604013436E-3   1.599219174394985E-3  
 2.048400000000000E10   -1.070330329266365E-3   1.928839317694870E-3  
 2.048600000000000E10   -6.826253941336424E-4   2.178362981813468E-3  
 2.048800000000000E10   -2.769717200419086E-4   2.261459710674006E-3  
 2.049000000000000E10    7.358986602535325E-5   2.272503747746466E-3  
 2.049200000000000E10    3.935905758229880E-4   2.262825917886277E-3  
 2.049400000000000E10    6.942141225730304E-4   2.258491570368702E-3  
 2.049600000000000E10    1.053286492184375E-3   2.276811870344315E-3  
 2.049800000000000E10    1.540206147717527E-3   2.213864251957058E-3  
 2.050000000000000E10    2.033248845716052E-3   1.980656091584849E-3  
 2.050200000000000E10    2.492885772792081E-3   1.632198726614019E-3  
 2.050400000000000E10    2.943435909326679E-3   1.098457321198756E-3  
 2.050600000000000E10    3.164438166075354E-3   3.377321645579606E-4  
 2.050800000000000E10    3.029732592433755E-3  -4.118857988478530E-4  
 2.051000000000000E10    2.729449588179307E-3  -9.039766791579626E-4  
 2.051200000000000E10    2.462393720985081E-3  -1.276738556332562E-3  
 2.051400000000000E10    2.154133464316361E-3  -1.616833088659212E-3  
 2.051600000000000E10    1.820291343058200E-3  -1.831559716598297E-3  
 2.051800000000000E10    1.570746189826460E-3  -1.971392303584782E-3  
 2.052000000000000E10    1.366647505893051E-3  -2.149172526879698E-3  
 2.052200000000000E10    1.136544868483782E-3  -2.351458193308832E-3  
 2.052400000000000E10    8.665839114204955E-4  -2.624538115527302E-3  
 2.052600000000000E10    3.871534148359074E-4  -2.891835824862959E-3  
 2.052800000000000E10   -1.541850813778528E-4  -2.939304527493409E-3  
 2.053000000000000E10   -6.049172615007522E-4  -2.900023750655270E-3  
 2.053200000000000E10   -1.084384884292427E-3  -2.859416147618946E-3  
 2.053400000000000E10   -1.597068268606981E-3  -2.706438132345726E-3  
 2.053600000000000E10   -2.095882654127716E-3  -2.477967180846166E-3  
 2.053800000000000E10   -2.591275097089900E-3  -2.098661333011185E-3  
 2.054000000000000E10   -2.956338742681699E-3  -1.592554905107544E-3  
 2.054200000000000E10   -3.241557585243670E-3  -1.061617276139034E-3  
 2.054400000000000E10   -3.437420708782935E-3  -3.964600188973320E-4  
 2.054600000000000E10   -3.415485288652650E-3   2.994848905137278E-4  
 2.054800000000000E10   -3.222963827459504E-3   9.338840230069046E-4  
 2.055000000000000E10   -2.892129869935644E-3   1.452015190819446E-3  
 2.055200000000000E10   -2.482615660991067E-3   1.829755448739716E-3  
 2.055400000000000E10   -2.095241481563294E-3   2.037379280176721E-3  
 2.055600000000000E10   -1.849891967377547E-3   2.151312641110258E-3  
