#  HZ   S   RI   R     50.00 
! Rohde & Schwarz ZVA40 4Ports - Version 3.90 - 1145.1110k42 SN: 100403
! Date: 2023-10-03 10:23:29
! Measurement: S12 
! 
 2.000000000000000E10    1.565084503791123E-3  -1.433534202752290E-3  
 2.000200000000000E10    1.268537676272293E-3  -1.536913272165866E-3  
 2.000400000000000E10    9.549959407498441E-4  -1.558432463315074E-3  
 2.000600000000000E10    7.970994597093927E-4  -1.453944546584454E-3  
 2.000800000000000E10    8.301937831910672E-4  -1.487494670544510E-3  
 2.001000000000000E10    8.203647340889332E-4  -1.793708005506132E-3  
 2.001200000000000E10    4.714996019309318E-4  -2.246838994324207E-3  
 2.001400000000000E10   -2.085613313182775E-4  -2.437275627421008E-3  
 2.001600000000000E10   -8.369355346076191E-4  -2.216002438217402E-3  
 2.001800000000000E10   -1.217937198277839E-3  -1.873436651227099E-3  
 2.002000000000000E10   -1.465158148979148E-3  -1.515702853255250E-3  
 2.002200000000000E10   -1.616413278194766E-3  -1.147173711581639E-3  
 2.002400000000000E10   -1.659490159471278E-3  -8.887443820842439E-4  
 2.002600000000000E10   -1.741540639799226E-3  -7.129526541878780E-4  
 2.002800000000000E10   -1.936677929565863E-3  -5.078653942931582E-4  
 2.003000000000000E10   -2.182824726871871E-3  -9.532035457798175E-5  
 2.003200000000000E10   -2.210776692394305E-3   5.207922044468838E-4  
 2.003400000000000E10   -1.939956642066439E-3   1.059890409966034E-3  
 2.003600000000000E10   -1.540220872912970E-3   1.379297826335662E-3  
 2.003800000000000E10   -1.204155264767232E-3   1.538228239277723E-3  
 2.004000000000000E10   -8.927842136472464E-4   1.705020071110792E-3  
 2.004200000000000E10   -5.043780051723675E-4   1.831843901460094E-3  
 2.004400000000000E10   -9.148436839933745E-5   1.841378876835936E-3  
 2.004600000000000E10    3.351440348153659E-4   1.705081296946716E-3  
 2.004800000000000E10    5.972183458248362E-4   1.405876078125503E-3  
 2.005000000000000E10    6.936203625863764E-4   1.179376798164513E-3  
 2.005200000000000E10    7.626897045324938E-4   1.042104058864492E-3  
 2.005400000000000E10    8.725217496113923E-4   9.915062088381363E-4  
 2.005600000000000E10    1.044993935566810E-3   8.584302979417974E-4  
 2.005800000000000E10    1.100513338180328E-3   6.691140221880267E-4  
 2.006000000000000E10    1.184006333696070E-3   6.061211461201310E-4  
 2.006200000000000E10    1.375680746234678E-3   4.603190431630032E-4  
 2.006400000000000E10    1.522959485926010E-3   2.026399608304793E-4  
 2.006600000000000E10    1.563655988623699E-3  -1.009285850967798E-4  
 2.006800000000000E10    1.549083316974618E-3  -4.118553403747717E-4  
 2.007000000000000E10    1.442420697357092E-3  -7.264161184947526E-4  
 2.007200000000000E10    1.322596691790278E-3  -1.009267067140037E-3  
 2.007400000000000E10    1.140999624988547E-3  -1.345578585406420E-3  
 2.007600000000000E10    7.391658383076665E-4  -1.603611507797959E-3  
 2.007800000000000E10    3.429662939635347E-4  -1.596563758707985E-3  
 2.008000000000000E10    9.739471230811128E-5  -1.553539997311654E-3  
 2.008200000000000E10   -1.245163299177808E-4  -1.530154918630918E-3  
 2.008400000000000E10   -3.257151741612082E-4  -1.527869315059097E-3  
 2.008600000000000E10   -5.966032794849190E-4  -1.532816673042598E-3  
 2.008800000000000E10   -9.556188317084755E-4  -1.409651090701421E-3  
 2.009000000000000E10   -1.240034221188614E-3  -1.145361909746296E-3  
 2.009200000000000E10   -1.420109200774244E-3  -8.685305731853955E-4  
 2.009400000000000E10   -1.550949678790790E-3  -5.819843284337334E-4  
 2.009600000000000E10   -1.599309293346273E-3  -2.545240470984330E-4  
 2.009800000000000E10   -1.526963112323925E-3   6.022303056885938E-5  
 2.010000000000000E10   -1.389791951859715E-3   2.544861660377744E-4  
 2.010200000000000E10   -1.310103913527672E-3   3.721628303605098E-4  
 2.010400000000000E10   -1.308473598867379E-3   4.766523467238855E-4  
 2.010600000000000E10   -1.353874168772664E-3   6.798598053002800E-4  
 2.010800000000000E10   -1.298657795241861E-3   9.958310466673640E-4  
 2.011000000000000E10   -1.098935410414857E-3   1.312552985769731E-3  
 2.011200000000000E10   -7.936964285801408E-4   1.537619753637248E-3  
 2.011400000000000E10   -4.906169358744391E-4   1.637225470471162E-3  
 2.011600000000000E10   -1.819537762828448E-4   1.718643155914766E-3  
 2.011800000000000E10    2.036110090557486E-4   1.687648085256418E-3  
 2.012000000000000E10    4.691221121767605E-4   1.514311862626562E-3  
 2.012200000000000E10    5.959044943598135E-4   1.366932065812526E-3  
 2.012400000000000E10    7.076713955029845E-4   1.339117366889561E-3  
 2.012600000000000E10    9.318222852285814E-4   1.331499437111671E-3  
 2.012800000000000E10    1.245582937607887E-3   1.145789680002188E-3  
 2.013000000000000E10    1.388906759934293E-3   8.435919298790396E-4  
 2.013200000000000E10    1.438183149460841E-3   6.682846147601528E-4  
 2.013400000000000E10    1.560804951522086E-3   5.068697156039654E-4  
 2.013600000000000E10    1.637446754439562E-3   2.662456816459006E-4  
 2.013800000000000E10    1.627497745815803E-3   5.564162819172014E-5  
 2.014000000000000E10    1.633878633448923E-3  -7.632022526296269E-5  
 2.014200000000000E10    1.773044182401565E-3  -1.905936312848806E-4  
 2.014400000000000E10    2.016088830445100E-3  -4.783602101573100E-4  
 2.014600000000000E10    2.136622365840056E-3  -9.896381913373868E-4  
 2.014800000000000E10    2.019879675504786E-3  -1.616252560375466E-3  
 2.015000000000000E10    1.618089490673609E-3  -2.196069401516407E-3  
 2.015200000000000E10    1.033591384637273E-3  -2.566538828735550E-3  
 2.015400000000000E10    3.864770333755723E-4  -2.715216130363169E-3  
 2.015600000000000E10   -2.329138151253574E-4  -2.603603475209740E-3  
 2.015800000000000E10   -6.416398747306732E-4  -2.338104381191510E-3  
 2.016000000000000E10   -8.814733268486130E-4  -2.128303292448874E-3  
 2.016200000000000E10   -1.125166270261010E-3  -2.026604169427797E-3  
 2.016400000000000E10   -1.395001697043578E-3  -1.889820753907164E-3  
 2.016600000000000E10   -1.668260450026503E-3  -1.722111095053455E-3  
 2.016800000000000E10   -1.955746034919112E-3  -1.485857832314516E-3  
 2.017000000000000E10   -2.198683882684068E-3  -1.188487838522566E-3  
 2.017200000000000E10   -2.375121780291752E-3  -8.601634191883798E-4  
 2.017400000000000E10   -2.498486691533968E-3  -5.936882285082162E-4  
 2.017600000000000E10   -2.767133492010612E-3  -3.360211628281226E-4  
 2.017800000000000E10   -3.066498406783299E-3   2.021564707522177E-4  
 2.018000000000000E10   -3.116737292320640E-3   9.039386296299874E-4  
 2.018200000000000E10   -2.964458954348057E-3   1.585334927464525E-3  
 2.018400000000000E10   -2.616742013574199E-3   2.197800738805975E-3  
 2.018600000000000E10   -2.135327521332160E-3   2.693810664048350E-3  
 2.018800000000000E10   -1.503190987191543E-3   3.063571622112284E-3  
 2.019000000000000E10   -8.684422053327717E-4   3.183787679989581E-3  
 2.019200000000000E10   -3.573858228736317E-4   3.184720011496986E-3  
 2.019400000000000E10    8.140178397297859E-5   3.178934782260547E-3  
 2.019600000000000E10    5.485860488584472E-4   3.181928337586147E-3  
 2.019800000000000E10    1.074232462862576E-3   3.091633293984665E-3  
 2.020000000000000E10    1.552941846764750E-3   2.907063337732797E-3  
 2.020200000000000E10    1.955280571969019E-3   2.680480497440806E-3  
 2.020400000000000E10    2.385863956684868E-3   2.500732067144580E-3  
 2.020600000000000E10    2.957320504787344E-3   2.184880539533441E-3  
 2.020800000000000E10    3.504676985795852E-3   1.631053785483043E-3  
 2.021000000000000E10    3.862436964280076E-3   8.081274173929599E-4  
 2.021200000000000E10    3.844284038576816E-3  -4.009671425188166E-5  
 2.021400000000000E10    3.628393350582984E-3  -6.749291787855327E-4  
 2.021600000000000E10    3.368863189179037E-3  -1.195623237570679E-3  
 2.021800000000000E10    3.091793955752144E-3  -1.610728912055493E-3  
 2.022000000000000E10    2.904495655524511E-3  -1.958737098094490E-3  
 2.022200000000000E10    2.791816627399790E-3  -2.433603163808584E-3  
 2.022400000000000E10    2.472752739709837E-3  -3.103557982723471E-3  
 2.022600000000000E10    1.811722116717310E-3  -3.677154899816271E-3  
 2.022800000000000E10    1.002791652421433E-3  -4.006398945218988E-3  
 2.023000000000000E10    1.700553885139353E-4  -4.115445263407849E-3  
 2.023200000000000E10   -6.221196553842338E-4  -4.015722639720750E-3  
 2.023400000000000E10   -1.361507469684714E-3  -3.745096718409548E-3  
 2.023600000000000E10   -1.982190159011495E-3  -3.320042751039620E-3  
 2.023800000000000E10   -2.459306407857824E-3  -2.797674404940120E-3  
 2.024000000000000E10   -2.792073594820169E-3  -2.255001872846926E-3  
 2.024200000000000E10   -2.992848831194419E-3  -1.716890109323517E-3  
 2.024400000000000E10   -3.061503094310562E-3  -1.215845070503376E-3  
 2.024600000000000E10   -3.099468286597619E-3  -7.864616841457234E-4  
 2.024800000000000E10   -3.136811329534761E-3  -3.728160949389416E-4  
 2.025000000000000E10   -3.142280900781906E-3   3.799594398717293E-5  
 2.025200000000000E10   -3.167907879860313E-3   4.247005218295036E-4  
 2.025400000000000E10   -3.205128557359179E-3   8.780463292539398E-4  
 2.025600000000000E10   -3.161938800648959E-3   1.498122803039021E-3  
 2.025800000000000E10   -2.890964030046706E-3   2.159879663614212E-3  
 2.026000000000000E10   -2.419202717848950E-3   2.722430534453856E-3  
 2.026200000000000E10   -1.816375737285449E-3   3.131811989954225E-3  
 2.026400000000000E10   -1.142472166706015E-3   3.356343911339840E-3  
 2.026600000000000E10   -4.748253936499910E-4   3.426925744861365E-3  
 2.026800000000000E10    2.104664745274932E-4   3.346770570647938E-3  
 2.027000000000000E10    8.058507982813927E-4   3.074731746757473E-3  
 2.027200000000000E10    1.206324750523049E-3   2.694703112528832E-3  
 2.027400000000000E10    1.420712408920129E-3   2.344144016711249E-3  
 2.027600000000000E10    1.575378373403240E-3   2.110114657423563E-3  
 2.027800000000000E10    1.764051172088970E-3   1.973934553529102E-3  
 2.028000000000000E10    2.093446001203524E-3   1.845102407969534E-3  
 2.028200000000000E10    2.489773392746295E-3   1.574693351156182E-3  
 2.028400000000000E10    2.873858359331887E-3   1.088214557428189E-3  
 2.028600000000000E10    3.050621633452398E-3   4.152681741052894E-4  
 2.028800000000000E10    2.969917660165165E-3  -2.166989148396102E-4  
 2.029000000000000E10    2.782882475811575E-3  -7.256127449821820E-4  
 2.029200000000000E10    2.512835181766638E-3  -1.167868649914723E-3  
 2.029400000000000E10    2.152848238539365E-3  -1.491787097485805E-3  
 2.029600000000000E10    1.819672860653588E-3  -1.685571404070490E-3  
 2.029800000000000E10    1.561371329309488E-3  -1.851368708432549E-3  
 2.030000000000000E10    1.306820609089401E-3  -2.021395489228545E-3  
 2.030200000000000E10    1.049309813727935E-3  -2.157492356167899E-3  
 2.030400000000000E10    7.803788736324620E-4  -2.346727376182874E-3  
 2.030600000000000E10    3.946560361698546E-4  -2.567123311261336E-3  
 2.030800000000000E10   -1.599107630749199E-4  -2.666971137471222E-3  
 2.031000000000000E10   -7.031946184320584E-4  -2.552743595852345E-3  
 2.031200000000000E10   -1.176339259405655E-3  -2.294343697872979E-3  
 2.031400000000000E10   -1.551777546949409E-3  -1.929401877094750E-3  
 2.031600000000000E10   -1.766654692969665E-3  -1.494401651952002E-3  
 2.031800000000000E10   -1.805928341733913E-3  -1.142981414752150E-3  
 2.032000000000000E10   -1.837403767880191E-3  -8.657255632526897E-4  
 2.032200000000000E10   -1.823238498117361E-3  -6.078780193261252E-4  
 2.032400000000000E10   -1.790874973974295E-3  -4.197686858889131E-4  
 2.032600000000000E10   -1.814322727214959E-3  -2.732252965129360E-4  
 2.032800000000000E10   -1.875261254436164E-3  -1.176697535104015E-4  
 2.033000000000000E10   -1.982403712140190E-3   7.002196609930792E-5  
 2.033200000000000E10   -2.076819392473058E-3   3.504141975470164E-4  
 2.033400000000000E10   -2.159240784951382E-3   6.694647729293341E-4  
 2.033600000000000E10   -2.311958448478469E-3   9.016206151702340E-4  
 2.033800000000000E10   -2.090395393746871E-3   1.731249206285510E-3  
 2.034000000000000E10   -1.668394392321784E-3   2.282325635422711E-3  
 2.034200000000000E10   -1.069475060190868E-3   2.642713159460713E-3  
 2.034400000000000E10   -3.817428746346937E-4   2.769486340521663E-3  
 2.034600000000000E10    2.475178701354674E-4   2.666354584680112E-3  
 2.034800000000000E10    7.673664281524167E-4   2.424006772882961E-3  
 2.035000000000000E10    1.211939060508653E-3   2.045502860306038E-3  
 2.035200000000000E10    1.429524264056926E-3   1.566893973008350E-3  
 2.035400000000000E10    1.400649133655760E-3   1.163354665213437E-3  
 2.035600000000000E10    1.270098948023386E-3   9.932382058145273E-4  
 2.035800000000000E10    1.242244473865463E-3   1.028861872058500E-3  
 2.036000000000000E10    1.431095370746873E-3   1.086772704083059E-3  
 2.036200000000000E10    1.781303426940684E-3   9.820916672685634E-4  
 2.036400000000000E10    2.117441372118063E-3   6.582627797292339E-4  
 2.036600000000000E10    2.304389736511641E-3   2.350827287753216E-4  
 2.036800000000000E10    2.406747020022185E-3  -2.546489445699586E-4  
 2.037000000000000E10    2.322852758138820E-3  -8.532848441973330E-4  
 2.037200000000000E10    2.010267771159609E-3  -1.319647507949008E-3  
 2.037400000000000E10    1.668384859200429E-3  -1.625917304341716E-3  
 2.037600000000000E10    1.308207538116861E-3  -1.874059861249946E-3  
 2.037800000000000E10    9.216385617576265E-4  -2.027740934863687E-3  
 2.038000000000000E10    5.182268731813465E-4  -2.117338883518069E-3  
 2.038200000000000E10    1.042138393569514E-4  -2.118122850165323E-3  
 2.038400000000000E10   -2.858226421435744E-4  -2.023512773491719E-3  
 2.038600000000000E10   -5.632857274678019E-4  -1.794396563329631E-3  
 2.038800000000000E10   -6.678722803135990E-4  -1.669134280678851E-3  
 2.039000000000000E10   -8.985567881070354E-4  -1.697014943972506E-3  
 2.039200000000000E10   -1.300167167317812E-3  -1.610211652910544E-3  
 2.039400000000000E10   -1.669889393573006E-3  -1.312137176110237E-3  
 2.039600000000000E10   -1.864819511495255E-3  -9.225444109351548E-4  
 2.039800000000000E10   -1.936659639425300E-3  -5.418320382617552E-4  
 2.040000000000000E10   -1.966123926211838E-3  -2.104846207657829E-4  
 2.040200000000000E10   -1.995927740440325E-3   1.318578990187099E-4  
 2.040400000000000E10   -1.948689377901179E-3   5.177119444986736E-4  
 2.040600000000000E10   -1.783026847988368E-3   8.888029411469623E-4  
 2.040800000000000E10   -1.533693526181634E-3   1.206783681280083E-3  
 2.041000000000000E10   -1.212778087291453E-3   1.412541152805918E-3  
 2.041200000000000E10   -9.461200593418823E-4   1.474746727143173E-3  
 2.041400000000000E10   -8.074125400054511E-4   1.554936295616682E-3  
 2.041600000000000E10   -6.453653353404392E-4   1.728930105282753E-3  
 2.041800000000000E10   -3.630429941781418E-4   1.925422158954596E-3  
 2.042000000000000E10    1.521544065865413E-5   2.099649713340182E-3  
 2.042200000000000E10    5.216848868359295E-4   2.154857748084598E-3  
 2.042400000000000E10    1.029616471862904E-3   1.996919736956005E-3  
 2.042600000000000E10    1.467662992783719E-3   1.717213153218230E-3  
 2.042800000000000E10    1.856596769627046E-3   1.299862767121306E-3  
 2.043000000000000E10    2.023310072858025E-3   7.270207387153751E-4  
 2.043200000000000E10    1.909798097417311E-3   2.680898749666220E-4  
 2.043400000000000E10    1.745542998563636E-3   6.296558745412387E-6  
 2.043600000000000E10    1.634425569877581E-3  -1.493030668589873E-4  
 2.043800000000000E10    1.619127570410018E-3  -3.030468441364873E-4  
 2.044000000000000E10    1.585338018938072E-3  -5.031824198172049E-4  
 2.044200000000000E10    1.548725926248288E-3  -6.526347607615647E-4  
 2.044400000000000E10    1.590668952471956E-3  -8.409671826046651E-4  
 2.044600000000000E10    1.642825741631290E-3  -1.190951559692621E-3  
 2.044800000000000E10    1.533553349199119E-3  -1.699702814221382E-3  
 2.045000000000000E10    1.159628491020865E-3  -2.182163332623464E-3  
 2.045200000000000E10    6.067171559186170E-4  -2.488421250341667E-3  
 2.045400000000000E10   -3.530059405386930E-5  -2.567620568529324E-3  
 2.045600000000000E10   -5.992148071527481E-4  -2.411644750585159E-3  
 2.045800000000000E10   -1.012560212984681E-3  -2.189234054336946E-3  
 2.046000000000000E10   -1.362405523347358E-3  -1.952703192795593E-3  
 2.046200000000000E10   -1.653938325708388E-3  -1.687065909478676E-3  
 2.046400000000000E10   -1.947066237874054E-3  -1.363305806147832E-3  
 2.046600000000000E10   -2.205970576377931E-3  -9.195416264615403E-4  
 2.046800000000000E10   -2.270559452612091E-3  -4.216280196689898E-4  
 2.047000000000000E10   -2.170401090687072E-3  -4.361303096326691E-5  
 2.047200000000000E10   -2.068022921405457E-3   2.086150079439567E-4  
 2.047400000000000E10   -2.035458718805954E-3   4.432486646153309E-4  
 2.047600000000000E10   -1.986377786293074E-3   7.584748306760082E-4  
 2.047800000000000E10   -1.857218431757280E-3   1.048539631517121E-3  
 2.048000000000000E10   -1.732318373224526E-3   1.264684872391323E-3  
 2.048200000000000E10   -1.648143033014128E-3   1.499026379961935E-3  
 2.048400000000000E10   -1.501021501435726E-3   1.874615528827740E-3  
 2.048600000000000E10   -1.145141466555220E-3   2.235074380964593E-3  
 2.048800000000000E10   -7.221620633370348E-4   2.445991823656692E-3  
 2.049000000000000E10   -3.115057361019017E-4   2.553944148261238E-3  
 2.049200000000000E10    9.527430531172153E-5   2.597010409873393E-3  
 2.049400000000000E10    4.940574656723551E-4   2.623381851999848E-3  
 2.049600000000000E10    9.396216461296988E-4   2.622567824329491E-3  
 2.049800000000000E10    1.454823693536498E-3   2.540643197587795E-3  
 2.050000000000000E10    1.962863322761324E-3   2.322952237187161E-3  
 2.050200000000000E10    2.458359201059298E-3   1.989684563509568E-3  
 2.050400000000000E10    2.962156802553823E-3   1.483153620803798E-3  
 2.050600000000000E10    3.288988455164212E-3   7.513800605752128E-4  
 2.050800000000000E10    3.269511611304350E-3  -1.148118584145172E-5  
 2.051000000000000E10    3.041699727031368E-3  -5.855516582313512E-4  
 2.051200000000000E10    2.825555029428668E-3  -1.024119844832630E-3  
 2.051400000000000E10    2.564141742402205E-3  -1.466733231036752E-3  
 2.051600000000000E10    2.236116332588373E-3  -1.800408996469169E-3  
 2.051800000000000E10    1.937281426594213E-3  -2.026222917872171E-3  
 2.052000000000000E10    1.672197409250118E-3  -2.255802439456737E-3  
 2.052200000000000E10    1.387482953119885E-3  -2.477927599102259E-3  
 2.052400000000000E10    1.085979894183024E-3  -2.772921886019133E-3  
 2.052600000000000E10    5.901540107852608E-4  -3.076926089340339E-3  
 2.052800000000000E10    2.696526347857852E-6  -3.155521988109858E-3  
 2.053000000000000E10   -5.052531648996391E-4  -3.105534714888092E-3  
 2.053200000000000E10   -1.035073315034862E-3  -3.037199938531828E-3  
 2.053400000000000E10   -1.564623494805010E-3  -2.843790756607498E-3  
 2.053600000000000E10   -2.040177592317815E-3  -2.603091825558632E-3  
 2.053800000000000E10   -2.523446412481092E-3  -2.258359428702130E-3  
 2.054000000000000E10   -2.906351902142720E-3  -1.780569053220529E-3  
 2.054200000000000E10   -3.226452257001290E-3  -1.264160248899350E-3  
 2.054400000000000E10   -3.456591076597021E-3  -6.231640948465577E-4  
 2.054600000000000E10   -3.502730978652835E-3   4.669950862147814E-5  
 2.054800000000000E10   -3.395559990571606E-3   6.931210842190519E-4  
 2.055000000000000E10   -3.117289644217602E-3   1.285519528513154E-3  
 2.055200000000000E10   -2.730731740248976E-3   1.746968202361906E-3  
 2.055400000000000E10   -2.337830451627573E-3   2.024604934612634E-3  
 2.055600000000000E10   -2.067415569736450E-3   2.208037802052719E-3  
