#  HZ   S   RI   R     50.00 
! Rohde & Schwarz ZVA40 4Ports - Version 3.90 - 1145.1110k42 SN: 100403
! Date: 2023-10-03 10:24:14
! Measurement: S12 
! 
 2.000000000000000E10    1.461629103773385E-3  -1.683003892413046E-3  
 2.000200000000000E10    9.595865011023581E-4  -1.796808312244622E-3  
 2.000400000000000E10    4.785876381479265E-4  -1.642458935636154E-3  
 2.000600000000000E10    3.332632972040586E-4  -1.300347043362297E-3  
 2.000800000000000E10    5.176397619688493E-4  -1.180379665859136E-3  
 2.001000000000000E10    6.678335238324764E-4  -1.475555993762220E-3  
 2.001200000000000E10    4.294745930913193E-4  -1.977976007241403E-3  
 2.001400000000000E10   -2.045548874704592E-4  -2.238032437761319E-3  
 2.001600000000000E10   -8.848795723342511E-4  -2.058341228709760E-3  
 2.001800000000000E10   -1.327418434767076E-3  -1.652722157357805E-3  
 2.002000000000000E10   -1.539853187814478E-3  -1.185934961899931E-3  
 2.002200000000000E10   -1.551902660843246E-3  -7.382959832625134E-4  
 2.002400000000000E10   -1.426863953099421E-3  -4.881293821405359E-4  
 2.002600000000000E10   -1.357931362507183E-3  -4.270523628449918E-4  
 2.002800000000000E10   -1.481572992969381E-3  -4.100704380242086E-4  
 2.003000000000000E10   -1.772809784223207E-3  -2.009641659257306E-4  
 2.003200000000000E10   -1.951488627910369E-3   2.858752251598877E-4  
 2.003400000000000E10   -1.820302814141744E-3   8.204451629435914E-4  
 2.003600000000000E10   -1.510649873997725E-3   1.235304735198525E-3  
 2.003800000000000E10   -1.151934510897922E-3   1.499643246068355E-3  
 2.004000000000000E10   -7.579559489026850E-4   1.703107673502355E-3  
 2.004200000000000E10   -2.679310498544525E-4   1.774209600857961E-3  
 2.004400000000000E10    1.680671858171063E-4   1.635737987829242E-3  
 2.004600000000000E10    4.693504998751690E-4   1.384042929225590E-3  
 2.004800000000000E10    5.997523893947127E-4   1.088181911553774E-3  
 2.005000000000000E10    5.748665548090674E-4   9.099916268021269E-4  
 2.005200000000000E10    5.507852006397007E-4   8.728628575230793E-4  
 2.005400000000000E10    6.870428469595443E-4   9.278517260518954E-4  
 2.005600000000000E10    9.623900342851480E-4   8.332978985789751E-4  
 2.005800000000000E10    1.108603943388434E-3   5.802394391790631E-4  
 2.006000000000000E10    1.171150049070134E-3   3.612331160700616E-4  
 2.006200000000000E10    1.198143531556851E-3   1.226577404786477E-4  
 2.006400000000000E10    1.135371624944356E-3  -6.659371084188701E-5  
 2.006600000000000E10    1.053028215880318E-3  -1.504957122631695E-4  
 2.006800000000000E10    1.131940288603337E-3  -2.089204842036920E-4  
 2.007000000000000E10    1.237496641203915E-3  -4.324450547071060E-4  
 2.007200000000000E10    1.250451331030685E-3  -7.616161007564439E-4  
 2.007400000000000E10    1.130319355676572E-3  -1.152859665855857E-3  
 2.007600000000000E10    7.557176372588233E-4  -1.505995744651513E-3  
 2.007800000000000E10    2.721824630910010E-4  -1.590882276602611E-3  
 2.008000000000000E10   -1.057471292272571E-4  -1.520342191627610E-3  
 2.008200000000000E10   -4.106030838133829E-4  -1.354019135551014E-3  
 2.008400000000000E10   -5.757802722011714E-4  -1.136476028358004E-3  
 2.008600000000000E10   -6.422624844720458E-4  -9.874094113776532E-4  
 2.008800000000000E10   -7.136224430349538E-4  -9.223513914571133E-4  
 2.009000000000000E10   -8.235689403044652E-4  -8.834147444493120E-4  
 2.009200000000000E10   -1.024552230979987E-3  -8.334981916192537E-4  
 2.009400000000000E10   -1.282671315081939E-3  -6.765049926308080E-4  
 2.009600000000000E10   -1.478606695117651E-3  -3.387649879415248E-4  
 2.009800000000000E10   -1.475053195987250E-3   7.607834907694157E-5  
 2.010000000000000E10   -1.294440610445423E-3   3.622150100832768E-4  
 2.010200000000000E10   -1.092424606157030E-3   4.800353629213716E-4  
 2.010400000000000E10   -9.891497816338585E-4   4.783106813065463E-4  
 2.010600000000000E10   -1.037971325958370E-3   5.104523403627545E-4  
 2.010800000000000E10   -1.111275060370626E-3   6.758401705979259E-4  
 2.011000000000000E10   -1.117064088914513E-3   9.483980750780048E-4  
 2.011200000000000E10   -1.031716672057830E-3   1.283772423414997E-3  
 2.011400000000000E10   -7.869230545942248E-4   1.629410085456117E-3  
 2.011600000000000E10   -3.272057690116560E-4   1.917387042654518E-3  
 2.011800000000000E10    2.823316104328758E-4   1.902554419903476E-3  
 2.012000000000000E10    6.644142015047618E-4   1.620199137516780E-3  
 2.012200000000000E10    8.205715035099860E-4   1.362608485556219E-3  
 2.012400000000000E10    9.308383113095240E-4   1.201820716936402E-3  
 2.012600000000000E10    1.052716835555257E-3   1.074647187895368E-3  
 2.012800000000000E10    1.167855156995663E-3   9.046213247682977E-4  
 2.013000000000000E10    1.223320773814196E-3   7.658629302594644E-4  
 2.013200000000000E10    1.346656954425690E-3   7.417323570813479E-4  
 2.013400000000000E10    1.623634893328350E-3   5.768384259153894E-4  
 2.013600000000000E10    1.799954040121640E-3   1.984653773123170E-4  
 2.013800000000000E10    1.755180669500044E-3  -1.884229958978187E-4  
 2.014000000000000E10    1.585499883184800E-3  -4.097298176915082E-4  
 2.014200000000000E10    1.524124621248847E-3  -4.678002153590338E-4  
 2.014400000000000E10    1.658158139670613E-3  -5.901884486412040E-4  
 2.014600000000000E10    1.812609395495168E-3  -9.166259163369737E-4  
 2.014800000000000E10    1.796300036721545E-3  -1.429118400481779E-3  
 2.015000000000000E10    1.548037306144987E-3  -1.966457593603512E-3  
 2.015200000000000E10    1.115903755364396E-3  -2.414210527031510E-3  
 2.015400000000000E10    4.910365630462461E-4  -2.703006894791446E-3  
 2.015600000000000E10   -2.292116273097779E-4  -2.711979088798902E-3  
 2.015800000000000E10   -7.942628367888309E-4  -2.456391936382701E-3  
 2.016000000000000E10   -1.140495329144806E-3  -2.093044305105269E-3  
 2.016200000000000E10   -1.326046712550914E-3  -1.792286469030037E-3  
 2.016400000000000E10   -1.416986682663055E-3  -1.609049015965911E-3  
 2.016600000000000E10   -1.573344833436020E-3  -1.530686269299637E-3  
 2.016800000000000E10   -1.873183053623073E-3  -1.419756741170990E-3  
 2.017000000000000E10   -2.224506658919677E-3  -1.168841360771163E-3  
 2.017200000000000E10   -2.464010522972961E-3  -7.588881069847955E-4  
 2.017400000000000E10   -2.580704149280372E-3  -3.742144895581445E-4  
 2.017600000000000E10   -2.759266353438421E-3   2.118057886104066E-5  
 2.017800000000000E10   -2.841562637292738E-3   6.154559115752762E-4  
 2.018000000000000E10   -2.636667286379286E-3   1.186089298195386E-3  
 2.018200000000000E10   -2.368287554148723E-3   1.574598546925580E-3  
 2.018400000000000E10   -2.131193637686931E-3   1.916596243433930E-3  
 2.018600000000000E10   -1.858292035413562E-3   2.282674893844153E-3  
 2.018800000000000E10   -1.457017507699200E-3   2.625132382966180E-3  
 2.019000000000000E10   -1.025529343102112E-3   2.845937120747358E-3  
 2.019200000000000E10   -6.129583178582476E-4   3.025716175459357E-3  
 2.019400000000000E10   -1.202072900190083E-4   3.217319067789879E-3  
 2.019600000000000E10    5.262605934557142E-4   3.327561864330445E-3  
 2.019800000000000E10    1.258866145244873E-3   3.156448093553385E-3  
 2.020000000000000E10    1.783960049496696E-3   2.744676376627797E-3  
 2.020200000000000E10    2.043023715063991E-3   2.360873695639242E-3  
 2.020400000000000E10    2.293172619140750E-3   2.167030479069109E-3  
 2.020600000000000E10    2.742026692999857E-3   1.969699323878704E-3  
 2.020800000000000E10    3.299421432462556E-3   1.561851282374083E-3  
 2.021000000000000E10    3.740850007238151E-3   7.954629209015228E-4  
 2.021200000000000E10    3.784799714545900E-3  -1.235441016699207E-4  
 2.021400000000000E10    3.527620519844839E-3  -8.686717413749104E-4  
 2.021600000000000E10    3.120732760064519E-3  -1.432325841893477E-3  
 2.021800000000000E10    2.670445607844818E-3  -1.740659178433932E-3  
 2.022000000000000E10    2.418220698557519E-3  -1.875287246192833E-3  
 2.022200000000000E10    2.376638013685560E-3  -2.136234409624228E-3  
 2.022400000000000E10    2.235158154005070E-3  -2.707952777222719E-3  
 2.022600000000000E10    1.744665962896874E-3  -3.296671163122105E-3  
 2.022800000000000E10    1.082693574444196E-3  -3.690925607871679E-3  
 2.023000000000000E10    3.087979276332078E-4  -3.920246005717497E-3  
 2.023200000000000E10   -5.477279036137211E-4  -3.928851516373118E-3  
 2.023400000000000E10   -1.406123680100918E-3  -3.658130077967122E-3  
 2.023600000000000E10   -2.076813780104765E-3  -3.151249167329245E-3  
 2.023800000000000E10   -2.528261344442949E-3  -2.524001155922443E-3  
 2.024000000000000E10   -2.730777781311070E-3  -1.863890999176927E-3  
 2.024200000000000E10   -2.718637133047844E-3  -1.319809103434438E-3  
 2.024400000000000E10   -2.647298009713552E-3  -9.864387940807047E-4  
 2.024600000000000E10   -2.682703705274581E-3  -7.764011836580076E-4  
 2.024800000000000E10   -2.833433585325755E-3  -5.318780547992898E-4  
 2.025000000000000E10   -3.014982876333374E-3  -1.773663651624047E-4  
 2.025200000000000E10   -3.155151523894980E-3   3.045297059165352E-4  
 2.025400000000000E10   -3.174567005861505E-3   8.747283550872327E-4  
 2.025600000000000E10   -3.057507073713674E-3   1.530410693632631E-3  
 2.025800000000000E10   -2.699488609140057E-3   2.169884658905337E-3  
 2.026000000000000E10   -2.126937359379827E-3   2.613428451212836E-3  
 2.026200000000000E10   -1.564613581297789E-3   2.829051330310021E-3  
 2.026400000000000E10   -1.099777970378720E-3   2.955855423231981E-3  
 2.026600000000000E10   -6.564904969432795E-4   3.117132056197880E-3  
 2.026800000000000E10   -6.761008708540417E-5   3.248255442130407E-3  
 2.027000000000000E10    5.971626977440078E-4   3.171436820148564E-3  
 2.027200000000000E10    1.201002752703496E-3   2.850848883428753E-3  
 2.027400000000000E10    1.586813882085276E-3   2.394926914401015E-3  
 2.027600000000000E10    1.750226520143695E-3   1.965576874326011E-3  
 2.027800000000000E10    1.800652554090070E-3   1.693763236473066E-3  
 2.028000000000000E10    1.950356032825823E-3   1.565101755296222E-3  
 2.028200000000000E10    2.210623608641480E-3   1.371547070508171E-3  
 2.028400000000000E10    2.520272677856279E-3   1.079465977372334E-3  
 2.028600000000000E10    2.788327895909732E-3   5.923244005563543E-4  
 2.028800000000000E10    2.857021526567669E-3   1.935502295066133E-5  
 2.029000000000000E10    2.773342165452095E-3  -5.365359333895699E-4  
 2.029200000000000E10    2.522849927200273E-3  -1.066583398932691E-3  
 2.029400000000000E10    2.140354676509407E-3  -1.415382773680574E-3  
 2.029600000000000E10    1.759287519399614E-3  -1.582236577269963E-3  
 2.029800000000000E10    1.467187715495013E-3  -1.651597346769409E-3  
 2.030000000000000E10    1.268419788272691E-3  -1.711618668809840E-3  
 2.030200000000000E10    1.170575758633913E-3  -1.789667971294236E-3  
 2.030400000000000E10    1.110010628527176E-3  -2.039496017497325E-3  
 2.030600000000000E10    8.745189842867662E-4  -2.456077981027372E-3  
 2.030800000000000E10    3.237261848674883E-4  -2.809702159085699E-3  
 2.031000000000000E10   -3.870594416555294E-4  -2.881427093336183E-3  
 2.031200000000000E10   -1.085587543408567E-3  -2.649913623415455E-3  
 2.031400000000000E10   -1.560992964662213E-3  -2.202833152793869E-3  
 2.031600000000000E10   -1.819853090255717E-3  -1.715580926088946E-3  
 2.031800000000000E10   -1.892959256369023E-3  -1.262089926481186E-3  
 2.032000000000000E10   -1.874702601260487E-3  -9.131522431448410E-4  
 2.032200000000000E10   -1.813741327060287E-3  -6.787352522149101E-4  
 2.032400000000000E10   -1.808209811843196E-3  -5.424904574519369E-4  
 2.032600000000000E10   -1.904394003321176E-3  -3.885986725248804E-4  
 2.032800000000000E10   -1.999069394739230E-3  -1.573374734687478E-4  
 2.033000000000000E10   -2.074757396864395E-3   1.167469719219321E-4  
 2.033200000000000E10   -2.089661720914023E-3   4.497372426491216E-4  
 2.033400000000000E10   -2.040531413932427E-3   7.481868225513909E-4  
 2.033600000000000E10   -2.076801203896480E-3   8.458338154253740E-4  
 2.033800000000000E10   -1.929712736664854E-3   1.429065128255621E-3  
 2.034000000000000E10   -1.737976479324908E-3   1.918440595568147E-3  
 2.034200000000000E10   -1.294095714484560E-3   2.397915066714273E-3  
 2.034400000000000E10   -6.332109768974591E-4   2.637205376201636E-3  
 2.034600000000000E10   -2.018008405680928E-5   2.615129638371277E-3  
 2.034800000000000E10    5.173150702943038E-4   2.462323128395243E-3  
 2.035000000000000E10    9.955409483087285E-4   2.189298966178985E-3  
 2.035200000000000E10    1.323165004084140E-3   1.767896849244312E-3  
 2.035400000000000E10    1.390195341489504E-3   1.323907267697033E-3  
 2.035600000000000E10    1.297774646093939E-3   1.071943850218177E-3  
 2.035800000000000E10    1.252898946883533E-3   1.040886307648793E-3  
 2.036000000000000E10    1.395319037066596E-3   1.075872740853931E-3  
 2.036200000000000E10    1.696270563804503E-3   9.936732649630698E-4  
 2.036400000000000E10    2.012244532547830E-3   7.354259898659963E-4  
 2.036600000000000E10    2.247835286229911E-3   3.652093227073137E-4  
 2.036800000000000E10    2.432292224762678E-3  -1.416103207145017E-4  
 2.037000000000000E10    2.382902917164712E-3  -7.950853630172190E-4  
 2.037200000000000E10    2.018845724919237E-3  -1.323841003425144E-3  
 2.037400000000000E10    1.592455363311181E-3  -1.571881785555724E-3  
 2.037600000000000E10    1.285280249514636E-3  -1.719549335654319E-3  
 2.037800000000000E10    9.939095715382771E-4  -1.879815475482479E-3  
 2.038000000000000E10    6.478182198249817E-4  -1.986255371989108E-3  
 2.038200000000000E10    3.462285232162985E-4  -2.018164890270236E-3  
 2.038400000000000E10    3.493268031664309E-5  -2.086417110437535E-3  
 2.038600000000000E10   -3.393441849482081E-4  -2.089403505023155E-3  
 2.038800000000000E10   -6.800097312276165E-4  -2.043436698657710E-3  
 2.039000000000000E10   -1.096449954552124E-3  -1.984134418966533E-3  
 2.039200000000000E10   -1.591552469549785E-3  -1.725203550704314E-3  
 2.039400000000000E10   -1.943564455891067E-3  -1.223830313617249E-3  
 2.039600000000000E10   -2.005169492448708E-3  -6.996363975345292E-4  
 2.039800000000000E10   -1.881970038518709E-3  -3.362272215366111E-4  
 2.040000000000000E10   -1.810386553674998E-3  -1.755882147507964E-4  
 2.040200000000000E10   -1.897488613402157E-3  -1.172582651708857E-5  
 2.040400000000000E10   -2.007304940855614E-3   3.232698281077140E-4  
 2.040600000000000E10   -1.989773226472638E-3   7.590013999327130E-4  
 2.040800000000000E10   -1.813905538297393E-3   1.205112494781246E-3  
 2.041000000000000E10   -1.481373500224556E-3   1.543227714915672E-3  
 2.041200000000000E10   -1.140257815060056E-3   1.728217656448208E-3  
 2.041400000000000E10   -8.465861087212717E-4   1.876691864600306E-3  
 2.041600000000000E10   -5.202843027223869E-4   2.008802310655607E-3  
 2.041800000000000E10   -1.646723937966148E-4   2.075858091276308E-3  
 2.042000000000000E10    1.630604207213480E-4   2.117171026996257E-3  
 2.042200000000000E10    5.684233607854618E-4   2.131571187426954E-3  
 2.042400000000000E10    1.014063295758801E-3   2.033910473594021E-3  
 2.042600000000000E10    1.444304271873256E-3   1.837187222925632E-3  
 2.042800000000000E10    1.904261070437761E-3   1.500189544847657E-3  
 2.043000000000000E10    2.221218909140784E-3   9.066495783780341E-4  
 2.043200000000000E10    2.185626870496467E-3   2.774372277086708E-4  
 2.043400000000000E10    1.928689672109583E-3  -1.324600621065271E-4  
 2.043600000000000E10    1.665842355757860E-3  -2.851416148463794E-4  
 2.043800000000000E10    1.582357853290782E-3  -3.250933190534149E-4  
 2.044000000000000E10    1.596919486084532E-3  -4.362069569056694E-4  
 2.044200000000000E10    1.644795939686551E-3  -5.859827362633323E-4  
 2.044400000000000E10    1.744988990503023E-3  -8.317035679904738E-4  
 2.044600000000000E10    1.795364446064205E-3  -1.240071069272887E-3  
 2.044800000000000E10    1.671911093191754E-3  -1.771459884849596E-3  
 2.045000000000000E10    1.286429860399185E-3  -2.299760154988847E-3  
 2.045200000000000E10    6.843719046003350E-4  -2.642413279340591E-3  
 2.045400000000000E10   -1.923475634170614E-5  -2.701095471143294E-3  
 2.045600000000000E10   -5.699741689310076E-4  -2.471668881444652E-3  
 2.045800000000000E10   -8.734964632425351E-4  -2.248922423287123E-3  
 2.046000000000000E10   -1.162490373431349E-3  -2.114353700514132E-3  
 2.046200000000000E10   -1.486183496751658E-3  -2.001831341542519E-3  
 2.046400000000000E10   -1.938543770148001E-3  -1.835472865984488E-3  
 2.046600000000000E10   -2.434940864964400E-3  -1.431735228639817E-3  
 2.046800000000000E10   -2.746169553080827E-3  -8.030371709799572E-4  
 2.047000000000000E10   -2.772043812675057E-3  -1.447930073422100E-4  
 2.047200000000000E10   -2.610168746507769E-3   3.807278919017419E-4  
 2.047400000000000E10   -2.373685448051051E-3   7.764664504949174E-4  
 2.047600000000000E10   -2.145274987812212E-3   1.074631182944456E-3  
 2.047800000000000E10   -1.908264855888707E-3   1.295174695283114E-3  
 2.048000000000000E10   -1.758296304255908E-3   1.455161083823093E-3  
 2.048200000000000E10   -1.673228178775023E-3   1.692564872480592E-3  
 2.048400000000000E10   -1.509515559511574E-3   2.092298487231994E-3  
 2.048600000000000E10   -1.110442355466785E-3   2.473518988232554E-3  
 2.048800000000000E10   -6.038898785613908E-4   2.662510846821983E-3  
 2.049000000000000E10   -1.296787069408116E-4   2.711400750894177E-3  
 2.049200000000000E10    2.953630284365045E-4   2.667294602473209E-3  
 2.049400000000000E10    6.556824264557336E-4   2.622719533135923E-3  
 2.049600000000000E10    1.040597776824862E-3   2.611199472436812E-3  
 2.049800000000000E10    1.512572750422353E-3   2.539547085532068E-3  
 2.050000000000000E10    2.014950026064315E-3   2.353552837162413E-3  
 2.050200000000000E10    2.544437477618088E-3   2.064429643207495E-3  
 2.050400000000000E10    3.135512439235125E-3   1.584604677625400E-3  
 2.050600000000000E10    3.546788735667804E-3   7.872408221920364E-4  
 2.050800000000000E10    3.572482150048018E-3  -1.057066119045073E-4  
 2.051000000000000E10    3.302194792279062E-3  -8.167110681974564E-4  
 2.051200000000000E10    2.962047541743996E-3  -1.343146857131012E-3  
 2.051400000000000E10    2.575773211127078E-3  -1.773656474296081E-3  
 2.051600000000000E10    2.153969087174216E-3  -2.040277538943745E-3  
 2.051800000000000E10    1.829062792119942E-3  -2.180274748415859E-3  
 2.052000000000000E10    1.574298513501331E-3  -2.342482954033731E-3  
 2.052200000000000E10    1.349045150556866E-3  -2.547742603461684E-3  
 2.052400000000000E10    1.112576565224248E-3  -2.903656389204012E-3  
 2.052600000000000E10    5.940794301604463E-4  -3.322303435025515E-3  
 2.052800000000000E10   -1.518374900512039E-4  -3.476834758242340E-3  
 2.053000000000000E10   -8.205272985043566E-4  -3.356569140973222E-3  
 2.053200000000000E10   -1.426291867607722E-3  -3.153297891112145E-3  
 2.053400000000000E10   -1.949546142929682E-3  -2.806751321955228E-3  
 2.053600000000000E10   -2.337030600756407E-3  -2.456347656401772E-3  
 2.053800000000000E10   -2.719614249481648E-3  -2.085047133972126E-3  
 2.054000000000000E10   -3.048834989782531E-3  -1.655215866491965E-3  
 2.054200000000000E10   -3.429166643991454E-3  -1.173151630636136E-3  
 2.054400000000000E10   -3.730176944178319E-3  -4.520316391595780E-4  
 2.054600000000000E10   -3.763422231983256E-3   3.693629282099338E-4  
 2.054800000000000E10   -3.543512751022546E-3   1.144841191676971E-3  
 2.055000000000000E10   -3.103745320367286E-3   1.793391290676508E-3  
 2.055200000000000E10   -2.526352778000474E-3   2.225407022683893E-3  
 2.055400000000000E10   -1.971217959835635E-3   2.377580141326712E-3  
 2.055600000000000E10   -1.631704665942754E-3   2.375584293095541E-3  
