#  HZ   S   RI   R     50.00 
! Rohde & Schwarz ZVA40 4Ports - Version 3.90 - 1145.1110k42 SN: 100403
! Date: 2023-10-03 10:25:09
! Measurement: S12 
! 
 2.000000000000000E10    7.522973779694177E-5  -2.584851076072708E-3  
 2.000200000000000E10   -6.062135101801913E-4  -2.491167529622816E-3  
 2.000400000000000E10   -1.205505445038719E-3  -2.080866207358452E-3  
 2.000600000000000E10   -1.435902371296125E-3  -1.492462977057960E-3  
 2.000800000000000E10   -1.317382013567037E-3  -1.125504984073239E-3  
 2.001000000000000E10   -1.195114913341604E-3  -1.105633853175850E-3  
 2.001200000000000E10   -1.357775529180954E-3  -1.282075000192270E-3  
 2.001400000000000E10   -1.868455855058320E-3  -1.303199665884095E-3  
 2.001600000000000E10   -2.432784382752124E-3  -8.949355174536947E-4  
 2.001800000000000E10   -2.734652523970837E-3  -2.260245674522755E-4  
 2.002000000000000E10   -2.730210072492519E-3   5.195241037242635E-4  
 2.002200000000000E10   -2.402579492029564E-3   1.205388774689088E-3  
 2.002400000000000E10   -1.867144527961341E-3   1.620994044489525E-3  
 2.002600000000000E10   -1.332511815890179E-3   1.694043659904029E-3  
 2.002800000000000E10   -1.060623765331585E-3   1.560773003580680E-3  
 2.003000000000000E10   -1.060534289377564E-3   1.547087683049842E-3  
 2.003200000000000E10   -1.042839008273585E-3   1.827181153387772E-3  
 2.003400000000000E10   -7.386451083413021E-4   2.181105093074904E-3  
 2.003600000000000E10   -2.757116187835273E-4   2.371875674301562E-3  
 2.003800000000000E10    2.037415723024934E-4   2.406023836545187E-3  
 2.004000000000000E10    6.828308154973209E-4   2.372619924001365E-3  
 2.004200000000000E10    1.217004624517975E-3   2.194708526525417E-3  
 2.004400000000000E10    1.683819068586825E-3   1.834577433023965E-3  
 2.004600000000000E10    2.022185469549584E-3   1.342939564719316E-3  
 2.004800000000000E10    2.123394386494081E-3   7.531078026434523E-4  
 2.005000000000000E10    2.001573889776911E-3   3.214940418433705E-4  
 2.005200000000000E10    1.878097458884366E-3   5.540547477092914E-5  
 2.005400000000000E10    1.857413845015396E-3  -1.344569034235712E-4  
 2.005600000000000E10    1.935616228218473E-3  -4.682848833240084E-4  
 2.005800000000000E10    1.809450372637075E-3  -9.440205910943185E-4  
 2.006000000000000E10    1.514869181577255E-3  -1.302229843373233E-3  
 2.006200000000000E10    1.179359285563323E-3  -1.553903908733233E-3  
 2.006400000000000E10    8.121679766315698E-4  -1.698264475612913E-3  
 2.006600000000000E10    4.484238825557660E-4  -1.683450582474266E-3  
 2.006800000000000E10    2.898766132277138E-4  -1.579733243191664E-3  
 2.007000000000000E10    2.779604869635824E-4  -1.631758124209859E-3  
 2.007200000000000E10    1.814149289424832E-4  -1.860986922520107E-3  
 2.007400000000000E10   -1.083914222252056E-4  -2.187366368675756E-3  
 2.007600000000000E10   -7.010295500707992E-4  -2.422115429520444E-3  
 2.007800000000000E10   -1.404212402251379E-3  -2.278109421233030E-3  
 2.008000000000000E10   -1.923904665432799E-3  -1.883189019361263E-3  
 2.008200000000000E10   -2.277095478273346E-3  -1.393104640068167E-3  
 2.008400000000000E10   -2.412913400687492E-3  -8.723555867808052E-4  
 2.008600000000000E10   -2.405624643136813E-3  -4.563110700341528E-4  
 2.008800000000000E10   -2.401506957190497E-3  -1.202383991991986E-4  
 2.009000000000000E10   -2.389472176925125E-3   1.842609555142726E-4  
 2.009200000000000E10   -2.401224520525018E-3   4.904886768506112E-4  
 2.009400000000000E10   -2.400054783842671E-3   8.843043274201445E-4  
 2.009600000000000E10   -2.299918191103758E-3   1.349461149610835E-3  
 2.009800000000000E10   -1.992729600756564E-3   1.844504847164446E-3  
 2.010000000000000E10   -1.464964442826368E-3   2.168599455151069E-3  
 2.010200000000000E10   -9.241506276238298E-4   2.216824756766605E-3  
 2.010400000000000E10   -5.577871211375199E-4   2.053144126645046E-3  
 2.010600000000000E10   -4.304024153414588E-4   1.946785936926700E-3  
 2.010800000000000E10   -3.519942126240370E-4   2.026181076864095E-3  
 2.011000000000000E10   -1.946442915987101E-4   2.216876391193667E-3  
 2.011200000000000E10    1.479068858376053E-4   2.475147844267951E-3  
 2.011400000000000E10    6.900339385600626E-4   2.638186340249656E-3  
 2.011600000000000E10    1.395261675133453E-3   2.613980696116292E-3  
 2.011800000000000E10    2.141885712055492E-3   2.186917202273801E-3  
 2.012000000000000E10    2.541357037497606E-3   1.473331909699542E-3  
 2.012200000000000E10    2.592470695230145E-3   8.245279739575082E-4  
 2.012400000000000E10    2.518951590396516E-3   3.528597764411350E-4  
 2.012600000000000E10    2.461428339791131E-3  -3.086410942345894E-5  
 2.012800000000000E10    2.356751852915386E-3  -4.198133839429734E-4  
 2.013000000000000E10    2.158447436410908E-3  -7.310972129989964E-4  
 2.013200000000000E10    2.004377616106933E-3  -9.119694901436098E-4  
 2.013400000000000E10    1.974564190508111E-3  -1.149534983835113E-3  
 2.013600000000000E10    1.882374829124655E-3  -1.500966475474225E-3  
 2.013800000000000E10    1.642634211598662E-3  -1.873512454369247E-3  
 2.014000000000000E10    1.270849907174145E-3  -2.130642133114658E-3  
 2.014200000000000E10    9.486728609892170E-4  -2.196993966253452E-3  
 2.014400000000000E10    7.743095510878151E-4  -2.270479512174802E-3  
 2.014600000000000E10    6.117082315682983E-4  -2.487728266500254E-3  
 2.014800000000000E10    3.232267448770915E-4  -2.776181143267778E-3  
 2.015000000000000E10   -1.335090194095504E-4  -3.048723086073423E-3  
 2.015200000000000E10   -7.588771985178183E-4  -3.211251233253419E-3  
 2.015400000000000E10   -1.521487647491228E-3  -3.159594454768080E-3  
 2.015600000000000E10   -2.261043316397218E-3  -2.766893233462596E-3  
 2.015800000000000E10   -2.772258506801659E-3  -2.167005156101698E-3  
 2.016000000000000E10   -3.037017160727654E-3  -1.492689327089006E-3  
 2.016200000000000E10   -3.099626789970735E-3  -8.759386719310522E-4  
 2.016400000000000E10   -3.039689081119290E-3  -3.721290618926670E-4  
 2.016600000000000E10   -2.983866078045797E-3   6.660722727057475E-6  
 2.016800000000000E10   -2.979241767310536E-3   3.842856567394531E-4  
 2.017000000000000E10   -2.960258771937510E-3   8.414583090649323E-4  
 2.017200000000000E10   -2.797769662695433E-3   1.362544942751977E-3  
 2.017400000000000E10   -2.468614804843347E-3   1.739090859643420E-3  
 2.017600000000000E10   -2.263811361351254E-3   1.995683675478577E-3  
 2.017800000000000E10   -2.074004060381817E-3   2.428895273259925E-3  
 2.018000000000000E10   -1.600560778656155E-3   2.843742324639781E-3  
 2.018200000000000E10   -1.040852973742260E-3   3.029658462320786E-3  
 2.018400000000000E10   -5.786141703404814E-4   3.100078160438907E-3  
 2.018600000000000E10   -1.547738824046725E-4   3.195773822604200E-3  
 2.018800000000000E10    3.764128014803015E-4   3.263667169945579E-3  
 2.019000000000000E10    9.203760733633765E-4   3.196019602975258E-3  
 2.019200000000000E10    1.415393046334652E-3   3.069114832038927E-3  
 2.019400000000000E10    1.939885227254941E-3   2.927164741011212E-3  
 2.019600000000000E10    2.568330820483783E-3   2.684421962528236E-3  
 2.019800000000000E10    3.175869224457625E-3   2.131852971272357E-3  
 2.020000000000000E10    3.493611820601694E-3   1.388926832395030E-3  
 2.020200000000000E10    3.483713571613320E-3   7.189812304915807E-4  
 2.020400000000000E10    3.406370401034958E-3   3.111307337255421E-4  
 2.020600000000000E10    3.503912935909830E-3  -4.680941209098993E-5  
 2.020800000000000E10    3.677943496567559E-3  -5.717220028226146E-4  
 2.021000000000000E10    3.693456185690354E-3  -1.389946444732979E-3  
 2.021200000000000E10    3.270621781987337E-3  -2.230651289242510E-3  
 2.021400000000000E10    2.619885665457824E-3  -2.767425211879779E-3  
 2.021600000000000E10    1.922770607092294E-3  -3.072354269299570E-3  
 2.021800000000000E10    1.232984092850519E-3  -3.104779556002698E-3  
 2.022000000000000E10    7.932047846385973E-4  -2.932634888106986E-3  
 2.022200000000000E10    6.406333372386529E-4  -2.883116233025886E-3  
 2.022400000000000E10    4.682577247792072E-4  -3.129177905660027E-3  
 2.022600000000000E10   -2.060012005958437E-5  -3.423736011034545E-3  
 2.022800000000000E10   -6.601080139211045E-4  -3.544116442874892E-3  
 2.023000000000000E10   -1.403532611986748E-3  -3.511384153797385E-3  
 2.023200000000000E10   -2.207878350429697E-3  -3.222121720729890E-3  
 2.023400000000000E10   -2.929652500348307E-3  -2.655465517062771E-3  
 2.023600000000000E10   -3.406238793593478E-3  -1.872525275276083E-3  
 2.023800000000000E10   -3.593521566348680E-3  -1.006147832052708E-3  
 2.024000000000000E10   -3.514271895100960E-3  -1.892803673758919E-4  
 2.024200000000000E10   -3.214041766326043E-3   4.755864934695551E-4  
 2.024400000000000E10   -2.819286094050962E-3   8.934414784254098E-4  
 2.024600000000000E10   -2.494721175829366E-3   1.125871336064589E-3  
 2.024800000000000E10   -2.271998661540868E-3   1.289176582346002E-3  
 2.025000000000000E10   -2.119246399507888E-3   1.462173965007108E-3  
 2.025200000000000E10   -2.017428349053286E-3   1.704790108531857E-3  
 2.025400000000000E10   -1.866312316505160E-3   2.010904627166106E-3  
 2.025600000000000E10   -1.640478755885273E-3   2.380645848281774E-3  
 2.025800000000000E10   -1.227849216611778E-3   2.764566682358317E-3  
 2.026000000000000E10   -6.482718699734368E-4   2.965801622238220E-3  
 2.026200000000000E10   -1.042997581711479E-4   2.962664580956327E-3  
 2.026400000000000E10    3.207388077032164E-4   2.894466887234579E-3  
 2.026600000000000E10    7.442223493090291E-4   2.878409256553086E-3  
 2.026800000000000E10    1.297627319070793E-3   2.794680442400430E-3  
 2.027000000000000E10    1.874089370378190E-3   2.498169177287196E-3  
 2.027200000000000E10    2.359493453226810E-3   2.008811440076092E-3  
 2.027400000000000E10    2.594770533728972E-3   1.370210647685211E-3  
 2.027600000000000E10    2.554440284492793E-3   7.940833075150890E-4  
 2.027800000000000E10    2.386292281390688E-3   3.938293478940966E-4  
 2.028000000000000E10    2.259716059404473E-3   1.534731760961314E-4  
 2.028200000000000E10    2.176994608270595E-3  -3.673708120559630E-5  
 2.028400000000000E10    2.221413781682467E-3  -2.209874754428254E-4  
 2.028600000000000E10    2.322793520146417E-3  -6.057530486974125E-4  
 2.028800000000000E10    2.216412245700921E-3  -1.113118644546978E-3  
 2.029000000000000E10    1.956215082630720E-3  -1.568081494726098E-3  
 2.029200000000000E10    1.551860390583613E-3  -1.980961314645252E-3  
 2.029400000000000E10    9.964967973080602E-4  -2.169891571324569E-3  
 2.029600000000000E10    5.082994959296708E-4  -2.135922676539982E-3  
 2.029800000000000E10    1.604697596478508E-4  -2.018827369624420E-3  
 2.030000000000000E10   -1.090312618022483E-4  -1.880099842981506E-3  
 2.030200000000000E10   -2.590518033210846E-4  -1.705529311012646E-3  
 2.030400000000000E10   -2.813059084278063E-4  -1.685104333662744E-3  
 2.030600000000000E10   -4.313021603398747E-4  -1.871753472353195E-3  
 2.030800000000000E10   -9.139878807885801E-4  -2.010855784471082E-3  
 2.031000000000000E10   -1.527400952744693E-3  -1.849118375988481E-3  
 2.031200000000000E10   -2.021207519205203E-3  -1.391390788391877E-3  
 2.031400000000000E10   -2.261907537435839E-3  -8.025148907256031E-4  
 2.031600000000000E10   -2.303651239868606E-3  -2.477747606442838E-4  
 2.031800000000000E10   -2.176327114114832E-3   2.430192047134199E-4  
 2.032000000000000E10   -1.918299405021780E-3   6.233219090697135E-4  
 2.032200000000000E10   -1.590340355454608E-3   8.417925425640352E-4  
 2.032400000000000E10   -1.305650019652845E-3   8.813365803653343E-4  
 2.032600000000000E10   -1.127988937156293E-3   8.550640703428062E-4  
 2.032800000000000E10   -1.037603562930280E-3   8.391307538186184E-4  
 2.033000000000000E10   -1.030592521156257E-3   8.720628911148968E-4  
 2.033200000000000E10   -9.937956883694686E-4   1.007625661644732E-3  
 2.033400000000000E10   -8.951218995816282E-4   1.143513526192602E-3  
 2.033600000000000E10   -9.284358495905158E-4   1.208999382321747E-3  
 2.033800000000000E10   -6.959321696262690E-4   1.534199711498747E-3  
 2.034000000000000E10   -4.361762061736845E-4   1.818680317193495E-3  
 2.034200000000000E10   -6.362544449928715E-6   2.068407700393242E-3  
 2.034400000000000E10    5.539587227147284E-4   2.108449923750959E-3  
 2.034600000000000E10    1.083061713546474E-3   1.924051766651740E-3  
 2.034800000000000E10    1.530653042067226E-3   1.591869769330470E-3  
 2.035000000000000E10    1.837246401193303E-3   1.115463324183718E-3  
 2.035200000000000E10    1.918246931414310E-3   5.366632577372954E-4  
 2.035400000000000E10    1.721241860171405E-3   6.368042384076271E-6  
 2.035600000000000E10    1.340971863924415E-3  -2.684948402254930E-4  
 2.035800000000000E10    1.053625541299694E-3  -2.558436166976236E-4  
 2.036000000000000E10    1.001601887992053E-3  -1.724692641993214E-4  
 2.036200000000000E10    1.120341394769874E-3  -1.855114556654818E-4  
 2.036400000000000E10    1.227096137232997E-3  -3.770405209999512E-4  
 2.036600000000000E10    1.241181759273605E-3  -6.321511893764405E-4  
 2.036800000000000E10    1.256904355282238E-3  -9.029017167615569E-4  
 2.037000000000000E10    1.167744092307270E-3  -1.281427216635626E-3  
 2.037200000000000E10    8.515845537881928E-4  -1.601608564460137E-3  
 2.037400000000000E10    4.732336773759391E-4  -1.740380122124464E-3  
 2.037600000000000E10    1.169088658613545E-4  -1.771790088206755E-3  
 2.037800000000000E10   -2.334798315651501E-4  -1.707983078832377E-3  
 2.038000000000000E10   -5.317069912669141E-4  -1.553855354281907E-3  
 2.038200000000000E10   -7.309483931769091E-4  -1.367702562775877E-3  
 2.038400000000000E10   -9.155347973647413E-4  -1.217518093138525E-3  
 2.038600000000000E10   -1.136274269905928E-3  -1.046116461764015E-3  
 2.038800000000000E10   -1.302383128337726E-3  -8.368468286076100E-4  
 2.039000000000000E10   -1.470596760777126E-3  -6.406743971142914E-4  
 2.039200000000000E10   -1.697328684702056E-3  -3.828922346833486E-4  
 2.039400000000000E10   -1.848284991915416E-3   3.978689745924816E-5  
 2.039600000000000E10   -1.781026823497256E-3   5.049989371517718E-4  
 2.039800000000000E10   -1.520668690135021E-3   8.481244438593577E-4  
 2.040000000000000E10   -1.244023334636099E-3   9.858530610882830E-4  
 2.040200000000000E10   -1.077232409053992E-3   1.040471850578841E-3  
 2.040400000000000E10   -9.459736843213993E-4   1.182241235803481E-3  
 2.040600000000000E10   -7.677715674454070E-4   1.381277478943913E-3  
 2.040800000000000E10   -4.681534209226058E-4   1.545855173118035E-3  
 2.041000000000000E10   -8.737693791278427E-5   1.556070306369031E-3  
 2.041200000000000E10    1.966854516194497E-4   1.447360001444378E-3  
 2.041400000000000E10    3.731521227151419E-4   1.357702540606772E-3  
 2.041600000000000E10    5.251447715194813E-4   1.310120647631341E-3  
 2.041800000000000E10    6.918512874896752E-4   1.293607528349551E-3  
 2.042000000000000E10    8.913081504860626E-4   1.299143150360650E-3  
 2.042200000000000E10    1.224102773377864E-3   1.234274856753862E-3  
 2.042400000000000E10    1.578120821678120E-3   9.903819118185669E-4  
 2.042600000000000E10    1.797980512332667E-3   6.606846608493647E-4  
 2.042800000000000E10    1.992951735243488E-3   2.898122267816753E-4  
 2.043000000000000E10    2.118845746835850E-3  -2.657822299940609E-4  
 2.043200000000000E10    1.942343580624695E-3  -8.765832630889326E-4  
 2.043400000000000E10    1.517079724254411E-3  -1.294602826333494E-3  
 2.043600000000000E10    1.035308727096455E-3  -1.426587683252163E-3  
 2.043800000000000E10    7.149234550796828E-4  -1.355789379192458E-3  
 2.044000000000000E10    5.184305479350170E-4  -1.261156195754234E-3  
 2.044200000000000E10    4.326102984315411E-4  -1.144006017618526E-3  
 2.044400000000000E10    4.906329179095777E-4  -1.096190561333464E-3  
 2.044600000000000E10    5.872424785175524E-4  -1.210825272966100E-3  
 2.044800000000000E10    5.623095164066552E-4  -1.493590133199507E-3  
 2.045000000000000E10    3.090827552242708E-4  -1.821224552174246E-3  
 2.045200000000000E10   -1.553968695788607E-4  -2.015111889033508E-3  
 2.045400000000000E10   -7.270423993110578E-4  -1.964113090905286E-3  
 2.045600000000000E10   -1.170637470411983E-3  -1.657364253128466E-3  
 2.045800000000000E10   -1.393009835837565E-3  -1.328412767733474E-3  
 2.046000000000000E10   -1.555879286232319E-3  -1.074244192864015E-3  
 2.046200000000000E10   -1.723906231931678E-3  -8.810575295652333E-4  
 2.046400000000000E10   -1.977213003656052E-3  -6.865273264590626E-4  
 2.046600000000000E10   -2.247297512916708E-3  -2.923057897254787E-4  
 2.046800000000000E10   -2.316404564883586E-3   2.828956919669801E-4  
 2.047000000000000E10   -2.093111758921373E-3   7.989850805162751E-4  
 2.047200000000000E10   -1.737293544728744E-3   1.061485637144144E-3  
 2.047400000000000E10   -1.471547383862319E-3   1.155924045612374E-3  
 2.047600000000000E10   -1.284078630364522E-3   1.230568011017933E-3  
 2.047800000000000E10   -1.109785245909050E-3   1.274120183316646E-3  
 2.048000000000000E10   -1.030980415810896E-3   1.335785164981979E-3  
 2.048200000000000E10   -1.006152710796874E-3   1.502159259036766E-3  
 2.048400000000000E10   -9.065716174802910E-4   1.824406645706611E-3  
 2.048600000000000E10   -5.778915370815781E-4   2.129252376584196E-3  
 2.048800000000000E10   -1.437309829582715E-4   2.279095779031270E-3  
 2.049000000000000E10    2.853866266208063E-4   2.301271225546777E-3  
 2.049200000000000E10    6.747363222729727E-4   2.208738194954862E-3  
 2.049400000000000E10    9.706675850138560E-4   2.079081963696639E-3  
 2.049600000000000E10    1.233423326582238E-3   2.018665990681070E-3  
 2.049800000000000E10    1.603159384063569E-3   1.921151047674697E-3  
 2.050000000000000E10    1.994310166630562E-3   1.719275610815269E-3  
 2.050200000000000E10    2.417439650756976E-3   1.468235382488297E-3  
 2.050400000000000E10    2.908181352157591E-3   1.011669369726167E-3  
 2.050600000000000E10    3.228736483071649E-3   2.226174003328636E-4  
 2.050800000000000E10    3.135363672271024E-3  -6.446054283387715E-4  
 2.051000000000000E10    2.748418906614164E-3  -1.280216884700932E-3  
 2.051200000000000E10    2.285637411471605E-3  -1.662806711263127E-3  
 2.051400000000000E10    1.851380630543223E-3  -1.878687212836452E-3  
 2.051600000000000E10    1.486331031054760E-3  -1.925108318737055E-3  
 2.051800000000000E10    1.291459669654139E-3  -1.930289888059509E-3  
 2.052000000000000E10    1.161362758495261E-3  -2.061129637082991E-3  
 2.052200000000000E10    1.020661788700028E-3  -2.242498605068778E-3  
 2.052400000000000E10    8.332747316105479E-4  -2.566900461674534E-3  
 2.052600000000000E10    3.491006786701084E-4  -2.945245328884373E-3  
 2.052800000000000E10   -3.446954926804849E-4  -3.074009941420704E-3  
 2.053000000000000E10   -9.584314242868962E-4  -2.951425595071030E-3  
 2.053200000000000E10   -1.483436472667956E-3  -2.740984626397981E-3  
 2.053400000000000E10   -1.926379038604802E-3  -2.436352217894441E-3  
 2.053600000000000E10   -2.296197173199700E-3  -2.126116721107739E-3  
 2.053800000000000E10   -2.687749414562934E-3  -1.787237704837560E-3  
 2.054000000000000E10   -3.019295952861570E-3  -1.361465112872126E-3  
 2.054200000000000E10   -3.343100065815127E-3  -8.718121584615991E-4  
 2.054400000000000E10   -3.549659311061084E-3  -1.797797084902254E-4  
 2.054600000000000E10   -3.513438706011582E-3   5.585549397500098E-4  
 2.054800000000000E10   -3.290190951980457E-3   1.231510123009289E-3  
 2.055000000000000E10   -2.917775611197692E-3   1.796571347819046E-3  
 2.055200000000000E10   -2.459491473087334E-3   2.221425670736939E-3  
 2.055400000000000E10   -1.969122152522575E-3   2.462159638166612E-3  
 2.055600000000000E10   -1.597801212218829E-3   2.588813710543845E-3  
