#  HZ   S   RI   R     50.00 
! Rohde & Schwarz ZVA40 4Ports - Version 3.90 - 1145.1110k42 SN: 100403
! Date: 2023-10-03 10:26:01
! Measurement: S12 
! 
 2.000000000000000E10    6.544939757309428E-5  -2.696452519584279E-3  
 2.000200000000000E10   -5.904890892935205E-4  -2.568356772636885E-3  
 2.000400000000000E10   -1.182414860233399E-3  -2.159589565894344E-3  
 2.000600000000000E10   -1.418746913948054E-3  -1.562541004829876E-3  
 2.000800000000000E10   -1.292632439362833E-3  -1.139560376935280E-3  
 2.001000000000000E10   -1.113219045975152E-3  -1.099942748362022E-3  
 2.001200000000000E10   -1.230373943482611E-3  -1.290916319264531E-3  
 2.001400000000000E10   -1.707489992714192E-3  -1.302271143345492E-3  
 2.001600000000000E10   -2.210024994030207E-3  -9.164734923508178E-4  
 2.001800000000000E10   -2.475726419794073E-3  -3.168359223031168E-4  
 2.002000000000000E10   -2.469738163833286E-3   3.502330439082515E-4  
 2.002200000000000E10   -2.189603736700774E-3   9.760085979747411E-4  
 2.002400000000000E10   -1.736835833218598E-3   1.345744856028972E-3  
 2.002600000000000E10   -1.283429222103510E-3   1.416422267008793E-3  
 2.002800000000000E10   -1.093764921627295E-3   1.322592493652562E-3  
 2.003000000000000E10   -1.150681362557640E-3   1.390478702770503E-3  
 2.003200000000000E10   -1.130272807593014E-3   1.776536557579411E-3  
 2.003400000000000E10   -7.729307853454530E-4   2.205502992081974E-3  
 2.003600000000000E10   -2.258885568587509E-4   2.433644931518124E-3  
 2.003800000000000E10    3.335412819416291E-4   2.444849559393379E-3  
 2.004000000000000E10    8.535938772924797E-4   2.354567356290110E-3  
 2.004200000000000E10    1.403682436909021E-3   2.131754636575452E-3  
 2.004400000000000E10    1.850247732203950E-3   1.722972250169218E-3  
 2.004600000000000E10    2.135776100547369E-3   1.215884257593436E-3  
 2.004800000000000E10    2.224018106451680E-3   6.640414817230611E-4  
 2.005000000000000E10    2.121573673377251E-3   2.442175089961317E-4  
 2.005200000000000E10    2.005867668030214E-3  -2.445875364938616E-5  
 2.005400000000000E10    1.998170178679977E-3  -1.928228418934747E-4  
 2.005600000000000E10    2.109993370224317E-3  -5.128716797882817E-4  
 2.005800000000000E10    2.015790086053057E-3  -9.992003964007269E-4  
 2.006000000000000E10    1.747840249097162E-3  -1.383786253721820E-3  
 2.006200000000000E10    1.425929725251898E-3  -1.687552121503660E-3  
 2.006400000000000E10    1.027419024791610E-3  -1.867014330598451E-3  
 2.006600000000000E10    6.301898422391655E-4  -1.879472298284454E-3  
 2.006800000000000E10    4.356204870952849E-4  -1.808742051995238E-3  
 2.007000000000000E10    3.396136018813912E-4  -1.891544674470796E-3  
 2.007200000000000E10    1.392234307624380E-4  -2.084371510865001E-3  
 2.007400000000000E10   -1.959617022446175E-4  -2.328413026024101E-3  
 2.007600000000000E10   -7.985925119222029E-4  -2.475745905068064E-3  
 2.007800000000000E10   -1.455818522825009E-3  -2.261246561899332E-3  
 2.008000000000000E10   -1.929578728576553E-3  -1.850662747237050E-3  
 2.008200000000000E10   -2.251249721110256E-3  -1.370487531387747E-3  
 2.008400000000000E10   -2.400409600496885E-3  -8.486388822083603E-4  
 2.008600000000000E10   -2.408577297559961E-3  -3.968513852901328E-4  
 2.008800000000000E10   -2.389480940811081E-3  -1.793887659179784E-5  
 2.009000000000000E10   -2.334483357501537E-3   3.344088122734113E-4  
 2.009200000000000E10   -2.284605415353989E-3   6.682709529670149E-4  
 2.009400000000000E10   -2.218609518628307E-3   1.052491066323284E-3  
 2.009600000000000E10   -2.063383222928089E-3   1.488113225072326E-3  
 2.009800000000000E10   -1.737617965805535E-3   1.931971420031884E-3  
 2.010000000000000E10   -1.237454703901684E-3   2.222062436996644E-3  
 2.010200000000000E10   -7.042191808165623E-4   2.275555144512543E-3  
 2.010400000000000E10   -3.042150234045980E-4   2.125575119343335E-3  
 2.010600000000000E10   -1.401705190097653E-4   1.982365148486915E-3  
 2.010800000000000E10   -5.361381600006001E-5   2.013671659993516E-3  
 2.011000000000000E10    1.170252909842656E-4   2.160295742833464E-3  
 2.011200000000000E10    4.432265366017512E-4   2.343860642335522E-3  
 2.011400000000000E10    9.126825804601135E-4   2.441374992885320E-3  
 2.011600000000000E10    1.533602933662552E-3   2.420025522499991E-3  
 2.011800000000000E10    2.227899206441985E-3   2.036641381421627E-3  
 2.012000000000000E10    2.598494152373677E-3   1.353326972685141E-3  
 2.012200000000000E10    2.643966108665320E-3   7.258593198199424E-4  
 2.012400000000000E10    2.564708364358369E-3   2.380246246621314E-4  
 2.012600000000000E10    2.457782868564191E-3  -1.341234438982218E-4  
 2.012800000000000E10    2.344631742614492E-3  -4.797806534232683E-4  
 2.013000000000000E10    2.167402065597956E-3  -7.889856047326616E-4  
 2.013200000000000E10    1.995326171530761E-3  -9.769257220320804E-4  
 2.013400000000000E10    1.926377427793621E-3  -1.195944640312768E-3  
 2.013600000000000E10    1.807550566088261E-3  -1.519242093345184E-3  
 2.013800000000000E10    1.532937852609571E-3  -1.824625701495333E-3  
 2.014000000000000E10    1.175262640049587E-3  -1.971821120393365E-3  
 2.014200000000000E10    9.318345609767458E-4  -1.974091529769540E-3  
 2.014400000000000E10    8.391870118821978E-4  -2.058838842729227E-3  
 2.014600000000000E10    7.141046000060733E-4  -2.303677577517713E-3  
 2.014800000000000E10    4.236385508425106E-4  -2.615674806692330E-3  
 2.015000000000000E10   -3.481930805180499E-5  -2.890456107602198E-3  
 2.015200000000000E10   -6.343059750230388E-4  -3.044793396659288E-3  
 2.015400000000000E10   -1.353876345691275E-3  -3.017419536530318E-3  
 2.015600000000000E10   -2.082345767211123E-3  -2.698438105701031E-3  
 2.015800000000000E10   -2.627656771130707E-3  -2.171357560568120E-3  
 2.016000000000000E10   -2.950206054029642E-3  -1.516950920362164E-3  
 2.016200000000000E10   -3.049656735038174E-3  -8.689254437367573E-4  
 2.016400000000000E10   -2.979352502714440E-3  -3.430323046648081E-4  
 2.016600000000000E10   -2.865050559728030E-3   3.729053274028912E-5  
 2.016800000000000E10   -2.820727393026011E-3   3.752230792095571E-4  
 2.017000000000000E10   -2.782617654748496E-3   7.534756996529625E-4  
 2.017200000000000E10   -2.664068708674081E-3   1.202938763459248E-3  
 2.017400000000000E10   -2.434299431232780E-3   1.558394121633401E-3  
 2.017600000000000E10   -2.288239528980766E-3   1.866005326906125E-3  
 2.017800000000000E10   -2.086552707938317E-3   2.336044707341920E-3  
 2.018000000000000E10   -1.619586403595363E-3   2.716977516858646E-3  
 2.018200000000000E10   -1.132249151227488E-3   2.901188351484770E-3  
 2.018400000000000E10   -7.166475046742886E-4   3.043427599967037E-3  
 2.018600000000000E10   -2.668489826126447E-4   3.191410580174730E-3  
 2.018800000000000E10    2.938751776051799E-4   3.249335657506262E-3  
 2.019000000000000E10    8.216909101278879E-4   3.154193821512623E-3  
 2.019200000000000E10    1.283942235522586E-3   3.024430080944231E-3  
 2.019400000000000E10    1.760802979086653E-3   2.895210474213415E-3  
 2.019600000000000E10    2.351832134069158E-3   2.673470133159244E-3  
 2.019800000000000E10    2.933427839014879E-3   2.165784757834730E-3  
 2.020000000000000E10    3.235218435812062E-3   1.469248338233276E-3  
 2.020200000000000E10    3.238861155868682E-3   8.696968313012740E-4  
 2.020400000000000E10    3.220460168117932E-3   5.266985779184853E-4  
 2.020600000000000E10    3.407748897377254E-3   1.637740295434010E-4  
 2.020800000000000E10    3.631378496538424E-3  -3.922643696164920E-4  
 2.021000000000000E10    3.665926030087087E-3  -1.245161062374773E-3  
 2.021200000000000E10    3.267008015012116E-3  -2.100984179778906E-3  
 2.021400000000000E10    2.636233199035189E-3  -2.647520532251550E-3  
 2.021600000000000E10    1.959699967624403E-3  -2.953284388134673E-3  
 2.021800000000000E10    1.313932528732081E-3  -2.983292040960616E-3  
 2.022000000000000E10    9.141331204802147E-4  -2.855316296012865E-3  
 2.022200000000000E10    7.767316194465806E-4  -2.852401016816620E-3  
 2.022400000000000E10    5.773271253397651E-4  -3.132361286308295E-3  
 2.022600000000000E10    9.974438730395426E-5  -3.461205607167713E-3  
 2.022800000000000E10   -5.692911051441783E-4  -3.638886511249185E-3  
 2.023000000000000E10   -1.382386375765415E-3  -3.625242091620799E-3  
 2.023200000000000E10   -2.226881260647655E-3  -3.315372098702299E-3  
 2.023400000000000E10   -2.941980895066356E-3  -2.712326342449492E-3  
 2.023600000000000E10   -3.377818158190233E-3  -1.940940090280093E-3  
 2.023800000000000E10   -3.557631037541665E-3  -1.130462624931092E-3  
 2.024000000000000E10   -3.513217810413639E-3  -3.419943214521108E-4  
 2.024200000000000E10   -3.241589222938865E-3   3.086928336515248E-4  
 2.024400000000000E10   -2.883885171077891E-3   7.093685589071534E-4  
 2.024600000000000E10   -2.617217644420549E-3   9.393393912733328E-4  
 2.024800000000000E10   -2.430208098904750E-3   1.148135624238289E-3  
 2.025000000000000E10   -2.308424737238018E-3   1.383022948957735E-3  
 2.025200000000000E10   -2.200220488918887E-3   1.691979378626640E-3  
 2.025400000000000E10   -2.016853715519233E-3   2.040514583534604E-3  
 2.025600000000000E10   -1.754027077818318E-3   2.443153006490959E-3  
 2.025800000000000E10   -1.302334487014061E-3   2.828214406668220E-3  
 2.026000000000000E10   -7.042650407083098E-4   3.021966077359228E-3  
 2.026200000000000E10   -1.470970424117785E-4   3.019874324940340E-3  
 2.026400000000000E10    2.948521308938491E-4   2.967823138690474E-3  
 2.026600000000000E10    7.297344641045851E-4   2.949792803590926E-3  
 2.026800000000000E10    1.321809664969071E-3   2.860616762906477E-3  
 2.027000000000000E10    1.947336223369927E-3   2.546290787504105E-3  
 2.027200000000000E10    2.433471492171002E-3   1.985373213569109E-3  
 2.027400000000000E10    2.641371713851583E-3   1.327496243478534E-3  
 2.027600000000000E10    2.600542845495751E-3   7.492448198474914E-4  
 2.027800000000000E10    2.443152495157817E-3   3.607772492796607E-4  
 2.028000000000000E10    2.371789530476630E-3   1.235005931700554E-4  
 2.028200000000000E10    2.375691619079525E-3  -1.167939909765291E-4  
 2.028400000000000E10    2.432080255936326E-3  -4.146926782754428E-4  
 2.028600000000000E10    2.435120275187906E-3  -8.666372012579496E-4  
 2.028800000000000E10    2.245954303990728E-3  -1.344452438197662E-3  
 2.029000000000000E10    1.969640287257660E-3  -1.746712785708592E-3  
 2.029200000000000E10    1.553294485063128E-3  -2.136029516102744E-3  
 2.029400000000000E10    9.908424894771296E-4  -2.305737520288293E-3  
 2.029600000000000E10    5.047233116210008E-4  -2.249611226397226E-3  
 2.029800000000000E10    1.662138934572648E-4  -2.137830263752343E-3  
 2.030000000000000E10   -1.138649591324923E-4  -2.042855611339273E-3  
 2.030200000000000E10   -3.151537932181510E-4  -1.917251230847341E-3  
 2.030400000000000E10   -4.117607565587758E-4  -1.882019367475262E-3  
 2.030600000000000E10   -6.161490262841196E-4  -2.012008500882056E-3  
 2.030800000000000E10   -1.101997521909054E-3  -2.084148977787345E-3  
 2.031000000000000E10   -1.668004928295985E-3  -1.878205958283692E-3  
 2.031200000000000E10   -2.126752386771562E-3  -1.413336064090342E-3  
 2.031400000000000E10   -2.342058765026135E-3  -8.178061079227499E-4  
 2.031600000000000E10   -2.343443105130141E-3  -2.315287534040508E-4  
 2.031800000000000E10   -2.163564216534624E-3   2.795572163724304E-4  
 2.032000000000000E10   -1.891896446441161E-3   6.768343249490468E-4  
 2.032200000000000E10   -1.536577133862979E-3   8.991373717575368E-4  
 2.032400000000000E10   -1.219932260745511E-3   9.342805581136680E-4  
 2.032600000000000E10   -1.037529422499148E-3   9.157218263243086E-4  
 2.032800000000000E10   -9.366550439852451E-4   9.134138012253803E-4  
 2.033000000000000E10   -9.039337199056121E-4   9.547306182545155E-4  
 2.033200000000000E10   -8.530407359591076E-4   1.065166500225837E-3  
 2.033400000000000E10   -7.660802674450400E-4   1.182265569480195E-3  
 2.033600000000000E10   -8.015262700147183E-4   1.231795424066576E-3  
 2.033800000000000E10   -5.718483480200714E-4   1.513182614043366E-3  
 2.034000000000000E10   -3.380966132451795E-4   1.802152564873043E-3  
 2.034200000000000E10    8.699582395909049E-5   2.032590475871096E-3  
 2.034400000000000E10    6.557598238809621E-4   2.043018157789369E-3  
 2.034600000000000E10    1.198817415300895E-3   1.825100063270952E-3  
 2.034800000000000E10    1.630263736813913E-3   1.445389612078340E-3  
 2.035000000000000E10    1.914210775956532E-3   9.180043840944381E-4  
 2.035200000000000E10    1.957176005198213E-3   3.041444636628401E-4  
 2.035400000000000E10    1.703832997328542E-3  -2.334069122123725E-4  
 2.035600000000000E10    1.263827466998704E-3  -5.053083494750193E-4  
 2.035800000000000E10    9.192554429473691E-4  -4.676551236617744E-4  
 2.036000000000000E10    8.264991227378980E-4  -3.129467789313037E-4  
 2.036200000000000E10    9.055020580986779E-4  -2.488541102310865E-4  
 2.036400000000000E10    1.021478143558980E-3  -3.502893068224693E-4  
 2.036600000000000E10    1.083331487291021E-3  -5.147010178192786E-4  
 2.036800000000000E10    1.134356304802594E-3  -7.659069445132393E-4  
 2.037000000000000E10    1.033704636225015E-3  -1.127234529780508E-3  
 2.037200000000000E10    7.329007955772654E-4  -1.397346686003334E-3  
 2.037400000000000E10    3.958467742401356E-4  -1.482244931826999E-3  
 2.037600000000000E10    9.266457061351321E-5  -1.511271877549027E-3  
 2.037800000000000E10   -2.232191579108030E-4  -1.499701615816445E-3  
 2.038000000000000E10   -5.094997043225057E-4  -1.369954678338578E-3  
 2.038200000000000E10   -6.885301294277931E-4  -1.197789106786313E-3  
 2.038400000000000E10   -8.527488846635890E-4  -1.103018777954695E-3  
 2.038600000000000E10   -1.045867522369779E-3  -9.594248629792178E-4  
 2.038800000000000E10   -1.162712891338283E-3  -7.923769161605951E-4  
 2.039000000000000E10   -1.306412364988600E-3  -6.794148656208740E-4  
 2.039200000000000E10   -1.537950556158039E-3  -4.593275002518795E-4  
 2.039400000000000E10   -1.686979148604630E-3  -4.095664277992313E-5  
 2.039600000000000E10   -1.604733463735748E-3   4.385591321161710E-4  
 2.039800000000000E10   -1.318887486767704E-3   7.410765313658359E-4  
 2.040000000000000E10   -1.054168220025594E-3   8.202170388963438E-4  
 2.040200000000000E10   -9.460592007172515E-4   8.634344913545787E-4  
 2.040400000000000E10   -9.084828019899731E-4   9.902782451721684E-4  
 2.040600000000000E10   -8.125114356057748E-4   1.215712998358760E-3  
 2.040800000000000E10   -5.700119282166885E-4   1.437145131365467E-3  
 2.041000000000000E10   -2.262680538805759E-4   1.523316936856149E-3  
 2.041200000000000E10    5.127568908675481E-5   1.440024355826299E-3  
 2.041400000000000E10    2.333882820280844E-4   1.374547644927127E-3  
 2.041600000000000E10    4.039854129050720E-4   1.367350074587791E-3  
 2.041800000000000E10    6.127666369168695E-4   1.334714415497230E-3  
 2.042000000000000E10    8.408519126722702E-4   1.297487940227892E-3  
 2.042200000000000E10    1.144850893432865E-3   1.222617715496228E-3  
 2.042400000000000E10    1.461176918238269E-3   1.005891219307816E-3  
 2.042600000000000E10    1.689989599322617E-3   7.254505885793063E-4  
 2.042800000000000E10    1.925325901528619E-3   3.822400870692083E-4  
 2.043000000000000E10    2.028728650521298E-3  -1.660720628162620E-4  
 2.043200000000000E10    1.803873270042292E-3  -7.137979084717825E-4  
 2.043400000000000E10    1.409361817470314E-3  -1.045690169615418E-3  
 2.043600000000000E10    1.014903417388578E-3  -1.112347867723749E-3  
 2.043800000000000E10    7.533000109669982E-4  -1.048051101326130E-3  
 2.044000000000000E10    5.877165964437937E-4  -9.642831238774925E-4  
 2.044200000000000E10    5.693771190199088E-4  -8.600605379461742E-4  
 2.044400000000000E10    7.034335697430029E-4  -8.741919264588277E-4  
 2.044600000000000E10    8.442519816783333E-4  -1.109878048882022E-3  
 2.044800000000000E10    8.054343642269625E-4  -1.514224828839231E-3  
 2.045000000000000E10    5.059889918550931E-4  -1.927031580817379E-3  
 2.045200000000000E10   -2.728461621961013E-5  -2.176628831968182E-3  
 2.045400000000000E10   -6.382733538576924E-4  -2.164813183345136E-3  
 2.045600000000000E10   -1.114359537100570E-3  -1.891107288852273E-3  
 2.045800000000000E10   -1.374759387470200E-3  -1.558588695232035E-3  
 2.046000000000000E10   -1.569527319047360E-3  -1.312753291345816E-3  
 2.046200000000000E10   -1.766916346865284E-3  -1.088065912867852E-3  
 2.046400000000000E10   -2.015633849025959E-3  -8.526071966772667E-4  
 2.046600000000000E10   -2.276577259859758E-3  -4.539541315366559E-4  
 2.046800000000000E10   -2.361524157067672E-3   1.052864291150262E-4  
 2.047000000000000E10   -2.178513280477564E-3   6.335722836659423E-4  
 2.047200000000000E10   -1.884211795832528E-3   9.672680673437305E-4  
 2.047400000000000E10   -1.636988457339588E-3   1.151913994334291E-3  
 2.047600000000000E10   -1.414712223662537E-3   1.311552125081645E-3  
 2.047800000000000E10   -1.184298950234691E-3   1.422354157832649E-3  
 2.048000000000000E10   -1.018302159036404E-3   1.486244206144302E-3  
 2.048200000000000E10   -9.411320037435900E-4   1.601644535836431E-3  
 2.048400000000000E10   -8.291161608108064E-4   1.869732717311442E-3  
 2.048600000000000E10   -5.033317611128634E-4   2.137777470601582E-3  
 2.048800000000000E10   -1.120613801404271E-4   2.237276704304831E-3  
 2.049000000000000E10    2.732654206944369E-4   2.263755140895093E-3  
 2.049200000000000E10    6.486995725200062E-4   2.212361078415531E-3  
 2.049400000000000E10    9.661800092640649E-4   2.122235108506758E-3  
 2.049600000000000E10    1.279077238904055E-3   2.048590138429375E-3  
 2.049800000000000E10    1.686962372661711E-3   1.933985260418720E-3  
 2.050000000000000E10    2.095134367984918E-3   1.687471380371688E-3  
 2.050200000000000E10    2.499509697642040E-3   1.371167631135086E-3  
 2.050400000000000E10    2.921417758918900E-3   8.922219165442423E-4  
 2.050600000000000E10    3.191197816402599E-3   1.433378560517261E-4  
 2.050800000000000E10    3.075200528741926E-3  -6.712108088110476E-4  
 2.051000000000000E10    2.694829152156031E-3  -1.267109494221963E-3  
 2.051200000000000E10    2.286472313415224E-3  -1.650964464533650E-3  
 2.051400000000000E10    1.857677320195988E-3  -1.903959077275748E-3  
 2.051600000000000E10    1.454125560592702E-3  -1.996829616805265E-3  
 2.051800000000000E10    1.193760542757298E-3  -2.023403237053846E-3  
 2.052000000000000E10    1.011584888612251E-3  -2.113086186139877E-3  
 2.052200000000000E10    8.674519919357246E-4  -2.239046031315345E-3  
 2.052400000000000E10    7.100306367163071E-4  -2.527134216407159E-3  
 2.052600000000000E10    2.673833574747587E-4  -2.889467646024192E-3  
 2.052800000000000E10   -3.746676666994895E-4  -2.995393337331846E-3  
 2.053000000000000E10   -9.357765464199036E-4  -2.904467093049254E-3  
 2.053200000000000E10   -1.460909290112739E-3  -2.743067717772432E-3  
 2.053400000000000E10   -1.931417276392932E-3  -2.442632892535711E-3  
 2.053600000000000E10   -2.310144357940257E-3  -2.128803238287998E-3  
 2.053800000000000E10   -2.711072904907362E-3  -1.761085128466585E-3  
 2.054000000000000E10   -3.026247877609726E-3  -1.274796282305333E-3  
 2.054200000000000E10   -3.315394373153259E-3  -7.492282501066077E-4  
 2.054400000000000E10   -3.482385716415094E-3  -4.361906778487741E-5  
 2.054600000000000E10   -3.390941572783130E-3   6.701585727159973E-4  
 2.054800000000000E10   -3.150440599521513E-3   1.306788201235613E-3  
 2.055000000000000E10   -2.757553386135316E-3   1.844480632617814E-3  
 2.055200000000000E10   -2.247508184406881E-3   2.215950698713135E-3  
 2.055400000000000E10   -1.748813624590871E-3   2.372442616599476E-3  
 2.055600000000000E10   -1.411265046374083E-3   2.394215811928032E-3  
