#  HZ   S   RI   R     50.00 
! Rohde & Schwarz ZVA40 4Ports - Version 3.90 - 1145.1110k42 SN: 100403
! Date: 2023-10-03 10:26:42
! Measurement: S12 
! 
 2.000000000000000E10    3.083369746390316E-5  -2.650986520435523E-3  
 2.000200000000000E10   -5.250850873481897E-4  -2.530684280726645E-3  
 2.000400000000000E10   -1.038875637782945E-3  -2.225741813028301E-3  
 2.000600000000000E10   -1.330548362737453E-3  -1.775141684683385E-3  
 2.000800000000000E10   -1.366149392668848E-3  -1.406734412605012E-3  
 2.001000000000000E10   -1.337938769548028E-3  -1.280121824324683E-3  
 2.001200000000000E10   -1.534952820899586E-3  -1.340053285713549E-3  
 2.001400000000000E10   -2.015202366574495E-3  -1.187736672970156E-3  
 2.001600000000000E10   -2.413005180036028E-3  -6.267742633267687E-4  
 2.001800000000000E10   -2.487902279460320E-3   4.807034242225603E-5  
 2.002000000000000E10   -2.276265174495402E-3   6.605644938880923E-4  
 2.002200000000000E10   -1.853608047693140E-3   1.082646863155619E-3  
 2.002400000000000E10   -1.442690526514694E-3   1.209406255468450E-3  
 2.002600000000000E10   -1.198740494954917E-3   1.161123151649480E-3  
 2.002800000000000E10   -1.183704796454145E-3   1.121340604085062E-3  
 2.003000000000000E10   -1.293314448385327E-3   1.321935401022158E-3  
 2.003200000000000E10   -1.246703279860042E-3   1.781640082804693E-3  
 2.003400000000000E10   -8.641700777742598E-4   2.235535980650673E-3  
 2.003600000000000E10   -2.958584949805367E-4   2.494810899305675E-3  
 2.003800000000000E10    2.947116218921212E-4   2.523786431454398E-3  
 2.004000000000000E10    8.344891183595692E-4   2.432585780129389E-3  
 2.004200000000000E10    1.378417980891687E-3   2.234967209881655E-3  
 2.004400000000000E10    1.881591833403541E-3   1.866765751468915E-3  
 2.004600000000000E10    2.238066685903404E-3   1.336118171888369E-3  
 2.004800000000000E10    2.387228611580752E-3   7.415875464815786E-4  
 2.005000000000000E10    2.344512277179294E-3   2.242736884875706E-4  
 2.005200000000000E10    2.215476051248886E-3  -1.914758602786740E-4  
 2.005400000000000E10    2.084186636946268E-3  -5.077424068952463E-4  
 2.005600000000000E10    1.972965326988035E-3  -8.657106685590137E-4  
 2.005800000000000E10    1.681809960347083E-3  -1.210195137429293E-3  
 2.006000000000000E10    1.368810806457919E-3  -1.360192644858250E-3  
 2.006200000000000E10    1.153465912297920E-3  -1.466893414207907E-3  
 2.006400000000000E10    9.568640983801473E-4  -1.565498601714218E-3  
 2.006600000000000E10    7.671136603069803E-4  -1.657595379381544E-3  
 2.006800000000000E10    6.059930181234248E-4  -1.767812085475911E-3  
 2.007000000000000E10    4.157260280205972E-4  -1.938881059349687E-3  
 2.007200000000000E10    1.416638018849039E-4  -2.114521115328427E-3  
 2.007400000000000E10   -2.417421341373551E-4  -2.320825510347883E-3  
 2.007600000000000E10   -8.616307685669099E-4  -2.381892633382921E-3  
 2.007800000000000E10   -1.453019247424824E-3  -2.072980670534351E-3  
 2.008000000000000E10   -1.798971689789108E-3  -1.643788910263943E-3  
 2.008200000000000E10   -2.005451195010985E-3  -1.239248904985962E-3  
 2.008400000000000E10   -2.105265916152685E-3  -8.732930636378352E-4  
 2.008600000000000E10   -2.168841082257806E-3  -5.606568517611811E-4  
 2.008800000000000E10   -2.280957160379600E-3  -2.494478518470984E-4  
 2.009000000000000E10   -2.340622306628912E-3   1.392648364007646E-4  
 2.009200000000000E10   -2.321075829159883E-3   5.621960369387159E-4  
 2.009400000000000E10   -2.234292242469059E-3   9.832876277397630E-4  
 2.009600000000000E10   -2.053007552469219E-3   1.425501463624338E-3  
 2.009800000000000E10   -1.696061067007206E-3   1.833736555892285E-3  
 2.010000000000000E10   -1.251529837544594E-3   2.051735477935937E-3  
 2.010200000000000E10   -8.372552908474098E-4   2.114360695014949E-3  
 2.010400000000000E10   -5.260584983733242E-4   2.069076229990633E-3  
 2.010600000000000E10   -3.557894465134100E-4   2.063249824223695E-3  
 2.010800000000000E10   -1.868351860644503E-4   2.182172016344137E-3  
 2.011000000000000E10    1.132963615991348E-4   2.358448294991697E-3  
 2.011200000000000E10    5.666018847410603E-4   2.449414503105261E-3  
 2.011400000000000E10    1.044211378838453E-3   2.423133407891901E-3  
 2.011600000000000E10    1.570705285606285E-3   2.293419006660029E-3  
 2.011800000000000E10    2.133601233018218E-3   1.906633963463483E-3  
 2.012000000000000E10    2.450720889976731E-3   1.338434992013154E-3  
 2.012200000000000E10    2.524420386180282E-3   8.071588494607973E-4  
 2.012400000000000E10    2.505651795891700E-3   4.144078778120241E-4  
 2.012600000000000E10    2.551698531196626E-3   9.222929286436369E-5  
 2.012800000000000E10    2.593737690606051E-3  -3.571110762466022E-4  
 2.013000000000000E10    2.425090866853242E-3  -8.714784225621435E-4  
 2.013200000000000E10    2.134212447951238E-3  -1.202686918313029E-3  
 2.013400000000000E10    1.889168720312969E-3  -1.460456836934167E-3  
 2.013600000000000E10    1.589823315885884E-3  -1.695989402597425E-3  
 2.013800000000000E10    1.240158052597609E-3  -1.825489414234957E-3  
 2.014000000000000E10    9.714468830713522E-4  -1.802788452348776E-3  
 2.014200000000000E10    8.840090034667543E-4  -1.754631973906524E-3  
 2.014400000000000E10    9.262211021484326E-4  -1.900834643661424E-3  
 2.014600000000000E10    8.727234391564574E-4  -2.271847402745927E-3  
 2.014800000000000E10    5.573504582840812E-4  -2.705051029032028E-3  
 2.015000000000000E10   -1.521350623079342E-5  -3.030291085855829E-3  
 2.015200000000000E10   -7.211146423489684E-4  -3.128706175764954E-3  
 2.015400000000000E10   -1.448541435551036E-3  -3.011469392933779E-3  
 2.015600000000000E10   -2.146398984930582E-3  -2.634486821652563E-3  
 2.015800000000000E10   -2.625111499111410E-3  -2.055724798184303E-3  
 2.016000000000000E10   -2.863256545323465E-3  -1.446109140050356E-3  
 2.016200000000000E10   -2.960628985116880E-3  -8.896121893216063E-4  
 2.016400000000000E10   -2.960580797797000E-3  -4.217785263554780E-4  
 2.016600000000000E10   -2.954513602027739E-3  -1.929543267814788E-5  
 2.016800000000000E10   -2.940089338355595E-3   4.096475000820916E-4  
 2.017000000000000E10   -2.853631723189244E-3   8.730202335519372E-4  
 2.017200000000000E10   -2.643700275156233E-3   1.334185664611006E-3  
 2.017400000000000E10   -2.325084345001314E-3   1.642440031800006E-3  
 2.017600000000000E10   -2.132409967964998E-3   1.838934198194356E-3  
 2.017800000000000E10   -2.005823327366401E-3   2.180694395469295E-3  
 2.018000000000000E10   -1.712643933758416E-3   2.574114534245046E-3  
 2.018200000000000E10   -1.314179760541905E-3   2.906465652847180E-3  
 2.018400000000000E10   -8.404658098394673E-4   3.192676843523428E-3  
 2.018600000000000E10   -2.982662236145525E-4   3.405768432895895E-3  
 2.018800000000000E10    3.735853113337524E-4   3.482661322104159E-3  
 2.019000000000000E10    1.043642599446078E-3   3.330133208591077E-3  
 2.019200000000000E10    1.588831974745349E-3   3.052833093399252E-3  
 2.019400000000000E10    2.047477751383903E-3   2.717143916352480E-3  
 2.019600000000000E10    2.462470705655438E-3   2.361535258522189E-3  
 2.019800000000000E10    2.837269506589682E-3   1.882589413542991E-3  
 2.020000000000000E10    3.045905829855690E-3   1.344472575173886E-3  
 2.020200000000000E10    3.115164719659974E-3   8.528965796964865E-4  
 2.020400000000000E10    3.180210849408199E-3   5.011057170728843E-4  
 2.020600000000000E10    3.368536398435633E-3   1.051101066372616E-4  
 2.020800000000000E10    3.551494813075773E-3  -4.754853154601599E-4  
 2.021000000000000E10    3.541914246010560E-3  -1.296337616319458E-3  
 2.021200000000000E10    3.106380338539128E-3  -2.088865791274994E-3  
 2.021400000000000E10    2.475709473300312E-3  -2.559532557993576E-3  
 2.021600000000000E10    1.845749371029713E-3  -2.775421185005043E-3  
 2.021800000000000E10    1.321427282635813E-3  -2.774632570368273E-3  
 2.022000000000000E10    1.044904162106967E-3  -2.692408557912266E-3  
 2.022200000000000E10    9.457742950568597E-4  -2.824184381299549E-3  
 2.022400000000000E10    6.774867457958560E-4  -3.216092000473981E-3  
 2.022600000000000E10    9.978285029151099E-5  -3.559835910521173E-3  
 2.022800000000000E10   -6.631909658339013E-4  -3.692798333725444E-3  
 2.023000000000000E10   -1.512751483392937E-3  -3.574491806190323E-3  
 2.023200000000000E10   -2.288288755894259E-3  -3.167028581999519E-3  
 2.023400000000000E10   -2.870533787817867E-3  -2.542961544046800E-3  
 2.023600000000000E10   -3.209386797000965E-3  -1.868508488836664E-3  
 2.023800000000000E10   -3.392816995512005E-3  -1.185647569838222E-3  
 2.024000000000000E10   -3.438779722071357E-3  -4.787166275221993E-4  
 2.024200000000000E10   -3.285043001933783E-3   2.023500106857952E-4  
 2.024400000000000E10   -2.963246950120838E-3   7.032262381269701E-4  
 2.024600000000000E10   -2.643666462972760E-3   1.017534842335240E-3  
 2.024800000000000E10   -2.386567217332346E-3   1.247842597809655E-3  
 2.025000000000000E10   -2.149642272679895E-3   1.439459522737673E-3  
 2.025200000000000E10   -1.984294460810446E-3   1.605466435042521E-3  
 2.025400000000000E10   -1.883177604112361E-3   1.832646753259555E-3  
 2.025600000000000E10   -1.727022316858725E-3   2.186665173482012E-3  
 2.025800000000000E10   -1.407510803632990E-3   2.565851555792270E-3  
 2.026000000000000E10   -9.450653645520409E-4   2.865012036636472E-3  
 2.026200000000000E10   -4.004762805480924E-4   3.047365712484828E-3  
 2.026400000000000E10    1.783720726962202E-4   3.091168615760075E-3  
 2.026600000000000E10    7.512646865237644E-4   3.053588835798481E-3  
 2.026800000000000E10    1.417920834177898E-3   2.858199075692230E-3  
 2.027000000000000E10    1.991435980286312E-3   2.399230496612964E-3  
 2.027200000000000E10    2.330682093829469E-3   1.801575775499697E-3  
 2.027400000000000E10    2.419263176206086E-3   1.224158288635038E-3  
 2.027600000000000E10    2.339734859695590E-3   7.709972819106447E-4  
 2.027800000000000E10    2.206427131400064E-3   5.185660600006857E-4  
 2.028000000000000E10    2.221710402173577E-3   3.899026810864194E-4  
 2.028200000000000E10    2.391267973170789E-3   1.923291533279957E-4  
 2.028400000000000E10    2.582771393160026E-3  -2.225482770612602E-4  
 2.028600000000000E10    2.581638387507863E-3  -8.158680888030817E-4  
 2.028800000000000E10    2.327987346453248E-3  -1.357195816968602E-3  
 2.029000000000000E10    1.954325121241035E-3  -1.759201020899195E-3  
 2.029200000000000E10    1.509637817636960E-3  -2.039559858126773E-3  
 2.029400000000000E10    1.027126305012240E-3  -2.149658191397235E-3  
 2.029600000000000E10    6.327850774309979E-4  -2.110326326348716E-3  
 2.029800000000000E10    3.586671675158734E-4  -2.061968686542025E-3  
 2.030000000000000E10    9.702465669963407E-5  -2.041195493398441E-3  
 2.030200000000000E10   -1.083339025003456E-4  -1.973750983813295E-3  
 2.030400000000000E10   -2.586385849604590E-4  -2.016128377161093E-3  
 2.030600000000000E10   -5.602581616215133E-4  -2.161011772437228E-3  
 2.030800000000000E10   -1.098200234722484E-3  -2.157645851925568E-3  
 2.031000000000000E10   -1.617513109791886E-3  -1.889318684805875E-3  
 2.031200000000000E10   -2.016841890980249E-3  -1.453186049022608E-3  
 2.031400000000000E10   -2.233577124705470E-3  -9.107198911132637E-4  
 2.031600000000000E10   -2.266907098668594E-3  -3.652009515833386E-4  
 2.031800000000000E10   -2.134019862515507E-3   7.495936033255595E-5  
 2.032000000000000E10   -1.956024526238994E-3   4.556322140463939E-4  
 2.032200000000000E10   -1.667035683230670E-3   7.504150659466784E-4  
 2.032400000000000E10   -1.359041374935596E-3   8.550567349798427E-4  
 2.032600000000000E10   -1.175345365751397E-3   8.856097572586604E-4  
 2.032800000000000E10   -1.048024144472072E-3   9.389322302821611E-4  
 2.033000000000000E10   -9.462227398115729E-4   9.935417954154591E-4  
 2.033200000000000E10   -8.413195545371209E-4   1.040352111751283E-3  
 2.033400000000000E10   -7.999321118135143E-4   1.071299055453252E-3  
 2.033600000000000E10   -9.625907663980294E-4   1.105000131280610E-3  
 2.033800000000000E10   -8.283672871551031E-4   1.529418031202147E-3  
 2.034000000000000E10   -5.457307992468555E-4   1.918133494823619E-3  
 2.034200000000000E10   -4.296335100661964E-5   2.174795605242252E-3  
 2.034400000000000E10    5.855663394969371E-4   2.193030366605079E-3  
 2.034600000000000E10    1.169485096060844E-3   1.938595065709066E-3  
 2.034800000000000E10    1.601020382993199E-3   1.535461012584468E-3  
 2.035000000000000E10    1.873455243185163E-3   1.004707197555237E-3  
 2.035200000000000E10    1.891887194856450E-3   4.206370116056254E-4  
 2.035400000000000E10    1.681653696491763E-3  -5.175823052586230E-5  
 2.035600000000000E10    1.344647922518629E-3  -2.987739614952632E-4  
 2.035800000000000E10    1.079430833838328E-3  -2.983833859346945E-4  
 2.036000000000000E10    9.961637228520382E-4  -2.056280963760973E-4  
 2.036200000000000E10    1.075959134915913E-3  -1.695192205025470E-4  
 2.036400000000000E10    1.211425742237932E-3  -3.058830776286346E-4  
 2.036600000000000E10    1.271611463313026E-3  -5.357140886459362E-4  
 2.036800000000000E10    1.271938430835252E-3  -8.309554455249951E-4  
 2.037000000000000E10    1.112915045167837E-3  -1.165864420019918E-3  
 2.037200000000000E10    8.152640463473897E-4  -1.380892095362975E-3  
 2.037400000000000E10    5.482973431719952E-4  -1.470477492720993E-3  
 2.037600000000000E10    3.212116223747015E-4  -1.572156152515500E-3  
 2.037800000000000E10    3.416135937354910E-5  -1.665855762203811E-3  
 2.038000000000000E10   -2.895067693855337E-4  -1.680353501190742E-3  
 2.038200000000000E10   -6.147257259322538E-4  -1.593072644296896E-3  
 2.038400000000000E10   -9.189616819774665E-4  -1.464035857848271E-3  
 2.038600000000000E10   -1.195665867136860E-3  -1.248379350053492E-3  
 2.038800000000000E10   -1.349637539263953E-3  -1.018298876092390E-3  
 2.039000000000000E10   -1.536884021738337E-3  -8.604192515593713E-4  
 2.039200000000000E10   -1.820725759629299E-3  -5.532537934077146E-4  
 2.039400000000000E10   -1.971935154870153E-3  -5.671251892636066E-5  
 2.039600000000000E10   -1.888841532895135E-3   4.555163236714348E-4  
 2.039800000000000E10   -1.630093471181614E-3   8.236974158703731E-4  
 2.040000000000000E10   -1.351619592039950E-3   1.020335833783503E-3  
 2.040200000000000E10   -1.146221736066596E-3   1.156486463043149E-3  
 2.040400000000000E10   -9.730239441894271E-4   1.330367707716370E-3  
 2.040600000000000E10   -7.265097509069300E-4   1.534809160080773E-3  
 2.040800000000000E10   -3.622831535284167E-4   1.649720624468669E-3  
 2.041000000000000E10    1.502650357670737E-5   1.595977305745085E-3  
 2.041200000000000E10    2.645955806925755E-4   1.411034738541477E-3  
 2.041400000000000E10    3.299533305430992E-4   1.279249666603627E-3  
 2.041600000000000E10    3.673704060794855E-4   1.302769442123396E-3  
 2.041800000000000E10    5.244411575538969E-4   1.418943409118112E-3  
 2.042000000000000E10    8.381918866049362E-4   1.490191612565131E-3  
 2.042200000000000E10    1.258503843995708E-3   1.406768759436630E-3  
 2.042400000000000E10    1.649646442038594E-3   1.137713776659911E-3  
 2.042600000000000E10    1.933600891519476E-3   7.664336266720462E-4  
 2.042800000000000E10    2.138348235921176E-3   2.718961024786243E-4  
 2.043000000000000E10    2.108058305802169E-3  -3.480244647814996E-4  
 2.043200000000000E10    1.805879123922851E-3  -8.037380326573773E-4  
 2.043400000000000E10    1.449117178304328E-3  -1.039629366628274E-3  
 2.043600000000000E10    1.171339273073331E-3  -1.101254291522006E-3  
 2.043800000000000E10    1.005740014887932E-3  -1.131648318497119E-3  
 2.044000000000000E10    8.367909079728029E-4  -1.202294775457294E-3  
 2.044200000000000E10    6.811380670923326E-4  -1.215781762126696E-3  
 2.044400000000000E10    6.568830059323874E-4  -1.219626270338065E-3  
 2.044600000000000E10    6.851988512574249E-4  -1.393042056372872E-3  
 2.044800000000000E10    5.641203671176401E-4  -1.712249673868495E-3  
 2.045000000000000E10    2.264680289145973E-4  -2.009721321950633E-3  
 2.045200000000000E10   -2.608305744447366E-4  -2.172742082082011E-3  
 2.045400000000000E10   -8.150791615696143E-4  -2.142422134056687E-3  
 2.045600000000000E10   -1.277526646542053E-3  -1.888083285410647E-3  
 2.045800000000000E10   -1.557049651940664E-3  -1.569965095431717E-3  
 2.046000000000000E10   -1.818038122211066E-3  -1.283661880599404E-3  
 2.046200000000000E10   -2.057100025316080E-3  -9.592056179557135E-4  
 2.046400000000000E10   -2.266905839658446E-3  -5.746587628015766E-4  
 2.046600000000000E10   -2.363639676736461E-3  -3.994146485368860E-5  
 2.046800000000000E10   -2.199608642883875E-3   5.015062623122639E-4  
 2.047000000000000E10   -1.878640558398157E-3   8.384647921452093E-4  
 2.047200000000000E10   -1.627786585164291E-3   9.755101572308277E-4  
 2.047400000000000E10   -1.499215960157691E-3   1.084645421037244E-3  
 2.047600000000000E10   -1.384273667267903E-3   1.246270460628525E-3  
 2.047800000000000E10   -1.218857549786292E-3   1.408329250773898E-3  
 2.048000000000000E10   -1.055585617130553E-3   1.557339909831407E-3  
 2.048200000000000E10   -9.250867361616758E-4   1.706514145351119E-3  
 2.048400000000000E10   -7.494750122229259E-4   1.944318129163650E-3  
 2.048600000000000E10   -4.049831725381040E-4   2.145162352395279E-3  
 2.048800000000000E10   -2.609616651035915E-5   2.201561816036701E-3  
 2.049000000000000E10    3.087539630036594E-4   2.179635680039172E-3  
 2.049200000000000E10    6.147235399112105E-4   2.166495123809135E-3  
 2.049400000000000E10    9.216575223642092E-4   2.155653839172037E-3  
 2.049600000000000E10    1.284855767153204E-3   2.120024852316689E-3  
 2.049800000000000E10    1.738264854928410E-3   1.985683744014414E-3  
 2.050000000000000E10    2.180449897423387E-3   1.712420662106188E-3  
 2.050200000000000E10    2.586041275342858E-3   1.347611123626983E-3  
 2.050400000000000E10    2.942614110738592E-3   8.332680186463727E-4  
 2.050600000000000E10    3.134281141683459E-3   1.348340043073727E-4  
 2.050800000000000E10    3.031172875866846E-3  -5.757553045879361E-4  
 2.051000000000000E10    2.760198984847025E-3  -1.127887273603981E-3  
 2.051200000000000E10    2.455739054345975E-3  -1.561569666524452E-3  
 2.051400000000000E10    2.079087999407892E-3  -1.920265003314449E-3  
 2.051600000000000E10    1.645007968397329E-3  -2.117297086105855E-3  
 2.051800000000000E10    1.297896809841472E-3  -2.203575387183163E-3  
 2.052000000000000E10    1.040043981952800E-3  -2.303978514478163E-3  
 2.052200000000000E10    8.161473087966443E-4  -2.431145317300603E-3  
 2.052400000000000E10    5.727619238853179E-4  -2.628198316044830E-3  
 2.052600000000000E10    1.485068421095127E-4  -2.842922237943168E-3  
 2.052800000000000E10   -3.656747031965535E-4  -2.893555926641932E-3  
 2.053000000000000E10   -8.255528260229363E-4  -2.865028998780030E-3  
 2.053200000000000E10   -1.337726221040443E-3  -2.808473038452644E-3  
 2.053400000000000E10   -1.861868266671621E-3  -2.614627971693322E-3  
 2.053600000000000E10   -2.377448111979498E-3  -2.312418401103329E-3  
 2.053800000000000E10   -2.875104072262292E-3  -1.838328584131820E-3  
 2.054000000000000E10   -3.192350992725955E-3  -1.225699196328168E-3  
 2.054200000000000E10   -3.368559957447428E-3  -6.272813943387183E-4  
 2.054400000000000E10   -3.417289108727818E-3   3.392276832730407E-5  
 2.054600000000000E10   -3.296141762769333E-3   6.605968573475602E-4  
 2.054800000000000E10   -3.071517442111617E-3   1.234447169635031E-3  
 2.055000000000000E10   -2.711761406519347E-3   1.746517537092721E-3  
 2.055200000000000E10   -2.255784201056317E-3   2.097300391782213E-3  
 2.055400000000000E10   -1.820454662838192E-3   2.248387818259222E-3  
 2.055600000000000E10   -1.522661803324742E-3   2.318540475917636E-3  
