#  HZ   S   RI   R     50.00 
! Rohde & Schwarz ZVA40 4Ports - Version 3.90 - 1145.1110k42 SN: 100403
! Date: 2023-10-03 10:27:26
! Measurement: S12 
! 
 2.000000000000000E10   -1.005253737309465E-3  -3.780291292149528E-3  
 2.000200000000000E10   -1.735791846163142E-3  -3.509336799850742E-3  
 2.000400000000000E10   -2.429401790416597E-3  -3.002441286994719E-3  
 2.000600000000000E10   -2.853322711892028E-3  -2.291547874211039E-3  
 2.000800000000000E10   -2.952758114547335E-3  -1.638081283097773E-3  
 2.001000000000000E10   -2.913574600944855E-3  -1.225132486541514E-3  
 2.001200000000000E10   -3.033131569884565E-3  -1.019391984824444E-3  
 2.001400000000000E10   -3.409954728826943E-3  -6.713261633800964E-4  
 2.001600000000000E10   -3.714195843556046E-3   5.460923803708404E-5  
 2.001800000000000E10   -3.688492314936019E-3   8.897057752634704E-4  
 2.002000000000000E10   -3.383413849229860E-3   1.669449501751382E-3  
 2.002200000000000E10   -2.840293675791396E-3   2.310262149805395E-3  
 2.002400000000000E10   -2.227661812126085E-3   2.672227442555835E-3  
 2.002600000000000E10   -1.685045131600995E-3   2.800163987318798E-3  
 2.002800000000000E10   -1.332898528905348E-3   2.841703784402936E-3  
 2.003000000000000E10   -1.097729101915051E-3   3.025645116121804E-3  
 2.003200000000000E10   -7.393955238213295E-4   3.395270810121433E-3  
 2.003400000000000E10   -8.784433489774619E-5   3.727270045927094E-3  
 2.003600000000000E10    7.332786864988170E-4   3.786056065824604E-3  
 2.003800000000000E10    1.486039356857447E-3   3.579605088105480E-3  
 2.004000000000000E10    2.129183550376767E-3   3.273622081097630E-3  
 2.004200000000000E10    2.762211709946333E-3   2.880886781562135E-3  
 2.004400000000000E10    3.348068243137910E-3   2.324810720129330E-3  
 2.004600000000000E10    3.797641219456256E-3   1.573255142856221E-3  
 2.004800000000000E10    3.987310285614843E-3   7.120517588895076E-4  
 2.005000000000000E10    3.926881196153631E-3  -8.077433947754025E-5  
 2.005200000000000E10    3.728435594212924E-3  -7.686590897532587E-4  
 2.005400000000000E10    3.459633039617183E-3  -1.319237665173602E-3  
 2.005600000000000E10    3.187130037656845E-3  -1.873769382026369E-3  
 2.005800000000000E10    2.731497469453962E-3  -2.390460540452367E-3  
 2.006000000000000E10    2.214063091180575E-3  -2.686117637764525E-3  
 2.006200000000000E10    1.792902861809964E-3  -2.923824297409857E-3  
 2.006400000000000E10    1.369166371427906E-3  -3.127432069951983E-3  
 2.006600000000000E10    9.100515641647664E-4  -3.303290061162088E-3  
 2.006800000000000E10    4.721101013648443E-4  -3.431986133019927E-3  
 2.007000000000000E10   -4.943049859616718E-6  -3.614544869427390E-3  
 2.007200000000000E10   -6.222773701193985E-4  -3.720326460284707E-3  
 2.007400000000000E10   -1.320577204062646E-3  -3.731448371959813E-3  
 2.007600000000000E10   -2.166937811514785E-3  -3.538456022041877E-3  
 2.007800000000000E10   -2.902781002514770E-3  -2.955215686066038E-3  
 2.008000000000000E10   -3.318403530367670E-3  -2.271236209850376E-3  
 2.008200000000000E10   -3.586638753336890E-3  -1.643698350641371E-3  
 2.008400000000000E10   -3.745930267444241E-3  -1.064586737231494E-3  
 2.008600000000000E10   -3.871295731438041E-3  -5.102701578097641E-4  
 2.008800000000000E10   -4.007734045953540E-3   1.149792547394961E-4  
 2.009000000000000E10   -4.012037451865742E-3   8.381393993438181E-4  
 2.009200000000000E10   -3.825994639622945E-3   1.553653618665757E-3  
 2.009400000000000E10   -3.531327082127824E-3   2.234816608697544E-3  
 2.009600000000000E10   -3.108110072842413E-3   2.878989103545317E-3  
 2.009800000000000E10   -2.471745029521087E-3   3.449448293320253E-3  
 2.010000000000000E10   -1.696056902883843E-3   3.772054696378946E-3  
 2.010200000000000E10   -9.611514634107827E-4   3.847460153248208E-3  
 2.010400000000000E10   -3.702991874169927E-4   3.759571287872983E-3  
 2.010600000000000E10    3.164421011268042E-5   3.671734439546374E-3  
 2.010800000000000E10    4.203264397202988E-4   3.736019733365733E-3  
 2.011000000000000E10    9.476167059775612E-4   3.851802048077922E-3  
 2.011200000000000E10    1.665733387184027E-3   3.821625355094549E-3  
 2.011400000000000E10    2.408192438406893E-3   3.577261627555937E-3  
 2.011600000000000E10    3.113467929455540E-3   3.187608859145348E-3  
 2.011800000000000E10    3.790625893231099E-3   2.520809631311783E-3  
 2.012000000000000E10    4.182942324689755E-3   1.657114740280979E-3  
 2.012200000000000E10    4.281985584968402E-3   8.431496304640003E-4  
 2.012400000000000E10    4.252313124590819E-3   1.649814402380349E-4  
 2.012600000000000E10    4.254262104875757E-3  -4.289482391790062E-4  
 2.012800000000000E10    4.227823135155587E-3  -1.180198149939562E-3  
 2.013000000000000E10    3.924359366251731E-3  -1.977473395347687E-3  
 2.013200000000000E10    3.440722720620871E-3  -2.570215815777887E-3  
 2.013400000000000E10    2.940985293667994E-3  -3.074300203303742E-3  
 2.013600000000000E10    2.327595408162708E-3  -3.491141778750369E-3  
 2.013800000000000E10    1.630601678675984E-3  -3.709086304177902E-3  
 2.014000000000000E10    9.896109755430757E-4  -3.699733633279740E-3  
 2.014200000000000E10    5.861408733034608E-4  -3.602793406687463E-3  
 2.014400000000000E10    3.463599186269912E-4  -3.645278642781907E-3  
 2.014600000000000E10    6.010872465343961E-6  -3.893704532066920E-3  
 2.014800000000000E10   -5.636022928259011E-4  -4.183803696507289E-3  
 2.015000000000000E10   -1.375598578575861E-3  -4.327943615630699E-3  
 2.015200000000000E10   -2.285972192553888E-3  -4.187117085443358E-3  
 2.015400000000000E10   -3.171628754041752E-3  -3.805653490087808E-3  
 2.015600000000000E10   -3.988229230797463E-3  -3.130343586490049E-3  
 2.015800000000000E10   -4.547743739966503E-3  -2.244640297904121E-3  
 2.016000000000000E10   -4.820681853534141E-3  -1.288741747005517E-3  
 2.016200000000000E10   -4.876170661913638E-3  -3.883802892981335E-4  
 2.016400000000000E10   -4.795652611081494E-3   4.123825159013932E-4  
 2.016600000000000E10   -4.638877731782419E-3   1.172362512970198E-3  
 2.016800000000000E10   -4.381259943554063E-3   1.925406551157190E-3  
 2.017000000000000E10   -3.988931390529676E-3   2.633766346867867E-3  
 2.017200000000000E10   -3.435452637327797E-3   3.273490270208798E-3  
 2.017400000000000E10   -2.735670862926377E-3   3.678544595983233E-3  
 2.017600000000000E10   -2.185029560247812E-3   3.881334471842083E-3  
 2.017800000000000E10   -1.720395081948658E-3   4.179445492034710E-3  
 2.018000000000000E10   -1.096443273127079E-3   4.504524508621467E-3  
 2.018200000000000E10   -3.845686481742442E-4   4.720783504990884E-3  
 2.018400000000000E10    4.092888327395935E-4   4.844480882103675E-3  
 2.018600000000000E10    1.270621615450508E-3   4.823738962043952E-3  
 2.018800000000000E10    2.211707905739730E-3   4.571878312945122E-3  
 2.019000000000000E10    3.040776436634883E-3   4.047349557173228E-3  
 2.019200000000000E10    3.643255063750372E-3   3.401875471956875E-3  
 2.019400000000000E10    4.104448164288154E-3   2.715487846598765E-3  
 2.019600000000000E10    4.501839369581438E-3   2.010154351017174E-3  
 2.019800000000000E10    4.780409819304699E-3   1.175495465822641E-3  
 2.020000000000000E10    4.828536963481227E-3   2.976615370419873E-4  
 2.020200000000000E10    4.669370551290826E-3  -4.670584219586443E-4  
 2.020400000000000E10    4.499176103207801E-3  -1.058764463968943E-3  
 2.020600000000000E10    4.421636839723023E-3  -1.689711900393444E-3  
 2.020800000000000E10    4.272149266376172E-3  -2.454050691077800E-3  
 2.021000000000000E10    3.877597346464977E-3  -3.398515790923204E-3  
 2.021200000000000E10    3.029037449976484E-3  -4.231634662858376E-3  
 2.021400000000000E10    1.975318238737039E-3  -4.631881659597527E-3  
 2.021600000000000E10    9.715982071802388E-4  -4.671471942706732E-3  
 2.021800000000000E10    1.257782585922736E-4  -4.437423638861489E-3  
 2.022000000000000E10   -3.975481342250260E-4  -4.077481036936797E-3  
 2.022200000000000E10   -6.780482442003250E-4  -3.894914920851895E-3  
 2.022400000000000E10   -1.061509768651040E-3  -3.972312688459586E-3  
 2.022600000000000E10   -1.690009643837289E-3  -4.032916071299663E-3  
 2.022800000000000E10   -2.475454752743551E-3  -3.881190190620629E-3  
 2.023000000000000E10   -3.305027435759827E-3  -3.510577517941043E-3  
 2.023200000000000E10   -4.078020370438879E-3  -2.841459135927352E-3  
 2.023400000000000E10   -4.640359864589364E-3  -1.904805909474323E-3  
 2.023600000000000E10   -4.851102530036444E-3  -8.824299740674044E-4  
 2.023800000000000E10   -4.821752435661884E-3   8.020083420098390E-5  
 2.024000000000000E10   -4.611517402339621E-3   9.980481793460103E-4  
 2.024200000000000E10   -4.198305385470882E-3   1.856013921227445E-3  
 2.024400000000000E10   -3.593129891549610E-3   2.502608284499849E-3  
 2.024600000000000E10   -2.950399909015179E-3   2.908674250797603E-3  
 2.024800000000000E10   -2.348639232915187E-3   3.196858514460578E-3  
 2.025000000000000E10   -1.741606905987417E-3   3.366400176321958E-3  
 2.025200000000000E10   -1.214841229806620E-3   3.413373719394943E-3  
 2.025400000000000E10   -7.984436283830877E-4   3.422761583171878E-3  
 2.025600000000000E10   -3.968858334461971E-4   3.515635179202437E-3  
 2.025800000000000E10    1.033899321937273E-4   3.627753653659375E-3  
 2.026000000000000E10    6.990775326075256E-4   3.624249897406671E-3  
 2.026200000000000E10    1.313146127583344E-3   3.502740089708764E-3  
 2.026400000000000E10    1.892518884992925E-3   3.279600640252969E-3  
 2.026600000000000E10    2.457172721011158E-3   2.992173081930773E-3  
 2.026800000000000E10    3.101666495318950E-3   2.555990349233090E-3  
 2.027000000000000E10    3.653611049799579E-3   1.834073701371351E-3  
 2.027200000000000E10    3.903615675529335E-3   9.265307786418395E-4  
 2.027400000000000E10    3.805407929452665E-3   4.352873450297471E-5  
 2.027600000000000E10    3.476341963082614E-3  -6.434361739256593E-4  
 2.027800000000000E10    3.057474217764697E-3  -1.072254234545485E-3  
 2.028000000000000E10    2.761539450267890E-3  -1.322599720984023E-3  
 2.028200000000000E10    2.616557108675257E-3  -1.589849130384655E-3  
 2.028400000000000E10    2.493270347086491E-3  -1.998563242478320E-3  
 2.028600000000000E10    2.167852225602287E-3  -2.553635154210737E-3  
 2.028800000000000E10    1.591237430525905E-3  -2.987116503379780E-3  
 2.029000000000000E10    9.324254382807963E-4  -3.185908961657880E-3  
 2.029200000000000E10    2.845949120867477E-4  -3.242863755128942E-3  
 2.029400000000000E10   -3.657203052459293E-4  -3.113201832774368E-3  
 2.029600000000000E10   -8.768214462823217E-4  -2.808208779504700E-3  
 2.029800000000000E10   -1.234656252990259E-3  -2.468959604669746E-3  
 2.030000000000000E10   -1.503992243669927E-3  -2.152440340331001E-3  
 2.030200000000000E10   -1.668684089694311E-3  -1.817411557702279E-3  
 2.030400000000000E10   -1.746354907762582E-3  -1.618189011880584E-3  
 2.030600000000000E10   -1.948739242943104E-3  -1.564334269800826E-3  
 2.030800000000000E10   -2.381617995745545E-3  -1.378218206450527E-3  
 2.031000000000000E10   -2.770292344637246E-3  -9.178631206487648E-4  
 2.031200000000000E10   -3.010723348936917E-3  -2.919551824198446E-4  
 2.031400000000000E10   -3.020016691137734E-3   4.067190899082495E-4  
 2.031600000000000E10   -2.804385678298434E-3   1.063750879532455E-3  
 2.031800000000000E10   -2.399929128433942E-3   1.574455995166314E-3  
 2.032000000000000E10   -1.959080498381959E-3   1.960611379985150E-3  
 2.032200000000000E10   -1.439829270255756E-3   2.228226349784882E-3  
 2.032400000000000E10   -8.828983380585727E-4   2.289802245144185E-3  
 2.032600000000000E10   -4.376822964234639E-4   2.208349256634467E-3  
 2.032800000000000E10   -1.090538242224359E-4   2.092399038451077E-3  
 2.033000000000000E10    1.641696090465067E-4   1.969285236495268E-3  
 2.033200000000000E10    4.250358877830024E-4   1.830638188930083E-3  
 2.033400000000000E10    5.806519675313845E-4   1.608829152456067E-3  
 2.033600000000000E10    4.319553447929461E-4   1.517411193967541E-3  
 2.033800000000000E10    6.046576713836550E-4   1.549231905562980E-3  
 2.034000000000000E10    8.570711557665236E-4   1.712351555000884E-3  
 2.034200000000000E10    1.293168567052042E-3   1.743752502648490E-3  
 2.034400000000000E10    1.827351865358651E-3   1.552002121207646E-3  
 2.034600000000000E10    2.272495168257398E-3   1.115474920842506E-3  
 2.034800000000000E10    2.549788157681747E-3   5.549132196834396E-4  
 2.035000000000000E10    2.668390302524094E-3  -1.387942705491229E-4  
 2.035200000000000E10    2.476700604605822E-3  -8.642623659008695E-4  
 2.035400000000000E10    2.001433343906339E-3  -1.401711528864019E-3  
 2.035600000000000E10    1.397307684794528E-3  -1.646247888348016E-3  
 2.035800000000000E10    9.092736554259259E-4  -1.601943721297224E-3  
 2.036000000000000E10    6.336385380369400E-4  -1.442165535092814E-3  
 2.036200000000000E10    5.219404740400859E-4  -1.330519953087248E-3  
 2.036400000000000E10    4.814017938695266E-4  -1.351512987703208E-3  
 2.036600000000000E10    4.122553867768926E-4  -1.433539934889433E-3  
 2.036800000000000E10    3.166480024379713E-4  -1.609178376384080E-3  
 2.037000000000000E10    3.513549991074658E-5  -1.834189023922194E-3  
 2.037200000000000E10   -4.010069447017655E-4  -1.902587307471430E-3  
 2.037400000000000E10   -7.871701087469213E-4  -1.762580137063631E-3  
 2.037600000000000E10   -1.087535563626407E-3  -1.580533695621838E-3  
 2.037800000000000E10   -1.351447861235390E-3  -1.371603282820050E-3  
 2.038000000000000E10   -1.572500287225555E-3  -1.121522587103148E-3  
 2.038200000000000E10   -1.751701748036922E-3  -8.425768486362090E-4  
 2.038400000000000E10   -1.916948682916018E-3  -5.466407893125905E-4  
 2.038600000000000E10   -2.020163489352345E-3  -1.553111858646780E-4  
 2.038800000000000E10   -1.948262916479275E-3   2.072505555771974E-4  
 2.039000000000000E10   -1.910345955587035E-3   4.404883900247208E-4  
 2.039200000000000E10   -1.948670186140717E-3   7.803340108563106E-4  
 2.039400000000000E10   -1.837146444027715E-3   1.242136798795206E-3  
 2.039600000000000E10   -1.520900367165115E-3   1.667299020437547E-3  
 2.039800000000000E10   -1.071867671001841E-3   1.918206300870075E-3  
 2.040000000000000E10   -6.472406992228864E-4   1.991895711578337E-3  
 2.040200000000000E10   -3.170375296617993E-4   2.004957884366130E-3  
 2.040400000000000E10   -8.803981906900173E-6   2.021925633106335E-3  
 2.040600000000000E10    3.350705990841835E-4   2.039847485414503E-3  
 2.040800000000000E10    7.438774655645890E-4   1.937529379731895E-3  
 2.041000000000000E10    1.107600175511138E-3   1.704388973111509E-3  
 2.041200000000000E10    1.330131698886523E-3   1.358390023065693E-3  
 2.041400000000000E10    1.365338327121680E-3   1.069604502051854E-3  
 2.041600000000000E10    1.382000964717488E-3   9.458555673237570E-4  
 2.041800000000000E10    1.492655465720459E-3   8.658420866060190E-4  
 2.042000000000000E10    1.705301006673356E-3   7.666375008009284E-4  
 2.042200000000000E10    2.002839205993547E-3   5.377944603891960E-4  
 2.042400000000000E10    2.216977951664922E-3   1.153363456095401E-4  
 2.042600000000000E10    2.277513749422238E-3  -3.476051196653335E-4  
 2.042800000000000E10    2.277330916045318E-3  -8.491179026728459E-4  
 2.043000000000000E10    2.064173404939872E-3  -1.461493626041453E-3  
 2.043200000000000E10    1.557885226985218E-3  -1.893975384870675E-3  
 2.043400000000000E10    1.007905066082323E-3  -2.076431708372056E-3  
 2.043600000000000E10    5.191311747058001E-4  -2.053228082372942E-3  
 2.043800000000000E10    1.612509891077965E-4  -1.943364763371800E-3  
 2.044000000000000E10   -1.563830617355344E-4  -1.815072117074405E-3  
 2.044200000000000E10   -3.925899600364850E-4  -1.578698890502163E-3  
 2.044400000000000E10   -4.068719136429024E-4  -1.348285898451268E-3  
 2.044600000000000E10   -3.217288704709737E-4  -1.338647360388389E-3  
 2.044800000000000E10   -3.928178444661875E-4  -1.531809770095895E-3  
 2.045000000000000E10   -6.987888899194882E-4  -1.688143227885596E-3  
 2.045200000000000E10   -1.092691142150343E-3  -1.666448974441507E-3  
 2.045400000000000E10   -1.497815110636377E-3  -1.492138627203711E-3  
 2.045600000000000E10   -1.798784452272050E-3  -1.170330324474676E-3  
 2.045800000000000E10   -1.975754176270324E-3  -8.060767465278722E-4  
 2.046000000000000E10   -2.098205499351025E-3  -4.686205318521465E-4  
 2.046200000000000E10   -2.189083548009764E-3  -1.265549829219892E-4  
 2.046400000000000E10   -2.267207113887977E-3   2.617118399879615E-4  
 2.046600000000000E10   -2.229225375294808E-3   7.900442164429606E-4  
 2.046800000000000E10   -1.916706821222027E-3   1.300640000363835E-3  
 2.047000000000000E10   -1.447640878240360E-3   1.548787190889319E-3  
 2.047200000000000E10   -1.079520200563158E-3   1.574543440319721E-3  
 2.047400000000000E10   -8.565347331265610E-4   1.554205049779803E-3  
 2.047600000000000E10   -6.838028600397272E-4   1.589125985712764E-3  
 2.047800000000000E10   -4.857361413454139E-4   1.630998650132659E-3  
 2.048000000000000E10   -3.036021271365055E-4   1.638975534338980E-3  
 2.048200000000000E10   -1.700719155971471E-4   1.649565704419841E-3  
 2.048400000000000E10   -3.785209411510218E-5   1.757561597099275E-3  
 2.048600000000000E10    2.607071937259226E-4   1.850237706273703E-3  
 2.048800000000000E10    5.613862327970719E-4   1.796864884821200E-3  
 2.049000000000000E10    7.949287889605781E-4   1.705135630803957E-3  
 2.049200000000000E10    9.960546431327126E-4   1.617168919030010E-3  
 2.049400000000000E10    1.186093998643658E-3   1.556770503329336E-3  
 2.049600000000000E10    1.430554944473806E-3   1.484593109193224E-3  
 2.049800000000000E10    1.753867455325071E-3   1.382357418372338E-3  
 2.050000000000000E10    2.107945098369210E-3   1.147568907105813E-3  
 2.050200000000000E10    2.432325427562244E-3   8.011971518431827E-4  
 2.050400000000000E10    2.698666901891062E-3   3.146092600712301E-4  
 2.050600000000000E10    2.807837026576999E-3  -3.266758866341778E-4  
 2.050800000000000E10    2.635236273791810E-3  -9.753642457157927E-4  
 2.051000000000000E10    2.274862327708752E-3  -1.426901432125994E-3  
 2.051200000000000E10    1.933062353761630E-3  -1.710127870487088E-3  
 2.051400000000000E10    1.569253937705370E-3  -1.955825056968863E-3  
 2.051600000000000E10    1.181269683511046E-3  -2.057263211810908E-3  
 2.051800000000000E10    9.090737904395159E-4  -2.068855717333624E-3  
 2.052000000000000E10    7.143696483105821E-4  -2.134023680746433E-3  
 2.052200000000000E10    5.257606025835032E-4  -2.248747902826517E-3  
 2.052400000000000E10    2.887792203339668E-4  -2.434201573056204E-3  
 2.052600000000000E10   -1.196734292946235E-4  -2.599259846127083E-3  
 2.052800000000000E10   -5.991865896117787E-4  -2.595546524090225E-3  
 2.053000000000000E10   -9.862662018985786E-4  -2.525844636139433E-3  
 2.053200000000000E10   -1.419543664243241E-3  -2.440412938901427E-3  
 2.053400000000000E10   -1.857315871860725E-3  -2.233165005842845E-3  
 2.053600000000000E10   -2.287580641254844E-3  -1.975137327410619E-3  
 2.053800000000000E10   -2.732135537521217E-3  -1.542405084009310E-3  
 2.054000000000000E10   -2.984118450494338E-3  -9.756159076156717E-4  
 2.054200000000000E10   -3.106246489663551E-3  -4.392553299546641E-4  
 2.054400000000000E10   -3.124576479717783E-3   1.364809538578134E-4  
 2.054600000000000E10   -3.020126925428771E-3   6.755480110173885E-4  
 2.054800000000000E10   -2.835644096703319E-3   1.192604789487374E-3  
 2.055000000000000E10   -2.526617695198015E-3   1.651966316269044E-3  
 2.055200000000000E10   -2.104208250855836E-3   1.971649044814209E-3  
 2.055400000000000E10   -1.718055506700597E-3   2.103376458111553E-3  
 2.055600000000000E10   -1.496821682164331E-3   2.167686861230697E-3  
