#  HZ   S   RI   R     50.00 
! Rohde & Schwarz ZVA40 4Ports - Version 3.90 - 1145.1110k42 SN: 100403
! Date: 2023-10-03 10:28:02
! Measurement: S12 
! 
 2.000000000000000E10   -1.007515883912551E-3  -3.976791217509244E-3  
 2.000200000000000E10   -1.783478857064045E-3  -3.682124195620418E-3  
 2.000400000000000E10   -2.480722877576396E-3  -3.144460092126220E-3  
 2.000600000000000E10   -2.915251143506648E-3  -2.418885841091842E-3  
 2.000800000000000E10   -3.036083728304984E-3  -1.748918005219305E-3  
 2.001000000000000E10   -3.016985369340322E-3  -1.320686557813099E-3  
 2.001200000000000E10   -3.162883210605310E-3  -1.103457406933569E-3  
 2.001400000000000E10   -3.580768118371015E-3  -7.227601434598551E-4  
 2.001600000000000E10   -3.910623306845442E-3   5.542110810904292E-5  
 2.001800000000000E10   -3.868639359917538E-3   9.731080664758698E-4  
 2.002000000000000E10   -3.499168678428288E-3   1.803371585319164E-3  
 2.002200000000000E10   -2.893318370398548E-3   2.435330726942163E-3  
 2.002400000000000E10   -2.252955463956352E-3   2.782601725172114E-3  
 2.002600000000000E10   -1.680809606361077E-3   2.915841084617524E-3  
 2.002800000000000E10   -1.293373196443290E-3   2.933515517478005E-3  
 2.003000000000000E10   -1.075904488701512E-3   3.084972408818611E-3  
 2.003200000000000E10   -7.422148051706178E-4   3.474889167894920E-3  
 2.003400000000000E10   -7.443437771368657E-5   3.828350897234532E-3  
 2.003600000000000E10    7.591956858465702E-4   3.909276663268239E-3  
 2.003800000000000E10    1.564500476866041E-3   3.730162032477466E-3  
 2.004000000000000E10    2.270962200759922E-3   3.410135272223457E-3  
 2.004200000000000E10    2.958515719338148E-3   2.962050258101505E-3  
 2.004400000000000E10    3.574778894997306E-3   2.304913381252576E-3  
 2.004600000000000E10    3.986842366924258E-3   1.465750363781865E-3  
 2.004800000000000E10    4.133665635262007E-3   5.634912881816244E-4  
 2.005000000000000E10    4.032386593336677E-3  -2.478596601307530E-4  
 2.005200000000000E10    3.788425794078245E-3  -9.695839016111914E-4  
 2.005400000000000E10    3.467254320527485E-3  -1.533302139306878E-3  
 2.005600000000000E10    3.136669731135538E-3  -2.062070991177066E-3  
 2.005800000000000E10    2.642474375826157E-3  -2.534605082653371E-3  
 2.006000000000000E10    2.139108790153707E-3  -2.793397958516891E-3  
 2.006200000000000E10    1.713726856389348E-3  -3.025314316475465E-3  
 2.006400000000000E10    1.259036633806924E-3  -3.231715451190134E-3  
 2.006600000000000E10    7.645226317963760E-4  -3.370805925195232E-3  
 2.006800000000000E10    3.394444428533776E-4  -3.466097870841622E-3  
 2.007000000000000E10   -1.351855686534467E-4  -3.631389170977069E-3  
 2.007200000000000E10   -7.643784945370793E-4  -3.727043556325414E-3  
 2.007400000000000E10   -1.469644911897679E-3  -3.710864310118336E-3  
 2.007600000000000E10   -2.296167908719293E-3  -3.487656249400275E-3  
 2.007800000000000E10   -3.008547270624542E-3  -2.889069087550412E-3  
 2.008000000000000E10   -3.411596896770745E-3  -2.202910856907199E-3  
 2.008200000000000E10   -3.669839202897784E-3  -1.566427078580967E-3  
 2.008400000000000E10   -3.825123258004035E-3  -9.505256944347498E-4  
 2.008600000000000E10   -3.940642155982830E-3  -3.748637491860140E-4  
 2.008800000000000E10   -4.052156318025089E-3   2.911601781149475E-4  
 2.009000000000000E10   -3.983292952869778E-3   1.043004111708774E-3  
 2.009200000000000E10   -3.735998806394177E-3   1.750817923392687E-3  
 2.009400000000000E10   -3.394875551838383E-3   2.382609467194589E-3  
 2.009600000000000E10   -2.950339655702313E-3   2.971298630452819E-3  
 2.009800000000000E10   -2.314911382042884E-3   3.495771380394330E-3  
 2.010000000000000E10   -1.536922065115730E-3   3.768718784192095E-3  
 2.010200000000000E10   -8.287758560690249E-4   3.799444142108162E-3  
 2.010400000000000E10   -2.676025304273576E-4   3.696423670690921E-3  
 2.010600000000000E10    1.366943331869365E-4   3.598826129656332E-3  
 2.010800000000000E10    5.023068386233516E-4   3.624194931169903E-3  
 2.011000000000000E10    9.896408602664318E-4   3.726908112128760E-3  
 2.011200000000000E10    1.687836981332505E-3   3.726662389566134E-3  
 2.011400000000000E10    2.432063877306603E-3   3.496357058692310E-3  
 2.011600000000000E10    3.133284844987003E-3   3.084787843105051E-3  
 2.011800000000000E10    3.778542282726662E-3   2.408536159674879E-3  
 2.012000000000000E10    4.125966581251519E-3   1.572825102262015E-3  
 2.012200000000000E10    4.223619357763250E-3   7.840133585426727E-4  
 2.012400000000000E10    4.184613987389538E-3   1.110756747050206E-4  
 2.012600000000000E10    4.183062461469277E-3  -4.704829404578993E-4  
 2.012800000000000E10    4.149838822123446E-3  -1.207549846443681E-3  
 2.013000000000000E10    3.835277824467164E-3  -2.001073567863600E-3  
 2.013200000000000E10    3.328103046105417E-3  -2.577290332726675E-3  
 2.013400000000000E10    2.833965668500758E-3  -3.034806479757399E-3  
 2.013600000000000E10    2.249074292104738E-3  -3.437268452856828E-3  
 2.013800000000000E10    1.552271929765006E-3  -3.643085907017928E-3  
 2.014000000000000E10    9.459956257351111E-4  -3.602653874061359E-3  
 2.014200000000000E10    5.822071904764960E-4  -3.498007629618601E-3  
 2.014400000000000E10    3.660909305499109E-4  -3.568101797919767E-3  
 2.014600000000000E10    3.792201464364800E-5  -3.838520068790258E-3  
 2.014800000000000E10   -5.435213341699615E-4  -4.125888102952346E-3  
 2.015000000000000E10   -1.355969171718131E-3  -4.239169443831032E-3  
 2.015200000000000E10   -2.229699916723702E-3  -4.089616727727799E-3  
 2.015400000000000E10   -3.074966747612682E-3  -3.739118380587042E-3  
 2.015600000000000E10   -3.872234724967936E-3  -3.113672686280844E-3  
 2.015800000000000E10   -4.453087553243947E-3  -2.282000164052955E-3  
 2.016000000000000E10   -4.758037235817792E-3  -1.350680754209558E-3  
 2.016200000000000E10   -4.840411487276908E-3  -4.644823130536365E-4  
 2.016400000000000E10   -4.774000846355419E-3   3.472061150126666E-4  
 2.016600000000000E10   -4.618586362971936E-3   1.105483763644265E-3  
 2.016800000000000E10   -4.370951427169789E-3   1.851347747925715E-3  
 2.017000000000000E10   -3.982287164731527E-3   2.568498765474853E-3  
 2.017200000000000E10   -3.447803050670543E-3   3.205799293577856E-3  
 2.017400000000000E10   -2.772784058901447E-3   3.630722318143573E-3  
 2.017600000000000E10   -2.214406335289464E-3   3.859074225787212E-3  
 2.017800000000000E10   -1.746789550834140E-3   4.156559010116775E-3  
 2.018000000000000E10   -1.136689801861383E-3   4.477412819310472E-3  
 2.018200000000000E10   -4.413474809642836E-4   4.704084885479124E-3  
 2.018400000000000E10    3.471966699214170E-4   4.851337786717916E-3  
 2.018600000000000E10    1.218989616501387E-3   4.847170192932274E-3  
 2.018800000000000E10    2.170124280921839E-3   4.595811806481194E-3  
 2.019000000000000E10    3.002599810169620E-3   4.066895831514289E-3  
 2.019200000000000E10    3.614754919077695E-3   3.414740872189955E-3  
 2.019400000000000E10    4.082419052950027E-3   2.757706136132280E-3  
 2.019600000000000E10    4.506614260421492E-3   2.071034876100811E-3  
 2.019800000000000E10    4.812558503522550E-3   1.221224224413343E-3  
 2.020000000000000E10    4.884331170929436E-3   3.231238785061848E-4  
 2.020200000000000E10    4.724131000262720E-3  -4.713246983297768E-4  
 2.020400000000000E10    4.528905299526674E-3  -1.080407978058506E-3  
 2.020600000000000E10    4.429169142917720E-3  -1.709988161082161E-3  
 2.020800000000000E10    4.262055092157773E-3  -2.471383793256534E-3  
 2.021000000000000E10    3.850897124474064E-3  -3.399562337838206E-3  
 2.021200000000000E10    3.008023085486558E-3  -4.198229193319510E-3  
 2.021400000000000E10    1.993100526800126E-3  -4.590467555609383E-3  
 2.021600000000000E10    1.033407600056150E-3  -4.660908512219236E-3  
 2.021800000000000E10    1.982303712097354E-4  -4.472644786913823E-3  
 2.022000000000000E10   -3.726836829302534E-4  -4.158684380214524E-3  
 2.022200000000000E10   -6.971234623860155E-4  -3.972369200193589E-3  
 2.022400000000000E10   -1.085432677495259E-3  -4.021164087325703E-3  
 2.022600000000000E10   -1.724028836268886E-3  -4.060379677900562E-3  
 2.022800000000000E10   -2.517649751547495E-3  -3.902007130055148E-3  
 2.023000000000000E10   -3.350318757311246E-3  -3.500855504822585E-3  
 2.023200000000000E10   -4.116135787356784E-3  -2.802885131749474E-3  
 2.023400000000000E10   -4.666499184145604E-3  -1.856162002954034E-3  
 2.023600000000000E10   -4.864333105492004E-3  -8.384758393843603E-4  
 2.023800000000000E10   -4.817817555625498E-3   1.371139639817512E-4  
 2.024000000000000E10   -4.584965278842936E-3   1.054293430053894E-3  
 2.024200000000000E10   -4.159270032642433E-3   1.883087168091242E-3  
 2.024400000000000E10   -3.542706396223771E-3   2.517296788915072E-3  
 2.024600000000000E10   -2.888339393438749E-3   2.900271015356721E-3  
 2.024800000000000E10   -2.292970868034496E-3   3.156585722333856E-3  
 2.025000000000000E10   -1.688368055095643E-3   3.288124090083588E-3  
 2.025200000000000E10   -1.190417325469079E-3   3.306035326080926E-3  
 2.025400000000000E10   -8.334607873284432E-4   3.312409593850191E-3  
 2.025600000000000E10   -4.933461127227840E-4   3.446672427939413E-3  
 2.025800000000000E10   -1.574365113457235E-5   3.624150857191395E-3  
 2.026000000000000E10    6.121292747672143E-4   3.695883776670622E-3  
 2.026200000000000E10    1.287281845213363E-3   3.597377172820731E-3  
 2.026400000000000E10    1.909289388330999E-3   3.351156116911659E-3  
 2.026600000000000E10    2.491680304462343E-3   3.037745087051098E-3  
 2.026800000000000E10    3.140231873265204E-3   2.575969381004940E-3  
 2.027000000000000E10    3.673795869366990E-3   1.833966565260917E-3  
 2.027200000000000E10    3.924897613210811E-3   9.209428221148291E-4  
 2.027400000000000E10    3.836515037641850E-3   4.625580207590967E-5  
 2.027600000000000E10    3.516553584946160E-3  -6.577967497934070E-4  
 2.027800000000000E10    3.091909100566014E-3  -1.115008635319954E-3  
 2.028000000000000E10    2.763404194725517E-3  -1.384922572020672E-3  
 2.028200000000000E10    2.576924596027828E-3  -1.629600871963726E-3  
 2.028400000000000E10    2.446009809105301E-3  -2.005716107417772E-3  
 2.028600000000000E10    2.133932367059184E-3  -2.527770037291411E-3  
 2.028800000000000E10    1.563575902068413E-3  -2.939517480424710E-3  
 2.029000000000000E10    9.211814792734791E-4  -3.123683038593075E-3  
 2.029200000000000E10    3.059827948972170E-4  -3.179674442098649E-3  
 2.029400000000000E10   -3.133827750714795E-4  -3.068676712796277E-3  
 2.029600000000000E10   -8.265005617207032E-4  -2.786767183239630E-3  
 2.029800000000000E10   -1.179374502914280E-3  -2.483528647801759E-3  
 2.030000000000000E10   -1.471111504935924E-3  -2.190486941900519E-3  
 2.030200000000000E10   -1.658247509269895E-3  -1.845400702829163E-3  
 2.030400000000000E10   -1.723279900572918E-3  -1.629738267913553E-3  
 2.030600000000000E10   -1.900635863780792E-3  -1.587204596338173E-3  
 2.030800000000000E10   -2.331074516944312E-3  -1.430592820174808E-3  
 2.031000000000000E10   -2.767227262396504E-3  -9.787169609931702E-4  
 2.031200000000000E10   -3.041948896062411E-3  -3.322885062022388E-4  
 2.031400000000000E10   -3.043716695780556E-3   3.947215014637484E-4  
 2.031600000000000E10   -2.824714803999221E-3   1.078077633635222E-3  
 2.031800000000000E10   -2.423974921076019E-3   1.589078759418134E-3  
 2.032000000000000E10   -1.965163594663696E-3   1.982951349935230E-3  
 2.032200000000000E10   -1.413050712730138E-3   2.254352163247489E-3  
 2.032400000000000E10   -8.264381480173290E-4   2.288562906791031E-3  
 2.032600000000000E10   -4.001212594484520E-4   2.152963018297782E-3  
 2.032800000000000E10   -1.000983132671760E-4   2.022217619980192E-3  
 2.033000000000000E10    1.482702476399330E-4   1.899385429562334E-3  
 2.033200000000000E10    3.582841115227591E-4   1.748766474149846E-3  
 2.033400000000000E10    4.783142322133997E-4   1.582871774717430E-3  
 2.033600000000000E10    3.563479062623955E-4   1.566943300048603E-3  
 2.033800000000000E10    5.850834494606121E-4   1.639461630587409E-3  
 2.034000000000000E10    8.891626105954251E-4   1.770209640344996E-3  
 2.034200000000000E10    1.353902069644796E-3   1.763231866924024E-3  
 2.034400000000000E10    1.874288003661750E-3   1.532544048480046E-3  
 2.034600000000000E10    2.303589066421545E-3   1.073543998458779E-3  
 2.034800000000000E10    2.561015996760057E-3   4.761894700623313E-4  
 2.035000000000000E10    2.623735766076012E-3  -2.086743413122877E-4  
 2.035200000000000E10    2.412112001444639E-3  -9.056874464645431E-4  
 2.035400000000000E10    1.933446093634875E-3  -1.438309672794501E-3  
 2.035600000000000E10    1.329026731122055E-3  -1.671825811542847E-3  
 2.035800000000000E10    8.184872747306932E-4  -1.603373820766991E-3  
 2.036000000000000E10    5.293838761712391E-4  -1.403790145514556E-3  
 2.036200000000000E10    4.589745450052031E-4  -1.247852470116391E-3  
 2.036400000000000E10    4.670844358725497E-4  -1.254427414904866E-3  
 2.036600000000000E10    4.198255810030036E-4  -1.343003222661346E-3  
 2.036800000000000E10    3.457542107854453E-4  -1.537521261963304E-3  
 2.037000000000000E10    8.309246608585028E-5  -1.787808559903944E-3  
 2.037200000000000E10   -3.628793577117455E-4  -1.868068870088017E-3  
 2.037400000000000E10   -7.670383942083537E-4  -1.735755889159110E-3  
 2.037600000000000E10   -1.056472102559551E-3  -1.547818539238731E-3  
 2.037800000000000E10   -1.295460336324242E-3  -1.348012555275618E-3  
 2.038000000000000E10   -1.508680658047030E-3  -1.131219928796737E-3  
 2.038200000000000E10   -1.715146601602527E-3  -8.835269671427892E-4  
 2.038400000000000E10   -1.905764356818924E-3  -5.711936233795169E-4  
 2.038600000000000E10   -2.011980898793281E-3  -1.689640328011053E-4  
 2.038800000000000E10   -1.967237348219863E-3   1.906066387209088E-4  
 2.039000000000000E10   -1.943911261925543E-3   4.584466920659683E-4  
 2.039200000000000E10   -1.942563382333812E-3   8.445346201942476E-4  
 2.039400000000000E10   -1.783222138283798E-3   1.299503699152006E-3  
 2.039600000000000E10   -1.455477158607984E-3   1.684066023171684E-3  
 2.039800000000000E10   -1.021130892942533E-3   1.911015200923071E-3  
 2.040000000000000E10   -6.101191005048653E-4   1.976848289623489E-3  
 2.040200000000000E10   -2.901444260467902E-4   1.975246259574721E-3  
 2.040400000000000E10    1.939138710889737E-5   1.990492435540130E-3  
 2.040600000000000E10    3.603843107595351E-4   2.016901573235239E-3  
 2.040800000000000E10    7.805969295908272E-4   1.933468482744547E-3  
 2.041000000000000E10    1.162283803784737E-3   1.674683094829505E-3  
 2.041200000000000E10    1.374198694391475E-3   1.294325889134205E-3  
 2.041400000000000E10    1.385877511096130E-3   1.003076154221263E-3  
 2.041600000000000E10    1.384614331555772E-3   8.786728341178395E-4  
 2.041800000000000E10    1.471495702805251E-3   8.066200197064951E-4  
 2.042000000000000E10    1.657981770458045E-3   7.320839665933617E-4  
 2.042200000000000E10    1.948555937197841E-3   5.260498009990028E-4  
 2.042400000000000E10    2.191921770802619E-3   1.137295594723841E-4  
 2.042600000000000E10    2.268101873428182E-3  -3.746694933341380E-4  
 2.042800000000000E10    2.253539822880685E-3  -8.873786837621420E-4  
 2.043000000000000E10    2.009757892171174E-3  -1.504316443094501E-3  
 2.043200000000000E10    1.489341933061771E-3  -1.928574750544849E-3  
 2.043400000000000E10    9.413262265791864E-4  -2.076518928839101E-3  
 2.043600000000000E10    4.744303820907702E-4  -2.049405326100964E-3  
 2.043800000000000E10    1.194586447026167E-4  -1.940711984916786E-3  
 2.044000000000000E10   -1.893518311129654E-4  -1.799225654843965E-3  
 2.044200000000000E10   -4.092014968153780E-4  -1.550314595842344E-3  
 2.044400000000000E10   -4.350088434696290E-4  -1.325720334770503E-3  
 2.044600000000000E10   -3.590714312187270E-4  -1.321533009306424E-3  
 2.044800000000000E10   -4.163864837602977E-4  -1.486487463864004E-3  
 2.045000000000000E10   -7.003393738507582E-4  -1.629892851651451E-3  
 2.045200000000000E10   -1.090621603020456E-3  -1.623025079211795E-3  
 2.045400000000000E10   -1.495418538350934E-3  -1.457441194316396E-3  
 2.045600000000000E10   -1.795658692257640E-3  -1.132985965038339E-3  
 2.045800000000000E10   -1.968801674076621E-3  -7.908587030675495E-4  
 2.046000000000000E10   -2.094124515690370E-3  -4.562490945250762E-4  
 2.046200000000000E10   -2.185467584633533E-3  -1.043955169195585E-4  
 2.046400000000000E10   -2.259062628986107E-3   3.143477862281150E-4  
 2.046600000000000E10   -2.209239728449856E-3   8.529515859360498E-4  
 2.046800000000000E10   -1.859872021286944E-3   1.358555339529743E-3  
 2.047000000000000E10   -1.357869710773230E-3   1.591062038148075E-3  
 2.047200000000000E10   -9.697231954182097E-4   1.582692725078008E-3  
 2.047400000000000E10   -7.576961314627603E-4   1.523008230889653E-3  
 2.047600000000000E10   -6.164471664822397E-4   1.547380007033087E-3  
 2.047800000000000E10   -4.259662829874154E-4   1.579228279836200E-3  
 2.048000000000000E10   -2.525426883230354E-4   1.547364621526665E-3  
 2.048200000000000E10   -1.644597812426380E-4   1.532889073312191E-3  
 2.048400000000000E10   -6.803067206212284E-5   1.655582526848181E-3  
 2.048600000000000E10    1.904086478774574E-4   1.774459932125921E-3  
 2.048800000000000E10    4.807357190544775E-4   1.746289170473630E-3  
 2.049000000000000E10    7.135877637250097E-4   1.677765568465363E-3  
 2.049200000000000E10    9.294609807972095E-4   1.602469377196682E-3  
 2.049400000000000E10    1.109707912280696E-3   1.538442398915872E-3  
 2.049600000000000E10    1.340877967541693E-3   1.509699644233434E-3  
 2.049800000000000E10    1.678942714208438E-3   1.448055280855409E-3  
 2.050000000000000E10    2.074806321481312E-3   1.234266616657009E-3  
 2.050200000000000E10    2.432709200491692E-3   8.714378820042369E-4  
 2.050400000000000E10    2.728395342228958E-3   3.707667178169676E-4  
 2.050600000000000E10    2.847377642023343E-3  -2.763111857168469E-4  
 2.050800000000000E10    2.673856454131044E-3  -9.324546604428763E-4  
 2.051000000000000E10    2.323806303104869E-3  -1.409443165750507E-3  
 2.051200000000000E10    1.967137047078139E-3  -1.731467543940210E-3  
 2.051400000000000E10    1.576919923536480E-3  -1.979311039947250E-3  
 2.051600000000000E10    1.174751023853911E-3  -2.067255937022928E-3  
 2.051800000000000E10    9.073853179421508E-4  -2.061296829286917E-3  
 2.052000000000000E10    7.214899610348598E-4  -2.102821674427869E-3  
 2.052200000000000E10    5.523209207846473E-4  -2.204472334181637E-3  
 2.052400000000000E10    3.331636997043259E-4  -2.425618673801239E-3  
 2.052600000000000E10   -8.403797048994880E-5  -2.624444603161128E-3  
 2.052800000000000E10   -5.727380156275576E-4  -2.618454830767013E-3  
 2.053000000000000E10   -9.660881154963541E-4  -2.527212655102766E-3  
 2.053200000000000E10   -1.403629442067518E-3  -2.450336544073107E-3  
 2.053400000000000E10   -1.844723483283119E-3  -2.245127367154684E-3  
 2.053600000000000E10   -2.265489280775742E-3  -1.990472081542751E-3  
 2.053800000000000E10   -2.711639705079574E-3  -1.566688415168981E-3  
 2.054000000000000E10   -2.967767431803141E-3  -1.007333706868928E-3  
 2.054200000000000E10   -3.111973545732506E-3  -4.588946772676053E-4  
 2.054400000000000E10   -3.129981170741865E-3   1.271801627381923E-4  
 2.054600000000000E10   -3.033842026244528E-3   6.653826064315200E-4  
 2.054800000000000E10   -2.843839030160948E-3   1.189935442209704E-3  
 2.055000000000000E10   -2.501128408138031E-3   1.650552393259182E-3  
 2.055200000000000E10   -2.070568056409190E-3   1.958173810343408E-3  
 2.055400000000000E10   -1.691498868397357E-3   2.055020356136892E-3  
 2.055600000000000E10   -1.501658084848321E-3   2.113975504022322E-3  
