#  HZ   S   RI   R     50.00 
! Rohde & Schwarz ZVA40 4Ports - Version 3.90 - 1145.1110k42 SN: 100403
! Date: 2023-10-03 10:28:49
! Measurement: S12 
! 
 2.000000000000000E10   -9.979963565624700E-4  -3.935465356335044E-3  
 2.000200000000000E10   -1.761455951189554E-3  -3.649266091761767E-3  
 2.000400000000000E10   -2.492735369337930E-3  -3.132596456756195E-3  
 2.000600000000000E10   -2.941585990979716E-3  -2.402552205172402E-3  
 2.000800000000000E10   -3.054094725046998E-3  -1.739292250325283E-3  
 2.001000000000000E10   -3.064017458301452E-3  -1.335351499383924E-3  
 2.001200000000000E10   -3.251187244637146E-3  -1.070331596700406E-3  
 2.001400000000000E10   -3.607971326413531E-3  -5.880796191006624E-4  
 2.001600000000000E10   -3.795287442497082E-3   1.876711167799133E-4  
 2.001800000000000E10   -3.684948491691440E-3   9.800148136154922E-4  
 2.002000000000000E10   -3.347853888516074E-3   1.696390505121262E-3  
 2.002200000000000E10   -2.826852499748822E-3   2.304627249638240E-3  
 2.002400000000000E10   -2.259604486257390E-3   2.680443115187464E-3  
 2.002600000000000E10   -1.726373344556325E-3   2.836645856775620E-3  
 2.002800000000000E10   -1.367678960647296E-3   2.905228175222874E-3  
 2.003000000000000E10   -1.128250129382920E-3   3.086102410668025E-3  
 2.003200000000000E10   -7.653402388785725E-4   3.459858371772701E-3  
 2.003400000000000E10   -9.950775792175491E-5   3.785918363266522E-3  
 2.003600000000000E10    7.215568890657140E-4   3.838905616214982E-3  
 2.003800000000000E10    1.495974004717061E-3   3.604993215520625E-3  
 2.004000000000000E10    2.112811491652220E-3   3.262402334560951E-3  
 2.004200000000000E10    2.702816984512740E-3   2.898925173751735E-3  
 2.004400000000000E10    3.302331953481944E-3   2.439292182249052E-3  
 2.004600000000000E10    3.852957031793065E-3   1.740793878626492E-3  
 2.004800000000000E10    4.142367332759831E-3   8.489032388078394E-4  
 2.005000000000000E10    4.126911965647230E-3  -1.530791578935115E-5  
 2.005200000000000E10    3.931856352008052E-3  -7.729622496602436E-4  
 2.005400000000000E10    3.682459583850923E-3  -1.383120241505956E-3  
 2.005600000000000E10    3.372119179133464E-3  -2.031953212011744E-3  
 2.005800000000000E10    2.841230947524309E-3  -2.599360654130578E-3  
 2.006000000000000E10    2.239636904387563E-3  -2.945721468508796E-3  
 2.006200000000000E10    1.726515979195635E-3  -3.189814984108563E-3  
 2.006400000000000E10    1.212503743806371E-3  -3.357943026693883E-3  
 2.006600000000000E10    6.811498013256050E-4  -3.447475774144685E-3  
 2.006800000000000E10    2.383285895188305E-4  -3.479806395868461E-3  
 2.007000000000000E10   -2.070521034140795E-4  -3.548487356898411E-3  
 2.007200000000000E10   -7.196902405229157E-4  -3.615079896041641E-3  
 2.007400000000000E10   -1.337253337691504E-3  -3.636125940829516E-3  
 2.007600000000000E10   -2.121213081948184E-3  -3.477534063643328E-3  
 2.007800000000000E10   -2.850759326031915E-3  -2.972173651128456E-3  
 2.008000000000000E10   -3.339875420486486E-3  -2.339384406460105E-3  
 2.008200000000000E10   -3.682937930096632E-3  -1.708435403459050E-3  
 2.008400000000000E10   -3.898083835978200E-3  -1.079633353381521E-3  
 2.008600000000000E10   -4.042662352461507E-3  -4.644195174074008E-4  
 2.008800000000000E10   -4.148998590945094E-3   2.337701422490042E-4  
 2.009000000000000E10   -4.085529578366766E-3   1.001936288688470E-3  
 2.009200000000000E10   -3.842629794100369E-3   1.718229687496744E-3  
 2.009400000000000E10   -3.476261721785974E-3   2.357597919870858E-3  
 2.009600000000000E10   -3.018362240658866E-3   2.957564770002609E-3  
 2.009800000000000E10   -2.357153937703482E-3   3.501844730366160E-3  
 2.010000000000000E10   -1.563626031080882E-3   3.771398526926836E-3  
 2.010200000000000E10   -8.899033138597454E-4   3.780884642360939E-3  
 2.010400000000000E10   -4.024492766432189E-4   3.717488290190146E-3  
 2.010600000000000E10   -2.110813242055608E-6   3.719468023283063E-3  
 2.010800000000000E10    4.357400542142354E-4   3.797363463996186E-3  
 2.011000000000000E10    1.001684551334216E-3   3.900714667031059E-3  
 2.011200000000000E10    1.723606518849179E-3   3.873301118060396E-3  
 2.011400000000000E10    2.491935440856550E-3   3.616260088704251E-3  
 2.011600000000000E10    3.248493195752855E-3   3.150339695383554E-3  
 2.011800000000000E10    3.903744362846569E-3   2.385235529530932E-3  
 2.012000000000000E10    4.199462994519208E-3   1.511208122354691E-3  
 2.012200000000000E10    4.248431866505632E-3   7.651799414479348E-4  
 2.012400000000000E10    4.249371933164421E-3   1.228821932239010E-4  
 2.012600000000000E10    4.251445264176087E-3  -5.150947211034321E-4  
 2.012800000000000E10    4.176437216638415E-3  -1.264195803000971E-3  
 2.013000000000000E10    3.851042034242441E-3  -2.015688128907372E-3  
 2.013200000000000E10    3.365559831123661E-3  -2.573586931383169E-3  
 2.013400000000000E10    2.849524038740331E-3  -3.040451685794526E-3  
 2.013600000000000E10    2.241834489352726E-3  -3.415281410087591E-3  
 2.013800000000000E10    1.606901810090575E-3  -3.607128910651362E-3  
 2.014000000000000E10    1.060599594859889E-3  -3.628495123444333E-3  
 2.014200000000000E10    6.822908676608847E-4  -3.595325759508544E-3  
 2.014400000000000E10    4.296605884856372E-4  -3.684401374172282E-3  
 2.014600000000000E10    8.684665576934263E-5  -3.973233013379354E-3  
 2.014800000000000E10   -5.454847727108885E-4  -4.324533838640761E-3  
 2.015000000000000E10   -1.438882624454521E-3  -4.457514284661523E-3  
 2.015200000000000E10   -2.407292085182336E-3  -4.237626351554086E-3  
 2.015400000000000E10   -3.278056582160019E-3  -3.757390193641186E-3  
 2.015600000000000E10   -4.056777132468091E-3  -3.043421199200330E-3  
 2.015800000000000E10   -4.587077139014448E-3  -2.160495543783462E-3  
 2.016000000000000E10   -4.832750824452551E-3  -1.217774469060478E-3  
 2.016200000000000E10   -4.862981520731141E-3  -3.454720200453368E-4  
 2.016400000000000E10   -4.770356558125329E-3   4.387022259093270E-4  
 2.016600000000000E10   -4.623590037226677E-3   1.184261261692478E-3  
 2.016800000000000E10   -4.377546306285594E-3   1.941217161301110E-3  
 2.017000000000000E10   -3.957245619622647E-3   2.663769681627552E-3  
 2.017200000000000E10   -3.342739392623858E-3   3.250630667295169E-3  
 2.017400000000000E10   -2.652956259057478E-3   3.596886975207815E-3  
 2.017600000000000E10   -2.147363602287240E-3   3.785077568695502E-3  
 2.017800000000000E10   -1.741754973341746E-3   4.099408975215975E-3  
 2.018000000000000E10   -1.166518553401585E-3   4.451026639866609E-3  
 2.018200000000000E10   -4.802388656470511E-4   4.689493475274907E-3  
 2.018400000000000E10    2.862386733155560E-4   4.856864128399779E-3  
 2.018600000000000E10    1.156929388849272E-3   4.906453295714326E-3  
 2.018800000000000E10    2.146176778262964E-3   4.726389491999591E-3  
 2.019000000000000E10    3.063211769417481E-3   4.210347930590312E-3  
 2.019200000000000E10    3.747407062393096E-3   3.480675957959008E-3  
 2.019400000000000E10    4.212061546880891E-3   2.711384695161272E-3  
 2.019600000000000E10    4.577275589798337E-3   1.981355905256890E-3  
 2.019800000000000E10    4.855336172989121E-3   1.148928901077145E-3  
 2.020000000000000E10    4.895212559926290E-3   2.744154736757520E-4  
 2.020200000000000E10    4.736215617783644E-3  -5.064017411010962E-4  
 2.020400000000000E10    4.547715566500471E-3  -1.134111627901870E-3  
 2.020600000000000E10    4.422243994971117E-3  -1.785937369007756E-3  
 2.020800000000000E10    4.237475546283855E-3  -2.544313263906925E-3  
 2.021000000000000E10    3.773166228913599E-3  -3.450726917772382E-3  
 2.021200000000000E10    2.878327414186465E-3  -4.174643403126135E-3  
 2.021400000000000E10    1.896587894643071E-3  -4.471794219204674E-3  
 2.021600000000000E10    1.043601759226510E-3  -4.517884200645818E-3  
 2.021800000000000E10    3.119481304936387E-4  -4.381934767244040E-3  
 2.022000000000000E10   -2.112459899055669E-4  -4.163181254019341E-3  
 2.022200000000000E10   -5.751442815246131E-4  -4.078318502891948E-3  
 2.022400000000000E10   -1.065867125160164E-3  -4.189779050648212E-3  
 2.022600000000000E10   -1.827393106564328E-3  -4.229887768074319E-3  
 2.022800000000000E10   -2.693950276200970E-3  -3.977480896369175E-3  
 2.023000000000000E10   -3.526652197319049E-3  -3.442639786819066E-3  
 2.023200000000000E10   -4.196185860092994E-3  -2.639541488692717E-3  
 2.023400000000000E10   -4.619245037988381E-3  -1.697577730131646E-3  
 2.023600000000000E10   -4.772453361915218E-3  -7.603492962920832E-4  
 2.023800000000000E10   -4.738288931548595E-3   1.336604974413705E-4  
 2.024000000000000E10   -4.548993185852414E-3   9.934364567959200E-4  
 2.024200000000000E10   -4.171189075956742E-3   1.830098314072799E-3  
 2.024400000000000E10   -3.578005436186990E-3   2.497359946439112E-3  
 2.024600000000000E10   -2.904940051613031E-3   2.923154504969716E-3  
 2.024800000000000E10   -2.259161357802374E-3   3.166017476124345E-3  
 2.025000000000000E10   -1.661941547084738E-3   3.255819056734995E-3  
 2.025200000000000E10   -1.233136143397402E-3   3.288881025380559E-3  
 2.025400000000000E10   -8.682740908288571E-4   3.385235072561989E-3  
 2.025600000000000E10   -4.398959550868582E-4   3.550031351753408E-3  
 2.025800000000000E10    8.634687968104253E-5   3.669431174380912E-3  
 2.026000000000000E10    6.962657940608485E-4   3.678770244328513E-3  
 2.026200000000000E10    1.359222724136931E-3   3.575462546130574E-3  
 2.026400000000000E10    2.021129889827636E-3   3.293312870448939E-3  
 2.026600000000000E10    2.592790492430881E-3   2.873897078205590E-3  
 2.026800000000000E10    3.101309088783132E-3   2.321934241249606E-3  
 2.027000000000000E10    3.459418295986123E-3   1.614257551005317E-3  
 2.027200000000000E10    3.602944780141116E-3   8.614274125580712E-4  
 2.027400000000000E10    3.539058293595359E-3   1.705231320725202E-4  
 2.027600000000000E10    3.341874314679041E-3  -3.978559559780278E-4  
 2.027800000000000E10    3.082942941950427E-3  -7.946481238360760E-4  
 2.028000000000000E10    2.937434974161012E-3  -1.113489076184730E-3  
 2.028200000000000E10    2.838297402141271E-3  -1.526414865144977E-3  
 2.028400000000000E10    2.651854219880921E-3  -2.051293755088140E-3  
 2.028600000000000E10    2.257416559452261E-3  -2.613729012578174E-3  
 2.028800000000000E10    1.630683533019490E-3  -3.034951294668847E-3  
 2.029000000000000E10    9.377784444950522E-4  -3.219235127929737E-3  
 2.029200000000000E10    2.722010879854983E-4  -3.244868910836953E-3  
 2.029400000000000E10   -3.499210687112754E-4  -3.065281659709635E-3  
 2.029600000000000E10   -7.958449811364214E-4  -2.763879588908620E-3  
 2.029800000000000E10   -1.094420393066550E-3  -2.475593273562414E-3  
 2.030000000000000E10   -1.343319886708977E-3  -2.260335565855106E-3  
 2.030200000000000E10   -1.580914491097684E-3  -2.009433724365577E-3  
 2.030400000000000E10   -1.733962373152651E-3  -1.810311589872948E-3  
 2.030600000000000E10   -1.971084512425242E-3  -1.741274755827531E-3  
 2.030800000000000E10   -2.475944770224117E-3  -1.553078695131397E-3  
 2.031000000000000E10   -2.946878533327469E-3  -1.015456089387751E-3  
 2.031200000000000E10   -3.172443049994333E-3  -2.964670442182709E-4  
 2.031400000000000E10   -3.145734236265223E-3   4.344684819915091E-4  
 2.031600000000000E10   -2.928908698743693E-3   1.101793341890530E-3  
 2.031800000000000E10   -2.517660846933723E-3   1.648106698498682E-3  
 2.032000000000000E10   -2.042619770185815E-3   2.045402389571623E-3  
 2.032200000000000E10   -1.507183105719311E-3   2.309527748298866E-3  
 2.032400000000000E10   -9.371839136023214E-4   2.401350479986933E-3  
 2.032600000000000E10   -4.438564603872322E-4   2.340605698042998E-3  
 2.032800000000000E10   -2.101047963757690E-5   2.195980330860174E-3  
 2.033000000000000E10    2.728641007302536E-4   1.964408016108253E-3  
 2.033200000000000E10    4.339295200123970E-4   1.757017078085078E-3  
 2.033400000000000E10    4.897590131602355E-4   1.602727842206756E-3  
 2.033600000000000E10    3.301982080167229E-4   1.610645356036171E-3  
 2.033800000000000E10    5.722415969810553E-4   1.717576446632545E-3  
 2.034000000000000E10    8.782352950354971E-4   1.920136946460439E-3  
 2.034200000000000E10    1.462246843234257E-3   1.983053525219913E-3  
 2.034400000000000E10    2.126638734437250E-3   1.680897704015176E-3  
 2.034600000000000E10    2.577243450408181E-3   1.079912538881655E-3  
 2.034800000000000E10    2.774949435627571E-3   4.019873449578882E-4  
 2.035000000000000E10    2.789870189088915E-3  -3.085422019163768E-4  
 2.035200000000000E10    2.571985142788402E-3  -1.003204717697507E-3  
 2.035400000000000E10    2.088946178210555E-3  -1.560320538744607E-3  
 2.035600000000000E10    1.490598044323701E-3  -1.810166820952738E-3  
 2.035800000000000E10    9.964031848573576E-4  -1.797947963630712E-3  
 2.036000000000000E10    6.809090544400669E-4  -1.713254885679042E-3  
 2.036200000000000E10    4.763334614431693E-4  -1.677054791124883E-3  
 2.036400000000000E10    2.691926395831009E-4  -1.695252265091296E-3  
 2.036600000000000E10    4.173777038145260E-5  -1.664194619041627E-3  
 2.036800000000000E10   -1.093573475911937E-4  -1.644653242288365E-3  
 2.037000000000000E10   -3.235821484984762E-4  -1.708989423975625E-3  
 2.037200000000000E10   -6.426274517758025E-4  -1.712743481793614E-3  
 2.037400000000000E10   -9.317806085433675E-4  -1.595042913255317E-3  
 2.037600000000000E10   -1.217786416721841E-3  -1.458357954915199E-3  
 2.037800000000000E10   -1.492414416538345E-3  -1.227200156319197E-3  
 2.038000000000000E10   -1.721095440357372E-3  -9.235385913160390E-4  
 2.038200000000000E10   -1.861299310500424E-3  -5.716966978205300E-4  
 2.038400000000000E10   -1.940252462022559E-3  -2.343566722831586E-4  
 2.038600000000000E10   -1.953162248591306E-3   1.563012709892872E-4  
 2.038800000000000E10   -1.814193454467588E-3   5.136293206036229E-4  
 2.039000000000000E10   -1.678725838212780E-3   7.163758833754671E-4  
 2.039200000000000E10   -1.643610967288691E-3   9.417998350087417E-4  
 2.039400000000000E10   -1.555820810608566E-3   1.297719647280044E-3  
 2.039600000000000E10   -1.273528120859906E-3   1.663704751990736E-3  
 2.039800000000000E10   -8.306910814200011E-4   1.889723232360902E-3  
 2.040000000000000E10   -4.102821080272811E-4   1.921567125935798E-3  
 2.040200000000000E10   -9.973619355015993E-5   1.896318401796398E-3  
 2.040400000000000E10    1.867800817341992E-4   1.884718572168991E-3  
 2.040600000000000E10    5.042485481007370E-4   1.830768236821449E-3  
 2.040800000000000E10    8.386664687552387E-4   1.713244524715400E-3  
 2.041000000000000E10    1.156469983807593E-3   1.491623456348424E-3  
 2.041200000000000E10    1.317749088802548E-3   1.172229932207200E-3  
 2.041400000000000E10    1.359099155740330E-3   9.345656338458260E-4  
 2.041600000000000E10    1.403714750065572E-3   7.836851205124901E-4  
 2.041800000000000E10    1.510641084880465E-3   6.322026882251657E-4  
 2.042000000000000E10    1.655213694364109E-3   4.589439744854140E-4  
 2.042200000000000E10    1.840673283570343E-3   2.151491758308179E-4  
 2.042400000000000E10    1.926867951018115E-3  -1.624704872719357E-4  
 2.042600000000000E10    1.871947901909826E-3  -5.325074652554813E-4  
 2.042800000000000E10    1.817559163706998E-3  -8.695844056395193E-4  
 2.043000000000000E10    1.669409098448577E-3  -1.300353099833484E-3  
 2.043200000000000E10    1.292763592640835E-3  -1.657041850396329E-3  
 2.043400000000000E10    8.209543949407008E-4  -1.795328058371389E-3  
 2.043600000000000E10    4.164124030568120E-4  -1.751807557108502E-3  
 2.043800000000000E10    1.263799659446468E-4  -1.652812865493750E-3  
 2.044000000000000E10   -1.279804295066882E-4  -1.559391096061855E-3  
 2.044200000000000E10   -2.922096281070952E-4  -1.375591102125192E-3  
 2.044400000000000E10   -3.040869552124706E-4  -1.205119088775030E-3  
 2.044600000000000E10   -2.596538688521832E-4  -1.224733414818292E-3  
 2.044800000000000E10   -3.343924720495664E-4  -1.378032508202725E-3  
 2.045000000000000E10   -5.744382980521080E-4  -1.520879299345392E-3  
 2.045200000000000E10   -9.323727809479117E-4  -1.544529110779641E-3  
 2.045400000000000E10   -1.317497614460687E-3  -1.379234884451661E-3  
 2.045600000000000E10   -1.560544215694622E-3  -1.047540464679952E-3  
 2.045800000000000E10   -1.666053612199095E-3  -7.654324268784237E-4  
 2.046000000000000E10   -1.778771798988735E-3  -5.456358011104857E-4  
 2.046200000000000E10   -1.899293822201866E-3  -3.042191801122736E-4  
 2.046400000000000E10   -2.036249631567410E-3   1.959315462348359E-5  
 2.046600000000000E10   -2.089577157878214E-3   4.745363236266983E-4  
 2.046800000000000E10   -1.921936300479704E-3   9.574175713135413E-4  
 2.047000000000000E10   -1.567977019240735E-3   1.270585831392695E-3  
 2.047200000000000E10   -1.252373840004482E-3   1.375853260806589E-3  
 2.047400000000000E10   -1.042066267001684E-3   1.432420470303408E-3  
 2.047600000000000E10   -8.168535488140254E-4   1.556979259476066E-3  
 2.047800000000000E10   -5.402153129344462E-4   1.604149932973087E-3  
 2.048000000000000E10   -3.425773735485833E-4   1.556906931067783E-3  
 2.048200000000000E10   -2.554009374256971E-4   1.539821930540105E-3  
 2.048400000000000E10   -1.444431642691295E-4   1.632427714799566E-3  
 2.048600000000000E10    8.065405752320120E-5   1.721959194616863E-3  
 2.048800000000000E10    2.946401385728408E-4   1.730860676616431E-3  
 2.049000000000000E10    4.855010246737274E-4   1.753518224210927E-3  
 2.049200000000000E10    7.070617888260773E-4   1.764603627466217E-3  
 2.049400000000000E10    9.383762846010980E-4   1.755178996568753E-3  
 2.049600000000000E10    1.254968487450646E-3   1.765182379771162E-3  
 2.049800000000000E10    1.704949342335264E-3   1.672584710090801E-3  
 2.050000000000000E10    2.118864691712790E-3   1.409012143051735E-3  
 2.050200000000000E10    2.495088942210984E-3   1.059052624946667E-3  
 2.050400000000000E10    2.858433829344534E-3   5.432781914283557E-4  
 2.050600000000000E10    3.023647280685880E-3  -1.922028071324652E-4  
 2.050800000000000E10    2.836281968349660E-3  -9.084380581043661E-4  
 2.051000000000000E10    2.478382282855887E-3  -1.384115885701721E-3  
 2.051200000000000E10    2.115411787397332E-3  -1.721103783455436E-3  
 2.051400000000000E10    1.701635636251282E-3  -1.984829897992313E-3  
 2.051600000000000E10    1.283551363653883E-3  -2.094000267485778E-3  
 2.051800000000000E10    9.787592140060885E-4  -2.104316320684222E-3  
 2.052000000000000E10    7.743799425144163E-4  -2.145149477723021E-3  
 2.052200000000000E10    5.980130000453857E-4  -2.236036773495101E-3  
 2.052400000000000E10    3.927959176642752E-4  -2.436249534151069E-3  
 2.052600000000000E10   -1.815281090481846E-6  -2.634836274578616E-3  
 2.052800000000000E10   -4.541314567042585E-4  -2.658400296544035E-3  
 2.053000000000000E10   -8.154382510973073E-4  -2.611504479621848E-3  
 2.053200000000000E10   -1.227985705352492E-3  -2.585428680672690E-3  
 2.053400000000000E10   -1.706681649752513E-3  -2.456118594165202E-3  
 2.053600000000000E10   -2.191229938977847E-3  -2.228885906300059E-3  
 2.053800000000000E10   -2.693700742114473E-3  -1.860910483325521E-3  
 2.054000000000000E10   -3.066918062460092E-3  -1.345995516102347E-3  
 2.054200000000000E10   -3.372693641318216E-3  -7.753516224005985E-4  
 2.054400000000000E10   -3.518944528574745E-3  -3.384084286355775E-5  
 2.054600000000000E10   -3.410485616229751E-3   6.716897219626441E-4  
 2.054800000000000E10   -3.163626089830091E-3   1.277502212259505E-3  
 2.055000000000000E10   -2.801180135941616E-3   1.781118404189194E-3  
 2.055200000000000E10   -2.329239095733674E-3   2.152810494105021E-3  
 2.055400000000000E10   -1.869499411744376E-3   2.318313233209429E-3  
 2.055600000000000E10   -1.566865080450144E-3   2.399916105248310E-3  
