#  HZ   S   RI   R     50.00 
! Rohde & Schwarz ZVA40 4Ports - Version 3.90 - 1145.1110k42 SN: 100403
! Date: 2023-10-03 10:29:25
! Measurement: S12 
! 
 2.000000000000000E10   -1.582066144759732E-3  -4.568750573391164E-3  
 2.000200000000000E10   -2.394407176999031E-3  -4.233927293508142E-3  
 2.000400000000000E10   -3.220629602394723E-3  -3.631749699168184E-3  
 2.000600000000000E10   -3.769782561532878E-3  -2.740494346384097E-3  
 2.000800000000000E10   -3.920747018936608E-3  -1.888306673478197E-3  
 2.001000000000000E10   -3.898373270338333E-3  -1.336294924840331E-3  
 2.001200000000000E10   -4.066057951637993E-3  -9.724824555666636E-4  
 2.001400000000000E10   -4.403151675230928E-3  -4.025808248789637E-4  
 2.001600000000000E10   -4.554247276650535E-3   4.593277569963701E-4  
 2.001800000000000E10   -4.447660909068806E-3   1.347410837533298E-3  
 2.002000000000000E10   -4.129141500150717E-3   2.210075725559836E-3  
 2.002200000000000E10   -3.536406016253211E-3   2.997905403996508E-3  
 2.002400000000000E10   -2.826690518607697E-3   3.492207387117325E-3  
 2.002600000000000E10   -2.146156987658254E-3   3.745176165399177E-3  
 2.002800000000000E10   -1.634934365197465E-3   3.918024124922577E-3  
 2.003000000000000E10   -1.196221452792762E-3   4.198128874931071E-3  
 2.003200000000000E10   -6.037478947460101E-4   4.603301381899252E-3  
 2.003400000000000E10    3.000573854445032E-4   4.890033061167708E-3  
 2.003600000000000E10    1.360023208824849E-3   4.850020873601791E-3  
 2.003800000000000E10    2.329420341454723E-3   4.475842816410242E-3  
 2.004000000000000E10    3.102798566774086E-3   3.962939173948986E-3  
 2.004200000000000E10    3.799304417851899E-3   3.370295804752796E-3  
 2.004400000000000E10    4.427969300498566E-3   2.617811568564287E-3  
 2.004600000000000E10    4.925798314313094E-3   1.673614071613109E-3  
 2.004800000000000E10    5.132648662698490E-3   5.908998427912593E-4  
 2.005000000000000E10    5.014535332857459E-3  -3.876058865528279E-4  
 2.005200000000000E10    4.723676497599593E-3  -1.230079284006799E-3  
 2.005400000000000E10    4.361505999609277E-3  -1.918409200799134E-3  
 2.005600000000000E10    3.984484200676283E-3  -2.613174953256493E-3  
 2.005800000000000E10    3.412476300986277E-3  -3.257768271766879E-3  
 2.006000000000000E10    2.760993972144746E-3  -3.682385319498955E-3  
 2.006200000000000E10    2.144390967226139E-3  -4.005271993163560E-3  
 2.006400000000000E10    1.506111558733715E-3  -4.278040698005094E-3  
 2.006600000000000E10    8.167693783805051E-4  -4.446096563090881E-3  
 2.006800000000000E10    1.960229780740553E-4  -4.532672206146850E-3  
 2.007000000000000E10   -4.380004053624968E-4  -4.625880211177800E-3  
 2.007200000000000E10   -1.179260494946330E-3  -4.640408084486371E-3  
 2.007400000000000E10   -2.004578420719891E-3  -4.543196720381578E-3  
 2.007600000000000E10   -2.945860675363629E-3  -4.249898061432221E-3  
 2.007800000000000E10   -3.792034625938094E-3  -3.623741204608922E-3  
 2.008000000000000E10   -4.383391217777023E-3  -2.841026608452753E-3  
 2.008200000000000E10   -4.834799406429132E-3  -1.991941878158186E-3  
 2.008400000000000E10   -5.097350019409702E-3  -1.081908871937129E-3  
 2.008600000000000E10   -5.213751647345446E-3  -1.980234595032892E-4  
 2.008800000000000E10   -5.228913216679185E-3   7.080284068015991E-4  
 2.009000000000000E10   -5.023401316807227E-3   1.631430496841118E-3  
 2.009200000000000E10   -4.631805544098219E-3   2.459784029741530E-3  
 2.009400000000000E10   -4.140502859458880E-3   3.208501100609149E-3  
 2.009600000000000E10   -3.574995901780548E-3   3.929996199009044E-3  
 2.009800000000000E10   -2.748344817923175E-3   4.579463094058964E-3  
 2.010000000000000E10   -1.721771002781612E-3   4.906500534464916E-3  
 2.010200000000000E10   -7.810165191552154E-4   4.894030780565960E-3  
 2.010400000000000E10   -5.275592923647275E-5   4.721664685617995E-3  
 2.010600000000000E10    4.857051902002207E-4   4.565709546484329E-3  
 2.010800000000000E10    9.678184546323287E-4   4.517136745292832E-3  
 2.011000000000000E10    1.548149502249780E-3   4.532483785792634E-3  
 2.011200000000000E10    2.310278704734865E-3   4.462959210353870E-3  
 2.011400000000000E10    3.174328072755426E-3   4.188828187546245E-3  
 2.011600000000000E10    4.064988983036192E-3   3.685308965267959E-3  
 2.011800000000000E10    4.844033555990017E-3   2.805717962069644E-3  
 2.012000000000000E10    5.230566193522127E-3   1.739006981046664E-3  
 2.012200000000000E10    5.336135574099091E-3   7.852855617076987E-4  
 2.012400000000000E10    5.354659614601622E-3  -6.972291177791908E-5  
 2.012600000000000E10    5.324368140901681E-3  -9.421760268095469E-4  
 2.012800000000000E10    5.133266922914321E-3  -1.893562989102470E-3  
 2.013000000000000E10    4.634546633395884E-3  -2.803424580229654E-3  
 2.013200000000000E10    3.981806079132690E-3  -3.471066097349481E-3  
 2.013400000000000E10    3.317839879956511E-3  -4.026679511837386E-3  
 2.013600000000000E10    2.540344717325988E-3  -4.455014718351542E-3  
 2.013800000000000E10    1.718358602374793E-3  -4.647955212190197E-3  
 2.014000000000000E10    9.945140875600002E-4  -4.654014051926357E-3  
 2.014200000000000E10    4.501215557360815E-4  -4.610933035750081E-3  
 2.014400000000000E10   -2.404059934499027E-7  -4.662076252754089E-3  
 2.014600000000000E10   -5.068897541301947E-4  -4.842589126416931E-3  
 2.014800000000000E10   -1.248142069757537E-3  -5.037265898728813E-3  
 2.015000000000000E10   -2.199788896918849E-3  -5.032971725557690E-3  
 2.015200000000000E10   -3.223310181595110E-3  -4.727889990641012E-3  
 2.015400000000000E10   -4.173536440012633E-3  -4.172021902545736E-3  
 2.015600000000000E10   -5.007851920608018E-3  -3.344410530257005E-3  
 2.015800000000000E10   -5.602295907145298E-3  -2.296391572734272E-3  
 2.016000000000000E10   -5.892620973840909E-3  -1.169226929993817E-3  
 2.016200000000000E10   -5.951838464372689E-3  -8.139471713177584E-5  
 2.016400000000000E10   -5.818350482042190E-3   9.275482174147061E-4  
 2.016600000000000E10   -5.537526130124376E-3   1.854943883329354E-3  
 2.016800000000000E10   -5.135973967197869E-3   2.756559660796214E-3  
 2.017000000000000E10   -4.551058807582767E-3   3.597604326420913E-3  
 2.017200000000000E10   -3.778059423590700E-3   4.273978751842623E-3  
 2.017400000000000E10   -2.945081106628533E-3   4.643309206046440E-3  
 2.017600000000000E10   -2.296511420152254E-3   4.838113103889758E-3  
 2.017800000000000E10   -1.714924583211542E-3   5.197557948391747E-3  
 2.018000000000000E10   -9.112562078775633E-4   5.573984545965990E-3  
 2.018200000000000E10    1.461503604702928E-5   5.768245379268020E-3  
 2.018400000000000E10    9.673453707903350E-4   5.825449643587626E-3  
 2.018600000000000E10    1.986997370194230E-3   5.732619531314683E-3  
 2.018800000000000E10    3.099277253366179E-3   5.380455163066035E-3  
 2.019000000000000E10    4.114073528735726E-3   4.706009187632138E-3  
 2.019200000000000E10    4.888142131406953E-3   3.834725909486966E-3  
 2.019400000000000E10    5.408992576930258E-3   2.865522246186932E-3  
 2.019600000000000E10    5.761412817432926E-3   1.906930779417356E-3  
 2.019800000000000E10    6.022401292015006E-3   8.486255753302465E-4  
 2.020000000000000E10    6.027261640324638E-3  -2.754583477292693E-4  
 2.020200000000000E10    5.751957547747428E-3  -1.267565017635072E-3  
 2.020400000000000E10    5.406289896065439E-3  -2.061329376711338E-3  
 2.020600000000000E10    5.054290751340214E-3  -2.843864003403320E-3  
 2.020800000000000E10    4.637936354373341E-3  -3.664337581506482E-3  
 2.021000000000000E10    3.986956241230170E-3  -4.592472100975338E-3  
 2.021200000000000E10    2.943003274224423E-3  -5.317820443047418E-3  
 2.021400000000000E10    1.828378294939521E-3  -5.596455428059455E-3  
 2.021600000000000E10    8.021383761876713E-4  -5.641093632827203E-3  
 2.021800000000000E10   -1.652556319539953E-4  -5.510564134628685E-3  
 2.022000000000000E10   -9.324430677763844E-4  -5.218735050961928E-3  
 2.022200000000000E10   -1.482173636624659E-3  -4.997879352972464E-3  
 2.022400000000000E10   -2.115486043125943E-3  -4.934847234161916E-3  
 2.022600000000000E10   -3.022064704930893E-3  -4.769577696505521E-3  
 2.022800000000000E10   -4.000421458234390E-3  -4.254696407803783E-3  
 2.023000000000000E10   -4.838755543999099E-3  -3.465956723731426E-3  
 2.023200000000000E10   -5.467795025281333E-3  -2.468362761040529E-3  
 2.023400000000000E10   -5.832749349927462E-3  -1.324369567791345E-3  
 2.023600000000000E10   -5.920642900660083E-3  -1.483544784369534E-4  
 2.023800000000000E10   -5.759519887053305E-3   9.992841838134662E-4  
 2.024000000000000E10   -5.368574401708666E-3   2.068955632340577E-3  
 2.024200000000000E10   -4.742023897253806E-3   3.015837364795584E-3  
 2.024400000000000E10   -3.900933976250667E-3   3.709357533672894E-3  
 2.024600000000000E10   -3.024706487647362E-3   4.126824386831787E-3  
 2.024800000000000E10   -2.188795504884588E-3   4.352351426388379E-3  
 2.025000000000000E10   -1.418660877755395E-3   4.397485525933682E-3  
 2.025200000000000E10   -8.244252250598814E-4   4.340166001822111E-3  
 2.025400000000000E10   -3.113551043767345E-4   4.330956256362024E-3  
 2.025600000000000E10    2.608718091828956E-4   4.393162861190461E-3  
 2.025800000000000E10    9.345676473997259E-4   4.407896763748594E-3  
 2.026000000000000E10    1.662913731437315E-3   4.279939457774162E-3  
 2.026200000000000E10    2.391699943001624E-3   4.016369270781676E-3  
 2.026400000000000E10    3.111174140401461E-3   3.593029359493543E-3  
 2.026600000000000E10    3.763102322678875E-3   3.008658221612374E-3  
 2.026800000000000E10    4.321032824615638E-3   2.235300174948794E-3  
 2.027000000000000E10    4.661972496520591E-3   1.315874133810953E-3  
 2.027200000000000E10    4.738579745645877E-3   3.449727761714410E-4  
 2.027400000000000E10    4.555654884488495E-3  -5.751154579532644E-4  
 2.027600000000000E10    4.184350492087780E-3  -1.333956274686864E-3  
 2.027800000000000E10    3.746401656557013E-3  -1.895470156644782E-3  
 2.028000000000000E10    3.381220218553036E-3  -2.332889604278737E-3  
 2.028200000000000E10    3.031311185892534E-3  -2.828217352981921E-3  
 2.028400000000000E10    2.559730084612966E-3  -3.338517638406268E-3  
 2.028600000000000E10    1.923898088366345E-3  -3.810489101818315E-3  
 2.028800000000000E10    1.107339738626723E-3  -4.111325316545037E-3  
 2.029000000000000E10    2.795355669352123E-4  -4.151620660667067E-3  
 2.029200000000000E10   -5.150474392360560E-4  -4.041960738875248E-3  
 2.029400000000000E10   -1.265252681656017E-3  -3.697081719076745E-3  
 2.029600000000000E10   -1.788615637148420E-3  -3.198769374716062E-3  
 2.029800000000000E10   -2.129316054008626E-3  -2.746389118126697E-3  
 2.030000000000000E10   -2.413525444420952E-3  -2.354309212899319E-3  
 2.030200000000000E10   -2.627524504162096E-3  -1.907978793261228E-3  
 2.030400000000000E10   -2.706867211532814E-3  -1.554283244466341E-3  
 2.030600000000000E10   -2.874372949547790E-3  -1.377689777183588E-3  
 2.030800000000000E10   -3.311766466746728E-3  -1.082270656263939E-3  
 2.031000000000000E10   -3.722278470242466E-3  -4.339647399589282E-4  
 2.031200000000000E10   -3.880821746187630E-3   4.202984467459223E-4  
 2.031400000000000E10   -3.739236095161350E-3   1.295431051403284E-3  
 2.031600000000000E10   -3.387581591528876E-3   2.119177848928505E-3  
 2.031800000000000E10   -2.767443130896600E-3   2.802306501608756E-3  
 2.032000000000000E10   -1.981776091270149E-3   3.245269138090037E-3  
 2.032200000000000E10   -1.178641665588927E-3   3.431787688492074E-3  
 2.032400000000000E10   -4.117110867001531E-4   3.379514026972983E-3  
 2.032600000000000E10    2.173215956039106E-4   3.149572544282785E-3  
 2.032800000000000E10    7.161890454072920E-4   2.841774193156097E-3  
 2.033000000000000E10    1.064895915246948E-3   2.463245850608305E-3  
 2.033200000000000E10    1.263507077022007E-3   2.115554736789178E-3  
 2.033400000000000E10    1.358915629141309E-3   1.850159662016840E-3  
 2.033600000000000E10    1.248644121612112E-3   1.813266404766452E-3  
 2.033800000000000E10    1.532167985310985E-3   1.649205874720658E-3  
 2.034000000000000E10    1.817363926588937E-3   1.663917636809250E-3  
 2.034200000000000E10    2.307727863943136E-3   1.545878769657402E-3  
 2.034400000000000E10    2.845752208183209E-3   1.107791391270304E-3  
 2.034600000000000E10    3.148244573148313E-3   4.075622828504830E-4  
 2.034800000000000E10    3.208872258525205E-3  -3.173962188022280E-4  
 2.035000000000000E10    3.116803424846795E-3  -1.063589735336050E-3  
 2.035200000000000E10    2.781946556987586E-3  -1.811374858435658E-3  
 2.035400000000000E10    2.147869845093401E-3  -2.407268793494614E-3  
 2.035600000000000E10    1.368579791030950E-3  -2.646661915436939E-3  
 2.035800000000000E10    7.370594086953336E-4  -2.565952518058044E-3  
 2.036000000000000E10    3.325077899110814E-4  -2.425318031951233E-3  
 2.036200000000000E10    6.639872413803390E-6  -2.313575233091359E-3  
 2.036400000000000E10   -3.073819626243441E-4  -2.192844041726656E-3  
 2.036600000000000E10   -5.696676175661938E-4  -2.023573861353927E-3  
 2.036800000000000E10   -7.348290291028444E-4  -1.884108133338116E-3  
 2.037000000000000E10   -9.299782686866822E-4  -1.870502144339736E-3  
 2.037200000000000E10   -1.261141759136485E-3  -1.812493661418557E-3  
 2.037400000000000E10   -1.586313557776588E-3  -1.624295272415987E-3  
 2.037600000000000E10   -1.897345667842914E-3  -1.386540510726196E-3  
 2.037800000000000E10   -2.183632364634563E-3  -1.039380104177528E-3  
 2.038000000000000E10   -2.383656153041456E-3  -6.209838255825971E-4  
 2.038200000000000E10   -2.467650756308878E-3  -1.587010391867133E-4  
 2.038400000000000E10   -2.452177952768074E-3   3.063768952550299E-4  
 2.038600000000000E10   -2.331883784521509E-3   7.985044266442182E-4  
 2.038800000000000E10   -2.044663341991880E-3   1.196231054900973E-3  
 2.039000000000000E10   -1.772612794647339E-3   1.397198669750382E-3  
 2.039200000000000E10   -1.645329166893606E-3   1.624782328252439E-3  
 2.039400000000000E10   -1.444609960782583E-3   2.003649818814463E-3  
 2.039600000000000E10   -9.969824330053397E-4   2.384932133955537E-3  
 2.039800000000000E10   -3.801930708707207E-4   2.529054811155355E-3  
 2.040000000000000E10    1.496043836663443E-4   2.392499526548717E-3  
 2.040200000000000E10    4.939598557366818E-4   2.191267812762548E-3  
 2.040400000000000E10    8.058199784028587E-4   2.027893878726496E-3  
 2.040600000000000E10    1.074276467854226E-3   1.817749037096898E-3  
 2.040800000000000E10    1.287594226326932E-3   1.627655031538948E-3  
 2.041000000000000E10    1.536131741617013E-3   1.405136056106400E-3  
 2.041200000000000E10    1.693849904566176E-3   1.092460519565201E-3  
 2.041400000000000E10    1.726731455332979E-3   8.332118439419127E-4  
 2.041600000000000E10    1.794633451262834E-3   6.824004446604738E-4  
 2.041800000000000E10    1.938756451838546E-3   5.227510183532205E-4  
 2.042000000000000E10    2.130418748560328E-3   2.877033893363896E-4  
 2.042200000000000E10    2.317296634255736E-3  -1.325418494094198E-4  
 2.042400000000000E10    2.302551892137638E-3  -6.761258506836991E-4  
 2.042600000000000E10    2.078251982176746E-3  -1.136746956035495E-3  
 2.042800000000000E10    1.845046645030379E-3  -1.458432387422633E-3  
 2.043000000000000E10    1.579593522129236E-3  -1.827986246940715E-3  
 2.043200000000000E10    1.119530272532117E-3  -2.128717601644221E-3  
 2.043400000000000E10    5.953972102832740E-4  -2.233110419991944E-3  
 2.043600000000000E10    1.437540728754054E-4  -2.154893026238790E-3  
 2.043800000000000E10   -1.840740277893256E-4  -2.008482921627109E-3  
 2.044000000000000E10   -4.913511511404067E-4  -1.840510720352608E-3  
 2.044200000000000E10   -7.039202933406666E-4  -1.556637399416003E-3  
 2.044400000000000E10   -7.063976976227155E-4  -1.290067034359608E-3  
 2.044600000000000E10   -6.325751892291009E-4  -1.257000094348634E-3  
 2.044800000000000E10   -7.074026679792615E-4  -1.384653754670311E-3  
 2.045000000000000E10   -9.731807814979996E-4  -1.484683490599747E-3  
 2.045200000000000E10   -1.342191041826650E-3  -1.434647728240601E-3  
 2.045400000000000E10   -1.725835764470200E-3  -1.187085911321143E-3  
 2.045600000000000E10   -1.936575337485583E-3  -7.927258567953554E-4  
 2.045800000000000E10   -1.977970349360947E-3  -4.512014803131698E-4  
 2.046000000000000E10   -1.998297904652578E-3  -1.786877829646175E-4  
 2.046200000000000E10   -2.027324918243621E-3   7.866692451191030E-5  
 2.046400000000000E10   -2.096047814659499E-3   3.913347652457931E-4  
 2.046600000000000E10   -2.089455732385869E-3   8.277007081131970E-4  
 2.046800000000000E10   -1.871244447236812E-3   1.301274354638601E-3  
 2.047000000000000E10   -1.486059730975993E-3   1.589001919556823E-3  
 2.047200000000000E10   -1.142152020259312E-3   1.705326195978732E-3  
 2.047400000000000E10   -8.926317850300285E-4   1.789371621001650E-3  
 2.047600000000000E10   -6.028412500637826E-4   1.910891000146943E-3  
 2.047800000000000E10   -2.376897146287202E-4   1.885578575268112E-3  
 2.048000000000000E10    6.861009616706592E-6   1.740706618875265E-3  
 2.048200000000000E10    1.098300116508553E-4   1.606606947327102E-3  
 2.048400000000000E10    1.628808590962931E-4   1.611463617774900E-3  
 2.048600000000000E10    2.988964158619099E-4   1.680369782089084E-3  
 2.048800000000000E10    4.953391078204193E-4   1.737999643578574E-3  
 2.049000000000000E10    7.519871212059151E-4   1.784572088918476E-3  
 2.049200000000000E10    1.063864031392667E-3   1.750981818919105E-3  
 2.049400000000000E10    1.344072524699624E-3   1.655300195259905E-3  
 2.049600000000000E10    1.635346781565911E-3   1.566791449914928E-3  
 2.049800000000000E10    2.012123871180747E-3   1.393399115099951E-3  
 2.050000000000000E10    2.346496166730369E-3   1.066470441098015E-3  
 2.050200000000000E10    2.632542306350337E-3   6.879676409341671E-4  
 2.050400000000000E10    2.899328876217759E-3   1.706339206537922E-4  
 2.050600000000000E10    2.985325978241033E-3  -5.207013627686712E-4  
 2.050800000000000E10    2.767928082633902E-3  -1.188113440380053E-3  
 2.051000000000000E10    2.401697406269335E-3  -1.671059026934759E-3  
 2.051200000000000E10    2.008050576680237E-3  -2.048028477778038E-3  
 2.051400000000000E10    1.517554344091979E-3  -2.314164061789160E-3  
 2.051600000000000E10    1.048697788199341E-3  -2.360625916885005E-3  
 2.051800000000000E10    7.322453548786818E-4  -2.304669831775957E-3  
 2.052000000000000E10    5.250330604785296E-4  -2.310577685151387E-3  
 2.052200000000000E10    3.198351780021632E-4  -2.376785510461088E-3  
 2.052400000000000E10    7.802109582742021E-5  -2.535761609949448E-3  
 2.052600000000000E10   -3.345807921572554E-4  -2.676985243818274E-3  
 2.052800000000000E10   -8.055565542437965E-4  -2.638022156639232E-3  
 2.053000000000000E10   -1.188866173227628E-3  -2.533600536278553E-3  
 2.053200000000000E10   -1.634036367586642E-3  -2.441528365360918E-3  
 2.053400000000000E10   -2.093460178002715E-3  -2.189784698809187E-3  
 2.053600000000000E10   -2.478401211124880E-3  -1.848093445274841E-3  
 2.053800000000000E10   -2.817428291395859E-3  -1.431392609245247E-3  
 2.054000000000000E10   -3.055140358844290E-3  -9.686402950642838E-4  
 2.054200000000000E10   -3.299373909141179E-3  -4.771367433325698E-4  
 2.054400000000000E10   -3.439666263552176E-3   1.963073071372627E-4  
 2.054600000000000E10   -3.329395566618554E-3   8.843099629437483E-4  
 2.054800000000000E10   -3.078831618444788E-3   1.492872816958913E-3  
 2.055000000000000E10   -2.680863046811687E-3   2.043680029196872E-3  
 2.055200000000000E10   -2.136614035677027E-3   2.407895763301187E-3  
 2.055400000000000E10   -1.635720418697154E-3   2.512875728792063E-3  
 2.055600000000000E10   -1.307925696622718E-3   2.521108853182307E-3  
