#  HZ   S   RI   R     50.00 
! Rohde & Schwarz ZVA40 4Ports - Version 3.90 - 1145.1110k42 SN: 100403
! Date: 2023-10-03 10:30:10
! Measurement: S12 
! 
 2.000000000000000E10   -1.398417749442160E-3  -4.786536804641839E-3  
 2.000200000000000E10   -2.292193187814620E-3  -4.459009781755783E-3  
 2.000400000000000E10   -3.174472557104849E-3  -3.869925254817915E-3  
 2.000600000000000E10   -3.797607177316591E-3  -2.958101573986588E-3  
 2.000800000000000E10   -3.997791299803390E-3  -2.048889476874913E-3  
 2.001000000000000E10   -3.974630445655850E-3  -1.436164964818292E-3  
 2.001200000000000E10   -4.113677440694085E-3  -1.045222351051591E-3  
 2.001400000000000E10   -4.451679393511128E-3  -4.579007412151744E-4  
 2.001600000000000E10   -4.629189924647411E-3   4.110736071770253E-4  
 2.001800000000000E10   -4.535995268573364E-3   1.315119684915300E-3  
 2.002000000000000E10   -4.190875389785679E-3   2.199261328550401E-3  
 2.002200000000000E10   -3.577618730357952E-3   2.973046947132659E-3  
 2.002400000000000E10   -2.879654255661148E-3   3.453464204169534E-3  
 2.002600000000000E10   -2.212674486347371E-3   3.715529675698943E-3  
 2.002800000000000E10   -1.714896997091947E-3   3.882411393095499E-3  
 2.003000000000000E10   -1.285588946538391E-3   4.184458542753150E-3  
 2.003200000000000E10   -6.601759900890843E-4   4.604433421735411E-3  
 2.003400000000000E10    2.526957778846500E-4   4.859706645624505E-3  
 2.003600000000000E10    1.245720812154037E-3   4.810257349163294E-3  
 2.003800000000000E10    2.147134289973312E-3   4.503347479772789E-3  
 2.004000000000000E10    2.909601993720841E-3   4.082453971797670E-3  
 2.004200000000000E10    3.648984539150088E-3   3.590537036803586E-3  
 2.004400000000000E10    4.377670085954446E-3   2.926860435831327E-3  
 2.004600000000000E10    5.027386894518579E-3   1.983153056008397E-3  
 2.004800000000000E10    5.342467670777330E-3   8.225317126036519E-4  
 2.005000000000000E10    5.282377703460279E-3  -2.997489969453050E-4  
 2.005200000000000E10    4.958238797607246E-3  -1.283607915630219E-3  
 2.005400000000000E10    4.522078101419741E-3  -2.038849181392127E-3  
 2.005600000000000E10    4.073369178783011E-3  -2.736510708928108E-3  
 2.005800000000000E10    3.458961154575701E-3  -3.345184390329653E-3  
 2.006000000000000E10    2.791125146258209E-3  -3.750129076824697E-3  
 2.006200000000000E10    2.173905260860920E-3  -4.048490137965591E-3  
 2.006400000000000E10    1.552082404183845E-3  -4.310324391419138E-3  
 2.006600000000000E10    8.589009607762651E-4  -4.494626109522802E-3  
 2.006800000000000E10    2.224115257073815E-4  -4.579848368410712E-3  
 2.007000000000000E10   -4.297666212854286E-4  -4.677817708364240E-3  
 2.007200000000000E10   -1.185103479117431E-3  -4.694882504366063E-3  
 2.007400000000000E10   -2.018077393855762E-3  -4.616360214573366E-3  
 2.007600000000000E10   -2.978402319260770E-3  -4.327977438353831E-3  
 2.007800000000000E10   -3.838305180478428E-3  -3.676643491619164E-3  
 2.008000000000000E10   -4.439376949988030E-3  -2.911035299163174E-3  
 2.008200000000000E10   -4.902895367531865E-3  -2.038759946892108E-3  
 2.008400000000000E10   -5.169065324244677E-3  -1.130781084713009E-3  
 2.008600000000000E10   -5.298100463632081E-3  -2.125769059165140E-4  
 2.008800000000000E10   -5.285258801584996E-3   7.678353663154499E-4  
 2.009000000000000E10   -5.014265197570678E-3   1.706617698935723E-3  
 2.009200000000000E10   -4.579021681652026E-3   2.516780186582495E-3  
 2.009400000000000E10   -4.072097733754804E-3   3.205008649577697E-3  
 2.009600000000000E10   -3.520627247376575E-3   3.844302311470664E-3  
 2.009800000000000E10   -2.781544173895209E-3   4.463894620399785E-3  
 2.010000000000000E10   -1.839355423322155E-3   4.820185127081695E-3  
 2.010200000000000E10   -9.374162333120629E-4   4.866619111487160E-3  
 2.010400000000000E10   -2.267689932422299E-4   4.764602933492926E-3  
 2.010600000000000E10    3.584044386149833E-4   4.688961810811803E-3  
 2.010800000000000E10    9.317849266894715E-4   4.674658782918145E-3  
 2.011000000000000E10    1.609231358290547E-3   4.669352262108415E-3  
 2.011200000000000E10    2.417958091461548E-3   4.531701561063528E-3  
 2.011400000000000E10    3.278006014793560E-3   4.186668295275283E-3  
 2.011600000000000E10    4.115765793593946E-3   3.642175519080075E-3  
 2.011800000000000E10    4.833761050745294E-3   2.778138344486555E-3  
 2.012000000000000E10    5.195017231421338E-3   1.768089615291468E-3  
 2.012200000000000E10    5.325224733463040E-3   8.395838495171457E-4  
 2.012400000000000E10    5.361691082793254E-3  -1.553547803336253E-5  
 2.012600000000000E10    5.335638541038391E-3  -8.803094625128089E-4  
 2.012800000000000E10    5.163189627368142E-3  -1.844800659455359E-3  
 2.013000000000000E10    4.680102553080630E-3  -2.756261137417621E-3  
 2.013200000000000E10    4.062629339319689E-3  -3.428059957783532E-3  
 2.013400000000000E10    3.421236614317255E-3  -3.998595082925426E-3  
 2.013600000000000E10    2.662083013328138E-3  -4.476351663470268E-3  
 2.013800000000000E10    1.821656707087877E-3  -4.701307474601049E-3  
 2.014000000000000E10    1.100163234190809E-3  -4.714823138244726E-3  
 2.014200000000000E10    5.576706650942840E-4  -4.726545264323553E-3  
 2.014400000000000E10    5.808755850011950E-5  -4.813345045679146E-3  
 2.014600000000000E10   -5.136302465365994E-4  -4.988464147404389E-3  
 2.014800000000000E10   -1.301153955325760E-3  -5.168338754662762E-3  
 2.015000000000000E10   -2.305488792006617E-3  -5.134684275145885E-3  
 2.015200000000000E10   -3.336374966979579E-3  -4.804911091923714E-3  
 2.015400000000000E10   -4.314727701798634E-3  -4.223706442172882E-3  
 2.015600000000000E10   -5.186930505765810E-3  -3.361254714912288E-3  
 2.015800000000000E10   -5.769051507943207E-3  -2.239475923555869E-3  
 2.016000000000000E10   -6.003251609702907E-3  -1.055478601268044E-3  
 2.016200000000000E10   -5.988383493213744E-3   3.686933033114420E-5  
 2.016400000000000E10   -5.810316496839127E-3   1.033926231752115E-3  
 2.016600000000000E10   -5.489274893921835E-3   1.953222232663797E-3  
 2.016800000000000E10   -5.078395897591556E-3   2.810355327609513E-3  
 2.017000000000000E10   -4.499652388471145E-3   3.627141704782844E-3  
 2.017200000000000E10   -3.743649891543168E-3   4.273396123338630E-3  
 2.017400000000000E10   -2.944497943476395E-3   4.645414874647503E-3  
 2.017600000000000E10   -2.307640009180263E-3   4.852852887577482E-3  
 2.017800000000000E10   -1.748255816184812E-3   5.212393985992230E-3  
 2.018000000000000E10   -9.593484035037736E-4   5.610120448249358E-3  
 2.018200000000000E10   -4.151533054634153E-5   5.824719124508126E-3  
 2.018400000000000E10    9.442879451887201E-4   5.915279431199587E-3  
 2.018600000000000E10    2.002636091438709E-3   5.833466640777059E-3  
 2.018800000000000E10    3.159801182509573E-3   5.493009842380331E-3  
 2.019000000000000E10    4.221423615322070E-3   4.805170551494317E-3  
 2.019200000000000E10    5.045110618488656E-3   3.903768991154654E-3  
 2.019400000000000E10    5.620865444480270E-3   2.892343551610355E-3  
 2.019600000000000E10    5.999259702447389E-3   1.848720962664596E-3  
 2.019800000000000E10    6.203434723256915E-3   7.017420807473914E-4  
 2.020000000000000E10    6.118146599166924E-3  -4.495887055613653E-4  
 2.020200000000000E10    5.776267274524328E-3  -1.446321899830192E-3  
 2.020400000000000E10    5.369597769997739E-3  -2.226135141595646E-3  
 2.020600000000000E10    4.993792847488766E-3  -2.964496250367827E-3  
 2.020800000000000E10    4.596494345201387E-3  -3.765476669219357E-3  
 2.021000000000000E10    3.936678602325696E-3  -4.706246968082808E-3  
 2.021200000000000E10    2.861160862570008E-3  -5.437634540376841E-3  
 2.021400000000000E10    1.696763650721146E-3  -5.702954992927887E-3  
 2.021600000000000E10    6.522762727130343E-4  -5.703085550555477E-3  
 2.021800000000000E10   -2.986020279220409E-4  -5.535576061380131E-3  
 2.022000000000000E10   -1.078658685502079E-3  -5.241350460521601E-3  
 2.022200000000000E10   -1.688331520805757E-3  -4.959596407220320E-3  
 2.022400000000000E10   -2.315260202589411E-3  -4.794822212446620E-3  
 2.022600000000000E10   -3.133416943321074E-3  -4.556643017740162E-3  
 2.022800000000000E10   -4.017231709979199E-3  -4.065610985789035E-3  
 2.023000000000000E10   -4.824410106434867E-3  -3.320758757008999E-3  
 2.023200000000000E10   -5.444034209681883E-3  -2.354646144710757E-3  
 2.023400000000000E10   -5.808989344923585E-3  -1.208557260084760E-3  
 2.023600000000000E10   -5.854323575342144E-3  -2.816694554726213E-5  
 2.023800000000000E10   -5.657019938721702E-3   1.073876059510642E-3  
 2.024000000000000E10   -5.270844808331242E-3   2.114192953471233E-3  
 2.024200000000000E10   -4.632230002984957E-3   3.066592013325405E-3  
 2.024400000000000E10   -3.759316151478777E-3   3.750957324411031E-3  
 2.024600000000000E10   -2.870098040956590E-3   4.117171883721044E-3  
 2.024800000000000E10   -2.062172421978580E-3   4.276992425460507E-3  
 2.025000000000000E10   -1.369028140928734E-3   4.316002527182854E-3  
 2.025200000000000E10   -8.149553991474764E-4   4.300289080236798E-3  
 2.025400000000000E10   -3.006326183418019E-4   4.330958429448031E-3  
 2.025600000000000E10    2.849174650489456E-4   4.408902885323323E-3  
 2.025800000000000E10    9.971925669729159E-4   4.446012140424164E-3  
 2.026000000000000E10    1.794803684956774E-3   4.279173082775541E-3  
 2.026200000000000E10    2.567238424456230E-3   3.918483948197079E-3  
 2.026400000000000E10    3.252518225323272E-3   3.380008947311176E-3  
 2.026600000000000E10    3.798495529702417E-3   2.729523435441984E-3  
 2.026800000000000E10    4.260277548046024E-3   1.974141647763275E-3  
 2.027000000000000E10    4.524002110378610E-3   1.093845650622690E-3  
 2.027200000000000E10    4.534302158626142E-3   1.766706678878378E-4  
 2.027400000000000E10    4.308858110258977E-3  -6.510714366514650E-4  
 2.027600000000000E10    3.952595388033877E-3  -1.337887865870639E-3  
 2.027800000000000E10    3.508478006417001E-3  -1.846283208578825E-3  
 2.028000000000000E10    3.135032598274174E-3  -2.195157731572787E-3  
 2.028200000000000E10    2.848017995280248E-3  -2.577575096101673E-3  
 2.028400000000000E10    2.511636336782465E-3  -3.051943939041209E-3  
 2.028600000000000E10    1.986317250325724E-3  -3.570667148947165E-3  
 2.028800000000000E10    1.239243519699408E-3  -3.955972260209146E-3  
 2.029000000000000E10    4.167784451662253E-4  -4.075414156196295E-3  
 2.029200000000000E10   -4.152941940076374E-4  -4.007607198285836E-3  
 2.029400000000000E10   -1.185463603447985E-3  -3.672144436104982E-3  
 2.029600000000000E10   -1.723093114344886E-3  -3.173895956327518E-3  
 2.029800000000000E10   -2.042472612595669E-3  -2.714638701743550E-3  
 2.030000000000000E10   -2.301647853865116E-3  -2.338766939593135E-3  
 2.030200000000000E10   -2.529720706796205E-3  -1.933584860698493E-3  
 2.030400000000000E10   -2.652505309217506E-3  -1.587181791870131E-3  
 2.030600000000000E10   -2.837599634572312E-3  -1.382717405687328E-3  
 2.030800000000000E10   -3.258624545264024E-3  -1.091596308267779E-3  
 2.031000000000000E10   -3.672859959166359E-3  -4.552203743649578E-4  
 2.031200000000000E10   -3.820769747512208E-3   3.976405434379424E-4  
 2.031400000000000E10   -3.665655463313063E-3   1.255194518577170E-3  
 2.031600000000000E10   -3.307897709654990E-3   2.039882570022235E-3  
 2.031800000000000E10   -2.698415485038250E-3   2.680722563699992E-3  
 2.032000000000000E10   -1.961979799455515E-3   3.097579184988583E-3  
 2.032200000000000E10   -1.208374832963778E-3   3.278274744473122E-3  
 2.032400000000000E10   -5.008200230939246E-4   3.249405684915407E-3  
 2.032600000000000E10    9.647003854398566E-5   3.077049351607760E-3  
 2.032800000000000E10    5.866333161032311E-4   2.821650252574020E-3  
 2.033000000000000E10    9.653332720821104E-4   2.497264830809501E-3  
 2.033200000000000E10    1.225218780476738E-3   2.166166134109652E-3  
 2.033400000000000E10    1.348466043257051E-3   1.836635370704311E-3  
 2.033600000000000E10    1.190237399121678E-3   1.766287984705910E-3  
 2.033800000000000E10    1.426050801657968E-3   1.623002169826241E-3  
 2.034000000000000E10    1.681965292879829E-3   1.676061656326056E-3  
 2.034200000000000E10    2.158429775456036E-3   1.629081761671437E-3  
 2.034400000000000E10    2.743692490858613E-3   1.255059433687065E-3  
 2.034600000000000E10    3.125000969265347E-3   5.961655621865282E-4  
 2.034800000000000E10    3.257339320111055E-3  -1.549606229808113E-4  
 2.035000000000000E10    3.191149586604701E-3  -9.207179817302085E-4  
 2.035200000000000E10    2.897178581743329E-3  -1.676467738838660E-3  
 2.035400000000000E10    2.320471159354957E-3  -2.314994266877572E-3  
 2.035600000000000E10    1.572491445889076E-3  -2.639588658456450E-3  
 2.035800000000000E10    8.899240400987092E-4  -2.658718610527339E-3  
 2.036000000000000E10    4.004275133074434E-4  -2.537756209710130E-3  
 2.036200000000000E10    3.840635488611750E-5  -2.412406831151910E-3  
 2.036400000000000E10   -2.745858693271186E-4  -2.293931898074570E-3  
 2.036600000000000E10   -5.479694292363194E-4  -2.130585394937683E-3  
 2.036800000000000E10   -7.427775482129720E-4  -1.996784755546186E-3  
 2.037000000000000E10   -9.767827017370750E-4  -1.977591559773794E-3  
 2.037200000000000E10   -1.335714680694596E-3  -1.894769392459205E-3  
 2.037400000000000E10   -1.683652090529601E-3  -1.674855973019645E-3  
 2.037600000000000E10   -1.999925511578719E-3  -1.374793527820320E-3  
 2.037800000000000E10   -2.270669141715324E-3  -9.855770967314367E-4  
 2.038000000000000E10   -2.431774598166899E-3  -5.219827763977703E-4  
 2.038200000000000E10   -2.444251354231879E-3  -5.468762504245173E-5  
 2.038400000000000E10   -2.389306306011147E-3   3.429034226832705E-4  
 2.038600000000000E10   -2.281123444575955E-3   7.549015658528165E-4  
 2.038800000000000E10   -2.067940525227675E-3   1.129134916010554E-3  
 2.039000000000000E10   -1.849455470046788E-3   1.362838446059161E-3  
 2.039200000000000E10   -1.722709676768217E-3   1.637253013473970E-3  
 2.039400000000000E10   -1.495944452472032E-3   2.047442822475677E-3  
 2.039600000000000E10   -1.019021759189114E-3   2.431147749087325E-3  
 2.039800000000000E10   -3.955024175984027E-4   2.570788617487307E-3  
 2.040000000000000E10    1.526668358430335E-4   2.445103548881081E-3  
 2.040200000000000E10    5.010336926379414E-4   2.254328311041550E-3  
 2.040400000000000E10    8.115524413167604E-4   2.112538838345144E-3  
 2.040600000000000E10    1.135922593271567E-3   1.922884973248950E-3  
 2.040800000000000E10    1.411101103898276E-3   1.670754212817108E-3  
 2.041000000000000E10    1.635650711789452E-3   1.382761863405230E-3  
 2.041200000000000E10    1.758703724826100E-3   1.053651958635008E-3  
 2.041400000000000E10    1.781420338105549E-3   7.735831809609578E-4  
 2.041600000000000E10    1.819944207522053E-3   5.923178353070938E-4  
 2.041800000000000E10    1.927356140826036E-3   4.182345766349937E-4  
 2.042000000000000E10    2.067553655554851E-3   1.970002119412163E-4  
 2.042200000000000E10    2.217585539997176E-3  -1.483001418549706E-4  
 2.042400000000000E10    2.233400104429435E-3  -6.091321702115238E-4  
 2.042600000000000E10    2.090186993074087E-3  -1.030503905861190E-3  
 2.042800000000000E10    1.934490257149769E-3  -1.381633264288582E-3  
 2.043000000000000E10    1.703230547718704E-3  -1.825720524518854E-3  
 2.043200000000000E10    1.242488665782191E-3  -2.195444009784196E-3  
 2.043400000000000E10    6.678866726967196E-4  -2.336407735667847E-3  
 2.043600000000000E10    1.578139662915082E-4  -2.286610779938875E-3  
 2.043800000000000E10   -2.260241437599891E-4  -2.135809045284987E-3  
 2.044000000000000E10   -5.599615073555874E-4  -1.941116233528764E-3  
 2.044200000000000E10   -8.036536595749635E-4  -1.646045177174664E-3  
 2.044400000000000E10   -8.531711797264440E-4  -1.354782790359524E-3  
 2.044600000000000E10   -7.893364182328461E-4  -1.252109516860435E-3  
 2.044800000000000E10   -8.402908354549223E-4  -1.313089237858852E-3  
 2.045000000000000E10   -1.039622299787071E-3  -1.367995575829237E-3  
 2.045200000000000E10   -1.330654731848174E-3  -1.325706860774921E-3  
 2.045400000000000E10   -1.683985935179172E-3  -1.118310783230872E-3  
 2.045600000000000E10   -1.894592505845207E-3  -7.531898100515484E-4  
 2.045800000000000E10   -1.942673012510770E-3  -4.440467563216333E-4  
 2.046000000000000E10   -1.996544806321186E-3  -1.941756986693859E-4  
 2.046200000000000E10   -2.064190330673699E-3   6.379786699889573E-5  
 2.046400000000000E10   -2.146957787098708E-3   4.125756817369688E-4  
 2.046600000000000E10   -2.118391329767528E-3   8.844143206564090E-4  
 2.046800000000000E10   -1.873200612694577E-3   1.351840647489385E-3  
 2.047000000000000E10   -1.487309001041231E-3   1.631706340790347E-3  
 2.047200000000000E10   -1.129750524544054E-3   1.747317577677745E-3  
 2.047400000000000E10   -8.505310720971064E-4   1.823146629181725E-3  
 2.047600000000000E10   -5.579303574955298E-4   1.906428740497817E-3  
 2.047800000000000E10   -2.220839033489702E-4   1.880778883652831E-3  
 2.048000000000000E10    7.554344375859261E-6   1.764166957905723E-3  
 2.048200000000000E10    1.146153383025969E-4   1.663364465693357E-3  
 2.048400000000000E10    2.195946629702424E-4   1.692268725795051E-3  
 2.048600000000000E10    4.290591524396506E-4   1.715380258651244E-3  
 2.048800000000000E10    6.178113938033306E-4   1.690457402556031E-3  
 2.049000000000000E10    8.128097289483306E-4   1.692969783174771E-3  
 2.049200000000000E10    1.075926719716302E-3   1.667360305199745E-3  
 2.049400000000000E10    1.342973477828006E-3   1.595266090050616E-3  
 2.049600000000000E10    1.636068207315273E-3   1.511369409315564E-3  
 2.049800000000000E10    2.001625209770821E-3   1.331601835166415E-3  
 2.050000000000000E10    2.316839122040957E-3   1.027889842926352E-3  
 2.050200000000000E10    2.611854105015044E-3   6.680602608765994E-4  
 2.050400000000000E10    2.897320392852028E-3   1.602509507426509E-4  
 2.050600000000000E10    3.018116897523956E-3  -5.464887147320918E-4  
 2.050800000000000E10    2.793508952621509E-3  -1.288064332954862E-3  
 2.051000000000000E10    2.342183875885827E-3  -1.804345136473852E-3  
 2.051200000000000E10    1.854950389652341E-3  -2.122830953104077E-3  
 2.051400000000000E10    1.354153522428263E-3  -2.309548582329794E-3  
 2.051600000000000E10    8.734180570442094E-4  -2.310052996984235E-3  
 2.051800000000000E10    5.762769788917569E-4  -2.173098761381375E-3  
 2.052000000000000E10    4.448099579248164E-4  -2.116460516979849E-3  
 2.052200000000000E10    3.466381329215235E-4  -2.183613100054640E-3  
 2.052400000000000E10    1.878469580939661E-4  -2.386466617247573E-3  
 2.052600000000000E10   -2.050222149894883E-4  -2.597751561552286E-3  
 2.052800000000000E10   -6.809242423278867E-4  -2.603013008074077E-3  
 2.053000000000000E10   -1.048627990746388E-3  -2.540741227912131E-3  
 2.053200000000000E10   -1.501362969133037E-3  -2.499795423958589E-3  
 2.053400000000000E10   -2.018944869093873E-3  -2.308873563177056E-3  
 2.053600000000000E10   -2.495513090656864E-3  -1.980245760124591E-3  
 2.053800000000000E10   -2.905208798539308E-3  -1.514147514373892E-3  
 2.054000000000000E10   -3.187014203932551E-3  -9.645531557638338E-4  
 2.054200000000000E10   -3.390920460569086E-3  -3.817366927655207E-4  
 2.054400000000000E10   -3.442301604620837E-3   3.290702685868989E-4  
 2.054600000000000E10   -3.261292223922081E-3   9.774585896930488E-4  
 2.054800000000000E10   -2.987719270297223E-3   1.544867706899014E-3  
 2.055000000000000E10   -2.568603320806115E-3   2.059829792145778E-3  
 2.055200000000000E10   -2.002867456111643E-3   2.397929801157227E-3  
 2.055400000000000E10   -1.470847482172152E-3   2.434941370868021E-3  
 2.055600000000000E10   -1.191729011393532E-3   2.366654367910491E-3  
