#  HZ   S   RI   R     50.00 
! Rohde & Schwarz ZVA40 4Ports - Version 3.90 - 1145.1110k42 SN: 100403
! Date: 2023-10-03 10:30:43
! Measurement: S12 
! 
 2.000000000000000E10   -1.559685519034112E-3  -4.615052034043604E-3  
 2.000200000000000E10   -2.379214830903544E-3  -4.278672548631827E-3  
 2.000400000000000E10   -3.211872289992041E-3  -3.692634498562526E-3  
 2.000600000000000E10   -3.800325526821393E-3  -2.819371263117150E-3  
 2.000800000000000E10   -3.984218480548373E-3  -1.952674748651960E-3  
 2.001000000000000E10   -3.990361053082678E-3  -1.347569399513304E-3  
 2.001200000000000E10   -4.161664560713150E-3  -9.372013414071668E-4  
 2.001400000000000E10   -4.463422370867597E-3  -3.393337214624303E-4  
 2.001600000000000E10   -4.606152867415438E-3   5.366310533308598E-4  
 2.001800000000000E10   -4.485648763538511E-3   1.430410943511460E-3  
 2.002000000000000E10   -4.118112071106832E-3   2.317826565424050E-3  
 2.002200000000000E10   -3.464542760479230E-3   3.072768639497184E-3  
 2.002400000000000E10   -2.739326881796674E-3   3.522155763305448E-3  
 2.002600000000000E10   -2.096232552840202E-3   3.734996775165201E-3  
 2.002800000000000E10   -1.622379550503360E-3   3.898495808243752E-3  
 2.003000000000000E10   -1.174113859801933E-3   4.210174635604577E-3  
 2.003200000000000E10   -5.595375281430919E-4   4.626361963649591E-3  
 2.003400000000000E10    3.509376676649684E-4   4.875283584826523E-3  
 2.003600000000000E10    1.376874102452011E-3   4.809280564249666E-3  
 2.003800000000000E10    2.300292632921979E-3   4.445913678931970E-3  
 2.004000000000000E10    3.063261896992723E-3   3.967909030271350E-3  
 2.004200000000000E10    3.776210015294729E-3   3.419404366502056E-3  
 2.004400000000000E10    4.453912722291771E-3   2.692403349404534E-3  
 2.004600000000000E10    5.002623924088699E-3   1.750429260061571E-3  
 2.004800000000000E10    5.248711237476932E-3   6.068967416434101E-4  
 2.005000000000000E10    5.147953897162721E-3  -4.581354592961294E-4  
 2.005200000000000E10    4.814953129324649E-3  -1.355515383356424E-3  
 2.005400000000000E10    4.395728551403241E-3  -2.083490844126101E-3  
 2.005600000000000E10    3.935699704689561E-3  -2.769971369869180E-3  
 2.005800000000000E10    3.293399267864448E-3  -3.365853430565309E-3  
 2.006000000000000E10    2.617080204395785E-3  -3.718030035357785E-3  
 2.006200000000000E10    2.027255961567991E-3  -3.964184697165534E-3  
 2.006400000000000E10    1.451930889204421E-3  -4.201418996133187E-3  
 2.006600000000000E10    7.921828310591757E-4  -4.383127567254836E-3  
 2.006800000000000E10    1.637442866113917E-4  -4.474722297379265E-3  
 2.007000000000000E10   -4.406739047866453E-4  -4.562197391081740E-3  
 2.007200000000000E10   -1.139113282853807E-3  -4.612359149312533E-3  
 2.007400000000000E10   -1.966267470615330E-3  -4.567304729587503E-3  
 2.007600000000000E10   -2.945942761100553E-3  -4.288375739836032E-3  
 2.007800000000000E10   -3.839489779676553E-3  -3.641834223849906E-3  
 2.008000000000000E10   -4.462234382690103E-3  -2.827484945387201E-3  
 2.008200000000000E10   -4.887073197298581E-3  -1.912308171288007E-3  
 2.008400000000000E10   -5.091227332337036E-3  -9.931819146947454E-4  
 2.008600000000000E10   -5.146575746712862E-3  -1.090871198728025E-4  
 2.008800000000000E10   -5.120541865902919E-3   7.759707708222172E-4  
 2.009000000000000E10   -4.895108389771648E-3   1.614768036503207E-3  
 2.009200000000000E10   -4.553938870904623E-3   2.390112831360764E-3  
 2.009400000000000E10   -4.110454409210771E-3   3.138045090492125E-3  
 2.009600000000000E10   -3.526119998207799E-3   3.860378086015030E-3  
 2.009800000000000E10   -2.721986957584267E-3   4.496670000393083E-3  
 2.010000000000000E10   -1.744416266403817E-3   4.801330363584890E-3  
 2.010200000000000E10   -8.476825400807516E-4   4.804571090197123E-3  
 2.010400000000000E10   -1.508849694531549E-4   4.663316343255617E-3  
 2.010600000000000E10    3.950788372161765E-4   4.558097088226566E-3  
 2.010800000000000E10    9.004743446389007E-4   4.554776492080203E-3  
 2.011000000000000E10    1.519165079419812E-3   4.572067633961087E-3  
 2.011200000000000E10    2.277295062042497E-3   4.478089804588645E-3  
 2.011400000000000E10    3.120992341320272E-3   4.207828271858119E-3  
 2.011600000000000E10    4.015009160395023E-3   3.719208598205889E-3  
 2.011800000000000E10    4.817446831751754E-3   2.875550606943392E-3  
 2.012000000000000E10    5.236300225887034E-3   1.825137279444823E-3  
 2.012200000000000E10    5.377864585844456E-3   8.272447394793510E-4  
 2.012400000000000E10    5.373965724612829E-3  -9.628494296554926E-5  
 2.012600000000000E10    5.299390897292783E-3  -9.694952556552987E-4  
 2.012800000000000E10    5.067563546752489E-3  -1.896746016831862E-3  
 2.013000000000000E10    4.579965956509113E-3  -2.732306408385436E-3  
 2.013200000000000E10    3.981923632737664E-3  -3.360316217704505E-3  
 2.013400000000000E10    3.353246927468314E-3  -3.920306003204099E-3  
 2.013600000000000E10    2.610755851492286E-3  -4.383212041661696E-3  
 2.013800000000000E10    1.822612795944291E-3  -4.589651090403399E-3  
 2.014000000000000E10    1.125986614540495E-3  -4.626178596582678E-3  
 2.014200000000000E10    5.849067389068229E-4  -4.631804664515788E-3  
 2.014400000000000E10    1.126077283549455E-4  -4.741847756560203E-3  
 2.014600000000000E10   -4.403397744883680E-4  -4.963741913713791E-3  
 2.014800000000000E10   -1.229913301627945E-3  -5.173129615960299E-3  
 2.015000000000000E10   -2.236498364557823E-3  -5.154422208390855E-3  
 2.015200000000000E10   -3.290510589808778E-3  -4.814384246451988E-3  
 2.015400000000000E10   -4.266389007507651E-3  -4.231656315150085E-3  
 2.015600000000000E10   -5.127433739188645E-3  -3.378582005906437E-3  
 2.015800000000000E10   -5.714958619878249E-3  -2.300705493393320E-3  
 2.016000000000000E10   -5.977849786480268E-3  -1.105139752056588E-3  
 2.016200000000000E10   -5.966971283433615E-3   1.807519752387805E-5  
 2.016400000000000E10   -5.773647653835792E-3   1.018853370893609E-3  
 2.016600000000000E10   -5.455028196727789E-3   1.871717106378465E-3  
 2.016800000000000E10   -5.093075628219932E-3   2.689305908495078E-3  
 2.017000000000000E10   -4.562750234510061E-3   3.488035355177191E-3  
 2.017200000000000E10   -3.874272056337860E-3   4.188183867545040E-3  
 2.017400000000000E10   -3.087611731003833E-3   4.677557558925064E-3  
 2.017600000000000E10   -2.409200347891009E-3   4.971449970509168E-3  
 2.017800000000000E10   -1.759550965356606E-3   5.353909227307197E-3  
 2.018000000000000E10   -8.751490838929184E-4   5.700293048802350E-3  
 2.018200000000000E10    8.348480420223766E-5   5.853676685580502E-3  
 2.018400000000000E10    1.047162759479963E-3   5.880777620606953E-3  
 2.018600000000000E10    2.054279036302534E-3   5.779710270602395E-3  
 2.018800000000000E10    3.172597175257074E-3   5.424656853493718E-3  
 2.019000000000000E10    4.182978791909086E-3   4.748227402429891E-3  
 2.019200000000000E10    5.009439894584595E-3   3.847967988500993E-3  
 2.019400000000000E10    5.564167560940541E-3   2.835587356929426E-3  
 2.019600000000000E10    5.905032985740239E-3   1.819836010259611E-3  
 2.019800000000000E10    6.084305648174551E-3   7.119331319161036E-4  
 2.020000000000000E10    6.018368613526779E-3  -4.074908631284618E-4  
 2.020200000000000E10    5.712913073323392E-3  -1.376951315992133E-3  
 2.020400000000000E10    5.351928752605563E-3  -2.137445163464657E-3  
 2.020600000000000E10    5.032328871527205E-3  -2.879031054261658E-3  
 2.020800000000000E10    4.653743537211860E-3  -3.682338460176080E-3  
 2.021000000000000E10    4.027052747982520E-3  -4.636876698997286E-3  
 2.021200000000000E10    2.982166604380365E-3  -5.422018140692403E-3  
 2.021400000000000E10    1.808761291343857E-3  -5.775858199706784E-3  
 2.021600000000000E10    6.700592995103863E-4  -5.811108931623124E-3  
 2.021800000000000E10   -3.579089308105824E-4  -5.586267104027449E-3  
 2.022000000000000E10   -1.161161805848005E-3  -5.215742935736975E-3  
 2.022200000000000E10   -1.711611403152347E-3  -4.907815993108132E-3  
 2.022400000000000E10   -2.304768388125080E-3  -4.774303485949835E-3  
 2.022600000000000E10   -3.098930482304207E-3  -4.539755569701947E-3  
 2.022800000000000E10   -3.946624127113158E-3  -4.063983896264324E-3  
 2.023000000000000E10   -4.752783604932052E-3  -3.349866674937032E-3  
 2.023200000000000E10   -5.392670389954691E-3  -2.405421446181006E-3  
 2.023400000000000E10   -5.781346466392279E-3  -1.306847833027994E-3  
 2.023600000000000E10   -5.892657502381890E-3  -1.427016158467504E-4  
 2.023800000000000E10   -5.755964200943708E-3   1.031834028523278E-3  
 2.024000000000000E10   -5.354564757672726E-3   2.163002448570398E-3  
 2.024200000000000E10   -4.649702183626317E-3   3.141737310215832E-3  
 2.024400000000000E10   -3.745579195243341E-3   3.773003592397328E-3  
 2.024600000000000E10   -2.879941904986347E-3   4.111641069391260E-3  
 2.024800000000000E10   -2.068639603546924E-3   4.290488013928688E-3  
 2.025000000000000E10   -1.333057932141755E-3   4.314080018688132E-3  
 2.025200000000000E10   -7.894822801635774E-4   4.267293011286745E-3  
 2.025400000000000E10   -2.966672085070362E-4   4.271987170256951E-3  
 2.025600000000000E10    2.624040665034921E-4   4.339241991854377E-3  
 2.025800000000000E10    9.661031395403876E-4   4.384934350296304E-3  
 2.026000000000000E10    1.747639569522882E-3   4.234914995591950E-3  
 2.026200000000000E10    2.484063566144970E-3   3.906221853362190E-3  
 2.026400000000000E10    3.147418774595416E-3   3.443389846425918E-3  
 2.026600000000000E10    3.741893374050657E-3   2.841065465300172E-3  
 2.026800000000000E10    4.241946894951441E-3   2.073929136343025E-3  
 2.027000000000000E10    4.532905260997791E-3   1.196493252387478E-3  
 2.027200000000000E10    4.579110691944758E-3   2.860038646893507E-4  
 2.027400000000000E10    4.410382894868101E-3  -5.742381865814053E-4  
 2.027600000000000E10    4.053655994573126E-3  -1.338713923124252E-3  
 2.027800000000000E10    3.558352115322595E-3  -1.890402994360085E-3  
 2.028000000000000E10    3.152885827822266E-3  -2.238027466874984E-3  
 2.028200000000000E10    2.879579448037677E-3  -2.583999695532300E-3  
 2.028400000000000E10    2.566177872251029E-3  -3.066411819653931E-3  
 2.028600000000000E10    2.036031180371841E-3  -3.600450439585580E-3  
 2.028800000000000E10    1.286803830966906E-3  -4.010770176709803E-3  
 2.029000000000000E10    4.562356431658070E-4  -4.151584028645799E-3  
 2.029200000000000E10   -3.860033401805494E-4  -4.108885734307546E-3  
 2.029400000000000E10   -1.226045031755887E-3  -3.795605290819098E-3  
 2.029600000000000E10   -1.824073980700363E-3  -3.256654478954497E-3  
 2.029800000000000E10   -2.179802067715813E-3  -2.730728894541110E-3  
 2.030000000000000E10   -2.416517861463406E-3  -2.300277688643999E-3  
 2.030200000000000E10   -2.589543539754771E-3  -1.882359376867061E-3  
 2.030400000000000E10   -2.689917813296671E-3  -1.545116865869474E-3  
 2.030600000000000E10   -2.867570862656942E-3  -1.342153469859450E-3  
 2.030800000000000E10   -3.276676888129226E-3  -1.056169668488481E-3  
 2.031000000000000E10   -3.692910540848971E-3  -4.396719299687970E-4  
 2.031200000000000E10   -3.839414842702725E-3   4.278021774047779E-4  
 2.031400000000000E10   -3.671093973227674E-3   1.304363029905492E-3  
 2.031600000000000E10   -3.291541977820022E-3   2.081847646170192E-3  
 2.031800000000000E10   -2.686416066286189E-3   2.717951304037814E-3  
 2.032000000000000E10   -1.971764214060925E-3   3.126850032627031E-3  
 2.032200000000000E10   -1.219648557404677E-3   3.318395689819699E-3  
 2.032400000000000E10   -5.061793048365940E-4   3.302303332559489E-3  
 2.032600000000000E10    9.884847720429577E-5   3.147698317964872E-3  
 2.032800000000000E10    6.157526513561606E-4   2.913155248043714E-3  
 2.033000000000000E10    1.029575485046263E-3   2.568253954113634E-3  
 2.033200000000000E10    1.295680870060568E-3   2.192875120305905E-3  
 2.033400000000000E10    1.421109954309132E-3   1.864247757044656E-3  
 2.033600000000000E10    1.302927930804867E-3   1.785442172722133E-3  
 2.033800000000000E10    1.553073667714166E-3   1.589141057424799E-3  
 2.034000000000000E10    1.764382347809496E-3   1.593513125381261E-3  
 2.034200000000000E10    2.195740041012566E-3   1.525875189583059E-3  
 2.034400000000000E10    2.762039502461751E-3   1.170421756493549E-3  
 2.034600000000000E10    3.140962717157823E-3   5.136171304103402E-4  
 2.034800000000000E10    3.252448350260104E-3  -2.427358574803091E-4  
 2.035000000000000E10    3.159251495229978E-3  -1.010665303544590E-3  
 2.035200000000000E10    2.823875190828134E-3  -1.753660306955377E-3  
 2.035400000000000E10    2.218032704183349E-3  -2.366103826918536E-3  
 2.035600000000000E10    1.460385207017815E-3  -2.651567363904582E-3  
 2.035800000000000E10    7.883054118051575E-4  -2.619437424948922E-3  
 2.036000000000000E10    3.227401294107377E-4  -2.437576755053468E-3  
 2.036200000000000E10    2.373377241450795E-5  -2.290083147171471E-3  
 2.036400000000000E10   -2.285482505276041E-4  -2.213557664718893E-3  
 2.036600000000000E10   -4.849357797798736E-4  -2.103130479722663E-3  
 2.036800000000000E10   -6.742370940089502E-4  -2.019218315749809E-3  
 2.037000000000000E10   -9.487010926629107E-4  -2.048204342524211E-3  
 2.037200000000000E10   -1.384045907158267E-3  -1.954265809790404E-3  
 2.037400000000000E10   -1.769156264210189E-3  -1.674174736426385E-3  
 2.037600000000000E10   -2.061216393485665E-3  -1.329961694190624E-3  
 2.037800000000000E10   -2.287182068728187E-3  -9.364398666312574E-4  
 2.038000000000000E10   -2.422057152553290E-3  -4.761897596634097E-4  
 2.038200000000000E10   -2.438541794954627E-3  -8.560878254852666E-6  
 2.038400000000000E10   -2.352672534201432E-3   4.013205956046780E-4  
 2.038600000000000E10   -2.214832214155683E-3   7.778043552577772E-4  
 2.038800000000000E10   -2.006952866428980E-3   1.097261077827878E-3  
 2.039000000000000E10   -1.821065153409210E-3   1.309283159638721E-3  
 2.039200000000000E10   -1.718235646236550E-3   1.579680678400177E-3  
 2.039400000000000E10   -1.533397042227012E-3   1.991426477346707E-3  
 2.039600000000000E10   -1.116870932660445E-3   2.411051032443841E-3  
 2.039800000000000E10   -4.872368256285511E-4   2.609801556294163E-3  
 2.040000000000000E10    1.062704230342341E-4   2.535335486754775E-3  
 2.040200000000000E10    5.155984006166734E-4   2.340231599562146E-3  
 2.040400000000000E10    8.508082612900547E-4   2.172585680252976E-3  
 2.040600000000000E10    1.171364772340490E-3   1.970946870709736E-3  
 2.040800000000000E10    1.462617401826989E-3   1.744900269571830E-3  
 2.041000000000000E10    1.730117054345707E-3   1.443762103682039E-3  
 2.041200000000000E10    1.899143581761531E-3   1.050524109612323E-3  
 2.041400000000000E10    1.918856546075808E-3   7.120239876072718E-4  
 2.041600000000000E10    1.900263346248755E-3   4.756743545402532E-4  
 2.041800000000000E10    1.924841975172361E-3   2.879862774905094E-4  
 2.042000000000000E10    2.014391370014184E-3   9.938656755063374E-5  
 2.042200000000000E10    2.155978353349148E-3  -1.853683381880358E-4  
 2.042400000000000E10    2.190052428179317E-3  -6.238322023785225E-4  
 2.042600000000000E10    2.073012076801172E-3  -1.058907118729419E-3  
 2.042800000000000E10    1.923216705176014E-3  -1.447303768212873E-3  
 2.043000000000000E10    1.640258037864610E-3  -1.895611282196586E-3  
 2.043200000000000E10    1.138346942348613E-3  -2.218907543768486E-3  
 2.043400000000000E10    5.840601666864975E-4  -2.316481571782519E-3  
 2.043600000000000E10    1.096512951335172E-4  -2.230256140508034E-3  
 2.043800000000000E10   -2.490323860439714E-4  -2.088267485507661E-3  
 2.044000000000000E10   -5.723378853872418E-4  -1.918447911049481E-3  
 2.044200000000000E10   -8.301715457087591E-4  -1.636297752459844E-3  
 2.044400000000000E10   -8.926350640615932E-4  -1.332469978714707E-3  
 2.044600000000000E10   -8.476775622478240E-4  -1.223877331035005E-3  
 2.044800000000000E10   -8.958745532220713E-4  -1.259542311783190E-3  
 2.045000000000000E10   -1.085251328293924E-3  -1.272778255278590E-3  
 2.045200000000000E10   -1.349228723147125E-3  -1.217917047647967E-3  
 2.045400000000000E10   -1.649737289106405E-3  -1.013693412662380E-3  
 2.045600000000000E10   -1.808058604149631E-3  -6.621583274358677E-4  
 2.045800000000000E10   -1.811309096713861E-3  -3.953073960642710E-4  
 2.046000000000000E10   -1.853975993408649E-3  -2.208574765568806E-4  
 2.046200000000000E10   -1.976222946756968E-3  -1.483274044639309E-5  
 2.046400000000000E10   -2.123336204224163E-3   3.299946180993209E-4  
 2.046600000000000E10   -2.141671151750618E-3   8.330507574740935E-4  
 2.046800000000000E10   -1.898691347041340E-3   1.349609509041464E-3  
 2.047000000000000E10   -1.480153089182245E-3   1.662447591553684E-3  
 2.047200000000000E10   -1.094293655586188E-3   1.759797476956414E-3  
 2.047400000000000E10   -8.193969347134786E-4   1.805245458079433E-3  
 2.047600000000000E10   -5.343930140413620E-4   1.861450887561121E-3  
 2.047800000000000E10   -2.268209039660481E-4   1.832379933653607E-3  
 2.048000000000000E10   -7.267915929400301E-6   1.725021896331951E-3  
 2.048200000000000E10    1.218417036128543E-4   1.631820828791846E-3  
 2.048400000000000E10    2.116045779311444E-4   1.628957753483620E-3  
 2.048600000000000E10    3.803254329357987E-4   1.665017645185193E-3  
 2.048800000000000E10    5.674657640392306E-4   1.682867494377273E-3  
 2.049000000000000E10    8.023079545064659E-4   1.700000833133581E-3  
 2.049200000000000E10    1.066311275483006E-3   1.644654803116013E-3  
 2.049400000000000E10    1.279422784810541E-3   1.555703334613807E-3  
 2.049600000000000E10    1.530725948719515E-3   1.525856558819888E-3  
 2.049800000000000E10    1.913805173158094E-3   1.413088222896611E-3  
 2.050000000000000E10    2.298736142822438E-3   1.137093127774144E-3  
 2.050200000000000E10    2.656549439524059E-3   7.492003238035573E-4  
 2.050400000000000E10    2.960111255998965E-3   1.874851457412458E-4  
 2.050600000000000E10    3.046649715138807E-3  -5.752814759034663E-4  
 2.050800000000000E10    2.777876849803660E-3  -1.312081697741869E-3  
 2.051000000000000E10    2.312514051381085E-3  -1.786409622851622E-3  
 2.051200000000000E10    1.854746197177856E-3  -2.067806354413430E-3  
 2.051400000000000E10    1.394855462152649E-3  -2.244750365476918E-3  
 2.051600000000000E10    9.532888480289668E-4  -2.256874417610191E-3  
 2.051800000000000E10    6.787155979071503E-4  -2.157043786374508E-3  
 2.052000000000000E10    5.430110462906737E-4  -2.142535194892574E-3  
 2.052200000000000E10    4.268013958439784E-4  -2.240845459271913E-3  
 2.052400000000000E10    2.334002454989349E-4  -2.482943116100850E-3  
 2.052600000000000E10   -2.205629614224934E-4  -2.700718205974058E-3  
 2.052800000000000E10   -7.297820950582348E-4  -2.684470300597174E-3  
 2.053000000000000E10   -1.121717837156245E-3  -2.584851346910000E-3  
 2.053200000000000E10   -1.556368191140118E-3  -2.517840574943909E-3  
 2.053400000000000E10   -2.046901215281752E-3  -2.328288836266708E-3  
 2.053600000000000E10   -2.506514467919867E-3  -2.008466239742659E-3  
 2.053800000000000E10   -2.917723204181703E-3  -1.567204112049055E-3  
 2.054000000000000E10   -3.235515129442017E-3  -1.039978414256540E-3  
 2.054200000000000E10   -3.485016076377145E-3  -4.351913165818487E-4  
 2.054400000000000E10   -3.537418648462605E-3   3.266758625007545E-4  
 2.054600000000000E10   -3.330488732360580E-3   1.016039405604480E-3  
 2.054800000000000E10   -3.034382351432686E-3   1.575109178062391E-3  
 2.055000000000000E10   -2.639165596553573E-3   2.076180134382513E-3  
 2.055200000000000E10   -2.096005223898424E-3   2.420977016703950E-3  
 2.055400000000000E10   -1.581463152197776E-3   2.485388156923432E-3  
 2.055600000000000E10   -1.299533617889716E-3   2.451656024075217E-3  
