#  HZ   S   RI   R     50.00 
! Rohde & Schwarz ZVA40 4Ports - Version 3.90 - 1145.1110k42 SN: 100403
! Date: 2023-10-03 10:31:18
! Measurement: S12 
! 
 2.000000000000000E10   -1.716688711774908E-3  -4.334965665199998E-3  
 2.000200000000000E10   -2.457846171671042E-3  -3.928365318081630E-3  
 2.000400000000000E10   -3.163271402526233E-3  -3.319080160171898E-3  
 2.000600000000000E10   -3.594861080325803E-3  -2.487752143937497E-3  
 2.000800000000000E10   -3.668085495661562E-3  -1.730044394417249E-3  
 2.001000000000000E10   -3.642692414606795E-3  -1.295296138501247E-3  
 2.001200000000000E10   -3.857807427790369E-3  -9.830042460182140E-4  
 2.001400000000000E10   -4.208102975607900E-3  -4.134282661738917E-4  
 2.001600000000000E10   -4.385404953725422E-3   4.250657590922474E-4  
 2.001800000000000E10   -4.306733280558278E-3   1.297597169738125E-3  
 2.002000000000000E10   -4.004782136652329E-3   2.140723514742383E-3  
 2.002200000000000E10   -3.447203207071182E-3   2.905113852502388E-3  
 2.002400000000000E10   -2.792573018467109E-3   3.415136402587832E-3  
 2.002600000000000E10   -2.136166525119341E-3   3.711124268885503E-3  
 2.002800000000000E10   -1.624895505024573E-3   3.905784836951107E-3  
 2.003000000000000E10   -1.163378510472783E-3   4.224899173196820E-3  
 2.003200000000000E10   -4.703344619371106E-4   4.641625692937600E-3  
 2.003400000000000E10    5.217689042048598E-4   4.856721544063386E-3  
 2.003600000000000E10    1.593941615208401E-3   4.705953524819741E-3  
 2.003800000000000E10    2.517708004241496E-3   4.242499184568601E-3  
 2.004000000000000E10    3.214500374026567E-3   3.660536203495086E-3  
 2.004200000000000E10    3.808394060067741E-3   3.037793918248313E-3  
 2.004400000000000E10    4.326715448357687E-3   2.310317673685927E-3  
 2.004600000000000E10    4.733679511434871E-3   1.441789813504512E-3  
 2.004800000000000E10    4.872292985396131E-3   4.416775381635232E-4  
 2.005000000000000E10    4.731888932639680E-3  -4.454848482062726E-4  
 2.005200000000000E10    4.474029450872798E-3  -1.212148732647545E-3  
 2.005400000000000E10    4.182932434657229E-3  -1.864660559068798E-3  
 2.005600000000000E10    3.859322338936077E-3  -2.564642140488505E-3  
 2.005800000000000E10    3.296599648662924E-3  -3.231425944010540E-3  
 2.006000000000000E10    2.626593252490639E-3  -3.660750631894534E-3  
 2.006200000000000E10    2.007516917826248E-3  -3.942405795410215E-3  
 2.006400000000000E10    1.414030089441672E-3  -4.172624163559558E-3  
 2.006600000000000E10    7.710516665498785E-4  -4.350788485059523E-3  
 2.006800000000000E10    1.213813310840221E-4  -4.446871517371740E-3  
 2.007000000000000E10   -5.469457564948304E-4  -4.506161884853134E-3  
 2.007200000000000E10   -1.295877389184395E-3  -4.474692301510416E-3  
 2.007400000000000E10   -2.096061951216357E-3  -4.342860902502459E-3  
 2.007600000000000E10   -2.982168363545228E-3  -4.026036184480407E-3  
 2.007800000000000E10   -3.764489146309748E-3  -3.388592636082399E-3  
 2.008000000000000E10   -4.315607215243358E-3  -2.626940394356970E-3  
 2.008200000000000E10   -4.703881050394887E-3  -1.808728397547923E-3  
 2.008400000000000E10   -4.921360338037766E-3  -9.826795553018190E-4  
 2.008600000000000E10   -5.033179669192544E-3  -1.661185379955227E-4  
 2.008800000000000E10   -5.053604914664978E-3   7.259401496607091E-4  
 2.009000000000000E10   -4.851222229899203E-3   1.630110211034187E-3  
 2.009200000000000E10   -4.487279463375425E-3   2.468354715448287E-3  
 2.009400000000000E10   -3.998635795710939E-3   3.249445741367623E-3  
 2.009600000000000E10   -3.364495522009186E-3   3.947948866404993E-3  
 2.009800000000000E10   -2.508600310464639E-3   4.515345118280670E-3  
 2.010000000000000E10   -1.542319608334866E-3   4.746176022652981E-3  
 2.010200000000000E10   -7.163730834193007E-4   4.695873521651630E-3  
 2.010400000000000E10   -9.990264694247142E-5   4.565358248159842E-3  
 2.010600000000000E10    4.053094555214699E-4   4.480341307573604E-3  
 2.010800000000000E10    9.323797292179533E-4   4.480196251208156E-3  
 2.011000000000000E10    1.585233000819974E-3   4.483122560636375E-3  
 2.011200000000000E10    2.375927838063780E-3   4.371599790567357E-3  
 2.011400000000000E10    3.221295511449684E-3   4.035426389977889E-3  
 2.011600000000000E10    4.021328565407806E-3   3.496407443051967E-3  
 2.011800000000000E10    4.724641052676450E-3   2.682195028765396E-3  
 2.012000000000000E10    5.111047501748605E-3   1.708511838022574E-3  
 2.012200000000000E10    5.269948220639318E-3   8.082651289337060E-4  
 2.012400000000000E10    5.312199002982659E-3  -5.243780628448433E-5  
 2.012600000000000E10    5.255120254501150E-3  -9.230305392816359E-4  
 2.012800000000000E10    5.054674515646305E-3  -1.851307101731683E-3  
 2.013000000000000E10    4.587038883885730E-3  -2.750666057039436E-3  
 2.013200000000000E10    3.968112677558031E-3  -3.421849467688138E-3  
 2.013400000000000E10    3.315737420202468E-3  -3.971455200985382E-3  
 2.013600000000000E10    2.564907998590129E-3  -4.402767587069867E-3  
 2.013800000000000E10    1.794046064102908E-3  -4.622536278310627E-3  
 2.014000000000000E10    1.100734851146768E-3  -4.681061296014752E-3  
 2.014200000000000E10    5.806984237123113E-4  -4.687908504142929E-3  
 2.014400000000000E10    1.388052121671195E-4  -4.816048284187730E-3  
 2.014600000000000E10   -4.653813363050031E-4  -5.081000902647835E-3  
 2.014800000000000E10   -1.339504670125620E-3  -5.286364902362780E-3  
 2.015000000000000E10   -2.409173716089608E-3  -5.239988842005593E-3  
 2.015200000000000E10   -3.523911076402407E-3  -4.854590095456982E-3  
 2.015400000000000E10   -4.524002271347945E-3  -4.172148706138502E-3  
 2.015600000000000E10   -5.362689261297876E-3  -3.197392082769317E-3  
 2.015800000000000E10   -5.875604071964821E-3  -2.038573770527058E-3  
 2.016000000000000E10   -6.035207374090398E-3  -8.550801931462662E-4  
 2.016200000000000E10   -5.950856195003899E-3   1.985736107674078E-4  
 2.016400000000000E10   -5.721944457096328E-3   1.135150850712180E-3  
 2.016600000000000E10   -5.395984589486334E-3   1.994048482872577E-3  
 2.016800000000000E10   -4.996079018285859E-3   2.815968394394458E-3  
 2.017000000000000E10   -4.469068696024856E-3   3.588227988239915E-3  
 2.017200000000000E10   -3.788827098292824E-3   4.247762310728738E-3  
 2.017400000000000E10   -3.016007913721136E-3   4.696554144070228E-3  
 2.017600000000000E10   -2.375303749416653E-3   5.000464380584628E-3  
 2.017800000000000E10   -1.745194171789130E-3   5.438255243877203E-3  
 2.018000000000000E10   -8.842479911874291E-4   5.845103232734243E-3  
 2.018200000000000E10    9.274372467847823E-5   6.069804378881009E-3  
 2.018400000000000E10    1.179828730109052E-3   6.144631757504411E-3  
 2.018600000000000E10    2.357520981320016E-3   5.975850097022554E-3  
 2.018800000000000E10    3.580945588019773E-3   5.472557778267091E-3  
 2.019000000000000E10    4.597548899382599E-3   4.603446620313352E-3  
 2.019200000000000E10    5.287607118042777E-3   3.587747078940825E-3  
 2.019400000000000E10    5.722693673530479E-3   2.529208639391350E-3  
 2.019600000000000E10    5.989527253150450E-3   1.507030081850910E-3  
 2.019800000000000E10    6.114963995898335E-3   4.380155936096233E-4  
 2.020000000000000E10    5.998220315793293E-3  -6.185714305708041E-4  
 2.020200000000000E10    5.661250787706656E-3  -1.555477005502385E-3  
 2.020400000000000E10    5.269073172177308E-3  -2.303434474539364E-3  
 2.020600000000000E10    4.932594109985810E-3  -3.041583167986922E-3  
 2.020800000000000E10    4.538792622402127E-3  -3.867922406337022E-3  
 2.021000000000000E10    3.869162375153399E-3  -4.831688045504898E-3  
 2.021200000000000E10    2.746119579767862E-3  -5.572656757838320E-3  
 2.021400000000000E10    1.529945656580567E-3  -5.844276061151254E-3  
 2.021600000000000E10    4.092428003607411E-4  -5.818316080595977E-3  
 2.021800000000000E10   -5.694585679857820E-4  -5.554624641536441E-3  
 2.022000000000000E10   -1.294765932343655E-3  -5.161140972572100E-3  
 2.022200000000000E10   -1.814402849700900E-3  -4.857304391025762E-3  
 2.022400000000000E10   -2.437172903115919E-3  -4.726887571360963E-3  
 2.022600000000000E10   -3.275683302041374E-3  -4.493775986395623E-3  
 2.022800000000000E10   -4.173784857853450E-3  -3.963742868921150E-3  
 2.023000000000000E10   -4.966576474454301E-3  -3.164504828130819E-3  
 2.023200000000000E10   -5.540183664839946E-3  -2.136480924577563E-3  
 2.023400000000000E10   -5.835219587241550E-3  -9.880038835836475E-4  
 2.023600000000000E10   -5.873307018490977E-3   1.520870703535054E-4  
 2.023800000000000E10   -5.672556491867629E-3   1.261145952483448E-3  
 2.024000000000000E10   -5.239234970874871E-3   2.322853001509122E-3  
 2.024200000000000E10   -4.530370034231449E-3   3.261653119084951E-3  
 2.024400000000000E10   -3.634671874175715E-3   3.902777684507548E-3  
 2.024600000000000E10   -2.732667998207634E-3   4.251600745222206E-3  
 2.024800000000000E10   -1.910977547513053E-3   4.402370828322668E-3  
 2.025000000000000E10   -1.166281916503891E-3   4.408683850134843E-3  
 2.025200000000000E10   -5.884079530656936E-4   4.331413606649319E-3  
 2.025400000000000E10   -1.030262875123479E-4   4.324758090002179E-3  
 2.025600000000000E10    4.420303642594566E-4   4.391689428392753E-3  
 2.025800000000000E10    1.132601199464666E-3   4.430643949703671E-3  
 2.026000000000000E10    1.934646688202404E-3   4.261974203151196E-3  
 2.026200000000000E10    2.730007049600774E-3   3.901969465147321E-3  
 2.026400000000000E10    3.441590666311023E-3   3.349369873748825E-3  
 2.026600000000000E10    4.010875937394768E-3   2.655503121607098E-3  
 2.026800000000000E10    4.455162007208347E-3   1.840692135187273E-3  
 2.027000000000000E10    4.695099655830076E-3   9.258662201004266E-4  
 2.027200000000000E10    4.715763946512232E-3  -8.117079812891502E-6  
 2.027400000000000E10    4.513709117953547E-3  -9.289915930219149E-4  
 2.027600000000000E10    4.061155601830027E-3  -1.721901907259790E-3  
 2.027800000000000E10    3.475738435393438E-3  -2.227420081219679E-3  
 2.028000000000000E10    3.012988671330820E-3  -2.536276854582346E-3  
 2.028200000000000E10    2.678487548573947E-3  -2.881435412959553E-3  
 2.028400000000000E10    2.288830129299390E-3  -3.330835146990456E-3  
 2.028600000000000E10    1.687763026942319E-3  -3.819277634606563E-3  
 2.028800000000000E10    8.582291289121527E-4  -4.109273359961349E-3  
 2.029000000000000E10    1.416158213983431E-5  -4.121831254152115E-3  
 2.029200000000000E10   -7.996906204448071E-4  -3.981337800177405E-3  
 2.029400000000000E10   -1.536118653756202E-3  -3.571127654425034E-3  
 2.029600000000000E10   -2.003998641277292E-3  -3.020023220935416E-3  
 2.029800000000000E10   -2.272180282537646E-3  -2.525339247045633E-3  
 2.030000000000000E10   -2.500692942973089E-3  -2.148059065503532E-3  
 2.030200000000000E10   -2.691426356572183E-3  -1.732681301583387E-3  
 2.030400000000000E10   -2.801273984895874E-3  -1.381442841399201E-3  
 2.030600000000000E10   -2.998829578766178E-3  -1.150249103524956E-3  
 2.030800000000000E10   -3.409973212513966E-3  -7.749764788167652E-4  
 2.031000000000000E10   -3.740891657095143E-3  -4.347450182046902E-5  
 2.031200000000000E10   -3.744807991164703E-3   8.399835457151504E-4  
 2.031400000000000E10   -3.441252151634468E-3   1.635518750470944E-3  
 2.031600000000000E10   -2.991433847511625E-3   2.292544769751744E-3  
 2.031800000000000E10   -2.380236654653532E-3   2.808786140095612E-3  
 2.032000000000000E10   -1.685546755641239E-3   3.126624339248664E-3  
 2.032200000000000E10   -9.991577898301645E-4   3.260201629856793E-3  
 2.032400000000000E10   -3.329660988881334E-4   3.241083079780388E-3  
 2.032600000000000E10    2.560406324928895E-4   3.082979382341537E-3  
 2.032800000000000E10    7.740554218697879E-4   2.842797273999932E-3  
 2.033000000000000E10    1.163639857360917E-3   2.502854272470247E-3  
 2.033200000000000E10    1.414053261360545E-3   2.148066014971263E-3  
 2.033400000000000E10    1.549562741619048E-3   1.821393591213834E-3  
 2.033600000000000E10    1.431920800890789E-3   1.749304614275112E-3  
 2.033800000000000E10    1.689754163946022E-3   1.531482817904081E-3  
 2.034000000000000E10    1.940460670586108E-3   1.517963419388597E-3  
 2.034200000000000E10    2.411545437296906E-3   1.380487177961740E-3  
 2.034400000000000E10    2.931299890533336E-3   9.067229308099814E-4  
 2.034600000000000E10    3.201753226848542E-3   1.926308728655952E-4  
 2.034800000000000E10    3.229380343799238E-3  -5.603127147755184E-4  
 2.035000000000000E10    3.062478413253472E-3  -1.303298846787846E-3  
 2.035200000000000E10    2.668075179182944E-3  -2.019333530508687E-3  
 2.035400000000000E10    2.002246129334188E-3  -2.557808916571210E-3  
 2.035600000000000E10    1.225013828188672E-3  -2.761191436484334E-3  
 2.035800000000000E10    5.826089148402001E-4  -2.661285747547823E-3  
 2.036000000000000E10    1.766816431159679E-4  -2.467534269125742E-3  
 2.036200000000000E10   -1.122513091298962E-4  -2.332537046944102E-3  
 2.036400000000000E10   -3.784295723513881E-4  -2.241619418992244E-3  
 2.036600000000000E10   -6.441451324563888E-4  -2.143222593353610E-3  
 2.036800000000000E10   -8.850381508423591E-4  -2.078410425825129E-3  
 2.037000000000000E10   -1.220276157674476E-3  -2.051075444261663E-3  
 2.037200000000000E10   -1.655213500338572E-3  -1.864433084967175E-3  
 2.037400000000000E10   -1.996392982057584E-3  -1.503303968021838E-3  
 2.037600000000000E10   -2.224469520036638E-3  -1.121535578909342E-3  
 2.037800000000000E10   -2.389495984417360E-3  -7.141157754777392E-4  
 2.038000000000000E10   -2.471457789326279E-3  -2.876654283000816E-4  
 2.038200000000000E10   -2.470118178575925E-3   1.414973234758739E-4  
 2.038400000000000E10   -2.432475866818870E-3   5.571505310178692E-4  
 2.038600000000000E10   -2.301414824884247E-3   1.029389875906485E-3  
 2.038800000000000E10   -1.998998034542327E-3   1.412809439340737E-3  
 2.039000000000000E10   -1.707059544905898E-3   1.622553988562997E-3  
 2.039200000000000E10   -1.513244269450230E-3   1.831953776444581E-3  
 2.039400000000000E10   -1.287737608802938E-3   2.163949715732425E-3  
 2.039600000000000E10   -8.540554824879264E-4   2.508030584419277E-3  
 2.039800000000000E10   -2.561031129673975E-4   2.644350845175086E-3  
 2.040000000000000E10    2.912596739608691E-4   2.537850997652169E-3  
 2.040200000000000E10    6.918295331149835E-4   2.363056961998896E-3  
 2.040400000000000E10    1.073179229492237E-3   2.182541682419402E-3  
 2.040600000000000E10    1.418800516257163E-3   1.926676827720501E-3  
 2.040800000000000E10    1.705374428810774E-3   1.623979220626715E-3  
 2.041000000000000E10    1.953866506194688E-3   1.246123276210156E-3  
 2.041200000000000E10    2.024571546410889E-3   8.047563100517289E-4  
 2.041400000000000E10    1.949979147563378E-3   4.959231426502452E-4  
 2.041600000000000E10    1.912817660309068E-3   3.276352375748649E-4  
 2.041800000000000E10    1.965609244013458E-3   1.550400172871175E-4  
 2.042000000000000E10    2.067837739600935E-3  -4.880343037889790E-5  
 2.042200000000000E10    2.202310667415399E-3  -3.774640063655567E-4  
 2.042400000000000E10    2.203435501957566E-3  -8.319069572950527E-4  
 2.042600000000000E10    2.033298148164227E-3  -1.260178075976854E-3  
 2.042800000000000E10    1.829990629900109E-3  -1.640867519502839E-3  
 2.043000000000000E10    1.512817002702581E-3  -2.082367000311859E-3  
 2.043200000000000E10    9.704944066829797E-4  -2.407182890484915E-3  
 2.043400000000000E10    3.453872654991371E-4  -2.471509576418702E-3  
 2.043600000000000E10   -1.757944912032642E-4  -2.292275885809903E-3  
 2.043800000000000E10   -5.072246393315311E-4  -2.034339125827722E-3  
 2.044000000000000E10   -7.631333160152806E-4  -1.792512857067733E-3  
 2.044200000000000E10   -9.145028117867840E-4  -1.511719112318975E-3  
 2.044400000000000E10   -9.235922048834188E-4  -1.285475124930772E-3  
 2.044600000000000E10   -8.962323293645596E-4  -1.208801412717305E-3  
 2.044800000000000E10   -9.677895232690155E-4  -1.232980613006517E-3  
 2.045000000000000E10   -1.166841061690002E-3  -1.241433038472087E-3  
 2.045200000000000E10   -1.450156107920494E-3  -1.168010454076829E-3  
 2.045400000000000E10   -1.763729001069634E-3  -9.384006676225783E-4  
 2.045600000000000E10   -1.909882471697413E-3  -5.759615848730070E-4  
 2.045800000000000E10   -1.922788005513848E-3  -2.859976157496221E-4  
 2.046000000000000E10   -1.970058008587686E-3  -5.538830381038182E-5  
 2.046200000000000E10   -2.056862485361259E-3   1.947775398933908E-4  
 2.046400000000000E10   -2.143409079201367E-3   5.646162168621067E-4  
 2.046600000000000E10   -2.080423028281135E-3   1.055393860016187E-3  
 2.046800000000000E10   -1.776517179618310E-3   1.536076721244726E-3  
 2.047000000000000E10   -1.303059949612421E-3   1.808563225764644E-3  
 2.047200000000000E10   -9.030657942567803E-4   1.846309607070507E-3  
 2.047400000000000E10   -6.436068481294278E-4   1.849187724867169E-3  
 2.047600000000000E10   -3.800355175839654E-4   1.893361696950448E-3  
 2.047800000000000E10   -5.241938610489332E-5   1.846082978536961E-3  
 2.048000000000000E10    1.683065401801721E-4   1.706595617871533E-3  
 2.048200000000000E10    2.601344043526937E-4   1.589943959527178E-3  
 2.048400000000000E10    3.324763689126912E-4   1.581395054504337E-3  
 2.048600000000000E10    4.819172053404322E-4   1.602036199137691E-3  
 2.048800000000000E10    6.567423905958824E-4   1.601796421421684E-3  
 2.049000000000000E10    8.691783813345764E-4   1.608324758401869E-3  
 2.049200000000000E10    1.133861887812952E-3   1.571536181521422E-3  
 2.049400000000000E10    1.376012693266595E-3   1.497713637676228E-3  
 2.049600000000000E10    1.670595763898896E-3   1.426857394557217E-3  
 2.049800000000000E10    2.066249130370380E-3   1.223067929795771E-3  
 2.050000000000000E10    2.405456950458787E-3   8.882047407762167E-4  
 2.050200000000000E10    2.687392251397418E-3   4.572761119314597E-4  
 2.050400000000000E10    2.896408664461211E-3  -1.274071853711373E-4  
 2.050600000000000E10    2.855825309791131E-3  -8.524612024418797E-4  
 2.050800000000000E10    2.495766232181111E-3  -1.478066513173037E-3  
 2.051000000000000E10    2.017054401161801E-3  -1.852646234843865E-3  
 2.051200000000000E10    1.594766049833639E-3  -2.053666867530395E-3  
 2.051400000000000E10    1.184449900026000E-3  -2.172307401642572E-3  
 2.051600000000000E10    8.141453722357721E-4  -2.156928962541154E-3  
 2.051800000000000E10    5.941745166862270E-4  -2.115140701624960E-3  
 2.052000000000000E10    4.318423582137459E-4  -2.153855713023019E-3  
 2.052200000000000E10    2.689220270773381E-4  -2.246770948370911E-3  
 2.052400000000000E10    4.800972357486213E-5  -2.429321177357448E-3  
 2.052600000000000E10   -3.676169566041694E-4  -2.591394274131445E-3  
 2.052800000000000E10   -8.684850404222991E-4  -2.539617435838031E-3  
 2.053000000000000E10   -1.256179966132153E-3  -2.406437032369307E-3  
 2.053200000000000E10   -1.653569133438691E-3  -2.282761631403196E-3  
 2.053400000000000E10   -2.083736864673625E-3  -2.059325887227562E-3  
 2.053600000000000E10   -2.484398028801805E-3  -1.742693058065611E-3  
 2.053800000000000E10   -2.853319303749643E-3  -1.306003900034039E-3  
 2.054000000000000E10   -3.097853280312608E-3  -7.976966037188847E-4  
 2.054200000000000E10   -3.294907523694721E-3  -2.409045177375575E-4  
 2.054400000000000E10   -3.302001323428297E-3   4.403653431615751E-4  
 2.054600000000000E10   -3.089045878660717E-3   1.046705964680593E-3  
 2.054800000000000E10   -2.803373816442282E-3   1.557586046794253E-3  
 2.055000000000000E10   -2.438102513475060E-3   2.007544156616178E-3  
 2.055200000000000E10   -1.957765188252117E-3   2.328676776193972E-3  
 2.055400000000000E10   -1.495431321519792E-3   2.417405046821561E-3  
 2.055600000000000E10   -1.206435246868328E-3   2.441086337821168E-3  
