#  HZ   S   RI   R     50.00 
! Rohde & Schwarz ZVA40 4Ports - Version 3.90 - 1145.1110k42 SN: 100403
! Date: 2023-10-03 10:32:00
! Measurement: S12 
! 
 2.000000000000000E10   -1.876217372037103E-3  -4.289583205302925E-3  
 2.000200000000000E10   -2.577962399816808E-3  -3.847610547471746E-3  
 2.000400000000000E10   -3.248725833808199E-3  -3.214702033150343E-3  
 2.000600000000000E10   -3.659569871048501E-3  -2.383338457065416E-3  
 2.000800000000000E10   -3.731810944844728E-3  -1.659347432849492E-3  
 2.001000000000000E10   -3.751713957890501E-3  -1.221628036108558E-3  
 2.001200000000000E10   -4.020782762471541E-3  -8.614893102972414E-4  
 2.001400000000000E10   -4.387027641505371E-3  -2.108459823684376E-4  
 2.001600000000000E10   -4.495405488544041E-3   7.050701468769048E-4  
 2.001800000000000E10   -4.307294816330628E-3   1.583018265434621E-3  
 2.002000000000000E10   -3.917192436616731E-3   2.378785183630240E-3  
 2.002200000000000E10   -3.334637363383800E-3   3.082125102756201E-3  
 2.002400000000000E10   -2.664396999242865E-3   3.583292261248938E-3  
 2.002600000000000E10   -1.963863014186054E-3   3.880047774011339E-3  
 2.002800000000000E10   -1.393039180483255E-3   4.048249431322387E-3  
 2.003000000000000E10   -8.905619486338564E-4   4.311163915482201E-3  
 2.003200000000000E10   -1.933624167397711E-4   4.680092653466596E-3  
 2.003400000000000E10    7.984913730372987E-4   4.834621633046573E-3  
 2.003600000000000E10    1.831708336536439E-3   4.627877995831732E-3  
 2.003800000000000E10    2.712676129131406E-3   4.127268368999164E-3  
 2.004000000000000E10    3.370966052314566E-3   3.521693079950817E-3  
 2.004200000000000E10    3.923070869971942E-3   2.862263321416614E-3  
 2.004400000000000E10    4.403579675443012E-3   2.133372360495506E-3  
 2.004600000000000E10    4.792297414193551E-3   1.249029276674085E-3  
 2.004800000000000E10    4.913782798627645E-3   2.429257261992237E-4  
 2.005000000000000E10    4.760488896504229E-3  -6.609711426678172E-4  
 2.005200000000000E10    4.488985404878120E-3  -1.436326191415665E-3  
 2.005400000000000E10    4.165868987731729E-3  -2.099254927425473E-3  
 2.005600000000000E10    3.784794515619676E-3  -2.802034316837420E-3  
 2.005800000000000E10    3.175494223718107E-3  -3.429525278876594E-3  
 2.006000000000000E10    2.458904999204808E-3  -3.816102516412000E-3  
 2.006200000000000E10    1.803652828927210E-3  -4.064843794445933E-3  
 2.006400000000000E10    1.161882715633162E-3  -4.235388366160570E-3  
 2.006600000000000E10    5.216199098396358E-4  -4.334806033444626E-3  
 2.006800000000000E10   -5.509882293502157E-5  -4.398414192514287E-3  
 2.007000000000000E10   -7.003765182431650E-4  -4.479562582011209E-3  
 2.007200000000000E10   -1.461935325893631E-3  -4.469473052907874E-3  
 2.007400000000000E10   -2.281745039156558E-3  -4.312287849362618E-3  
 2.007600000000000E10   -3.171662900619853E-3  -3.940083080741727E-3  
 2.007800000000000E10   -3.917368266869475E-3  -3.253808567001497E-3  
 2.008000000000000E10   -4.406786334045508E-3  -2.460089032135812E-3  
 2.008200000000000E10   -4.736717502919981E-3  -1.641563395682125E-3  
 2.008400000000000E10   -4.914579901522325E-3  -8.345218806493063E-4  
 2.008600000000000E10   -5.044787823234076E-3  -3.971134930997110E-5  
 2.008800000000000E10   -5.099101520982790E-3   8.757077552734611E-4  
 2.009000000000000E10   -4.880370549213740E-3   1.842159536425715E-3  
 2.009200000000000E10   -4.451508311853734E-3   2.708258274022812E-3  
 2.009400000000000E10   -3.889013386480971E-3   3.453435407905483E-3  
 2.009600000000000E10   -3.219987412362740E-3   4.104156271313077E-3  
 2.009800000000000E10   -2.342185801768929E-3   4.614678711664898E-3  
 2.010000000000000E10   -1.357105705760604E-3   4.785279542161728E-3  
 2.010200000000000E10   -5.343991082397371E-4   4.675497375658633E-3  
 2.010400000000000E10    4.532767246771218E-5   4.509986550719650E-3  
 2.010600000000000E10    5.282684154578566E-4   4.440933954614548E-3  
 2.010800000000000E10    1.062885274604699E-3   4.454369300309524E-3  
 2.011000000000000E10    1.717243750326704E-3   4.459513426056983E-3  
 2.011200000000000E10    2.530533268495843E-3   4.329445662643807E-3  
 2.011400000000000E10    3.384012907145568E-3   3.977595414552424E-3  
 2.011600000000000E10    4.193643268979627E-3   3.403194317663158E-3  
 2.011800000000000E10    4.875634768172915E-3   2.522785325799092E-3  
 2.012000000000000E10    5.197797183315328E-3   1.519702925392783E-3  
 2.012200000000000E10    5.286596617718907E-3   5.958970344372462E-4  
 2.012400000000000E10    5.299124366569299E-3  -2.707167958659638E-4  
 2.012600000000000E10    5.221723078715581E-3  -1.138040854848554E-3  
 2.012800000000000E10    4.985439614105372E-3  -2.082095343481612E-3  
 2.013000000000000E10    4.471621522105035E-3  -2.958958701196093E-3  
 2.013200000000000E10    3.810592961532099E-3  -3.600079370777548E-3  
 2.013400000000000E10    3.143004239479333E-3  -4.114176100694840E-3  
 2.013600000000000E10    2.379255119228253E-3  -4.510772983647056E-3  
 2.013800000000000E10    1.590872230870581E-3  -4.695480660661872E-3  
 2.014000000000000E10    8.853141521678572E-4  -4.715357958856557E-3  
 2.014200000000000E10    3.464508891166016E-4  -4.679974024816428E-3  
 2.014400000000000E10   -1.102318348762591E-4  -4.765699445097535E-3  
 2.014600000000000E10   -6.720864014228645E-4  -4.987665095630988E-3  
 2.014800000000000E10   -1.523690173160975E-3  -5.197329233963917E-3  
 2.015000000000000E10   -2.621062740936508E-3  -5.137447055061291E-3  
 2.015200000000000E10   -3.761355362740564E-3  -4.691762090833099E-3  
 2.015400000000000E10   -4.730540465701510E-3  -3.915566824560549E-3  
 2.015600000000000E10   -5.471937801045033E-3  -2.882155431664469E-3  
 2.015800000000000E10   -5.865236065913867E-3  -1.724678091704846E-3  
 2.016000000000000E10   -5.964797294848128E-3  -5.725013080662416E-4  
 2.016200000000000E10   -5.849363414547695E-3   4.660801101119523E-4  
 2.016400000000000E10   -5.587293984897344E-3   1.394768386366375E-3  
 2.016600000000000E10   -5.198944543982730E-3   2.222898160394880E-3  
 2.016800000000000E10   -4.767113014549754E-3   2.981815455527402E-3  
 2.017000000000000E10   -4.230531858119333E-3   3.709152395503573E-3  
 2.017200000000000E10   -3.546723834365423E-3   4.330504605155669E-3  
 2.017400000000000E10   -2.774979430538269E-3   4.723196785989000E-3  
 2.017600000000000E10   -2.129854996585184E-3   4.958178980252994E-3  
 2.017800000000000E10   -1.545654526440266E-3   5.337578491710219E-3  
 2.018000000000000E10   -7.328445351981548E-4   5.727785162305759E-3  
 2.018200000000000E10    2.300002375749849E-4   5.971202379621474E-3  
 2.018400000000000E10    1.316584761679909E-3   6.052186879340882E-3  
 2.018600000000000E10    2.492823416689112E-3   5.873642327194966E-3  
 2.018800000000000E10    3.732112641618760E-3   5.342046477268508E-3  
 2.019000000000000E10    4.737143646235820E-3   4.452652763575316E-3  
 2.019200000000000E10    5.407011964254910E-3   3.411137843849483E-3  
 2.019400000000000E10    5.812511980579593E-3   2.332346056829448E-3  
 2.019600000000000E10    6.041527783245217E-3   1.292137019508691E-3  
 2.019800000000000E10    6.111593853774263E-3   1.883912255037519E-4  
 2.020000000000000E10    5.919433543803516E-3  -8.838519390764430E-4  
 2.020200000000000E10    5.519889634286549E-3  -1.773627742228133E-3  
 2.020400000000000E10    5.106851912712978E-3  -2.460445613703794E-3  
 2.020600000000000E10    4.744164248997415E-3  -3.190031763810067E-3  
 2.020800000000000E10    4.311030057983266E-3  -3.987076680785345E-3  
 2.021000000000000E10    3.618734115504741E-3  -4.893866045699444E-3  
 2.021200000000000E10    2.504035077391216E-3  -5.564322723880594E-3  
 2.021400000000000E10    1.322499520927208E-3  -5.769625398111933E-3  
 2.021600000000000E10    2.556443250347159E-4  -5.704094575327121E-3  
 2.021800000000000E10   -6.804702441311546E-4  -5.424055362833136E-3  
 2.022000000000000E10   -1.384131192160701E-3  -5.043175784342084E-3  
 2.022200000000000E10   -1.900700275947191E-3  -4.757942597347278E-3  
 2.022400000000000E10   -2.501687017717847E-3  -4.618733885617537E-3  
 2.022600000000000E10   -3.350368085788725E-3  -4.362090094083990E-3  
 2.022800000000000E10   -4.248789344902760E-3  -3.809156022781944E-3  
 2.023000000000000E10   -5.026902578035255E-3  -2.987934785239675E-3  
 2.023200000000000E10   -5.561430622352127E-3  -1.932304435881016E-3  
 2.023400000000000E10   -5.813819132055398E-3  -7.852166330579806E-4  
 2.023600000000000E10   -5.789623302580031E-3   3.398577344925776E-4  
 2.023800000000000E10   -5.547722192182218E-3   1.424143838201776E-3  
 2.024000000000000E10   -5.103450538705529E-3   2.443835271499408E-3  
 2.024200000000000E10   -4.403536512665911E-3   3.341212451894894E-3  
 2.024400000000000E10   -3.481881569404110E-3   3.962928297021140E-3  
 2.024600000000000E10   -2.574447956350115E-3   4.281800918649009E-3  
 2.024800000000000E10   -1.766325775131492E-3   4.426943431435912E-3  
 2.025000000000000E10   -1.007563992184990E-3   4.414668203228051E-3  
 2.025200000000000E10   -4.449094369731568E-4   4.308849941065283E-3  
 2.025400000000000E10    3.293867569111711E-5   4.281314411832963E-3  
 2.025600000000000E10    5.905897849538353E-4   4.326148763482954E-3  
 2.025800000000000E10    1.279710800628419E-3   4.333440335122524E-3  
 2.026000000000000E10    2.054859973191295E-3   4.143222838778188E-3  
 2.026200000000000E10    2.802925098135516E-3   3.762533031633975E-3  
 2.026400000000000E10    3.486947538791064E-3   3.206910266552443E-3  
 2.026600000000000E10    4.066654929408321E-3   2.513165416104007E-3  
 2.026800000000000E10    4.501311263690393E-3   1.652705516194764E-3  
 2.027000000000000E10    4.697311744323852E-3   7.144694531301934E-4  
 2.027200000000000E10    4.662281764602221E-3  -2.391234487237662E-4  
 2.027400000000000E10    4.368684565027555E-3  -1.130378312132333E-3  
 2.027600000000000E10    3.866582947932644E-3  -1.833661445014087E-3  
 2.027800000000000E10    3.313003248753556E-3  -2.264629345226251E-3  
 2.028000000000000E10    2.909754578277101E-3  -2.544774981445553E-3  
 2.028200000000000E10    2.590158919769305E-3  -2.924555354970106E-3  
 2.028400000000000E10    2.177051159288781E-3  -3.396067684976223E-3  
 2.028600000000000E10    1.544892503362563E-3  -3.872958135526674E-3  
 2.028800000000000E10    6.832375002875466E-4  -4.140807022513063E-3  
 2.029000000000000E10   -1.756017012622231E-4  -4.110459353268883E-3  
 2.029200000000000E10   -9.710107366611930E-4  -3.911052646552339E-3  
 2.029400000000000E10   -1.664738821866060E-3  -3.458323664273378E-3  
 2.029600000000000E10   -2.099951596953619E-3  -2.912145685749474E-3  
 2.029800000000000E10   -2.347314598061789E-3  -2.448682365709065E-3  
 2.030000000000000E10   -2.592527750235650E-3  -2.074210108315319E-3  
 2.030200000000000E10   -2.813872576541739E-3  -1.615370786173936E-3  
 2.030400000000000E10   -2.912662822730196E-3  -1.213777617746849E-3  
 2.030600000000000E10   -3.062547687556089E-3  -9.513977055587337E-4  
 2.030800000000000E10   -3.428856298948328E-3  -5.529752190880202E-4  
 2.031000000000000E10   -3.716538295172799E-3   1.704329379545353E-4  
 2.031200000000000E10   -3.677871975081939E-3   1.047452839873271E-3  
 2.031400000000000E10   -3.328704574133880E-3   1.825330490073948E-3  
 2.031600000000000E10   -2.858474511469220E-3   2.448638366466320E-3  
 2.031800000000000E10   -2.234738800145778E-3   2.938389901738660E-3  
 2.032000000000000E10   -1.522788772198522E-3   3.239527629274462E-3  
 2.032200000000000E10   -8.056369505213277E-4   3.372831741508878E-3  
 2.032400000000000E10   -9.627650764359941E-5   3.302143490010942E-3  
 2.032600000000000E10    4.929682479906873E-4   3.073266212954934E-3  
 2.032800000000000E10    9.807133960917042E-4   2.777482132875809E-3  
 2.033000000000000E10    1.335192044886450E-3   2.411221803660379E-3  
 2.033200000000000E10    1.562771627415018E-3   2.048066877587526E-3  
 2.033400000000000E10    1.690576166305461E-3   1.709487851145735E-3  
 2.033600000000000E10    1.565748539661276E-3   1.630971403677523E-3  
 2.033800000000000E10    1.784732210288906E-3   1.388674374830760E-3  
 2.034000000000000E10    2.036202382756236E-3   1.356447796785721E-3  
 2.034200000000000E10    2.488880694188454E-3   1.190479748514424E-3  
 2.034400000000000E10    2.957304640684600E-3   6.855423195736000E-4  
 2.034600000000000E10    3.178764364601654E-3  -4.291894046454454E-5  
 2.034800000000000E10    3.150910711099888E-3  -7.810323473273052E-4  
 2.035000000000000E10    2.945346786514109E-3  -1.503138035466826E-3  
 2.035200000000000E10    2.504375366563047E-3  -2.179892779684362E-3  
 2.035400000000000E10    1.806684357206119E-3  -2.671735254863715E-3  
 2.035600000000000E10    1.020955495294874E-3  -2.806514021538106E-3  
 2.035800000000000E10    3.914255541059430E-4  -2.654845449774538E-3  
 2.036000000000000E10   -3.551816647544653E-6  -2.444679616019130E-3  
 2.036200000000000E10   -2.693664749658862E-4  -2.280404552656376E-3  
 2.036400000000000E10   -5.266774599555376E-4  -2.172608776477936E-3  
 2.036600000000000E10   -7.723374622816474E-4  -2.045202278819534E-3  
 2.036800000000000E10   -9.843295592423759E-4  -1.970022813313537E-3  
 2.037000000000000E10   -1.285395340672062E-3  -1.934573729809972E-3  
 2.037200000000000E10   -1.707085776200265E-3  -1.761204288571062E-3  
 2.037400000000000E10   -2.041121849928189E-3  -1.418651691005554E-3  
 2.037600000000000E10   -2.281127575164040E-3  -1.008516888962024E-3  
 2.037800000000000E10   -2.425510019500867E-3  -5.410444623802180E-4  
 2.038000000000000E10   -2.455113214199190E-3  -1.001050454143285E-4  
 2.038200000000000E10   -2.404291812261498E-3   3.162450002604107E-4  
 2.038400000000000E10   -2.310125401565506E-3   7.231954706510829E-4  
 2.038600000000000E10   -2.131125349321483E-3   1.149690119308178E-3  
 2.038800000000000E10   -1.822389209539526E-3   1.450006804072563E-3  
 2.039000000000000E10   -1.558389383897094E-3   1.616501339918210E-3  
 2.039200000000000E10   -1.394758718145758E-3   1.814135035534424E-3  
 2.039400000000000E10   -1.160350955884766E-3   2.119176374334428E-3  
 2.039600000000000E10   -7.304966673944836E-4   2.412897767499089E-3  
 2.039800000000000E10   -1.771315917182990E-4   2.530624078195772E-3  
 2.040000000000000E10    3.099638011513486E-4   2.432668285536362E-3  
 2.040200000000000E10    6.878066514791163E-4   2.283933236160212E-3  
 2.040400000000000E10    1.066538820008713E-3   2.136294278718623E-3  
 2.040600000000000E10    1.427083418497609E-3   1.898780318528966E-3  
 2.040800000000000E10    1.723731735744226E-3   1.589129280793354E-3  
 2.041000000000000E10    1.944677763400071E-3   1.202644751533682E-3  
 2.041200000000000E10    1.995855827390412E-3   7.745012063188135E-4  
 2.041400000000000E10    1.905953961447526E-3   4.757813323162680E-4  
 2.041600000000000E10    1.864719720568830E-3   3.216533794464475E-4  
 2.041800000000000E10    1.927430865090386E-3   1.868000746284968E-4  
 2.042000000000000E10    2.060621468074344E-3  -1.283654177718244E-6  
 2.042200000000000E10    2.234187592280868E-3  -3.476014707875611E-4  
 2.042400000000000E10    2.259474923190328E-3  -8.701596582986784E-4  
 2.042600000000000E10    2.066251908049540E-3  -1.339856183075887E-3  
 2.042800000000000E10    1.833024814173028E-3  -1.718318759590204E-3  
 2.043000000000000E10    1.498175721707536E-3  -2.129667047641160E-3  
 2.043200000000000E10    9.568412012110157E-4  -2.430895627993677E-3  
 2.043400000000000E10    3.198889658332193E-4  -2.490121178489960E-3  
 2.043600000000000E10   -2.057263791132833E-4  -2.307330197827132E-3  
 2.043800000000000E10   -5.341815046483168E-4  -2.056020240149933E-3  
 2.044000000000000E10   -7.930142391059134E-4  -1.802159523602897E-3  
 2.044200000000000E10   -9.517300547744482E-4  -1.509614288806916E-3  
 2.044400000000000E10   -9.691083392726237E-4  -1.263207468537637E-3  
 2.044600000000000E10   -9.180512667323155E-4  -1.193546508956287E-3  
 2.044800000000000E10   -9.841727535527798E-4  -1.245570088805700E-3  
 2.045000000000000E10   -1.182279700447840E-3  -1.284002202827438E-3  
 2.045200000000000E10   -1.485072889790675E-3  -1.210742167277653E-3  
 2.045400000000000E10   -1.799109148976888E-3  -9.571180627163914E-4  
 2.045600000000000E10   -1.950187013588018E-3  -5.878039030645641E-4  
 2.045800000000000E10   -1.983362500107399E-3  -2.908152865855323E-4  
 2.046000000000000E10   -2.032340449614474E-3  -3.611350383172618E-5  
 2.046200000000000E10   -2.086657415615556E-3   2.566770877528154E-4  
 2.046400000000000E10   -2.143965226333635E-3   6.213006894046695E-4  
 2.046600000000000E10   -2.094023484437738E-3   1.103108899702353E-3  
 2.046800000000000E10   -1.808584627499919E-3   1.579763397953853E-3  
 2.047000000000000E10   -1.354311009363076E-3   1.859953764964033E-3  
 2.047200000000000E10   -9.368019233124309E-4   1.907462933974594E-3  
 2.047400000000000E10   -6.581670834602398E-4   1.912571281413146E-3  
 2.047600000000000E10   -3.577103427996469E-4   1.964075105655709E-3  
 2.047800000000000E10   -2.503116406898452E-5   1.896161754201684E-3  
 2.048000000000000E10    2.040147165520646E-4   1.735814901666693E-3  
 2.048200000000000E10    2.988473886629728E-4   1.612546185410961E-3  
 2.048400000000000E10    3.822241413240310E-4   1.628616008401653E-3  
 2.048600000000000E10    5.610574634722723E-4   1.655515165493629E-3  
 2.048800000000000E10    7.498750806625152E-4   1.645246701728967E-3  
 2.049000000000000E10    9.622011997702499E-4   1.628558165796193E-3  
 2.049200000000000E10    1.200547641614613E-3   1.572367148818793E-3  
 2.049400000000000E10    1.435676269106751E-3   1.505860949602024E-3  
 2.049600000000000E10    1.747576344505321E-3   1.439512248817877E-3  
 2.049800000000000E10    2.138123844669741E-3   1.211510459536020E-3  
 2.050000000000000E10    2.454164193621205E-3   8.426846937782328E-4  
 2.050200000000000E10    2.725493996461601E-3   3.957126417519227E-4  
 2.050400000000000E10    2.926036453932340E-3  -1.975165494648671E-4  
 2.050600000000000E10    2.885290208836029E-3  -9.213267282272379E-4  
 2.050800000000000E10    2.524438831541274E-3  -1.539287033755287E-3  
 2.051000000000000E10    2.058122637624174E-3  -1.874250926100362E-3  
 2.051200000000000E10    1.664002292306611E-3  -2.087823799408881E-3  
 2.051400000000000E10    1.256748427418463E-3  -2.243711360166838E-3  
 2.051600000000000E10    8.857565174557639E-4  -2.246538297859607E-3  
 2.051800000000000E10    6.491465150539615E-4  -2.220030187019779E-3  
 2.052000000000000E10    4.567760341070640E-4  -2.288777924453219E-3  
 2.052200000000000E10    2.382076945426058E-4  -2.417527058702193E-3  
 2.052400000000000E10   -4.736506593029911E-5  -2.604696638077314E-3  
 2.052600000000000E10   -5.251500923703944E-4  -2.739510639789112E-3  
 2.052800000000000E10   -1.042348887472425E-3  -2.653871826758540E-3  
 2.053000000000000E10   -1.441590608684001E-3  -2.484844623846405E-3  
 2.053200000000000E10   -1.846208347777986E-3  -2.319173827008517E-3  
 2.053400000000000E10   -2.256151809023671E-3  -2.073130524360840E-3  
 2.053600000000000E10   -2.658054445306828E-3  -1.731058266473773E-3  
 2.053800000000000E10   -3.020712691876624E-3  -1.255557589221424E-3  
 2.054000000000000E10   -3.265336903249040E-3  -6.898668929532079E-4  
 2.054200000000000E10   -3.438622227950413E-3  -8.771862171052807E-5  
 2.054400000000000E10   -3.434964294694825E-3   6.356361368096170E-4  
 2.054600000000000E10   -3.193825181504643E-3   1.280795860414704E-3  
 2.054800000000000E10   -2.864173984293033E-3   1.805478522990957E-3  
 2.055000000000000E10   -2.433513089968467E-3   2.248141624286403E-3  
 2.055200000000000E10   -1.908829210061626E-3   2.534219132805313E-3  
 2.055400000000000E10   -1.431051380127485E-3   2.611124942677073E-3  
 2.055600000000000E10   -1.117204265657491E-3   2.615349763935363E-3  
