#  HZ   S   RI   R     50.00 
! Rohde & Schwarz ZVA40 4Ports - Version 3.90 - 1145.1110k42 SN: 100403
! Date: 2023-10-03 10:32:43
! Measurement: S12 
! 
 2.000000000000000E10   -1.024398752948109E-3  -4.851525390727653E-3  
 2.000200000000000E10   -2.072961851494548E-3  -4.650676099836460E-3  
 2.000400000000000E10   -3.128737582031776E-3  -4.010738977403553E-3  
 2.000600000000000E10   -3.790894945807480E-3  -2.993899659127181E-3  
 2.000800000000000E10   -3.938748116064587E-3  -2.041967387345654E-3  
 2.001000000000000E10   -3.876718356170589E-3  -1.396108289352722E-3  
 2.001200000000000E10   -3.963065126703845E-3  -1.022947525295119E-3  
 2.001400000000000E10   -4.277631818650314E-3  -5.283219787223197E-4  
 2.001600000000000E10   -4.505727451616599E-3   2.969838772256526E-4  
 2.001800000000000E10   -4.466895249752720E-3   1.218899722314543E-3  
 2.002000000000000E10   -4.131799753479384E-3   2.144020878606373E-3  
 2.002200000000000E10   -3.474207258679801E-3   2.980271066872427E-3  
 2.002400000000000E10   -2.640086709073296E-3   3.482088478236103E-3  
 2.002600000000000E10   -1.839612939762941E-3   3.615396361752057E-3  
 2.002800000000000E10   -1.305769032361791E-3   3.522125457953892E-3  
 2.003000000000000E10   -1.066683667976363E-3   3.534878500633770E-3  
 2.003200000000000E10   -8.293953961347817E-4   3.897698124709689E-3  
 2.003400000000000E10   -2.036284806959929E-4   4.357806130967759E-3  
 2.003600000000000E10    6.995680504823449E-4   4.595661846299967E-3  
 2.003800000000000E10    1.684723534034910E-3   4.508812647358871E-3  
 2.004000000000000E10    2.607357814724063E-3   4.198854478696982E-3  
 2.004200000000000E10    3.511379941447098E-3   3.665741593404502E-3  
 2.004400000000000E10    4.289063084640622E-3   2.867046436064957E-3  
 2.004600000000000E10    4.838104526523823E-3   1.839981869978394E-3  
 2.004800000000000E10    4.984926691071855E-3   6.692946915813711E-4  
 2.005000000000000E10    4.771601115525873E-3  -3.192316342639611E-4  
 2.005200000000000E10    4.393277822039379E-3  -1.063966410763470E-3  
 2.005400000000000E10    4.060777841296830E-3  -1.547514785794013E-3  
 2.005600000000000E10    3.886813660048777E-3  -2.090899929128312E-3  
 2.005800000000000E10    3.551889992790459E-3  -2.746127390613159E-3  
 2.006000000000000E10    3.051643851960516E-3  -3.304552143140708E-3  
 2.006200000000000E10    2.518878548325580E-3  -3.796378851948698E-3  
 2.006400000000000E10    1.847068559274905E-3  -4.256970984976233E-3  
 2.006600000000000E10    9.953605742653673E-4  -4.498478927776034E-3  
 2.006800000000000E10    2.686179618144202E-4  -4.503372774953828E-3  
 2.007000000000000E10   -3.519867252943647E-4  -4.499347104380528E-3  
 2.007200000000000E10   -9.797120317356824E-4  -4.519636098893337E-3  
 2.007400000000000E10   -1.725169960811826E-3  -4.545387921187982E-3  
 2.007600000000000E10   -2.717301183391685E-3  -4.408652330806227E-3  
 2.007800000000000E10   -3.740990830493379E-3  -3.820653197091120E-3  
 2.008000000000000E10   -4.493976828216771E-3  -2.886812984483478E-3  
 2.008200000000000E10   -4.890907308615653E-3  -1.836591732205341E-3  
 2.008400000000000E10   -4.952803691044267E-3  -8.583444732609264E-4  
 2.008600000000000E10   -4.851787759244075E-3  -1.123609989143142E-5  
 2.008800000000000E10   -4.672358726599703E-3   7.329693460768021E-4  
 2.009000000000000E10   -4.400858057685841E-3   1.361829027487540E-3  
 2.009200000000000E10   -4.143362985578953E-3   1.888331495811818E-3  
 2.009400000000000E10   -3.948814982985273E-3   2.437670295483169E-3  
 2.009600000000000E10   -3.713071251426030E-3   3.111678661410640E-3  
 2.009800000000000E10   -3.245305376311328E-3   3.920799793882503E-3  
 2.010000000000000E10   -2.404640854140859E-3   4.606035411541845E-3  
 2.010200000000000E10   -1.371105619775200E-3   4.960550920876825E-3  
 2.010400000000000E10   -4.153383448777468E-4   4.917319352382129E-3  
 2.010600000000000E10    3.226177628945421E-4   4.740361176017258E-3  
 2.010800000000000E10    9.289275406411401E-4   4.572286098091691E-3  
 2.011000000000000E10    1.478907666571530E-3   4.434688482433558E-3  
 2.011200000000000E10    2.104895333127107E-3   4.340644828101368E-3  
 2.011400000000000E10    2.851483233870916E-3   4.152758725355438E-3  
 2.011600000000000E10    3.726104786044654E-3   3.775562084981321E-3  
 2.011800000000000E10    4.603733130397253E-3   2.984579442712812E-3  
 2.012000000000000E10    5.061393040289850E-3   1.922700920625142E-3  
 2.012200000000000E10    5.164764447850578E-3   9.585793495155229E-4  
 2.012400000000000E10    5.168957566773451E-3   9.556210433301104E-5  
 2.012600000000000E10    5.069705134510627E-3  -7.368042083445615E-4  
 2.012800000000000E10    4.824632278609056E-3  -1.558201981099024E-3  
 2.013000000000000E10    4.420084367149775E-3  -2.250687681989354E-3  
 2.013200000000000E10    4.035255331316113E-3  -2.747419816269367E-3  
 2.013400000000000E10    3.763918417080502E-3  -3.345573504949794E-3  
 2.013600000000000E10    3.247598878878319E-3  -4.109568232785405E-3  
 2.013800000000000E10    2.383808447278025E-3  -4.706520322756268E-3  
 2.014000000000000E10    1.446022018272844E-3  -4.927401557380771E-3  
 2.014200000000000E10    6.779463851054051E-4  -4.896833135941883E-3  
 2.014400000000000E10    8.913616653040260E-5  -4.883429219509349E-3  
 2.014600000000000E10   -5.137176076122733E-4  -4.957724828273058E-3  
 2.014800000000000E10   -1.230133121062852E-3  -4.991593006078476E-3  
 2.015000000000000E10   -2.001646371489322E-3  -4.917409426222245E-3  
 2.015200000000000E10   -2.843976483599824E-3  -4.785777535289526E-3  
 2.015400000000000E10   -3.843893624704194E-3  -4.476242054851703E-3  
 2.015600000000000E10   -4.929340731950454E-3  -3.791289467272568E-3  
 2.015800000000000E10   -5.785487988894738E-3  -2.678317805453215E-3  
 2.016000000000000E10   -6.187827355101890E-3  -1.308622350341376E-3  
 2.016200000000000E10   -6.138922221222780E-3   4.364281873373923E-6  
 2.016400000000000E10   -5.791958789398642E-3   1.067016234931847E-3  
 2.016600000000000E10   -5.372340779429601E-3   1.911079166112123E-3  
 2.016800000000000E10   -4.917545750001331E-3   2.652230707031709E-3  
 2.017000000000000E10   -4.396375360680216E-3   3.312609060724945E-3  
 2.017200000000000E10   -3.799510846650343E-3   3.897232167353785E-3  
 2.017400000000000E10   -3.141061690302544E-3   4.339829501178530E-3  
 2.017600000000000E10   -2.559457644015367E-3   4.725704245545246E-3  
 2.017800000000000E10   -1.922098175266091E-3   5.192325180281460E-3  
 2.018000000000000E10   -1.053217623129855E-3   5.536706951435334E-3  
 2.018200000000000E10   -1.512561857565249E-4   5.691292086317216E-3  
 2.018400000000000E10    7.646899982240559E-4   5.747654504016226E-3  
 2.018600000000000E10    1.723436206107798E-3   5.673895515271544E-3  
 2.018800000000000E10    2.736806743030931E-3   5.414060673411983E-3  
 2.019000000000000E10    3.704917082494056E-3   4.934838777522982E-3  
 2.019200000000000E10    4.583793790022165E-3   4.250354852159451E-3  
 2.019400000000000E10    5.336078062055656E-3   3.421807696145994E-3  
 2.019600000000000E10    6.021389685985116E-3   2.469957855035678E-3  
 2.019800000000000E10    6.531601593496256E-3   1.159804079819609E-3  
 2.020000000000000E10    6.519116719977723E-3  -3.246835624816380E-4  
 2.020200000000000E10    5.985028121942357E-3  -1.519568731582920E-3  
 2.020400000000000E10    5.396782386082191E-3  -2.267842186775840E-3  
 2.020600000000000E10    4.994622857114416E-3  -2.912117677085378E-3  
 2.020800000000000E10    4.607963801166158E-3  -3.624590254607209E-3  
 2.021000000000000E10    4.043934228657573E-3  -4.490173289575327E-3  
 2.021200000000000E10    3.115592860720225E-3  -5.254353160889429E-3  
 2.021400000000000E10    2.034368539619962E-3  -5.674705346241410E-3  
 2.021600000000000E10    9.547274381520206E-4  -5.863269641535518E-3  
 2.021800000000000E10   -1.641309521531824E-4  -5.780098706851772E-3  
 2.022000000000000E10   -1.103952258284905E-3  -5.396090689356681E-3  
 2.022200000000000E10   -1.703474960968267E-3  -4.953888975037838E-3  
 2.022400000000000E10   -2.193293557214884E-3  -4.742933937382919E-3  
 2.022600000000000E10   -2.913054029951677E-3  -4.588663733253877E-3  
 2.022800000000000E10   -3.750086066393574E-3  -4.240385555650717E-3  
 2.023000000000000E10   -4.637466392905257E-3  -3.662944127472095E-3  
 2.023200000000000E10   -5.464311240723840E-3  -2.745322581311619E-3  
 2.023400000000000E10   -6.055380493678431E-3  -1.530652716295955E-3  
 2.023600000000000E10   -6.218825294463723E-3  -1.379238593573165E-4  
 2.023800000000000E10   -5.940195379985705E-3   1.222659353695718E-3  
 2.024000000000000E10   -5.309046539305537E-3   2.356745759715085E-3  
 2.024200000000000E10   -4.438548159130194E-3   3.198538033038746E-3  
 2.024400000000000E10   -3.480383927968365E-3   3.633945076553910E-3  
 2.024600000000000E10   -2.719903715460757E-3   3.744025947526098E-3  
 2.024800000000000E10   -2.189983932853297E-3   3.792051682938581E-3  
 2.025000000000000E10   -1.774643460162168E-3   3.928884714381931E-3  
 2.025200000000000E10   -1.379942751409095E-3   4.193151013258799E-3  
 2.025400000000000E10   -8.137608945864127E-4   4.517911778142056E-3  
 2.025600000000000E10   -4.429213621744881E-5   4.792451755040223E-3  
 2.025800000000000E10    9.040849378194524E-4   4.874464998274675E-3  
 2.026000000000000E10    1.907539355603082E-3   4.603392594022517E-3  
 2.026200000000000E10    2.727197494679763E-3   4.060071990767748E-3  
 2.026400000000000E10    3.317707655146535E-3   3.424829300378024E-3  
 2.026600000000000E10    3.756773709836934E-3   2.810184725985667E-3  
 2.026800000000000E10    4.201157202507243E-3   2.156628008333990E-3  
 2.027000000000000E10    4.566630526779243E-3   1.373921337043062E-3  
 2.027200000000000E10    4.776420968550224E-3   4.345308719806511E-4  
 2.027400000000000E10    4.699292035060533E-3  -5.746750868167040E-4  
 2.027600000000000E10    4.312393847668981E-3  -1.506222443609142E-3  
 2.027800000000000E10    3.667544380957147E-3  -2.161486080077327E-3  
 2.028000000000000E10    3.083154104971959E-3  -2.504230088864764E-3  
 2.028200000000000E10    2.630639301015088E-3  -2.762438921993714E-3  
 2.028400000000000E10    2.276137215372774E-3  -3.004739906086967E-3  
 2.028600000000000E10    1.897940646431605E-3  -3.382278997221111E-3  
 2.028800000000000E10    1.314795440936714E-3  -3.755898781143774E-3  
 2.029000000000000E10    6.228181142589929E-4  -3.973800407285676E-3  
 2.029200000000000E10   -1.197768489177696E-4  -4.083693142474434E-3  
 2.029400000000000E10   -9.783340293201216E-4  -3.989238562177361E-3  
 2.029600000000000E10   -1.780076591976355E-3  -3.608788084813659E-3  
 2.029800000000000E10   -2.361988214729929E-3  -3.019873426514276E-3  
 2.030000000000000E10   -2.731514324284630E-3  -2.409997758352094E-3  
 2.030200000000000E10   -2.898784247974371E-3  -1.767526846379042E-3  
 2.030400000000000E10   -2.835447966109640E-3  -1.293340170422546E-3  
 2.030600000000000E10   -2.834210313143738E-3  -1.100303286134645E-3  
 2.030800000000000E10   -3.153572775952426E-3  -9.033824496810544E-4  
 2.031000000000000E10   -3.563210963168078E-3  -3.847532415544086E-4  
 2.031200000000000E10   -3.769755196746118E-3   4.429845462760164E-4  
 2.031400000000000E10   -3.618844531844428E-3   1.338827935403880E-3  
 2.031600000000000E10   -3.218914557501306E-3   2.113095973330884E-3  
 2.031800000000000E10   -2.593123423004592E-3   2.714125557377199E-3  
 2.032000000000000E10   -1.876956685503692E-3   3.102358557099914E-3  
 2.032200000000000E10   -1.135864556640571E-3   3.268184054091022E-3  
 2.032400000000000E10   -4.072590399803710E-4   3.207409817633438E-3  
 2.032600000000000E10    1.480201387527847E-4   2.979338824473046E-3  
 2.032800000000000E10    5.565138755044268E-4   2.741129002476364E-3  
 2.033000000000000E10    8.885586270660071E-4   2.497376454419192E-3  
 2.033200000000000E10    1.206045757611225E-3   2.267456127698591E-3  
 2.033400000000000E10    1.474594619746010E-3   1.961544828696384E-3  
 2.033600000000000E10    1.435704460298574E-3   1.775069301660507E-3  
 2.033800000000000E10    1.639697357241846E-3   1.444673310838824E-3  
 2.034000000000000E10    1.772078788942761E-3   1.385167134741758E-3  
 2.034200000000000E10    2.073110759626201E-3   1.303652709602942E-3  
 2.034400000000000E10    2.463521984877226E-3   1.022789043799779E-3  
 2.034600000000000E10    2.791404077369306E-3   5.898979603151942E-4  
 2.034800000000000E10    3.027049059991116E-3   3.093144047773949E-5  
 2.035000000000000E10    3.146256682359510E-3  -6.875068971162869E-4  
 2.035200000000000E10    3.011002624982302E-3  -1.514306204267030E-3  
 2.035400000000000E10    2.512748838965724E-3  -2.319313338555304E-3  
 2.035600000000000E10    1.691220302341713E-3  -2.844932983502930E-3  
 2.035800000000000E10    7.899895678331823E-4  -2.945368163816539E-3  
 2.036000000000000E10    7.945605578658426E-5  -2.661182547999937E-3  
 2.036200000000000E10   -3.043513599191045E-4  -2.273963255531811E-3  
 2.036400000000000E10   -4.746211055999645E-4  -1.973569694975461E-3  
 2.036600000000000E10   -5.248654137917416E-4  -1.774565743592878E-3  
 2.036800000000000E10   -5.330679956881077E-4  -1.753520875893258E-3  
 2.037000000000000E10   -7.094473931593476E-4  -1.925586511518945E-3  
 2.037200000000000E10   -1.175292017352250E-3  -2.005273502113091E-3  
 2.037400000000000E10   -1.680672479172548E-3  -1.785038427139322E-3  
 2.037600000000000E10   -2.036328404497954E-3  -1.405953708461222E-3  
 2.037800000000000E10   -2.300763514214828E-3  -9.952216275484751E-4  
 2.038000000000000E10   -2.479251025727502E-3  -4.873399983482137E-4  
 2.038200000000000E10   -2.431481323538372E-3   6.438900549884564E-5  
 2.038400000000000E10   -2.265236374956590E-3   4.561120783622710E-4  
 2.038600000000000E10   -2.114586546488198E-3   7.509165508155194E-4  
 2.038800000000000E10   -1.973887436942738E-3   1.024178689903361E-3  
 2.039000000000000E10   -1.872807824524281E-3   1.319805592769918E-3  
 2.039200000000000E10   -1.714748219747879E-3   1.705541787094173E-3  
 2.039400000000000E10   -1.381708517452173E-3   2.140123055052059E-3  
 2.039600000000000E10   -8.277326411234193E-4   2.478038900773283E-3  
 2.039800000000000E10   -1.146620385424970E-4   2.509339427989391E-3  
 2.040000000000000E10    4.507582663431948E-4   2.167990994582206E-3  
 2.040200000000000E10    6.404602986381010E-4   1.748955995419327E-3  
 2.040400000000000E10    6.103132474868571E-4   1.537886190941029E-3  
 2.040600000000000E10    6.142211682738071E-4   1.549760926008961E-3  
 2.040800000000000E10    7.824423158092908E-4   1.643632892174302E-3  
 2.041000000000000E10    1.116533747897196E-3   1.669109474154719E-3  
 2.041200000000000E10    1.475562618895905E-3   1.529307356161744E-3  
 2.041400000000000E10    1.795329525779335E-3   1.292253913426841E-3  
 2.041600000000000E10    2.080030112676783E-3   9.661244162369844E-4  
 2.041800000000000E10    2.243437082794162E-3   5.647172751824982E-4  
 2.042000000000000E10    2.328991973312733E-3   1.795407818317023E-4  
 2.042200000000000E10    2.419735103799605E-3  -2.428093331544028E-4  
 2.042400000000000E10    2.371111784107340E-3  -7.584138498871509E-4  
 2.042600000000000E10    2.138434225164446E-3  -1.226126963709608E-3  
 2.042800000000000E10    1.875054907559613E-3  -1.580833172839549E-3  
 2.043000000000000E10    1.563009544402177E-3  -1.955623005482334E-3  
 2.043200000000000E10    1.065602997478880E-3  -2.271483407965229E-3  
 2.043400000000000E10    4.491564730774428E-4  -2.360915641564830E-3  
 2.043600000000000E10   -9.416538230450693E-5  -2.173869936715490E-3  
 2.043800000000000E10   -4.054374973444890E-4  -1.836343574981539E-3  
 2.044000000000000E10   -5.429298394175684E-4  -1.567780406697205E-3  
 2.044200000000000E10   -5.570994028936567E-4  -1.344598514993710E-3  
 2.044400000000000E10   -4.828157288562737E-4  -1.250426599721390E-3  
 2.044600000000000E10   -4.558270393991499E-4  -1.353672249990021E-3  
 2.044800000000000E10   -6.117254666650646E-4  -1.552919079664589E-3  
 2.045000000000000E10   -9.809713537609322E-4  -1.671120252770682E-3  
 2.045200000000000E10   -1.461515687463552E-3  -1.607793137534625E-3  
 2.045400000000000E10   -1.952740176937279E-3  -1.272623020477225E-3  
 2.045600000000000E10   -2.170417463567890E-3  -6.832330750680910E-4  
 2.045800000000000E10   -2.057156496807750E-3  -2.161469191950919E-4  
 2.046000000000000E10   -1.913333406533908E-3   4.569709385521729E-6  
 2.046200000000000E10   -1.896875646011329E-3   1.302544853253359E-4  
 2.046400000000000E10   -2.010023566307845E-3   3.391669241763238E-4  
 2.046600000000000E10   -2.100640807277811E-3   7.432227232780906E-4  
 2.046800000000000E10   -1.966453361451443E-3   1.267384588258502E-3  
 2.047000000000000E10   -1.583457854001519E-3   1.672790543877601E-3  
 2.047200000000000E10   -1.140870740292249E-3   1.858317878177780E-3  
 2.047400000000000E10   -7.579259511175349E-4   1.887455898808477E-3  
 2.047600000000000E10   -4.526626212338424E-4   1.867473131206669E-3  
 2.047800000000000E10   -1.599834213266149E-4   1.799499580096224E-3  
 2.048000000000000E10    2.617803908867278E-5   1.642581587082442E-3  
 2.048200000000000E10    4.750071937810445E-5   1.553777218681335E-3  
 2.048400000000000E10    1.031336438178119E-4   1.665622123839035E-3  
 2.048600000000000E10    3.635293558343418E-4   1.773894625072034E-3  
 2.048800000000000E10    6.402851704703530E-4   1.728524054389126E-3  
 2.049000000000000E10    8.505302083241630E-4   1.659174007076173E-3  
 2.049200000000000E10    1.065920161681227E-3   1.591153651257449E-3  
 2.049400000000000E10    1.259835454186908E-3   1.507097521773827E-3  
 2.049600000000000E10    1.482384776650572E-3   1.449222279781545E-3  
 2.049800000000000E10    1.791649965143958E-3   1.346325484552869E-3  
 2.050000000000000E10    2.096015842125556E-3   1.154595011569284E-3  
 2.050200000000000E10    2.456416749613889E-3   9.300656628185585E-4  
 2.050400000000000E10    2.901744106094594E-3   5.014610180723263E-4  
 2.050600000000000E10    3.189408734877721E-3  -2.485187686505486E-4  
 2.050800000000000E10    3.091064919890077E-3  -1.109719126956699E-3  
 2.051000000000000E10    2.685451707630246E-3  -1.783668190056895E-3  
 2.051200000000000E10    2.163265256878035E-3  -2.256990953659018E-3  
 2.051400000000000E10    1.531882080778388E-3  -2.563981069136917E-3  
 2.051600000000000E10    9.010221297496264E-4  -2.570604186873010E-3  
 2.051800000000000E10    4.894990922400246E-4  -2.356573490908853E-3  
 2.052000000000000E10    3.059862794521277E-4  -2.200359812029350E-3  
 2.052200000000000E10    2.471606993047452E-4  -2.144163575046409E-3  
 2.052400000000000E10    2.140905532014361E-4  -2.344645119996535E-3  
 2.052600000000000E10   -1.355298820137115E-4  -2.687686025222511E-3  
 2.052800000000000E10   -7.484346832275209E-4  -2.787884888181716E-3  
 2.053000000000000E10   -1.263998062234878E-3  -2.627135323429550E-3  
 2.053200000000000E10   -1.715599582243113E-3  -2.440245856565458E-3  
 2.053400000000000E10   -2.156584512120412E-3  -2.152177439082736E-3  
 2.053600000000000E10   -2.531942046235925E-3  -1.782631863736444E-3  
 2.053800000000000E10   -2.815550549622672E-3  -1.299395855447209E-3  
 2.054000000000000E10   -2.953903496633342E-3  -8.655835207505728E-4  
 2.054200000000000E10   -3.175542080475961E-3  -4.461087397138739E-4  
 2.054400000000000E10   -3.329469077863996E-3   1.933009453178211E-4  
 2.054600000000000E10   -3.238891765912191E-3   8.680053496514851E-4  
 2.054800000000000E10   -2.991885576328195E-3   1.470983277051997E-3  
 2.055000000000000E10   -2.572153306876620E-3   1.989666010356612E-3  
 2.055200000000000E10   -2.026954953225307E-3   2.295500926535439E-3  
 2.055400000000000E10   -1.526923597226909E-3   2.339479019060548E-3  
 2.055600000000000E10   -1.271143100040471E-3   2.246161198450460E-3  
