#  HZ   S   RI   R     50.00 
! Rohde & Schwarz ZVA40 4Ports - Version 3.90 - 1145.1110k42 SN: 100403
! Date: 2023-10-03 10:34:04
! Measurement: S12 
! 
 2.000000000000000E10   -1.301161332607821E-3  -4.854670225608129E-3  
 2.000200000000000E10   -2.358169993385673E-3  -4.541663866904047E-3  
 2.000400000000000E10   -3.349290902001991E-3  -3.782762102437793E-3  
 2.000600000000000E10   -3.871961496770382E-3  -2.671968786873751E-3  
 2.000800000000000E10   -3.831956639058061E-3  -1.768448868662947E-3  
 2.001000000000000E10   -3.658613388392109E-3  -1.287493203697657E-3  
 2.001200000000000E10   -3.777206504579496E-3  -1.066292834433693E-3  
 2.001400000000000E10   -4.185651842918661E-3  -6.258064068215728E-4  
 2.001600000000000E10   -4.485592504756318E-3   2.129313544611688E-4  
 2.001800000000000E10   -4.466495666376971E-3   1.153918599744362E-3  
 2.002000000000000E10   -4.173941565332590E-3   2.099560013178874E-3  
 2.002200000000000E10   -3.574038717757773E-3   2.970513508275703E-3  
 2.002400000000000E10   -2.760498327444549E-3   3.546062348134540E-3  
 2.002600000000000E10   -1.925763553353372E-3   3.749173169058783E-3  
 2.002800000000000E10   -1.344556635659602E-3   3.715052476359739E-3  
 2.003000000000000E10   -1.002947073343590E-3   3.773247529925020E-3  
 2.003200000000000E10   -6.010926121638882E-4   4.102027837049079E-3  
 2.003400000000000E10    1.371866490916108E-4   4.412489891466168E-3  
 2.003600000000000E10    1.038120494707039E-3   4.449571362110201E-3  
 2.003800000000000E10    1.919468261163544E-3   4.226177430677194E-3  
 2.004000000000000E10    2.725954193414914E-3   3.874451094479473E-3  
 2.004200000000000E10    3.529253622723951E-3   3.302763681858779E-3  
 2.004400000000000E10    4.152026182661454E-3   2.476468087277479E-3  
 2.004600000000000E10    4.514543408596958E-3   1.535951996360113E-3  
 2.004800000000000E10    4.556997230759374E-3   5.464203099513220E-4  
 2.005000000000000E10    4.320987672717483E-3  -2.456024300988281E-4  
 2.005200000000000E10    4.040408689804651E-3  -7.952511034629964E-4  
 2.005400000000000E10    3.899046504456136E-3  -1.207380072662124E-3  
 2.005600000000000E10    3.856811646579041E-3  -1.818141417094955E-3  
 2.005800000000000E10    3.576215934353295E-3  -2.560257765085057E-3  
 2.006000000000000E10    3.071560610637621E-3  -3.175928291899187E-3  
 2.006200000000000E10    2.483754660244341E-3  -3.679590256608747E-3  
 2.006400000000000E10    1.791596817956479E-3  -4.055851966970498E-3  
 2.006600000000000E10    1.020943304023671E-3  -4.198053730996671E-3  
 2.006800000000000E10    4.719033367345455E-4  -4.212504339024977E-3  
 2.007000000000000E10   -4.357045394566805E-5  -4.361671481833414E-3  
 2.007200000000000E10   -7.322870940832352E-4  -4.506896629377649E-3  
 2.007400000000000E10   -1.551761934361248E-3  -4.534781030896638E-3  
 2.007600000000000E10   -2.548122192146602E-3  -4.370293717969348E-3  
 2.007800000000000E10   -3.527476021123154E-3  -3.828749871226373E-3  
 2.008000000000000E10   -4.265010736330793E-3  -2.993624588405645E-3  
 2.008200000000000E10   -4.751060502948585E-3  -2.020708621583052E-3  
 2.008400000000000E10   -4.882589293022951E-3  -1.007002929260058E-3  
 2.008600000000000E10   -4.775269077745854E-3  -1.392608804356617E-4  
 2.008800000000000E10   -4.619569310711490E-3   5.789365753083042E-4  
 2.009000000000000E10   -4.411418249623643E-3   1.223609079951766E-3  
 2.009200000000000E10   -4.194221700783130E-3   1.815993455238641E-3  
 2.009400000000000E10   -3.959620466317844E-3   2.466281263709620E-3  
 2.009600000000000E10   -3.606707935600921E-3   3.178116115224031E-3  
 2.009800000000000E10   -3.024992791728841E-3   3.878979365927754E-3  
 2.010000000000000E10   -2.182331384608040E-3   4.379856262218070E-3  
 2.010200000000000E10   -1.290739173311050E-3   4.567612100530555E-3  
 2.010400000000000E10   -5.564926606085566E-4   4.504887887311203E-3  
 2.010600000000000E10    1.600609700997466E-5   4.433593885214241E-3  
 2.010800000000000E10    5.688187968054857E-4   4.405564818255328E-3  
 2.011000000000000E10    1.107933519287380E-3   4.357566936286512E-3  
 2.011200000000000E10    1.706716906348313E-3   4.355133200685184E-3  
 2.011400000000000E10    2.494466680757426E-3   4.328538146283892E-3  
 2.011600000000000E10    3.493303398567218E-3   4.074895530249235E-3  
 2.011800000000000E10    4.495971577448978E-3   3.309827099588735E-3  
 2.012000000000000E10    5.064830873851424E-3   2.236162208848530E-3  
 2.012200000000000E10    5.238546041288862E-3   1.225813498927488E-3  
 2.012400000000000E10    5.314496742492474E-3   3.062673538267889E-4  
 2.012600000000000E10    5.235787118888564E-3  -6.198559346591571E-4  
 2.012800000000000E10    4.956611052707390E-3  -1.504396450602346E-3  
 2.013000000000000E10    4.492820223310480E-3  -2.224699309509662E-3  
 2.013200000000000E10    4.055950687163407E-3  -2.731621524112092E-3  
 2.013400000000000E10    3.736628892107143E-3  -3.309971411471015E-3  
 2.013600000000000E10    3.222579265841180E-3  -3.982696544241023E-3  
 2.013800000000000E10    2.469401151217797E-3  -4.502541920239175E-3  
 2.014000000000000E10    1.668098740521129E-3  -4.761884144196908E-3  
 2.014200000000000E10    9.679330159323635E-4  -4.855219774914009E-3  
 2.014400000000000E10    3.419926398675199E-4  -4.923881031572819E-3  
 2.014600000000000E10   -2.615428427277409E-4  -5.039369877151870E-3  
 2.014800000000000E10   -9.896417182904704E-4  -5.149559307567500E-3  
 2.015000000000000E10   -1.826507819781977E-3  -5.145731002644257E-3  
 2.015200000000000E10   -2.766048509834542E-3  -5.045681191539324E-3  
 2.015400000000000E10   -3.868137641499440E-3  -4.723669685147427E-3  
 2.015600000000000E10   -4.995067724613129E-3  -3.953272062871192E-3  
 2.015800000000000E10   -5.793635181530759E-3  -2.807394937715597E-3  
 2.016000000000000E10   -6.185563884813478E-3  -1.505374503149479E-3  
 2.016200000000000E10   -6.205133334906014E-3  -2.540727525936544E-4  
 2.016400000000000E10   -5.930970854091425E-3   8.174028933151730E-4  
 2.016600000000000E10   -5.563263798615447E-3   1.662808599778348E-3  
 2.016800000000000E10   -5.201319301569904E-3   2.406482446800780E-3  
 2.017000000000000E10   -4.815841542073975E-3   3.155748239131990E-3  
 2.017200000000000E10   -4.305909508494316E-3   3.933493824054798E-3  
 2.017400000000000E10   -3.617523505386932E-3   4.582441549886157E-3  
 2.017600000000000E10   -2.914343486298566E-3   5.104247894552019E-3  
 2.017800000000000E10   -2.127188559690560E-3   5.659823944033296E-3  
 2.018000000000000E10   -1.082720144444870E-3   6.052168068924438E-3  
 2.018200000000000E10    6.769228127302119E-6   6.160850809128197E-3  
 2.018400000000000E10    1.061526890326705E-3   6.107816507143004E-3  
 2.018600000000000E10    2.097331668698678E-3   5.856738598258407E-3  
 2.018800000000000E10    3.111326239175267E-3   5.432113780881521E-3  
 2.019000000000000E10    4.007602696893393E-3   4.802056157064659E-3  
 2.019200000000000E10    4.763830642871283E-3   4.069194853029870E-3  
 2.019400000000000E10    5.409893838481771E-3   3.239900546355381E-3  
 2.019600000000000E10    6.011631184568008E-3   2.321570533914147E-3  
 2.019800000000000E10    6.453977259634822E-3   1.074363520644881E-3  
 2.020000000000000E10    6.448291259369365E-3  -2.950230393455261E-4  
 2.020200000000000E10    6.010001611516433E-3  -1.448603428865749E-3  
 2.020400000000000E10    5.479025861455335E-3  -2.245335011846490E-3  
 2.020600000000000E10    5.068579964615681E-3  -2.935915926678313E-3  
 2.020800000000000E10    4.650302231311798E-3  -3.689620100582640E-3  
 2.021000000000000E10    4.065781917974905E-3  -4.553724408011746E-3  
 2.021200000000000E10    3.136789400337471E-3  -5.343016823408781E-3  
 2.021400000000000E10    2.022865866483362E-3  -5.785278527549020E-3  
 2.021600000000000E10    8.848401873062055E-4  -5.954486593880036E-3  
 2.021800000000000E10   -2.526270987733302E-4  -5.833911864707868E-3  
 2.022000000000000E10   -1.197865043111422E-3  -5.423062963894120E-3  
 2.022200000000000E10   -1.819060589359315E-3  -4.952300512404354E-3  
 2.022400000000000E10   -2.315968602757763E-3  -4.686846811738280E-3  
 2.022600000000000E10   -3.018452190897531E-3  -4.457434397880679E-3  
 2.022800000000000E10   -3.788756103151375E-3  -4.055369360786346E-3  
 2.023000000000000E10   -4.598973543141728E-3  -3.475048872469753E-3  
 2.023200000000000E10   -5.358310347353972E-3  -2.600021815548341E-3  
 2.023400000000000E10   -5.892230749682145E-3  -1.467346787211244E-3  
 2.023600000000000E10   -6.065247028514192E-3  -1.730667631986931E-4  
 2.023800000000000E10   -5.860934068483336E-3   1.117805829616609E-3  
 2.024000000000000E10   -5.308225957883730E-3   2.267619681165174E-3  
 2.024200000000000E10   -4.464015123192912E-3   3.122980499433147E-3  
 2.024400000000000E10   -3.541070493628030E-3   3.606379601276584E-3  
 2.024600000000000E10   -2.752188955330187E-3   3.800165701519561E-3  
 2.024800000000000E10   -2.134429006319908E-3   3.876019398578340E-3  
 2.025000000000000E10   -1.645914403963145E-3   3.960036810625484E-3  
 2.025200000000000E10   -1.236187069918271E-3   4.152457385013501E-3  
 2.025400000000000E10   -6.967656706735768E-4   4.395312974574390E-3  
 2.025600000000000E10   -4.142140488949265E-5   4.632580369986870E-3  
 2.025800000000000E10    8.174041092085342E-4   4.779080963797040E-3  
 2.026000000000000E10    1.827649789413921E-3   4.602197971608904E-3  
 2.026200000000000E10    2.696281454215447E-3   4.067373625865138E-3  
 2.026400000000000E10    3.271811374428648E-3   3.409051146634199E-3  
 2.026600000000000E10    3.714921366837290E-3   2.837023439092769E-3  
 2.026800000000000E10    4.213860517160760E-3   2.218118825651430E-3  
 2.027000000000000E10    4.669190384447575E-3   1.400388764320976E-3  
 2.027200000000000E10    4.895730599485062E-3   3.394340035609073E-4  
 2.027400000000000E10    4.718817287573109E-3  -7.671716739423573E-4  
 2.027600000000000E10    4.210979746723617E-3  -1.676183456934437E-3  
 2.027800000000000E10    3.526979841774813E-3  -2.253341479916816E-3  
 2.028000000000000E10    2.940619157420265E-3  -2.564259951382324E-3  
 2.028200000000000E10    2.445112111874753E-3  -2.780529023665521E-3  
 2.028400000000000E10    2.056604156408597E-3  -2.957951536195147E-3  
 2.028600000000000E10    1.701371515756128E-3  -3.237395012682235E-3  
 2.028800000000000E10    1.183704667103787E-3  -3.563764358491258E-3  
 2.029000000000000E10    5.426857150504711E-4  -3.749533125233871E-3  
 2.029200000000000E10   -1.509729403618689E-4  -3.835280589690363E-3  
 2.029400000000000E10   -9.362614752414327E-4  -3.716384103797652E-3  
 2.029600000000000E10   -1.629425484376649E-3  -3.336211174933448E-3  
 2.029800000000000E10   -2.134476590004784E-3  -2.830905063698689E-3  
 2.030000000000000E10   -2.472016425734317E-3  -2.293480008288666E-3  
 2.030200000000000E10   -2.618920144245581E-3  -1.717098449632802E-3  
 2.030400000000000E10   -2.560201049264935E-3  -1.311679206857527E-3  
 2.030600000000000E10   -2.576878147751645E-3  -1.185908741145223E-3  
 2.030800000000000E10   -2.911980738173481E-3  -1.023016576827676E-3  
 2.031000000000000E10   -3.301947877776844E-3  -5.696668112822982E-4  
 2.031200000000000E10   -3.552186596034854E-3   1.237921764927537E-4  
 2.031400000000000E10   -3.549694963213471E-3   9.220683563466150E-4  
 2.031600000000000E10   -3.335703095352209E-3   1.702167856920925E-3  
 2.031800000000000E10   -2.828251880904039E-3   2.424405698009112E-3  
 2.032000000000000E10   -2.126332881205060E-3   2.938637544435484E-3  
 2.032200000000000E10   -1.350946806336719E-3   3.168320274670368E-3  
 2.032400000000000E10   -6.388190430933955E-4   3.119019024005091E-3  
 2.032600000000000E10   -1.454958452355910E-4   2.951350261422772E-3  
 2.032800000000000E10    2.557653683147187E-4   2.814016580857613E-3  
 2.033000000000000E10    6.457562288873038E-4   2.693967221097814E-3  
 2.033200000000000E10    1.073940053444218E-3   2.525612160011574E-3  
 2.033400000000000E10    1.434547360986471E-3   2.217032386127998E-3  
 2.033600000000000E10    1.471744509655293E-3   2.019476792257694E-3  
 2.033800000000000E10    1.785068595954390E-3   1.591494380220495E-3  
 2.034000000000000E10    1.925677509495506E-3   1.412177738664603E-3  
 2.034200000000000E10    2.168559236451984E-3   1.247256407859149E-3  
 2.034400000000000E10    2.500956369287990E-3   9.520673236154297E-4  
 2.034600000000000E10    2.762351098849818E-3   5.208452930673957E-4  
 2.034800000000000E10    2.954058901027397E-3  -2.615527989325565E-5  
 2.035000000000000E10    3.052432693679024E-3  -6.910200312699158E-4  
 2.035200000000000E10    2.894607251854959E-3  -1.494067414939680E-3  
 2.035400000000000E10    2.341991687124526E-3  -2.237142684559028E-3  
 2.035600000000000E10    1.534721749420795E-3  -2.622883749642858E-3  
 2.035800000000000E10    7.765590885861053E-4  -2.611594481600656E-3  
 2.036000000000000E10    2.067838073276949E-4  -2.361793252122072E-3  
 2.036200000000000E10   -7.846238872001845E-5  -2.038320793804747E-3  
 2.036400000000000E10   -1.563179690425319E-4  -1.825353932670421E-3  
 2.036600000000000E10   -1.687063782743213E-4  -1.747548506871142E-3  
 2.036800000000000E10   -1.895567515425177E-4  -1.874922184032147E-3  
 2.037000000000000E10   -4.431167703673796E-4  -2.170046515486859E-3  
 2.037200000000000E10   -1.016536326561537E-3  -2.308102729902776E-3  
 2.037400000000000E10   -1.665718120488304E-3  -2.092495672749701E-3  
 2.037600000000000E10   -2.132385184436485E-3  -1.643125821525852E-3  
 2.037800000000000E10   -2.402174881555968E-3  -1.131817814894021E-3  
 2.038000000000000E10   -2.558642963844318E-3  -6.032142210406838E-4  
 2.038200000000000E10   -2.554327525474407E-3  -8.268785946980913E-5  
 2.038400000000000E10   -2.417206022612475E-3   3.442313593243146E-4  
 2.038600000000000E10   -2.278630716588210E-3   7.033920027660551E-4  
 2.038800000000000E10   -2.128470809785305E-3   9.982475010609187E-4  
 2.039000000000000E10   -2.037609918732886E-3   1.280275578783066E-3  
 2.039200000000000E10   -1.926284869787870E-3   1.715513765466986E-3  
 2.039400000000000E10   -1.594838720780832E-3   2.236551717268648E-3  
 2.039600000000000E10   -9.800786178352106E-4   2.647866814017848E-3  
 2.039800000000000E10   -1.741386804496870E-4   2.715094101235823E-3  
 2.040000000000000E10    4.512521425365575E-4   2.391088340017531E-3  
 2.040200000000000E10    7.003753885833754E-4   1.957951173945158E-3  
 2.040400000000000E10    7.577082271584207E-4   1.704119788310319E-3  
 2.040600000000000E10    8.170738669664220E-4   1.623281044885517E-3  
 2.040800000000000E10    9.398359969189323E-4   1.638032504598852E-3  
 2.041000000000000E10    1.235606687798820E-3   1.621278822077094E-3  
 2.041200000000000E10    1.573876999491067E-3   1.428406720084173E-3  
 2.041400000000000E10    1.811283450849631E-3   1.166892617389008E-3  
 2.041600000000000E10    1.997586865736931E-3   8.843593747803461E-4  
 2.041800000000000E10    2.172975335270166E-3   5.509784850464376E-4  
 2.042000000000000E10    2.302360462231769E-3   1.943306934090625E-4  
 2.042200000000000E10    2.362784067237819E-3  -2.075686109795546E-4  
 2.042400000000000E10    2.322599007230666E-3  -6.781663482629315E-4  
 2.042600000000000E10    2.165477369325581E-3  -1.061353491860683E-3  
 2.042800000000000E10    2.063426779824551E-3  -1.400390424317232E-3  
 2.043000000000000E10    1.890625058742310E-3  -1.932182181109157E-3  
 2.043200000000000E10    1.353672809071011E-3  -2.470965514442435E-3  
 2.043400000000000E10    5.843074500767721E-4  -2.674067358451862E-3  
 2.043600000000000E10   -1.381694205351610E-4  -2.493096894964024E-3  
 2.043800000000000E10   -5.786134063749126E-4  -2.104166326009565E-3  
 2.044000000000000E10   -7.807916845194997E-4  -1.727036851527239E-3  
 2.044200000000000E10   -8.436988185470305E-4  -1.409369719180244E-3  
 2.044400000000000E10   -7.915096077205685E-4  -1.194434796666934E-3  
 2.044600000000000E10   -6.949750499592888E-4  -1.176598184328113E-3  
 2.044800000000000E10   -7.417422667559651E-4  -1.305598144729932E-3  
 2.045000000000000E10   -1.004180780404972E-3  -1.418860146292934E-3  
 2.045200000000000E10   -1.394721476740584E-3  -1.371308195370215E-3  
 2.045400000000000E10   -1.800319563631934E-3  -1.084066375538155E-3  
 2.045600000000000E10   -1.990569246656917E-3  -5.560751790956905E-4  
 2.045800000000000E10   -1.855817735540095E-3  -1.415703531232861E-4  
 2.046000000000000E10   -1.697301273924058E-3   3.037770646322430E-6  
 2.046200000000000E10   -1.670434105175513E-3   6.654695513403836E-5  
 2.046400000000000E10   -1.820332413815238E-3   1.741801771223200E-4  
 2.046600000000000E10   -2.000055538869843E-3   5.052392608141182E-4  
 2.046800000000000E10   -2.002786957072439E-3   1.011126484997847E-3  
 2.047000000000000E10   -1.747340201055287E-3   1.517329321898244E-3  
 2.047200000000000E10   -1.303118882114413E-3   1.828694263369673E-3  
 2.047400000000000E10   -8.558804380569471E-4   1.919714242426886E-3  
 2.047600000000000E10   -4.856422450824607E-4   1.933925315151336E-3  
 2.047800000000000E10   -1.422575140302932E-4   1.843451319641813E-3  
 2.048000000000000E10    6.995513508122209E-5   1.649525331298786E-3  
 2.048200000000000E10    7.196168112218235E-5   1.518054990339335E-3  
 2.048400000000000E10    9.688473127661621E-5   1.631094690377790E-3  
 2.048600000000000E10    3.349807962809724E-4   1.743979907284181E-3  
 2.048800000000000E10    5.978935773277449E-4   1.721409071857731E-3  
 2.049000000000000E10    8.262900432951198E-4   1.687632541655115E-3  
 2.049200000000000E10    1.098946827739753E-3   1.613151195838496E-3  
 2.049400000000000E10    1.331866080700248E-3   1.447728352138290E-3  
 2.049600000000000E10    1.498857288862820E-3   1.316883937559194E-3  
 2.049800000000000E10    1.735903176099614E-3   1.198039817002913E-3  
 2.050000000000000E10    1.993659521556563E-3   1.022720726689807E-3  
 2.050200000000000E10    2.289847367339664E-3   8.277732585729274E-4  
 2.050400000000000E10    2.670039793614436E-3   4.634893632976822E-4  
 2.050600000000000E10    2.948712833501675E-3  -2.025677574608751E-4  
 2.050800000000000E10    2.860512748291647E-3  -9.664321680449778E-4  
 2.051000000000000E10    2.509904663181968E-3  -1.538206021197968E-3  
 2.051200000000000E10    2.083114494949028E-3  -1.934818707889429E-3  
 2.051400000000000E10    1.596015076049500E-3  -2.219335357141164E-3  
 2.051600000000000E10    1.075476722757298E-3  -2.275361860584882E-3  
 2.051800000000000E10    7.419228484785116E-4  -2.164277541278689E-3  
 2.052000000000000E10    6.038266540229045E-4  -2.114308243444949E-3  
 2.052200000000000E10    5.521539844469065E-4  -2.173087154342621E-3  
 2.052400000000000E10    4.676398001871955E-4  -2.464921748334611E-3  
 2.052600000000000E10    4.312464443501081E-5  -2.883146223784597E-3  
 2.052800000000000E10   -6.451389193966020E-4  -3.025934315734992E-3  
 2.053000000000000E10   -1.276533067640331E-3  -2.878962955610068E-3  
 2.053200000000000E10   -1.834485679864884E-3  -2.614005736109835E-3  
 2.053400000000000E10   -2.281763470145288E-3  -2.213095745968599E-3  
 2.053600000000000E10   -2.587104397308496E-3  -1.743571931944677E-3  
 2.053800000000000E10   -2.773486051915421E-3  -1.307762292627659E-3  
 2.054000000000000E10   -2.919520415296709E-3  -9.823537440280673E-4  
 2.054200000000000E10   -3.214996221854731E-3  -6.266138020523445E-4  
 2.054400000000000E10   -3.478262495870392E-3   3.344160898079822E-5  
 2.054600000000000E10   -3.468275052943716E-3   7.988608537103845E-4  
 2.054800000000000E10   -3.215530921739561E-3   1.527161402110425E-3  
 2.055000000000000E10   -2.742474734852160E-3   2.122267994477793E-3  
 2.055200000000000E10   -2.130774453420330E-3   2.469452805127259E-3  
 2.055400000000000E10   -1.573483916689401E-3   2.532819648169809E-3  
 2.055600000000000E10   -1.231227742715015E-3   2.479295194562939E-3  
