#  HZ   S   RI   R     50.00 
! Rohde & Schwarz ZVA40 4Ports - Version 3.90 - 1145.1110k42 SN: 100403
! Date: 2023-10-03 10:35:44
! Measurement: S12 
! 
 2.000000000000000E10   -4.783192799314512E-4  -3.657780199622115E-3  
 2.000200000000000E10   -1.238945431800352E-3  -3.438672257794275E-3  
 2.000400000000000E10   -1.972657986226733E-3  -2.925825701957500E-3  
 2.000600000000000E10   -2.339050613550677E-3  -2.162156540348574E-3  
 2.000800000000000E10   -2.260400137553613E-3  -1.539145760169184E-3  
 2.001000000000000E10   -2.069320684919755E-3  -1.360235916864541E-3  
 2.001200000000000E10   -2.246342728742295E-3  -1.417720332500284E-3  
 2.001400000000000E10   -2.725811321633282E-3  -1.240437652018887E-3  
 2.001600000000000E10   -3.156833988786848E-3  -7.104970001684572E-4  
 2.001800000000000E10   -3.391490714555538E-3  -3.198127443384790E-5  
 2.002000000000000E10   -3.409061960324093E-3   7.737536367063446E-4  
 2.002200000000000E10   -3.075921088802042E-3   1.600411953404546E-3  
 2.002400000000000E10   -2.503621848989968E-3   2.152274535210045E-3  
 2.002600000000000E10   -1.911263029022073E-3   2.381595610468476E-3  
 2.002800000000000E10   -1.512433902394993E-3   2.412501800184449E-3  
 2.003000000000000E10   -1.329999503300146E-3   2.549704517824231E-3  
 2.003200000000000E10   -1.041057043174213E-3   2.933010683153515E-3  
 2.003400000000000E10   -4.579154267924390E-4   3.262185767568924E-3  
 2.003600000000000E10    2.606127139491340E-4   3.341335751530197E-3  
 2.003800000000000E10    9.215586836001389E-4   3.196715127193818E-3  
 2.004000000000000E10    1.476518370004164E-3   2.976256948723286E-3  
 2.004200000000000E10    2.043825755309728E-3   2.673509409996095E-3  
 2.004400000000000E10    2.531863317859394E-3   2.216735225239838E-3  
 2.004600000000000E10    2.877730341559207E-3   1.636433647945524E-3  
 2.004800000000000E10    3.021266837431877E-3   1.011538371029828E-3  
 2.005000000000000E10    2.997286324561746E-3   4.980424613070985E-4  
 2.005200000000000E10    2.965468732226227E-3   1.080370345368498E-4  
 2.005400000000000E10    3.034486797534757E-3  -2.224694223884769E-4  
 2.005600000000000E10    3.149901068320981E-3  -7.739465627646835E-4  
 2.005800000000000E10    2.999822083101781E-3  -1.442953995946381E-3  
 2.006000000000000E10    2.662048588886305E-3  -1.987787429243326E-3  
 2.006200000000000E10    2.264066685543016E-3  -2.446941902033157E-3  
 2.006400000000000E10    1.745265369579472E-3  -2.783553338506156E-3  
 2.006600000000000E10    1.192623563973164E-3  -2.914567202053689E-3  
 2.006800000000000E10    8.496043824211316E-4  -2.955599834590599E-3  
 2.007000000000000E10    5.448132729657960E-4  -3.181431683953162E-3  
 2.007200000000000E10    2.183561494988406E-5  -3.426550490850652E-3  
 2.007400000000000E10   -6.192329617786326E-4  -3.541508344588457E-3  
 2.007600000000000E10   -1.374044369354292E-3  -3.520813184203926E-3  
 2.007800000000000E10   -2.156200913574409E-3  -3.204560855886451E-3  
 2.008000000000000E10   -2.772343871011227E-3  -2.703215952755677E-3  
 2.008200000000000E10   -3.221509400410234E-3  -2.074998208425112E-3  
 2.008400000000000E10   -3.463746669391791E-3  -1.407699840557244E-3  
 2.008600000000000E10   -3.565953190748890E-3  -7.998840365972784E-4  
 2.008800000000000E10   -3.634302988993350E-3  -1.995850443900390E-4  
 2.009000000000000E10   -3.588624005378397E-3   3.886157172490602E-4  
 2.009200000000000E10   -3.467514722918471E-3   9.389880126238698E-4  
 2.009400000000000E10   -3.317224629292334E-3   1.496596442949441E-3  
 2.009600000000000E10   -3.072909502036594E-3   2.096154455405971E-3  
 2.009800000000000E10   -2.642746540476327E-3   2.677573063583286E-3  
 2.010000000000000E10   -2.049234169707806E-3   3.057226736995358E-3  
 2.010200000000000E10   -1.449645108853777E-3   3.223352461915326E-3  
 2.010400000000000E10   -9.724620182101652E-4   3.251871602885701E-3  
 2.010600000000000E10   -6.071993568049814E-4   3.287951367113878E-3  
 2.010800000000000E10   -2.576093118275619E-4   3.408119944786584E-3  
 2.011000000000000E10    1.527032287008802E-4   3.575373432357555E-3  
 2.011200000000000E10    7.159233274352221E-4   3.789720392820460E-3  
 2.011400000000000E10    1.518915911825995E-3   3.857712002678051E-3  
 2.011600000000000E10    2.424140797100134E-3   3.649219422152749E-3  
 2.011800000000000E10    3.273088950663806E-3   3.070722221983252E-3  
 2.012000000000000E10    3.785231435257528E-3   2.248408833380651E-3  
 2.012200000000000E10    4.022173824961540E-3   1.472717823667659E-3  
 2.012400000000000E10    4.134169658990923E-3   7.416769642279381E-4  
 2.012600000000000E10    4.127781898542135E-3   2.799812527545895E-5  
 2.012800000000000E10    3.997872083413381E-3  -6.501085213299290E-4  
 2.013000000000000E10    3.740412847104449E-3  -1.242090383096150E-3  
 2.013200000000000E10    3.497082464121007E-3  -1.684645328808714E-3  
 2.013400000000000E10    3.310247643471317E-3  -2.219112999564796E-3  
 2.013600000000000E10    2.941334671858285E-3  -2.837741109370082E-3  
 2.013800000000000E10    2.366822678595781E-3  -3.279287195592015E-3  
 2.014000000000000E10    1.767751812520955E-3  -3.528266394924787E-3  
 2.014200000000000E10    1.269730816905697E-3  -3.651321468943800E-3  
 2.014400000000000E10    8.743260124767269E-4  -3.788222386329263E-3  
 2.014600000000000E10    4.385482386203000E-4  -4.036844199247383E-3  
 2.014800000000000E10   -1.624336792802853E-4  -4.303053124911256E-3  
 2.015000000000000E10   -9.709924030445380E-4  -4.470353894349602E-3  
 2.015200000000000E10   -1.923712975069605E-3  -4.420641913182206E-3  
 2.015400000000000E10   -2.944621955975891E-3  -4.071555359082090E-3  
 2.015600000000000E10   -3.835826732770161E-3  -3.316322772729177E-3  
 2.015800000000000E10   -4.343133592219265E-3  -2.345812653570816E-3  
 2.016000000000000E10   -4.513683194225586E-3  -1.409299982090791E-3  
 2.016200000000000E10   -4.476280193086025E-3  -6.300157358593963E-4  
 2.016400000000000E10   -4.375102050188515E-3   2.012490872234431E-5  
 2.016600000000000E10   -4.266827177532294E-3   5.737158585193189E-4  
 2.016800000000000E10   -4.180279353426563E-3   1.169680149932565E-3  
 2.017000000000000E10   -3.995523305126915E-3   1.825597076849254E-3  
 2.017200000000000E10   -3.675950328922935E-3   2.490154993547886E-3  
 2.017400000000000E10   -3.229055467441126E-3   3.004559401974635E-3  
 2.017600000000000E10   -2.849561541720673E-3   3.405944194161782E-3  
 2.017800000000000E10   -2.424293327041798E-3   3.983571176865587E-3  
 2.018000000000000E10   -1.731188002007979E-3   4.504173735363617E-3  
 2.018200000000000E10   -8.980671894581369E-4   4.828835337388295E-3  
 2.018400000000000E10    1.426131664764537E-5   4.990377308179935E-3  
 2.018600000000000E10    9.236944455618938E-4   4.931617804147579E-3  
 2.018800000000000E10    1.847494311665220E-3   4.669306765275974E-3  
 2.019000000000000E10    2.680266336365431E-3   4.190857987850905E-3  
 2.019200000000000E10    3.302791638782731E-3   3.562106975112801E-3  
 2.019400000000000E10    3.718931788440656E-3   2.955742007880300E-3  
 2.019600000000000E10    4.177288962873045E-3   2.383068885171303E-3  
 2.019800000000000E10    4.581778482706459E-3   1.599320714982847E-3  
 2.020000000000000E10    4.700017454861491E-3   6.968943785910530E-4  
 2.020200000000000E10    4.559573027546760E-3  -5.276597490861881E-5  
 2.020400000000000E10    4.449218390854421E-3  -5.849164714433116E-4  
 2.020600000000000E10    4.446376701471983E-3  -1.169420821868159E-3  
 2.020800000000000E10    4.398972623878056E-3  -1.919619519160026E-3  
 2.021000000000000E10    4.137645889487532E-3  -2.858032075757230E-3  
 2.021200000000000E10    3.483498055073950E-3  -3.723220641000404E-3  
 2.021400000000000E10    2.615915016374655E-3  -4.292485683604524E-3  
 2.021600000000000E10    1.683484935374172E-3  -4.601785999343352E-3  
 2.021800000000000E10    7.898050006823960E-4  -4.647504745258226E-3  
 2.022000000000000E10    3.992111413498163E-5  -4.495938136069863E-3  
 2.022200000000000E10   -5.305479577078520E-4  -4.320483206322900E-3  
 2.022400000000000E10   -1.045932424151236E-3  -4.240592889901665E-3  
 2.022600000000000E10   -1.694489818031865E-3  -4.128969602148843E-3  
 2.022800000000000E10   -2.394312509783993E-3  -3.881670258663319E-3  
 2.023000000000000E10   -3.111193586071885E-3  -3.530362983130747E-3  
 2.023200000000000E10   -3.819600661733637E-3  -2.937222572250499E-3  
 2.023400000000000E10   -4.377306766670060E-3  -2.128268755903399E-3  
 2.023600000000000E10   -4.700620503475269E-3  -1.202843716816494E-3  
 2.023800000000000E10   -4.785092219848325E-3  -2.212147293094959E-4  
 2.024000000000000E10   -4.619328253385094E-3   7.743108424754745E-4  
 2.024200000000000E10   -4.169459765156111E-3   1.617079311809330E-3  
 2.024400000000000E10   -3.541154726580890E-3   2.196929003629420E-3  
 2.024600000000000E10   -2.941902011150012E-3   2.555667172634492E-3  
 2.024800000000000E10   -2.422113695906268E-3   2.752296255763482E-3  
 2.025000000000000E10   -2.008276267184152E-3   2.882264925304939E-3  
 2.025200000000000E10   -1.695776375493518E-3   3.038332504392774E-3  
 2.025400000000000E10   -1.378584055971630E-3   3.273406661012107E-3  
 2.025600000000000E10   -9.727417189558900E-4   3.594585435671940E-3  
 2.025800000000000E10   -3.426945488037611E-4   3.909601036597182E-3  
 2.026000000000000E10    4.586192126562648E-4   3.983206977998770E-3  
 2.026200000000000E10    1.210950194271627E-3   3.768073438011386E-3  
 2.026400000000000E10    1.784662992038109E-3   3.455864800209249E-3  
 2.026600000000000E10    2.353460027801770E-3   3.176275011221016E-3  
 2.026800000000000E10    3.009278163382853E-3   2.738579848988189E-3  
 2.027000000000000E10    3.553220898740822E-3   2.037242123926128E-3  
 2.027200000000000E10    3.839505301719463E-3   1.175860555290624E-3  
 2.027400000000000E10    3.822965547442437E-3   3.145074545129857E-4  
 2.027600000000000E10    3.579860320314765E-3  -4.249704151233245E-4  
 2.027800000000000E10    3.211071249097587E-3  -9.231024154427428E-4  
 2.028000000000000E10    2.904988420023411E-3  -1.270327475611811E-3  
 2.028200000000000E10    2.633217204776076E-3  -1.583815164243182E-3  
 2.028400000000000E10    2.404173068633234E-3  -1.865474222641852E-3  
 2.028600000000000E10    2.200223238172907E-3  -2.260159813212576E-3  
 2.028800000000000E10    1.789162724485828E-3  -2.703065432056233E-3  
 2.029000000000000E10    1.246381035781707E-3  -3.009810086546673E-3  
 2.029200000000000E10    6.103681193457710E-4  -3.212834096134262E-3  
 2.029400000000000E10   -9.982671315777193E-5  -3.165630468477806E-3  
 2.029600000000000E10   -6.722844425692328E-4  -2.913322592913001E-3  
 2.029800000000000E10   -1.087832381017506E-3  -2.605681549067851E-3  
 2.030000000000000E10   -1.398899704562845E-3  -2.299367208723669E-3  
 2.030200000000000E10   -1.637988115867807E-3  -1.936949944744508E-3  
 2.030400000000000E10   -1.731308819553643E-3  -1.649450916038068E-3  
 2.030600000000000E10   -1.846992755653682E-3  -1.545993990644261E-3  
 2.030800000000000E10   -2.199290337523929E-3  -1.422247987378527E-3  
 2.031000000000000E10   -2.606697302932541E-3  -1.053602792564090E-3  
 2.031200000000000E10   -2.881593898766571E-3  -4.704926374230396E-4  
 2.031400000000000E10   -2.932448086708232E-3   2.079506946891478E-4  
 2.031600000000000E10   -2.803988616775584E-3   8.635258138248767E-4  
 2.031800000000000E10   -2.444329662938361E-3   1.439023961278576E-3  
 2.032000000000000E10   -1.947499220949357E-3   1.846934828251877E-3  
 2.032200000000000E10   -1.409842964710185E-3   2.060815157299793E-3  
 2.032400000000000E10   -9.191983543267406E-4   2.079692307031817E-3  
 2.032600000000000E10   -5.794411288796390E-4   2.010326409988382E-3  
 2.032800000000000E10   -2.997844287030468E-4   1.988493841727851E-3  
 2.033000000000000E10   -1.260959524424159E-5   1.947052397385792E-3  
 2.033200000000000E10    2.838468372593290E-4   1.846991250877856E-3  
 2.033400000000000E10    5.191024802452713E-4   1.684061958696004E-3  
 2.033600000000000E10    4.880084746185242E-4   1.582200099990048E-3  
 2.033800000000000E10    7.284272492311345E-4   1.488643788939549E-3  
 2.034000000000000E10    9.205754397919885E-4   1.517500517096509E-3  
 2.034200000000000E10    1.264696751065828E-3   1.509100884302623E-3  
 2.034400000000000E10    1.694195080307071E-3   1.300299954083231E-3  
 2.034600000000000E10    2.035132639489516E-3   8.943555833495878E-4  
 2.034800000000000E10    2.200002342255579E-3   3.945131417519103E-4  
 2.035000000000000E10    2.245791170194193E-3  -1.122582974925603E-4  
 2.035200000000000E10    2.145526296873060E-3  -6.943975652878485E-4  
 2.035400000000000E10    1.758205807871289E-3  -1.212948601244501E-3  
 2.035600000000000E10    1.224676785231741E-3  -1.447773585958338E-3  
 2.035800000000000E10    7.547830636785539E-4  -1.413085782486532E-3  
 2.036000000000000E10    4.768893265497388E-4  -1.242959246694766E-3  
 2.036200000000000E10    4.122332428340559E-4  -1.077602889078359E-3  
 2.036400000000000E10    4.492943429526080E-4  -1.067210743376227E-3  
 2.036600000000000E10    4.505692200769705E-4  -1.180056952526448E-3  
 2.036800000000000E10    4.117844035607521E-4  -1.388564766212194E-3  
 2.037000000000000E10    1.688357469565407E-4  -1.707636781416282E-3  
 2.037200000000000E10   -3.593787447513293E-4  -1.870438486717090E-3  
 2.037400000000000E10   -9.068014613283730E-4  -1.715315070382699E-3  
 2.037600000000000E10   -1.266029124424138E-3  -1.357600640471059E-3  
 2.037800000000000E10   -1.456042570579383E-3  -9.967394742286869E-4  
 2.038000000000000E10   -1.572848763316870E-3  -6.498047366255412E-4  
 2.038200000000000E10   -1.553553678267808E-3  -2.774274444500743E-4  
 2.038400000000000E10   -1.464261854481366E-3  -2.389791512137484E-5  
 2.038600000000000E10   -1.379618869611511E-3   1.642535678540838E-4  
 2.038800000000000E10   -1.277873801343419E-3   2.840606424864813E-4  
 2.039000000000000E10   -1.286700178213694E-3   3.753914737629843E-4  
 2.039200000000000E10   -1.378690457419941E-3   5.884995733611976E-4  
 2.039400000000000E10   -1.335333631787863E-3   9.592373131050005E-4  
 2.039600000000000E10   -1.053061215551915E-3   1.324157411646512E-3  
 2.039800000000000E10   -6.146643254733473E-4   1.507788021289916E-3  
 2.040000000000000E10   -2.364979763687761E-4   1.403403494300114E-3  
 2.040200000000000E10   -7.203123446002049E-5   1.260212872660271E-3  
 2.040400000000000E10    1.615487417439001E-5   1.232996535556460E-3  
 2.040600000000000E10    1.230807970892380E-4   1.236974386739786E-3  
 2.040800000000000E10    2.820026043250606E-4   1.262380823458511E-3  
 2.041000000000000E10    5.303127551020159E-4   1.257570969216802E-3  
 2.041200000000000E10    7.160436415924106E-4   1.125293818336946E-3  
 2.041400000000000E10    8.277531683065551E-4   1.016413568760510E-3  
 2.041600000000000E10    9.868924324918126E-4   9.336539552788493E-4  
 2.041800000000000E10    1.149560242925805E-3   8.192378617995592E-4  
 2.042000000000000E10    1.311553159245739E-3   6.564842424941836E-4  
 2.042200000000000E10    1.478551874040730E-3   4.280715689270033E-4  
 2.042400000000000E10    1.569089488367792E-3   1.674968311649368E-4  
 2.042600000000000E10    1.610213481062265E-3  -6.045158510527544E-5  
 2.042800000000000E10    1.731341109714575E-3  -3.550651551146682E-4  
 2.043000000000000E10    1.774705316940392E-3  -8.694224309659116E-4  
 2.043200000000000E10    1.422282407508680E-3  -1.405628467047656E-3  
 2.043400000000000E10    8.302614981032633E-4  -1.637317317848404E-3  
 2.043600000000000E10    3.336280868906114E-4  -1.492876835443356E-3  
 2.043800000000000E10    1.209352831884408E-4  -1.224581658822933E-3  
 2.044000000000000E10    5.657179523647450E-5  -1.071603227130793E-3  
 2.044200000000000E10    3.707965758318699E-5  -9.541519533808310E-4  
 2.044400000000000E10    1.174565641795871E-4  -8.731009891360172E-4  
 2.044600000000000E10    2.472539652242429E-4  -9.895943760595942E-4  
 2.044800000000000E10    2.336989812276981E-4  -1.308321426795037E-3  
 2.045000000000000E10   -2.090080589469940E-5  -1.627225778065622E-3  
 2.045200000000000E10   -4.802624219640469E-4  -1.774120562778855E-3  
 2.045400000000000E10   -1.002744439540914E-3  -1.675574471139246E-3  
 2.045600000000000E10   -1.356322400237399E-3  -1.329724388024598E-3  
 2.045800000000000E10   -1.457721124299699E-3  -9.726287529769320E-4  
 2.046000000000000E10   -1.470282630718969E-3  -7.718200418080584E-4  
 2.046200000000000E10   -1.544517374390530E-3  -6.866168847342057E-4  
 2.046400000000000E10   -1.778109969260792E-3  -5.526078425140845E-4  
 2.046600000000000E10   -2.059789633171426E-3  -2.302958072740929E-4  
 2.046800000000000E10   -2.203175065073151E-3   2.778338223126614E-4  
 2.047000000000000E10   -2.051523990101285E-3   8.315390635592242E-4  
 2.047200000000000E10   -1.721903992195924E-3   1.167316938302031E-3  
 2.047400000000000E10   -1.467067265400180E-3   1.323105400876591E-3  
 2.047600000000000E10   -1.237524919108384E-3   1.510081002143798E-3  
 2.047800000000000E10   -9.238848262477272E-4   1.623154385015369E-3  
 2.048000000000000E10   -6.836687723450639E-4   1.588163647317776E-3  
 2.048200000000000E10   -6.223703794940203E-4   1.567127105469505E-3  
 2.048400000000000E10   -5.778531712065969E-4   1.789298171556934E-3  
 2.048600000000000E10   -2.918024795319609E-4   2.049119841238415E-3  
 2.048800000000000E10    9.929001397621407E-5   2.149199247705164E-3  
 2.049000000000000E10    4.666350184750088E-4   2.128974051663170E-3  
 2.049200000000000E10    7.892945539896136E-4   2.056793671929174E-3  
 2.049400000000000E10    1.066159788967559E-3   1.956537115836033E-3  
 2.049600000000000E10    1.336599359530266E-3   1.897909669895415E-3  
 2.049800000000000E10    1.715889968046988E-3   1.811900848729743E-3  
 2.050000000000000E10    2.127244206214393E-3   1.570666877173439E-3  
 2.050200000000000E10    2.519637156553843E-3   1.232237123918754E-3  
 2.050400000000000E10    2.900902026643356E-3   7.480185810924957E-4  
 2.050600000000000E10    3.109410672483070E-3   4.084002608174661E-5  
 2.050800000000000E10    2.964736281514720E-3  -6.925670486116024E-4  
 2.051000000000000E10    2.647288436828941E-3  -1.191331444446136E-3  
 2.051200000000000E10    2.333777732457276E-3  -1.569783612568345E-3  
 2.051400000000000E10    1.970583900671315E-3  -1.886399768948279E-3  
 2.051600000000000E10    1.579240563808492E-3  -2.049090573564172E-3  
 2.051800000000000E10    1.291300821187044E-3  -2.091202755562134E-3  
 2.052000000000000E10    1.120259670575184E-3  -2.177253658710807E-3  
 2.052200000000000E10    9.923627798411030E-4  -2.371766371652484E-3  
 2.052400000000000E10    7.916881047465183E-4  -2.720411530592375E-3  
 2.052600000000000E10    2.870365214120183E-4  -3.119172286932116E-3  
 2.052800000000000E10   -4.359180855788981E-4  -3.239699863587266E-3  
 2.053000000000000E10   -1.095401317191621E-3  -3.090854975636360E-3  
 2.053200000000000E10   -1.677646353426907E-3  -2.819484073875679E-3  
 2.053400000000000E10   -2.132809746803509E-3  -2.440448764159724E-3  
 2.053600000000000E10   -2.458027805443163E-3  -2.040781546384096E-3  
 2.053800000000000E10   -2.707508030451007E-3  -1.613977365195751E-3  
 2.054000000000000E10   -2.911580605777326E-3  -1.254336278954590E-3  
 2.054200000000000E10   -3.233162108463823E-3  -8.898443775251508E-4  
 2.054400000000000E10   -3.502434714593822E-3  -2.281022693582431E-4  
 2.054600000000000E10   -3.485083821471091E-3   5.086788743803348E-4  
 2.054800000000000E10   -3.285497970258197E-3   1.200141915534106E-3  
 2.055000000000000E10   -2.882844561503993E-3   1.792799379607594E-3  
 2.055200000000000E10   -2.385167706826771E-3   2.170426115669586E-3  
 2.055400000000000E10   -1.935103546000190E-3   2.310069933257722E-3  
 2.055600000000000E10   -1.641159644350410E-3   2.386559085506532E-3  
