#  HZ   S   RI   R     50.00 
! Rohde & Schwarz ZVA40 4Ports - Version 3.90 - 1145.1110k42 SN: 100403
! Date: 2023-10-03 10:37:21
! Measurement: S12 
! 
 2.000000000000000E10    4.136917131941548E-4  -2.790512155020511E-3  
 2.000200000000000E10   -1.369243788064391E-4  -2.666991089326972E-3  
 2.000400000000000E10   -6.369471657089952E-4  -2.368665180954387E-3  
 2.000600000000000E10   -8.839220589947839E-4  -1.950067108588547E-3  
 2.000800000000000E10   -8.526504599965649E-4  -1.681163792406395E-3  
 2.001000000000000E10   -8.322219614221121E-4  -1.776975196324676E-3  
 2.001200000000000E10   -1.180697791460223E-3  -2.001974886534832E-3  
 2.001400000000000E10   -1.765888553816115E-3  -1.923534958252558E-3  
 2.001600000000000E10   -2.274267782087027E-3  -1.529025063864442E-3  
 2.001800000000000E10   -2.616406767708167E-3  -9.881381549957306E-4  
 2.002000000000000E10   -2.758534288082285E-3  -3.389334458627637E-4  
 2.002200000000000E10   -2.649955243928586E-3   3.077666307207825E-4  
 2.002400000000000E10   -2.401735270840980E-3   7.922046014518421E-4  
 2.002600000000000E10   -2.126694722211725E-3   1.103294366074814E-3  
 2.002800000000000E10   -1.970391801160644E-3   1.316331455578695E-3  
 2.003000000000000E10   -1.921523915701099E-3   1.667263561359775E-3  
 2.003200000000000E10   -1.706177094126578E-3   2.190285260661070E-3  
 2.003400000000000E10   -1.169725050940554E-3   2.650759847419159E-3  
 2.003600000000000E10   -4.619815263482004E-4   2.845020987379389E-3  
 2.003800000000000E10    2.016931982572683E-4   2.761579692358647E-3  
 2.004000000000000E10    7.271734121286213E-4   2.531353300980923E-3  
 2.004200000000000E10    1.167679033614053E-3   2.253694762733267E-3  
 2.004400000000000E10    1.531976797686929E-3   1.897696717909523E-3  
 2.004600000000000E10    1.784762897747232E-3   1.514169040793414E-3  
 2.004800000000000E10    1.928840905713088E-3   1.127408087000332E-3  
 2.005000000000000E10    1.967292464519168E-3   8.178394516892115E-4  
 2.005200000000000E10    2.006242940120054E-3   6.071563652633826E-4  
 2.005400000000000E10    2.131259509362556E-3   4.188154770236099E-4  
 2.005600000000000E10    2.335748557361119E-3   4.897156969732862E-5  
 2.005800000000000E10    2.322384997385396E-3  -4.633206439626105E-4  
 2.006000000000000E10    2.132941575602357E-3  -8.712355644504694E-4  
 2.006200000000000E10    1.948559554102315E-3  -1.209318303708911E-3  
 2.006400000000000E10    1.721225455454088E-3  -1.536103028685795E-3  
 2.006600000000000E10    1.438590216198474E-3  -1.818768192246207E-3  
 2.006800000000000E10    1.160451362857904E-3  -2.045612716233094E-3  
 2.007000000000000E10    8.609953652408975E-4  -2.280262300695792E-3  
 2.007200000000000E10    5.061981658049680E-4  -2.480647845212457E-3  
 2.007400000000000E10    5.671724717469336E-5  -2.652819910168445E-3  
 2.007600000000000E10   -5.072790398509260E-4  -2.711949126339154E-3  
 2.007800000000000E10   -1.100083662700940E-3  -2.535116540231389E-3  
 2.008000000000000E10   -1.572895433797949E-3  -2.202628521335610E-3  
 2.008200000000000E10   -1.919730526789379E-3  -1.809910544438163E-3  
 2.008400000000000E10   -2.169494983268847E-3  -1.427919908242771E-3  
 2.008600000000000E10   -2.389765962814506E-3  -1.047524047217083E-3  
 2.008800000000000E10   -2.557226534193242E-3  -6.070111034738202E-4  
 2.009000000000000E10   -2.602510823309046E-3  -1.812276682982636E-4  
 2.009200000000000E10   -2.622970761270707E-3   2.271832920837179E-4  
 2.009400000000000E10   -2.599634776476910E-3   6.951458036355762E-4  
 2.009600000000000E10   -2.433459743015309E-3   1.196608581754685E-3  
 2.009800000000000E10   -2.088515258366225E-3   1.636545644644765E-3  
 2.010000000000000E10   -1.623761998661730E-3   1.894238035878604E-3  
 2.010200000000000E10   -1.246061371331843E-3   1.974074429080093E-3  
 2.010400000000000E10   -1.000428690002001E-3   2.017189583135977E-3  
 2.010600000000000E10   -8.260794891027354E-4   2.124257749876239E-3  
 2.010800000000000E10   -6.326778341318792E-4   2.334179761680073E-3  
 2.011000000000000E10   -3.281314462450172E-4   2.562913684514351E-3  
 2.011200000000000E10    9.812574153768655E-5   2.763900704712114E-3  
 2.011400000000000E10    6.420867553426547E-4   2.857415268597894E-3  
 2.011600000000000E10    1.274903427899357E-3   2.788097937433278E-3  
 2.011800000000000E10    1.920372239222619E-3   2.438515137930246E-3  
 2.012000000000000E10    2.299710597034472E-3   1.876553332154171E-3  
 2.012200000000000E10    2.466565561589376E-3   1.388226602559901E-3  
 2.012400000000000E10    2.599584911235206E-3   9.917961382684775E-4  
 2.012600000000000E10    2.733128955153278E-3   6.022992114268649E-4  
 2.012800000000000E10    2.819668879331537E-3   1.501227921133381E-4  
 2.013000000000000E10    2.790611045395810E-3  -3.041068120997448E-4  
 2.013200000000000E10    2.704626058003831E-3  -7.063327821014668E-4  
 2.013400000000000E10    2.573060250319751E-3  -1.113599800563656E-3  
 2.013600000000000E10    2.323552137896166E-3  -1.502970539943770E-3  
 2.013800000000000E10    2.013266762769965E-3  -1.773276642810625E-3  
 2.014000000000000E10    1.740544967970429E-3  -1.935303116148441E-3  
 2.014200000000000E10    1.549674490960074E-3  -2.086576196273895E-3  
 2.014400000000000E10    1.446709095986875E-3  -2.356171969807399E-3  
 2.014600000000000E10    1.261898553293288E-3  -2.800813439833277E-3  
 2.014800000000000E10    8.085974508636999E-4  -3.280373235124510E-3  
 2.015000000000000E10    1.303916479954548E-4  -3.614664333407179E-3  
 2.015200000000000E10   -6.635984159952685E-4  -3.717987762884592E-3  
 2.015400000000000E10   -1.502689956198888E-3  -3.559344318381765E-3  
 2.015600000000000E10   -2.243458013613655E-3  -3.105840827435230E-3  
 2.015800000000000E10   -2.737155656543058E-3  -2.503270045285842E-3  
 2.016000000000000E10   -3.033526219136390E-3  -1.866874958969719E-3  
 2.016200000000000E10   -3.161514204264734E-3  -1.285058079952033E-3  
 2.016400000000000E10   -3.220483559102847E-3  -8.004522128280314E-4  
 2.016600000000000E10   -3.287881158447312E-3  -3.975281573241140E-4  
 2.016800000000000E10   -3.391599700312121E-3   7.464910018773288E-5  
 2.017000000000000E10   -3.381441509365183E-3   6.316597276855181E-4  
 2.017200000000000E10   -3.206433729857975E-3   1.149810079728809E-3  
 2.017400000000000E10   -2.959142602705676E-3   1.529091598877896E-3  
 2.017600000000000E10   -2.849425438049899E-3   1.838119717194687E-3  
 2.017800000000000E10   -2.751098438773910E-3   2.373922565253706E-3  
 2.018000000000000E10   -2.376695202569308E-3   2.957310530504579E-3  
 2.018200000000000E10   -1.873792787449044E-3   3.429596884029326E-3  
 2.018400000000000E10   -1.270900136692339E-3   3.840743407695732E-3  
 2.018600000000000E10   -5.314568525688638E-4   4.136740934990649E-3  
 2.018800000000000E10    3.119763079788010E-4   4.240900032117868E-3  
 2.019000000000000E10    1.125154694374424E-3   4.096739046358515E-3  
 2.019200000000000E10    1.870054008150762E-3   3.758567444012402E-3  
 2.019400000000000E10    2.442500701280728E-3   3.317679145933861E-3  
 2.019600000000000E10    2.939063347454451E-3   2.861863616827561E-3  
 2.019800000000000E10    3.377455658532222E-3   2.248266115410042E-3  
 2.020000000000000E10    3.598546655923891E-3   1.560382837204499E-3  
 2.020200000000000E10    3.644011876799656E-3   9.933623639632400E-4  
 2.020400000000000E10    3.731487567929525E-3   5.852812135195836E-4  
 2.020600000000000E10    3.946770169425853E-3   7.165320877869530E-5  
 2.020800000000000E10    4.103112819921309E-3  -6.105275133438208E-4  
 2.021000000000000E10    4.062041934610532E-3  -1.489137091562355E-3  
 2.021200000000000E10    3.633029962009107E-3  -2.306123987889586E-3  
 2.021400000000000E10    3.043720920349347E-3  -2.873663679580484E-3  
 2.021600000000000E10    2.407557957432347E-3  -3.243441727819616E-3  
 2.021800000000000E10    1.795472642706718E-3  -3.432318318420004E-3  
 2.022000000000000E10    1.280548492637280E-3  -3.554811023244147E-3  
 2.022200000000000E10    8.468467659684313E-4  -3.704652278445493E-3  
 2.022400000000000E10    3.309532200041164E-4  -3.946199502231942E-3  
 2.022600000000000E10   -3.903824770165836E-4  -4.117624592164219E-3  
 2.022800000000000E10   -1.192469421793826E-3  -4.068848348366677E-3  
 2.023000000000000E10   -2.002056412981568E-3  -3.788916583398127E-3  
 2.023200000000000E10   -2.687444243785588E-3  -3.304485502492334E-3  
 2.023400000000000E10   -3.217196511465357E-3  -2.709968346409756E-3  
 2.023600000000000E10   -3.613787747571405E-3  -2.031347938895580E-3  
 2.023800000000000E10   -3.867980330431739E-3  -1.264172553248666E-3  
 2.024000000000000E10   -3.918641726042815E-3  -4.629888772829200E-4  
 2.024200000000000E10   -3.734159549426384E-3   2.800915617515965E-4  
 2.024400000000000E10   -3.418442809297227E-3   8.314439881497125E-4  
 2.024600000000000E10   -3.124178700600007E-3   1.220447342021803E-3  
 2.024800000000000E10   -2.850016456227418E-3   1.546732252522826E-3  
 2.025000000000000E10   -2.610821160776328E-3   1.832589398646167E-3  
 2.025200000000000E10   -2.419766158996821E-3   2.159651797912152E-3  
 2.025400000000000E10   -2.165494773053985E-3   2.523793503315707E-3  
 2.025600000000000E10   -1.824135446159199E-3   2.964829243177529E-3  
 2.025800000000000E10   -1.254038846660688E-3   3.366057494970476E-3  
 2.026000000000000E10   -5.503395147060579E-4   3.575475173920187E-3  
 2.026200000000000E10    1.760828979554027E-4   3.563917457963539E-3  
 2.026400000000000E10    8.006192822371786E-4   3.405878104878590E-3  
 2.026600000000000E10    1.386896795101168E-3   3.180644360911553E-3  
 2.026800000000000E10    1.949952971376044E-3   2.812868293194429E-3  
 2.027000000000000E10    2.365617068685824E-3   2.326135517153365E-3  
 2.027200000000000E10    2.644825638539371E-3   1.785004839080333E-3  
 2.027400000000000E10    2.747061078708753E-3   1.220701621760194E-3  
 2.027600000000000E10    2.693462483916322E-3   7.511782630553808E-4  
 2.027800000000000E10    2.616749044970175E-3   4.645248427612392E-4  
 2.028000000000000E10    2.689837403374692E-3   2.295063945009402E-4  
 2.028200000000000E10    2.849010509468551E-3  -1.421654857240761E-4  
 2.028400000000000E10    2.942999426757412E-3  -6.715923350042580E-4  
 2.028600000000000E10    2.852710610984961E-3  -1.329142031035436E-3  
 2.028800000000000E10    2.476376810688234E-3  -1.983233559747666E-3  
 2.029000000000000E10    1.922024586319964E-3  -2.424662409750872E-3  
 2.029200000000000E10    1.280827490063409E-3  -2.678539151159035E-3  
 2.029400000000000E10    6.364176212177259E-4  -2.637199401435695E-3  
 2.029600000000000E10    1.847824430314121E-4  -2.433569228601090E-3  
 2.029800000000000E10   -7.502548853494304E-5  -2.256257706577870E-3  
 2.030000000000000E10   -3.180521748071359E-4  -2.168273766244280E-3  
 2.030200000000000E10   -5.717422267659188E-4  -2.063302096676890E-3  
 2.030400000000000E10   -7.507644357145959E-4  -1.983472879436267E-3  
 2.030600000000000E10   -1.006362158294859E-3  -2.015722042989985E-3  
 2.030800000000000E10   -1.476065231669131E-3  -1.962550716755700E-3  
 2.031000000000000E10   -1.972807918691686E-3  -1.652412189186669E-3  
 2.031200000000000E10   -2.312634568878562E-3  -1.121239085157333E-3  
 2.031400000000000E10   -2.392302877862267E-3  -5.084162494579188E-4  
 2.031600000000000E10   -2.272044072167777E-3   7.890811411893460E-6  
 2.031800000000000E10   -2.034577290249110E-3   3.826848734842455E-4  
 2.032000000000000E10   -1.800625834885996E-3   6.438373499480302E-4  
 2.032200000000000E10   -1.577462122555442E-3   8.317435301821413E-4  
 2.032400000000000E10   -1.355706423714192E-3   9.421514352220332E-4  
 2.032600000000000E10   -1.217529157704455E-3   1.036709867574255E-3  
 2.032800000000000E10   -1.067219383140034E-3   1.141068792311241E-3  
 2.033000000000000E10   -9.412402867166074E-4   1.204822962716237E-3  
 2.033200000000000E10   -8.410053745449374E-4   1.295029392932491E-3  
 2.033400000000000E10   -7.308913058726974E-4   1.403757607902967E-3  
 2.033600000000000E10   -7.638828337023160E-4   1.460927054276488E-3  
 2.033800000000000E10   -4.941652033327070E-4   1.758874325320931E-3  
 2.034000000000000E10   -1.624495398276148E-4   2.087484604905935E-3  
 2.034200000000000E10    4.452163196714560E-4   2.284087476854058E-3  
 2.034400000000000E10    1.151278215037814E-3   2.114027035086075E-3  
 2.034600000000000E10    1.657303990916234E-3   1.676110581170134E-3  
 2.034800000000000E10    1.961094503712242E-3   1.151977263341138E-3  
 2.035000000000000E10    2.106688731578715E-3   5.732895399423595E-4  
 2.035200000000000E10    2.014223819834036E-3  -5.586551602213279E-5  
 2.035400000000000E10    1.624623977023768E-3  -5.561945652540406E-4  
 2.035600000000000E10    1.085914103441789E-3  -6.918348635022789E-4  
 2.035800000000000E10    7.293725056538025E-4  -4.817458939132078E-4  
 2.036000000000000E10    7.128172022334667E-4  -2.161623181207725E-4  
 2.036200000000000E10    9.379262704122468E-4  -1.451332548944480E-4  
 2.036400000000000E10    1.163196003243144E-3  -3.259766095363156E-4  
 2.036600000000000E10    1.253620917829898E-3  -6.421893257642137E-4  
 2.036800000000000E10    1.208937612312249E-3  -1.008779784646705E-3  
 2.037000000000000E10    9.711736365280799E-4  -1.372604537761779E-3  
 2.037200000000000E10    5.755777572386028E-4  -1.573344796794967E-3  
 2.037400000000000E10    2.080495287296048E-4  -1.591379072711568E-3  
 2.037600000000000E10   -7.870922264820487E-5  -1.551317249601432E-3  
 2.037800000000000E10   -3.430796701137000E-4  -1.476087194077057E-3  
 2.038000000000000E10   -5.907432077951107E-4  -1.356058900860543E-3  
 2.038200000000000E10   -7.984158607699297E-4  -1.224098139494019E-3  
 2.038400000000000E10   -1.000750008228684E-3  -1.100050085787080E-3  
 2.038600000000000E10   -1.199772836131463E-3  -8.726816311928647E-4  
 2.038800000000000E10   -1.272817480968721E-3  -6.348273246905177E-4  
 2.039000000000000E10   -1.356105238810721E-3  -5.031664515236661E-4  
 2.039200000000000E10   -1.535019016403894E-3  -2.851025218260535E-4  
 2.039400000000000E10   -1.625329780303793E-3   9.970030798560116E-5  
 2.039600000000000E10   -1.467985297330591E-3   4.845923569493553E-4  
 2.039800000000000E10   -1.210416532968154E-3   6.652816896313594E-4  
 2.040000000000000E10   -1.075421547667753E-3   7.412071749386101E-4  
 2.040200000000000E10   -1.042108589813282E-3   8.668554208371022E-4  
 2.040400000000000E10   -9.497362968601928E-4   1.092944946606290E-3  
 2.040600000000000E10   -7.409474255120579E-4   1.308690448407649E-3  
 2.040800000000000E10   -4.809743204915328E-4   1.452499363223359E-3  
 2.041000000000000E10   -1.763873614087342E-4   1.487823034257834E-3  
 2.041200000000000E10    4.337589181475075E-5   1.439440453617446E-3  
 2.041400000000000E10    1.969087725187451E-4   1.419301490630203E-3  
 2.041600000000000E10    3.778342122219406E-4   1.438738513988945E-3  
 2.041800000000000E10    6.392518405724358E-4   1.429021193141290E-3  
 2.042000000000000E10    9.365151863353981E-4   1.386360228954575E-3  
 2.042200000000000E10    1.284043717789327E-3   1.251219612964725E-3  
 2.042400000000000E10    1.584455894771197E-3   9.501084655561176E-4  
 2.042600000000000E10    1.776259708487279E-3   6.149559147565721E-4  
 2.042800000000000E10    1.940170354772368E-3   2.308670014993814E-4  
 2.043000000000000E10    1.953281903447702E-3  -2.781333983357511E-4  
 2.043200000000000E10    1.712500439550504E-3  -7.094629426383059E-4  
 2.043400000000000E10    1.373334559175477E-3  -9.271511461789137E-4  
 2.043600000000000E10    1.108518040902279E-3  -9.771744915795199E-4  
 2.043800000000000E10    9.660231649141574E-4  -1.038153787136311E-3  
 2.044000000000000E10    8.074216568903489E-4  -1.119665750008629E-3  
 2.044200000000000E10    6.864855289420299E-4  -1.128022772029364E-3  
 2.044400000000000E10    6.646938148992916E-4  -1.176210757498267E-3  
 2.044600000000000E10    6.558373602978584E-4  -1.374164919332512E-3  
 2.044800000000000E10    4.892799254658307E-4  -1.654792663631613E-3  
 2.045000000000000E10    1.736743796939182E-4  -1.892324744950079E-3  
 2.045200000000000E10   -2.620683578678858E-4  -1.994385131308398E-3  
 2.045400000000000E10   -7.116657602217599E-4  -1.894301932663049E-3  
 2.045600000000000E10   -1.008855720990982E-3  -1.648495610318124E-3  
 2.045800000000000E10   -1.190143338224420E-3  -1.503854157758647E-3  
 2.046000000000000E10   -1.444343065379765E-3  -1.402066463832332E-3  
 2.046200000000000E10   -1.757861256259177E-3  -1.227019147147267E-3  
 2.046400000000000E10   -2.116083783768313E-3  -9.245031402307413E-4  
 2.046600000000000E10   -2.393039382036197E-3  -4.097419474476881E-4  
 2.046800000000000E10   -2.408792391285391E-3   1.885734015960563E-4  
 2.047000000000000E10   -2.204691612952028E-3   6.453214704864478E-4  
 2.047200000000000E10   -1.975752174808533E-3   9.463518645561898E-4  
 2.047400000000000E10   -1.761724839818097E-3   1.221745287150583E-3  
 2.047600000000000E10   -1.463732205917155E-3   1.477889104035423E-3  
 2.047800000000000E10   -1.152662124267278E-3   1.559982161868931E-3  
 2.048000000000000E10   -9.726178139383947E-4   1.563828094277705E-3  
 2.048200000000000E10   -8.845480200926630E-4   1.658193598402715E-3  
 2.048400000000000E10   -7.665594801664045E-4   1.893904643182674E-3  
 2.048600000000000E10   -4.857738508961901E-4   2.136078710825087E-3  
 2.048800000000000E10   -1.289874880717634E-4   2.287393155935763E-3  
 2.049000000000000E10    2.517037436501885E-4   2.355095900736895E-3  
 2.049200000000000E10    6.471529169761918E-4   2.331132787161475E-3  
 2.049400000000000E10    1.008678883437744E-3   2.264228580778716E-3  
 2.049600000000000E10    1.418798059778671E-3   2.185316769506661E-3  
 2.049800000000000E10    1.865423511100205E-3   1.979151148401579E-3  
 2.050000000000000E10    2.244662151177488E-3   1.671627445792776E-3  
 2.050200000000000E10    2.637326543472997E-3   1.314166386243294E-3  
 2.050400000000000E10    3.022419107126838E-3   7.663300960131822E-4  
 2.050600000000000E10    3.203794040063545E-3   2.467805431729359E-5  
 2.050800000000000E10    3.028304298186434E-3  -6.902356014387879E-4  
 2.051000000000000E10    2.691793774570259E-3  -1.180017274644343E-3  
 2.051200000000000E10    2.357606839131021E-3  -1.524464640734525E-3  
 2.051400000000000E10    2.032219330299283E-3  -1.818612267431692E-3  
 2.051600000000000E10    1.673406826394174E-3  -2.016661930810168E-3  
 2.051800000000000E10    1.384053765912199E-3  -2.094083551786545E-3  
 2.052000000000000E10    1.208519162394631E-3  -2.216855366819753E-3  
 2.052200000000000E10    1.034205497042728E-3  -2.448424430712787E-3  
 2.052400000000000E10    7.479226817469014E-4  -2.815067829415947E-3  
 2.052600000000000E10    2.020386533426070E-4  -3.148796284126071E-3  
 2.052800000000000E10   -4.805154680800835E-4  -3.197233764674175E-3  
 2.053000000000000E10   -1.040182846856889E-3  -3.034748789394959E-3  
 2.053200000000000E10   -1.556961971317428E-3  -2.853269727518991E-3  
 2.053400000000000E10   -2.082083309664881E-3  -2.552079704423315E-3  
 2.053600000000000E10   -2.495270494992419E-3  -2.145771399344105E-3  
 2.053800000000000E10   -2.821350782485924E-3  -1.693979317954925E-3  
 2.054000000000000E10   -3.060653367210722E-3  -1.220796082629331E-3  
 2.054200000000000E10   -3.330054689121650E-3  -7.248867201680308E-4  
 2.054400000000000E10   -3.509725868866498E-3  -4.544878384848750E-5  
 2.054600000000000E10   -3.450510605229632E-3   6.456092163027328E-4  
 2.054800000000000E10   -3.243567333755869E-3   1.278792596534039E-3  
 2.055000000000000E10   -2.859659550247830E-3   1.840352759033919E-3  
 2.055200000000000E10   -2.349353309261302E-3   2.230748541974682E-3  
 2.055400000000000E10   -1.862777686004888E-3   2.398952525199199E-3  
 2.055600000000000E10   -1.542827875774339E-3   2.461250423199856E-3  
