#  HZ   S   RI   R     50.00 
! Rohde & Schwarz ZVA40 4Ports - Version 3.90 - 1145.1110k42 SN: 100403
! Date: 2023-10-03 10:38:02
! Measurement: S12 
! 
 2.000000000000000E10    6.702249403883268E-4  -2.765298149687723E-3  
 2.000200000000000E10    6.721423302219151E-5  -2.724216212307721E-3  
 2.000400000000000E10   -5.100442634592669E-4  -2.414361199438163E-3  
 2.000600000000000E10   -7.531992799349499E-4  -1.920170356060886E-3  
 2.000800000000000E10   -6.324863180279252E-4  -1.639138778322856E-3  
 2.001000000000000E10   -5.330356337057890E-4  -1.787006907389897E-3  
 2.001200000000000E10   -8.699433285288198E-4  -2.089069019849777E-3  
 2.001400000000000E10   -1.530073307657715E-3  -2.095241582504025E-3  
 2.001600000000000E10   -2.144673073968361E-3  -1.715051593764881E-3  
 2.001800000000000E10   -2.539701381984419E-3  -1.141258872967515E-3  
 2.002000000000000E10   -2.698491657068455E-3  -4.897896596933210E-4  
 2.002200000000000E10   -2.606562975300949E-3   1.632365362747207E-4  
 2.002400000000000E10   -2.336159542353699E-3   6.282175935415837E-4  
 2.002600000000000E10   -2.038330223924891E-3   8.731496782075304E-4  
 2.002800000000000E10   -1.894182660035657E-3   9.990516325506156E-4  
 2.003000000000000E10   -1.891063371371729E-3   1.269031508949640E-3  
 2.003200000000000E10   -1.768657021813442E-3   1.762698622629946E-3  
 2.003400000000000E10   -1.364971180024860E-3   2.232931354702726E-3  
 2.003600000000000E10   -8.036386736972702E-4   2.525446339240822E-3  
 2.003800000000000E10   -2.117949100457189E-4   2.615017602756742E-3  
 2.004000000000000E10    3.339542906468834E-4   2.542498541308570E-3  
 2.004200000000000E10    8.364113953011815E-4   2.355335821335004E-3  
 2.004400000000000E10    1.230931371183420E-3   2.062481195973782E-3  
 2.004600000000000E10    1.533822329275423E-3   1.710350867150038E-3  
 2.004800000000000E10    1.695900694441577E-3   1.313680088414526E-3  
 2.005000000000000E10    1.744489638398010E-3   1.028797310260885E-3  
 2.005200000000000E10    1.826322434370410E-3   8.640019222295528E-4  
 2.005400000000000E10    2.054296959631033E-3   7.319125575677778E-4  
 2.005600000000000E10    2.400219012166799E-3   3.483039674295473E-4  
 2.005800000000000E10    2.492782180433881E-3  -2.546333818056395E-4  
 2.006000000000000E10    2.341263969677957E-3  -7.756837373484433E-4  
 2.006200000000000E10    2.098759493518452E-3  -1.209521464318732E-3  
 2.006400000000000E10    1.748093639101849E-3  -1.525647454065960E-3  
 2.006600000000000E10    1.381499341156319E-3  -1.675979568992214E-3  
 2.006800000000000E10    1.168538570347841E-3  -1.740001521133326E-3  
 2.007000000000000E10    1.043125781689263E-3  -1.944687087804243E-3  
 2.007200000000000E10    8.061196493267227E-4  -2.244187660441212E-3  
 2.007400000000000E10    4.089011097536392E-4  -2.549094435744836E-3  
 2.007600000000000E10   -1.952919600974125E-4  -2.730626661767379E-3  
 2.007800000000000E10   -8.361942552551322E-4  -2.618598368782832E-3  
 2.008000000000000E10   -1.330965291836462E-3  -2.358218721421985E-3  
 2.008200000000000E10   -1.713733022888185E-3  -2.019065686479845E-3  
 2.008400000000000E10   -1.973928354453138E-3  -1.644814291468148E-3  
 2.008600000000000E10   -2.175696737443408E-3  -1.304751866502210E-3  
 2.008800000000000E10   -2.396242106358926E-3  -9.316751549457328E-4  
 2.009000000000000E10   -2.541994584969594E-3  -5.285166680575854E-4  
 2.009200000000000E10   -2.641401058177889E-3  -1.154497635013195E-4  
 2.009400000000000E10   -2.701388475892680E-3   3.453829756584045E-4  
 2.009600000000000E10   -2.648585803030041E-3   8.873230693363605E-4  
 2.009800000000000E10   -2.389850657668338E-3   1.434286725126074E-3  
 2.010000000000000E10   -1.959298233359807E-3   1.797091772374844E-3  
 2.010200000000000E10   -1.536061065859163E-3   1.933725270192268E-3  
 2.010400000000000E10   -1.247153085827654E-3   1.953052013342119E-3  
 2.010600000000000E10   -1.109824165994422E-3   2.015540190424326E-3  
 2.010800000000000E10   -9.913280149870677E-4   2.261851168466306E-3  
 2.011000000000000E10   -7.374279700227298E-4   2.619902464396363E-3  
 2.011200000000000E10   -2.681661947716260E-4   2.972267645402251E-3  
 2.011400000000000E10    4.000337723360253E-4   3.158052651203955E-3  
 2.011600000000000E10    1.161193604477578E-3   3.122381779744670E-3  
 2.011800000000000E10    1.909254548530796E-3   2.748892463064039E-3  
 2.012000000000000E10    2.326808323692761E-3   2.142102594598515E-3  
 2.012200000000000E10    2.489051384600940E-3   1.621482801203334E-3  
 2.012400000000000E10    2.627244774911384E-3   1.216832117371731E-3  
 2.012600000000000E10    2.771580082061605E-3   8.028408818921671E-4  
 2.012800000000000E10    2.853860675877239E-3   3.370849675718001E-4  
 2.013000000000000E10    2.820823784273716E-3  -1.002405214495350E-4  
 2.013200000000000E10    2.791464001397681E-3  -4.341458427158935E-4  
 2.013400000000000E10    2.820724523683758E-3  -8.506019727808562E-4  
 2.013600000000000E10    2.691108666345048E-3  -1.388452604441139E-3  
 2.013800000000000E10    2.382789042220031E-3  -1.812626934764889E-3  
 2.014000000000000E10    2.011893892952015E-3  -2.085737658559827E-3  
 2.014200000000000E10    1.729660017373723E-3  -2.245707939467068E-3  
 2.014400000000000E10    1.557412945195287E-3  -2.467654737106056E-3  
 2.014600000000000E10    1.340068581632872E-3  -2.831667203990173E-3  
 2.014800000000000E10    9.541559792909421E-4  -3.259443807312184E-3  
 2.015000000000000E10    3.478308090514060E-4  -3.632684749588167E-3  
 2.015200000000000E10   -4.215686196692555E-4  -3.833234584181275E-3  
 2.015400000000000E10   -1.297657934543824E-3  -3.792746814315314E-3  
 2.015600000000000E10   -2.129479079214736E-3  -3.410813187227288E-3  
 2.015800000000000E10   -2.716181442379155E-3  -2.820480086320733E-3  
 2.016000000000000E10   -3.075962090949096E-3  -2.157736245149285E-3  
 2.016200000000000E10   -3.237491100515522E-3  -1.551320517962014E-3  
 2.016400000000000E10   -3.302109122419391E-3  -1.053294573657583E-3  
 2.016600000000000E10   -3.396467362570134E-3  -6.533470732991588E-4  
 2.016800000000000E10   -3.568603186095224E-3  -1.915946953105313E-4  
 2.017000000000000E10   -3.677012186448904E-3   4.230454305074446E-4  
 2.017200000000000E10   -3.568800045841659E-3   1.116042864887077E-3  
 2.017400000000000E10   -3.272071296786086E-3   1.655050533260277E-3  
 2.017600000000000E10   -3.066921587177491E-3   2.029974055086839E-3  
 2.017800000000000E10   -2.868018202184711E-3   2.591842271270044E-3  
 2.018000000000000E10   -2.398349384333944E-3   3.163158033485174E-3  
 2.018200000000000E10   -1.792476853114312E-3   3.567411050721697E-3  
 2.018400000000000E10   -1.141032536031196E-3   3.849398630284111E-3  
 2.018600000000000E10   -4.584685149446993E-4   4.030179618174321E-3  
 2.018800000000000E10    2.796652562186807E-4   4.059836873976292E-3  
 2.019000000000000E10    9.585310167164144E-4   3.921417988944079E-3  
 2.019200000000000E10    1.597243486692815E-3   3.701966334790994E-3  
 2.019400000000000E10    2.162739405835199E-3   3.423491132602771E-3  
 2.019600000000000E10    2.747270189205234E-3   3.059813001260816E-3  
 2.019800000000000E10    3.271165198489349E-3   2.466823073073363E-3  
 2.020000000000000E10    3.549129560344505E-3   1.774138362186518E-3  
 2.020200000000000E10    3.606726488913570E-3   1.206324245896962E-3  
 2.020400000000000E10    3.721159360970695E-3   8.300079243731609E-4  
 2.020600000000000E10    4.021611704078436E-3   3.535110943066659E-4  
 2.020800000000000E10    4.283048057946568E-3  -3.490406562017204E-4  
 2.021000000000000E10    4.310862666483974E-3  -1.326074668516716E-3  
 2.021200000000000E10    3.913027995147211E-3  -2.264050203752391E-3  
 2.021400000000000E10    3.289608569401835E-3  -2.930779691941434E-3  
 2.021600000000000E10    2.553299161706463E-3  -3.377159653405247E-3  
 2.021800000000000E10    1.826738539619425E-3  -3.556799179323744E-3  
 2.022000000000000E10    1.252652493730924E-3  -3.569189978083814E-3  
 2.022200000000000E10    8.711317957817119E-4  -3.610743216107330E-3  
 2.022400000000000E10    4.842695548545330E-4  -3.836844175854706E-3  
 2.022600000000000E10   -1.379840017099564E-4  -4.090905920263835E-3  
 2.022800000000000E10   -9.399595714636680E-4  -4.132254783764217E-3  
 2.023000000000000E10   -1.778940812477635E-3  -3.956906379945321E-3  
 2.023200000000000E10   -2.575441104882437E-3  -3.543558955928426E-3  
 2.023400000000000E10   -3.214624262605226E-3  -2.896362407815187E-3  
 2.023600000000000E10   -3.631229574034510E-3  -2.138146901929902E-3  
 2.023800000000000E10   -3.859043100897341E-3  -1.321237308161004E-3  
 2.024000000000000E10   -3.889807749703139E-3  -5.099517759574458E-4  
 2.024200000000000E10   -3.683171029341893E-3   2.141739821609794E-4  
 2.024400000000000E10   -3.366305000009463E-3   7.197624957125089E-4  
 2.024600000000000E10   -3.103915051351441E-3   1.075105086883686E-3  
 2.024800000000000E10   -2.871236765491476E-3   1.405715345454866E-3  
 2.025000000000000E10   -2.686989452467595E-3   1.727396792371915E-3  
 2.025200000000000E10   -2.506553565263135E-3   2.095362113722293E-3  
 2.025400000000000E10   -2.221341509006622E-3   2.496900553054934E-3  
 2.025600000000000E10   -1.837366072950305E-3   2.908455215289740E-3  
 2.025800000000000E10   -1.279889279529350E-3   3.276668562437568E-3  
 2.026000000000000E10   -5.901651945609002E-4   3.456524605843634E-3  
 2.026200000000000E10    4.101449179800678E-5   3.433317617693373E-3  
 2.026400000000000E10    5.570961918907984E-4   3.354659485752058E-3  
 2.026600000000000E10    1.098185251320014E-3   3.274686170476189E-3  
 2.026800000000000E10    1.743395533508510E-3   3.087482905712884E-3  
 2.027000000000000E10    2.365087108834761E-3   2.678345269568275E-3  
 2.027200000000000E10    2.820636019933412E-3   2.040549297657360E-3  
 2.027400000000000E10    2.995343153225706E-3   1.322442019263740E-3  
 2.027600000000000E10    2.914623381309365E-3   6.972735781869016E-4  
 2.027800000000000E10    2.727733227770536E-3   2.750389135050791E-4  
 2.028000000000000E10    2.634341736861974E-3   1.620483342449554E-5  
 2.028200000000000E10    2.651744939588696E-3  -2.664510320855461E-4  
 2.028400000000000E10    2.677977253428682E-3  -6.206626175846574E-4  
 2.028600000000000E10    2.663694387902244E-3  -1.125588204899473E-3  
 2.028800000000000E10    2.438510893952659E-3  -1.673286054915760E-3  
 2.029000000000000E10    2.052219852866460E-3  -2.110586137560660E-3  
 2.029200000000000E10    1.538668431000547E-3  -2.471442137613627E-3  
 2.029400000000000E10    9.033659478491084E-4  -2.582550253553012E-3  
 2.029600000000000E10    4.007120536728437E-4  -2.460732729658383E-3  
 2.029800000000000E10    7.464738206151267E-5  -2.323407973629130E-3  
 2.030000000000000E10   -2.015215769587073E-4  -2.249027310777328E-3  
 2.030200000000000E10   -4.739903272637416E-4  -2.119408380010246E-3  
 2.030400000000000E10   -6.423612466638982E-4  -2.033442136510921E-3  
 2.030600000000000E10   -8.882891592111017E-4  -2.103130375922994E-3  
 2.030800000000000E10   -1.368753343120483E-3  -2.087835805677133E-3  
 2.031000000000000E10   -1.875530218702980E-3  -1.786329772959583E-3  
 2.031200000000000E10   -2.250695443649576E-3  -1.290269738506521E-3  
 2.031400000000000E10   -2.396756330561225E-3  -7.051427806159087E-4  
 2.031600000000000E10   -2.356165172711056E-3  -1.636233933269020E-4  
 2.031800000000000E10   -2.181595738144242E-3   2.851927894808286E-4  
 2.032000000000000E10   -1.965719605099783E-3   6.043871846950687E-4  
 2.032200000000000E10   -1.743398436226350E-3   8.422730559073083E-4  
 2.032400000000000E10   -1.518213469598990E-3   1.023829363533060E-3  
 2.032600000000000E10   -1.312168117514230E-3   1.158772461692482E-3  
 2.032800000000000E10   -1.100569669781981E-3   1.259772105567893E-3  
 2.033000000000000E10   -9.220702689752975E-4   1.318517847360969E-3  
 2.033200000000000E10   -7.371483189411545E-4   1.389965418833519E-3  
 2.033400000000000E10   -5.509621328457077E-4   1.397532390798500E-3  
 2.033600000000000E10   -5.850476586158977E-4   1.358772191411940E-3  
 2.033800000000000E10   -3.857126004996471E-4   1.570764749402894E-3  
 2.034000000000000E10   -1.743518813980797E-4   1.838272852651949E-3  
 2.034200000000000E10    2.944744284285823E-4   2.074827522803379E-3  
 2.034400000000000E10    9.183183395296121E-4   2.025163894396567E-3  
 2.034600000000000E10    1.404683428065307E-3   1.696759465358773E-3  
 2.034800000000000E10    1.738382894794913E-3   1.263358382557983E-3  
 2.035000000000000E10    1.939752989350237E-3   7.594612875630102E-4  
 2.035200000000000E10    1.941995514462229E-3   2.032920595988905E-4  
 2.035400000000000E10    1.697408363564178E-3  -2.847962571965628E-4  
 2.035600000000000E10    1.306980646621636E-3  -5.093541722751092E-4  
 2.035800000000000E10    1.021180202895763E-3  -4.675446023646518E-4  
 2.036000000000000E10    9.534222472124366E-4  -3.765482330613033E-4  
 2.036200000000000E10    1.034827450665918E-3  -3.812915522736767E-4  
 2.036400000000000E10    1.121854300825347E-3  -5.107802386486339E-4  
 2.036600000000000E10    1.145807987389465E-3  -7.242008913385036E-4  
 2.036800000000000E10    1.108776642404374E-3  -1.001312913065227E-3  
 2.037000000000000E10    9.242925220118029E-4  -1.341337032918914E-3  
 2.037200000000000E10    5.521295140340890E-4  -1.565008705759112E-3  
 2.037400000000000E10    1.607194285940722E-4  -1.592836410940379E-3  
 2.037600000000000E10   -1.341994421538068E-4  -1.539640399609503E-3  
 2.037800000000000E10   -3.986826838573521E-4  -1.450242627819615E-3  
 2.038000000000000E10   -6.544328094600600E-4  -1.319257623614394E-3  
 2.038200000000000E10   -8.094136274850255E-4  -1.147754902380362E-3  
 2.038400000000000E10   -9.261983012734557E-4  -1.001535420432503E-3  
 2.038600000000000E10   -1.040990428458670E-3  -8.207487196480124E-4  
 2.038800000000000E10   -1.098366630543407E-3  -6.764117948997088E-4  
 2.039000000000000E10   -1.200564727359624E-3  -5.910170421199759E-4  
 2.039200000000000E10   -1.399852523250590E-3  -4.166986331610656E-4  
 2.039400000000000E10   -1.563410465356438E-3  -8.073078406321853E-5  
 2.039600000000000E10   -1.528285381822389E-3   3.243450814202066E-4  
 2.039800000000000E10   -1.320085814989214E-3   6.267713589321654E-4  
 2.040000000000000E10   -1.140492215474099E-3   7.471526105503651E-4  
 2.040200000000000E10   -1.076170498989421E-3   8.451929847698339E-4  
 2.040400000000000E10   -9.942442817174012E-4   1.062418284202544E-3  
 2.040600000000000E10   -7.925861814846280E-4   1.284145497153571E-3  
 2.040800000000000E10   -5.301127311024964E-4   1.428576532990221E-3  
 2.041000000000000E10   -2.235512199507585E-4   1.456367113820402E-3  
 2.041200000000000E10    6.791526958708382E-6   1.390289120339062E-3  
 2.041400000000000E10    1.407174491705195E-4   1.367081642573743E-3  
 2.041600000000000E10    3.235345033522178E-4   1.397702179591086E-3  
 2.041800000000000E10    5.629098572862810E-4   1.413935849082814E-3  
 2.042000000000000E10    8.478926561628463E-4   1.413653341993250E-3  
 2.042200000000000E10    1.202083609880693E-3   1.282322400476942E-3  
 2.042400000000000E10    1.507364510493392E-3   9.941573728090576E-4  
 2.042600000000000E10    1.687596777399085E-3   6.760473388492480E-4  
 2.042800000000000E10    1.860523455877200E-3   3.454414392653496E-4  
 2.043000000000000E10    1.937563443589644E-3  -1.418136424195458E-4  
 2.043200000000000E10    1.738259890110364E-3  -6.318398382749783E-4  
 2.043400000000000E10    1.398440895171578E-3  -9.039225250313925E-4  
 2.043600000000000E10    1.096128037841978E-3  -9.800799424786876E-4  
 2.043800000000000E10    9.364815004392233E-4  -9.958410575865823E-4  
 2.044000000000000E10    7.889302144343205E-4  -1.032822700096001E-3  
 2.044200000000000E10    6.779128550174961E-4  -1.013589170646429E-3  
 2.044400000000000E10    6.960010413458606E-4  -1.034944116224794E-3  
 2.044600000000000E10    7.586202488232288E-4  -1.225678489411912E-3  
 2.044800000000000E10    6.714475826045374E-4  -1.557002151135831E-3  
 2.045000000000000E10    3.688343813499457E-4  -1.900857243564272E-3  
 2.045200000000000E10   -1.106002586491314E-4  -2.098086982165733E-3  
 2.045400000000000E10   -6.685875656737325E-4  -2.065173165670843E-3  
 2.045600000000000E10   -1.094191781480239E-3  -1.790875236028537E-3  
 2.045800000000000E10   -1.301771233756407E-3  -1.517083130161111E-3  
 2.046000000000000E10   -1.459561987806863E-3  -1.336818996277754E-3  
 2.046200000000000E10   -1.688467143857226E-3  -1.185723789296891E-3  
 2.046400000000000E10   -2.004716912953922E-3  -9.502236534450436E-4  
 2.046600000000000E10   -2.294876541500332E-3  -5.038583566388691E-4  
 2.046800000000000E10   -2.356946631238907E-3   9.563313603889204E-5  
 2.047000000000000E10   -2.161729855996919E-3   6.168983715895529E-4  
 2.047200000000000E10   -1.860884353116063E-3   9.278621946478109E-4  
 2.047400000000000E10   -1.637346828254183E-3   1.096878412361059E-3  
 2.047600000000000E10   -1.446729578142948E-3   1.273932826669506E-3  
 2.047800000000000E10   -1.219722746382116E-3   1.381391740662132E-3  
 2.048000000000000E10   -1.049742196202381E-3   1.422745828160349E-3  
 2.048200000000000E10   -1.003631047613214E-3   1.523955464516402E-3  
 2.048400000000000E10   -9.351862531886099E-4   1.807369848627684E-3  
 2.048600000000000E10   -6.460030814291034E-4   2.125087744123284E-3  
 2.048800000000000E10   -2.401855633235908E-4   2.314501448722227E-3  
 2.049000000000000E10    2.032357532485032E-4   2.386201978552530E-3  
 2.049200000000000E10    6.421024227465041E-4   2.321455625444140E-3  
 2.049400000000000E10    9.871617496775053E-4   2.211454195073910E-3  
 2.049600000000000E10    1.329591673599564E-3   2.103061435695621E-3  
 2.049800000000000E10    1.710418782794825E-3   1.928704902714960E-3  
 2.050000000000000E10    2.073884759588865E-3   1.675176094394735E-3  
 2.050200000000000E10    2.469118162338074E-3   1.376759292671537E-3  
 2.050400000000000E10    2.877732435118699E-3   9.031738160977805E-4  
 2.050600000000000E10    3.126656489679271E-3   1.991368353803450E-4  
 2.050800000000000E10    3.027307094791483E-3  -5.424941646571391E-4  
 2.051000000000000E10    2.708313089510521E-3  -1.065691425535312E-3  
 2.051200000000000E10    2.398704138069589E-3  -1.421381652180172E-3  
 2.051400000000000E10    2.090434864449567E-3  -1.692700304380978E-3  
 2.051600000000000E10    1.763783485196858E-3  -1.839512893010253E-3  
 2.051800000000000E10    1.539732012718875E-3  -1.924322923646655E-3  
 2.052000000000000E10    1.387450852353428E-3  -2.093168273210444E-3  
 2.052200000000000E10    1.203028994595788E-3  -2.354807879607128E-3  
 2.052400000000000E10    9.071085461037202E-4  -2.733948805327278E-3  
 2.052600000000000E10    3.231992257132744E-4  -3.083159727720220E-3  
 2.052800000000000E10   -4.029225280218719E-4  -3.142227759822406E-3  
 2.053000000000000E10   -9.887067379751877E-4  -2.977491232830986E-3  
 2.053200000000000E10   -1.482692885210046E-3  -2.809977370336019E-3  
 2.053400000000000E10   -1.919381517057138E-3  -2.554950726873897E-3  
 2.053600000000000E10   -2.292636401225674E-3  -2.253697747211337E-3  
 2.053800000000000E10   -2.662190654863117E-3  -1.890399507489643E-3  
 2.054000000000000E10   -2.964174095796746E-3  -1.464528241801614E-3  
 2.054200000000000E10   -3.277973413073928E-3  -9.849570764724387E-4  
 2.054400000000000E10   -3.486216535206645E-3  -2.951291674813218E-4  
 2.054600000000000E10   -3.447558928539131E-3   4.290150660850282E-4  
 2.054800000000000E10   -3.249271688165223E-3   1.096017152886705E-3  
 2.055000000000000E10   -2.904194941493812E-3   1.699975565738915E-3  
 2.055200000000000E10   -2.433223693934366E-3   2.126840402184384E-3  
 2.055400000000000E10   -1.963632412839921E-3   2.303542281834432E-3  
 2.055600000000000E10   -1.652960784973472E-3   2.386981044577841E-3  
