#  HZ   S   RI   R     50.00 
! Rohde & Schwarz ZVA40 4Ports - Version 3.90 - 1145.1110k42 SN: 100403
! Date: 2023-10-03 10:39:08
! Measurement: S12 
! 
 2.000000000000000E10    4.059108089247324E-4  -2.653363021395816E-3  
 2.000200000000000E10   -9.904983672657307E-5  -2.534829368685653E-3  
 2.000400000000000E10   -5.679126740226742E-4  -2.271564375078841E-3  
 2.000600000000000E10   -8.075645554999839E-4  -1.866014188807359E-3  
 2.000800000000000E10   -7.636720057198746E-4  -1.619653419199426E-3  
 2.001000000000000E10   -7.157835445454526E-4  -1.665507290956480E-3  
 2.001200000000000E10   -9.676702050075550E-4  -1.897749215603071E-3  
 2.001400000000000E10   -1.558666190007159E-3  -1.911786068406884E-3  
 2.001600000000000E10   -2.137275789693314E-3  -1.542189056828795E-3  
 2.001800000000000E10   -2.491018633947124E-3  -9.792526534867386E-4  
 2.002000000000000E10   -2.642513261560048E-3  -3.204910973769157E-4  
 2.002200000000000E10   -2.531329488223898E-3   3.490518464576308E-4  
 2.002400000000000E10   -2.216023174587923E-3   8.070343316920121E-4  
 2.002600000000000E10   -1.873481227258881E-3   1.012165121872329E-3  
 2.002800000000000E10   -1.729336742582412E-3   1.078483500759075E-3  
 2.003000000000000E10   -1.751598019075235E-3   1.312860501606476E-3  
 2.003200000000000E10   -1.659224063411129E-3   1.781646869262584E-3  
 2.003400000000000E10   -1.272457456331195E-3   2.246618807367496E-3  
 2.003600000000000E10   -7.199907828849296E-4   2.525471325542434E-3  
 2.003800000000000E10   -1.294270807662892E-4   2.608079253656870E-3  
 2.004000000000000E10    4.183366571381579E-4   2.555746360923405E-3  
 2.004200000000000E10    9.366368673057061E-4   2.367162052094834E-3  
 2.004400000000000E10    1.342782107256512E-3   2.054546922330320E-3  
 2.004600000000000E10    1.647339165840975E-3   1.699077144288313E-3  
 2.004800000000000E10    1.833858589224848E-3   1.295973091379729E-3  
 2.005000000000000E10    1.917337593130655E-3   9.747807828487619E-4  
 2.005200000000000E10    1.989694178144714E-3   7.311859727885269E-4  
 2.005400000000000E10    2.153760119524569E-3   5.321089621792310E-4  
 2.005600000000000E10    2.387003132544267E-3   1.133333451608292E-4  
 2.005800000000000E10    2.378626942435571E-3  -4.600446015517467E-4  
 2.006000000000000E10    2.171101762127201E-3  -8.986453196969845E-4  
 2.006200000000000E10    1.923768181536070E-3  -1.231389597060852E-3  
 2.006400000000000E10    1.630532159583581E-3  -1.495337112815397E-3  
 2.006600000000000E10    1.316839551436449E-3  -1.629739163021576E-3  
 2.006800000000000E10    1.158598334588266E-3  -1.726430619794565E-3  
 2.007000000000000E10    1.027095831966550E-3  -1.961971695487049E-3  
 2.007200000000000E10    7.645551098524536E-4  -2.252743638994568E-3  
 2.007400000000000E10    3.652157752585226E-4  -2.531072550151322E-3  
 2.007600000000000E10   -2.349604678167918E-4  -2.706215320436935E-3  
 2.007800000000000E10   -8.695478496138044E-4  -2.599605454668242E-3  
 2.008000000000000E10   -1.358365128356200E-3  -2.324428866695312E-3  
 2.008200000000000E10   -1.750105578925605E-3  -1.982304739066444E-3  
 2.008400000000000E10   -2.002536917951755E-3  -1.591703755847203E-3  
 2.008600000000000E10   -2.194577003685104E-3  -1.252800443729522E-3  
 2.008800000000000E10   -2.418565625924435E-3  -8.992979450735017E-4  
 2.009000000000000E10   -2.545082533337157E-3  -4.798616007439688E-4  
 2.009200000000000E10   -2.621461493808438E-3  -6.652625423173116E-5  
 2.009400000000000E10   -2.655257442693564E-3   4.001232022588846E-4  
 2.009600000000000E10   -2.580926266627043E-3   9.278998733778506E-4  
 2.009800000000000E10   -2.316268150435045E-3   1.440208161850482E-3  
 2.010000000000000E10   -1.896654258615874E-3   1.795049447016506E-3  
 2.010200000000000E10   -1.486358732170193E-3   1.946076229450303E-3  
 2.010400000000000E10   -1.211600252868620E-3   1.973310972435744E-3  
 2.010600000000000E10   -1.095100914630906E-3   2.076213469584325E-3  
 2.010800000000000E10   -9.593329737982105E-4   2.360168330147386E-3  
 2.011000000000000E10   -6.316876966771545E-4   2.727491339301554E-3  
 2.011200000000000E10   -6.895521485751152E-5   3.018260179926435E-3  
 2.011400000000000E10    6.074124526650803E-4   3.104180170576853E-3  
 2.011600000000000E10    1.338605380093577E-3   2.986979508043447E-3  
 2.011800000000000E10    2.045245350714256E-3   2.557815480755858E-3  
 2.012000000000000E10    2.429625029225545E-3   1.900569066120549E-3  
 2.012200000000000E10    2.486558018875123E-3   1.332573465849779E-3  
 2.012400000000000E10    2.490376812341866E-3   9.668508292677051E-4  
 2.012600000000000E10    2.586562290350213E-3   6.619516497843689E-4  
 2.012800000000000E10    2.658216273818081E-3   2.813871067196953E-4  
 2.013000000000000E10    2.627005472810787E-3  -8.411585292745111E-5  
 2.013200000000000E10    2.595144055686940E-3  -3.803767099105120E-4  
 2.013400000000000E10    2.627826536821213E-3  -7.427819498867591E-4  
 2.013600000000000E10    2.546823493690049E-3  -1.197110805647711E-3  
 2.013800000000000E10    2.335034466357532E-3  -1.611729123649645E-3  
 2.014000000000000E10    2.055879629639669E-3  -1.922154182835340E-3  
 2.014200000000000E10    1.792665951218268E-3  -2.131583510949582E-3  
 2.014400000000000E10    1.644480173852062E-3  -2.383470434566026E-3  
 2.014600000000000E10    1.460210941407578E-3  -2.793492023977742E-3  
 2.014800000000000E10    1.049067111451800E-3  -3.291738707222462E-3  
 2.015000000000000E10    3.601052461594010E-4  -3.670230925639883E-3  
 2.015200000000000E10   -4.676759621330220E-4  -3.822399349521232E-3  
 2.015400000000000E10   -1.352828826980699E-3  -3.707863724733877E-3  
 2.015600000000000E10   -2.162649998513165E-3  -3.258058048470744E-3  
 2.015800000000000E10   -2.664742570664553E-3  -2.629965090151264E-3  
 2.016000000000000E10   -2.934875881313288E-3  -2.012417183283616E-3  
 2.016200000000000E10   -3.077548831217804E-3  -1.475294500072963E-3  
 2.016400000000000E10   -3.143203906997962E-3  -1.022097777674335E-3  
 2.016600000000000E10   -3.207837450483409E-3  -6.678207243927990E-4  
 2.016800000000000E10   -3.355800686609935E-3  -2.557101145961161E-4  
 2.017000000000000E10   -3.472865485631508E-3   2.912748130506456E-4  
 2.017200000000000E10   -3.417248960044716E-3   9.032319063674776E-4  
 2.017400000000000E10   -3.215873140946481E-3   1.404140553752441E-3  
 2.017600000000000E10   -3.090733874708726E-3   1.823303216714580E-3  
 2.017800000000000E10   -2.921777253584689E-3   2.419032786504818E-3  
 2.018000000000000E10   -2.460736876428571E-3   3.015947108868283E-3  
 2.018200000000000E10   -1.886058914662657E-3   3.450067611618459E-3  
 2.018400000000000E10   -1.282726585229945E-3   3.769577594624140E-3  
 2.018600000000000E10   -6.008238724681011E-4   3.967150852749614E-3  
 2.018800000000000E10    1.394799741522949E-4   4.035422780162504E-3  
 2.019000000000000E10    8.547264562570262E-4   3.940996390294283E-3  
 2.019200000000000E10    1.515415575692561E-3   3.703050072435639E-3  
 2.019400000000000E10    2.093024552862077E-3   3.394204349639035E-3  
 2.019600000000000E10    2.648133309325239E-3   3.022575744665789E-3  
 2.019800000000000E10    3.148768891256336E-3   2.461166708092672E-3  
 2.020000000000000E10    3.456673902665127E-3   1.803040459919298E-3  
 2.020200000000000E10    3.534505541074832E-3   1.242253672822855E-3  
 2.020400000000000E10    3.616119575889882E-3   8.715104821902193E-4  
 2.020600000000000E10    3.884148392240073E-3   4.251937546157343E-4  
 2.020800000000000E10    4.168142500221208E-3  -2.623940997221448E-4  
 2.021000000000000E10    4.206710135712687E-3  -1.221555688696951E-3  
 2.021200000000000E10    3.797970775777730E-3  -2.142499671806649E-3  
 2.021400000000000E10    3.167730841201979E-3  -2.767572893152567E-3  
 2.021600000000000E10    2.488879666766903E-3  -3.154498550088700E-3  
 2.021800000000000E10    1.846491523372909E-3  -3.323359631406219E-3  
 2.022000000000000E10    1.377637579931650E-3  -3.367720665185883E-3  
 2.022200000000000E10    1.060657768187066E-3  -3.490357826688299E-3  
 2.022400000000000E10    6.525507322230801E-4  -3.783200786989413E-3  
 2.022600000000000E10   -3.371764709196782E-6  -4.054826161074823E-3  
 2.022800000000000E10   -8.079641024305149E-4  -4.159251415559526E-3  
 2.023000000000000E10   -1.704484505838358E-3  -4.017728593710324E-3  
 2.023200000000000E10   -2.558476125198035E-3  -3.570555064005608E-3  
 2.023400000000000E10   -3.198359523476990E-3  -2.891592521041875E-3  
 2.023600000000000E10   -3.600849350587879E-3  -2.115648506287894E-3  
 2.023800000000000E10   -3.796927085536099E-3  -1.324415714143566E-3  
 2.024000000000000E10   -3.822681682280580E-3  -5.745398333807762E-4  
 2.024200000000000E10   -3.649411851161490E-3   1.406362282179206E-4  
 2.024400000000000E10   -3.317528161812319E-3   6.874333918681593E-4  
 2.024600000000000E10   -3.010800523405779E-3   1.036697569701876E-3  
 2.024800000000000E10   -2.759305627116924E-3   1.290439373019085E-3  
 2.025000000000000E10   -2.594184826792929E-3   1.531331071357154E-3  
 2.025200000000000E10   -2.489325825178636E-3   1.850324433914110E-3  
 2.025400000000000E10   -2.298429219158373E-3   2.251919279726115E-3  
 2.025600000000000E10   -2.007335221543659E-3   2.695703088595324E-3  
 2.025800000000000E10   -1.554240178888316E-3   3.151455860080490E-3  
 2.026000000000000E10   -9.097223846804515E-4   3.458600004864104E-3  
 2.026200000000000E10   -2.105575388604331E-4   3.549480593048299E-3  
 2.026400000000000E10    4.359324331374179E-4   3.499708993573607E-3  
 2.026600000000000E10    1.058848319410389E-3   3.373072496840339E-3  
 2.026800000000000E10    1.710600245057955E-3   3.105769482451325E-3  
 2.027000000000000E10    2.301531027461110E-3   2.659316736233297E-3  
 2.027200000000000E10    2.750794236820644E-3   2.025288660002589E-3  
 2.027400000000000E10    2.893889115738923E-3   1.300076528576826E-3  
 2.027600000000000E10    2.786810952064852E-3   7.077350393034185E-4  
 2.027800000000000E10    2.586992451121369E-3   3.643582294449673E-4  
 2.028000000000000E10    2.526549663120162E-3   1.869599908304504E-4  
 2.028200000000000E10    2.592117762832703E-3  -6.299592571217120E-5  
 2.028400000000000E10    2.695696144273218E-3  -4.068056519482611E-4  
 2.028600000000000E10    2.744598062740203E-3  -9.359597887941367E-4  
 2.028800000000000E10    2.516414472666345E-3  -1.541154487011678E-3  
 2.029000000000000E10    2.133967205315699E-3  -2.009616240967196E-3  
 2.029200000000000E10    1.641725826657306E-3  -2.388687627402803E-3  
 2.029400000000000E10    1.027893505741670E-3  -2.562207428318592E-3  
 2.029600000000000E10    4.932476276849212E-4  -2.496758865867071E-3  
 2.029800000000000E10    1.263063820316732E-4  -2.338021165865771E-3  
 2.030000000000000E10   -1.543893417325009E-4  -2.200775197228042E-3  
 2.030200000000000E10   -3.472047416742807E-4  -2.035854215668553E-3  
 2.030400000000000E10   -4.332578955036503E-4  -2.006505857072879E-3  
 2.030600000000000E10   -6.542019476654737E-4  -2.162078521039120E-3  
 2.030800000000000E10   -1.170623253760816E-3  -2.238337981510801E-3  
 2.031000000000000E10   -1.760838930998290E-3  -1.987765135203506E-3  
 2.031200000000000E10   -2.215873498480664E-3  -1.475844446443631E-3  
 2.031400000000000E10   -2.405426205138579E-3  -8.681329879444166E-4  
 2.031600000000000E10   -2.378829989777905E-3  -3.283932329570136E-4  
 2.031800000000000E10   -2.220513684284172E-3   9.725439157857907E-5  
 2.032000000000000E10   -2.034678765391056E-3   4.384805963368217E-4  
 2.032200000000000E10   -1.813766267938454E-3   7.178493153303580E-4  
 2.032400000000000E10   -1.572944102461770E-3   8.818607969448594E-4  
 2.032600000000000E10   -1.401161433163775E-3   9.891706077866582E-4  
 2.032800000000000E10   -1.242873428658848E-3   1.105511613148867E-3  
 2.033000000000000E10   -1.094878950038313E-3   1.202267947554364E-3  
 2.033200000000000E10   -9.555022984631265E-4   1.343679673184914E-3  
 2.033400000000000E10   -7.941805548350445E-4   1.436540413741718E-3  
 2.033600000000000E10   -8.161840680035590E-4   1.451384562550028E-3  
 2.033800000000000E10   -5.463944873703717E-4   1.690715523838379E-3  
 2.034000000000000E10   -3.028613505093289E-4   1.943822033955144E-3  
 2.034200000000000E10    1.552268302252665E-4   2.164126685332928E-3  
 2.034400000000000E10    7.402146457221926E-4   2.126722902732674E-3  
 2.034600000000000E10    1.249433565510653E-3   1.856227696274511E-3  
 2.034800000000000E10    1.638536012931356E-3   1.451406175734990E-3  
 2.035000000000000E10    1.885418299191817E-3   9.403355600655301E-4  
 2.035200000000000E10    1.899703207105396E-3   3.863850584354595E-4  
 2.035400000000000E10    1.661846859198483E-3  -4.890128264299557E-5  
 2.035600000000000E10    1.326647215109614E-3  -2.443731092237620E-4  
 2.035800000000000E10    1.097516635968127E-3  -2.200453917402061E-4  
 2.036000000000000E10    1.089857105500576E-3  -1.520089906799963E-4  
 2.036200000000000E10    1.205714726216598E-3  -1.898256564683045E-4  
 2.036400000000000E10    1.319975435715768E-3  -3.669579992304442E-4  
 2.036600000000000E10    1.335287411285417E-3  -6.164856326259274E-4  
 2.036800000000000E10    1.327493647759307E-3  -9.239781011282636E-4  
 2.037000000000000E10    1.183636306273750E-3  -1.328222630284312E-3  
 2.037200000000000E10    8.392099513164261E-4  -1.622212388605388E-3  
 2.037400000000000E10    4.372346810458549E-4  -1.732178317075472E-3  
 2.037600000000000E10    7.250959720943268E-5  -1.727940048915975E-3  
 2.037800000000000E10   -2.802783270631792E-4  -1.679403794434838E-3  
 2.038000000000000E10   -6.194232827713387E-4  -1.555467431499931E-3  
 2.038200000000000E10   -8.735673924490147E-4  -1.332363211314894E-3  
 2.038400000000000E10   -1.038808714817869E-3  -1.101031457620488E-3  
 2.038600000000000E10   -1.151290033564808E-3  -8.541533773847442E-4  
 2.038800000000000E10   -1.185270274717902E-3  -6.754540621315515E-4  
 2.039000000000000E10   -1.267869388749927E-3  -6.099053822282343E-4  
 2.039200000000000E10   -1.475051602476013E-3  -4.549753119416151E-4  
 2.039400000000000E10   -1.616663720554987E-3  -1.045303282837413E-4  
 2.039600000000000E10   -1.567288013393021E-3   3.011317554861272E-4  
 2.039800000000000E10   -1.374765142106142E-3   5.829823367068972E-4  
 2.040000000000000E10   -1.210977967035447E-3   7.042122401230094E-4  
 2.040200000000000E10   -1.140807075093114E-3   8.524146220118610E-4  
 2.040400000000000E10   -1.016557567646863E-3   1.078864028680184E-3  
 2.040600000000000E10   -8.001208694368112E-4   1.278447341219311E-3  
 2.040800000000000E10   -5.548390421949384E-4   1.406414380923483E-3  
 2.041000000000000E10   -2.851911404173619E-4   1.452160894225887E-3  
 2.041200000000000E10   -8.228699591754196E-5   1.398905835787538E-3  
 2.041400000000000E10    5.039854431500565E-5   1.411123560983424E-3  
 2.041600000000000E10    2.433731483231400E-4   1.489201345724562E-3  
 2.041800000000000E10    5.027192214742643E-4   1.537866752722889E-3  
 2.042000000000000E10    8.317669870424435E-4   1.543874815204337E-3  
 2.042200000000000E10    1.238449593642413E-3   1.418602286443805E-3  
 2.042400000000000E10    1.602917308489029E-3   1.102584204269223E-3  
 2.042600000000000E10    1.814407282904946E-3   7.458616062753771E-4  
 2.042800000000000E10    1.990323141934071E-3   3.800197349151666E-4  
 2.043000000000000E10    2.066607453856510E-3  -1.465872196714527E-4  
 2.043200000000000E10    1.848310642020351E-3  -6.876887970236641E-4  
 2.043400000000000E10    1.455631119459147E-3  -1.015395513151453E-3  
 2.043600000000000E10    1.084416552169700E-3  -1.071765224844379E-3  
 2.043800000000000E10    8.793497214428378E-4  -1.046421216813443E-3  
 2.044000000000000E10    7.171740527984454E-4  -1.037645975989868E-3  
 2.044200000000000E10    6.270934618518213E-4  -9.808362402150207E-4  
 2.044400000000000E10    6.812305760150344E-4  -9.847905377096120E-4  
 2.044600000000000E10    7.829124855509690E-4  -1.186215992922705E-3  
 2.044800000000000E10    7.183826664050185E-4  -1.521813126277782E-3  
 2.045000000000000E10    4.488803693895013E-4  -1.846313219529677E-3  
 2.045200000000000E10    6.348264475834124E-6  -2.062755500671500E-3  
 2.045400000000000E10   -5.276301295355002E-4  -2.092106625271090E-3  
 2.045600000000000E10   -9.734398300928840E-4  -1.884660721827351E-3  
 2.045800000000000E10   -1.265440968649837E-3  -1.638691367004752E-3  
 2.046000000000000E10   -1.530842115827055E-3  -1.438549184641405E-3  
 2.046200000000000E10   -1.810109134774268E-3  -1.199210190731334E-3  
 2.046400000000000E10   -2.101737606079250E-3  -8.684356610652392E-4  
 2.046600000000000E10   -2.319917497630369E-3  -4.035587469756395E-4  
 2.046800000000000E10   -2.331395036590750E-3   1.333857805963071E-4  
 2.047000000000000E10   -2.131318617794527E-3   6.101039200338424E-4  
 2.047200000000000E10   -1.851738927360824E-3   9.059421292541930E-4  
 2.047400000000000E10   -1.649956184972661E-3   1.052000934290468E-3  
 2.047600000000000E10   -1.490805321830829E-3   1.242274286159716E-3  
 2.047800000000000E10   -1.297226790603488E-3   1.419401382913166E-3  
 2.048000000000000E10   -1.130502611979478E-3   1.548295170270308E-3  
 2.048200000000000E10   -1.006948961966470E-3   1.707482694497316E-3  
 2.048400000000000E10   -8.257721556298637E-4   1.991187213376963E-3  
 2.048600000000000E10   -4.690060299409762E-4   2.210566329428689E-3  
 2.048800000000000E10   -8.113989608451462E-5   2.274609530941356E-3  
 2.049000000000000E10    2.775849139806989E-4   2.291804936665782E-3  
 2.049200000000000E10    6.441380261446964E-4   2.258548534205140E-3  
 2.049400000000000E10    9.809024801072956E-4   2.168817014396963E-3  
 2.049600000000000E10    1.317131961440343E-3   2.083141482579245E-3  
 2.049800000000000E10    1.731398832799594E-3   1.939097302823872E-3  
 2.050000000000000E10    2.135831994345082E-3   1.680006754277719E-3  
 2.050200000000000E10    2.526821468073425E-3   1.341108529266516E-3  
 2.050400000000000E10    2.894341083028581E-3   8.583570550584245E-4  
 2.050600000000000E10    3.096698834687856E-3   1.887584611635367E-4  
 2.050800000000000E10    2.992447318706246E-3  -5.162990153262897E-4  
 2.051000000000000E10    2.721316468923367E-3  -1.038765983217500E-3  
 2.051200000000000E10    2.430487563173535E-3  -1.439693576833434E-3  
 2.051400000000000E10    2.095551188635451E-3  -1.769936377015246E-3  
 2.051600000000000E10    1.742259657715635E-3  -1.983666872428814E-3  
 2.051800000000000E10    1.448663197922103E-3  -2.133760081183673E-3  
 2.052000000000000E10    1.177849509396145E-3  -2.299110528890478E-3  
 2.052200000000000E10    9.325503598081172E-4  -2.460712111814664E-3  
 2.052400000000000E10    6.749428143093699E-4  -2.728537491245505E-3  
 2.052600000000000E10    1.877419174282737E-4  -2.997272658421443E-3  
 2.052800000000000E10   -4.411688332779925E-4  -3.065090602205042E-3  
 2.053000000000000E10   -1.003466288242878E-3  -2.939085044719664E-3  
 2.053200000000000E10   -1.518824501312285E-3  -2.718058455815788E-3  
 2.053400000000000E10   -1.951664896357411E-3  -2.405094088176843E-3  
 2.053600000000000E10   -2.303056365842557E-3  -2.084641465841998E-3  
 2.053800000000000E10   -2.664972502298766E-3  -1.720597789005511E-3  
 2.054000000000000E10   -2.992331269965816E-3  -1.267252076446875E-3  
 2.054200000000000E10   -3.283831566848137E-3  -7.378322771883682E-4  
 2.054400000000000E10   -3.407047121366692E-3  -4.200993641339967E-5  
 2.054600000000000E10   -3.293663747435486E-3   6.204615974543080E-4  
 2.054800000000000E10   -3.068938694965005E-3   1.206036958947944E-3  
 2.055000000000000E10   -2.697911974381343E-3   1.703607357198518E-3  
 2.055200000000000E10   -2.268577685790877E-3   2.040954512369238E-3  
 2.055400000000000E10   -1.848950782745215E-3   2.214515615226819E-3  
 2.055600000000000E10   -1.557129333961135E-3   2.288084611007931E-3  
