#  HZ   S   RI   R     50.00 
! Rohde & Schwarz ZVA40 4Ports - Version 3.90 - 1145.1110k42 SN: 100403
! Date: 2023-10-03 10:40:38
! Measurement: S12 
! 
 2.000000000000000E10    2.531540653754058E-3   3.130172985015381E-4  
 2.000200000000000E10    2.487359215066239E-3   5.589211778736829E-5  
 2.000400000000000E10    2.421774578530518E-3  -1.488541169703887E-4  
 2.000600000000000E10    2.519000834184766E-3  -3.045297502661681E-4  
 2.000800000000000E10    2.786612908745449E-3  -6.689191530078673E-4  
 2.001000000000000E10    2.934475157416956E-3  -1.392835543716737E-3  
 2.001200000000000E10    2.615461305400820E-3  -2.253512412506188E-3  
 2.001400000000000E10    1.912501267965314E-3  -2.833179512811460E-3  
 2.001600000000000E10    1.133956919591006E-3  -3.046638056727048E-3  
 2.001800000000000E10    4.638122411665920E-4  -3.025185577221376E-3  
 2.002000000000000E10   -8.925759003561472E-5  -2.850604207349490E-3  
 2.002200000000000E10   -4.896940825213319E-4  -2.586480865483672E-3  
 2.002400000000000E10   -7.028865476076036E-4  -2.406904538838622E-3  
 2.002600000000000E10   -9.456856324168981E-4  -2.381277404368922E-3  
 2.002800000000000E10   -1.383640851677733E-3  -2.389993254270113E-3  
 2.003000000000000E10   -1.984390746505595E-3  -2.138630139995885E-3  
 2.003200000000000E10   -2.400522147948828E-3  -1.567945273306170E-3  
 2.003400000000000E10   -2.518987299721633E-3  -9.704686847091775E-4  
 2.003600000000000E10   -2.485524908668654E-3  -4.827479026441508E-4  
 2.003800000000000E10   -2.395430177312635E-3  -9.795755989191346E-5  
 2.004000000000000E10   -2.291892422872687E-3   2.279790414553767E-4  
 2.004200000000000E10   -2.172716347050612E-3   5.260799042019892E-4  
 2.004400000000000E10   -2.037491717769339E-3   8.069641184233543E-4  
 2.004600000000000E10   -1.889815260380457E-3   1.064847988707502E-3  
 2.004800000000000E10   -1.760800368474030E-3   1.304932268079044E-3  
 2.005000000000000E10   -1.598565490492602E-3   1.599485750257240E-3  
 2.005200000000000E10   -1.345858798762713E-3   1.915260019773588E-3  
 2.005400000000000E10   -9.452626728302445E-4   2.229769112195526E-3  
 2.005600000000000E10   -3.922840480784305E-4   2.323179809263537E-3  
 2.005800000000000E10   -2.827375631181831E-6   2.202125154380731E-3  
 2.006000000000000E10    2.927492905573912E-4   2.133944918535393E-3  
 2.006200000000000E10    6.075099413969780E-4   2.054357908553929E-3  
 2.006400000000000E10    8.828593083242993E-4   1.929494879127821E-3  
 2.006600000000000E10    1.160037854568191E-3   1.839064556812010E-3  
 2.006800000000000E10    1.525646908835221E-3   1.715236951512308E-3  
 2.007000000000000E10    1.920717300747953E-3   1.413215413584272E-3  
 2.007200000000000E10    2.222277462199176E-3   9.613426931061800E-4  
 2.007400000000000E10    2.372979862044316E-3   3.895561830846094E-4  
 2.007600000000000E10    2.241648841642011E-3  -1.682668632396861E-4  
 2.007800000000000E10    1.990894839225959E-3  -4.712821403210743E-4  
 2.008000000000000E10    1.857984861756694E-3  -6.901380401206148E-4  
 2.008200000000000E10    1.757905943274788E-3  -9.456141993665809E-4  
 2.008400000000000E10    1.632878782032068E-3  -1.245346186784222E-3  
 2.008600000000000E10    1.413212227235834E-3  -1.579937295166718E-3  
 2.008800000000000E10    1.048276710284271E-3  -1.829958157728642E-3  
 2.009000000000000E10    6.773351986510845E-4  -1.959768635529504E-3  
 2.009200000000000E10    2.879818876388238E-4  -2.048664715276947E-3  
 2.009400000000000E10   -1.379039428266407E-4  -2.028700111581196E-3  
 2.009600000000000E10   -5.328457140003934E-4  -1.873874231805871E-3  
 2.009800000000000E10   -7.840598289096639E-4  -1.617731434073219E-3  
 2.010000000000000E10   -9.003283132225969E-4  -1.439624225185221E-3  
 2.010200000000000E10   -1.050230252779367E-3  -1.351347812999693E-3  
 2.010400000000000E10   -1.266996523687517E-3  -1.297111182606073E-3  
 2.010600000000000E10   -1.592150309714100E-3  -1.132625416848072E-3  
 2.010800000000000E10   -1.885619548208652E-3  -7.840575863358183E-4  
 2.011000000000000E10   -2.027966488069018E-3  -3.422812427806345E-4  
 2.011200000000000E10   -2.018953266504017E-3   1.117987800954810E-4  
 2.011400000000000E10   -1.889319709495141E-3   4.922076839885339E-4  
 2.011600000000000E10   -1.674854514164520E-3   8.314853056716402E-4  
 2.011800000000000E10   -1.381895393316593E-3   9.948264496369486E-4  
 2.012000000000000E10   -1.241807500869082E-3   1.025183120722324E-3  
 2.012200000000000E10   -1.250578480975031E-3   1.156048739645364E-3  
 2.012400000000000E10   -1.218855865698261E-3   1.470426973219358E-3  
 2.012600000000000E10   -9.625019304879746E-4   1.826349834491774E-3  
 2.012800000000000E10   -5.621733308209428E-4   2.036143383191357E-3  
 2.013000000000000E10   -1.768192110329435E-4   2.132355791525755E-3  
 2.013200000000000E10    2.486117671906350E-4   2.194966203667850E-3  
 2.013400000000000E10    7.256168609917644E-4   2.094262704189284E-3  
 2.013600000000000E10    1.072810188599853E-3   1.869640672684816E-3  
 2.013800000000000E10    1.331821538059605E-3   1.661796988338433E-3  
 2.014000000000000E10    1.567110965793041E-3   1.480761426753373E-3  
 2.014200000000000E10    1.844312449660773E-3   1.336789103819970E-3  
 2.014400000000000E10    2.214205583385533E-3   1.083755888994514E-3  
 2.014600000000000E10    2.580713935270515E-3   6.325463958707180E-4  
 2.014800000000000E10    2.788248241680892E-3  -1.296641491949413E-6  
 2.015000000000000E10    2.737304254473937E-3  -7.160479384476437E-4  
 2.015200000000000E10    2.407043755439694E-3  -1.337549241708817E-3  
 2.015400000000000E10    1.912619252917773E-3  -1.731475281400443E-3  
 2.015600000000000E10    1.471712272132852E-3  -1.859510937444818E-3  
 2.015800000000000E10    1.204428794496419E-3  -1.933714527638828E-3  
 2.016000000000000E10    1.014392642527614E-3  -2.064202507795967E-3  
 2.016200000000000E10    7.961957584334456E-4  -2.266063454545712E-3  
 2.016400000000000E10    4.772424837154554E-4  -2.496818164840275E-3  
 2.016600000000000E10    2.584978322325450E-5  -2.711917315382645E-3  
 2.016800000000000E10   -5.458667367837229E-4  -2.741665776503127E-3  
 2.017000000000000E10   -1.072436709781233E-3  -2.584186573945436E-3  
 2.017200000000000E10   -1.494160143149069E-3  -2.336950152193393E-3  
 2.017400000000000E10   -1.846853733681208E-3  -2.128327680211602E-3  
 2.017600000000000E10   -2.309884243520682E-3  -1.904616678114898E-3  
 2.017800000000000E10   -2.782392334536349E-3  -1.440751573162621E-3  
 2.018000000000000E10   -3.020032350414388E-3  -8.462165389338092E-4  
 2.018200000000000E10   -3.101145299586919E-3  -2.733838421691115E-4  
 2.018400000000000E10   -3.107635484813305E-3   2.632063964384052E-4  
 2.018600000000000E10   -3.025935007625891E-3   7.973262090906385E-4  
 2.018800000000000E10   -2.835580224684027E-3   1.298492162613897E-3  
 2.019000000000000E10   -2.598747087269441E-3   1.732651599022810E-3  
 2.019200000000000E10   -2.318233021192248E-3   2.169146824921934E-3  
 2.019400000000000E10   -1.947820361392299E-3   2.583480386545517E-3  
 2.019600000000000E10   -1.513917623629761E-3   2.929535348925268E-3  
 2.019800000000000E10   -1.015854646908309E-3   3.161859180215635E-3  
 2.020000000000000E10   -5.505996671604297E-4   3.291874346411346E-3  
 2.020200000000000E10   -1.403237167445841E-4   3.452550208037311E-3  
 2.020400000000000E10    4.265620024808865E-4   3.728930991980967E-3  
 2.020600000000000E10    1.289981617238824E-3   3.860551091053033E-3  
 2.020800000000000E10    2.282427334962961E-3   3.585171401037303E-3  
 2.021000000000000E10    3.099309285518394E-3   2.851524594848290E-3  
 2.021200000000000E10    3.453458281055677E-3   1.979957933046647E-3  
 2.021400000000000E10    3.540386503379916E-3   1.262968285009186E-3  
 2.021600000000000E10    3.537834682932666E-3   7.066429228418808E-4  
 2.021800000000000E10    3.530729371633689E-3   2.738386350556544E-4  
 2.022000000000000E10    3.615245977326016E-3  -1.576365244230342E-4  
 2.022200000000000E10    3.731470423027137E-3  -7.195634293485119E-4  
 2.022400000000000E10    3.723980345142446E-3  -1.467483547366025E-3  
 2.022600000000000E10    3.414351223203375E-3  -2.246482471553037E-3  
 2.022800000000000E10    2.893762105060284E-3  -2.909103377047605E-3  
 2.023000000000000E10    2.213313026359315E-3  -3.406107681868203E-3  
 2.023200000000000E10    1.464366699512173E-3  -3.680367115877397E-3  
 2.023400000000000E10    7.431442348832850E-4  -3.789407657728660E-3  
 2.023600000000000E10    8.994312407798887E-5  -3.745552471965046E-3  
 2.023800000000000E10   -5.186307622581913E-4  -3.592614522251085E-3  
 2.024000000000000E10   -1.022748086943861E-3  -3.331256765313637E-3  
 2.024200000000000E10   -1.345793413259681E-3  -3.051555022821371E-3  
 2.024400000000000E10   -1.624455490443766E-3  -2.894211309725621E-3  
 2.024600000000000E10   -1.999433238614683E-3  -2.800661648377467E-3  
 2.024800000000000E10   -2.497220846591804E-3  -2.595933776318008E-3  
 2.025000000000000E10   -3.002298263173790E-3  -2.258051919182959E-3  
 2.025200000000000E10   -3.502653537058367E-3  -1.769843497871258E-3  
 2.025400000000000E10   -3.898478803955140E-3  -1.107028967403643E-3  
 2.025600000000000E10   -4.115185698928717E-3  -3.160456901084811E-4  
 2.025800000000000E10   -4.102407971172839E-3   5.234801941252919E-4  
 2.026000000000000E10   -3.873445660355817E-3   1.283176615495970E-3  
 2.026200000000000E10   -3.523252441899488E-3   1.939399415630529E-3  
 2.026400000000000E10   -3.075924291670148E-3   2.492653977528687E-3  
 2.026600000000000E10   -2.520304221129465E-3   2.971328214972679E-3  
 2.026800000000000E10   -1.867184211163001E-3   3.281552769588782E-3  
 2.027000000000000E10   -1.225090639600527E-3   3.422609089740709E-3  
 2.027200000000000E10   -6.318357144286687E-4   3.402112269870563E-3  
 2.027400000000000E10   -1.870899878627777E-4   3.280529263870129E-3  
 2.027600000000000E10    1.329032577359686E-4   3.215039237480986E-3  
 2.027800000000000E10    4.326834201098789E-4   3.296520005517439E-3  
 2.028000000000000E10    9.426605648673236E-4   3.425162057319652E-3  
 2.028200000000000E10    1.618695756556450E-3   3.382343508745382E-3  
 2.028400000000000E10    2.367256348900253E-3   3.109186616391207E-3  
 2.028600000000000E10    3.025298915571819E-3   2.542590561150766E-3  
 2.028800000000000E10    3.421126581431969E-3   1.796763822726365E-3  
 2.029000000000000E10    3.575902315984465E-3   1.029084426917438E-3  
 2.029200000000000E10    3.501015322395247E-3   3.177193889637021E-4  
 2.029400000000000E10    3.243620950412486E-3  -1.966015775456102E-4  
 2.029600000000000E10    3.046266647439452E-3  -5.236828126556593E-4  
 2.029800000000000E10    2.963111430996967E-3  -8.149198900616369E-4  
 2.030000000000000E10    2.877121205797206E-3  -1.167466101918219E-3  
 2.030200000000000E10    2.783515766806204E-3  -1.533983092929336E-3  
 2.030400000000000E10    2.699334049553736E-3  -2.016482556742726E-3  
 2.030600000000000E10    2.424011610217007E-3  -2.650483799911297E-3  
 2.030800000000000E10    1.813517038849932E-3  -3.203083456974449E-3  
 2.031000000000000E10    1.062855795765762E-3  -3.441486950938474E-3  
 2.031200000000000E10    3.720252887282787E-4  -3.441238299132740E-3  
 2.031400000000000E10   -2.163195538482955E-4  -3.318155285214365E-3  
 2.031600000000000E10   -6.955081060976535E-4  -3.129741190401061E-3  
 2.031800000000000E10   -1.073379645486987E-3  -2.913062098316978E-3  
 2.032000000000000E10   -1.433872387783570E-3  -2.702431169469533E-3  
 2.032200000000000E10   -1.767623218752885E-3  -2.458168701570864E-3  
 2.032400000000000E10   -2.067200151539628E-3  -2.203562527082070E-3  
 2.032600000000000E10   -2.382983983722284E-3  -1.945017497435453E-3  
 2.032800000000000E10   -2.687072324353886E-3  -1.628183873567569E-3  
 2.033000000000000E10   -2.983950525294975E-3  -1.241276378119115E-3  
 2.033200000000000E10   -3.222154324549831E-3  -7.486745587960470E-4  
 2.033400000000000E10   -3.371742420388327E-3  -2.376419972469223E-4  
 2.033600000000000E10   -3.497093697062554E-3  -1.343360236108079E-5  
 2.033800000000000E10   -3.513968948422061E-3   1.011568761976188E-3  
 2.034000000000000E10   -3.303442806870375E-3   1.794322274067494E-3  
 2.034200000000000E10   -2.802430108793817E-3   2.488095215948133E-3  
 2.034400000000000E10   -2.118094429151153E-3   2.927982062893383E-3  
 2.034600000000000E10   -1.449609723116600E-3   3.140266633648199E-3  
 2.034800000000000E10   -8.055323763117126E-4   3.187741179691982E-3  
 2.035000000000000E10   -2.369451333388623E-4   3.070851497839465E-3  
 2.035200000000000E10    1.666084917007778E-4   2.850265955715339E-3  
 2.035400000000000E10    3.897861923306800E-4   2.680159065109075E-3  
 2.035600000000000E10    5.393531420763203E-4   2.695330158279043E-3  
 2.035800000000000E10    8.812622638408065E-4   2.856611575441705E-3  
 2.036000000000000E10    1.453899704708323E-3   2.899847660467804E-3  
 2.036200000000000E10    2.133657190587942E-3   2.719839842510915E-3  
 2.036400000000000E10    2.753836589177301E-3   2.272005177647551E-3  
 2.036600000000000E10    3.195598688330815E-3   1.669280985912293E-3  
 2.036800000000000E10    3.484822408513597E-3   9.771599768593374E-4  
 2.037000000000000E10    3.569175642337175E-3   2.009347999009856E-4  
 2.037200000000000E10    3.401142724013585E-3  -4.901815892251817E-4  
 2.037400000000000E10    3.161398381286889E-3  -1.024755253168343E-3  
 2.037600000000000E10    2.906161435323854E-3  -1.492328132462611E-3  
 2.037800000000000E10    2.597656710168574E-3  -1.940933663417249E-3  
 2.038000000000000E10    2.206717016502460E-3  -2.337179494490825E-3  
 2.038200000000000E10    1.767290473633051E-3  -2.651823368725576E-3  
 2.038400000000000E10    1.297639772259219E-3  -2.890517310570870E-3  
 2.038600000000000E10    8.098631519647350E-4  -3.039853676617142E-3  
 2.038800000000000E10    3.336358010849107E-4  -3.161069651099504E-3  
 2.039000000000000E10   -2.330369149921541E-4  -3.292308413388057E-3  
 2.039200000000000E10   -9.386321144186088E-4  -3.250103243820414E-3  
 2.039400000000000E10   -1.616911740416898E-3  -2.950786247374765E-3  
 2.039600000000000E10   -2.117378109891436E-3  -2.494217684457708E-3  
 2.039800000000000E10   -2.454359243360326E-3  -2.029711689136439E-3  
 2.040000000000000E10   -2.747185716496495E-3  -1.580630260593849E-3  
 2.040200000000000E10   -3.029717880360984E-3  -1.085680673293214E-3  
 2.040400000000000E10   -3.218451788469068E-3  -4.460608558457080E-4  
 2.040600000000000E10   -3.169078302097584E-3   2.556363258799568E-4  
 2.040800000000000E10   -2.926709157670086E-3   8.433678059539776E-4  
 2.041000000000000E10   -2.601796192032394E-3   1.252035616236002E-3  
 2.041200000000000E10   -2.352501685222218E-3   1.530611774494001E-3  
 2.041400000000000E10   -2.181131843347029E-3   1.881713139931848E-3  
 2.041600000000000E10   -1.912782486539206E-3   2.306985474051707E-3  
 2.041800000000000E10   -1.502529943348785E-3   2.714272762510376E-3  
 2.042000000000000E10   -9.705061712741230E-4   3.075536275307248E-3  
 2.042200000000000E10   -2.746225647586817E-4   3.296986296185397E-3  
 2.042400000000000E10    4.859082317825328E-4   3.258908481317211E-3  
 2.042600000000000E10    1.156558338498896E-3   3.042229936649168E-3  
 2.042800000000000E10    1.800116311520026E-3   2.675070972691407E-3  
 2.043000000000000E10    2.277543346571112E-3   2.062727392274728E-3  
 2.043200000000000E10    2.432242122129585E-3   1.425414091966838E-3  
 2.043400000000000E10    2.411926803715186E-3   9.544889834122554E-4  
 2.043600000000000E10    2.383614770501965E-3   6.217585614534850E-4  
 2.043800000000000E10    2.399256405278200E-3   3.324485602964458E-4  
 2.044000000000000E10    2.415479957971103E-3   5.009578297022770E-5  
 2.044200000000000E10    2.479783252122610E-3  -2.154121432024487E-4  
 2.044400000000000E10    2.606965501024609E-3  -6.007108486983458E-4  
 2.044600000000000E10    2.657675074979527E-3  -1.160040596233017E-3  
 2.044800000000000E10    2.475344853532789E-3  -1.831219489779457E-3  
 2.045000000000000E10    2.018137342246227E-3  -2.441769227197389E-3  
 2.045200000000000E10    1.383369364037551E-3  -2.830495257097528E-3  
 2.045400000000000E10    7.106644826140367E-4  -2.977155096047690E-3  
 2.045600000000000E10    1.276154811731234E-4  -2.952274685760714E-3  
 2.045800000000000E10   -3.373043637205916E-4  -2.879458337017698E-3  
 2.046000000000000E10   -7.781908841403056E-4  -2.804643712840754E-3  
 2.046200000000000E10   -1.272983412085631E-3  -2.723480011574059E-3  
 2.046400000000000E10   -1.877017295667927E-3  -2.500118297813517E-3  
 2.046600000000000E10   -2.413069276604773E-3  -2.004109915294252E-3  
 2.046800000000000E10   -2.713691600913785E-3  -1.344878410476794E-3  
 2.047000000000000E10   -2.724171548601198E-3  -7.508575718022511E-4  
 2.047200000000000E10   -2.653847843315733E-3  -3.468050656151864E-4  
 2.047400000000000E10   -2.659906690947548E-3  -2.799984388426666E-6  
 2.047600000000000E10   -2.651978703794114E-3   4.072581447508264E-4  
 2.047800000000000E10   -2.563688608970302E-3   8.041227913666037E-4  
 2.048000000000000E10   -2.459795540983605E-3   1.178777267426140E-3  
 2.048200000000000E10   -2.345212986162987E-3   1.595504462061705E-3  
 2.048400000000000E10   -2.100306687845750E-3   2.112304366695853E-3  
 2.048600000000000E10   -1.619955230666343E-3   2.548928957058014E-3  
 2.048800000000000E10   -1.068133408245475E-3   2.780453336952058E-3  
 2.049000000000000E10   -5.723908769534199E-4   2.870352452487594E-3  
 2.049200000000000E10   -1.010727038614004E-4   2.897657884737438E-3  
 2.049400000000000E10    3.300210644432581E-4   2.909773767348433E-3  
 2.049600000000000E10    7.831035625537335E-4   2.906613498100007E-3  
 2.049800000000000E10    1.300215643025967E-3   2.841737841686377E-3  
 2.050000000000000E10    1.844387700637090E-3   2.677356831416114E-3  
 2.050200000000000E10    2.425188737417871E-3   2.401092484302952E-3  
 2.050400000000000E10    3.033035580810470E-3   1.880008948793442E-3  
 2.050600000000000E10    3.429903357486940E-3   1.081870391004426E-3  
 2.050800000000000E10    3.447896125612888E-3   2.379640283739150E-4  
 2.051000000000000E10    3.220016272980176E-3  -4.137500325152875E-4  
 2.051200000000000E10    2.948122279955005E-3  -8.985846030199625E-4  
 2.051400000000000E10    2.658000562295243E-3  -1.284367716243195E-3  
 2.051600000000000E10    2.371956639105886E-3  -1.547463857619376E-3  
 2.051800000000000E10    2.175302309744350E-3  -1.765178976547899E-3  
 2.052000000000000E10    2.009566826362608E-3  -2.046842166205842E-3  
 2.052200000000000E10    1.797100162061951E-3  -2.396206060571292E-3  
 2.052400000000000E10    1.474390949458891E-3  -2.830364576734633E-3  
 2.052600000000000E10    9.160969212815508E-4  -3.225463496116164E-3  
 2.052800000000000E10    2.188254440830677E-4  -3.350899180383867E-3  
 2.053000000000000E10   -3.834137546018365E-4  -3.293020291413356E-3  
 2.053200000000000E10   -9.334590173833524E-4  -3.203735029568210E-3  
 2.053400000000000E10   -1.475513796691157E-3  -3.026696319046837E-3  
 2.053600000000000E10   -1.998879392802908E-3  -2.781185528469973E-3  
 2.053800000000000E10   -2.513395231798030E-3  -2.422254665642031E-3  
 2.054000000000000E10   -2.926610760430074E-3  -1.931803433320073E-3  
 2.054200000000000E10   -3.287996694144649E-3  -1.376718195935898E-3  
 2.054400000000000E10   -3.532277654891261E-3  -6.689552397787916E-4  
 2.054600000000000E10   -3.547400312512387E-3   4.565299369690308E-5  
 2.054800000000000E10   -3.423087651095433E-3   7.299713406809415E-4  
 2.055000000000000E10   -3.122340528577423E-3   1.367485666226854E-3  
 2.055200000000000E10   -2.658218802813956E-3   1.838600220177379E-3  
 2.055400000000000E10   -2.196920699669866E-3   2.070437109622981E-3  
 2.055600000000000E10   -1.887183319243964E-3   2.171496489775650E-3  
