#  HZ   S   RI   R     50.00 
! Rohde & Schwarz ZVA40 4Ports - Version 3.90 - 1145.1110k42 SN: 100403
! Date: 2023-10-03 10:41:15
! Measurement: S12 
! 
 2.000000000000000E10    2.412884254698401E-3   6.131819401936675E-4  
 2.000200000000000E10    2.458345395064465E-3   3.478504529791988E-4  
 2.000400000000000E10    2.457622145475061E-3   1.386912535289647E-4  
 2.000600000000000E10    2.622387466814231E-3   2.179505288411177E-6  
 2.000800000000000E10    2.986178819642023E-3  -3.704691976222590E-4  
 2.001000000000000E10    3.209688580008569E-3  -1.157354832954567E-3  
 2.001200000000000E10    2.907638964070767E-3  -2.113091755072000E-3  
 2.001400000000000E10    2.182180441364094E-3  -2.746542863961724E-3  
 2.001600000000000E10    1.393070759217221E-3  -3.010711417085043E-3  
 2.001800000000000E10    7.197658608977994E-4  -3.031014852846663E-3  
 2.002000000000000E10    1.804482111496057E-4  -2.923244282741238E-3  
 2.002200000000000E10   -2.747349316012805E-4  -2.747256231183807E-3  
 2.002400000000000E10   -5.620611428403883E-4  -2.592915220669022E-3  
 2.002600000000000E10   -8.468315850391434E-4  -2.550038112396444E-3  
 2.002800000000000E10   -1.274090963070867E-3  -2.540297590679041E-3  
 2.003000000000000E10   -1.850118718316986E-3  -2.297110864202734E-3  
 2.003200000000000E10   -2.252045389333809E-3  -1.768580956936435E-3  
 2.003400000000000E10   -2.406551131840658E-3  -1.238503489056947E-3  
 2.003600000000000E10   -2.456540034876930E-3  -8.000750827637536E-4  
 2.003800000000000E10   -2.474168134439323E-3  -4.257755063008517E-4  
 2.004000000000000E10   -2.483021562781047E-3  -4.623818596074767E-5  
 2.004200000000000E10   -2.426444906396447E-3   3.531794643128740E-4  
 2.004400000000000E10   -2.291188428730325E-3   7.098293475185833E-4  
 2.004600000000000E10   -2.143796248775390E-3   9.904380939486956E-4  
 2.004800000000000E10   -2.039588780866729E-3   1.260221116589727E-3  
 2.005000000000000E10   -1.889058863054271E-3   1.596848493338459E-3  
 2.005200000000000E10   -1.630007259168283E-3   1.977274215918172E-3  
 2.005400000000000E10   -1.191037694095738E-3   2.361604702417498E-3  
 2.005600000000000E10   -5.863241428785302E-4   2.490043959200934E-3  
 2.005800000000000E10   -1.605068930614463E-4   2.385397415815129E-3  
 2.006000000000000E10    1.638295531544524E-4   2.343781602879365E-3  
 2.006200000000000E10    5.241867178550888E-4   2.274942006570874E-3  
 2.006400000000000E10    8.365726852961990E-4   2.163491082481212E-3  
 2.006600000000000E10    1.121996104268840E-3   2.087874053460029E-3  
 2.006800000000000E10    1.503382378292305E-3   2.013318473473191E-3  
 2.007000000000000E10    1.971142159567939E-3   1.774690907310557E-3  
 2.007200000000000E10    2.419710280028759E-3   1.321238297451702E-3  
 2.007400000000000E10    2.706353199081841E-3   6.822963111550996E-4  
 2.007600000000000E10    2.672105441214862E-3   7.577498359346939E-6  
 2.007800000000000E10    2.462717256060353E-3  -4.654965849584660E-4  
 2.008000000000000E10    2.263684782923924E-3  -8.388870650109043E-4  
 2.008200000000000E10    2.054368413087947E-3  -1.187182990920351E-3  
 2.008400000000000E10    1.834251512600868E-3  -1.503356292636858E-3  
 2.008600000000000E10    1.536996935977152E-3  -1.816321785251300E-3  
 2.008800000000000E10    1.141880871728063E-3  -2.031414916186973E-3  
 2.009000000000000E10    7.661523500077979E-4  -2.164439600030030E-3  
 2.009200000000000E10    3.481541255799433E-4  -2.298130912499296E-3  
 2.009400000000000E10   -1.359086573184296E-4  -2.329057712038910E-3  
 2.009600000000000E10   -6.248369636186572E-4  -2.176375706093731E-3  
 2.009800000000000E10   -9.520780963443772E-4  -1.885298079017688E-3  
 2.010000000000000E10   -1.120360831178173E-3  -1.660880378309500E-3  
 2.010200000000000E10   -1.330793874027828E-3  -1.529696992494994E-3  
 2.010400000000000E10   -1.605707837303204E-3  -1.400343349410428E-3  
 2.010600000000000E10   -1.941941691459053E-3  -1.141517996546571E-3  
 2.010800000000000E10   -2.210981729957793E-3  -6.909079534967466E-4  
 2.011000000000000E10   -2.299562907191339E-3  -1.460921829911294E-4  
 2.011200000000000E10   -2.198125528930514E-3   3.584799261362707E-4  
 2.011400000000000E10   -1.992967221196051E-3   7.524460034565657E-4  
 2.011600000000000E10   -1.708244046851717E-3   1.065748265116579E-3  
 2.011800000000000E10   -1.370585277780063E-3   1.213090701235666E-3  
 2.012000000000000E10   -1.205452829944315E-3   1.240007432729558E-3  
 2.012200000000000E10   -1.181655442687097E-3   1.353704551648763E-3  
 2.012400000000000E10   -1.095486119286054E-3   1.646105726077049E-3  
 2.012600000000000E10   -7.891765627492634E-4   1.956693164107425E-3  
 2.012800000000000E10   -3.800396591907851E-4   2.081948987863683E-3  
 2.013000000000000E10   -5.763184903857854E-5   2.143599502569824E-3  
 2.013200000000000E10    3.218510850004991E-4   2.250841128881331E-3  
 2.013400000000000E10    8.256388504782486E-4   2.211015688738337E-3  
 2.013600000000000E10    1.259181842518350E-3   1.998239472784378E-3  
 2.013800000000000E10    1.589724341303938E-3   1.722415857430962E-3  
 2.014000000000000E10    1.856257509509171E-3   1.462958899706050E-3  
 2.014200000000000E10    2.119493851852086E-3   1.218343395049925E-3  
 2.014400000000000E10    2.451578137913236E-3   8.688382804393769E-4  
 2.014600000000000E10    2.716249199929061E-3   3.426979092182592E-4  
 2.014800000000000E10    2.803337579179142E-3  -2.887050052069956E-4  
 2.015000000000000E10    2.679431319443716E-3  -9.339365448492269E-4  
 2.015200000000000E10    2.353373112984830E-3  -1.497735472016589E-3  
 2.015400000000000E10    1.886117410052706E-3  -1.879691370521431E-3  
 2.015600000000000E10    1.419799997367793E-3  -2.051535812723968E-3  
 2.015800000000000E10    1.091736899171439E-3  -2.123974022214060E-3  
 2.016000000000000E10    8.442629327031750E-4  -2.196222397119359E-3  
 2.016200000000000E10    6.023355095681770E-4  -2.339986678971737E-3  
 2.016400000000000E10    2.887687603813700E-4  -2.524449127829738E-3  
 2.016600000000000E10   -1.692285597393358E-4  -2.715231428198793E-3  
 2.016800000000000E10   -7.720479592939633E-4  -2.745003172161955E-3  
 2.017000000000000E10   -1.335072878713685E-3  -2.529916310406946E-3  
 2.017200000000000E10   -1.731830213598355E-3  -2.192974927041818E-3  
 2.017400000000000E10   -2.005344054109797E-3  -1.899194731204598E-3  
 2.017600000000000E10   -2.382179058191401E-3  -1.677161539663320E-3  
 2.017800000000000E10   -2.814094949927595E-3  -1.231752952595276E-3  
 2.018000000000000E10   -3.017675976648375E-3  -6.328583845903201E-4  
 2.018200000000000E10   -3.054239666434350E-3  -6.346567641702240E-5  
 2.018400000000000E10   -2.998199262138871E-3   4.566787166469214E-4  
 2.018600000000000E10   -2.891005603251634E-3   9.719288252570011E-4  
 2.018800000000000E10   -2.655718742904288E-3   1.447683234733564E-3  
 2.019000000000000E10   -2.392220017672689E-3   1.803933190078371E-3  
 2.019200000000000E10   -2.093357672156008E-3   2.144372388203111E-3  
 2.019400000000000E10   -1.794938825898701E-3   2.481094173466166E-3  
 2.019600000000000E10   -1.435773447155953E-3   2.840952766645286E-3  
 2.019800000000000E10   -9.522465083541144E-4   3.082608243588497E-3  
 2.020000000000000E10   -4.783103547567778E-4   3.222177339786733E-3  
 2.020200000000000E10   -3.977185028984592E-5   3.371283110162175E-3  
 2.020400000000000E10    5.280990897315659E-4   3.603953083425209E-3  
 2.020600000000000E10    1.356926979497075E-3   3.685073909798155E-3  
 2.020800000000000E10    2.287738344252662E-3   3.449425558318143E-3  
 2.021000000000000E10    3.086766555767369E-3   2.761046290052710E-3  
 2.021200000000000E10    3.458588418585283E-3   1.892351588510253E-3  
 2.021400000000000E10    3.563599169461264E-3   1.164908749396327E-3  
 2.021600000000000E10    3.528466448187829E-3   5.644357982048489E-4  
 2.021800000000000E10    3.459785788975381E-3   1.038926474629315E-4  
 2.022000000000000E10    3.472435305377952E-3  -2.897005027383178E-4  
 2.022200000000000E10    3.592163169135651E-3  -8.130671232248899E-4  
 2.022400000000000E10    3.575131711032656E-3  -1.554050267225615E-3  
 2.022600000000000E10    3.259238045386695E-3  -2.307132214169812E-3  
 2.022800000000000E10    2.739788800546969E-3  -2.932451717141602E-3  
 2.023000000000000E10    2.057155318282269E-3  -3.386339621135483E-3  
 2.023200000000000E10    1.330876365062539E-3  -3.635881278939822E-3  
 2.023400000000000E10    6.336572394637322E-4  -3.710618242621422E-3  
 2.023600000000000E10   -8.779553118748250E-6  -3.656363425155481E-3  
 2.023800000000000E10   -6.225216827631273E-4  -3.486351334248429E-3  
 2.024000000000000E10   -1.146520876015226E-3  -3.198183693543629E-3  
 2.024200000000000E10   -1.500073949702912E-3  -2.874035189894063E-3  
 2.024400000000000E10   -1.767394607196804E-3  -2.634147992702546E-3  
 2.024600000000000E10   -2.095626003143412E-3  -2.453335077950248E-3  
 2.024800000000000E10   -2.438575244957099E-3  -2.204158386491515E-3  
 2.025000000000000E10   -2.816552813682292E-3  -1.898060759736432E-3  
 2.025200000000000E10   -3.222955192473753E-3  -1.477642911831262E-3  
 2.025400000000000E10   -3.534241743316806E-3  -9.179483900812490E-4  
 2.025600000000000E10   -3.713486440203809E-3  -2.255971830217513E-4  
 2.025800000000000E10   -3.686323141058286E-3   5.112981954072085E-4  
 2.026000000000000E10   -3.498441065420156E-3   1.177622410641224E-3  
 2.026200000000000E10   -3.206814044258661E-3   1.768285201655494E-3  
 2.026400000000000E10   -2.834413036773051E-3   2.295374223548505E-3  
 2.026600000000000E10   -2.344123320654035E-3   2.753287614150732E-3  
 2.026800000000000E10   -1.724653976486513E-3   3.053195757308492E-3  
 2.027000000000000E10   -1.118692215876999E-3   3.166907941232677E-3  
 2.027200000000000E10   -5.892380862927962E-4   3.121590638464248E-3  
 2.027400000000000E10   -2.092639101815790E-4   3.005770785320137E-3  
 2.027600000000000E10    6.450347589432364E-5   2.949868354739415E-3  
 2.027800000000000E10    3.598306804498727E-4   3.043648536765466E-3  
 2.028000000000000E10    8.515487058536599E-4   3.164980474307582E-3  
 2.028200000000000E10    1.505182719685965E-3   3.120815821198954E-3  
 2.028400000000000E10    2.189000232007217E-3   2.835710679560349E-3  
 2.028600000000000E10    2.739105192530487E-3   2.298044722044358E-3  
 2.028800000000000E10    3.065768637935873E-3   1.639240223017556E-3  
 2.029000000000000E10    3.197629159937303E-3   1.014383214405152E-3  
 2.029200000000000E10    3.154791141342786E-3   4.211054921917688E-4  
 2.029400000000000E10    2.967606272755398E-3  -1.351695736620630E-5  
 2.029600000000000E10    2.842653689354107E-3  -3.156893696911909E-4  
 2.029800000000000E10    2.814854995382054E-3  -6.263834417310406E-4  
 2.030000000000000E10    2.757736878400600E-3  -1.024618981992481E-3  
 2.030200000000000E10    2.644083574759188E-3  -1.403394435463404E-3  
 2.030400000000000E10    2.539717678532557E-3  -1.827459773738627E-3  
 2.030600000000000E10    2.276469483385208E-3  -2.398799380494489E-3  
 2.030800000000000E10    1.737101469188929E-3  -2.898570564058092E-3  
 2.031000000000000E10    1.092693177741711E-3  -3.122620344920843E-3  
 2.031200000000000E10    4.786015234896225E-4  -3.121607367777163E-3  
 2.031400000000000E10   -4.207035494295674E-5  -2.999216404364066E-3  
 2.031600000000000E10   -4.249868593264924E-4  -2.842108149909311E-3  
 2.031800000000000E10   -7.500964134966059E-4  -2.702871294416212E-3  
 2.032000000000000E10   -1.096088352992579E-3  -2.570521051960963E-3  
 2.032200000000000E10   -1.397051262082877E-3  -2.401479373306588E-3  
 2.032400000000000E10   -1.688994885491276E-3  -2.220872315336709E-3  
 2.032600000000000E10   -2.010439742460019E-3  -2.036488028588119E-3  
 2.032800000000000E10   -2.355931844148371E-3  -1.807958206713752E-3  
 2.033000000000000E10   -2.697470572052731E-3  -1.482246478122694E-3  
 2.033200000000000E10   -2.963389088917110E-3  -1.048893154667760E-3  
 2.033400000000000E10   -3.158418910094986E-3  -6.210283328848030E-4  
 2.033600000000000E10   -3.364600448144807E-3  -4.413163955582099E-4  
 2.033800000000000E10   -3.546486600060706E-3   6.222711893281452E-4  
 2.034000000000000E10   -3.411571133053965E-3   1.462179533619848E-3  
 2.034200000000000E10   -2.945874455488391E-3   2.187885275041616E-3  
 2.034400000000000E10   -2.294106784069704E-3   2.665009323714509E-3  
 2.034600000000000E10   -1.683937536587042E-3   2.893860857174905E-3  
 2.034800000000000E10   -1.097825614528524E-3   2.996503194380138E-3  
 2.035000000000000E10   -5.633465587851351E-4   2.952935700132340E-3  
 2.035200000000000E10   -1.761129673535901E-4   2.813701060842033E-3  
 2.035400000000000E10    6.735213806947563E-5   2.706296353911361E-3  
 2.035600000000000E10    2.618406045561036E-4   2.743496611300442E-3  
 2.035800000000000E10    5.926008021493478E-4   2.932809810671542E-3  
 2.036000000000000E10    1.169973660984801E-3   3.047260800721470E-3  
 2.036200000000000E10    1.901726104767511E-3   2.896650677063951E-3  
 2.036400000000000E10    2.563027173487677E-3   2.486760003699197E-3  
 2.036600000000000E10    3.044915420037730E-3   1.907824198025520E-3  
 2.036800000000000E10    3.364008842725997E-3   1.234256858609755E-3  
 2.037000000000000E10    3.496271532235875E-3   4.859715161189713E-4  
 2.037200000000000E10    3.398796577972395E-3  -1.856563552185739E-4  
 2.037400000000000E10    3.212327051355883E-3  -7.627591042330973E-4  
 2.037600000000000E10    2.964902669191361E-3  -1.272577343991509E-3  
 2.037800000000000E10    2.672732583488579E-3  -1.698571382331903E-3  
 2.038000000000000E10    2.326854194204013E-3  -2.078199845359282E-3  
 2.038200000000000E10    1.933327996758400E-3  -2.428295427105493E-3  
 2.038400000000000E10    1.488804661979278E-3  -2.697282617359802E-3  
 2.038600000000000E10    1.044083332763640E-3  -2.828798644865553E-3  
 2.038800000000000E10    6.708763130181641E-4  -2.976114671953299E-3  
 2.039000000000000E10    1.936275285616931E-4  -3.194954996514652E-3  
 2.039200000000000E10   -4.638603056298087E-4  -3.269917159168809E-3  
 2.039400000000000E10   -1.148677978630143E-3  -3.116502978459553E-3  
 2.039600000000000E10   -1.712796498193509E-3  -2.822418300503934E-3  
 2.039800000000000E10   -2.175664839645227E-3  -2.443574110252990E-3  
 2.040000000000000E10   -2.601499807227541E-3  -2.006133656120963E-3  
 2.040200000000000E10   -2.977209941794476E-3  -1.489194631749005E-3  
 2.040400000000000E10   -3.212403721624503E-3  -8.313750451499665E-4  
 2.040600000000000E10   -3.226538714780300E-3  -1.413666554812893E-4  
 2.040800000000000E10   -3.067846108158982E-3   4.515578739638269E-4  
 2.041000000000000E10   -2.817770043663957E-3   8.831823792274078E-4  
 2.041200000000000E10   -2.639707936732858E-3   1.211952926866986E-3  
 2.041400000000000E10   -2.546242438256741E-3   1.618225058471715E-3  
 2.041600000000000E10   -2.334029948407854E-3   2.112362525184398E-3  
 2.041800000000000E10   -1.961724789537214E-3   2.612398299216121E-3  
 2.042000000000000E10   -1.443809238952343E-3   3.114554970697673E-3  
 2.042200000000000E10   -6.993814809161617E-4   3.430541690990881E-3  
 2.042400000000000E10    1.302564190458119E-4   3.445366449240182E-3  
 2.042600000000000E10    8.523882263236577E-4   3.262317161662160E-3  
 2.042800000000000E10    1.496566709613911E-3   2.946153783273918E-3  
 2.043000000000000E10    2.010156961019945E-3   2.429379909126847E-3  
 2.043200000000000E10    2.282125021641453E-3   1.874484130422826E-3  
 2.043400000000000E10    2.384828903746826E-3   1.427853001385100E-3  
 2.043600000000000E10    2.467124334846934E-3   1.081851129937503E-3  
 2.043800000000000E10    2.607389560176267E-3   7.229908606623887E-4  
 2.044000000000000E10    2.658906987764769E-3   3.413031636564820E-4  
 2.044200000000000E10    2.708077551452099E-3   2.403111473001811E-5  
 2.044400000000000E10    2.843373644821070E-3  -3.724346725330517E-4  
 2.044600000000000E10    2.945447521698144E-3  -9.467137947299140E-4  
 2.044800000000000E10    2.808363090648696E-3  -1.655921659052924E-3  
 2.045000000000000E10    2.391007263213396E-3  -2.333881454197345E-3  
 2.045200000000000E10    1.796653770186283E-3  -2.797189332475817E-3  
 2.045400000000000E10    1.162569215348749E-3  -3.020581935911819E-3  
 2.045600000000000E10    5.761622580596142E-4  -3.113883581978304E-3  
 2.045800000000000E10    3.511158865876489E-5  -3.160410759004730E-3  
 2.046000000000000E10   -5.147830902219371E-4  -3.135374186698486E-3  
 2.046200000000000E10   -1.100284711423296E-3  -3.032861415434767E-3  
 2.046400000000000E10   -1.740811276249588E-3  -2.796126003549607E-3  
 2.046600000000000E10   -2.306213481696668E-3  -2.310857116417201E-3  
 2.046800000000000E10   -2.623397977677761E-3  -1.669770067868134E-3  
 2.047000000000000E10   -2.689637718032356E-3  -1.126516446540201E-3  
 2.047200000000000E10   -2.709418035077829E-3  -7.585151028319229E-4  
 2.047400000000000E10   -2.818097006874504E-3  -4.094400947333607E-4  
 2.047600000000000E10   -2.914690429827681E-3   4.704662380929766E-5  
 2.047800000000000E10   -2.889618846691317E-3   5.133527673832660E-4  
 2.048000000000000E10   -2.804015357806175E-3   9.578816502148081E-4  
 2.048200000000000E10   -2.724524699496451E-3   1.427271765553290E-3  
 2.048400000000000E10   -2.540125761664024E-3   2.010199362067161E-3  
 2.048600000000000E10   -2.090630966618105E-3   2.540871475098862E-3  
 2.048800000000000E10   -1.539019363311430E-3   2.884485370789966E-3  
 2.049000000000000E10   -1.015305143987967E-3   3.084829016761096E-3  
 2.049200000000000E10   -4.930893709469172E-4   3.208457638889000E-3  
 2.049400000000000E10    1.167676929172661E-5   3.291547255314611E-3  
 2.049600000000000E10    5.417903475635859E-4   3.360796098907789E-3  
 2.049800000000000E10    1.176809258241620E-3   3.346144316580009E-3  
 2.050000000000000E10    1.879533024125354E-3   3.161277708218054E-3  
 2.050200000000000E10    2.572522912588385E-3   2.812462332830937E-3  
 2.050400000000000E10    3.213679668045155E-3   2.227149981384477E-3  
 2.050600000000000E10    3.627881821658877E-3   1.395520495457782E-3  
 2.050800000000000E10    3.698431593538435E-3   5.335067159009028E-4  
 2.051000000000000E10    3.544499416387192E-3  -1.429705426508682E-4  
 2.051200000000000E10    3.362284024694452E-3  -7.098867036229759E-4  
 2.051400000000000E10    3.135238636147093E-3  -1.194340595113183E-3  
 2.051600000000000E10    2.854720128838111E-3  -1.587054498183231E-3  
 2.051800000000000E10    2.601967770951214E-3  -1.948244904202444E-3  
 2.052000000000000E10    2.351817200650220E-3  -2.344895507795392E-3  
 2.052200000000000E10    2.028521133103857E-3  -2.737686046640630E-3  
 2.052400000000000E10    1.621616025524283E-3  -3.181142637644101E-3  
 2.052600000000000E10    9.940403332519862E-4  -3.565345054354381E-3  
 2.052800000000000E10    2.405694060682975E-4  -3.693911212461967E-3  
 2.053000000000000E10   -4.264117268138325E-4  -3.636975203537279E-3  
 2.053200000000000E10   -1.036685503398379E-3  -3.513099884407388E-3  
 2.053400000000000E10   -1.602691585301525E-3  -3.296533823703175E-3  
 2.053600000000000E10   -2.147173845312662E-3  -3.003510430938116E-3  
 2.053800000000000E10   -2.697471382648305E-3  -2.609594949279671E-3  
 2.054000000000000E10   -3.133945425765382E-3  -2.080793595976300E-3  
 2.054200000000000E10   -3.484492103948638E-3  -1.503542535593389E-3  
 2.054400000000000E10   -3.727275248685921E-3  -8.177021841725543E-4  
 2.054600000000000E10   -3.787438316201723E-3  -1.104866915503172E-4  
 2.054800000000000E10   -3.726410601908962E-3   6.002128960702706E-4  
 2.055000000000000E10   -3.487914904124207E-3   1.286992083165657E-3  
 2.055200000000000E10   -3.085332793287105E-3   1.822791415853081E-3  
 2.055400000000000E10   -2.640596030417968E-3   2.172227672956609E-3  
 2.055600000000000E10   -2.292561879450525E-3   2.405543225230994E-3  
