#  HZ   S   RI   R     50.00 
! Rohde & Schwarz ZVA40 4Ports - Version 3.90 - 1145.1110k42 SN: 100403
! Date: 2023-10-03 10:41:51
! Measurement: S12 
! 
 2.000000000000000E10    2.153825431625233E-3   4.377555250144208E-4  
 2.000200000000000E10    2.165342957057335E-3   2.156778387466653E-4  
 2.000400000000000E10    2.141339859614770E-3   2.753929153119248E-5  
 2.000600000000000E10    2.258737876229449E-3  -8.937673960139771E-5  
 2.000800000000000E10    2.546072624232850E-3  -4.067196495281993E-4  
 2.001000000000000E10    2.729075871706929E-3  -1.081665821178000E-3  
 2.001200000000000E10    2.460612513032961E-3  -1.911295031737767E-3  
 2.001400000000000E10    1.774108077594896E-3  -2.432061178195808E-3  
 2.001600000000000E10    1.078014693188447E-3  -2.545575571050983E-3  
 2.001800000000000E10    5.896376890710981E-4  -2.496399675254469E-3  
 2.002000000000000E10    2.346575697797730E-4  -2.429966469881712E-3  
 2.002200000000000E10   -9.928998770192271E-5  -2.354205229584082E-3  
 2.002400000000000E10   -3.568098808848587E-4  -2.306390562336202E-3  
 2.002600000000000E10   -6.464404168245556E-4  -2.321445607338791E-3  
 2.002800000000000E10   -1.085731183627138E-3  -2.348689097957111E-3  
 2.003000000000000E10   -1.670663657506215E-3  -2.123327951671349E-3  
 2.003200000000000E10   -2.064640584896193E-3  -1.606741854001159E-3  
 2.003400000000000E10   -2.174035490800937E-3  -1.087486355875929E-3  
 2.003600000000000E10   -2.165391388705668E-3  -6.696679537762302E-4  
 2.003800000000000E10   -2.144025874404628E-3  -3.669414932287678E-4  
 2.004000000000000E10   -2.146470484059350E-3  -8.193099293512878E-5  
 2.004200000000000E10   -2.105730784091133E-3   2.370195695142302E-4  
 2.004400000000000E10   -2.003370008120935E-3   5.371407397309848E-4  
 2.004600000000000E10   -1.879023629482146E-3   7.954913889989257E-4  
 2.004800000000000E10   -1.784596161020023E-3   1.011880315886236E-3  
 2.005000000000000E10   -1.686844635570859E-3   1.293075265201890E-3  
 2.005200000000000E10   -1.495485235706984E-3   1.605890773202258E-3  
 2.005400000000000E10   -1.159985476449408E-3   1.905605093472534E-3  
 2.005600000000000E10   -7.127056000351814E-4   2.037631908293676E-3  
 2.005800000000000E10   -4.087339179090190E-4   2.035767420620463E-3  
 2.006000000000000E10   -1.395871851271318E-4   2.113558708425657E-3  
 2.006200000000000E10    2.207401176960564E-4   2.148779537413776E-3  
 2.006400000000000E10    5.898672978129284E-4   2.095946116533912E-3  
 2.006600000000000E10    9.333740152349629E-4   1.999771714003550E-3  
 2.006800000000000E10    1.313347303320045E-3   1.872338958222557E-3  
 2.007000000000000E10    1.680523326712442E-3   1.606680018781328E-3  
 2.007200000000000E10    1.982333906063880E-3   1.242093542119327E-3  
 2.007400000000000E10    2.188153061900794E-3   7.613662574267775E-4  
 2.007600000000000E10    2.193090143716998E-3   2.696735264854161E-4  
 2.007800000000000E10    2.115968551578713E-3  -6.373610831135998E-5  
 2.008000000000000E10    2.091229237892010E-3  -3.646522333535056E-4  
 2.008200000000000E10    2.010932882074957E-3  -7.283966499668213E-4  
 2.008400000000000E10    1.871731733029456E-3  -1.096333318137000E-3  
 2.008600000000000E10    1.633201419651785E-3  -1.459801328127031E-3  
 2.008800000000000E10    1.268338756980720E-3  -1.729390428711971E-3  
 2.009000000000000E10    9.202438594922886E-4  -1.861613927937952E-3  
 2.009200000000000E10    5.619340341963611E-4  -1.964579097765648E-3  
 2.009400000000000E10    1.512573849421317E-4  -2.001723651141848E-3  
 2.009600000000000E10   -2.327252832962844E-4  -1.898353594573744E-3  
 2.009800000000000E10   -4.644117434509099E-4  -1.724267984958895E-3  
 2.010000000000000E10   -5.931820318729468E-4  -1.642785302397830E-3  
 2.010200000000000E10   -8.114378620513980E-4  -1.642684182037174E-3  
 2.010400000000000E10   -1.133721538842369E-3  -1.619174993125561E-3  
 2.010600000000000E10   -1.551440847968614E-3  -1.456604005745900E-3  
 2.010800000000000E10   -1.905322899857973E-3  -1.075828693703645E-3  
 2.011000000000000E10   -2.076927190186617E-3  -5.965609190393425E-4  
 2.011200000000000E10   -2.063441406475541E-3  -1.283546726982523E-4  
 2.011400000000000E10   -1.959786756125129E-3   2.553281014969136E-4  
 2.011600000000000E10   -1.796110688398282E-3   5.909922391889088E-4  
 2.011800000000000E10   -1.574402828815819E-3   7.694454024327389E-4  
 2.012000000000000E10   -1.493069406506824E-3   8.687248042451196E-4  
 2.012200000000000E10   -1.483506896751531E-3   1.098254022912847E-3  
 2.012400000000000E10   -1.376657659061437E-3   1.452741558077159E-3  
 2.012600000000000E10   -1.078643657146367E-3   1.767021862583028E-3  
 2.012800000000000E10   -7.135904739743078E-4   1.907653393752781E-3  
 2.013000000000000E10   -4.458637245360154E-4   1.987152842137917E-3  
 2.013200000000000E10   -1.450969611602135E-4   2.138477060253973E-3  
 2.013400000000000E10    3.018142525422858E-4   2.212215148855323E-3  
 2.013600000000000E10    7.200418600674582E-4   2.154223485792309E-3  
 2.013800000000000E10    1.110222810063006E-3   2.040797496720413E-3  
 2.014000000000000E10    1.485882413194136E-3   1.872267917568945E-3  
 2.014200000000000E10    1.874036713284843E-3   1.699908406554181E-3  
 2.014400000000000E10    2.345623017323238E-3   1.382878846431404E-3  
 2.014600000000000E10    2.726636763754083E-3   8.326580152950354E-4  
 2.014800000000000E10    2.901121902130085E-3   1.646689522237501E-4  
 2.015000000000000E10    2.828190482600972E-3  -5.271931668961950E-4  
 2.015200000000000E10    2.552888370521459E-3  -1.106246578633602E-3  
 2.015400000000000E10    2.166647311690965E-3  -1.509021464620292E-3  
 2.015600000000000E10    1.805676765348993E-3  -1.739897661738926E-3  
 2.015800000000000E10    1.539594447815124E-3  -1.921988152726381E-3  
 2.016000000000000E10    1.303849655582949E-3  -2.139094394896134E-3  
 2.016200000000000E10    1.032279468756629E-3  -2.399492669666623E-3  
 2.016400000000000E10    6.671434808752421E-4  -2.650518131292897E-3  
 2.016600000000000E10    1.665538369662152E-4  -2.873163104034317E-3  
 2.016800000000000E10   -4.423367109991909E-4  -2.914086901180355E-3  
 2.017000000000000E10   -9.961690434634135E-4  -2.747271707235479E-3  
 2.017200000000000E10   -1.408910357255351E-3  -2.505796349227981E-3  
 2.017400000000000E10   -1.759442296683973E-3  -2.336668629590193E-3  
 2.017600000000000E10   -2.244224257330284E-3  -2.161364539606888E-3  
 2.017800000000000E10   -2.783472506030474E-3  -1.723830796559744E-3  
 2.018000000000000E10   -3.121060089288671E-3  -1.133750695131581E-3  
 2.018200000000000E10   -3.288574350054986E-3  -5.289748397994973E-4  
 2.018400000000000E10   -3.342741332879222E-3   7.497820317641726E-5  
 2.018600000000000E10   -3.279446400012131E-3   6.888061689994771E-4  
 2.018800000000000E10   -3.071877947307112E-3   1.241747675072632E-3  
 2.019000000000000E10   -2.837537095111646E-3   1.680463072441427E-3  
 2.019200000000000E10   -2.598241954627965E-3   2.113349416672632E-3  
 2.019400000000000E10   -2.300480992912695E-3   2.590411066733025E-3  
 2.019600000000000E10   -1.858520157704199E-3   3.038664716353388E-3  
 2.019800000000000E10   -1.308367666673422E-3   3.372200437028100E-3  
 2.020000000000000E10   -7.673422791592687E-4   3.583658331384262E-3  
 2.020200000000000E10   -2.547912559681141E-4   3.762202426492249E-3  
 2.020400000000000E10    3.937714902776075E-4   4.007663146627170E-3  
 2.020600000000000E10    1.314109763314511E-3   4.083833194418271E-3  
 2.020800000000000E10    2.307962186427580E-3   3.796049934110524E-3  
 2.021000000000000E10    3.130972664228376E-3   3.070536259285830E-3  
 2.021200000000000E10    3.507367151294962E-3   2.228648850211391E-3  
 2.021400000000000E10    3.646724124404568E-3   1.527546019649800E-3  
 2.021600000000000E10    3.703734877714773E-3   9.332604707724613E-4  
 2.021800000000000E10    3.757756539723940E-3   4.574138729367405E-4  
 2.022000000000000E10    3.874238261401102E-3  -1.226266855762027E-5  
 2.022200000000000E10    4.032165358233968E-3  -6.270875506114537E-4  
 2.022400000000000E10    4.041605393321795E-3  -1.461877365435623E-3  
 2.022600000000000E10    3.720208493716739E-3  -2.333426195553240E-3  
 2.022800000000000E10    3.144262562632377E-3  -3.050754565377663E-3  
 2.023000000000000E10    2.429140792055815E-3  -3.560194380604375E-3  
 2.023200000000000E10    1.643367926590145E-3  -3.862076622928367E-3  
 2.023400000000000E10    9.017605794432724E-4  -3.952881775474476E-3  
 2.023600000000000E10    2.219043746640918E-4  -3.969292691046442E-3  
 2.023800000000000E10   -4.331273045448334E-4  -3.859280870169586E-3  
 2.024000000000000E10   -1.023500957986179E-3  -3.618553921833267E-3  
 2.024200000000000E10   -1.454742205685672E-3  -3.319186951827121E-3  
 2.024400000000000E10   -1.812175700992898E-3  -3.088268296172222E-3  
 2.024600000000000E10   -2.235716496260814E-3  -2.898649605749935E-3  
 2.024800000000000E10   -2.704743543110880E-3  -2.603125700980057E-3  
 2.025000000000000E10   -3.170562603361445E-3  -2.197470117854760E-3  
 2.025200000000000E10   -3.586041353022059E-3  -1.685385872540927E-3  
 2.025400000000000E10   -3.921901657717464E-3  -1.040315150605216E-3  
 2.025600000000000E10   -4.127936383111426E-3  -2.659996189996256E-4  
 2.025800000000000E10   -4.106487023908600E-3   5.220465784616493E-4  
 2.026000000000000E10   -3.913951008638115E-3   1.258701236953062E-3  
 2.026200000000000E10   -3.595964385219563E-3   1.941304038750169E-3  
 2.026400000000000E10   -3.157768361155450E-3   2.545415880848413E-3  
 2.026600000000000E10   -2.598386395860602E-3   3.042493906607967E-3  
 2.026800000000000E10   -1.934093388694304E-3   3.387431777944720E-3  
 2.027000000000000E10   -1.280425017251185E-3   3.523910645234549E-3  
 2.027200000000000E10   -6.763165533531136E-4   3.524480925091072E-3  
 2.027400000000000E10   -1.908058807595898E-4   3.438529917786336E-3  
 2.027600000000000E10    1.804932523364299E-4   3.388235816893019E-3  
 2.027800000000000E10    5.614149648650194E-4   3.434358595835942E-3  
 2.028000000000000E10    1.113810593026610E-3   3.494285757044032E-3  
 2.028200000000000E10    1.811478072834880E-3   3.375414523215574E-3  
 2.028400000000000E10    2.517941450976112E-3   3.028874791422745E-3  
 2.028600000000000E10    3.088930150333011E-3   2.435169947322137E-3  
 2.028800000000000E10    3.399023248664575E-3   1.731758501760110E-3  
 2.029000000000000E10    3.533757610798435E-3   1.076705125735406E-3  
 2.029200000000000E10    3.542858972156675E-3   4.173832274341014E-4  
 2.029400000000000E10    3.380196396100485E-3  -1.008506001254981E-4  
 2.029600000000000E10    3.261066771997714E-3  -4.721698859623163E-4  
 2.029800000000000E10    3.233015548759773E-3  -8.749258582319284E-4  
 2.030000000000000E10    3.135927717120928E-3  -1.387221658211432E-3  
 2.030200000000000E10    2.911048987305459E-3  -1.876150730732875E-3  
 2.030400000000000E10    2.673134109994144E-3  -2.342174939213344E-3  
 2.030600000000000E10    2.302406715045189E-3  -2.891871954578861E-3  
 2.030800000000000E10    1.657767948568052E-3  -3.351123006094570E-3  
 2.031000000000000E10    9.094142257293434E-4  -3.533754029230756E-3  
 2.031200000000000E10    2.255824460636503E-4  -3.467453330364309E-3  
 2.031400000000000E10   -2.935987445029983E-4  -3.297461495723254E-3  
 2.031600000000000E10   -7.024232541026986E-4  -3.142878542550737E-3  
 2.031800000000000E10   -1.101964962507748E-3  -2.989354258817104E-3  
 2.032000000000000E10   -1.523724840494034E-3  -2.773917955633851E-3  
 2.032200000000000E10   -1.876389451129477E-3  -2.496381448351859E-3  
 2.032400000000000E10   -2.166106114106506E-3  -2.205868145266985E-3  
 2.032600000000000E10   -2.456477978324265E-3  -1.927402698331409E-3  
 2.032800000000000E10   -2.726519072175394E-3  -1.607637132380020E-3  
 2.033000000000000E10   -3.017892859830165E-3  -1.231057289125467E-3  
 2.033200000000000E10   -3.271222059948393E-3  -7.553371201257832E-4  
 2.033400000000000E10   -3.446814474753208E-3  -2.518056577106041E-4  
 2.033600000000000E10   -3.609492351519473E-3  -1.025280500560950E-5  
 2.033800000000000E10   -3.619736681381862E-3   1.105951340754091E-3  
 2.034000000000000E10   -3.349930576888132E-3   1.942806737784895E-3  
 2.034200000000000E10   -2.768009340528537E-3   2.633225948860248E-3  
 2.034400000000000E10   -2.043592217550786E-3   3.021305326349390E-3  
 2.034600000000000E10   -1.376134356380337E-3   3.176417471955957E-3  
 2.034800000000000E10   -7.457773238535466E-4   3.201312543594360E-3  
 2.035000000000000E10   -2.126664934352178E-4   3.078955685558879E-3  
 2.035200000000000E10    1.692511868895964E-4   2.898880372536771E-3  
 2.035400000000000E10    4.224495164242309E-4   2.744053010426370E-3  
 2.035600000000000E10    6.175227244068399E-4   2.719058025697316E-3  
 2.035800000000000E10    9.394737720822940E-4   2.834031688923269E-3  
 2.036000000000000E10    1.494306823767630E-3   2.884909157054844E-3  
 2.036200000000000E10    2.174681400374314E-3   2.692684370242520E-3  
 2.036400000000000E10    2.780345395023441E-3   2.247034497329115E-3  
 2.036600000000000E10    3.233053275947402E-3   1.633541624027270E-3  
 2.036800000000000E10    3.526628026048895E-3   9.227551614727689E-4  
 2.037000000000000E10    3.599243089096782E-3   1.344660517650392E-4  
 2.037200000000000E10    3.420283422908850E-3  -5.630948656255863E-4  
 2.037400000000000E10    3.150067979147958E-3  -1.098355728943177E-3  
 2.037600000000000E10    2.872552228286679E-3  -1.549986791854472E-3  
 2.037800000000000E10    2.564774463988013E-3  -1.977413823759115E-3  
 2.038000000000000E10    2.186293150355787E-3  -2.374143213217642E-3  
 2.038200000000000E10    1.722183144639856E-3  -2.711625686375264E-3  
 2.038400000000000E10    1.193000644698371E-3  -2.935215109315368E-3  
 2.038600000000000E10    6.807260208096310E-4  -3.006263802770848E-3  
 2.038800000000000E10    2.643924973075808E-4  -3.082342210145277E-3  
 2.039000000000000E10   -2.428404735343784E-4  -3.196067268741720E-3  
 2.039200000000000E10   -8.850990561768415E-4  -3.179462273018780E-3  
 2.039400000000000E10   -1.523580361893516E-3  -2.945748804551032E-3  
 2.039600000000000E10   -2.027284124015290E-3  -2.571588462609568E-3  
 2.039800000000000E10   -2.409049209184301E-3  -2.137923078542507E-3  
 2.040000000000000E10   -2.735320401067535E-3  -1.690639037765379E-3  
 2.040200000000000E10   -3.046000910991872E-3  -1.178753087986951E-3  
 2.040400000000000E10   -3.233859720812353E-3  -5.408423093297048E-4  
 2.040600000000000E10   -3.244878416651009E-3   1.411838316858781E-4  
 2.040800000000000E10   -3.053531082301044E-3   7.660668436725292E-4  
 2.041000000000000E10   -2.751634505082980E-3   1.223027949037467E-3  
 2.041200000000000E10   -2.490367973223329E-3   1.547246378053118E-3  
 2.041400000000000E10   -2.291690917501664E-3   1.917963729665419E-3  
 2.041600000000000E10   -1.999568424107116E-3   2.338341655738560E-3  
 2.041800000000000E10   -1.569709829687153E-3   2.749031467110287E-3  
 2.042000000000000E10   -1.003177110738133E-3   3.111489887498780E-3  
 2.042200000000000E10   -2.862463667873800E-4   3.284708711744091E-3  
 2.042400000000000E10    4.321717029080992E-4   3.215584153723386E-3  
 2.042600000000000E10    1.063374168653455E-3   3.017549101194298E-3  
 2.042800000000000E10    1.665780628329994E-3   2.693250381537242E-3  
 2.043000000000000E10    2.139279710841768E-3   2.152078437193493E-3  
 2.043200000000000E10    2.337404360051877E-3   1.576558487018410E-3  
 2.043400000000000E10    2.381060649008479E-3   1.143289949848420E-3  
 2.043600000000000E10    2.436936516774658E-3   8.248220087190011E-4  
 2.043800000000000E10    2.572363176394576E-3   4.628437048795829E-4  
 2.044000000000000E10    2.604343109177770E-3   4.119678204814494E-5  
 2.044200000000000E10    2.584031035686717E-3  -3.055036872809316E-4  
 2.044400000000000E10    2.621721309598214E-3  -6.925198971725036E-4  
 2.044600000000000E10    2.617371636500329E-3  -1.203209762518973E-3  
 2.044800000000000E10    2.419034950435162E-3  -1.797738881712711E-3  
 2.045000000000000E10    2.002079008193112E-3  -2.333961602553358E-3  
 2.045200000000000E10    1.451995435032856E-3  -2.708678961628013E-3  
 2.045400000000000E10    8.505819527788758E-4  -2.886066543812186E-3  
 2.045600000000000E10    3.004573032897352E-4  -2.919357893758534E-3  
 2.045800000000000E10   -1.812897184949920E-4  -2.902775942520411E-3  
 2.046000000000000E10   -6.573729355026175E-4  -2.859395457270705E-3  
 2.046200000000000E10   -1.182319386574773E-3  -2.766172671805562E-3  
 2.046400000000000E10   -1.765115885064006E-3  -2.523978605843437E-3  
 2.046600000000000E10   -2.276823352907360E-3  -2.073509187472088E-3  
 2.046800000000000E10   -2.566625111172965E-3  -1.470970251470988E-3  
 2.047000000000000E10   -2.621907148694183E-3  -9.417228492689724E-4  
 2.047200000000000E10   -2.613865632425856E-3  -5.707708974282638E-4  
 2.047400000000000E10   -2.682803359664517E-3  -2.140773325169713E-4  
 2.047600000000000E10   -2.714544641037966E-3   2.226522745691056E-4  
 2.047800000000000E10   -2.648456691890772E-3   6.136020363802896E-4  
 2.048000000000000E10   -2.589313385226293E-3   9.796368906757347E-4  
 2.048200000000000E10   -2.557319758551909E-3   1.410055514654996E-3  
 2.048400000000000E10   -2.407386551185707E-3   1.998613611507563E-3  
 2.048600000000000E10   -1.956825328553901E-3   2.539632577495075E-3  
 2.048800000000000E10   -1.387817415776720E-3   2.866325227336751E-3  
 2.049000000000000E10   -8.355874609903514E-4   3.030028812196336E-3  
 2.049200000000000E10   -2.914542262164369E-4   3.108452065606361E-3  
 2.049400000000000E10    2.191168278380998E-4   3.126537651513462E-3  
 2.049600000000000E10    7.383123034450376E-4   3.122491652812856E-3  
 2.049800000000000E10    1.317260411774947E-3   3.031604747966301E-3  
 2.050000000000000E10    1.909082741074172E-3   2.812728193807014E-3  
 2.050200000000000E10    2.485196287226346E-3   2.484207777421416E-3  
 2.050400000000000E10    3.038260404503456E-3   1.950897691759891E-3  
 2.050600000000000E10    3.397660108605101E-3   1.183859707161003E-3  
 2.050800000000000E10    3.416508979474505E-3   3.896676822073965E-4  
 2.051000000000000E10    3.247587260341755E-3  -2.146580266941592E-4  
 2.051200000000000E10    3.060288379474739E-3  -7.067886871044283E-4  
 2.051400000000000E10    2.833117354362284E-3  -1.158883783644364E-3  
 2.051600000000000E10    2.582617339758594E-3  -1.503003597328508E-3  
 2.051800000000000E10    2.361121665065487E-3  -1.815627047355161E-3  
 2.052000000000000E10    2.148271623113550E-3  -2.159972902226412E-3  
 2.052200000000000E10    1.883965363599544E-3  -2.524729407059006E-3  
 2.052400000000000E10    1.506933508394861E-3  -2.928371331367044E-3  
 2.052600000000000E10    9.228238896294328E-4  -3.266459713218573E-3  
 2.052800000000000E10    2.563730258434253E-4  -3.359074393908184E-3  
 2.053000000000000E10   -3.159600787905310E-4  -3.283534949231479E-3  
 2.053200000000000E10   -8.326733734941594E-4  -3.188921052410648E-3  
 2.053400000000000E10   -1.339107281873348E-3  -3.045120871522361E-3  
 2.053600000000000E10   -1.856893188906489E-3  -2.843925956475699E-3  
 2.053800000000000E10   -2.399111494283986E-3  -2.520130863873127E-3  
 2.054000000000000E10   -2.841745003092069E-3  -2.078966260600237E-3  
 2.054200000000000E10   -3.229082145233765E-3  -1.574452157293297E-3  
 2.054400000000000E10   -3.508037338493232E-3  -9.163567267450289E-4  
 2.054600000000000E10   -3.605775506362136E-3  -2.112405103010437E-4  
 2.054800000000000E10   -3.540016107123207E-3   4.865277492452735E-4  
 2.055000000000000E10   -3.289038019346787E-3   1.154068889050388E-3  
 2.055200000000000E10   -2.890609012180825E-3   1.684285292148958E-3  
 2.055400000000000E10   -2.456271509283487E-3   2.011473523452878E-3  
 2.055600000000000E10   -2.134292935492632E-3   2.220749294523288E-3  
