#  HZ   S   RI   R     50.00 
! Rohde & Schwarz ZVA40 4Ports - Version 3.90 - 1145.1110k42 SN: 100403
! Date: 2023-10-03 10:42:26
! Measurement: S12 
! 
 2.000000000000000E10    2.647564013454098E-3   1.705314251820609E-4  
 2.000200000000000E10    2.568472538971239E-3  -1.739701719661416E-4  
 2.000400000000000E10    2.426644683712059E-3  -4.381375555466447E-4  
 2.000600000000000E10    2.431876603858891E-3  -5.904893343405867E-4  
 2.000800000000000E10    2.609188151028422E-3  -9.161632408870869E-4  
 2.001000000000000E10    2.697883406654000E-3  -1.595667270184667E-3  
 2.001200000000000E10    2.315673994383326E-3  -2.411139120037357E-3  
 2.001400000000000E10    1.545878842955938E-3  -2.895815004767092E-3  
 2.001600000000000E10    7.822305541830484E-4  -2.969917082400234E-3  
 2.001800000000000E10    2.112543695181592E-4  -2.862862164706544E-3  
 2.002000000000000E10   -2.447117154520971E-4  -2.717334716753276E-3  
 2.002200000000000E10   -6.519824727783325E-4  -2.489884616807103E-3  
 2.002400000000000E10   -9.105272334569169E-4  -2.289509021297649E-3  
 2.002600000000000E10   -1.177404318392898E-3  -2.185568316943116E-3  
 2.002800000000000E10   -1.552981962622316E-3  -2.078550453815196E-3  
 2.003000000000000E10   -2.040388864568539E-3  -1.772263833252645E-3  
 2.003200000000000E10   -2.362660347932467E-3  -1.224593125732133E-3  
 2.003400000000000E10   -2.422361712281903E-3  -6.684013383669986E-4  
 2.003600000000000E10   -2.342031268333948E-3  -2.072480072254419E-4  
 2.003800000000000E10   -2.221485970679809E-3   1.337125280837494E-4  
 2.004000000000000E10   -2.113172655097313E-3   4.432252435772508E-4  
 2.004200000000000E10   -1.944685816178444E-3   7.508811066617017E-4  
 2.004400000000000E10   -1.719861679400007E-3   1.014445470732258E-3  
 2.004600000000000E10   -1.464480779961580E-3   1.159366983402934E-3  
 2.004800000000000E10   -1.314933864503271E-3   1.234635288171746E-3  
 2.005000000000000E10   -1.229911740800297E-3   1.403451397049207E-3  
 2.005200000000000E10   -1.076571442859455E-3   1.665487204229942E-3  
 2.005400000000000E10   -7.691159132971533E-4   1.966787088248465E-3  
 2.005600000000000E10   -2.521390940981090E-4   2.087104013534608E-3  
 2.005800000000000E10    1.271623768843710E-4   1.941393297683034E-3  
 2.006000000000000E10    3.638591324151666E-4   1.838972330679772E-3  
 2.006200000000000E10    6.305991792706427E-4   1.753119018825668E-3  
 2.006400000000000E10    8.808185671956314E-4   1.615800787004884E-3  
 2.006600000000000E10    1.077715790382138E-3   1.466035394480935E-3  
 2.006800000000000E10    1.323614351416904E-3   1.360098335512535E-3  
 2.007000000000000E10    1.644159335194639E-3   1.152362887902807E-3  
 2.007200000000000E10    1.929754016196562E-3   7.759413500833844E-4  
 2.007400000000000E10    2.057602340183049E-3   2.707959003129401E-4  
 2.007600000000000E10    1.931023796916836E-3  -2.171478257945704E-4  
 2.007800000000000E10    1.714139060048318E-3  -4.773887878939234E-4  
 2.008000000000000E10    1.591580432701718E-3  -6.740015187123964E-4  
 2.008200000000000E10    1.448248711380142E-3  -9.250189846002118E-4  
 2.008400000000000E10    1.260168940967156E-3  -1.136408959239446E-3  
 2.008600000000000E10    1.026829338149616E-3  -1.336070208775777E-3  
 2.008800000000000E10    7.244352449628492E-4  -1.452119171584922E-3  
 2.009000000000000E10    4.840309503143309E-4  -1.478351036052185E-3  
 2.009200000000000E10    2.822753834792552E-4  -1.542313127881951E-3  
 2.009400000000000E10   -3.443269600177646E-6  -1.617840223911184E-3  
 2.009600000000000E10   -3.461112684346046E-4  -1.550267191810741E-3  
 2.009800000000000E10   -5.540850300652286E-4  -1.361288272568750E-3  
 2.010000000000000E10   -6.558455858828018E-4  -1.260134369928252E-3  
 2.010200000000000E10   -8.317896410719390E-4  -1.217325832436068E-3  
 2.010400000000000E10   -1.043697754438553E-3  -1.140755676681659E-3  
 2.010600000000000E10   -1.313046599669313E-3  -9.809990491097174E-4  
 2.010800000000000E10   -1.546769493466450E-3  -6.595051381736995E-4  
 2.011000000000000E10   -1.620069344493527E-3  -2.966982024695932E-4  
 2.011200000000000E10   -1.581707999489650E-3   1.317144229957462E-5  
 2.011400000000000E10   -1.515711545599280E-3   2.731042914092541E-4  
 2.011600000000000E10   -1.414575096633700E-3   5.468681855644617E-4  
 2.011800000000000E10   -1.204894946163727E-3   7.174455784951097E-4  
 2.012000000000000E10   -1.091440436775210E-3   7.604757103965515E-4  
 2.012200000000000E10   -1.079786081660401E-3   8.726550473107232E-4  
 2.012400000000000E10   -1.039603069700577E-3   1.091885412784501E-3  
 2.012600000000000E10   -8.774890038357290E-4   1.324084781420728E-3  
 2.012800000000000E10   -6.610844931047824E-4   1.475937647262106E-3  
 2.013000000000000E10   -4.869894344463117E-4   1.650883065950539E-3  
 2.013200000000000E10   -1.798343997776371E-4   1.881458072198762E-3  
 2.013400000000000E10    2.767912344468103E-4   1.944276047180649E-3  
 2.013600000000000E10    6.472245494714354E-4   1.841180970788830E-3  
 2.013800000000000E10    9.419498792677016E-4   1.733425452753350E-3  
 2.014000000000000E10    1.237707717033724E-3   1.617159810848534E-3  
 2.014200000000000E10    1.574360127388328E-3   1.502709635705860E-3  
 2.014400000000000E10    1.998402333507936E-3   1.263001200708526E-3  
 2.014600000000000E10    2.379238079474481E-3   8.060563424671140E-4  
 2.014800000000000E10    2.586258678800530E-3   1.829642033381215E-4  
 2.015000000000000E10    2.519916812026943E-3  -4.717149929126242E-4  
 2.015200000000000E10    2.258886453799076E-3  -9.938363736081456E-4  
 2.015400000000000E10    1.891759832182692E-3  -1.357958026885711E-3  
 2.015600000000000E10    1.544616478322833E-3  -1.529982645513007E-3  
 2.015800000000000E10    1.322101551556477E-3  -1.628972969397351E-3  
 2.016000000000000E10    1.172715681605041E-3  -1.775658042687509E-3  
 2.016200000000000E10    1.008873568261387E-3  -2.026441106055346E-3  
 2.016400000000000E10    7.094739380085635E-4  -2.301544908227192E-3  
 2.016600000000000E10    2.730686392169446E-4  -2.531527550201174E-3  
 2.016800000000000E10   -2.632508047908132E-4  -2.602157855613365E-3  
 2.017000000000000E10   -7.509432142358965E-4  -2.506454811534948E-3  
 2.017200000000000E10   -1.161961988718422E-3  -2.345934829295234E-3  
 2.017400000000000E10   -1.513313506384967E-3  -2.225465934585642E-3  
 2.017600000000000E10   -2.020808950032074E-3  -2.102358240841164E-3  
 2.017800000000000E10   -2.601069950119213E-3  -1.674634693362923E-3  
 2.018000000000000E10   -2.924401778727770E-3  -1.047229467615209E-3  
 2.018200000000000E10   -3.018370726042324E-3  -4.235546156350110E-4  
 2.018400000000000E10   -2.971651127423954E-3   1.424430399007785E-4  
 2.018600000000000E10   -2.840773987204389E-3   6.256705339722061E-4  
 2.018800000000000E10   -2.657751949435031E-3   1.017011454139181E-3  
 2.019000000000000E10   -2.506272556881110E-3   1.358332500482599E-3  
 2.019200000000000E10   -2.360029353035821E-3   1.723429386469501E-3  
 2.019400000000000E10   -2.186935877910367E-3   2.160549362155575E-3  
 2.019600000000000E10   -1.850712876249519E-3   2.634254223839553E-3  
 2.019800000000000E10   -1.354058380928581E-3   2.989425504994062E-3  
 2.020000000000000E10   -8.593745016561891E-4   3.194286220672507E-3  
 2.020200000000000E10   -4.295167401088057E-4   3.364316144682192E-3  
 2.020400000000000E10    1.103914775605383E-4   3.645081004058874E-3  
 2.020600000000000E10    9.305390154218510E-4   3.815055350531583E-3  
 2.020800000000000E10    1.878521409472106E-3   3.628973167872539E-3  
 2.021000000000000E10    2.672866900899896E-3   3.015183973022634E-3  
 2.021200000000000E10    3.078744867471634E-3   2.318619181298547E-3  
 2.021400000000000E10    3.322409836713363E-3   1.729238459288522E-3  
 2.021600000000000E10    3.495563468378452E-3   1.157811260782182E-3  
 2.021800000000000E10    3.613664889363228E-3   6.513047049304954E-4  
 2.022000000000000E10    3.736842682378160E-3   1.500703570113897E-4  
 2.022200000000000E10    3.887811891251693E-3  -4.735865675482072E-4  
 2.022400000000000E10    3.870609621689828E-3  -1.267336873786041E-3  
 2.022600000000000E10    3.555831076853254E-3  -2.054837829847303E-3  
 2.022800000000000E10    3.056322517632335E-3  -2.696447126153443E-3  
 2.023000000000000E10    2.450432016134814E-3  -3.188120701384765E-3  
 2.023200000000000E10    1.786792042872144E-3  -3.507164255198506E-3  
 2.023400000000000E10    1.137458602897823E-3  -3.682757003439798E-3  
 2.023600000000000E10    5.148615692397234E-4  -3.782000030494399E-3  
 2.023800000000000E10   -1.405417401488026E-4  -3.749241828228589E-3  
 2.024000000000000E10   -7.462884424495754E-4  -3.573274507221801E-3  
 2.024200000000000E10   -1.216505994778817E-3  -3.302374466632804E-3  
 2.024400000000000E10   -1.552844782256418E-3  -3.065749459589522E-3  
 2.024600000000000E10   -1.918956456292007E-3  -2.918737992230389E-3  
 2.024800000000000E10   -2.359698888742262E-3  -2.717218706729236E-3  
 2.025000000000000E10   -2.844458489023425E-3  -2.431006550236985E-3  
 2.025200000000000E10   -3.352225033773317E-3  -2.027775738733235E-3  
 2.025400000000000E10   -3.830554274221262E-3  -1.432202670171305E-3  
 2.025600000000000E10   -4.152690871032301E-3  -6.622208661779210E-4  
 2.025800000000000E10   -4.233294063144261E-3   1.865716142303967E-4  
 2.026000000000000E10   -4.075269059588512E-3   1.007310332540699E-3  
 2.026200000000000E10   -3.767514972154190E-3   1.724804898172065E-3  
 2.026400000000000E10   -3.351126763003844E-3   2.318244858610410E-3  
 2.026600000000000E10   -2.857213089656499E-3   2.831331678424721E-3  
 2.026800000000000E10   -2.245424617150868E-3   3.237156171558633E-3  
 2.027000000000000E10   -1.612518642408153E-3   3.454931339042055E-3  
 2.027200000000000E10   -1.010639710767902E-3   3.538038159065225E-3  
 2.027400000000000E10   -5.060126034853359E-4   3.538677123961626E-3  
 2.027600000000000E10   -6.519806413928528E-5   3.524290716827469E-3  
 2.027800000000000E10    3.328595328774235E-4   3.564225276932121E-3  
 2.028000000000000E10    8.670201555273877E-4   3.672536686752682E-3  
 2.028200000000000E10    1.574061073673268E-3   3.637855225760077E-3  
 2.028400000000000E10    2.349711359582014E-3   3.346701859737989E-3  
 2.028600000000000E10    3.000980717371460E-3   2.777514608438920E-3  
 2.028800000000000E10    3.395830470792674E-3   2.091745914960350E-3  
 2.029000000000000E10    3.640481115629277E-3   1.384247564365742E-3  
 2.029200000000000E10    3.684105498164341E-3   6.698410035352465E-4  
 2.029400000000000E10    3.554856085597918E-3   1.302013471205201E-4  
 2.029600000000000E10    3.479147079849133E-3  -2.972082142217982E-4  
 2.029800000000000E10    3.462250482428958E-3  -7.581343611322896E-4  
 2.030000000000000E10    3.370813508000639E-3  -1.289068484092476E-3  
 2.030200000000000E10    3.166089394923162E-3  -1.814777617929159E-3  
 2.030400000000000E10    2.932117260233672E-3  -2.331319377171221E-3  
 2.030600000000000E10    2.563525965713241E-3  -2.942030602652166E-3  
 2.030800000000000E10    1.885630181749110E-3  -3.464459674432875E-3  
 2.031000000000000E10    1.086488157010603E-3  -3.668719531830263E-3  
 2.031200000000000E10    4.088908921133865E-4  -3.641458167866977E-3  
 2.031400000000000E10   -1.722314067322899E-4  -3.557773565666543E-3  
 2.031600000000000E10   -7.162975746689848E-4  -3.425685352542334E-3  
 2.031800000000000E10   -1.210632074313859E-3  -3.198327686361693E-3  
 2.032000000000000E10   -1.641177188570577E-3  -2.908282369996111E-3  
 2.032200000000000E10   -1.961469098373696E-3  -2.588487247488013E-3  
 2.032400000000000E10   -2.228351913530518E-3  -2.326704475476786E-3  
 2.032600000000000E10   -2.553218578988756E-3  -2.072001298613571E-3  
 2.032800000000000E10   -2.901975807078459E-3  -1.719537630884184E-3  
 2.033000000000000E10   -3.231709607428423E-3  -1.287225306172062E-3  
 2.033200000000000E10   -3.489427173648168E-3  -7.422623565179055E-4  
 2.033400000000000E10   -3.639605775889424E-3  -1.575860046108978E-4  
 2.033600000000000E10   -3.758182490451469E-3   1.322821012258323E-4  
 2.033800000000000E10   -3.668930053848912E-3   1.255575403640116E-3  
 2.034000000000000E10   -3.355323914783421E-3   2.011394481761036E-3  
 2.034200000000000E10   -2.808037326084795E-3   2.638717233720753E-3  
 2.034400000000000E10   -2.178295834541873E-3   2.994913857913128E-3  
 2.034600000000000E10   -1.599868552552329E-3   3.208300047036675E-3  
 2.034800000000000E10   -1.008841252230384E-3   3.370908339059464E-3  
 2.035000000000000E10   -4.045286957450487E-4   3.395298030227423E-3  
 2.035200000000000E10    1.364170729411180E-4   3.270730039932662E-3  
 2.035400000000000E10    5.385290930496046E-4   3.088702214881778E-3  
 2.035600000000000E10    8.206455300010190E-4   3.005580855878415E-3  
 2.035800000000000E10    1.211665691462932E-3   3.040549716118861E-3  
 2.036000000000000E10    1.793606215398069E-3   3.002501636122664E-3  
 2.036200000000000E10    2.461916008205326E-3   2.755864187040263E-3  
 2.036400000000000E10    3.035549660799681E-3   2.256720249230663E-3  
 2.036600000000000E10    3.463667688063450E-3   1.611145683219312E-3  
 2.036800000000000E10    3.767275596382442E-3   9.144992455495177E-4  
 2.037000000000000E10    3.875886435034099E-3   8.550476148364533E-5  
 2.037200000000000E10    3.714869971628542E-3  -7.016895968398011E-4  
 2.037400000000000E10    3.456120543112910E-3  -1.372889770815770E-3  
 2.037600000000000E10    3.066922417255464E-3  -1.973252243327874E-3  
 2.037800000000000E10    2.563063288107514E-3  -2.462117889620088E-3  
 2.038000000000000E10    2.000990185748648E-3  -2.809125093605232E-3  
 2.038200000000000E10    1.423541995420776E-3  -2.996187079352914E-3  
 2.038400000000000E10    8.713196902708324E-4  -3.052284915207161E-3  
 2.038600000000000E10    4.356698471518165E-4  -3.016975923889766E-3  
 2.038800000000000E10    9.381604387373148E-5  -3.056903283491179E-3  
 2.039000000000000E10   -3.681526286527515E-4  -3.169062633619265E-3  
 2.039200000000000E10   -1.012047209466497E-3  -3.189211021418925E-3  
 2.039400000000000E10   -1.680936065019557E-3  -2.940373107170065E-3  
 2.039600000000000E10   -2.217854286923453E-3  -2.513565010977565E-3  
 2.039800000000000E10   -2.606728838549720E-3  -2.022759122256604E-3  
 2.040000000000000E10   -2.903877826476539E-3  -1.544665480549965E-3  
 2.040200000000000E10   -3.162756639843186E-3  -9.911947418004274E-4  
 2.040400000000000E10   -3.295268984166561E-3  -3.323113794774853E-4  
 2.040600000000000E10   -3.234590507215924E-3   3.213213607927577E-4  
 2.040800000000000E10   -3.019868318612377E-3   8.942761708533875E-4  
 2.041000000000000E10   -2.732139848241652E-3   1.352541053805638E-3  
 2.041200000000000E10   -2.484830182597593E-3   1.718080697443199E-3  
 2.041400000000000E10   -2.230303724192911E-3   2.127443078077502E-3  
 2.041600000000000E10   -1.842590652544190E-3   2.563479597921725E-3  
 2.041800000000000E10   -1.380492695952180E-3   2.926817784706752E-3  
 2.042000000000000E10   -8.195596962684284E-4   3.241648587087791E-3  
 2.042200000000000E10   -6.813334187393563E-5   3.420330765139726E-3  
 2.042400000000000E10    7.076674160931295E-4   3.330091445672292E-3  
 2.042600000000000E10    1.371155557636586E-3   3.050712351169852E-3  
 2.042800000000000E10    1.981131758333908E-3   2.627465848086609E-3  
 2.043000000000000E10    2.420665420315884E-3   2.007113476456316E-3  
 2.043200000000000E10    2.563862509473607E-3   1.387293726481774E-3  
 2.043400000000000E10    2.579918657257050E-3   9.041272526330972E-4  
 2.043600000000000E10    2.591017780273601E-3   5.318714193654834E-4  
 2.043800000000000E10    2.624390991749587E-3   1.697869630771931E-4  
 2.044000000000000E10    2.596467388448892E-3  -2.160361360034181E-4  
 2.044200000000000E10    2.570745793895589E-3  -5.424061350317465E-4  
 2.044400000000000E10    2.585016777393995E-3  -9.025379226336051E-4  
 2.044600000000000E10    2.574933442735562E-3  -1.401777262799442E-3  
 2.044800000000000E10    2.365047198340849E-3  -2.034846908861289E-3  
 2.045000000000000E10    1.888301611567537E-3  -2.616282802558056E-3  
 2.045200000000000E10    1.222617389565265E-3  -2.972863959493461E-3  
 2.045400000000000E10    5.382655416960242E-4  -3.109873582919439E-3  
 2.045600000000000E10   -7.295244938211030E-5  -3.072383546235937E-3  
 2.045800000000000E10   -6.136814481578767E-4  -2.945989327229284E-3  
 2.046000000000000E10   -1.093099480149923E-3  -2.775471631644501E-3  
 2.046200000000000E10   -1.548730224991838E-3  -2.582570546548124E-3  
 2.046400000000000E10   -2.062355038813419E-3  -2.302013466962510E-3  
 2.046600000000000E10   -2.539826143119071E-3  -1.815053125567459E-3  
 2.046800000000000E10   -2.803232839882926E-3  -1.152163449053963E-3  
 2.047000000000000E10   -2.765770121994946E-3  -5.423650727607310E-4  
 2.047200000000000E10   -2.660584575669082E-3  -1.393061207232273E-4  
 2.047400000000000E10   -2.637798113196537E-3   1.982141391770845E-4  
 2.047600000000000E10   -2.584984344947670E-3   6.136541207389975E-4  
 2.047800000000000E10   -2.448001798863213E-3   9.986173514604430E-4  
 2.048000000000000E10   -2.285697695764679E-3   1.337414193484518E-3  
 2.048200000000000E10   -2.141172773446198E-3   1.647622527175204E-3  
 2.048400000000000E10   -1.976033280327641E-3   2.073258868660088E-3  
 2.048600000000000E10   -1.590355937541635E-3   2.519943156383104E-3  
 2.048800000000000E10   -1.086375997315541E-3   2.806140566934590E-3  
 2.049000000000000E10   -5.493009036096435E-4   2.973339261694087E-3  
 2.049200000000000E10   -2.047585978828119E-6   3.028147879780995E-3  
 2.049400000000000E10    4.959343113350096E-4   2.995871999128550E-3  
 2.049600000000000E10    1.006048379672898E-3   2.941604634677923E-3  
 2.049800000000000E10    1.561892361173200E-3   2.812265910001265E-3  
 2.050000000000000E10    2.113539182270567E-3   2.547237953102148E-3  
 2.050200000000000E10    2.651780757501170E-3   2.171459167988764E-3  
 2.050400000000000E10    3.150037446714662E-3   1.587173414278638E-3  
 2.050600000000000E10    3.421229775995016E-3   8.022191792002155E-4  
 2.050800000000000E10    3.352232010069269E-3   2.238149142983651E-5  
 2.051000000000000E10    3.120454597390361E-3  -5.549992665355266E-4  
 2.051200000000000E10    2.874011173844338E-3  -1.019132340809813E-3  
 2.051400000000000E10    2.591137644938297E-3  -1.423006985095088E-3  
 2.051600000000000E10    2.278328036751460E-3  -1.735853212368157E-3  
 2.051800000000000E10    2.009718036451550E-3  -1.982543341539525E-3  
 2.052000000000000E10    1.760940274430646E-3  -2.243670565938508E-3  
 2.052200000000000E10    1.474686363642966E-3  -2.513972714681317E-3  
 2.052400000000000E10    1.129579402644325E-3  -2.830851046989362E-3  
 2.052600000000000E10    6.055708401146588E-4  -3.085083888705682E-3  
 2.052800000000000E10   -2.107011958422048E-6  -3.152983349368529E-3  
 2.053000000000000E10   -5.334461273849701E-4  -3.090458232219573E-3  
 2.053200000000000E10   -1.051668353654720E-3  -2.964587399253140E-3  
 2.053400000000000E10   -1.543280422791011E-3  -2.763937141194388E-3  
 2.053600000000000E10   -2.026632359182394E-3  -2.515924499473638E-3  
 2.053800000000000E10   -2.496415826802453E-3  -2.140285999134735E-3  
 2.054000000000000E10   -2.836984668478922E-3  -1.653444810977413E-3  
 2.054200000000000E10   -3.111223948912488E-3  -1.155410867391361E-3  
 2.054400000000000E10   -3.290791271461381E-3  -5.636940391182349E-4  
 2.054600000000000E10   -3.313681550530924E-3   5.741138280697026E-5  
 2.054800000000000E10   -3.229633361722033E-3   6.802444415235962E-4  
 2.055000000000000E10   -2.957279259269988E-3   1.276562175782467E-3  
 2.055200000000000E10   -2.536304950438164E-3   1.715006737935323E-3  
 2.055400000000000E10   -2.103876852844325E-3   1.964244801827051E-3  
 2.055600000000000E10   -1.801693755960851E-3   2.094492255882533E-3  
