#  HZ   S   RI   R     50.00 
! Rohde & Schwarz ZVA40 4Ports - Version 3.90 - 1145.1110k42 SN: 100403
! Date: 2023-10-03 10:43:04
! Measurement: S12 
! 
 2.000000000000000E10    1.440912496620490E-3  -5.801174635883927E-4  
 2.000200000000000E10    1.218901528907871E-3  -6.500692753535179E-4  
 2.000400000000000E10    1.021455103864917E-3  -6.177104516587233E-4  
 2.000600000000000E10    1.042065943625790E-3  -4.629265979783219E-4  
 2.000800000000000E10    1.346329666881098E-3  -5.188704328898939E-4  
 2.001000000000000E10    1.588289666185041E-3  -9.962679461840496E-4  
 2.001200000000000E10    1.373414641510649E-3  -1.683635960540010E-3  
 2.001400000000000E10    7.604272234150106E-4  -2.082549972620643E-3  
 2.001600000000000E10    1.195686103820652E-4  -2.089465907947333E-3  
 2.001800000000000E10   -3.685070676757828E-4  -1.897923023163997E-3  
 2.002000000000000E10   -7.023304631864584E-4  -1.599459536661061E-3  
 2.002200000000000E10   -8.532819632774242E-4  -1.253047809982098E-3  
 2.002400000000000E10   -8.238995861676005E-4  -1.058084437520140E-3  
 2.002600000000000E10   -8.525567569045559E-4  -1.045135394555091E-3  
 2.002800000000000E10   -1.092036233145606E-3  -1.053425977092788E-3  
 2.003000000000000E10   -1.439399682387802E-3  -8.206355254694728E-4  
 2.003200000000000E10   -1.599258727417040E-3  -3.597368664082347E-4  
 2.003400000000000E10   -1.481564008389359E-3   4.904676416678995E-5  
 2.003600000000000E10   -1.278611697704980E-3   3.112965320196738E-4  
 2.003800000000000E10   -1.075917425174496E-3   4.369529117945076E-4  
 2.004000000000000E10   -9.477833913995622E-4   5.041714714564108E-4  
 2.004200000000000E10   -8.273742795507942E-4   5.873269904519858E-4  
 2.004400000000000E10   -6.893684729692287E-4   6.544071128936830E-4  
 2.004600000000000E10   -5.501643398828391E-4   6.497117581512826E-4  
 2.004800000000000E10   -5.214399242066538E-4   6.155828739815381E-4  
 2.005000000000000E10   -5.374128576713029E-4   6.977089351606499E-4  
 2.005200000000000E10   -5.014199662212007E-4   8.551078944834939E-4  
 2.005400000000000E10   -3.204002861798753E-4   1.061321910252266E-3  
 2.005600000000000E10    3.955534096652018E-5   1.078670648972930E-3  
 2.005800000000000E10    2.095007659568463E-4   8.836854450450637E-4  
 2.006000000000000E10    2.393895057913917E-4   8.168097335362327E-4  
 2.006200000000000E10    3.329535865765295E-4   7.933336353205421E-4  
 2.006400000000000E10    4.274215995489310E-4   7.206740082000142E-4  
 2.006600000000000E10    4.736082552914957E-4   6.943531427819882E-4  
 2.006800000000000E10    6.214170810122642E-4   7.406463710027806E-4  
 2.007000000000000E10    8.769002132244226E-4   6.690190136317670E-4  
 2.007200000000000E10    1.099848981090120E-3   4.335585137237048E-4  
 2.007400000000000E10    1.195461256429553E-3   5.780342247435557E-5  
 2.007600000000000E10    1.050154788471345E-3  -3.046290668727899E-4  
 2.007800000000000E10    8.059863481141721E-4  -4.429457620085206E-4  
 2.008000000000000E10    6.652935451172569E-4  -4.563326836006004E-4  
 2.008200000000000E10    6.003567785812245E-4  -4.747214674644956E-4  
 2.008400000000000E10    5.668169979787905E-4  -5.337620422784469E-4  
 2.008600000000000E10    5.103671570440732E-4  -6.588275736933691E-4  
 2.008800000000000E10    3.682716115791765E-4  -7.626630795579176E-4  
 2.009000000000000E10    2.440123085470089E-4  -7.993922350399289E-4  
 2.009200000000000E10    1.130880730299935E-4  -8.572525866502138E-4  
 2.009400000000000E10   -8.572255785145025E-5  -8.858528295761827E-4  
 2.009600000000000E10   -2.932883263709323E-4  -8.105346530583908E-4  
 2.009800000000000E10   -3.608650471124062E-4  -6.460312942192419E-4  
 2.010000000000000E10   -3.219681927060457E-4  -6.227713627280830E-4  
 2.010200000000000E10   -4.101003515519732E-4  -6.855494115662613E-4  
 2.010400000000000E10   -5.819678190164270E-4  -7.131264083673833E-4  
 2.010600000000000E10   -8.541604268284125E-4  -6.650152909396977E-4  
 2.010800000000000E10   -1.110155186414673E-3  -4.179425919169768E-4  
 2.011000000000000E10   -1.196188600676388E-3  -6.059496292526789E-5  
 2.011200000000000E10   -1.112015912148320E-3   2.599651797711964E-4  
 2.011400000000000E10   -9.692172328711569E-4   4.869969669488018E-4  
 2.011600000000000E10   -7.466347277290937E-4   6.686772699870261E-4  
 2.011800000000000E10   -4.742182076213031E-4   6.435493914192015E-4  
 2.012000000000000E10   -4.470756253727747E-4   4.717031467553620E-4  
 2.012200000000000E10   -5.985634792366147E-4   5.030374486074082E-4  
 2.012400000000000E10   -6.510256099756119E-4   7.459855376869258E-4  
 2.012600000000000E10   -5.085294732800974E-4   1.007665643600724E-3  
 2.012800000000000E10   -2.779640066207467E-4   1.125653974286476E-3  
 2.013000000000000E10   -9.286467504779590E-5   1.174152169066171E-3  
 2.013200000000000E10    1.201819772020063E-4   1.274656538886053E-3  
 2.013400000000000E10    4.162453880309370E-4   1.280314738885212E-3  
 2.013600000000000E10    6.585867815352058E-4   1.190441006645101E-3  
 2.013800000000000E10    8.542916685756711E-4   1.088341560076785E-3  
 2.014000000000000E10    1.026384132184134E-3   9.823160297754740E-4  
 2.014200000000000E10    1.231649732447149E-3   9.189113230088060E-4  
 2.014400000000000E10    1.553122727430345E-3   7.838258637621264E-4  
 2.014600000000000E10    1.882235630254411E-3   4.702915040845122E-4  
 2.014800000000000E10    2.075448488517676E-3  -3.413172199532400E-5  
 2.015000000000000E10    2.050071629914053E-3  -5.890336509270848E-4  
 2.015200000000000E10    1.852546814242723E-3  -1.078808402073466E-3  
 2.015400000000000E10    1.491637949337378E-3  -1.424617579574755E-3  
 2.015600000000000E10    1.129847068776503E-3  -1.556370332607149E-3  
 2.015800000000000E10    8.883439996107311E-4  -1.612090818974891E-3  
 2.016000000000000E10    7.441488818989861E-4  -1.708926173087992E-3  
 2.016200000000000E10    5.802890461191168E-4  -1.916469027357245E-3  
 2.016400000000000E10    2.955285197031903E-4  -2.172296562082606E-3  
 2.016600000000000E10   -1.519001217488557E-4  -2.379317506342943E-3  
 2.016800000000000E10   -7.385566103398618E-4  -2.389993722677048E-3  
 2.017000000000000E10   -1.265969433545790E-3  -2.174126133782628E-3  
 2.017200000000000E10   -1.594496908149234E-3  -1.844383652586444E-3  
 2.017400000000000E10   -1.797682719224673E-3  -1.643924130253310E-3  
 2.017600000000000E10   -2.171498970531019E-3  -1.482057238549546E-3  
 2.017800000000000E10   -2.607993899419168E-3  -1.044374045536474E-3  
 2.018000000000000E10   -2.820266646413524E-3  -4.484826004719017E-4  
 2.018200000000000E10   -2.851818429513111E-3   1.065670887867412E-4  
 2.018400000000000E10   -2.792011762474790E-3   6.102215761698232E-4  
 2.018600000000000E10   -2.636890191538835E-3   1.093905720928753E-3  
 2.018800000000000E10   -2.422600228592386E-3   1.517088843774005E-3  
 2.019000000000000E10   -2.199412884052705E-3   1.905210869513268E-3  
 2.019200000000000E10   -1.888087010700946E-3   2.306229983927843E-3  
 2.019400000000000E10   -1.489974582786270E-3   2.638037442977046E-3  
 2.019600000000000E10   -1.035136609039281E-3   2.904663647145585E-3  
 2.019800000000000E10   -5.016318791155002E-4   3.062899503282007E-3  
 2.020000000000000E10   -2.527344595701259E-5   3.091520670065542E-3  
 2.020200000000000E10    3.329472096039006E-4   3.130803413597155E-3  
 2.020400000000000E10    8.078864516897334E-4   3.301534264198976E-3  
 2.020600000000000E10    1.569486489048067E-3   3.371588434495125E-3  
 2.020800000000000E10    2.476810951958652E-3   3.094768729405823E-3  
 2.021000000000000E10    3.206717442537164E-3   2.384132504417205E-3  
 2.021200000000000E10    3.495327743161241E-3   1.573640778430818E-3  
 2.021400000000000E10    3.582039732991914E-3   8.848829268201910E-4  
 2.021600000000000E10    3.563057619756387E-3   2.839027542511668E-4  
 2.021800000000000E10    3.502008781113007E-3  -1.894042678615711E-4  
 2.022000000000000E10    3.534677314836487E-3  -6.338377622600048E-4  
 2.022200000000000E10    3.600029869832926E-3  -1.220576902046616E-3  
 2.022400000000000E10    3.481191582977772E-3  -2.009799200926483E-3  
 2.022600000000000E10    3.036545244631944E-3  -2.789568259484238E-3  
 2.022800000000000E10    2.407173508272311E-3  -3.366421597699325E-3  
 2.023000000000000E10    1.651153023021273E-3  -3.776599851402420E-3  
 2.023200000000000E10    8.246341301990605E-4  -3.947146041433753E-3  
 2.023400000000000E10    7.088174860666499E-5  -3.894157334012383E-3  
 2.023600000000000E10   -5.961481976196354E-4  -3.735458018419183E-3  
 2.023800000000000E10   -1.197075862207531E-3  -3.484042395872099E-3  
 2.024000000000000E10   -1.695286920926545E-3  -3.122319467365743E-3  
 2.024200000000000E10   -2.031206210822235E-3  -2.721824269327853E-3  
 2.024400000000000E10   -2.299075497797242E-3  -2.408340817639305E-3  
 2.024600000000000E10   -2.614218845135636E-3  -2.132322529997723E-3  
 2.024800000000000E10   -2.952743655093659E-3  -1.774096029327700E-3  
 2.025000000000000E10   -3.256865118825694E-3  -1.351679156442392E-3  
 2.025200000000000E10   -3.547561538900123E-3  -8.358885749691616E-4  
 2.025400000000000E10   -3.748461767962134E-3  -1.978748122281913E-4  
 2.025600000000000E10   -3.806673852657832E-3   5.388043391127370E-4  
 2.025800000000000E10   -3.635858846713364E-3   1.275499352759877E-3  
 2.026000000000000E10   -3.281172876602706E-3   1.896215690426345E-3  
 2.026200000000000E10   -2.863857392106712E-3   2.423942252924597E-3  
 2.026400000000000E10   -2.394116541117798E-3   2.859880409008008E-3  
 2.026600000000000E10   -1.832590636762756E-3   3.260584668842731E-3  
 2.026800000000000E10   -1.138631715784195E-3   3.501328659807275E-3  
 2.027000000000000E10   -4.439058775685147E-4   3.525213375802578E-3  
 2.027200000000000E10    1.833982156470338E-4   3.381517086247052E-3  
 2.027400000000000E10    6.499140161193081E-4   3.125753894701233E-3  
 2.027600000000000E10    9.770356909153456E-4   2.892876089906987E-3  
 2.027800000000000E10    1.216476244196572E-3   2.767743482426913E-3  
 2.028000000000000E10    1.588726883328716E-3   2.734162347437240E-3  
 2.028200000000000E10    2.097191248824936E-3   2.586350658402583E-3  
 2.028400000000000E10    2.656995120492799E-3   2.278721152609330E-3  
 2.028600000000000E10    3.165037115391942E-3   1.718588953803259E-3  
 2.028800000000000E10    3.450330447428573E-3   9.877268371551679E-4  
 2.029000000000000E10    3.495650452182249E-3   2.354734351234741E-4  
 2.029200000000000E10    3.302628700448960E-3  -4.695836324560928E-4  
 2.029400000000000E10    2.948472739116830E-3  -9.402013505969980E-4  
 2.029600000000000E10    2.660253579601830E-3  -1.220796020115140E-3  
 2.029800000000000E10    2.467716791103652E-3  -1.474840546394756E-3  
 2.030000000000000E10    2.287287224819999E-3  -1.788488925538130E-3  
 2.030200000000000E10    2.079090138000471E-3  -2.113209965489345E-3  
 2.030400000000000E10    1.839591022063461E-3  -2.488039020035002E-3  
 2.030600000000000E10    1.446769605850640E-3  -2.959018254100725E-3  
 2.030800000000000E10    7.440322998589204E-4  -3.317816987817671E-3  
 2.031000000000000E10   -6.155604281912583E-5  -3.320917599248114E-3  
 2.031200000000000E10   -7.288823418756143E-4  -3.056521921269136E-3  
 2.031400000000000E10   -1.192393750067295E-3  -2.702883019307514E-3  
 2.031600000000000E10   -1.512964655656690E-3  -2.326294127276835E-3  
 2.031800000000000E10   -1.722006217783524E-3  -1.964773430868432E-3  
 2.032000000000000E10   -1.877818255179367E-3  -1.661152236830489E-3  
 2.032200000000000E10   -2.008563146156110E-3  -1.369351150330018E-3  
 2.032400000000000E10   -2.090111507079852E-3  -1.095965277564562E-3  
 2.032600000000000E10   -2.182738079379003E-3  -8.736941079540111E-4  
 2.032800000000000E10   -2.307810495826014E-3  -6.367224714155368E-4  
 2.033000000000000E10   -2.461335549912887E-3  -3.466606495850203E-4  
 2.033200000000000E10   -2.574223579470942E-3   5.671349918199589E-5  
 2.033400000000000E10   -2.594582607141800E-3   4.300284008984167E-4  
 2.033600000000000E10   -2.689007606449319E-3   5.921116723954954E-4  
 2.033800000000000E10   -2.582351013121230E-3   1.411655296881994E-3  
 2.034000000000000E10   -2.298657262099930E-3   2.052266466902730E-3  
 2.034200000000000E10   -1.732428660213856E-3   2.555088602857274E-3  
 2.034400000000000E10   -1.050514078492092E-3   2.763282820973316E-3  
 2.034600000000000E10   -4.694276995221038E-4   2.753801204057204E-3  
 2.034800000000000E10    2.829514531545159E-5   2.661927450839201E-3  
 2.035000000000000E10    4.922177938652445E-4   2.470169690679069E-3  
 2.035200000000000E10    8.109128648806135E-4   2.176141291626810E-3  
 2.035400000000000E10    9.615921471440407E-4   1.887052029624214E-3  
 2.035600000000000E10    1.000471758069815E-3   1.748246977243711E-3  
 2.035800000000000E10    1.122986961064148E-3   1.799499115872163E-3  
 2.036000000000000E10    1.454870945222124E-3   1.857451620270257E-3  
 2.036200000000000E10    1.959872799982995E-3   1.734744037363541E-3  
 2.036400000000000E10    2.446675854217676E-3   1.339772223196004E-3  
 2.036600000000000E10    2.752664927278221E-3   7.711308692110543E-4  
 2.036800000000000E10    2.881739849086713E-3   1.446592867091287E-4  
 2.037000000000000E10    2.822606666243555E-3  -5.067452870274861E-4  
 2.037200000000000E10    2.558401734050778E-3  -1.040394304400701E-3  
 2.037400000000000E10    2.247814146548878E-3  -1.461564147856409E-3  
 2.037600000000000E10    1.894590782610999E-3  -1.806642388763987E-3  
 2.037800000000000E10    1.517581583840060E-3  -2.067738669682984E-3  
 2.038000000000000E10    1.117948870990931E-3  -2.257007843941267E-3  
 2.038200000000000E10    6.853066877760914E-4  -2.396401986594738E-3  
 2.038400000000000E10    2.218403483030996E-4  -2.438320076943916E-3  
 2.038600000000000E10   -2.037607694625349E-4  -2.341907106362927E-3  
 2.038800000000000E10   -5.270925193829578E-4  -2.249798185571477E-3  
 2.039000000000000E10   -8.844464670947214E-4  -2.177397703269014E-3  
 2.039200000000000E10   -1.294589466357857E-3  -1.986487630616736E-3  
 2.039400000000000E10   -1.647075343543641E-3  -1.678214762014924E-3  
 2.039600000000000E10   -1.880721531141504E-3  -1.317793282070830E-3  
 2.039800000000000E10   -2.012183148137950E-3  -9.790190573160849E-4  
 2.040000000000000E10   -2.140202280708854E-3  -6.743791113596088E-4  
 2.040200000000000E10   -2.286524523371532E-3  -3.200817528399237E-4  
 2.040400000000000E10   -2.358635464959123E-3   1.450454834906132E-4  
 2.040600000000000E10   -2.271012641650475E-3   6.279136265490067E-4  
 2.040800000000000E10   -2.067815710755963E-3   1.044712753759490E-3  
 2.041000000000000E10   -1.776418969161625E-3   1.355780308698247E-3  
 2.041200000000000E10   -1.522229538862536E-3   1.573533719451523E-3  
 2.041400000000000E10   -1.293903484043700E-3   1.803182223581790E-3  
 2.041600000000000E10   -1.024038707664996E-3   2.046798269643828E-3  
 2.041800000000000E10   -6.866402547507559E-4   2.274157861707571E-3  
 2.042000000000000E10   -2.523772885597507E-4   2.501553108478770E-3  
 2.042200000000000E10    3.496502730190570E-4   2.601687244519040E-3  
 2.042400000000000E10    9.827542098606995E-4   2.459862243591084E-3  
 2.042600000000000E10    1.515982740121767E-3   2.154863675205428E-3  
 2.042800000000000E10    1.973906632535804E-3   1.714931411473196E-3  
 2.043000000000000E10    2.228800089523933E-3   1.088967690543260E-3  
 2.043200000000000E10    2.188959748219745E-3   5.189587878074819E-4  
 2.043400000000000E10    2.012577580495013E-3   1.588529661670759E-4  
 2.043600000000000E10    1.869340067913319E-3  -3.662099680011044E-5  
 2.043800000000000E10    1.837379313476476E-3  -2.027857318566537E-4  
 2.044000000000000E10    1.832616936564906E-3  -4.218173576921317E-4  
 2.044200000000000E10    1.821934248401243E-3  -6.462045525557098E-4  
 2.044400000000000E10    1.842750612945285E-3  -9.316479238210086E-4  
 2.044600000000000E10    1.816442998034167E-3  -1.340451387309090E-3  
 2.044800000000000E10    1.593734670924828E-3  -1.821637606351740E-3  
 2.045000000000000E10    1.165362369602569E-3  -2.234778346861770E-3  
 2.045200000000000E10    6.040432432919375E-4  -2.467419130060776E-3  
 2.045400000000000E10    3.176431795352221E-5  -2.477605913386301E-3  
 2.045600000000000E10   -4.395531360376167E-4  -2.318865809313678E-3  
 2.045800000000000E10   -7.595354065954409E-4  -2.140232221004956E-3  
 2.046000000000000E10   -1.042357545323026E-3  -2.004572401616585E-3  
 2.046200000000000E10   -1.370973794514107E-3  -1.897111865634352E-3  
 2.046400000000000E10   -1.808043148219126E-3  -1.695254369190446E-3  
 2.046600000000000E10   -2.221993886417261E-3  -1.268530620928900E-3  
 2.046800000000000E10   -2.408987957478306E-3  -6.449132069749874E-4  
 2.047000000000000E10   -2.286555055804827E-3  -1.096302863448660E-4  
 2.047200000000000E10   -2.107551390374149E-3   1.747204300898622E-4  
 2.047400000000000E10   -2.034085408933921E-3   3.901213956536887E-4  
 2.047600000000000E10   -1.973562454229888E-3   6.673867249412946E-4  
 2.047800000000000E10   -1.854243617861268E-3   9.083397295555952E-4  
 2.048000000000000E10   -1.770310171442912E-3   1.127492087421778E-3  
 2.048200000000000E10   -1.725062046682945E-3   1.418249547929952E-3  
 2.048400000000000E10   -1.579844218931725E-3   1.845619871200603E-3  
 2.048600000000000E10   -1.187709431784848E-3   2.225722620309688E-3  
 2.048800000000000E10   -7.017999556904408E-4   2.431307916448992E-3  
 2.049000000000000E10   -2.490738266647828E-4   2.487770310476607E-3  
 2.049200000000000E10    1.607261760516759E-4   2.473378298160287E-3  
 2.049400000000000E10    5.194710863662171E-4   2.430026057279773E-3  
 2.049600000000000E10    8.697022804645477E-4   2.400636819570705E-3  
 2.049800000000000E10    1.320411015681371E-3   2.337602608158817E-3  
 2.050000000000000E10    1.800036453067061E-3   2.174212924998116E-3  
 2.050200000000000E10    2.319542751475065E-3   1.876793029994049E-3  
 2.050400000000000E10    2.812430271188970E-3   1.348845110228860E-3  
 2.050600000000000E10    3.092347169984823E-3   5.821116918261037E-4  
 2.050800000000000E10    2.995594269538552E-3  -1.915536258933077E-4  
 2.051000000000000E10    2.656346405453888E-3  -7.465095711975463E-4  
 2.051200000000000E10    2.290888002464249E-3  -1.073506472482818E-3  
 2.051400000000000E10    1.976756754124330E-3  -1.261443129660171E-3  
 2.051600000000000E10    1.749651167357777E-3  -1.359430493867416E-3  
 2.051800000000000E10    1.654196346615568E-3  -1.471827430420636E-3  
 2.052000000000000E10    1.601192040978299E-3  -1.713357190314083E-3  
 2.052200000000000E10    1.451937510505503E-3  -2.049205267089017E-3  
 2.052400000000000E10    1.164567686996802E-3  -2.420638035407957E-3  
 2.052600000000000E10    6.910541352103064E-4  -2.725403410968958E-3  
 2.052800000000000E10    1.423030160726796E-4  -2.821338015183071E-3  
 2.053000000000000E10   -3.232345147414800E-4  -2.785463093055619E-3  
 2.053200000000000E10   -7.825679969283995E-4  -2.742232720333118E-3  
 2.053400000000000E10   -1.245402008076601E-3  -2.605668240353282E-3  
 2.053600000000000E10   -1.702451194567537E-3  -2.412538547183813E-3  
 2.053800000000000E10   -2.186673359922421E-3  -2.113509308086869E-3  
 2.054000000000000E10   -2.570467819977138E-3  -1.654294072247950E-3  
 2.054200000000000E10   -2.841039414138154E-3  -1.157381262825687E-3  
 2.054400000000000E10   -2.996861543736341E-3  -5.663617199321313E-4  
 2.054600000000000E10   -2.962663861704462E-3  -2.166685859536675E-8  
 2.054800000000000E10   -2.834729838794397E-3   4.798664444091695E-4  
 2.055000000000000E10   -2.648137975484133E-3   9.208973030053817E-4  
 2.055200000000000E10   -2.347378548878579E-3   1.291816017912402E-3  
 2.055400000000000E10   -2.014975146861908E-3   1.480731311150723E-3  
 2.055600000000000E10   -1.858447507357248E-3   1.551197778525544E-3  
