#  HZ   S   RI   R     50.00 
! Rohde & Schwarz ZVA40 4Ports - Version 3.90 - 1145.1110k42 SN: 100403
! Date: 2023-10-03 10:43:49
! Measurement: S12 
! 
 2.000000000000000E10    1.793657397897339E-3  -4.627021958279221E-4  
 2.000200000000000E10    1.552777613011101E-3  -5.867963540846859E-4  
 2.000400000000000E10    1.377179598293954E-3  -5.862553308836719E-4  
 2.000600000000000E10    1.419871686689495E-3  -5.155866388365659E-4  
 2.000800000000000E10    1.693753155289456E-3  -6.769679572026979E-4  
 2.001000000000000E10    1.884368922822025E-3  -1.210190300684070E-3  
 2.001200000000000E10    1.620889785067167E-3  -1.898410721440558E-3  
 2.001400000000000E10    9.922659002558748E-4  -2.310454817642094E-3  
 2.001600000000000E10    3.423345110660856E-4  -2.367001912200157E-3  
 2.001800000000000E10   -1.561078102191766E-4  -2.226094759372159E-3  
 2.002000000000000E10   -5.413502495000025E-4  -1.999919158080785E-3  
 2.002200000000000E10   -8.297224038993412E-4  -1.724801582970308E-3  
 2.002400000000000E10   -9.485835103134133E-4  -1.510638484938277E-3  
 2.002600000000000E10   -1.065370737893101E-3  -1.428223900121365E-3  
 2.002800000000000E10   -1.350126806512445E-3  -1.399905779188185E-3  
 2.003000000000000E10   -1.748714926595122E-3  -1.138559099451597E-3  
 2.003200000000000E10   -1.963175754656885E-3  -6.310304551607636E-4  
 2.003400000000000E10   -1.904829539389277E-3  -1.668426176429383E-4  
 2.003600000000000E10   -1.755651107648150E-3   1.597914793190869E-4  
 2.003800000000000E10   -1.600452610138237E-3   3.842124778924917E-4  
 2.004000000000000E10   -1.475890361562126E-3   5.929216995467375E-4  
 2.004200000000000E10   -1.332956460139757E-3   8.098220236124204E-4  
 2.004400000000000E10   -1.146723018526081E-3   9.910844945743560E-4  
 2.004600000000000E10   -9.360525981281643E-4   1.113237798742858E-3  
 2.004800000000000E10   -7.761394269208699E-4   1.154237682164605E-3  
 2.005000000000000E10   -6.561410678512276E-4   1.247111187170839E-3  
 2.005200000000000E10   -5.038945031172210E-4   1.390534572383780E-3  
 2.005400000000000E10   -2.397229125136496E-4   1.556627345060616E-3  
 2.005600000000000E10    1.647311082669010E-4   1.535011187613532E-3  
 2.005800000000000E10    3.963277915707281E-4   1.338717037114342E-3  
 2.006000000000000E10    5.447073186146012E-4   1.251896111766038E-3  
 2.006200000000000E10    7.351914086808364E-4   1.178232727786948E-3  
 2.006400000000000E10    9.157211747817667E-4   1.035494066357092E-3  
 2.006600000000000E10    1.030582211214145E-3   8.993416690696876E-4  
 2.006800000000000E10    1.208125314207694E-3   7.985123155788048E-4  
 2.007000000000000E10    1.444186119424034E-3   5.950797810324627E-4  
 2.007200000000000E10    1.641677753854191E-3   2.719731527962603E-4  
 2.007400000000000E10    1.703258091200588E-3  -1.741347902526537E-4  
 2.007600000000000E10    1.503139154107881E-3  -6.006351423472811E-4  
 2.007800000000000E10    1.199885270052394E-3  -8.154289975164482E-4  
 2.008000000000000E10    1.038175192182508E-3  -9.352425760072140E-4  
 2.008200000000000E10    8.849446290965987E-4  -1.092017358533057E-3  
 2.008400000000000E10    6.954976359435929E-4  -1.236165558953804E-3  
 2.008600000000000E10    4.626700915482448E-4  -1.352370225579129E-3  
 2.008800000000000E10    1.515531177364708E-4  -1.422308080201133E-3  
 2.009000000000000E10   -9.572209555961366E-5  -1.381801940508402E-3  
 2.009200000000000E10   -3.153372147200062E-4  -1.353961048138025E-3  
 2.009400000000000E10   -5.881899080062937E-4  -1.289050535053598E-3  
 2.009600000000000E10   -8.870267401230924E-4  -1.074294571634459E-3  
 2.009800000000000E10   -1.022647473186929E-3  -7.621348828820842E-4  
 2.010000000000000E10   -9.953799626862808E-4  -5.914285850142026E-4  
 2.010200000000000E10   -1.029259923351124E-3  -5.229735994182619E-4  
 2.010400000000000E10   -1.124998075032891E-3  -4.740877087403343E-4  
 2.010600000000000E10   -1.335895443507643E-3  -3.443762128612165E-4  
 2.010800000000000E10   -1.543863891593254E-3  -3.301890300100084E-5  
 2.011000000000000E10   -1.575814233326311E-3   3.908185478502985E-4  
 2.011200000000000E10   -1.408986079433757E-3   7.708589405055185E-4  
 2.011400000000000E10   -1.163989286812276E-3   1.028011165417486E-3  
 2.011600000000000E10   -8.707303151875400E-4   1.263536450092838E-3  
 2.011800000000000E10   -5.036893342870745E-4   1.334059023903875E-3  
 2.012000000000000E10   -2.692997069611865E-4   1.232443616434227E-3  
 2.012200000000000E10   -2.027986646467464E-4   1.164347836421994E-3  
 2.012400000000000E10   -1.326785000975804E-4   1.240472178503779E-3  
 2.012600000000000E10    8.175914197247052E-5   1.372550501595462E-3  
 2.012800000000000E10    3.521127236811559E-4   1.380522866204473E-3  
 2.013000000000000E10    5.400446382516022E-4   1.318400111547652E-3  
 2.013200000000000E10    7.622963157214164E-4   1.304095414076231E-3  
 2.013400000000000E10    1.085183495529180E-3   1.169888247111084E-3  
 2.013600000000000E10    1.318164448610243E-3   9.453225145001473E-4  
 2.013800000000000E10    1.448780785452713E-3   7.252329938907040E-4  
 2.014000000000000E10    1.536527553232149E-3   5.439380054465600E-4  
 2.014200000000000E10    1.682002128987217E-3   4.090126996683610E-4  
 2.014400000000000E10    1.941469277604004E-3   1.372719727943550E-4  
 2.014600000000000E10    2.151339728799132E-3  -3.177835214095011E-4  
 2.014800000000000E10    2.153317246647407E-3  -9.169975691379161E-4  
 2.015000000000000E10    1.864145750394513E-3  -1.480511485487836E-3  
 2.015200000000000E10    1.389539158623282E-3  -1.883304667363994E-3  
 2.015400000000000E10    8.556889580876985E-4  -2.092571154911332E-3  
 2.015600000000000E10    3.885522419146030E-4  -2.067938602219026E-3  
 2.015800000000000E10    9.490860205832607E-5  -1.944919722346367E-3  
 2.016000000000000E10   -9.133073645325903E-5  -1.866266707249691E-3  
 2.016200000000000E10   -2.912913457252882E-4  -1.867746916568911E-3  
 2.016400000000000E10   -5.364300550915946E-4  -1.902084430649018E-3  
 2.016600000000000E10   -8.551236012099703E-4  -1.937964581884444E-3  
 2.016800000000000E10   -1.254954211961923E-3  -1.832826586666329E-3  
 2.017000000000000E10   -1.614339392892863E-3  -1.550250356143088E-3  
 2.017200000000000E10   -1.840893365538568E-3  -1.214819077839270E-3  
 2.017400000000000E10   -1.996213092598988E-3  -9.924553968529736E-4  
 2.017600000000000E10   -2.269709055453785E-3  -8.106546851599384E-4  
 2.017800000000000E10   -2.590085647103411E-3  -3.858682897838730E-4  
 2.018000000000000E10   -2.677627777826394E-3   2.082927640415324E-4  
 2.018200000000000E10   -2.579844133246215E-3   7.727157524326978E-4  
 2.018400000000000E10   -2.380718481861086E-3   1.259867958015467E-3  
 2.018600000000000E10   -2.082539455957497E-3   1.658084457395254E-3  
 2.018800000000000E10   -1.686404056276038E-3   1.949452186662536E-3  
 2.019000000000000E10   -1.308187933393406E-3   2.105759758571232E-3  
 2.019200000000000E10   -1.022287481560261E-3   2.240026770197928E-3  
 2.019400000000000E10   -7.538110132275511E-4   2.410553406287798E-3  
 2.019600000000000E10   -4.240850141413756E-4   2.587141168261629E-3  
 2.019800000000000E10    1.046136224622275E-5   2.647020389352745E-3  
 2.020000000000000E10    4.012425155369298E-4   2.594435444760899E-3  
 2.020200000000000E10    7.060679706261943E-4   2.608603280451563E-3  
 2.020400000000000E10    1.111443686766604E-3   2.728859747380571E-3  
 2.020600000000000E10    1.758802181527540E-3   2.723432454537340E-3  
 2.020800000000000E10    2.502903519504907E-3   2.356004042727222E-3  
 2.021000000000000E10    3.056563211819580E-3   1.616425952134432E-3  
 2.021200000000000E10    3.189465633704646E-3   8.612934702627914E-4  
 2.021400000000000E10    3.163089092299650E-3   2.990190458096901E-4  
 2.021600000000000E10    3.066149023802254E-3  -1.901318376930335E-4  
 2.021800000000000E10    2.903288509121832E-3  -5.717413583070946E-4  
 2.022000000000000E10    2.838605065320316E-3  -9.023387439227032E-4  
 2.022200000000000E10    2.832757346447052E-3  -1.334429535547218E-3  
 2.022400000000000E10    2.716090999650980E-3  -1.907997834112940E-3  
 2.022600000000000E10    2.324275465475189E-3  -2.464770089352021E-3  
 2.022800000000000E10    1.784747985762701E-3  -2.903937236616703E-3  
 2.023000000000000E10    1.133140634530734E-3  -3.225992968374933E-3  
 2.023200000000000E10    4.555094321718279E-4  -3.341513003678725E-3  
 2.023400000000000E10   -1.415902635941585E-4  -3.274070919173245E-3  
 2.023600000000000E10   -6.584683181660504E-4  -3.098984758672401E-3  
 2.023800000000000E10   -1.151044009379859E-3  -2.857214052598050E-3  
 2.024000000000000E10   -1.564746861989944E-3  -2.536174661092798E-3  
 2.024200000000000E10   -1.802804774447601E-3  -2.167887122412462E-3  
 2.024400000000000E10   -1.921598953309895E-3  -1.868227399011821E-3  
 2.024600000000000E10   -2.060061715420627E-3  -1.656595606513996E-3  
 2.024800000000000E10   -2.281158596254242E-3  -1.462198084856503E-3  
 2.025000000000000E10   -2.585403134456142E-3  -1.212771316518846E-3  
 2.025200000000000E10   -2.925501604575986E-3  -8.532130039668808E-4  
 2.025400000000000E10   -3.170193618531397E-3  -3.557758777207837E-4  
 2.025600000000000E10   -3.285560298925688E-3   2.531093933320347E-4  
 2.025800000000000E10   -3.226645526556690E-3   9.331385367415817E-4  
 2.026000000000000E10   -2.993957704860610E-3   1.533688769921078E-3  
 2.026200000000000E10   -2.647326219589316E-3   2.050276661728636E-3  
 2.026400000000000E10   -2.195801474767212E-3   2.443095830119687E-3  
 2.026600000000000E10   -1.690327407842035E-3   2.776047506143528E-3  
 2.026800000000000E10   -1.101052498736193E-3   2.997899295785178E-3  
 2.027000000000000E10   -5.070938165357084E-4   3.082840088294981E-3  
 2.027200000000000E10    4.638375163948672E-5   2.987063703521964E-3  
 2.027400000000000E10    4.490927158071135E-4   2.766538441081536E-3  
 2.027600000000000E10    7.266782072311415E-4   2.562414887342066E-3  
 2.027800000000000E10    9.216113632100296E-4   2.493032020489866E-3  
 2.028000000000000E10    1.259376419470512E-3   2.527151260632301E-3  
 2.028200000000000E10    1.752837742640495E-3   2.426845389475793E-3  
 2.028400000000000E10    2.280002234718253E-3   2.120904574638287E-3  
 2.028600000000000E10    2.710235547542634E-3   1.603158476375381E-3  
 2.028800000000000E10    2.941189030062699E-3   9.910181929345854E-4  
 2.029000000000000E10    3.015899390687423E-3   3.834731992786375E-4  
 2.029200000000000E10    2.894256504467179E-3  -1.925859043110927E-4  
 2.029400000000000E10    2.621896189365367E-3  -5.934526186882913E-4  
 2.029600000000000E10    2.421383093467650E-3  -8.328468562774516E-4  
 2.029800000000000E10    2.328798274505777E-3  -1.079002647744990E-3  
 2.030000000000000E10    2.206361830548801E-3  -1.384342610050346E-3  
 2.030200000000000E10    2.043961829969607E-3  -1.673922821335157E-3  
 2.030400000000000E10    1.877538954701137E-3  -2.015778394377649E-3  
 2.030600000000000E10    1.586412672248550E-3  -2.472290320804826E-3  
 2.030800000000000E10    1.013431352670515E-3  -2.882402907643054E-3  
 2.031000000000000E10    3.366055652842217E-4  -3.006736333041219E-3  
 2.031200000000000E10   -2.805973613529788E-4  -2.889271128018207E-3  
 2.031400000000000E10   -7.734218044129850E-4  -2.648749803633663E-3  
 2.031600000000000E10   -1.120845548647606E-3  -2.368167043690390E-3  
 2.031800000000000E10   -1.361267409793297E-3  -2.075353208086128E-3  
 2.032000000000000E10   -1.552496636727128E-3  -1.805539888716897E-3  
 2.032200000000000E10   -1.694089539517714E-3  -1.556910692767812E-3  
 2.032400000000000E10   -1.814607383277068E-3  -1.347640198233840E-3  
 2.032600000000000E10   -1.989434730000948E-3  -1.151121712535037E-3  
 2.032800000000000E10   -2.176438716006439E-3  -9.267388679156151E-4  
 2.033000000000000E10   -2.382026157445378E-3  -6.561994865448541E-4  
 2.033200000000000E10   -2.562679682854456E-3  -2.707280798881304E-4  
 2.033400000000000E10   -2.667719386173068E-3   1.242861064922720E-4  
 2.033600000000000E10   -2.797116479479973E-3   3.125682449707984E-4  
 2.033800000000000E10   -2.756902058857950E-3   1.177159256834552E-3  
 2.034000000000000E10   -2.509536683452105E-3   1.850079853325285E-3  
 2.034200000000000E10   -1.982384931426419E-3   2.403093703137136E-3  
 2.034400000000000E10   -1.295499568766773E-3   2.676801496365495E-3  
 2.034600000000000E10   -6.774148154992289E-4   2.714603196507619E-3  
 2.034800000000000E10   -1.526355888687818E-4   2.643052916858852E-3  
 2.035000000000000E10    3.060466275620371E-4   2.459702366549108E-3  
 2.035200000000000E10    6.173688265851435E-4   2.201514785204834E-3  
 2.035400000000000E10    7.684835150872393E-4   1.942649985751743E-3  
 2.035600000000000E10    7.968935085491206E-4   1.825784206574346E-3  
 2.035800000000000E10    9.263314277033318E-4   1.917315638382678E-3  
 2.036000000000000E10    1.289040844316438E-3   1.995505987371437E-3  
 2.036200000000000E10    1.794454556364766E-3   1.886326020081440E-3  
 2.036400000000000E10    2.278745561500881E-3   1.544654018671057E-3  
 2.036600000000000E10    2.635683537625666E-3   1.042345856362379E-3  
 2.036800000000000E10    2.844177848571306E-3   4.393950489410986E-4  
 2.037000000000000E10    2.855980710352583E-3  -2.315827819355620E-4  
 2.037200000000000E10    2.663619462745610E-3  -7.825364078943133E-4  
 2.037400000000000E10    2.417264242729349E-3  -1.221176987099979E-3  
 2.037600000000000E10    2.098317678688179E-3  -1.619751216391477E-3  
 2.037800000000000E10    1.713928069014854E-3  -1.935137473161758E-3  
 2.038000000000000E10    1.300170847095948E-3  -2.131307731409377E-3  
 2.038200000000000E10    8.890794543645235E-4  -2.247355519046570E-3  
 2.038400000000000E10    4.951437365612469E-4  -2.310078618894696E-3  
 2.038600000000000E10    1.268456061825793E-4  -2.268805977248361E-3  
 2.038800000000000E10   -1.581567864036983E-4  -2.251080251701268E-3  
 2.039000000000000E10   -4.996955313302056E-4  -2.319747377033710E-3  
 2.039200000000000E10   -9.766822851381800E-4  -2.290839253668003E-3  
 2.039400000000000E10   -1.465460242906685E-3  -2.060113662524234E-3  
 2.039600000000000E10   -1.840790039035703E-3  -1.680038159870286E-3  
 2.039800000000000E10   -2.039272056455598E-3  -1.275406461477341E-3  
 2.040000000000000E10   -2.181122738699364E-3  -9.170598122904486E-4  
 2.040200000000000E10   -2.327735167870551E-3  -5.392840495256424E-4  
 2.040400000000000E10   -2.413072846561610E-3  -8.187142629450649E-5  
 2.040600000000000E10   -2.360499336541374E-3   4.129050833215256E-4  
 2.040800000000000E10   -2.171131711330557E-3   8.600875548443494E-4  
 2.041000000000000E10   -1.907117472225686E-3   1.156730707658171E-3  
 2.041200000000000E10   -1.698764597272708E-3   1.367429563097288E-3  
 2.041400000000000E10   -1.526752433647620E-3   1.642958952378436E-3  
 2.041600000000000E10   -1.279639806445121E-3   1.950196788642449E-3  
 2.041800000000000E10   -9.432480308330723E-4   2.214471821063831E-3  
 2.042000000000000E10   -5.155774392714580E-4   2.448133495732100E-3  
 2.042200000000000E10    4.049368193583876E-5   2.571584646294944E-3  
 2.042400000000000E10    6.379672707491574E-4   2.496583411209439E-3  
 2.042600000000000E10    1.147486842927282E-3   2.285468450521308E-3  
 2.042800000000000E10    1.621078217398268E-3   1.968809489712671E-3  
 2.043000000000000E10    1.966974494879138E-3   1.460396911787950E-3  
 2.043200000000000E10    2.044802095641386E-3   9.234656020232436E-4  
 2.043400000000000E10    2.002531150930826E-3   5.581408483742779E-4  
 2.043600000000000E10    1.954317711860923E-3   3.247686623813156E-4  
 2.043800000000000E10    1.973084645506777E-3   1.023880765608555E-4  
 2.044000000000000E10    1.964524802234438E-3  -1.547720906127785E-4  
 2.044200000000000E10    1.956130052177014E-3  -3.680940794110789E-4  
 2.044400000000000E10    2.027136120377990E-3  -6.342654709547085E-4  
 2.044600000000000E10    2.101600229540848E-3  -1.050859650428342E-3  
 2.044800000000000E10    1.994972946045637E-3  -1.601474855953652E-3  
 2.045000000000000E10    1.611780776228342E-3  -2.142023470505705E-3  
 2.045200000000000E10    1.039557196554410E-3  -2.498442627136967E-3  
 2.045400000000000E10    4.335334229880922E-4  -2.621663815759644E-3  
 2.045600000000000E10   -8.806367932939557E-5  -2.558734633963663E-3  
 2.045800000000000E10   -4.920368995460004E-4  -2.446935010054475E-3  
 2.046000000000000E10   -8.537880266698485E-4  -2.333900255990434E-3  
 2.046200000000000E10   -1.260996280226535E-3  -2.221488836508843E-3  
 2.046400000000000E10   -1.740486134483705E-3  -2.002676346228140E-3  
 2.046600000000000E10   -2.178490075662181E-3  -1.579301466268522E-3  
 2.046800000000000E10   -2.389445557899069E-3  -9.939463717150102E-4  
 2.047000000000000E10   -2.350639972506176E-3  -4.955720681737374E-4  
 2.047200000000000E10   -2.285247233623463E-3  -1.909334972534816E-4  
 2.047400000000000E10   -2.312946478249851E-3   7.878704529480553E-5  
 2.047600000000000E10   -2.309740864989873E-3   4.286587965548223E-4  
 2.047800000000000E10   -2.228327227733386E-3   7.684559119604682E-4  
 2.048000000000000E10   -2.106368236067426E-3   1.078485857135781E-3  
 2.048200000000000E10   -2.018563909774240E-3   1.373607349110607E-3  
 2.048400000000000E10   -1.909268728204440E-3   1.797966141188556E-3  
 2.048600000000000E10   -1.570589516557171E-3   2.229950442496274E-3  
 2.048800000000000E10   -1.116559086674096E-3   2.520060207917061E-3  
 2.049000000000000E10   -6.589206645108086E-4   2.712401465623958E-3  
 2.049200000000000E10   -1.679968556472812E-4   2.826150617880341E-3  
 2.049400000000000E10    3.093404371057611E-4   2.845767488772119E-3  
 2.049600000000000E10    7.633950317914717E-4   2.825794397535209E-3  
 2.049800000000000E10    1.260972781578240E-3   2.748869396861137E-3  
 2.050000000000000E10    1.800707146168951E-3   2.590054871299814E-3  
 2.050200000000000E10    2.379274762277741E-3   2.321241100590845E-3  
 2.050400000000000E10    2.954067409406474E-3   1.806544088241127E-3  
 2.050600000000000E10    3.324250840110544E-3   1.030081720666293E-3  
 2.050800000000000E10    3.325944134022719E-3   2.103517713612559E-4  
 2.051000000000000E10    3.118780134015798E-3  -3.946631645722461E-4  
 2.051200000000000E10    2.908372343230395E-3  -8.495244716865170E-4  
 2.051400000000000E10    2.668545130111369E-3  -1.255079998956694E-3  
 2.051600000000000E10    2.380754595522773E-3  -1.555844887979942E-3  
 2.051800000000000E10    2.148994120075502E-3  -1.793017376160610E-3  
 2.052000000000000E10    1.966284083512922E-3  -2.075654969056264E-3  
 2.052200000000000E10    1.744628445544269E-3  -2.404479751624014E-3  
 2.052400000000000E10    1.414413128427610E-3  -2.792528086943637E-3  
 2.052600000000000E10    8.865140614180287E-4  -3.129192971942541E-3  
 2.052800000000000E10    2.566924597253571E-4  -3.278691145311658E-3  
 2.053000000000000E10   -3.254958087101258E-4  -3.298162889892980E-3  
 2.053200000000000E10   -9.143851573364388E-4  -3.250678316134301E-3  
 2.053400000000000E10   -1.478761226157256E-3  -3.062594958883807E-3  
 2.053600000000000E10   -1.989309284107860E-3  -2.791212497991912E-3  
 2.053800000000000E10   -2.479564944673100E-3  -2.454251331687281E-3  
 2.054000000000000E10   -2.900896733818354E-3  -1.995015436679953E-3  
 2.054200000000000E10   -3.263217724721742E-3  -1.468386241414972E-3  
 2.054400000000000E10   -3.505911551599886E-3  -7.977255575987415E-4  
 2.054600000000000E10   -3.552918850325447E-3  -1.176821656952470E-4  
 2.054800000000000E10   -3.488425571670749E-3   5.350644606090853E-4  
 2.055000000000000E10   -3.286890887728138E-3   1.175455049584800E-3  
 2.055200000000000E10   -2.930481014619946E-3   1.701487927245352E-3  
 2.055400000000000E10   -2.517554547768010E-3   2.020804107058871E-3  
 2.055600000000000E10   -2.222513586451365E-3   2.228122574388368E-3  
