#  HZ   S   RI   R     50.00 
! Rohde & Schwarz ZVA40 4Ports - Version 3.90 - 1145.1110k42 SN: 100403
! Date: 2023-10-03 10:44:33
! Measurement: S12 
! 
 2.000000000000000E10    7.329639233425210E-4  -1.651610435268986E-3  
 2.000200000000000E10    3.247642392977378E-4  -1.627141999276240E-3  
 2.000400000000000E10   -4.941349734995109E-5  -1.436013414426126E-3  
 2.000600000000000E10   -1.765452681057569E-4  -1.103429597085764E-3  
 2.000800000000000E10    1.247050279361387E-7  -9.367774428789529E-4  
 2.001000000000000E10    1.771726830532221E-4  -1.147647635881573E-3  
 2.001200000000000E10   -3.445725851683955E-5  -1.547853826016280E-3  
 2.001400000000000E10   -5.713514521346264E-4  -1.677246517897808E-3  
 2.001600000000000E10   -1.067611699622375E-3  -1.459632216587367E-3  
 2.001800000000000E10   -1.381259331088743E-3  -1.108338367941295E-3  
 2.002000000000000E10   -1.563340836058950E-3  -7.182808631800491E-4  
 2.002200000000000E10   -1.591512651517425E-3  -3.005086362573560E-4  
 2.002400000000000E10   -1.469778241934600E-3   1.191620207781328E-5  
 2.002600000000000E10   -1.315482180589230E-3   1.429134162331868E-4  
 2.002800000000000E10   -1.355929052427192E-3   1.749848757973657E-4  
 2.003000000000000E10   -1.532639145425717E-3   4.135397115076506E-4  
 2.003200000000000E10   -1.527964825766220E-3   8.783307419457462E-4  
 2.003400000000000E10   -1.252092375622523E-3   1.290031324398790E-3  
 2.003600000000000E10   -8.609523902971693E-4   1.548701450126489E-3  
 2.003800000000000E10   -4.582808768445057E-4   1.663181435576141E-3  
 2.004000000000000E10   -9.023344607790454E-5   1.684908136317893E-3  
 2.004200000000000E10    2.807067805620992E-4   1.638576286475702E-3  
 2.004400000000000E10    6.339889143808236E-4   1.495433717056476E-3  
 2.004600000000000E10    9.162297448563674E-4   1.238198830878339E-3  
 2.004800000000000E10    1.041056304599640E-3   9.318647579774160E-4  
 2.005000000000000E10    1.056713977747499E-3   7.019016789275623E-4  
 2.005200000000000E10    1.048171002161019E-3   5.609104221377559E-4  
 2.005400000000000E10    1.124927479041094E-3   5.070813183767904E-4  
 2.005600000000000E10    1.333128897500683E-3   3.115673098563529E-4  
 2.005800000000000E10    1.375306916036050E-3  -3.480354293801444E-5  
 2.006000000000000E10    1.277590721758755E-3  -2.727142109930713E-4  
 2.006200000000000E10    1.222151283456450E-3  -4.424176765181028E-4  
 2.006400000000000E10    1.139823632619493E-3  -6.371535906080792E-4  
 2.006600000000000E10    9.860156589591384E-4  -7.786546814330793E-4  
 2.006800000000000E10    9.193240286589478E-4  -8.248500638534105E-4  
 2.007000000000000E10    9.310988252452322E-4  -9.794212685800855E-4  
 2.007200000000000E10    8.824277913998891E-4  -1.263955455504624E-3  
 2.007400000000000E10    6.602127681884262E-4  -1.617197187352972E-3  
 2.007600000000000E10    2.004587086790877E-4  -1.889837390439143E-3  
 2.007800000000000E10   -3.282423449066854E-4  -1.880419954934780E-3  
 2.008000000000000E10   -7.345526489883980E-4  -1.723239207908573E-3  
 2.008200000000000E10   -1.046506176266400E-3  -1.503843280444604E-3  
 2.008400000000000E10   -1.256399425621744E-3  -1.273745262582719E-3  
 2.008600000000000E10   -1.452140257449818E-3  -1.076965300725270E-3  
 2.008800000000000E10   -1.671556190463660E-3  -8.044158842635634E-4  
 2.009000000000000E10   -1.784978750633237E-3  -4.526171608510542E-4  
 2.009200000000000E10   -1.810163781538718E-3  -1.489104145065663E-4  
 2.009400000000000E10   -1.841079727146106E-3   1.394004823380650E-4  
 2.009600000000000E10   -1.868291042102514E-3   4.874592536489642E-4  
 2.009800000000000E10   -1.759307735263586E-3   9.115242222975557E-4  
 2.010000000000000E10   -1.477195922188226E-3   1.217510042276453E-3  
 2.010200000000000E10   -1.198947431892668E-3   1.380915126114297E-3  
 2.010400000000000E10   -1.007197337737371E-3   1.452580325251806E-3  
 2.010600000000000E10   -9.151133135362275E-4   1.567463077213845E-3  
 2.010800000000000E10   -7.856026907578885E-4   1.836158864587209E-3  
 2.011000000000000E10   -4.797831779110804E-4   2.147648582843086E-3  
 2.011200000000000E10    1.218068300733930E-5   2.358360026307680E-3  
 2.011400000000000E10    5.829016486125641E-4   2.370636504263565E-3  
 2.011600000000000E10    1.154435232897457E-3   2.232078386825830E-3  
 2.011800000000000E10    1.692640423788773E-3   1.854610874027586E-3  
 2.012000000000000E10    1.961033280609260E-3   1.300610443487743E-3  
 2.012200000000000E10    1.968816286035966E-3   8.482126649552177E-4  
 2.012400000000000E10    1.947393390479075E-3   5.803013078144027E-4  
 2.012600000000000E10    2.016862684130076E-3   3.230787196813984E-4  
 2.012800000000000E10    2.017816906189355E-3  -4.858477304616771E-5  
 2.013000000000000E10    1.859765915188617E-3  -3.452887783714189E-4  
 2.013200000000000E10    1.758731736045265E-3  -4.891191696595154E-4  
 2.013400000000000E10    1.750647665425594E-3  -6.959832352311421E-4  
 2.013600000000000E10    1.668895780656932E-3  -9.876069296930697E-4  
 2.013800000000000E10    1.488909921551377E-3  -1.231278054814132E-3  
 2.014000000000000E10    1.309962009638037E-3  -1.391831764760357E-3  
 2.014200000000000E10    1.184910750917232E-3  -1.507098848972373E-3  
 2.014400000000000E10    1.135474166721719E-3  -1.690699608705233E-3  
 2.014600000000000E10    1.034313580819721E-3  -2.014222293766407E-3  
 2.014800000000000E10    7.527886836537876E-4  -2.420288819464535E-3  
 2.015000000000000E10    2.193831179260030E-4  -2.762713401216825E-3  
 2.015200000000000E10   -4.511314887348730E-4  -2.877994100033052E-3  
 2.015400000000000E10   -1.159943060710546E-3  -2.759245068437851E-3  
 2.015600000000000E10   -1.775314437675153E-3  -2.368064756302064E-3  
 2.015800000000000E10   -2.163757582384179E-3  -1.871008520169166E-3  
 2.016000000000000E10   -2.374595386296797E-3  -1.340553768596195E-3  
 2.016200000000000E10   -2.424764954095352E-3  -8.936590781443037E-4  
 2.016400000000000E10   -2.414993390847197E-3  -5.258264455085798E-4  
 2.016600000000000E10   -2.409512296559185E-3  -2.517433401616546E-4  
 2.016800000000000E10   -2.484236921813590E-3   5.389109867259568E-5  
 2.017000000000000E10   -2.529405532992447E-3   4.681606322549449E-4  
 2.017200000000000E10   -2.420980031046357E-3   9.392885505943593E-4  
 2.017400000000000E10   -2.161386258969153E-3   1.287954245739973E-3  
 2.017600000000000E10   -1.975277707361411E-3   1.496583193001454E-3  
 2.017800000000000E10   -1.870273574752368E-3   1.840182129722932E-3  
 2.018000000000000E10   -1.584350139436674E-3   2.253959084757500E-3  
 2.018200000000000E10   -1.154639290112987E-3   2.553595214972301E-3  
 2.018400000000000E10   -6.797590318700587E-4   2.727191771325670E-3  
 2.018600000000000E10   -1.868630427618374E-4   2.822000743177387E-3  
 2.018800000000000E10    3.509987050614498E-4   2.792074839138670E-3  
 2.019000000000000E10    7.945370618624433E-4   2.625896702092576E-3  
 2.019200000000000E10    1.196116962695599E-3   2.424475248897926E-3  
 2.019400000000000E10    1.557816960976622E-3   2.183967945772762E-3  
 2.019600000000000E10    1.902222630966440E-3   1.900259310517598E-3  
 2.019800000000000E10    2.184755965078503E-3   1.500359803932593E-3  
 2.020000000000000E10    2.290680633400489E-3   1.057972014972376E-3  
 2.020200000000000E10    2.226259433555792E-3   7.310792657167272E-4  
 2.020400000000000E10    2.221736695747746E-3   6.168441684400493E-4  
 2.020600000000000E10    2.457192979832225E-3   4.804748514812793E-4  
 2.020800000000000E10    2.808175620780070E-3   1.213733898603520E-4  
 2.021000000000000E10    2.986335957330871E-3  -5.806679183467764E-4  
 2.021200000000000E10    2.746481933555629E-3  -1.299479627210152E-3  
 2.021400000000000E10    2.311843827453702E-3  -1.774683834241374E-3  
 2.021600000000000E10    1.848694784387905E-3  -2.066956962674693E-3  
 2.021800000000000E10    1.441576778735398E-3  -2.183724456340259E-3  
 2.022000000000000E10    1.158981424799784E-3  -2.239094510871217E-3  
 2.022200000000000E10    9.781175661277646E-4  -2.368947148670549E-3  
 2.022400000000000E10    7.157224884086809E-4  -2.658095283290711E-3  
 2.022600000000000E10    2.268032125309390E-4  -2.938209727868970E-3  
 2.022800000000000E10   -3.843765801798670E-4  -3.039185720750110E-3  
 2.023000000000000E10   -1.060580303132361E-3  -2.935859357135879E-3  
 2.023200000000000E10   -1.683321527865893E-3  -2.600802360000332E-3  
 2.023400000000000E10   -2.144013362871522E-3  -2.084539908103247E-3  
 2.023600000000000E10   -2.405178600306456E-3  -1.540162564007456E-3  
 2.023800000000000E10   -2.532935027730625E-3  -1.000429239808818E-3  
 2.024000000000000E10   -2.528904265543991E-3  -4.712242347814926E-4  
 2.024200000000000E10   -2.358144237334101E-3   1.157153683666822E-5  
 2.024400000000000E10   -2.091549986217105E-3   3.183401707026135E-4  
 2.024600000000000E10   -1.890502055974062E-3   4.516607738899729E-4  
 2.024800000000000E10   -1.753449712596343E-3   5.467569242954633E-4  
 2.025000000000000E10   -1.705065809397234E-3   6.216099262665524E-4  
 2.025200000000000E10   -1.746895687114218E-3   7.765505556943374E-4  
 2.025400000000000E10   -1.765434384928564E-3   1.066556972974020E-3  
 2.025600000000000E10   -1.672846402791527E-3   1.459444381024520E-3  
 2.025800000000000E10   -1.415114159298491E-3   1.838987085403586E-3  
 2.026000000000000E10   -1.026572635178857E-3   2.106740374171747E-3  
 2.026200000000000E10   -5.926131090374131E-4   2.258987847232709E-3  
 2.026400000000000E10   -1.646555524099994E-4   2.319875889328732E-3  
 2.026600000000000E10    2.692146490255195E-4   2.310355809684562E-3  
 2.026800000000000E10    7.150982507691044E-4   2.185817951954830E-3  
 2.027000000000000E10    1.117020485946968E-3   1.929890481302891E-3  
 2.027200000000000E10    1.425229534359882E-3   1.553971121734103E-3  
 2.027400000000000E10    1.557211291181647E-3   1.138311331875786E-3  
 2.027600000000000E10    1.517753477210872E-3   7.923169436657595E-4  
 2.027800000000000E10    1.394216656788356E-3   6.368929848895092E-4  
 2.028000000000000E10    1.429865286373808E-3   6.151800380032179E-4  
 2.028200000000000E10    1.619047565457242E-3   4.965274021270928E-4  
 2.028400000000000E10    1.817405752745676E-3   2.510728779940678E-4  
 2.028600000000000E10    1.916919760176061E-3  -1.361406306466771E-4  
 2.028800000000000E10    1.830734106851295E-3  -5.484451798515187E-4  
 2.029000000000000E10    1.632471942241893E-3  -8.928471858726895E-4  
 2.029200000000000E10    1.331992088708470E-3  -1.199402935344302E-3  
 2.029400000000000E10    9.439389415555450E-4  -1.315046863538432E-3  
 2.029600000000000E10    6.595581534557526E-4  -1.257038625265090E-3  
 2.029800000000000E10    5.103874839337694E-4  -1.175790544968502E-3  
 2.030000000000000E10    4.045929536092465E-4  -1.160659575298306E-3  
 2.030200000000000E10    3.419986723849374E-4  -1.157039064698085E-3  
 2.030400000000000E10    3.497030794641595E-4  -1.257911874319903E-3  
 2.030600000000000E10    2.248266269225309E-4  -1.514968185861875E-3  
 2.030800000000000E10   -1.722684988056710E-4  -1.703211165445925E-3  
 2.031000000000000E10   -6.419034563458497E-4  -1.612408150374552E-3  
 2.031200000000000E10   -9.962004931664047E-4  -1.345942279647152E-3  
 2.031400000000000E10   -1.203453750509273E-3  -1.022523459888974E-3  
 2.031600000000000E10   -1.294658855319187E-3  -6.719906198784496E-4  
 2.031800000000000E10   -1.217454679365256E-3  -3.340166290156513E-4  
 2.032000000000000E10   -1.078972481005916E-3  -1.225143972194539E-4  
 2.032200000000000E10   -9.078545774050845E-4  -2.423398280056356E-5  
 2.032400000000000E10   -7.712225744625956E-4  -3.913091701236320E-5  
 2.032600000000000E10   -7.473565368984656E-4  -1.334308565865174E-4  
 2.032800000000000E10   -8.256499915363317E-4  -1.967926605792866E-4  
 2.033000000000000E10   -1.006465309730058E-3  -1.752439356244611E-4  
 2.033200000000000E10   -1.171330250326968E-3   8.396482042244383E-6  
 2.033400000000000E10   -1.255407825780494E-3   2.126739308811643E-4  
 2.033600000000000E10   -1.370582903801772E-3   3.102704190277969E-4  
 2.033800000000000E10   -1.355119308569202E-3   8.109684559913922E-4  
 2.034000000000000E10   -1.193485273059780E-3   1.240184266325879E-3  
 2.034200000000000E10   -8.120732524864050E-4   1.581623966470923E-3  
 2.034400000000000E10   -3.203891030049514E-4   1.690720454233971E-3  
 2.034600000000000E10    9.204868795905921E-5   1.591184659572306E-3  
 2.034800000000000E10    4.197719521151916E-4   1.412563956635193E-3  
 2.035000000000000E10    6.613693529336276E-4   1.153673877491167E-3  
 2.035200000000000E10    7.540470800255216E-4   8.420974822792856E-4  
 2.035400000000000E10    6.609169447881430E-4   5.763678822247277E-4  
 2.035600000000000E10    4.522091949134056E-4   4.926265821557759E-4  
 2.035800000000000E10    3.466817818004613E-4   6.588560251029789E-4  
 2.036000000000000E10    4.794204579500178E-4   8.888194685295961E-4  
 2.036200000000000E10    8.284217894871928E-4   9.878622971613100E-4  
 2.036400000000000E10    1.206668065694788E-3   8.583261372488944E-4  
 2.036600000000000E10    1.478147648264679E-3   5.655191718453456E-4  
 2.036800000000000E10    1.652787603688298E-3   1.822596605651085E-4  
 2.037000000000000E10    1.671381980284221E-3  -2.914992167802198E-4  
 2.037200000000000E10    1.489040315015796E-3  -6.737064216311496E-4  
 2.037400000000000E10    1.243980219047926E-3  -9.107984189168949E-4  
 2.037600000000000E10    9.991845846768926E-4  -1.091086389516086E-3  
 2.037800000000000E10    7.693502358614439E-4  -1.214217237613339E-3  
 2.038000000000000E10    5.360616336142919E-4  -1.301112532550508E-3  
 2.038200000000000E10    3.127981603907490E-4  -1.357985710896378E-3  
 2.038400000000000E10    7.371127800501767E-5  -1.384675537589912E-3  
 2.038600000000000E10   -1.690366486820747E-4  -1.305446067674211E-3  
 2.038800000000000E10   -3.064868005410358E-4  -1.236935710184409E-3  
 2.039000000000000E10   -4.893044305713630E-4  -1.277056093735235E-3  
 2.039200000000000E10   -7.965813425404055E-4  -1.220198682080111E-3  
 2.039400000000000E10   -1.072257400754793E-3  -9.868543681947949E-4  
 2.039600000000000E10   -1.200684374364397E-3  -7.124609366284151E-4  
 2.039800000000000E10   -1.244798032132544E-3  -4.891271939329020E-4  
 2.040000000000000E10   -1.304949549779255E-3  -3.376570142234600E-4  
 2.040200000000000E10   -1.428707539192075E-3  -1.438829934424741E-4  
 2.040400000000000E10   -1.493784754545989E-3   1.614805767204056E-4  
 2.040600000000000E10   -1.426566815366573E-3   5.099308438757525E-4  
 2.040800000000000E10   -1.222686817730932E-3   7.933446364087630E-4  
 2.041000000000000E10   -9.794869348061859E-4   9.037745957306253E-4  
 2.041200000000000E10   -8.664902210055465E-4   9.231346957027833E-4  
 2.041400000000000E10   -8.499182902681497E-4   1.067614011161173E-3  
 2.041600000000000E10   -7.522725669439727E-4   1.319655539328680E-3  
 2.041800000000000E10   -5.152199518916661E-4   1.567530208452514E-3  
 2.042000000000000E10   -1.876751546495989E-4   1.795305595643798E-3  
 2.042200000000000E10    2.686141634252005E-4   1.909812018709623E-3  
 2.042400000000000E10    7.639718665971341E-4   1.818020628613199E-3  
 2.042600000000000E10    1.187894959162425E-3   1.591730010740470E-3  
 2.042800000000000E10    1.547203195474235E-3   1.263573511685047E-3  
 2.043000000000000E10    1.750498537558025E-3   7.785730488216365E-4  
 2.043200000000000E10    1.745961351953805E-3   3.189685306861864E-4  
 2.043400000000000E10    1.633823459293433E-3   1.519626345509722E-5  
 2.043600000000000E10    1.511909739613860E-3  -1.851998235064524E-4  
 2.043800000000000E10    1.456747444912495E-3  -3.465478997489129E-4  
 2.044000000000000E10    1.362123809127579E-3  -5.219045699738856E-4  
 2.044200000000000E10    1.287663361857376E-3  -6.020149832945292E-4  
 2.044400000000000E10    1.362985779789363E-3  -7.125353173158594E-4  
 2.044600000000000E10    1.476239345952439E-3  -1.015961707080363E-3  
 2.044800000000000E10    1.410963188950101E-3  -1.483862272007660E-3  
 2.045000000000000E10    1.061042737846860E-3  -1.945757862041221E-3  
 2.045200000000000E10    5.345555238421900E-4  -2.221231429297248E-3  
 2.045400000000000E10   -2.157246360679513E-5  -2.263208803310684E-3  
 2.045600000000000E10   -4.653180469915307E-4  -2.131208307614400E-3  
 2.045800000000000E10   -7.807933742982760E-4  -1.997975529387430E-3  
 2.046000000000000E10   -1.071601579750189E-3  -1.887988700117502E-3  
 2.046200000000000E10   -1.421541221336358E-3  -1.777153017270202E-3  
 2.046400000000000E10   -1.856997930119006E-3  -1.550586264809167E-3  
 2.046600000000000E10   -2.231057983374706E-3  -1.114457790434504E-3  
 2.046800000000000E10   -2.390446354391051E-3  -5.115417842079333E-4  
 2.047000000000000E10   -2.279300928059634E-3   2.077243899906138E-6  
 2.047200000000000E10   -2.114488827882256E-3   3.068962892797228E-4  
 2.047400000000000E10   -2.048826762392034E-3   5.440008783836267E-4  
 2.047600000000000E10   -1.975429565958751E-3   8.520790001611253E-4  
 2.047800000000000E10   -1.807423348574349E-3   1.137167917192749E-3  
 2.048000000000000E10   -1.637050320026407E-3   1.334554559215188E-3  
 2.048200000000000E10   -1.557059321438815E-3   1.543725874282635E-3  
 2.048400000000000E10   -1.452896757267252E-3   1.904807328335961E-3  
 2.048600000000000E10   -1.118911737007624E-3   2.278805602104269E-3  
 2.048800000000000E10   -6.724822577916276E-4   2.525264022307182E-3  
 2.049000000000000E10   -2.075603379462674E-4   2.665989085283279E-3  
 2.049200000000000E10    2.937167139553986E-4   2.709217143752223E-3  
 2.049400000000000E10    7.575184672295445E-4   2.655670440286930E-3  
 2.049600000000000E10    1.204471665483086E-3   2.558016053762476E-3  
 2.049800000000000E10    1.688513857860563E-3   2.384594602022315E-3  
 2.050000000000000E10    2.145502663923962E-3   2.115132518059003E-3  
 2.050200000000000E10    2.601990920832619E-3   1.799324164243699E-3  
 2.050400000000000E10    3.077804927608134E-3   1.298210954112199E-3  
 2.050600000000000E10    3.375826072617242E-3   5.243408028355741E-4  
 2.050800000000000E10    3.320463610473198E-3  -2.976513394430556E-4  
 2.051000000000000E10    3.016228878305937E-3  -9.258361562028713E-4  
 2.051200000000000E10    2.679029941132142E-3  -1.358840414782825E-3  
 2.051400000000000E10    2.328137463451822E-3  -1.700351947812499E-3  
 2.051600000000000E10    1.964054660474312E-3  -1.910043233272266E-3  
 2.051800000000000E10    1.695867999941009E-3  -2.059708674858607E-3  
 2.052000000000000E10    1.495286966041651E-3  -2.252862297524846E-3  
 2.052200000000000E10    1.272653753004345E-3  -2.492380818091487E-3  
 2.052400000000000E10    9.797140218148876E-4  -2.809717366216380E-3  
 2.052600000000000E10    4.865711218573982E-4  -3.111859913199977E-3  
 2.052800000000000E10   -1.318885133389655E-4  -3.233407120397941E-3  
 2.053000000000000E10   -7.235480425176718E-4  -3.204032430931191E-3  
 2.053200000000000E10   -1.322583984475026E-3  -3.083255029231086E-3  
 2.053400000000000E10   -1.874217762584979E-3  -2.793044345619462E-3  
 2.053600000000000E10   -2.328523152363481E-3  -2.445604486725663E-3  
 2.053800000000000E10   -2.762359407294762E-3  -2.033606516542259E-3  
 2.054000000000000E10   -3.094102503841715E-3  -1.525145527409756E-3  
 2.054200000000000E10   -3.366342236943268E-3  -9.828083011460976E-4  
 2.054400000000000E10   -3.535430204501409E-3  -3.235398120465925E-4  
 2.054600000000000E10   -3.518371304959591E-3   3.556060284249669E-4  
 2.054800000000000E10   -3.367372422155878E-3   1.016725437263403E-3  
 2.055000000000000E10   -3.052223451749840E-3   1.634029973367298E-3  
 2.055200000000000E10   -2.577558873011763E-3   2.084173983287460E-3  
 2.055400000000000E10   -2.113508350894224E-3   2.310200318418168E-3  
 2.055600000000000E10   -1.780419296806037E-3   2.427292345743244E-3  
