#  HZ   S   RI   R     50.00 
! Rohde & Schwarz ZVA40 4Ports - Version 3.90 - 1145.1110k42 SN: 100403
! Date: 2023-10-03 10:45:33
! Measurement: S12 
! 
 2.000000000000000E10    6.385348980036906E-4  -1.448198479331457E-3  
 2.000200000000000E10    3.242954723605269E-4  -1.423351514564572E-3  
 2.000400000000000E10    7.752700127253593E-7  -1.311391884321074E-3  
 2.000600000000000E10   -1.560082926249128E-4  -1.045782652175365E-3  
 2.000800000000000E10   -4.746317906798131E-5  -8.866269604297417E-4  
 2.001000000000000E10    8.109628698002816E-5  -1.063390674035565E-3  
 2.001200000000000E10   -1.302343608189834E-4  -1.388767237575660E-3  
 2.001400000000000E10   -6.194197300456853E-4  -1.438714402136760E-3  
 2.001600000000000E10   -1.007985162629870E-3  -1.190415511852709E-3  
 2.001800000000000E10   -1.221884146990930E-3  -9.032258661497282E-4  
 2.002000000000000E10   -1.351256982516838E-3  -6.071439183133660E-4  
 2.002200000000000E10   -1.418470771658848E-3  -2.653177711864120E-4  
 2.002400000000000E10   -1.343729983989929E-3   4.295356989740986E-5  
 2.002600000000000E10   -1.207541471065688E-3   2.099435692576747E-4  
 2.002800000000000E10   -1.204463668341739E-3   2.641739056203155E-4  
 2.003000000000000E10   -1.336698276896848E-3   4.930773219283695E-4  
 2.003200000000000E10   -1.278826476728826E-3   9.243318263972315E-4  
 2.003400000000000E10   -9.571827344502361E-4   1.257723490857691E-3  
 2.003600000000000E10   -5.798726440376916E-4   1.389957500117327E-3  
 2.003800000000000E10   -2.613299771044894E-4   1.406928584962126E-3  
 2.004000000000000E10    1.280027852486473E-6   1.393986285872117E-3  
 2.004200000000000E10    2.938871121593968E-4   1.363261462738634E-3  
 2.004400000000000E10    5.990284639544401E-4   1.236015036566622E-3  
 2.004600000000000E10    8.322385851503622E-4   9.985909797757655E-4  
 2.004800000000000E10    9.198999828871838E-4   7.413194158885251E-4  
 2.005000000000000E10    9.306595805813485E-4   5.767060439822330E-4  
 2.005200000000000E10    9.542529796324158E-4   4.814445825234971E-4  
 2.005400000000000E10    1.054300201955154E-3   4.026655724948445E-4  
 2.005600000000000E10    1.207588083622667E-3   1.793359943039545E-4  
 2.005800000000000E10    1.176564603456080E-3  -1.177482067141660E-4  
 2.006000000000000E10    1.068319579384120E-3  -2.787425873230547E-4  
 2.006200000000000E10    1.044031560057166E-3  -4.207549312656761E-4  
 2.006400000000000E10    9.767992411054260E-4  -6.278417392384625E-4  
 2.006600000000000E10    8.175204134785493E-4  -7.815013621329651E-4  
 2.006800000000000E10    7.173931483232681E-4  -8.392161694902541E-4  
 2.007000000000000E10    6.749490702360021E-4  -9.533231889682984E-4  
 2.007200000000000E10    6.076832084885855E-4  -1.130592550901082E-3  
 2.007400000000000E10    4.475202306582265E-4  -1.356636569167745E-3  
 2.007600000000000E10    1.068667862304803E-4  -1.545702440766554E-3  
 2.007800000000000E10   -2.855410364353693E-4  -1.528761090432028E-3  
 2.008000000000000E10   -5.907229279450877E-4  -1.421705291971387E-3  
 2.008200000000000E10   -8.489872660198880E-4  -1.277098822535077E-3  
 2.008400000000000E10   -1.057861405126792E-3  -1.121275665665341E-3  
 2.008600000000000E10   -1.270625345060997E-3  -9.545111177369073E-4  
 2.008800000000000E10   -1.491523132584595E-3  -6.952509166975087E-4  
 2.009000000000000E10   -1.592227944505553E-3  -3.755761635488059E-4  
 2.009200000000000E10   -1.602073554088685E-3  -1.133079676527203E-4  
 2.009400000000000E10   -1.619792605925515E-3   1.387000449335903E-4  
 2.009600000000000E10   -1.616302905313236E-3   4.729831717019257E-4  
 2.009800000000000E10   -1.463392787287940E-3   8.304681892195556E-4  
 2.010000000000000E10   -1.182243777109917E-3   1.048789719781310E-3  
 2.010200000000000E10   -9.374808951756717E-4   1.113856314568568E-3  
 2.010400000000000E10   -8.061210138756369E-4   1.134424754260350E-3  
 2.010600000000000E10   -7.703905053315157E-4   1.225022213486363E-3  
 2.010800000000000E10   -7.183079485131681E-4   1.436927825818121E-3  
 2.011000000000000E10   -5.371714294555121E-4   1.709985503724135E-3  
 2.011200000000000E10   -2.083629171155312E-4   1.912627815474141E-3  
 2.011400000000000E10    2.002385583179485E-4   2.003498556511908E-3  
 2.011600000000000E10    6.683666915787200E-4   2.013359592845638E-3  
 2.011800000000000E10    1.189611461553539E-3   1.811603375281838E-3  
 2.012000000000000E10    1.513723919320417E-3   1.406754822316983E-3  
 2.012200000000000E10    1.633231287286138E-3   1.020213620932274E-3  
 2.012400000000000E10    1.675773892629539E-3   7.482487163662505E-4  
 2.012600000000000E10    1.769288628816647E-3   5.285535298968393E-4  
 2.012800000000000E10    1.852882770434090E-3   2.253448815538483E-4  
 2.013000000000000E10    1.798526697818213E-3  -5.745891452022702E-5  
 2.013200000000000E10    1.725903176474501E-3  -2.337062203705447E-4  
 2.013400000000000E10    1.731792355875755E-3  -4.609317899779026E-4  
 2.013600000000000E10    1.651109407984746E-3  -7.408382141876799E-4  
 2.013800000000000E10    1.507230151353318E-3  -9.496705501068766E-4  
 2.014000000000000E10    1.383573200886480E-3  -1.069101115640335E-3  
 2.014200000000000E10    1.354678851617697E-3  -1.200955811979044E-3  
 2.014400000000000E10    1.378799831160375E-3  -1.481309683164745E-3  
 2.014600000000000E10    1.273211989767641E-3  -1.918579067168566E-3  
 2.014800000000000E10    9.545945380850053E-4  -2.377651658736647E-3  
 2.015000000000000E10    4.165294263863255E-4  -2.710632715641209E-3  
 2.015200000000000E10   -2.456568489879887E-4  -2.805945386747499E-3  
 2.015400000000000E10   -8.878179796416665E-4  -2.684485591362867E-3  
 2.015600000000000E10   -1.423515880728123E-3  -2.365996961889522E-3  
 2.015800000000000E10   -1.783210312026339E-3  -2.001355339764759E-3  
 2.016000000000000E10   -2.056382791493307E-3  -1.593847192090183E-3  
 2.016200000000000E10   -2.243469303431163E-3  -1.170394902223727E-3  
 2.016400000000000E10   -2.312612865050234E-3  -7.708087641544960E-4  
 2.016600000000000E10   -2.356443647092326E-3  -4.794708124443472E-4  
 2.016800000000000E10   -2.455952837020117E-3  -1.896400043222675E-4  
 2.017000000000000E10   -2.497787533833415E-3   2.010554500478045E-4  
 2.017200000000000E10   -2.410152767307922E-3   6.148120984648157E-4  
 2.017400000000000E10   -2.231001155662879E-3   9.272033915795005E-4  
 2.017600000000000E10   -2.163265780862474E-3   1.153066554478325E-3  
 2.017800000000000E10   -2.145855807007533E-3   1.531244026380575E-3  
 2.018000000000000E10   -1.917764640997937E-3   1.996519291504210E-3  
 2.018200000000000E10   -1.553400711727993E-3   2.377645892977023E-3  
 2.018400000000000E10   -1.130306749858063E-3   2.708595787872368E-3  
 2.018600000000000E10   -6.132076047285031E-4   2.982830117173189E-3  
 2.018800000000000E10    3.712215271691517E-5   3.087693361489172E-3  
 2.019000000000000E10    6.359902731156027E-4   2.938187686920756E-3  
 2.019200000000000E10    1.106687955801919E-3   2.667231784421895E-3  
 2.019400000000000E10    1.470932662025648E-3   2.375945370538407E-3  
 2.019600000000000E10    1.796605150989055E-3   2.123135815436678E-3  
 2.019800000000000E10    2.106451836233405E-3   1.750414606022698E-3  
 2.020000000000000E10    2.271133520246123E-3   1.329119000099210E-3  
 2.020200000000000E10    2.307829062132112E-3   9.805898271008635E-4  
 2.020400000000000E10    2.381171660021969E-3   7.958977500189890E-4  
 2.020600000000000E10    2.624580241064808E-3   5.971416938583198E-4  
 2.020800000000000E10    2.929949606045946E-3   2.066370721131896E-4  
 2.021000000000000E10    3.103689913977567E-3  -4.554716921020292E-4  
 2.021200000000000E10    2.894559403865546E-3  -1.168927568936975E-3  
 2.021400000000000E10    2.525682948971473E-3  -1.677219488437318E-3  
 2.021600000000000E10    2.084371878016614E-3  -2.037119394227184E-3  
 2.021800000000000E10    1.667187015727669E-3  -2.206970282349928E-3  
 2.022000000000000E10    1.353960473569589E-3  -2.320224121560382E-3  
 2.022200000000000E10    1.103735526051152E-3  -2.502460615853390E-3  
 2.022400000000000E10    7.790352758820345E-4  -2.816708751802685E-3  
 2.022600000000000E10    2.319384436710149E-4  -3.075532799358479E-3  
 2.022800000000000E10   -3.920894480908497E-4  -3.118984224288106E-3  
 2.023000000000000E10   -1.011806268335563E-3  -2.970501838981236E-3  
 2.023200000000000E10   -1.582889385570782E-3  -2.661259132271531E-3  
 2.023400000000000E10   -2.048159628517867E-3  -2.239783248861783E-3  
 2.023600000000000E10   -2.370246287260086E-3  -1.755891536631759E-3  
 2.023800000000000E10   -2.591363985747163E-3  -1.215156418021922E-3  
 2.024000000000000E10   -2.659781745360023E-3  -6.187265149700974E-4  
 2.024200000000000E10   -2.505711060306707E-3  -7.295905729776669E-5  
 2.024400000000000E10   -2.237549754725244E-3   2.806413510807929E-4  
 2.024600000000000E10   -2.023288447222812E-3   4.535887774268272E-4  
 2.024800000000000E10   -1.871052243150582E-3   5.613200847697766E-4  
 2.025000000000000E10   -1.772288869411142E-3   6.215239702562806E-4  
 2.025200000000000E10   -1.845723442956163E-3   7.579075978227485E-4  
 2.025400000000000E10   -1.904482313725459E-3   1.056348049057606E-3  
 2.025600000000000E10   -1.850546385423481E-3   1.469520982349044E-3  
 2.025800000000000E10   -1.605157412970443E-3   1.891407274546475E-3  
 2.026000000000000E10   -1.224917152459094E-3   2.217353317880836E-3  
 2.026200000000000E10   -7.709347563199949E-4   2.468880658678518E-3  
 2.026400000000000E10   -2.586486142760910E-4   2.612272911689481E-3  
 2.026600000000000E10    2.835654484100832E-4   2.638247484636415E-3  
 2.026800000000000E10    8.530388929497163E-4   2.471808916196834E-3  
 2.027000000000000E10    1.349159506327992E-3   2.106005134475435E-3  
 2.027200000000000E10    1.655402949976594E-3   1.617373293941443E-3  
 2.027400000000000E10    1.712905233512952E-3   1.146274471275541E-3  
 2.027600000000000E10    1.635826948055465E-3   8.210889305340927E-4  
 2.027800000000000E10    1.532152757538352E-3   6.699895747286834E-4  
 2.028000000000000E10    1.577639814986554E-3   6.141877134643133E-4  
 2.028200000000000E10    1.738350162368538E-3   4.538505431615909E-4  
 2.028400000000000E10    1.911565426095320E-3   1.721950620195618E-4  
 2.028600000000000E10    1.970697502522350E-3  -2.039825110014932E-4  
 2.028800000000000E10    1.858360497699468E-3  -5.980130675930413E-4  
 2.029000000000000E10    1.674091052542404E-3  -9.187559120866944E-4  
 2.029200000000000E10    1.437405230539768E-3  -1.192104185584061E-3  
 2.029400000000000E10    1.111694216889018E-3  -1.351851508912740E-3  
 2.029600000000000E10    8.376050579240572E-4  -1.375154852825083E-3  
 2.029800000000000E10    6.590479118635686E-4  -1.386012644461962E-3  
 2.030000000000000E10    4.742354864787970E-4  -1.426764128372626E-3  
 2.030200000000000E10    3.017442952856893E-4  -1.442435154337211E-3  
 2.030400000000000E10    1.941120083016913E-4  -1.495293392194174E-3  
 2.030600000000000E10    2.048013889343580E-5  -1.645543978590701E-3  
 2.030800000000000E10   -3.654309774173000E-4  -1.742647550936356E-3  
 2.031000000000000E10   -7.912772234176379E-4  -1.644823101159342E-3  
 2.031200000000000E10   -1.145674778284165E-3  -1.394566233768606E-3  
 2.031400000000000E10   -1.386355258656934E-3  -1.037963104893982E-3  
 2.031600000000000E10   -1.473882250244504E-3  -6.411382156740419E-4  
 2.031800000000000E10   -1.389999491835113E-3  -2.969225753621371E-4  
 2.032000000000000E10   -1.261429753788639E-3  -5.246741259007258E-5  
 2.032200000000000E10   -1.100296045874715E-3   1.376965971256215E-4  
 2.032400000000000E10   -8.782793653926740E-4   1.857082594231776E-4  
 2.032600000000000E10   -7.648191074421145E-4   1.068629004496392E-4  
 2.032800000000000E10   -7.854937004351450E-4   3.210470539491159E-5  
 2.033000000000000E10   -9.344835591680588E-4   1.389256530120655E-5  
 2.033200000000000E10   -1.089520298420030E-3   1.390261500385763E-4  
 2.033400000000000E10   -1.175855609667685E-3   3.161632300306303E-4  
 2.033600000000000E10   -1.332873507263942E-3   4.381984306461254E-4  
 2.033800000000000E10   -1.275389280311253E-3   9.719035546029881E-4  
 2.034000000000000E10   -1.009297109256658E-3   1.403627498505377E-3  
 2.034200000000000E10   -5.559073287495213E-4   1.673454997390721E-3  
 2.034400000000000E10   -4.697990347549637E-5   1.667159262748227E-3  
 2.034600000000000E10    3.303187907485473E-4   1.491440711128743E-3  
 2.034800000000000E10    5.861818129646789E-4   1.288707757807157E-3  
 2.035000000000000E10    7.813868417085748E-4   1.046010338205038E-3  
 2.035200000000000E10    8.535221295912847E-4   7.188243966513702E-4  
 2.035400000000000E10    7.407620508441260E-4   4.576676663991443E-4  
 2.035600000000000E10    5.282665222588834E-4   4.046266229769796E-4  
 2.035800000000000E10    4.454563554681091E-4   5.507655283999200E-4  
 2.036000000000000E10    5.947770922494138E-4   7.070463647861108E-4  
 2.036200000000000E10    8.672143369013580E-4   7.241615303558083E-4  
 2.036400000000000E10    1.115357441611467E-3   5.606293872790984E-4  
 2.036600000000000E10    1.286068750062791E-3   3.387112990266821E-4  
 2.036800000000000E10    1.455192801074540E-3   6.680953845427129E-5  
 2.037000000000000E10    1.495616699989532E-3  -3.215318574042076E-4  
 2.037200000000000E10    1.345018472895271E-3  -6.674176697911928E-4  
 2.037400000000000E10    1.165329908224738E-3  -9.159029875433999E-4  
 2.037600000000000E10    9.266115883712163E-4  -1.137698615390865E-3  
 2.037800000000000E10    6.162926005535085E-4  -1.280588394144474E-3  
 2.038000000000000E10    3.135109216858813E-4  -1.308765844201821E-3  
 2.038200000000000E10    7.680727174010054E-5  -1.252759813734094E-3  
 2.038400000000000E10   -1.211962602082357E-4  -1.194537556162688E-3  
 2.038600000000000E10   -2.782179099541582E-4  -1.099242258374597E-3  
 2.038800000000000E10   -3.337718257079689E-4  -1.041906088851013E-3  
 2.039000000000000E10   -4.380474285028619E-4  -1.097629777040460E-3  
 2.039200000000000E10   -7.077000171740582E-4  -1.120820283891850E-3  
 2.039400000000000E10   -9.892821276438004E-4  -9.549610463668172E-4  
 2.039600000000000E10   -1.150108789919299E-3  -6.935843183246449E-4  
 2.039800000000000E10   -1.218848417779486E-3  -4.596014237018153E-4  
 2.040000000000000E10   -1.265098214288108E-3  -2.914374754386808E-4  
 2.040200000000000E10   -1.363936556276025E-3  -1.119581686065056E-4  
 2.040400000000000E10   -1.461896399503548E-3   1.805570591471966E-4  
 2.040600000000000E10   -1.443637184776554E-3   5.473218412837288E-4  
 2.040800000000000E10   -1.245599636498404E-3   8.722523813905276E-4  
 2.041000000000000E10   -9.725954761291287E-4   1.032274769215230E-3  
 2.041200000000000E10   -8.128314296827249E-4   1.066206755863520E-3  
 2.041400000000000E10   -7.548385036856442E-4   1.164304638850146E-3  
 2.041600000000000E10   -6.303751658942301E-4   1.396274911240326E-3  
 2.041800000000000E10   -3.643077159933687E-4   1.629292880383888E-3  
 2.042000000000000E10    1.894108101906430E-5   1.813281528381432E-3  
 2.042200000000000E10    5.175892779422561E-4   1.847403666197171E-3  
 2.042400000000000E10    9.911259338541984E-4   1.670280950531475E-3  
 2.042600000000000E10    1.330021963923211E-3   1.391686805888921E-3  
 2.042800000000000E10    1.617937843192055E-3   1.049524511906521E-3  
 2.043000000000000E10    1.791655373582304E-3   6.040393496816012E-4  
 2.043200000000000E10    1.761706291959119E-3   1.781259846409421E-4  
 2.043400000000000E10    1.622460565967698E-3  -1.473248976942480E-4  
 2.043600000000000E10    1.452325256564119E-3  -3.605990603441402E-4  
 2.043800000000000E10    1.340649839339429E-3  -5.257791103852290E-4  
 2.044000000000000E10    1.196307051935604E-3  -6.794151830960315E-4  
 2.044200000000000E10    1.107414310670799E-3  -7.266377545089144E-4  
 2.044400000000000E10    1.153750588101849E-3  -7.926190306458460E-4  
 2.044600000000000E10    1.245279384793194E-3  -1.028927289670707E-3  
 2.044800000000000E10    1.197671951973042E-3  -1.421344797652499E-3  
 2.045000000000000E10    9.301484894758607E-4  -1.854334996038203E-3  
 2.045200000000000E10    4.568805272799096E-4  -2.146088512235776E-3  
 2.045400000000000E10   -1.012819827902904E-4  -2.192019348071375E-3  
 2.045600000000000E10   -5.600104338879483E-4  -2.027901229961257E-3  
 2.045800000000000E10   -8.560985453445144E-4  -1.837975862864366E-3  
 2.046000000000000E10   -1.128856602707440E-3  -1.724671290948362E-3  
 2.046200000000000E10   -1.465630847109420E-3  -1.597107710761300E-3  
 2.046400000000000E10   -1.863124730385326E-3  -1.337022845329128E-3  
 2.046600000000000E10   -2.173884039714991E-3  -8.903189099973493E-4  
 2.046800000000000E10   -2.273292736047441E-3  -3.262921198469211E-4  
 2.047000000000000E10   -2.111875358385039E-3   1.279872076872160E-4  
 2.047200000000000E10   -1.932551506637007E-3   3.565285139066851E-4  
 2.047400000000000E10   -1.865991988518608E-3   5.433487752450509E-4  
 2.047600000000000E10   -1.795726257374397E-3   8.052142771515567E-4  
 2.047800000000000E10   -1.676861500437415E-3   1.072308551572363E-3  
 2.048000000000000E10   -1.556135304059462E-3   1.291408927325310E-3  
 2.048200000000000E10   -1.455650647016763E-3   1.518523692336147E-3  
 2.048400000000000E10   -1.318223494183644E-3   1.862088057702081E-3  
 2.048600000000000E10   -9.861418756172467E-4   2.198744672820676E-3  
 2.048800000000000E10   -5.759745888166939E-4   2.406151670188672E-3  
 2.049000000000000E10   -1.376577945690859E-4   2.561459523235145E-3  
 2.049200000000000E10    3.501759861298930E-4   2.575366389339028E-3  
 2.049400000000000E10    7.925022254672741E-4   2.482218106107949E-3  
 2.049600000000000E10    1.222308009246194E-3   2.363721305536773E-3  
 2.049800000000000E10    1.684010207318847E-3   2.173413322223980E-3  
 2.050000000000000E10    2.066822588690725E-3   1.865925856733668E-3  
 2.050200000000000E10    2.417165444074877E-3   1.549688566113088E-3  
 2.050400000000000E10    2.799582076708055E-3   1.099551089306765E-3  
 2.050600000000000E10    3.045646830763533E-3   4.537756322962434E-4  
 2.050800000000000E10    3.009760423102293E-3  -2.232789206941685E-4  
 2.051000000000000E10    2.798571235667980E-3  -7.366022793818964E-4  
 2.051200000000000E10    2.581128932060914E-3  -1.150510553623691E-3  
 2.051400000000000E10    2.285071092879045E-3  -1.560699390825843E-3  
 2.051600000000000E10    1.889178184917769E-3  -1.835081244169391E-3  
 2.051800000000000E10    1.581156391061770E-3  -1.949836363746199E-3  
 2.052000000000000E10    1.390770786670569E-3  -2.064213106411824E-3  
 2.052200000000000E10    1.238812721151180E-3  -2.271037155815768E-3  
 2.052400000000000E10    1.011361217177873E-3  -2.603147377748702E-3  
 2.052600000000000E10    5.616016735850061E-4  -2.938106610638279E-3  
 2.052800000000000E10   -1.840126189600560E-5  -3.096056690263436E-3  
 2.053000000000000E10   -5.650283665683536E-4  -3.088979116996416E-3  
 2.053200000000000E10   -1.103964972527255E-3  -3.009000844079456E-3  
 2.053400000000000E10   -1.654655199546660E-3  -2.803799743379440E-3  
 2.053600000000000E10   -2.167374605973429E-3  -2.523941027376419E-3  
 2.053800000000000E10   -2.661698546700045E-3  -2.122948798233739E-3  
 2.054000000000000E10   -3.006201360252108E-3  -1.615558134323165E-3  
 2.054200000000000E10   -3.300740539545682E-3  -1.082260337648052E-3  
 2.054400000000000E10   -3.480263556494365E-3  -4.114867833152756E-4  
 2.054600000000000E10   -3.473058644750626E-3   2.463819274036133E-4  
 2.054800000000000E10   -3.370372990703374E-3   8.598320004332883E-4  
 2.055000000000000E10   -3.123809481181555E-3   1.457238674139731E-3  
 2.055200000000000E10   -2.693721920402210E-3   1.955903097328625E-3  
 2.055400000000000E10   -2.233345879129864E-3   2.233155541215102E-3  
 2.055600000000000E10   -1.900775786727237E-3   2.403352995374245E-3  
