#  HZ   S   RI   R     50.00 
! Rohde & Schwarz ZVA40 4Ports - Version 3.90 - 1145.1110k42 SN: 100403
! Date: 2023-10-03 10:46:08
! Measurement: S12 
! 
 2.000000000000000E10    3.775085145061445E-4  -1.669258883878313E-3  
 2.000200000000000E10   -8.407738013049289E-5  -1.519926771935490E-3  
 2.000400000000000E10   -4.253889556024167E-4  -1.144876480131284E-3  
 2.000600000000000E10   -3.919445973875600E-4  -6.467680203193732E-4  
 2.000800000000000E10    3.865146886204830E-6  -4.724056404630114E-4  
 2.001000000000000E10    3.165616352042114E-4  -7.865842939124524E-4  
 2.001200000000000E10    1.621082745618934E-4  -1.310269257778095E-3  
 2.001400000000000E10   -4.314347198139589E-4  -1.558958134544945E-3  
 2.001600000000000E10   -1.047350605662314E-3  -1.350663208552165E-3  
 2.001800000000000E10   -1.394936160966294E-3  -9.061176211998604E-4  
 2.002000000000000E10   -1.482627528466652E-3  -4.390030872956333E-4  
 2.002200000000000E10   -1.398740655363158E-3  -4.512452420542866E-5  
 2.002400000000000E10   -1.189127838940440E-3   1.879177744504651E-4  
 2.002600000000000E10   -1.003788126615325E-3   2.118784195098906E-4  
 2.002800000000000E10   -1.052344141004860E-3   1.466483703956733E-4  
 2.003000000000000E10   -1.306411588886454E-3   3.201888788298901E-4  
 2.003200000000000E10   -1.372851651265390E-3   8.571199407329623E-4  
 2.003400000000000E10   -1.025685070392986E-3   1.354089940978605E-3  
 2.003600000000000E10   -5.333689583988608E-4   1.574929751869705E-3  
 2.003800000000000E10   -6.814382989735651E-5   1.569396044403591E-3  
 2.004000000000000E10    3.131088947325394E-4   1.448377880647227E-3  
 2.004200000000000E10    6.143701203868267E-4   1.223194696020657E-3  
 2.004400000000000E10    7.826800373336877E-4   9.623111978771144E-4  
 2.004600000000000E10    8.783389715029410E-4   7.153528607392938E-4  
 2.004800000000000E10    8.457717902521477E-4   4.562832850583450E-4  
 2.005000000000000E10    7.322076535611242E-4   3.578203017420975E-4  
 2.005200000000000E10    7.170627341335526E-4   3.818337281700224E-4  
 2.005400000000000E10    8.980961492066676E-4   4.367809275590620E-4  
 2.005600000000000E10    1.203223292566376E-3   2.296079580031082E-4  
 2.005800000000000E10    1.246909475827843E-3  -2.036942078345341E-4  
 2.006000000000000E10    1.050893539263879E-3  -4.868462436004646E-4  
 2.006200000000000E10    8.704061181583431E-4  -6.285736676489498E-4  
 2.006400000000000E10    6.948061385134489E-4  -7.332728724397813E-4  
 2.006600000000000E10    4.931827798704215E-4  -7.167212624838692E-4  
 2.006800000000000E10    4.536200219184667E-4  -6.263615163962968E-4  
 2.007000000000000E10    5.298870619972824E-4  -6.908728808659003E-4  
 2.007200000000000E10    5.457657806138383E-4  -9.216745053475471E-4  
 2.007400000000000E10    4.134226807461043E-4  -1.243467392388410E-3  
 2.007600000000000E10    9.926613450789054E-6  -1.486608274223536E-3  
 2.007800000000000E10   -4.681541000918291E-4  -1.395826945138842E-3  
 2.008000000000000E10   -7.531910252262966E-4  -1.135187933543398E-3  
 2.008200000000000E10   -8.804752027190488E-4  -8.759898482821882E-4  
 2.008400000000000E10   -8.719916840624297E-4  -6.839408701642153E-4  
 2.008600000000000E10   -8.681838588938578E-4  -6.423958930773316E-4  
 2.008800000000000E10   -9.978595599359663E-4  -6.030825409394356E-4  
 2.009000000000000E10   -1.160665502898211E-3  -5.038615296750020E-4  
 2.009200000000000E10   -1.393565890827665E-3  -3.543943967986393E-4  
 2.009400000000000E10   -1.615498311254254E-3  -3.125394869130102E-5  
 2.009600000000000E10   -1.667695932009798E-3   4.350780653134909E-4  
 2.009800000000000E10   -1.456496705312604E-3   9.030072754363956E-4  
 2.010000000000000E10   -1.050933850584207E-3   1.152417308472695E-3  
 2.010200000000000E10   -6.910342368136311E-4   1.133258308623170E-3  
 2.010400000000000E10   -5.480769024960652E-4   9.581733913229849E-4  
 2.010600000000000E10   -6.487956992781688E-4   8.930269460607735E-4  
 2.010800000000000E10   -7.631722047212132E-4   1.116738793365428E-3  
 2.011000000000000E10   -6.689727288400639E-4   1.503200046028252E-3  
 2.011200000000000E10   -3.312293958942188E-4   1.856985782204127E-3  
 2.011400000000000E10    1.721250890024054E-4   2.034501746055429E-3  
 2.011600000000000E10    7.627748612624904E-4   2.002878361784014E-3  
 2.011800000000000E10    1.322348300298607E-3   1.641832733308368E-3  
 2.012000000000000E10    1.537043128427073E-3   1.119428512605804E-3  
 2.012200000000000E10    1.475147822480879E-3   7.507408332502913E-4  
 2.012400000000000E10    1.409212344349075E-3   5.769224601717274E-4  
 2.012600000000000E10    1.452856678458184E-3   4.487129008788386E-4  
 2.012800000000000E10    1.525470577352853E-3   2.478901947198873E-4  
 2.013000000000000E10    1.527576409797702E-3   4.432270056165659E-5  
 2.013200000000000E10    1.548218713314445E-3  -8.773642292470436E-5  
 2.013400000000000E10    1.628393826166881E-3  -3.251108418349580E-4  
 2.013600000000000E10    1.552390571350209E-3  -6.274663082203244E-4  
 2.013800000000000E10    1.395978395723634E-3  -8.459033553753004E-4  
 2.014000000000000E10    1.241377633881330E-3  -9.473523557657538E-4  
 2.014200000000000E10    1.214941339797260E-3  -9.546109164754550E-4  
 2.014400000000000E10    1.352272597199053E-3  -1.124716559310018E-3  
 2.014600000000000E10    1.405600277293060E-3  -1.550010017429789E-3  
 2.014800000000000E10    1.211513785277436E-3  -2.100976862381270E-3  
 2.015000000000000E10    7.317328436104696E-4  -2.579946982110908E-3  
 2.015200000000000E10    5.512599966971683E-5  -2.860800785667919E-3  
 2.015400000000000E10   -7.426332399237581E-4  -2.841906486952931E-3  
 2.015600000000000E10   -1.452400750066672E-3  -2.452930789095937E-3  
 2.015800000000000E10   -1.848416157170303E-3  -1.915455517002646E-3  
 2.016000000000000E10   -1.981810587573291E-3  -1.414078671519679E-3  
 2.016200000000000E10   -1.961475827466743E-3  -1.026242189569238E-3  
 2.016400000000000E10   -1.895330972785567E-3  -8.130034641650173E-4  
 2.016600000000000E10   -1.979878534459406E-3  -7.543467893552634E-4  
 2.016800000000000E10   -2.262712625878645E-3  -5.747041604654104E-4  
 2.017000000000000E10   -2.511305579294761E-3  -1.601605835287360E-4  
 2.017200000000000E10   -2.531353706195031E-3   3.599875084164748E-4  
 2.017400000000000E10   -2.348570679141968E-3   7.636283601944647E-4  
 2.017600000000000E10   -2.262124285837751E-3   1.021928852424026E-3  
 2.017800000000000E10   -2.255363950367879E-3   1.429275746089349E-3  
 2.018000000000000E10   -2.012053751789126E-3   1.886383081314925E-3  
 2.018200000000000E10   -1.655201936416604E-3   2.216829050240326E-3  
 2.018400000000000E10   -1.284123345186221E-3   2.480453909317285E-3  
 2.018600000000000E10   -9.031273743689613E-4   2.726996386492694E-3  
 2.018800000000000E10   -4.175954457389674E-4   2.953851279331211E-3  
 2.019000000000000E10    1.429177153809571E-4   3.044565550316080E-3  
 2.019200000000000E10    7.389298637317103E-4   2.979569867207313E-3  
 2.019400000000000E10    1.313452301316975E-3   2.736763939560380E-3  
 2.019600000000000E10    1.761956729661719E-3   2.394901577061342E-3  
 2.019800000000000E10    2.073010915522406E-3   1.981800884859246E-3  
 2.020000000000000E10    2.211465934337474E-3   1.539024446780483E-3  
 2.020200000000000E10    2.199459481800413E-3   1.222843584535575E-3  
 2.020400000000000E10    2.298241162120744E-3   1.178352344769663E-3  
 2.020600000000000E10    2.706204929078619E-3   1.061556218364449E-3  
 2.020800000000000E10    3.211224727608540E-3   6.221615916684294E-4  
 2.021000000000000E10    3.521865570089884E-3  -1.853474925694711E-4  
 2.021200000000000E10    3.348866193037895E-3  -1.074393596040246E-3  
 2.021400000000000E10    2.913886592091050E-3  -1.728259397808601E-3  
 2.021600000000000E10    2.404212011714225E-3  -2.157174648694050E-3  
 2.021800000000000E10    1.889170166162521E-3  -2.326493798237708E-3  
 2.022000000000000E10    1.547808277443696E-3  -2.363538608115948E-3  
 2.022200000000000E10    1.395732681784365E-3  -2.507501511754078E-3  
 2.022400000000000E10    1.191883725919014E-3  -2.921447551659780E-3  
 2.022600000000000E10    6.521629826395693E-4  -3.340746750365254E-3  
 2.022800000000000E10   -3.448713714196515E-5  -3.546711813405525E-3  
 2.023000000000000E10   -8.070636878399478E-4  -3.573464514273737E-3  
 2.023200000000000E10   -1.648404616805047E-3  -3.333479786912601E-3  
 2.023400000000000E10   -2.379421894955967E-3  -2.780727576464415E-3  
 2.023600000000000E10   -2.758517582544391E-3  -2.053666799501689E-3  
 2.023800000000000E10   -2.871553287094022E-3  -1.398511407724409E-3  
 2.024000000000000E10   -2.892761039950046E-3  -8.171193328985003E-4  
 2.024200000000000E10   -2.785782226257854E-3  -3.018734023049705E-4  
 2.024400000000000E10   -2.598490741356840E-3   5.309496640463437E-5  
 2.024600000000000E10   -2.487642058159835E-3   2.889467829430223E-4  
 2.024800000000000E10   -2.443110989981596E-3   5.201760764459413E-4  
 2.025000000000000E10   -2.406858057243589E-3   8.076341753756558E-4  
 2.025200000000000E10   -2.361520989740521E-3   1.187024132153134E-3  
 2.025400000000000E10   -2.208984692661483E-3   1.602230182515435E-3  
 2.025600000000000E10   -1.933076303958157E-3   1.997557684296260E-3  
 2.025800000000000E10   -1.522364041676032E-3   2.317932805184413E-3  
 2.026000000000000E10   -1.087108470304053E-3   2.504739858624008E-3  
 2.026200000000000E10   -7.061944781503654E-4   2.635053847628979E-3  
 2.026400000000000E10   -3.214140888303519E-4   2.794580117304936E-3  
 2.026600000000000E10    1.965356451016564E-4   2.985403010690654E-3  
 2.026800000000000E10    9.170962644189046E-4   2.960002141786211E-3  
 2.027000000000000E10    1.619295188352282E-3   2.614869166993433E-3  
 2.027200000000000E10    2.145287572164779E-3   2.008947035021805E-3  
 2.027400000000000E10    2.299521391475459E-3   1.296713588943268E-3  
 2.027600000000000E10    2.136474101585739E-3   7.522868374822502E-4  
 2.027800000000000E10    1.909174056677723E-3   5.134648501867268E-4  
 2.028000000000000E10    1.875384911940790E-3   4.301539515892481E-4  
 2.028200000000000E10    1.963253842988684E-3   2.878221230837230E-4  
 2.028400000000000E10    2.144180361848371E-3   5.983592905348493E-5  
 2.028600000000000E10    2.273615751484479E-3  -3.714744503937524E-4  
 2.028800000000000E10    2.176450700556607E-3  -8.829244380862810E-4  
 2.029000000000000E10    1.928429382301316E-3  -1.347717902347170E-3  
 2.029200000000000E10    1.493854183749652E-3  -1.738870931777782E-3  
 2.029400000000000E10    9.364994073194670E-4  -1.844373426722064E-3  
 2.029600000000000E10    5.197710832609670E-4  -1.680230385520392E-3  
 2.029800000000000E10    3.645735258167542E-4  -1.504163085310548E-3  
 2.030000000000000E10    2.953659444486861E-4  -1.488563989829502E-3  
 2.030200000000000E10    1.825114040126030E-4  -1.510176304612815E-3  
 2.030400000000000E10    1.225690439346855E-4  -1.607876687805042E-3  
 2.030600000000000E10   -8.346114294527293E-5  -1.854154804468523E-3  
 2.030800000000000E10   -6.184306636705628E-4  -2.005799792787452E-3  
 2.031000000000000E10   -1.215458439410101E-3  -1.803559348861009E-3  
 2.031200000000000E10   -1.623550444312486E-3  -1.327668088143347E-3  
 2.031400000000000E10   -1.751915192415501E-3  -7.829193865167508E-4  
 2.031600000000000E10   -1.699197755689607E-3  -3.142754182961115E-4  
 2.031800000000000E10   -1.499093772935463E-3   2.367684583863769E-5  
 2.032000000000000E10   -1.264211212940238E-3   2.168095232286479E-4  
 2.032200000000000E10   -1.074251271841795E-3   3.040834544887652E-4  
 2.032400000000000E10   -9.291958923302133E-4   3.054942148823844E-4  
 2.032600000000000E10   -8.887342331114652E-4   2.924588168999985E-4  
 2.032800000000000E10   -8.859284240809948E-4   3.435945398473170E-4  
 2.033000000000000E10   -8.803798463540498E-4   4.090146671112535E-4  
 2.033200000000000E10   -8.356998937583909E-4   5.177869044681207E-4  
 2.033400000000000E10   -7.706722920116636E-4   5.528553515488719E-4  
 2.033600000000000E10   -8.728579261604653E-4   5.044787920965457E-4  
 2.033800000000000E10   -9.341903431858455E-4   7.935775793157519E-4  
 2.034000000000000E10   -8.757570269805047E-4   1.185631109286606E-3  
 2.034200000000000E10   -5.549817560901751E-4   1.554907010695725E-3  
 2.034400000000000E10   -5.896007102516407E-5   1.711611966545016E-3  
 2.034600000000000E10    4.532505135787767E-4   1.636830172903928E-3  
 2.034800000000000E10    8.755266180629901E-4   1.365984554322046E-3  
 2.035000000000000E10    1.139569288855534E-3   9.202854161691153E-4  
 2.035200000000000E10    1.151312957517803E-3   4.090065722940145E-4  
 2.035400000000000E10    8.856558304188063E-4   3.400872482876528E-5  
 2.035600000000000E10    4.889771064174259E-4  -2.798449830511399E-5  
 2.035800000000000E10    2.442946972650258E-4   2.160905477197688E-4  
 2.036000000000000E10    3.318767872253465E-4   5.702894507263454E-4  
 2.036200000000000E10    7.014431226078745E-4   7.259114817888650E-4  
 2.036400000000000E10    1.097368178486732E-3   5.594789773444243E-4  
 2.036600000000000E10    1.329196583951053E-3   2.312749794204318E-4  
 2.036800000000000E10    1.405523004826664E-3  -1.420946746854756E-4  
 2.037000000000000E10    1.314510306757357E-3  -5.390148855642313E-4  
 2.037200000000000E10    1.068820071659615E-3  -8.320641979851107E-4  
 2.037400000000000E10    8.311376850879580E-4  -9.830668130257157E-4  
 2.037600000000000E10    6.200137532339146E-4  -1.102195404481465E-3  
 2.037800000000000E10    3.629056321827834E-4  -1.213997937336472E-3  
 2.038000000000000E10    8.112923464023537E-5  -1.209431613887442E-3  
 2.038200000000000E10   -1.434653440136807E-4  -1.109837731174021E-3  
 2.038400000000000E10   -3.098661861404702E-4  -1.023073698664199E-3  
 2.038600000000000E10   -4.535815218624510E-4  -9.107967051045029E-4  
 2.038800000000000E10   -5.161052542439675E-4  -7.680378995122920E-4  
 2.039000000000000E10   -5.703011860375374E-4  -7.010563707875986E-4  
 2.039200000000000E10   -6.972897286170428E-4  -6.581418752313857E-4  
 2.039400000000000E10   -8.381592026440267E-4  -5.077779121311773E-4  
 2.039600000000000E10   -8.866121542617036E-4  -3.088392131758156E-4  
 2.039800000000000E10   -8.458753251528115E-4  -2.117051847529150E-4  
 2.040000000000000E10   -9.067110569262304E-4  -2.152235258198530E-4  
 2.040200000000000E10   -1.093234490304266E-3  -7.265238421911628E-5  
 2.040400000000000E10   -1.212651070989209E-3   2.399622105179861E-4  
 2.040600000000000E10   -1.123357420488272E-3   5.988185049644040E-4  
 2.040800000000000E10   -8.687863160890563E-4   8.629597191710347E-4  
 2.041000000000000E10   -5.602536271728667E-4   9.511291914631006E-4  
 2.041200000000000E10   -3.739122182229983E-4   8.685297316894580E-4  
 2.041400000000000E10   -3.337760721433931E-4   8.378748905580538E-4  
 2.041600000000000E10   -3.190372927174732E-4   9.360095675758743E-4  
 2.041800000000000E10   -2.549203041938054E-4   1.118453979825624E-3  
 2.042000000000000E10   -3.040963471263508E-5   1.336350007971496E-3  
 2.042200000000000E10    3.721161029031386E-4   1.449221474934875E-3  
 2.042400000000000E10    8.053505422409488E-4   1.334921514362465E-3  
 2.042600000000000E10    1.126559438287384E-3   1.054459231342247E-3  
 2.042800000000000E10    1.373124512970264E-3   6.988379532287335E-4  
 2.043000000000000E10    1.442043367991753E-3   2.318019388990196E-4  
 2.043200000000000E10    1.235106863644848E-3  -1.464967150061483E-4  
 2.043400000000000E10    9.567634070315112E-4  -2.951303383415956E-4  
 2.043600000000000E10    7.811659770258876E-4  -2.418276593362177E-4  
 2.043800000000000E10    7.827135685394393E-4  -1.598647304265876E-4  
 2.044000000000000E10    8.648306743621276E-4  -1.657305765996923E-4  
 2.044200000000000E10    9.945642065118862E-4  -2.290681843505023E-4  
 2.044400000000000E10    1.141958440263055E-3  -3.844068969893098E-4  
 2.044600000000000E10    1.239658839264770E-3  -7.101367421758673E-4  
 2.044800000000000E10    1.168774759948806E-3  -1.144424309367659E-3  
 2.045000000000000E10    8.684473290441583E-4  -1.532053481499998E-3  
 2.045200000000000E10    4.177911118690477E-4  -1.736530771099583E-3  
 2.045400000000000E10   -2.996883492336215E-6  -1.720003960481673E-3  
 2.045600000000000E10   -2.685450319353954E-4  -1.608978755726123E-3  
 2.045800000000000E10   -4.433897905264419E-4  -1.573779821441866E-3  
 2.046000000000000E10   -6.987285774408117E-4  -1.626714634318135E-3  
 2.046200000000000E10   -1.088226405920944E-3  -1.598370488572084E-3  
 2.046400000000000E10   -1.532506358660298E-3  -1.364074293868961E-3  
 2.046600000000000E10   -1.873234693639349E-3  -9.101065620205101E-4  
 2.046800000000000E10   -1.941220293016990E-3  -3.612071997378263E-4  
 2.047000000000000E10   -1.757259155842073E-3   6.323520264467575E-5  
 2.047200000000000E10   -1.531325257670733E-3   2.295035014811467E-4  
 2.047400000000000E10   -1.465321571658147E-3   2.644283472083188E-4  
 2.047600000000000E10   -1.506509684762102E-3   3.743529086932541E-4  
 2.047800000000000E10   -1.554797673712910E-3   5.533573822043608E-4  
 2.048000000000000E10   -1.609275499818686E-3   7.635178432489436E-4  
 2.048200000000000E10   -1.645106162565450E-3   1.073397895792660E-3  
 2.048400000000000E10   -1.563598810016741E-3   1.530303764961844E-3  
 2.048600000000000E10   -1.231443207354549E-3   1.973296933876420E-3  
 2.048800000000000E10   -7.712385217647678E-4   2.229915934695322E-3  
 2.049000000000000E10   -3.065794169540621E-4   2.317198891376640E-3  
 2.049200000000000E10    7.627285320964290E-5   2.301671685949888E-3  
 2.049400000000000E10    3.772326297756217E-4   2.285819946224859E-3  
 2.049600000000000E10    7.026475088176445E-4   2.352276365675124E-3  
 2.049800000000000E10    1.182504108945989E-3   2.366540680443984E-3  
 2.050000000000000E10    1.709831359704244E-3   2.210866372434446E-3  
 2.050200000000000E10    2.236758315659784E-3   1.920974241385674E-3  
 2.050400000000000E10    2.765672517089565E-3   1.411873088390739E-3  
 2.050600000000000E10    3.059544991471886E-3   6.493962151400837E-4  
 2.050800000000000E10    2.956488873970545E-3  -1.181163891903262E-4  
 2.051000000000000E10    2.646289935427500E-3  -6.204545620058515E-4  
 2.051200000000000E10    2.381137966028886E-3  -9.352575368132951E-4  
 2.051400000000000E10    2.146236831322313E-3  -1.187575528294676E-3  
 2.051600000000000E10    1.941686631237835E-3  -1.353834742783672E-3  
 2.051800000000000E10    1.849568382848377E-3  -1.514935887556661E-3  
 2.052000000000000E10    1.791141648420398E-3  -1.784236135858077E-3  
 2.052200000000000E10    1.650691674849778E-3  -2.164783358665896E-3  
 2.052400000000000E10    1.375616315384338E-3  -2.637861767944730E-3  
 2.052600000000000E10    8.071914076644147E-4  -3.071065262006022E-3  
 2.052800000000000E10    7.459871637736256E-5  -3.203864123120353E-3  
 2.053000000000000E10   -5.267446463278001E-4  -3.067981316650540E-3  
 2.053200000000000E10   -9.931041851904199E-4  -2.906618527723132E-3  
 2.053400000000000E10   -1.412582289094083E-3  -2.733221317836900E-3  
 2.053600000000000E10   -1.827208549474125E-3  -2.564883422980338E-3  
 2.053800000000000E10   -2.300155464053890E-3  -2.322168100947215E-3  
 2.054000000000000E10   -2.755602976928155E-3  -1.941826737796267E-3  
 2.054200000000000E10   -3.193341428413988E-3  -1.449858679229187E-3  
 2.054400000000000E10   -3.480686786021164E-3  -7.449794153935841E-4  
 2.054600000000000E10   -3.534303661895756E-3  -6.175647330913042E-6  
 2.054800000000000E10   -3.416624359993472E-3   7.016163407020088E-4  
 2.055000000000000E10   -3.092708189707296E-3   1.308815602650061E-3  
 2.055200000000000E10   -2.664649884940850E-3   1.710159865058499E-3  
 2.055400000000000E10   -2.280977307416407E-3   1.905873153404689E-3  
 2.055600000000000E10   -2.080894598484408E-3   2.014789779176131E-3  
