#  HZ   S   RI   R     50.00 
! Rohde & Schwarz ZVA40 4Ports - Version 3.90 - 1145.1110k42 SN: 100403
! Date: 2023-10-03 10:47:09
! Measurement: S12 
! 
 2.000000000000000E10    5.194064959039241E-4  -1.644809624688231E-3  
 2.000200000000000E10    1.307542482907337E-4  -1.574422116391361E-3  
 2.000400000000000E10   -2.158050299812951E-4  -1.347245951970953E-3  
 2.000600000000000E10   -2.949422589759482E-4  -9.802290186593436E-4  
 2.000800000000000E10   -7.282630502037980E-5  -8.092792784547326E-4  
 2.001000000000000E10    1.283595034317444E-4  -1.048652501414847E-3  
 2.001200000000000E10   -8.558410876820222E-5  -1.476646503563468E-3  
 2.001400000000000E10   -6.400308728040929E-4  -1.605635805282901E-3  
 2.001600000000000E10   -1.168169112936528E-3  -1.370306808976725E-3  
 2.001800000000000E10   -1.516643137307808E-3  -9.685981166806664E-4  
 2.002000000000000E10   -1.646303271540072E-3  -5.099827807058530E-4  
 2.002200000000000E10   -1.601005419392512E-3  -7.753375764422210E-5  
 2.002400000000000E10   -1.421514867451919E-3   2.444505185960719E-4  
 2.002600000000000E10   -1.195740661505912E-3   3.693099595512323E-4  
 2.002800000000000E10   -1.152458779075642E-3   3.563734903325535E-4  
 2.003000000000000E10   -1.299446108167592E-3   5.122404621266107E-4  
 2.003200000000000E10   -1.302375130014257E-3   9.079862534608072E-4  
 2.003400000000000E10   -1.055527416283157E-3   1.278164982146302E-3  
 2.003600000000000E10   -6.929880420532151E-4   1.526067582164326E-3  
 2.003800000000000E10   -3.126838533832702E-4   1.631790862838595E-3  
 2.004000000000000E10    4.402122132777821E-5   1.642987222404777E-3  
 2.004200000000000E10    4.002109045468621E-4   1.586773959241866E-3  
 2.004400000000000E10    7.589175812603041E-4   1.446239285087567E-3  
 2.004600000000000E10    1.070987090469897E-3   1.172733896424305E-3  
 2.004800000000000E10    1.217257231101309E-3   8.200570776701745E-4  
 2.005000000000000E10    1.226043611829636E-3   5.478896400271641E-4  
 2.005200000000000E10    1.200334887264299E-3   3.600262887582139E-4  
 2.005400000000000E10    1.265011515260121E-3   2.380241093100792E-4  
 2.005600000000000E10    1.413203374736921E-3  -2.456670530251334E-5  
 2.005800000000000E10    1.343826825505231E-3  -3.877605342872145E-4  
 2.006000000000000E10    1.143961790708504E-3  -5.931768968766731E-4  
 2.006200000000000E10    9.982752923312450E-4  -7.101060139338109E-4  
 2.006400000000000E10    8.748539362658901E-4  -8.233509425005302E-4  
 2.006600000000000E10    7.282687646883426E-4  -9.030656751799286E-4  
 2.006800000000000E10    6.671958990297339E-4  -9.536112954748083E-4  
 2.007000000000000E10    6.132348077549840E-4  -1.099015528163275E-3  
 2.007200000000000E10    4.729405487190241E-4  -1.301722047670783E-3  
 2.007400000000000E10    2.266751962609992E-4  -1.531193906055516E-3  
 2.007600000000000E10   -1.771758730446525E-4  -1.685954039621712E-3  
 2.007800000000000E10   -6.181284174436252E-4  -1.605265939220272E-3  
 2.008000000000000E10   -9.351978574593728E-4  -1.398079451041532E-3  
 2.008200000000000E10   -1.171593907848980E-3  -1.155172080562970E-3  
 2.008400000000000E10   -1.324946273592649E-3  -9.021573843946320E-4  
 2.008600000000000E10   -1.449032154504447E-3  -6.762848652834964E-4  
 2.008800000000000E10   -1.575586247306009E-3  -4.076366354321706E-4  
 2.009000000000000E10   -1.597021435511780E-3  -9.204458301481512E-5  
 2.009200000000000E10   -1.566791696851681E-3   1.788487889211543E-4  
 2.009400000000000E10   -1.557099964864856E-3   4.159133064187552E-4  
 2.009600000000000E10   -1.534482595354496E-3   7.258346649231736E-4  
 2.009800000000000E10   -1.339373386060035E-3   1.082346367210688E-3  
 2.010000000000000E10   -9.922286133385368E-4   1.277813436033372E-3  
 2.010200000000000E10   -6.993156720453617E-4   1.283309093148886E-3  
 2.010400000000000E10   -5.578882554312849E-4   1.216729391522954E-3  
 2.010600000000000E10   -5.492809847324949E-4   1.250947669804672E-3  
 2.010800000000000E10   -5.005415205024636E-4   1.441033556471844E-3  
 2.011000000000000E10   -2.832087969584858E-4   1.693070806442813E-3  
 2.011200000000000E10    9.080508063655850E-5   1.864483824002318E-3  
 2.011400000000000E10    5.130839922980018E-4   1.905380919934253E-3  
 2.011600000000000E10    9.642695812676674E-4   1.828356767367107E-3  
 2.011800000000000E10    1.421322089002034E-3   1.533206525279161E-3  
 2.012000000000000E10    1.652051329422806E-3   1.091912741986605E-3  
 2.012200000000000E10    1.675875005144056E-3   7.257365345652334E-4  
 2.012400000000000E10    1.680390162595301E-3   4.900259269710382E-4  
 2.012600000000000E10    1.753501036422856E-3   2.687760331812960E-4  
 2.012800000000000E10    1.787146841907030E-3  -9.211184362712997E-5  
 2.013000000000000E10    1.624488469577771E-3  -4.135779522507991E-4  
 2.013200000000000E10    1.471370204320330E-3  -5.293916027258809E-4  
 2.013400000000000E10    1.431776532976985E-3  -6.765443623550560E-4  
 2.013600000000000E10    1.315655248360151E-3  -8.783639087348114E-4  
 2.013800000000000E10    1.150071882835713E-3  -9.967195889799699E-4  
 2.014000000000000E10    1.040786153263833E-3  -1.048357801057933E-3  
 2.014200000000000E10    1.040149721026141E-3  -1.082544290291586E-3  
 2.014400000000000E10    1.115596847075102E-3  -1.282259878050068E-3  
 2.014600000000000E10    1.072579792734350E-3  -1.653774562193857E-3  
 2.014800000000000E10    8.176350169233847E-4  -2.075116269530624E-3  
 2.015000000000000E10    3.446495471540098E-4  -2.418697142235128E-3  
 2.015200000000000E10   -2.601204506961768E-4  -2.579557651693916E-3  
 2.015400000000000E10   -9.124596080170868E-4  -2.505011066507377E-3  
 2.015600000000000E10   -1.481037993768889E-3  -2.161993372910301E-3  
 2.015800000000000E10   -1.825874233465075E-3  -1.701620534038113E-3  
 2.016000000000000E10   -1.968503205525546E-3  -1.257764384144969E-3  
 2.016200000000000E10   -2.009267406154869E-3  -8.947213741041088E-4  
 2.016400000000000E10   -1.991912678406188E-3  -5.981489805669482E-4  
 2.016600000000000E10   -1.991565811316213E-3  -4.006078038253398E-4  
 2.016800000000000E10   -2.086325714455779E-3  -1.970546394743328E-4  
 2.017000000000000E10   -2.185404584515256E-3   1.019135585800409E-4  
 2.017200000000000E10   -2.196374364307123E-3   4.593131895644219E-4  
 2.017400000000000E10   -2.093173361949327E-3   7.487658791756750E-4  
 2.017600000000000E10   -2.066706547089463E-3   9.758870793288473E-4  
 2.017800000000000E10   -2.107541185322933E-3   1.366135995591483E-3  
 2.018000000000000E10   -1.935521986741772E-3   1.862147794870356E-3  
 2.018200000000000E10   -1.579433339277464E-3   2.279687530301924E-3  
 2.018400000000000E10   -1.126239037345184E-3   2.587920101955670E-3  
 2.018600000000000E10   -6.232797675482865E-4   2.805730981316212E-3  
 2.018800000000000E10   -9.564403001383850E-6   2.906842276268304E-3  
 2.019000000000000E10    5.648523399514366E-4   2.802226390727086E-3  
 2.019200000000000E10    1.032949563253809E-3   2.571824592698722E-3  
 2.019400000000000E10    1.392943123789870E-3   2.291974999631445E-3  
 2.019600000000000E10    1.709027721848515E-3   2.019080674726300E-3  
 2.019800000000000E10    1.986761706032517E-3   1.680569889700568E-3  
 2.020000000000000E10    2.117022578883448E-3   1.282686183506314E-3  
 2.020200000000000E10    2.089959484319342E-3   9.740573235041799E-4  
 2.020400000000000E10    2.126291966994958E-3   8.981958233185410E-4  
 2.020600000000000E10    2.426803560125219E-3   7.840852600149301E-4  
 2.020800000000000E10    2.839343499896472E-3   3.799929629864298E-4  
 2.021000000000000E10    3.052665723618044E-3  -3.238658585729803E-4  
 2.021200000000000E10    2.882360305064786E-3  -1.030941090001893E-3  
 2.021400000000000E10    2.514235795103781E-3  -1.536927898124859E-3  
 2.021600000000000E10    2.117714838043476E-3  -1.877321450531170E-3  
 2.021800000000000E10    1.750569657046156E-3  -2.052656212624863E-3  
 2.022000000000000E10    1.470153397362242E-3  -2.175009317690133E-3  
 2.022200000000000E10    1.255613284877101E-3  -2.379379251815982E-3  
 2.022400000000000E10    9.593490654262824E-4  -2.693008771996603E-3  
 2.022600000000000E10    4.452146895113348E-4  -2.967982094310766E-3  
 2.022800000000000E10   -1.604698748654840E-4  -3.085459873146686E-3  
 2.023000000000000E10   -7.956781981693464E-4  -3.031585518412112E-3  
 2.023200000000000E10   -1.411543348139799E-3  -2.798210183063980E-3  
 2.023400000000000E10   -1.930145636114885E-3  -2.396713483867427E-3  
 2.023600000000000E10   -2.292119477273813E-3  -1.921912316048955E-3  
 2.023800000000000E10   -2.515604932122631E-3  -1.384730469812326E-3  
 2.024000000000000E10   -2.592796379309378E-3  -8.311255727843504E-4  
 2.024200000000000E10   -2.497523880185101E-3  -3.247653985803562E-4  
 2.024400000000000E10   -2.284088759258506E-3   4.490997463982777E-5  
 2.024600000000000E10   -2.105991104294073E-3   2.557352905672267E-4  
 2.024800000000000E10   -2.006943714704874E-3   4.115765670233694E-4  
 2.025000000000000E10   -1.957906619773409E-3   5.587886326229197E-4  
 2.025200000000000E10   -2.005675928801329E-3   7.479179035305848E-4  
 2.025400000000000E10   -2.050527416925092E-3   1.070643029351147E-3  
 2.025600000000000E10   -1.982188020685069E-3   1.504031895303432E-3  
 2.025800000000000E10   -1.720110470280869E-3   1.933483722665278E-3  
 2.026000000000000E10   -1.311290648497154E-3   2.265100569217702E-3  
 2.026200000000000E10   -8.465856300451026E-4   2.472186176307333E-3  
 2.026400000000000E10   -3.595072375984683E-4   2.573067474187061E-3  
 2.026600000000000E10    1.525393627623584E-4   2.603623770972843E-3  
 2.026800000000000E10    6.907595665725123E-4   2.467894265862548E-3  
 2.027000000000000E10    1.122250995961979E-3   2.180194650309533E-3  
 2.027200000000000E10    1.453409244448618E-3   1.812974225943052E-3  
 2.027400000000000E10    1.592404553106725E-3   1.418641925958477E-3  
 2.027600000000000E10    1.591911605015486E-3   1.092146187443687E-3  
 2.027800000000000E10    1.540675420715646E-3   9.341301220774935E-4  
 2.028000000000000E10    1.637677672401303E-3   8.734142200494971E-4  
 2.028200000000000E10    1.834275747108975E-3   7.050645376758325E-4  
 2.028400000000000E10    2.038198149651051E-3   4.124311357997418E-4  
 2.028600000000000E10    2.164610535835581E-3  -2.596805348143181E-6  
 2.028800000000000E10    2.105083940799805E-3  -4.530562699266888E-4  
 2.029000000000000E10    1.950267584275610E-3  -8.498419577743013E-4  
 2.029200000000000E10    1.697218572255863E-3  -1.220424572624621E-3  
 2.029400000000000E10    1.327406472360837E-3  -1.426643368314951E-3  
 2.029600000000000E10    1.010778637719607E-3  -1.471708451353429E-3  
 2.029800000000000E10    8.019164618891233E-4  -1.474173393872983E-3  
 2.030000000000000E10    6.344011168154899E-4  -1.503048431493213E-3  
 2.030200000000000E10    4.791044493307623E-4  -1.531862467857419E-3  
 2.030400000000000E10    3.788872017200643E-4  -1.623594247453702E-3  
 2.030600000000000E10    1.797184701567548E-4  -1.848769599357199E-3  
 2.030800000000000E10   -2.603903577833769E-4  -2.014807578956408E-3  
 2.031000000000000E10   -7.890767449680011E-4  -1.911866322390150E-3  
 2.031200000000000E10   -1.189671248522475E-3  -1.614884044717407E-3  
 2.031400000000000E10   -1.426817903733354E-3  -1.262307201227268E-3  
 2.031600000000000E10   -1.550080407924855E-3  -8.827330153399273E-4  
 2.031800000000000E10   -1.524720802795863E-3  -5.477338457988107E-4  
 2.032000000000000E10   -1.449505339298273E-3  -2.887167383756559E-4  
 2.032200000000000E10   -1.329495020776691E-3  -9.018353284066215E-5  
 2.032400000000000E10   -1.185398591745340E-3   6.336577896285985E-6  
 2.032600000000000E10   -1.140607242914497E-3   6.600234849395730E-6  
 2.032800000000000E10   -1.194654036952915E-3   4.577532808959531E-5  
 2.033000000000000E10   -1.305480919610990E-3   1.664221271057347E-4  
 2.033200000000000E10   -1.384332541801772E-3   3.830214961458324E-4  
 2.033400000000000E10   -1.383174574138894E-3   6.053581578918076E-4  
 2.033600000000000E10   -1.470627825037344E-3   7.133978959243230E-4  
 2.033800000000000E10   -1.347633049364283E-3   1.242824833628061E-3  
 2.034000000000000E10   -1.070902078833208E-3   1.662954919465623E-3  
 2.034200000000000E10   -5.767753724733588E-4   1.956658941196643E-3  
 2.034400000000000E10   -1.440550719659466E-5   1.985036869849337E-3  
 2.034600000000000E10    4.437495606339691E-4   1.812222110730127E-3  
 2.034800000000000E10    7.980218639228517E-4   1.565220206209417E-3  
 2.035000000000000E10    1.070904381429265E-3   1.241201956187485E-3  
 2.035200000000000E10    1.166474627617067E-3   8.262964405219921E-4  
 2.035400000000000E10    1.045625459650429E-3   4.713374796754860E-4  
 2.035600000000000E10    8.088069076100081E-4   3.553408916512012E-4  
 2.035800000000000E10    6.688923076639199E-4   4.612413518009201E-4  
 2.036000000000000E10    7.588441698621597E-4   6.268034680824426E-4  
 2.036200000000000E10    1.035764742919227E-3   6.502782355597526E-4  
 2.036400000000000E10    1.303568221515817E-3   4.805988940959870E-4  
 2.036600000000000E10    1.479911758410257E-3   2.255420047808124E-4  
 2.036800000000000E10    1.644669672658230E-3  -1.056501585894243E-4  
 2.037000000000000E10    1.660620145138590E-3  -5.823757932647028E-4  
 2.037200000000000E10    1.414350995009959E-3  -9.890884330215563E-4  
 2.037400000000000E10    1.132376913716280E-3  -1.238176466281359E-3  
 2.037600000000000E10    8.372479173979520E-4  -1.418179924647521E-3  
 2.037800000000000E10    5.210317108332158E-4  -1.529441046676286E-3  
 2.038000000000000E10    1.683556431162720E-4  -1.558101924019600E-3  
 2.038200000000000E10   -1.370585315281020E-4  -1.476139695874182E-3  
 2.038400000000000E10   -3.821995183922374E-4  -1.357956728325228E-3  
 2.038600000000000E10   -5.657567207229457E-4  -1.198367718243090E-3  
 2.038800000000000E10   -6.558938081618774E-4  -1.091345337327701E-3  
 2.039000000000000E10   -7.954549446421374E-4  -1.056032383311532E-3  
 2.039200000000000E10   -1.036730591233507E-3  -9.749034030220733E-4  
 2.039400000000000E10   -1.281008291761738E-3  -7.612356401010701E-4  
 2.039600000000000E10   -1.414773229177008E-3  -4.634821011001780E-4  
 2.039800000000000E10   -1.449790157128175E-3  -1.716641107968863E-4  
 2.040000000000000E10   -1.434623306147860E-3   8.054931002115601E-5  
 2.040200000000000E10   -1.408580081877190E-3   3.176770165773849E-4  
 2.040400000000000E10   -1.352996440203183E-3   6.008572160980908E-4  
 2.040600000000000E10   -1.210014161747077E-3   8.887657569912973E-4  
 2.040800000000000E10   -9.500897850338364E-4   1.118566983864461E-3  
 2.041000000000000E10   -6.373648409677180E-4   1.191016101422301E-3  
 2.041200000000000E10   -4.602992226027725E-4   1.137690020641666E-3  
 2.041400000000000E10   -4.242331626191378E-4   1.171442758469537E-3  
 2.041600000000000E10   -3.220176638215699E-4   1.334937827465319E-3  
 2.041800000000000E10   -1.138741942223717E-4   1.504382003125555E-3  
 2.042000000000000E10    1.850123360018637E-4   1.666989714402500E-3  
 2.042200000000000E10    6.427166368245950E-4   1.712523720859136E-3  
 2.042400000000000E10    1.124373895521129E-3   1.538074441223478E-3  
 2.042600000000000E10    1.477617825154483E-3   1.223756451795076E-3  
 2.042800000000000E10    1.742550883232222E-3   8.274762467038319E-4  
 2.043000000000000E10    1.868437626771715E-3   3.168301803066690E-4  
 2.043200000000000E10    1.758805756760778E-3  -1.487702464534841E-4  
 2.043400000000000E10    1.538166384894877E-3  -4.577724428805488E-4  
 2.043600000000000E10    1.306471131943425E-3  -6.265927680340525E-4  
 2.043800000000000E10    1.137256635728565E-3  -7.117817911992696E-4  
 2.044000000000000E10    9.854465246251238E-4  -7.749064980376262E-4  
 2.044200000000000E10    8.978380027285022E-4  -7.483108855401106E-4  
 2.044400000000000E10    9.807043227496562E-4  -7.771122361208424E-4  
 2.044600000000000E10    1.094212904553324E-3  -1.008970896287804E-3  
 2.044800000000000E10    1.038978587599471E-3  -1.399383148170794E-3  
 2.045000000000000E10    7.639164396229100E-4  -1.809111992900090E-3  
 2.045200000000000E10    2.755380907276101E-4  -2.084554472367974E-3  
 2.045400000000000E10   -2.842435502847696E-4  -2.099132048524831E-3  
 2.045600000000000E10   -7.129190756335079E-4  -1.915338252280138E-3  
 2.045800000000000E10   -9.954800107697334E-4  -1.717998375415642E-3  
 2.046000000000000E10   -1.250176959546308E-3  -1.553279619353513E-3  
 2.046200000000000E10   -1.531283194744286E-3  -1.377770599226072E-3  
 2.046400000000000E10   -1.864262012731596E-3  -1.114343522860919E-3  
 2.046600000000000E10   -2.125794693491638E-3  -6.571319427848618E-4  
 2.046800000000000E10   -2.151715954374752E-3  -1.068769001477742E-4  
 2.047000000000000E10   -1.959379726001388E-3   3.061055179386625E-4  
 2.047200000000000E10   -1.762921027102473E-3   4.969311961231335E-4  
 2.047400000000000E10   -1.684761604453447E-3   6.489199551080441E-4  
 2.047600000000000E10   -1.617653132405662E-3   8.736021374543908E-4  
 2.047800000000000E10   -1.482304807734912E-3   1.078890170476169E-3  
 2.048000000000000E10   -1.370419119740230E-3   1.224953773159791E-3  
 2.048200000000000E10   -1.328970432949219E-3   1.406637441942228E-3  
 2.048400000000000E10   -1.235719596980728E-3   1.757033911144432E-3  
 2.048600000000000E10   -9.057961450527740E-4   2.103264005169116E-3  
 2.048800000000000E10   -4.856336824747104E-4   2.295284383710104E-3  
 2.049000000000000E10   -6.824199817295007E-5   2.387692706930274E-3  
 2.049200000000000E10    3.486204437960644E-4   2.413446159678191E-3  
 2.049400000000000E10    7.469757037087391E-4   2.376334435529207E-3  
 2.049600000000000E10    1.158983493979661E-3   2.313733738593700E-3  
 2.049800000000000E10    1.607793650837299E-3   2.171630067597508E-3  
 2.050000000000000E10    2.041386703834548E-3   1.916026188796076E-3  
 2.050200000000000E10    2.463848696307037E-3   1.584507206807899E-3  
 2.050400000000000E10    2.882287149506213E-3   1.062740440051160E-3  
 2.050600000000000E10    3.092132536008798E-3   3.341301035863754E-4  
 2.050800000000000E10    2.967488494836677E-3  -3.848119104185466E-4  
 2.051000000000000E10    2.674758489123173E-3  -8.685487102879836E-4  
 2.051200000000000E10    2.437399799718765E-3  -1.222239535106674E-3  
 2.051400000000000E10    2.150082934003070E-3  -1.572110693902629E-3  
 2.051600000000000E10    1.817254802634983E-3  -1.788310223441294E-3  
 2.051800000000000E10    1.562939708836115E-3  -1.910318619438337E-3  
 2.052000000000000E10    1.384378980549677E-3  -2.068177646044753E-3  
 2.052200000000000E10    1.206132702876068E-3  -2.293436973797312E-3  
 2.052400000000000E10    9.570007772871798E-4  -2.625206277897785E-3  
 2.052600000000000E10    4.769593783218634E-4  -2.958362703826952E-3  
 2.052800000000000E10   -1.479972212562175E-4  -3.079945849664391E-3  
 2.053000000000000E10   -7.249815186705386E-4  -3.028913014613103E-3  
 2.053200000000000E10   -1.264061547975918E-3  -2.891323465520068E-3  
 2.053400000000000E10   -1.765936477344857E-3  -2.638745740090958E-3  
 2.053600000000000E10   -2.198485181265340E-3  -2.349681693529962E-3  
 2.053800000000000E10   -2.617862852521081E-3  -1.979294799717086E-3  
 2.054000000000000E10   -2.944047433747023E-3  -1.494630000419459E-3  
 2.054200000000000E10   -3.207916195219478E-3  -9.738454390483282E-4  
 2.054400000000000E10   -3.364815414599159E-3  -3.516861187562089E-4  
 2.054600000000000E10   -3.358408655404064E-3   2.759527249797730E-4  
 2.054800000000000E10   -3.259105757764611E-3   8.876255978651305E-4  
 2.055000000000000E10   -3.005615251149879E-3   1.480758130856141E-3  
 2.055200000000000E10   -2.581683891473205E-3   1.958706471070419E-3  
 2.055400000000000E10   -2.129437193759110E-3   2.218434740105754E-3  
 2.055600000000000E10   -1.812711442919950E-3   2.339215328296026E-3  
