#  HZ   S   RI   R     50.00 
! Rohde & Schwarz ZVA40 4Ports - Version 3.90 - 1145.1110k42 SN: 100403
! Date: 2023-10-03 10:48:07
! Measurement: S12 
! 
 2.000000000000000E10    5.276691673359072E-4  -1.448414780311951E-3  
 2.000200000000000E10    2.314028595688114E-4  -1.387416307078134E-3  
 2.000400000000000E10   -5.194210398212551E-5  -1.249519500662762E-3  
 2.000600000000000E10   -1.637291988590893E-4  -9.880108751567822E-4  
 2.000800000000000E10   -3.126318029124933E-5  -8.266024653962506E-4  
 2.001000000000000E10    1.289099432655985E-4  -9.995140874395120E-4  
 2.001200000000000E10   -5.859531094355787E-5  -1.367831003156359E-3  
 2.001400000000000E10   -5.580055121825111E-4  -1.482257484613821E-3  
 2.001600000000000E10   -9.978361701442483E-4  -1.258792472657483E-3  
 2.001800000000000E10   -1.238714525522729E-3  -9.282571368209448E-4  
 2.002000000000000E10   -1.351666186647051E-3  -6.062788664977394E-4  
 2.002200000000000E10   -1.391052468007011E-3  -2.796417723684927E-4  
 2.002400000000000E10   -1.311567622931248E-3   4.844421075401973E-8  
 2.002600000000000E10   -1.175808908221294E-3   1.209403975362323E-4  
 2.002800000000000E10   -1.226702561728898E-3   1.480875705103152E-4  
 2.003000000000000E10   -1.423026561020790E-3   4.041428125550087E-4  
 2.003200000000000E10   -1.389508824793356E-3   8.854826052716173E-4  
 2.003400000000000E10   -1.069784230993576E-3   1.257918242429638E-3  
 2.003600000000000E10   -6.890654462552748E-4   1.417424460165254E-3  
 2.003800000000000E10   -3.635687101084082E-4   1.483617716419473E-3  
 2.004000000000000E10   -4.804527857475009E-5   1.511523939876093E-3  
 2.004200000000000E10    2.712713457575266E-4   1.469600211980548E-3  
 2.004400000000000E10    5.923533087443953E-4   1.360595982534974E-3  
 2.004600000000000E10    8.921822187864228E-4   1.124448212464930E-3  
 2.004800000000000E10    1.043009833465950E-3   8.137798030802383E-4  
 2.005000000000000E10    1.044460664630817E-3   5.616238417653653E-4  
 2.005200000000000E10    1.002490397354918E-3   4.035633131053648E-4  
 2.005400000000000E10    1.031365768065626E-3   3.501129048597750E-4  
 2.005600000000000E10    1.166655591907935E-3   1.731594446395508E-4  
 2.005800000000000E10    1.168476816703905E-3  -8.442525671217786E-5  
 2.006000000000000E10    1.102977468241236E-3  -2.287601653947628E-4  
 2.006200000000000E10    1.098594609776808E-3  -3.906848956360043E-4  
 2.006400000000000E10    1.039865200435909E-3  -6.036817595849406E-4  
 2.006600000000000E10    9.059581845080218E-4  -7.652609362503303E-4  
 2.006800000000000E10    8.322794531888505E-4  -8.898474535352080E-4  
 2.007000000000000E10    7.460283793238171E-4  -1.054630343660467E-3  
 2.007200000000000E10    6.154632670860218E-4  -1.242656659213107E-3  
 2.007400000000000E10    3.925207547739551E-4  -1.467658802683823E-3  
 2.007600000000000E10   -4.815364254212337E-6  -1.633805604525947E-3  
 2.007800000000000E10   -4.245466045852924E-4  -1.562265845532621E-3  
 2.008000000000000E10   -7.128820558140122E-4  -1.377628847842106E-3  
 2.008200000000000E10   -9.184243577974500E-4  -1.180126096201174E-3  
 2.008400000000000E10   -1.056377543376016E-3  -1.009508872276515E-3  
 2.008600000000000E10   -1.230975573554135E-3  -9.066235851841393E-4  
 2.008800000000000E10   -1.470321048094555E-3  -7.083839303049485E-4  
 2.009000000000000E10   -1.591660750171346E-3  -3.948252610906968E-4  
 2.009200000000000E10   -1.644228863886293E-3  -1.210679597848158E-4  
 2.009400000000000E10   -1.696018976400848E-3   1.843288026645863E-4  
 2.009600000000000E10   -1.683399829599167E-3   5.611006955289980E-4  
 2.009800000000000E10   -1.492068806914830E-3   9.140142175327659E-4  
 2.010000000000000E10   -1.190100215828097E-3   1.118569656120418E-3  
 2.010200000000000E10   -9.387610336466705E-4   1.179109211718544E-3  
 2.010400000000000E10   -8.174717063480281E-4   1.204801453668182E-3  
 2.010600000000000E10   -7.730678855460675E-4   1.332012512491165E-3  
 2.010800000000000E10   -6.800949153314491E-4   1.563895690699024E-3  
 2.011000000000000E10   -4.338676960641458E-4   1.838715893542629E-3  
 2.011200000000000E10   -4.349639189659426E-5   2.028380663193351E-3  
 2.011400000000000E10    4.254628439101396E-4   2.094585626080776E-3  
 2.011600000000000E10    9.349897940290535E-4   2.020864147449336E-3  
 2.011800000000000E10    1.429592916998752E-3   1.710799281669770E-3  
 2.012000000000000E10    1.704662402520731E-3   1.232253270463062E-3  
 2.012200000000000E10    1.743259767053805E-3   8.099400387799251E-4  
 2.012400000000000E10    1.736035646409117E-3   5.552559208668254E-4  
 2.012600000000000E10    1.800246998933019E-3   3.536210929724517E-4  
 2.012800000000000E10    1.872961980607540E-3   2.675010112563938E-5  
 2.013000000000000E10    1.759964946225613E-3  -3.170024484774611E-4  
 2.013200000000000E10    1.608993664658984E-3  -4.914661813754109E-4  
 2.013400000000000E10    1.553546195908543E-3  -6.614955999206277E-4  
 2.013600000000000E10    1.439582607161661E-3  -8.652371240061785E-4  
 2.013800000000000E10    1.271235599332870E-3  -1.008951007765405E-3  
 2.014000000000000E10    1.153169653774889E-3  -1.069560788604199E-3  
 2.014200000000000E10    1.149375177536605E-3  -1.150531947404524E-3  
 2.014400000000000E10    1.217577056514264E-3  -1.389162235620343E-3  
 2.014600000000000E10    1.150058727425272E-3  -1.800008844803537E-3  
 2.014800000000000E10    8.551554320972868E-4  -2.252669875932901E-3  
 2.015000000000000E10    3.266930483193970E-4  -2.596074822995426E-3  
 2.015200000000000E10   -3.272354904418300E-4  -2.710105455044025E-3  
 2.015400000000000E10   -9.680160113003926E-4  -2.584737333246376E-3  
 2.015600000000000E10   -1.514517674003279E-3  -2.211935171975861E-3  
 2.015800000000000E10   -1.828772195682584E-3  -1.763531556957673E-3  
 2.016000000000000E10   -2.011473120284315E-3  -1.348733990340335E-3  
 2.016200000000000E10   -2.106056130581902E-3  -9.931367988603222E-4  
 2.016400000000000E10   -2.134703183406134E-3  -6.771306953894142E-4  
 2.016600000000000E10   -2.171263542553478E-3  -4.133830025447082E-4  
 2.016800000000000E10   -2.252850959832927E-3  -1.430486080619035E-4  
 2.017000000000000E10   -2.303345622873819E-3   1.913317403866922E-4  
 2.017200000000000E10   -2.280700264501147E-3   5.237912758066995E-4  
 2.017400000000000E10   -2.199323660305267E-3   8.039101838772147E-4  
 2.017600000000000E10   -2.162915557813688E-3   1.066988375526353E-3  
 2.017800000000000E10   -2.134727342220328E-3   1.498167396122339E-3  
 2.018000000000000E10   -1.909820009687269E-3   1.987626104009652E-3  
 2.018200000000000E10   -1.559609205783126E-3   2.378735149421469E-3  
 2.018400000000000E10   -1.112812014467415E-3   2.710237784931206E-3  
 2.018600000000000E10   -5.750057966364050E-4   2.939930600022611E-3  
 2.018800000000000E10    6.741436737872513E-5   3.042951812729186E-3  
 2.019000000000000E10    7.029308843644440E-4   2.949139580558978E-3  
 2.019200000000000E10    1.225454898109931E-3   2.668224757274926E-3  
 2.019400000000000E10    1.594253915411458E-3   2.277934904711489E-3  
 2.019600000000000E10    1.852824431675847E-3   1.911016330050554E-3  
 2.019800000000000E10    2.049193016172928E-3   1.531312033379895E-3  
 2.020000000000000E10    2.128030087246939E-3   1.170274318378141E-3  
 2.020200000000000E10    2.091382043355260E-3   9.281009315991299E-4  
 2.020400000000000E10    2.159550148209325E-3   8.830118789013935E-4  
 2.020600000000000E10    2.492857159672805E-3   7.425163915443861E-4  
 2.020800000000000E10    2.895687223434667E-3   3.289635716156058E-4  
 2.021000000000000E10    3.140930498911432E-3  -3.849458529932870E-4  
 2.021200000000000E10    2.972588622618925E-3  -1.154742451760685E-3  
 2.021400000000000E10    2.553428977405952E-3  -1.706504076836392E-3  
 2.021600000000000E10    2.062616152897525E-3  -2.048921791468690E-3  
 2.021800000000000E10    1.644076505027777E-3  -2.198662346967373E-3  
 2.022000000000000E10    1.344956947283187E-3  -2.310412486114041E-3  
 2.022200000000000E10    1.094675082057565E-3  -2.475466375751485E-3  
 2.022400000000000E10    7.616341408196486E-4  -2.741216995638796E-3  
 2.022600000000000E10    2.434537933608489E-4  -2.966928434297170E-3  
 2.022800000000000E10   -3.628868349209500E-4  -3.031467120356902E-3  
 2.023000000000000E10   -9.673449794123496E-4  -2.898362701653133E-3  
 2.023200000000000E10   -1.481770690778381E-3  -2.601636673958745E-3  
 2.023400000000000E10   -1.900160623114739E-3  -2.217683294799927E-3  
 2.023600000000000E10   -2.213551039851361E-3  -1.785231285754491E-3  
 2.023800000000000E10   -2.430353233625642E-3  -1.327771856300499E-3  
 2.024000000000000E10   -2.538935617114932E-3  -8.206180556390689E-4  
 2.024200000000000E10   -2.495227134809968E-3  -3.490944632091000E-4  
 2.024400000000000E10   -2.348095042972558E-3   2.823563020953547E-5  
 2.024600000000000E10   -2.251371926643810E-3   2.943426867395301E-4  
 2.024800000000000E10   -2.178826910274544E-3   5.623990523781770E-4  
 2.025000000000000E10   -2.045031850514521E-3   8.052854568671537E-4  
 2.025200000000000E10   -1.942854741352743E-3   1.032944865280760E-3  
 2.025400000000000E10   -1.841253697149078E-3   1.313539070867609E-3  
 2.025600000000000E10   -1.677391196006614E-3   1.654599219748847E-3  
 2.025800000000000E10   -1.378478546614942E-3   1.984133828639181E-3  
 2.026000000000000E10   -9.763542833986298E-4   2.208444011786457E-3  
 2.026200000000000E10   -5.349827059132619E-4   2.308001669692698E-3  
 2.026400000000000E10   -1.174321536122073E-4   2.307066681339595E-3  
 2.026600000000000E10    2.749269702789047E-4   2.292974366349516E-3  
 2.026800000000000E10    6.999212144595109E-4   2.182739755397669E-3  
 2.027000000000000E10    1.066206016549675E-3   1.949468681122043E-3  
 2.027200000000000E10    1.347182344385071E-3   1.610771817675565E-3  
 2.027400000000000E10    1.471045200049087E-3   1.231063408302301E-3  
 2.027600000000000E10    1.435083808751277E-3   9.371188108221203E-4  
 2.027800000000000E10    1.355214043706486E-3   8.535245081329329E-4  
 2.028000000000000E10    1.497516323287240E-3   8.676791566611020E-4  
 2.028200000000000E10    1.755766679052047E-3   7.083718786309941E-4  
 2.028400000000000E10    1.988827947154131E-3   3.981048450161157E-4  
 2.028600000000000E10    2.116325767548985E-3  -2.801838340452785E-5  
 2.028800000000000E10    2.068355333300203E-3  -4.782758684809502E-4  
 2.029000000000000E10    1.897283391022027E-3  -8.865266732375850E-4  
 2.029200000000000E10    1.610141447178890E-3  -1.258939073934630E-3  
 2.029400000000000E10    1.198573941411728E-3  -1.449117438868114E-3  
 2.029600000000000E10    8.570342973555142E-4  -1.449148806862135E-3  
 2.029800000000000E10    6.522643300553485E-4  -1.413244021676181E-3  
 2.030000000000000E10    5.016660132775640E-4  -1.415104911439922E-3  
 2.030200000000000E10    3.672763247270829E-4  -1.425163469383358E-3  
 2.030400000000000E10    2.857693962915147E-4  -1.492989203216833E-3  
 2.030600000000000E10    1.252056970763701E-4  -1.697405073221111E-3  
 2.030800000000000E10   -2.887362320733882E-4  -1.852420987378232E-3  
 2.031000000000000E10   -7.792947101164021E-4  -1.731683088372414E-3  
 2.031200000000000E10   -1.133383816450061E-3  -1.434520026062078E-3  
 2.031400000000000E10   -1.310515159887535E-3  -1.078734055613298E-3  
 2.031600000000000E10   -1.369752822314812E-3  -7.377024136079543E-4  
 2.031800000000000E10   -1.333807210589555E-3  -4.572992516458198E-4  
 2.032000000000000E10   -1.273898927134619E-3  -2.324843404639181E-4  
 2.032200000000000E10   -1.170619885417176E-3  -3.878377095412275E-5  
 2.032400000000000E10   -1.007580465804718E-3   5.259392480695961E-5  
 2.032600000000000E10   -9.188434023337265E-4   6.782704662981580E-6  
 2.032800000000000E10   -9.527787776232947E-4  -3.564064518511182E-5  
 2.033000000000000E10   -1.086004442858132E-3  -8.471644849387217E-6  
 2.033200000000000E10   -1.229108182204931E-3   1.361550807450757E-4  
 2.033400000000000E10   -1.332435641464598E-3   3.199287197227064E-4  
 2.033600000000000E10   -1.493756463067716E-3   4.740969539174124E-4  
 2.033800000000000E10   -1.413234443149126E-3   1.063014977987623E-3  
 2.034000000000000E10   -1.122861434367009E-3   1.507303025158294E-3  
 2.034200000000000E10   -6.829147806470329E-4   1.788206167306596E-3  
 2.034400000000000E10   -1.778000807240306E-4   1.864570432051312E-3  
 2.034600000000000E10    2.735247641225241E-4   1.760559835812741E-3  
 2.034800000000000E10    6.643394219870483E-4   1.558814238233958E-3  
 2.035000000000000E10    9.421493896318557E-4   1.221781972509132E-3  
 2.035200000000000E10    1.010361284771947E-3   8.372127695256530E-4  
 2.035400000000000E10    8.944000243264665E-4   5.244154425697325E-4  
 2.035600000000000E10    6.766216631135154E-4   4.067048987101809E-4  
 2.035800000000000E10    5.414997942030906E-4   5.156163943027180E-4  
 2.036000000000000E10    6.385434492747545E-4   6.971237909252775E-4  
 2.036200000000000E10    9.312422947266542E-4   7.472082182158606E-4  
 2.036400000000000E10    1.206772609315319E-3   5.763276139143080E-4  
 2.036600000000000E10    1.370171383836626E-3   3.405314076937965E-4  
 2.036800000000000E10    1.551021679564732E-3   6.986232713285346E-5  
 2.037000000000000E10    1.650601022126887E-3  -3.397488040185463E-4  
 2.037200000000000E10    1.523813585591919E-3  -7.567725670085322E-4  
 2.037400000000000E10    1.290318813020807E-3  -1.062506597307496E-3  
 2.037600000000000E10    1.007599423004542E-3  -1.286577437872303E-3  
 2.037800000000000E10    6.933533473446657E-4  -1.449155748398506E-3  
 2.038000000000000E10    3.566063881864935E-4  -1.534489806078010E-3  
 2.038200000000000E10    2.250990621138970E-5  -1.494341811655361E-3  
 2.038400000000000E10   -2.417286628432262E-4  -1.373738978908938E-3  
 2.038600000000000E10   -4.130273388119975E-4  -1.213923546135985E-3  
 2.038800000000000E10   -4.705232942961694E-4  -1.161443402694311E-3  
 2.039000000000000E10   -6.470863989512402E-4  -1.211452016489394E-3  
 2.039200000000000E10   -9.568906557651696E-4  -1.140830165320760E-3  
 2.039400000000000E10   -1.191687310568241E-3  -8.947833314083202E-4  
 2.039600000000000E10   -1.308241853968270E-3  -6.111371997363992E-4  
 2.039800000000000E10   -1.372252905760072E-3  -3.855155277908893E-4  
 2.040000000000000E10   -1.410567011587513E-3  -1.849503626053766E-4  
 2.040200000000000E10   -1.486197521790409E-3   2.399426935717893E-5  
 2.040400000000000E10   -1.549085838880746E-3   3.529588965788292E-4  
 2.040600000000000E10   -1.471783392798628E-3   7.403798751985705E-4  
 2.040800000000000E10   -1.226345343576173E-3   1.059420356728396E-3  
 2.041000000000000E10   -9.195457554793231E-4   1.206848750418545E-3  
 2.041200000000000E10   -7.273076672982520E-4   1.218058555874553E-3  
 2.041400000000000E10   -6.263955057312058E-4   1.308650257175335E-3  
 2.041600000000000E10   -4.536260102145633E-4   1.502798204237845E-3  
 2.041800000000000E10   -1.916931189773937E-4   1.666598028531465E-3  
 2.042000000000000E10    1.530158779195142E-4   1.798118080430255E-3  
 2.042200000000000E10    6.205070359060890E-4   1.788093105299636E-3  
 2.042400000000000E10    1.052014851430793E-3   1.605452606850528E-3  
 2.042600000000000E10    1.388488465097785E-3   1.345272198324546E-3  
 2.042800000000000E10    1.671265684145707E-3   9.938018721948661E-4  
 2.043000000000000E10    1.813234838488447E-3   5.438936729270287E-4  
 2.043200000000000E10    1.763520864899699E-3   1.403073816621743E-4  
 2.043400000000000E10    1.656655696355689E-3  -1.590764357290109E-4  
 2.043600000000000E10    1.546620482972355E-3  -3.742432817434008E-4  
 2.043800000000000E10    1.454103347410162E-3  -5.575427062910394E-4  
 2.044000000000000E10    1.316465869538272E-3  -7.439258212794709E-4  
 2.044200000000000E10    1.192736334169976E-3  -8.477697440463102E-4  
 2.044400000000000E10    1.187225646170297E-3  -9.598874735410033E-4  
 2.044600000000000E10    1.220629017412148E-3  -1.203363072555078E-3  
 2.044800000000000E10    1.134032746700287E-3  -1.581287867132835E-3  
 2.045000000000000E10    8.522840515379533E-4  -1.987475766955778E-3  
 2.045200000000000E10    3.430251609320038E-4  -2.270337238811574E-3  
 2.045400000000000E10   -2.407616303443888E-4  -2.305071498916766E-3  
 2.045600000000000E10   -6.992155380743362E-4  -2.136462398199599E-3  
 2.045800000000000E10   -1.042902736054162E-3  -1.954151294055763E-3  
 2.046000000000000E10   -1.399116906755620E-3  -1.759762812763961E-3  
 2.046200000000000E10   -1.745600141239939E-3  -1.499224341368864E-3  
 2.046400000000000E10   -2.077935266601894E-3  -1.133998591179445E-3  
 2.046600000000000E10   -2.293877704959034E-3  -6.388715287309804E-4  
 2.046800000000000E10   -2.287298711876981E-3  -7.598772826330009E-5  
 2.047000000000000E10   -2.058279721975961E-3   3.473556667688092E-4  
 2.047200000000000E10   -1.826218369133280E-3   5.413657211468424E-4  
 2.047400000000000E10   -1.744406079876850E-3   6.570322170792295E-4  
 2.047600000000000E10   -1.691364103210234E-3   8.577595043139194E-4  
 2.047800000000000E10   -1.574394447125570E-3   1.071097537310719E-3  
 2.048000000000000E10   -1.465571671160075E-3   1.249232436421702E-3  
 2.048200000000000E10   -1.426654517197932E-3   1.467000447317130E-3  
 2.048400000000000E10   -1.326663146211941E-3   1.837375112890152E-3  
 2.048600000000000E10   -1.022859941263077E-3   2.211001928308898E-3  
 2.048800000000000E10   -6.018288217275862E-4   2.481741998276525E-3  
 2.049000000000000E10   -1.188946104056794E-4   2.649772682094757E-3  
 2.049200000000000E10    4.201453303494314E-4   2.701034967114303E-3  
 2.049400000000000E10    9.380177846555287E-4   2.625552090383116E-3  
 2.049600000000000E10    1.416338293022801E-3   2.445247229661369E-3  
 2.049800000000000E10    1.879767308656381E-3   2.181224893756419E-3  
 2.050000000000000E10    2.280837177862356E-3   1.816731390139156E-3  
 2.050200000000000E10    2.641568387610303E-3   1.426946706720681E-3  
 2.050400000000000E10    2.995076710758557E-3   9.054998919326484E-4  
 2.050600000000000E10    3.158473053067296E-3   1.955473610743153E-4  
 2.050800000000000E10    2.997010968950041E-3  -4.938092142703148E-4  
 2.051000000000000E10    2.708449091244477E-3  -9.540245735934359E-4  
 2.051200000000000E10    2.475229816410775E-3  -1.306471918957844E-3  
 2.051400000000000E10    2.212363070517500E-3  -1.640292848441214E-3  
 2.051600000000000E10    1.882545151660465E-3  -1.897404755192720E-3  
 2.051800000000000E10    1.589825508560752E-3  -2.063015730630830E-3  
 2.052000000000000E10    1.357194030815825E-3  -2.256382718468516E-3  
 2.052200000000000E10    1.115189184944448E-3  -2.506102501616142E-3  
 2.052400000000000E10    7.912360273227507E-4  -2.831119778372303E-3  
 2.052600000000000E10    2.291833274343780E-4  -3.111184748621240E-3  
 2.052800000000000E10   -4.385534339002281E-4  -3.133831942065611E-3  
 2.053000000000000E10   -1.005526097954703E-3  -2.976731976466940E-3  
 2.053200000000000E10   -1.503696838167258E-3  -2.774873098263123E-3  
 2.053400000000000E10   -1.944575338942950E-3  -2.480257333715792E-3  
 2.053600000000000E10   -2.336559489507366E-3  -2.145411040221700E-3  
 2.053800000000000E10   -2.705434119971031E-3  -1.719850112230973E-3  
 2.054000000000000E10   -2.958504646308772E-3  -1.215477896418642E-3  
 2.054200000000000E10   -3.178468938818127E-3  -7.196847506648482E-4  
 2.054400000000000E10   -3.274838001393617E-3  -9.892563045078211E-5  
 2.054600000000000E10   -3.193997336184470E-3   4.804604872704536E-4  
 2.054800000000000E10   -3.042536405173642E-3   1.012525385800131E-3  
 2.055000000000000E10   -2.775549924701187E-3   1.509318659309882E-3  
 2.055200000000000E10   -2.407631096181004E-3   1.885029442012600E-3  
 2.055400000000000E10   -2.043731220851806E-3   2.102114704139889E-3  
 2.055600000000000E10   -1.801406371564348E-3   2.269406722787007E-3  
