#  HZ   S   RI   R     50.00 
! Rohde & Schwarz ZVA40 4Ports - Version 3.90 - 1145.1110k42 SN: 100403
! Date: 2023-10-03 10:49:14
! Measurement: S12 
! 
 2.000000000000000E10    3.911276229976191E-4  -1.662979458665683E-3  
 2.000200000000000E10    9.284194395356095E-5  -1.553292641155149E-3  
 2.000400000000000E10   -1.923290691072061E-4  -1.415036082411271E-3  
 2.000600000000000E10   -3.571181200642190E-4  -1.148452923167284E-3  
 2.000800000000000E10   -3.086281809127567E-4  -9.541496100101347E-4  
 2.001000000000000E10   -2.004503632099745E-4  -1.048569583098111E-3  
 2.001200000000000E10   -4.017696834515753E-4  -1.325693983387902E-3  
 2.001400000000000E10   -8.827379892870212E-4  -1.332123007825063E-3  
 2.001600000000000E10   -1.218164990192759E-3  -1.022663993276971E-3  
 2.001800000000000E10   -1.323130836320260E-3  -6.977152669404997E-4  
 2.002000000000000E10   -1.372206559793102E-3  -4.287498711435246E-4  
 2.002200000000000E10   -1.414489740249030E-3  -1.453038610694278E-4  
 2.002400000000000E10   -1.351003663217931E-3   1.438839286908053E-4  
 2.002600000000000E10   -1.206346620048836E-3   2.970519116012935E-4  
 2.002800000000000E10   -1.213029026985169E-3   3.579970003855401E-4  
 2.003000000000000E10   -1.362597111667493E-3   6.133070859992490E-4  
 2.003200000000000E10   -1.309669900227340E-3   1.087884715586649E-3  
 2.003400000000000E10   -9.532938515190437E-4   1.477906462971920E-3  
 2.003600000000000E10   -5.028447573891683E-4   1.607688568576329E-3  
 2.003800000000000E10   -1.230883943750315E-4   1.590950426036193E-3  
 2.004000000000000E10    1.976527312513276E-4   1.541091565994072E-3  
 2.004200000000000E10    4.949323204282125E-4   1.438921065783877E-3  
 2.004400000000000E10    7.711533336154096E-4   1.288271943632314E-3  
 2.004600000000000E10    1.046088168050057E-3   1.041227217116804E-3  
 2.004800000000000E10    1.175691108611103E-3   7.344084579928105E-4  
 2.005000000000000E10    1.219451659704824E-3   4.908670207113369E-4  
 2.005200000000000E10    1.229833052399946E-3   2.754430460011579E-4  
 2.005400000000000E10    1.231353125210458E-3   1.201253707807471E-4  
 2.005600000000000E10    1.269657935591174E-3  -9.945564969244978E-5  
 2.005800000000000E10    1.173180477522488E-3  -3.614549266354781E-4  
 2.006000000000000E10    1.056285793304309E-3  -4.862575163069566E-4  
 2.006200000000000E10    1.018625955957797E-3  -6.260718118642540E-4  
 2.006400000000000E10    9.105536148748837E-4  -8.316701864691690E-4  
 2.006600000000000E10    7.170266813809794E-4  -9.727329638795985E-4  
 2.006800000000000E10    5.634905205963749E-4  -1.047485733882128E-3  
 2.007000000000000E10    4.413576153518781E-4  -1.122388782677640E-3  
 2.007200000000000E10    3.283812107151451E-4  -1.225877318584080E-3  
 2.007400000000000E10    1.513099658225672E-4  -1.384884462743797E-3  
 2.007600000000000E10   -2.088432195422333E-4  -1.510850979576495E-3  
 2.007800000000000E10   -6.023534931803305E-4  -1.410687250676248E-3  
 2.008000000000000E10   -8.403767833646319E-4  -1.205224791012797E-3  
 2.008200000000000E10   -1.001538385776143E-3  -1.006980012395604E-3  
 2.008400000000000E10   -1.113521698717527E-3  -8.380314172926917E-4  
 2.008600000000000E10   -1.263764473268099E-3  -7.119720395987451E-4  
 2.008800000000000E10   -1.455651865748303E-3  -5.082541053721220E-4  
 2.009000000000000E10   -1.563110825306322E-3  -2.135972859694625E-4  
 2.009200000000000E10   -1.582175741401413E-3   5.610645599096882E-5  
 2.009400000000000E10   -1.583276370286458E-3   3.289331545396745E-4  
 2.009600000000000E10   -1.549910302303739E-3   6.802150414116208E-4  
 2.009800000000000E10   -1.357060442237881E-3   1.033644914153536E-3  
 2.010000000000000E10   -1.034564117903795E-3   1.233596575257352E-3  
 2.010200000000000E10   -7.462435825744915E-4   1.269755201151481E-3  
 2.010400000000000E10   -5.821866196708838E-4   1.249533734817925E-3  
 2.010600000000000E10   -5.152377355164561E-4   1.294252398063160E-3  
 2.010800000000000E10   -4.384127478069484E-4   1.452054414431006E-3  
 2.011000000000000E10   -2.378707514795491E-4   1.652363529073260E-3  
 2.011200000000000E10    7.747497406148762E-5   1.785615201022563E-3  
 2.011400000000000E10    4.458862973145449E-4   1.824475018708713E-3  
 2.011600000000000E10    8.741488710744628E-4   1.798172979064160E-3  
 2.011800000000000E10    1.345478712983948E-3   1.562156279338844E-3  
 2.012000000000000E10    1.611000153154755E-3   1.118656133940749E-3  
 2.012200000000000E10    1.640758883247640E-3   7.285705860086710E-4  
 2.012400000000000E10    1.625501673856421E-3   4.991249843359175E-4  
 2.012600000000000E10    1.683058305743573E-3   3.071473767815067E-4  
 2.012800000000000E10    1.746263485910754E-3   9.044075052470671E-6  
 2.013000000000000E10    1.646501990471667E-3  -2.751851051261842E-4  
 2.013200000000000E10    1.538591511027183E-3  -4.213821976183722E-4  
 2.013400000000000E10    1.524945986704159E-3  -6.147563311850093E-4  
 2.013600000000000E10    1.425310226626163E-3  -8.766532173060022E-4  
 2.013800000000000E10    1.235325754471941E-3  -1.041516839753569E-3  
 2.014000000000000E10    1.088358567253430E-3  -1.108506927665947E-3  
 2.014200000000000E10    1.070187634543167E-3  -1.160405213143174E-3  
 2.014400000000000E10    1.145765336424583E-3  -1.365738164354159E-3  
 2.014600000000000E10    1.101698785980676E-3  -1.764497504547021E-3  
 2.014800000000000E10    8.175580113552168E-4  -2.231930452814155E-3  
 2.015000000000000E10    2.689030298239825E-4  -2.584461370699370E-3  
 2.015200000000000E10   -4.178546595438902E-4  -2.670409415401843E-3  
 2.015400000000000E10   -1.070425389230228E-3  -2.486477853094961E-3  
 2.015600000000000E10   -1.571250878175219E-3  -2.095897700215993E-3  
 2.015800000000000E10   -1.849074373498668E-3  -1.654666670211423E-3  
 2.016000000000000E10   -1.996899439383062E-3  -1.252509592938615E-3  
 2.016200000000000E10   -2.081123513059293E-3  -9.353009624164818E-4  
 2.016400000000000E10   -2.151695901343185E-3  -6.269483822423439E-4  
 2.016600000000000E10   -2.189275198396778E-3  -3.370740603224730E-4  
 2.016800000000000E10   -2.225695904936245E-3  -5.362335821386590E-5  
 2.017000000000000E10   -2.239674440264416E-3   2.846667058868091E-4  
 2.017200000000000E10   -2.168909385953666E-3   6.197018060295801E-4  
 2.017400000000000E10   -2.045277661865788E-3   8.875898634448519E-4  
 2.017600000000000E10   -1.986345716240673E-3   1.102511319414865E-3  
 2.017800000000000E10   -1.956537475142582E-3   1.460419093457975E-3  
 2.018000000000000E10   -1.762327604231293E-3   1.895276039072697E-3  
 2.018200000000000E10   -1.434034905157929E-3   2.256755826114982E-3  
 2.018400000000000E10   -1.033251831192178E-3   2.550473288838613E-3  
 2.018600000000000E10   -5.534052088470032E-4   2.786718971646597E-3  
 2.018800000000000E10    6.896112205068996E-5   2.891019191533314E-3  
 2.019000000000000E10    6.655047556204841E-4   2.740334271856596E-3  
 2.019200000000000E10    1.102916684485444E-3   2.451935519537134E-3  
 2.019400000000000E10    1.406037533561225E-3   2.167822721797103E-3  
 2.019600000000000E10    1.693988015296498E-3   1.918665310568089E-3  
 2.019800000000000E10    1.940246356632450E-3   1.578903424025100E-3  
 2.020000000000000E10    2.073931693434580E-3   1.250363219323707E-3  
 2.020200000000000E10    2.126819145396032E-3   9.907604222644546E-4  
 2.020400000000000E10    2.236821318546052E-3   8.557012349004750E-4  
 2.020600000000000E10    2.514406587825480E-3   6.322668190412293E-4  
 2.020800000000000E10    2.805832447995150E-3   1.806121945314654E-4  
 2.021000000000000E10    2.910816667888486E-3  -4.895505697565869E-4  
 2.021200000000000E10    2.681715548707911E-3  -1.123825830923139E-3  
 2.021400000000000E10    2.317011520304008E-3  -1.558241268581995E-3  
 2.021600000000000E10    1.907381430846585E-3  -1.855547463450671E-3  
 2.021800000000000E10    1.542720835258615E-3  -1.994148561616855E-3  
 2.022000000000000E10    1.291856897522614E-3  -2.088658908419533E-3  
 2.022200000000000E10    1.119810741847857E-3  -2.260025786759718E-3  
 2.022400000000000E10    8.474351341004056E-4  -2.559777627203820E-3  
 2.022600000000000E10    3.598962157353514E-4  -2.812668094969350E-3  
 2.022800000000000E10   -2.178290185790465E-4  -2.911405804046231E-3  
 2.023000000000000E10   -8.330027890916716E-4  -2.826130228324921E-3  
 2.023200000000000E10   -1.389059387075033E-3  -2.555218441339460E-3  
 2.023400000000000E10   -1.827957252658832E-3  -2.152021571795385E-3  
 2.023600000000000E10   -2.120962376469107E-3  -1.686777961316890E-3  
 2.023800000000000E10   -2.278950750984500E-3  -1.229672161740889E-3  
 2.024000000000000E10   -2.361053250437057E-3  -7.982320127949959E-4  
 2.024200000000000E10   -2.331640412515710E-3  -3.622086228038729E-4  
 2.024400000000000E10   -2.167453616878821E-3  -1.317977973648144E-5  
 2.024600000000000E10   -2.032269686984284E-3   2.025621628587107E-4  
 2.024800000000000E10   -1.958087512735273E-3   3.795296219344689E-4  
 2.025000000000000E10   -1.882431521416852E-3   5.484745665227677E-4  
 2.025200000000000E10   -1.862979770727902E-3   7.093078526284992E-4  
 2.025400000000000E10   -1.883893715797710E-3   9.676856685855231E-4  
 2.025600000000000E10   -1.847908068326940E-3   1.339693646207299E-3  
 2.025800000000000E10   -1.659548742780535E-3   1.757203474665120E-3  
 2.026000000000000E10   -1.307068608750627E-3   2.108093980524330E-3  
 2.026200000000000E10   -8.612346335758798E-4   2.331177186847729E-3  
 2.026400000000000E10   -3.946506764406422E-4   2.424037954090807E-3  
 2.026600000000000E10    9.631141876344878E-5   2.456199080429062E-3  
 2.026800000000000E10    6.156421899833859E-4   2.331947887577815E-3  
 2.027000000000000E10    1.041832718995852E-3   2.029575506833335E-3  
 2.027200000000000E10    1.319827098411325E-3   1.628100510604023E-3  
 2.027400000000000E10    1.404516902840797E-3   1.237503240201375E-3  
 2.027600000000000E10    1.348001890897557E-3   9.694150920221043E-4  
 2.027800000000000E10    1.280085716305440E-3   9.011161535664046E-4  
 2.028000000000000E10    1.397614262814565E-3   9.280578140946551E-4  
 2.028200000000000E10    1.661310261234669E-3   8.231873624718775E-4  
 2.028400000000000E10    1.942806699937938E-3   5.401800734789002E-4  
 2.028600000000000E10    2.086289556293311E-3   1.047152837988153E-4  
 2.028800000000000E10    2.020774532776372E-3  -3.336746250666235E-4  
 2.029000000000000E10    1.864980897518275E-3  -6.801616496029199E-4  
 2.029200000000000E10    1.649655446260708E-3  -9.915556155113657E-4  
 2.029400000000000E10    1.364033867038231E-3  -1.189477166215662E-3  
 2.029600000000000E10    1.120095042116637E-3  -1.276234977452360E-3  
 2.029800000000000E10    9.557024141834054E-4  -1.341563408074805E-3  
 2.030000000000000E10    8.021869985612428E-4  -1.436271748595386E-3  
 2.030200000000000E10    6.351200574410676E-4  -1.528230150284312E-3  
 2.030400000000000E10    4.877772055111510E-4  -1.679872018970706E-3  
 2.030600000000000E10    2.290544574496869E-4  -1.903838099133365E-3  
 2.030800000000000E10   -2.554653576831473E-4  -2.019015766929786E-3  
 2.031000000000000E10   -7.539646147011904E-4  -1.859251099328200E-3  
 2.031200000000000E10   -1.104060691837980E-3  -1.549251623667613E-3  
 2.031400000000000E10   -1.307459839553265E-3  -1.202273908050780E-3  
 2.031600000000000E10   -1.396656344049820E-3  -8.702062298835456E-4  
 2.031800000000000E10   -1.358882166949030E-3  -5.854521273097913E-4  
 2.032000000000000E10   -1.288321326777619E-3  -3.824914648241453E-4  
 2.032200000000000E10   -1.236259866117065E-3  -2.296111835770114E-4  
 2.032400000000000E10   -1.160971048244611E-3  -1.350579543835958E-4  
 2.032600000000000E10   -1.142799715612852E-3  -1.090838995978392E-4  
 2.032800000000000E10   -1.182983819971046E-3  -5.938121845500068E-5  
 2.033000000000000E10   -1.286959319199156E-3   1.387131694651811E-5  
 2.033200000000000E10   -1.417731163809506E-3   1.950408630473898E-4  
 2.033400000000000E10   -1.505405178347242E-3   4.405609000824260E-4  
 2.033600000000000E10   -1.647824514785013E-3   6.100746509445527E-4  
 2.033800000000000E10   -1.517330093795173E-3   1.233677073604558E-3  
 2.034000000000000E10   -1.184826547028280E-3   1.695915066171225E-3  
 2.034200000000000E10   -6.763130039633323E-4   1.965771963569465E-3  
 2.034400000000000E10   -1.269397081684932E-4   1.983650273566356E-3  
 2.034600000000000E10    3.207709016079172E-4   1.821651180420850E-3  
 2.034800000000000E10    6.776542754019397E-4   1.589619725555945E-3  
 2.035000000000000E10    9.329437343578295E-4   1.269150265406479E-3  
 2.035200000000000E10    1.026281580532495E-3   8.875663181133213E-4  
 2.035400000000000E10    9.138871847822665E-4   5.944645300089793E-4  
 2.035600000000000E10    7.079864137136997E-4   5.318009510206652E-4  
 2.035800000000000E10    6.567795264980086E-4   6.631390958082035E-4  
 2.036000000000000E10    8.375706140162312E-4   7.930792449798076E-4  
 2.036200000000000E10    1.155569089387527E-3   7.878796910072044E-4  
 2.036400000000000E10    1.443292939927724E-3   5.618299827725718E-4  
 2.036600000000000E10    1.600043992465086E-3   2.604233654262562E-4  
 2.036800000000000E10    1.730141029407871E-3  -7.352622402047295E-5  
 2.037000000000000E10    1.741626503205359E-3  -5.296604897351350E-4  
 2.037200000000000E10    1.556925471019550E-3  -9.557657425747917E-4  
 2.037400000000000E10    1.293078975747312E-3  -1.276419954425534E-3  
 2.037600000000000E10    9.272870368455808E-4  -1.512740400888513E-3  
 2.037800000000000E10    5.301508969501911E-4  -1.632526194017550E-3  
 2.038000000000000E10    1.712051647227466E-4  -1.650124456178590E-3  
 2.038200000000000E10   -1.747923114875295E-4  -1.567597479740891E-3  
 2.038400000000000E10   -4.614376845178406E-4  -1.395699136818503E-3  
 2.038600000000000E10   -6.207548745713659E-4  -1.171954814642736E-3  
 2.038800000000000E10   -6.424905815846098E-4  -1.026915631871918E-3  
 2.039000000000000E10   -7.363980417808406E-4  -1.026131340411543E-3  
 2.039200000000000E10   -9.668120678095213E-4  -9.847587801918056E-4  
 2.039400000000000E10   -1.180471806111139E-3  -7.768117950034295E-4  
 2.039600000000000E10   -1.278818064489776E-3  -5.202054843462189E-4  
 2.039800000000000E10   -1.346972307776262E-3  -3.220639751454001E-4  
 2.040000000000000E10   -1.429307315827343E-3  -1.311842960644165E-4  
 2.040200000000000E10   -1.530875105491299E-3   1.375206463067347E-4  
 2.040400000000000E10   -1.539658888353433E-3   5.214129080270919E-4  
 2.040600000000000E10   -1.377930516882995E-3   8.981909688475284E-4  
 2.040800000000000E10   -1.079606024312494E-3   1.161802082239924E-3  
 2.041000000000000E10   -7.691413972338993E-4   1.274574230858144E-3  
 2.041200000000000E10   -5.743596508056646E-4   1.269809873235954E-3  
 2.041400000000000E10   -4.592936218761557E-4   1.330773306948358E-3  
 2.041600000000000E10   -2.996020518517131E-4   1.496361202609764E-3  
 2.041800000000000E10   -3.757143480417174E-5   1.651969784668468E-3  
 2.042000000000000E10    3.080424761092646E-4   1.738004090143500E-3  
 2.042200000000000E10    7.456468648888737E-4   1.698333486849907E-3  
 2.042400000000000E10    1.151464197362650E-3   1.490496007438577E-3  
 2.042600000000000E10    1.445269933561052E-3   1.206455593147270E-3  
 2.042800000000000E10    1.701486417146466E-3   8.564335630219099E-4  
 2.043000000000000E10    1.818120690909222E-3   3.874673169048703E-4  
 2.043200000000000E10    1.710399997449993E-3  -3.180756642523418E-5  
 2.043400000000000E10    1.549487944215853E-3  -2.960900460004937E-4  
 2.043600000000000E10    1.438657780530065E-3  -4.672857427661211E-4  
 2.043800000000000E10    1.339639758316023E-3  -6.459762270040266E-4  
 2.044000000000000E10    1.191411175154862E-3  -8.176298474336821E-4  
 2.044200000000000E10    1.066360480678415E-3  -8.942229854463373E-4  
 2.044400000000000E10    1.049556290142317E-3  -9.733301763702568E-4  
 2.044600000000000E10    1.057898999330433E-3  -1.181037305061338E-3  
 2.044800000000000E10    9.785911891691194E-4  -1.490104248854543E-3  
 2.045000000000000E10    7.552849009605813E-4  -1.832088511130570E-3  
 2.045200000000000E10    3.258384628875651E-4  -2.100593684037622E-3  
 2.045400000000000E10   -2.145029834913484E-4  -2.188109985463727E-3  
 2.045600000000000E10   -7.008966567377196E-4  -2.048570939216629E-3  
 2.045800000000000E10   -1.046176708582747E-3  -1.813746290174954E-3  
 2.046000000000000E10   -1.319914659181594E-3  -1.578394152557501E-3  
 2.046200000000000E10   -1.574227882244262E-3  -1.363257966796384E-3  
 2.046400000000000E10   -1.861496581719396E-3  -1.054861834543154E-3  
 2.046600000000000E10   -2.057755984294399E-3  -6.028521896706607E-4  
 2.046800000000000E10   -2.040443610111239E-3  -1.242135051174729E-4  
 2.047000000000000E10   -1.849111224830008E-3   2.226137911742677E-4  
 2.047200000000000E10   -1.703879873685209E-3   3.930008922027323E-4  
 2.047400000000000E10   -1.664028652525492E-3   5.576112205405376E-4  
 2.047600000000000E10   -1.584504353275134E-3   7.815202374469488E-4  
 2.047800000000000E10   -1.459069393805574E-3   9.670469474054237E-4  
 2.048000000000000E10   -1.394784486174216E-3   1.112921555057274E-3  
 2.048200000000000E10   -1.397580336770839E-3   1.321485087128163E-3  
 2.048400000000000E10   -1.309608211444890E-3   1.695187434851766E-3  
 2.048600000000000E10   -1.003944962114057E-3   2.062144836497753E-3  
 2.048800000000000E10   -6.060372760535781E-4   2.282950914518973E-3  
 2.049000000000000E10   -1.714135278213815E-4   2.421656566100118E-3  
 2.049200000000000E10    2.990849627585695E-4   2.465983213231676E-3  
 2.049400000000000E10    7.299564580361103E-4   2.392001399066884E-3  
 2.049600000000000E10    1.141976558096166E-3   2.274908054923230E-3  
 2.049800000000000E10    1.580169257377013E-3   2.111706924607708E-3  
 2.050000000000000E10    1.987051210337658E-3   1.860476039921943E-3  
 2.050200000000000E10    2.384138010590451E-3   1.531684728435982E-3  
 2.050400000000000E10    2.766454413705252E-3   1.051923563214386E-3  
 2.050600000000000E10    2.966843916134757E-3   3.954834303299433E-4  
 2.050800000000000E10    2.867911268936093E-3  -2.628222746814158E-4  
 2.051000000000000E10    2.637874235615823E-3  -7.201265241615611E-4  
 2.051200000000000E10    2.457224797039278E-3  -1.066025502696143E-3  
 2.051400000000000E10    2.236716447344410E-3  -1.418938037352130E-3  
 2.051600000000000E10    1.948887762438147E-3  -1.715651389882548E-3  
 2.051800000000000E10    1.688100302144357E-3  -1.936868208466472E-3  
 2.052000000000000E10    1.452427495089558E-3  -2.147993565463365E-3  
 2.052200000000000E10    1.216996681394638E-3  -2.389279491841712E-3  
 2.052400000000000E10    9.173689223570426E-4  -2.724330806291344E-3  
 2.052600000000000E10    3.783590296733642E-4  -2.996733304620757E-3  
 2.052800000000000E10   -2.557086735240098E-4  -3.021681871840916E-3  
 2.053000000000000E10   -7.540635464058881E-4  -2.895636383846921E-3  
 2.053200000000000E10   -1.196348279700532E-3  -2.751808684654824E-3  
 2.053400000000000E10   -1.623670638048750E-3  -2.553827999092411E-3  
 2.053600000000000E10   -2.062713379652726E-3  -2.318089371283080E-3  
 2.053800000000000E10   -2.497563287543383E-3  -1.985481952878749E-3  
 2.054000000000000E10   -2.853344434554590E-3  -1.523391118434534E-3  
 2.054200000000000E10   -3.154537850559937E-3  -9.994000618256185E-4  
 2.054400000000000E10   -3.307816221271857E-3  -3.617598297580183E-4  
 2.054600000000000E10   -3.256488707475280E-3   2.653366071198674E-4  
 2.054800000000000E10   -3.111813586396024E-3   8.332366020794300E-4  
 2.055000000000000E10   -2.861292707632886E-3   1.329046245247031E-3  
 2.055200000000000E10   -2.520484014409567E-3   1.723703608908199E-3  
 2.055400000000000E10   -2.169524260383964E-3   1.991090632983193E-3  
 2.055600000000000E10   -1.910718694451905E-3   2.171396277365831E-3  
