#  HZ   S   RI   R     50.00 
! Rohde & Schwarz ZVA40 4Ports - Version 3.90 - 1145.1110k42 SN: 100403
! Date: 2023-10-03 10:50:00
! Measurement: S12 
! 
 2.000000000000000E10    2.208525868738262E-4  -1.930202240576593E-3  
 2.000200000000000E10   -2.389206280816852E-4  -1.745674785498699E-3  
 2.000400000000000E10   -5.634522896476565E-4  -1.408060608286058E-3  
 2.000600000000000E10   -5.951051469968915E-4  -9.683063035781034E-4  
 2.000800000000000E10   -3.356524902312546E-4  -7.659320546114826E-4  
 2.001000000000000E10   -1.177877801424467E-4  -9.844200977856305E-4  
 2.001200000000000E10   -3.365593049553062E-4  -1.379214003710882E-3  
 2.001400000000000E10   -8.917330611409015E-4  -1.455271087678863E-3  
 2.001600000000000E10   -1.371838642023657E-3  -1.144319368141163E-3  
 2.001800000000000E10   -1.637110160376279E-3  -7.100252191720094E-4  
 2.002000000000000E10   -1.720407499103911E-3  -2.434472758087010E-4  
 2.002200000000000E10   -1.646777530633864E-3   2.019414237466614E-4  
 2.002400000000000E10   -1.413109638045999E-3   5.077369575323576E-4  
 2.002600000000000E10   -1.163500919267382E-3   6.033991915729558E-4  
 2.002800000000000E10   -1.102649130563371E-3   5.917940238479204E-4  
 2.003000000000000E10   -1.213615851471040E-3   7.762772878133711E-4  
 2.003200000000000E10   -1.158346994751260E-3   1.212075223318405E-3  
 2.003400000000000E10   -7.576951986430750E-4   1.584533653739426E-3  
 2.003600000000000E10   -2.721458273568985E-4   1.688378408394080E-3  
 2.003800000000000E10    1.196357087541655E-4   1.621613732669426E-3  
 2.004000000000000E10    4.485513650382958E-4   1.506228973885899E-3  
 2.004200000000000E10    7.086811709857773E-4   1.332718442067688E-3  
 2.004400000000000E10    9.316027309619077E-4   1.145287138772094E-3  
 2.004600000000000E10    1.135002780004324E-3   8.894725795643627E-4  
 2.004800000000000E10    1.182852165367255E-3   5.691408347616303E-4  
 2.005000000000000E10    1.114204908728814E-3   3.782163792179128E-4  
 2.005200000000000E10    1.100862557557124E-3   2.964483010220925E-4  
 2.005400000000000E10    1.236039867774112E-3   2.304447428627542E-4  
 2.005600000000000E10    1.459347298550860E-3  -6.530431944714263E-5  
 2.005800000000000E10    1.393152523015477E-3  -5.182856573496176E-4  
 2.006000000000000E10    1.146636906399971E-3  -7.915477839216147E-4  
 2.006200000000000E10    9.118843425559686E-4  -9.378019922485752E-4  
 2.006400000000000E10    6.718110902054781E-4  -1.023347524268775E-3  
 2.006600000000000E10    4.504116106335958E-4  -9.816959929085289E-4  
 2.006800000000000E10    3.683276406447154E-4  -8.860340688297136E-4  
 2.007000000000000E10    3.864249665339941E-4  -9.052139213941073E-4  
 2.007200000000000E10    3.735706318646992E-4  -1.059739206584148E-3  
 2.007400000000000E10    2.271196387666029E-4  -1.322661168152781E-3  
 2.007600000000000E10   -1.243863275685202E-4  -1.540903246831226E-3  
 2.007800000000000E10   -5.786036388060355E-4  -1.496351344622059E-3  
 2.008000000000000E10   -9.040710552923245E-4  -1.279495496000068E-3  
 2.008200000000000E10   -1.108384861729641E-3  -1.017878404071118E-3  
 2.008400000000000E10   -1.215348435314794E-3  -7.945315159259388E-4  
 2.008600000000000E10   -1.299789129399959E-3  -6.300124841950137E-4  
 2.008800000000000E10   -1.418896986712001E-3  -4.183263159208499E-4  
 2.009000000000000E10   -1.479245472216496E-3  -1.634762159150109E-4  
 2.009200000000000E10   -1.525015207084180E-3   8.191653902076161E-5  
 2.009400000000000E10   -1.576854136423687E-3   3.831686481733811E-4  
 2.009600000000000E10   -1.527787091827534E-3   7.644127358523402E-4  
 2.009800000000000E10   -1.275126969848028E-3   1.126824293444662E-3  
 2.010000000000000E10   -8.844781143364686E-4   1.286722101183003E-3  
 2.010200000000000E10   -5.810003189582986E-4   1.246947061688229E-3  
 2.010400000000000E10   -4.633836478853423E-4   1.145031458387772E-3  
 2.010600000000000E10   -4.944952555207265E-4   1.129918712586042E-3  
 2.010800000000000E10   -5.093978880449494E-4   1.323800849720621E-3  
 2.011000000000000E10   -3.321893963413774E-4   1.609778214234537E-3  
 2.011200000000000E10    4.450003307508188E-5   1.846244366103669E-3  
 2.011400000000000E10    5.145420268472140E-4   1.904620270631870E-3  
 2.011600000000000E10    1.021255509795644E-3   1.811704431648976E-3  
 2.011800000000000E10    1.481128668742170E-3   1.448944248374046E-3  
 2.012000000000000E10    1.655260180008173E-3   9.445116995094123E-4  
 2.012200000000000E10    1.619223759168522E-3   5.889068327225178E-4  
 2.012400000000000E10    1.559583196194207E-3   4.096252468908824E-4  
 2.012600000000000E10    1.612202499115480E-3   2.465729493649731E-4  
 2.012800000000000E10    1.662864300916777E-3  -4.571773581433880E-5  
 2.013000000000000E10    1.556931218274183E-3  -3.354761413195067E-4  
 2.013200000000000E10    1.446313511699040E-3  -4.518939016402198E-4  
 2.013400000000000E10    1.448949448258421E-3  -5.988741167552708E-4  
 2.013600000000000E10    1.392503842949070E-3  -8.413721366551679E-4  
 2.013800000000000E10    1.247614001713448E-3  -1.034719720501989E-3  
 2.014000000000000E10    1.088230812216921E-3  -1.163959900327334E-3  
 2.014200000000000E10    1.018502731776869E-3  -1.217078260402866E-3  
 2.014400000000000E10    1.059139848288164E-3  -1.392018720660926E-3  
 2.014600000000000E10    9.850395041893509E-4  -1.741522255280811E-3  
 2.014800000000000E10    6.934218384122378E-4  -2.146771321372118E-3  
 2.015000000000000E10    1.949540760637351E-4  -2.444893541389410E-3  
 2.015200000000000E10   -4.066880782797872E-4  -2.534036991213269E-3  
 2.015400000000000E10   -1.032008767442264E-3  -2.401428443759128E-3  
 2.015600000000000E10   -1.523807151396395E-3  -2.026455891759369E-3  
 2.015800000000000E10   -1.801396381884139E-3  -1.588747792574482E-3  
 2.016000000000000E10   -1.915542303427380E-3  -1.197538153678486E-3  
 2.016200000000000E10   -1.955357133008448E-3  -9.184847310388562E-4  
 2.016400000000000E10   -1.977564810119846E-3  -6.675514732219219E-4  
 2.016600000000000E10   -2.050265732102495E-3  -5.042517865306618E-4  
 2.016800000000000E10   -2.251301642982558E-3  -2.741125331920431E-4  
 2.017000000000000E10   -2.415292225624799E-3   1.182704150711221E-4  
 2.017200000000000E10   -2.416717126168342E-3   6.034553750205419E-4  
 2.017400000000000E10   -2.215931606919739E-3   1.002649048922024E-3  
 2.017600000000000E10   -2.070905104156876E-3   1.255619368868509E-3  
 2.017800000000000E10   -1.988081808619722E-3   1.648312435512251E-3  
 2.018000000000000E10   -1.725176226159888E-3   2.067551025430913E-3  
 2.018200000000000E10   -1.321221778452887E-3   2.373039436913690E-3  
 2.018400000000000E10   -8.897458709998694E-4   2.563361272047209E-3  
 2.018600000000000E10   -4.325323981468169E-4   2.722973644028230E-3  
 2.018800000000000E10    9.194074257050828E-5   2.799897855186046E-3  
 2.019000000000000E10    6.200848013131953E-4   2.700211716923143E-3  
 2.019200000000000E10    1.059417904128509E-3   2.472320043600697E-3  
 2.019400000000000E10    1.397653267270437E-3   2.186737002693730E-3  
 2.019600000000000E10    1.690201442631215E-3   1.899691787260918E-3  
 2.019800000000000E10    1.931241145280838E-3   1.573594474835406E-3  
 2.020000000000000E10    2.037061804736900E-3   1.224638352845125E-3  
 2.020200000000000E10    2.011909124675234E-3   9.413651380412007E-4  
 2.020400000000000E10    2.059268398179746E-3   8.469669650396940E-4  
 2.020600000000000E10    2.359635898950721E-3   7.310360030524067E-4  
 2.020800000000000E10    2.740412502101175E-3   3.769473074394022E-4  
 2.021000000000000E10    2.982441344539877E-3  -2.817686736644074E-4  
 2.021200000000000E10    2.833797220799903E-3  -9.961894757896204E-4  
 2.021400000000000E10    2.459082879900258E-3  -1.536672931057191E-3  
 2.021600000000000E10    2.009779213900859E-3  -1.889526820070889E-3  
 2.021800000000000E10    1.587211082060917E-3  -2.023794517733556E-3  
 2.022000000000000E10    1.305869177324935E-3  -2.034489715034948E-3  
 2.022200000000000E10    1.191859211630874E-3  -2.145182609619428E-3  
 2.022400000000000E10    9.941346136136404E-4  -2.498931796654078E-3  
 2.022600000000000E10    5.354251589917353E-4  -2.861677278063180E-3  
 2.022800000000000E10   -6.225809339700275E-5  -3.046420133584506E-3  
 2.023000000000000E10   -7.461886464928589E-4  -3.049993698787972E-3  
 2.023200000000000E10   -1.441859737912446E-3  -2.780796731956334E-3  
 2.023400000000000E10   -1.985975700706520E-3  -2.282192739907177E-3  
 2.023600000000000E10   -2.280695868345599E-3  -1.723403414834000E-3  
 2.023800000000000E10   -2.390815340818017E-3  -1.206759398864437E-3  
 2.024000000000000E10   -2.394384752437780E-3  -7.141802070466918E-4  
 2.024200000000000E10   -2.267264600061341E-3  -2.595132660914074E-4  
 2.024400000000000E10   -2.082474452132980E-3   4.365347935904382E-6  
 2.024600000000000E10   -1.985995897088093E-3   1.482842196643338E-4  
 2.024800000000000E10   -1.972697274721086E-3   3.201051292042230E-4  
 2.025000000000000E10   -1.965761722214980E-3   5.289213401322932E-4  
 2.025200000000000E10   -1.932094779551612E-3   7.740439983169116E-4  
 2.025400000000000E10   -1.902919840891635E-3   1.073045413912401E-3  
 2.025600000000000E10   -1.808971924028923E-3   1.436871280050511E-3  
 2.025800000000000E10   -1.569368785013418E-3   1.803542286590693E-3  
 2.026000000000000E10   -1.189276287159710E-3   2.066950731500677E-3  
 2.026200000000000E10   -7.863163834518214E-4   2.234090385966218E-3  
 2.026400000000000E10   -4.107067194396493E-4   2.349221457079544E-3  
 2.026600000000000E10    3.220257972110328E-5   2.457007903743673E-3  
 2.026800000000000E10    5.732127031744478E-4   2.422345731284761E-3  
 2.027000000000000E10    1.070932169212987E-3   2.170570523366945E-3  
 2.027200000000000E10    1.444579857600846E-3   1.762747087653865E-3  
 2.027400000000000E10    1.585079557760600E-3   1.283803973404438E-3  
 2.027600000000000E10    1.481291494493223E-3   9.268764655561851E-4  
 2.027800000000000E10    1.330251225803063E-3   8.386737071054342E-4  
 2.028000000000000E10    1.399973706809858E-3   8.861629159185929E-4  
 2.028200000000000E10    1.658584198190107E-3   8.042116652802401E-4  
 2.028400000000000E10    1.946297397553431E-3   5.531727419945761E-4  
 2.028600000000000E10    2.140772177305058E-3   1.305388978973737E-4  
 2.028800000000000E10    2.129724025994601E-3  -3.487188052845958E-4  
 2.029000000000000E10    2.001301689675163E-3  -7.820137069319134E-4  
 2.029200000000000E10    1.711566438572673E-3  -1.189708597134078E-3  
 2.029400000000000E10    1.309865736881647E-3  -1.357171001821113E-3  
 2.029600000000000E10    1.033898284409671E-3  -1.352210163614050E-3  
 2.029800000000000E10    9.013406995591927E-4  -1.337464031219145E-3  
 2.030000000000000E10    7.864983791654065E-4  -1.420150173218622E-3  
 2.030200000000000E10    6.583184116412676E-4  -1.514742442659666E-3  
 2.030400000000000E10    5.529204729863984E-4  -1.695205432117568E-3  
 2.030600000000000E10    2.857162033273828E-4  -1.988908631435822E-3  
 2.030800000000000E10   -2.203381806827599E-4  -2.148063157765586E-3  
 2.031000000000000E10   -7.751124864060877E-4  -2.041093424468497E-3  
 2.031200000000000E10   -1.226233663861429E-3  -1.745504661992101E-3  
 2.031400000000000E10   -1.506623239524724E-3  -1.331067788740429E-3  
 2.031600000000000E10   -1.597751229004973E-3  -9.086349621652760E-4  
 2.031800000000000E10   -1.533554498501000E-3  -5.367458443475482E-4  
 2.032000000000000E10   -1.406274951990587E-3  -3.142213538588972E-4  
 2.032200000000000E10   -1.309351257332160E-3  -1.844801164176263E-4  
 2.032400000000000E10   -1.247781656544518E-3  -8.764395005464433E-5  
 2.032600000000000E10   -1.237651243146678E-3  -4.142912084604672E-5  
 2.032800000000000E10   -1.284182931626131E-3   3.394471603636621E-5  
 2.033000000000000E10   -1.391101538475772E-3   1.686215943548112E-4  
 2.033200000000000E10   -1.457525938921781E-3   4.209591282499042E-4  
 2.033400000000000E10   -1.419866690412164E-3   6.577008997412100E-4  
 2.033600000000000E10   -1.459638068812742E-3   7.394219374038863E-4  
 2.033800000000000E10   -1.332834775467622E-3   1.199743506851234E-3  
 2.034000000000000E10   -1.121443972267487E-3   1.590357238710418E-3  
 2.034200000000000E10   -6.787178860910224E-4   1.919255006498822E-3  
 2.034400000000000E10   -1.432409870161373E-4   2.002958143168271E-3  
 2.034600000000000E10    3.284345376889754E-4   1.898356761741203E-3  
 2.034800000000000E10    7.467313562788131E-4   1.696167807880437E-3  
 2.035000000000000E10    1.064408092889858E-3   1.357743167797479E-3  
 2.035200000000000E10    1.186859673713123E-3   9.052144924519823E-4  
 2.035400000000000E10    1.037848787094800E-3   5.226956750841146E-4  
 2.035600000000000E10    7.646921686751485E-4   4.285168023195517E-4  
 2.035800000000000E10    6.568979272147481E-4   6.015188571634807E-4  
 2.036000000000000E10    8.267638426362212E-4   7.657827883709699E-4  
 2.036200000000000E10    1.150068179263500E-3   7.608093694044056E-4  
 2.036400000000000E10    1.471726938127828E-3   5.470244338498318E-4  
 2.036600000000000E10    1.674215721326723E-3   1.848361216803607E-4  
 2.036800000000000E10    1.754549547546992E-3  -2.260301853777338E-4  
 2.037000000000000E10    1.676581338634370E-3  -6.695185431543693E-4  
 2.037200000000000E10    1.447015287212783E-3  -1.030622122027440E-3  
 2.037400000000000E10    1.165797920042933E-3  -1.303049114843210E-3  
 2.037600000000000E10    8.441924207092652E-4  -1.515355765524439E-3  
 2.037800000000000E10    4.648206760728860E-4  -1.621415702541792E-3  
 2.038000000000000E10    9.471519336146557E-5  -1.604961276863062E-3  
 2.038200000000000E10   -1.950706925373448E-4  -1.506718600920015E-3  
 2.038400000000000E10   -4.566780548491717E-4  -1.372323848149996E-3  
 2.038600000000000E10   -6.555723358873172E-4  -1.189115434480686E-3  
 2.038800000000000E10   -7.375823475186688E-4  -1.022726781963306E-3  
 2.039000000000000E10   -8.051260597256508E-4  -9.425908888579030E-4  
 2.039200000000000E10   -9.798016492564832E-4  -8.866556868850114E-4  
 2.039400000000000E10   -1.205022868397550E-3  -7.125457572470969E-4  
 2.039600000000000E10   -1.326898911990870E-3  -4.302369993095720E-4  
 2.039800000000000E10   -1.336899997547668E-3  -1.841532919630339E-4  
 2.040000000000000E10   -1.360662101859940E-3  -2.282197405622487E-5  
 2.040200000000000E10   -1.439003490865875E-3   1.933930440299949E-4  
 2.040400000000000E10   -1.467194061327741E-3   5.380625030147526E-4  
 2.040600000000000E10   -1.335482286967705E-3   9.207400297381967E-4  
 2.040800000000000E10   -1.034064895814523E-3   1.212746724620492E-3  
 2.041000000000000E10   -6.438852203990730E-4   1.312726218475665E-3  
 2.041200000000000E10   -3.977036349132366E-4   1.243423193371223E-3  
 2.041400000000000E10   -3.223998511378720E-4   1.212446951813260E-3  
 2.041600000000000E10   -2.337592649319087E-4   1.304987624935315E-3  
 2.041800000000000E10   -8.246846726535987E-5   1.459262126370682E-3  
 2.042000000000000E10    1.826439652682489E-4   1.651044496634033E-3  
 2.042200000000000E10    6.459118779691191E-4   1.728845432538677E-3  
 2.042400000000000E10    1.152514375615942E-3   1.570099385535736E-3  
 2.042600000000000E10    1.517557020686230E-3   1.254979585471789E-3  
 2.042800000000000E10    1.801942542210651E-3   8.300992508357539E-4  
 2.043000000000000E10    1.909018131049634E-3   2.743313369197353E-4  
 2.043200000000000E10    1.765650206000196E-3  -1.805047663297589E-4  
 2.043400000000000E10    1.529104488330736E-3  -4.622032403574161E-4  
 2.043600000000000E10    1.294440861001856E-3  -5.922195359220376E-4  
 2.043800000000000E10    1.169996983812425E-3  -6.473580691024447E-4  
 2.044000000000000E10    1.074958287721784E-3  -7.192163513551770E-4  
 2.044200000000000E10    1.057831189641154E-3  -7.747740838331758E-4  
 2.044400000000000E10    1.115461077000716E-3  -8.953741551357717E-4  
 2.044600000000000E10    1.141550944478025E-3  -1.153189161219423E-3  
 2.044800000000000E10    1.002015603692827E-3  -1.521809717904731E-3  
 2.045000000000000E10    6.850890119640548E-4  -1.886048313966136E-3  
 2.045200000000000E10    2.056229525435441E-4  -2.093835304579372E-3  
 2.045400000000000E10   -3.185645514143892E-4  -2.072206949393568E-3  
 2.045600000000000E10   -7.047471925692917E-4  -1.887423095078718E-3  
 2.045800000000000E10   -9.301470594055216E-4  -1.723817953506462E-3  
 2.046000000000000E10   -1.199799180203290E-3  -1.632270243674241E-3  
 2.046200000000000E10   -1.543687393030328E-3  -1.490997955866097E-3  
 2.046400000000000E10   -1.924942742933523E-3  -1.191135338285302E-3  
 2.046600000000000E10   -2.181225608643375E-3  -6.891751619738072E-4  
 2.046800000000000E10   -2.207568578839823E-3  -1.148448511095787E-4  
 2.047000000000000E10   -1.981320581590535E-3   3.232215844964755E-4  
 2.047200000000000E10   -1.725546395264321E-3   5.142298461668148E-4  
 2.047400000000000E10   -1.622682059310193E-3   5.905987044993727E-4  
 2.047600000000000E10   -1.618667160268153E-3   7.431833909483392E-4  
 2.047800000000000E10   -1.559312681479710E-3   9.490468643736019E-4  
 2.048000000000000E10   -1.507632729957655E-3   1.148127055336020E-3  
 2.048200000000000E10   -1.493873065548332E-3   1.394999066440565E-3  
 2.048400000000000E10   -1.385010505830984E-3   1.784053284276293E-3  
 2.048600000000000E10   -1.029830056610575E-3   2.183803363890989E-3  
 2.048800000000000E10   -5.586152281152246E-4   2.410350859916382E-3  
 2.049000000000000E10   -9.870543714743033E-5   2.500660903368590E-3  
 2.049200000000000E10    3.692685164618518E-4   2.494619331426091E-3  
 2.049400000000000E10    7.720895740586821E-4   2.424229031290721E-3  
 2.049600000000000E10    1.154005171064242E-3   2.334370119727137E-3  
 2.049800000000000E10    1.586697072484397E-3   2.204515566903746E-3  
 2.050000000000000E10    2.028691702150576E-3   1.992530322637517E-3  
 2.050200000000000E10    2.472330792136337E-3   1.682094712224272E-3  
 2.050400000000000E10    2.938416128242274E-3   1.143810258308280E-3  
 2.050600000000000E10    3.172747033874317E-3   3.572276918219457E-4  
 2.050800000000000E10    3.011045520435330E-3  -3.926161288713975E-4  
 2.051000000000000E10    2.675589541003967E-3  -8.803207847412385E-4  
 2.051200000000000E10    2.417207275873717E-3  -1.192546375105426E-3  
 2.051400000000000E10    2.184492567508125E-3  -1.472310823246592E-3  
 2.051600000000000E10    1.940967128018048E-3  -1.704913639241194E-3  
 2.051800000000000E10    1.757642007988606E-3  -1.917512653349543E-3  
 2.052000000000000E10    1.583694365381459E-3  -2.173340831473164E-3  
 2.052200000000000E10    1.347327051557785E-3  -2.475156861744484E-3  
 2.052400000000000E10    1.006897686455598E-3  -2.858729652654181E-3  
 2.052600000000000E10    4.414429154185725E-4  -3.204078898370389E-3  
 2.052800000000000E10   -2.832699125970872E-4  -3.282768000300530E-3  
 2.053000000000000E10   -9.213007956363813E-4  -3.151585310582578E-3  
 2.053200000000000E10   -1.481480613339371E-3  -2.943766389594035E-3  
 2.053400000000000E10   -1.963698874810259E-3  -2.621369646218273E-3  
 2.053600000000000E10   -2.375523877855191E-3  -2.284195058530680E-3  
 2.053800000000000E10   -2.773186935441485E-3  -1.908584063826704E-3  
 2.054000000000000E10   -3.095399435042354E-3  -1.412359420344264E-3  
 2.054200000000000E10   -3.379703965038062E-3  -8.476227186543586E-4  
 2.054400000000000E10   -3.526530853269523E-3  -1.468722595985469E-4  
 2.054600000000000E10   -3.435808496450078E-3   5.485269867665607E-4  
 2.054800000000000E10   -3.212429325330099E-3   1.197542284745647E-3  
 2.055000000000000E10   -2.828009134357788E-3   1.760951260587684E-3  
 2.055200000000000E10   -2.317345658999412E-3   2.113445354874702E-3  
 2.055400000000000E10   -1.870728330686689E-3   2.235348421674023E-3  
 2.055600000000000E10   -1.650869808017963E-3   2.277874703990457E-3  
