#  HZ   S   RI   R     50.00 
! Rohde & Schwarz ZVA40 4Ports - Version 3.90 - 1145.1110k42 SN: 100403
! Date: 2023-10-03 10:50:41
! Measurement: S12 
! 
 2.000000000000000E10    5.686493410102243E-4  -1.789226499961023E-3  
 2.000200000000000E10    1.224572367874192E-4  -1.700519585556546E-3  
 2.000400000000000E10   -2.683976614926109E-4  -1.425141184073356E-3  
 2.000600000000000E10   -3.538990725998848E-4  -1.025885787654530E-3  
 2.000800000000000E10   -1.100485623069683E-4  -8.385569319979830E-4  
 2.001000000000000E10    1.247323732429693E-4  -1.078426633835023E-3  
 2.001200000000000E10   -6.102971964997937E-5  -1.525046897442713E-3  
 2.001400000000000E10   -6.284435803536327E-4  -1.685426899599901E-3  
 2.001600000000000E10   -1.167101973817212E-3  -1.466285476150612E-3  
 2.001800000000000E10   -1.513404103375420E-3  -1.084562796340497E-3  
 2.002000000000000E10   -1.679000045161373E-3  -6.569752851062754E-4  
 2.002200000000000E10   -1.704975564527199E-3  -2.177570911302565E-4  
 2.002400000000000E10   -1.578801144834286E-3   1.357814694023950E-4  
 2.002600000000000E10   -1.407319998920516E-3   3.061303678008205E-4  
 2.002800000000000E10   -1.405333983711898E-3   3.566422156937835E-4  
 2.003000000000000E10   -1.576653910214427E-3   6.007121404831264E-4  
 2.003200000000000E10   -1.568212331974028E-3   1.123361216202654E-3  
 2.003400000000000E10   -1.176638031424380E-3   1.608857597557851E-3  
 2.003600000000000E10   -6.513987462335256E-4   1.819092638066246E-3  
 2.003800000000000E10   -1.856553828901393E-4   1.831818064444779E-3  
 2.004000000000000E10    2.052135377321796E-4   1.750982037377487E-3  
 2.004200000000000E10    5.342852655527999E-4   1.612245578054385E-3  
 2.004400000000000E10    8.259152032055513E-4   1.434813361373489E-3  
 2.004600000000000E10    1.089280926806415E-3   1.184252823737485E-3  
 2.004800000000000E10    1.219425645058998E-3   8.553219700439110E-4  
 2.005000000000000E10    1.221211533706038E-3   6.364591205550106E-4  
 2.005200000000000E10    1.239066748063506E-3   5.069814286809875E-4  
 2.005400000000000E10    1.388082099664543E-3   4.124590892770133E-4  
 2.005600000000000E10    1.625659218759357E-3   8.558820753270635E-5  
 2.005800000000000E10    1.600972021768951E-3  -3.975578294535180E-4  
 2.006000000000000E10    1.372864905365364E-3  -7.008524208450346E-4  
 2.006200000000000E10    1.157091897452411E-3  -8.914682656285113E-4  
 2.006400000000000E10    9.310808044248895E-4  -1.026408562873617E-3  
 2.006600000000000E10    7.153454919907633E-4  -1.063437126346944E-3  
 2.006800000000000E10    6.326488794092043E-4  -1.053801905881200E-3  
 2.007000000000000E10    6.057254051686162E-4  -1.157911763135574E-3  
 2.007200000000000E10    5.282101115027881E-4  -1.361688613362702E-3  
 2.007400000000000E10    3.165057602512398E-4  -1.652248448082879E-3  
 2.007600000000000E10   -1.673106748012849E-4  -1.887726695219308E-3  
 2.007800000000000E10   -7.271268103202738E-4  -1.803749374596885E-3  
 2.008000000000000E10   -1.105031070448918E-3  -1.507341710816103E-3  
 2.008200000000000E10   -1.322920135233873E-3  -1.187581130602386E-3  
 2.008400000000000E10   -1.420983472655033E-3  -8.998556367271110E-4  
 2.008600000000000E10   -1.512969700320636E-3  -6.952392027920319E-4  
 2.008800000000000E10   -1.647976819241857E-3  -4.693387639651329E-4  
 2.009000000000000E10   -1.716454188557871E-3  -2.099485558753742E-4  
 2.009200000000000E10   -1.797183971553122E-3   6.241169646756009E-5  
 2.009400000000000E10   -1.862303096582584E-3   4.345908693474844E-4  
 2.009600000000000E10   -1.822456566582400E-3   8.991868623221915E-4  
 2.009800000000000E10   -1.560824458993236E-3   1.366599598025650E-3  
 2.010000000000000E10   -1.089692545514324E-3   1.625029858845620E-3  
 2.010200000000000E10   -6.453975974754604E-4   1.611470595508078E-3  
 2.010400000000000E10   -4.158762691795459E-4   1.451123699856301E-3  
 2.010600000000000E10   -3.970741027718940E-4   1.395236203492976E-3  
 2.010800000000000E10   -3.834067334357742E-4   1.556538304107057E-3  
 2.011000000000000E10   -1.854945459607185E-4   1.819373009277991E-3  
 2.011200000000000E10    2.158429203440009E-4   2.012789163186595E-3  
 2.011400000000000E10    7.344908544500531E-4   2.041813752177045E-3  
 2.011600000000000E10    1.259003065951904E-3   1.893610568475668E-3  
 2.011800000000000E10    1.732630405092129E-3   1.492235237548565E-3  
 2.012000000000000E10    1.904743361390299E-3   9.484307885020513E-4  
 2.012200000000000E10    1.840482670008953E-3   5.264061015892637E-4  
 2.012400000000000E10    1.767603976560044E-3   2.921410399003323E-4  
 2.012600000000000E10    1.784108346328140E-3   1.157743563790401E-4  
 2.012800000000000E10    1.831179093799474E-3  -1.701346205484214E-4  
 2.013000000000000E10    1.730900630067436E-3  -4.944079016611256E-4  
 2.013200000000000E10    1.571896828044160E-3  -7.074600765424103E-4  
 2.013400000000000E10    1.504807081935858E-3  -9.227286827359579E-4  
 2.013600000000000E10    1.335801500654607E-3  -1.183656353308003E-3  
 2.013800000000000E10    1.047086878967138E-3  -1.334303524345160E-3  
 2.014000000000000E10    7.930698382012822E-4  -1.310834314754624E-3  
 2.014200000000000E10    7.333712821918324E-4  -1.233366384159452E-3  
 2.014400000000000E10    8.191251121231438E-4  -1.335460786063822E-3  
 2.014600000000000E10    8.187180709806675E-4  -1.637068940728995E-3  
 2.014800000000000E10    6.030361806933574E-4  -2.017333626425193E-3  
 2.015000000000000E10    1.605520189547895E-4  -2.316643213738263E-3  
 2.015200000000000E10   -4.250097741016452E-4  -2.463600856976377E-3  
 2.015400000000000E10   -1.080230837055471E-3  -2.383584168130233E-3  
 2.015600000000000E10   -1.632008207157071E-3  -2.004534052110013E-3  
 2.015800000000000E10   -1.930340969314178E-3  -1.499356148638015E-3  
 2.016000000000000E10   -2.013932350149125E-3  -1.012253049002202E-3  
 2.016200000000000E10   -1.986677939486173E-3  -6.554516565549062E-4  
 2.016400000000000E10   -1.902481625833905E-3  -4.165791209361712E-4  
 2.016600000000000E10   -1.886647204684531E-3  -3.003665625542062E-4  
 2.016800000000000E10   -2.009547532559085E-3  -1.432593165606514E-4  
 2.017000000000000E10   -2.143810447132974E-3   1.967016994316464E-4  
 2.017200000000000E10   -2.143528977880416E-3   6.182579507614360E-4  
 2.017400000000000E10   -1.971162880057998E-3   9.565900983921267E-4  
 2.017600000000000E10   -1.845394558687178E-3   1.139257176503263E-3  
 2.017800000000000E10   -1.805360407430541E-3   1.443920290546009E-3  
 2.018000000000000E10   -1.575998497701446E-3   1.830022958866148E-3  
 2.018200000000000E10   -1.258620864389764E-3   2.115570257394863E-3  
 2.018400000000000E10   -9.171137942668099E-4   2.332284509054857E-3  
 2.018600000000000E10   -5.420979017529775E-4   2.510730297891079E-3  
 2.018800000000000E10   -5.389368981676304E-5   2.637954811094168E-3  
 2.019000000000000E10    4.889476939426437E-4   2.611754700702466E-3  
 2.019200000000000E10    9.715833692569976E-4   2.435361000674743E-3  
 2.019400000000000E10    1.347264267768665E-3   2.167127118158488E-3  
 2.019600000000000E10    1.631111425439609E-3   1.893375291673030E-3  
 2.019800000000000E10    1.870903837563539E-3   1.534202657812448E-3  
 2.020000000000000E10    1.972858180337943E-3   1.158124721252624E-3  
 2.020200000000000E10    1.916069107670567E-3   9.174309642180618E-4  
 2.020400000000000E10    1.969470429797600E-3   9.075042886521531E-4  
 2.020600000000000E10    2.299053513985357E-3   8.224380938451233E-4  
 2.020800000000000E10    2.716932618231686E-3   4.305599694266732E-4  
 2.021000000000000E10    2.971864178960707E-3  -2.918838854608943E-4  
 2.021200000000000E10    2.789892989245278E-3  -1.047582641519882E-3  
 2.021400000000000E10    2.391291371213250E-3  -1.548315023279025E-3  
 2.021600000000000E10    1.941786374735796E-3  -1.856173492140241E-3  
 2.021800000000000E10    1.524460596825790E-3  -1.955697683755447E-3  
 2.022000000000000E10    1.280375963283910E-3  -1.972578201488949E-3  
 2.022200000000000E10    1.216459260494621E-3  -2.086473269572045E-3  
 2.022400000000000E10    1.088331648964941E-3  -2.452751566989371E-3  
 2.022600000000000E10    6.286552446078005E-4  -2.843203649706679E-3  
 2.022800000000000E10   -8.239029009501697E-6  -3.071457573017221E-3  
 2.023000000000000E10   -7.505406723300249E-4  -3.070397285261641E-3  
 2.023200000000000E10   -1.459031548339552E-3  -2.795713878938078E-3  
 2.023400000000000E10   -1.991483242032521E-3  -2.307085630794366E-3  
 2.023600000000000E10   -2.282011342798302E-3  -1.723158147393002E-3  
 2.023800000000000E10   -2.391846813146531E-3  -1.186733026298936E-3  
 2.024000000000000E10   -2.396429670445713E-3  -7.232584175653756E-4  
 2.024200000000000E10   -2.291214905311296E-3  -3.195603217866364E-4  
 2.024400000000000E10   -2.103382830772503E-3  -3.956833097618072E-5  
 2.024600000000000E10   -2.000996460678217E-3   1.180708327691393E-4  
 2.024800000000000E10   -1.992829121005389E-3   3.002855666614150E-4  
 2.025000000000000E10   -1.973776164016238E-3   5.212424938814187E-4  
 2.025200000000000E10   -1.974984396961920E-3   7.678911702155517E-4  
 2.025400000000000E10   -1.938452889544913E-3   1.065778694069588E-3  
 2.025600000000000E10   -1.833067709626056E-3   1.454999440430124E-3  
 2.025800000000000E10   -1.551313090057653E-3   1.852132026451054E-3  
 2.026000000000000E10   -1.174017513906698E-3   2.095686930036288E-3  
 2.026200000000000E10   -8.071079177574980E-4   2.233719835517767E-3  
 2.026400000000000E10   -4.326761319348014E-4   2.344089997127469E-3  
 2.026600000000000E10    1.747356707059184E-5   2.444436141278273E-3  
 2.026800000000000E10    5.452272246511263E-4   2.389197766688871E-3  
 2.027000000000000E10    1.047473908172070E-3   2.163971449466951E-3  
 2.027200000000000E10    1.428849082497627E-3   1.760332342122256E-3  
 2.027400000000000E10    1.555085521375324E-3   1.280165471447011E-3  
 2.027600000000000E10    1.476002697556935E-3   9.261601112989916E-4  
 2.027800000000000E10    1.346106270190191E-3   8.116387977713237E-4  
 2.028000000000000E10    1.401286199976357E-3   8.353560797893156E-4  
 2.028200000000000E10    1.606761170321225E-3   7.646079821926025E-4  
 2.028400000000000E10    1.875149123485626E-3   5.435569080334433E-4  
 2.028600000000000E10    2.056584842962984E-3   1.454125475576780E-4  
 2.028800000000000E10    2.041860365734241E-3  -3.200656562658418E-4  
 2.029000000000000E10    1.911436385808536E-3  -7.336378466901313E-4  
 2.029200000000000E10    1.625257508288839E-3  -1.104041186655745E-3  
 2.029400000000000E10    1.222011479434132E-3  -1.248954882971759E-3  
 2.029600000000000E10    9.609771070335017E-4  -1.210941361079430E-3  
 2.029800000000000E10    8.806423503290404E-4  -1.175342617774911E-3  
 2.030000000000000E10    8.368026544224977E-4  -1.260066180731411E-3  
 2.030200000000000E10    7.552021473393213E-4  -1.390291054526137E-3  
 2.030400000000000E10    6.765762640789934E-4  -1.611406095670881E-3  
 2.030600000000000E10    4.210891283834411E-4  -1.932888987393659E-3  
 2.030800000000000E10   -1.075965835893222E-4  -2.136448487340484E-3  
 2.031000000000000E10   -6.712647550164458E-4  -2.032402371067876E-3  
 2.031200000000000E10   -1.123130157658899E-3  -1.725946278541269E-3  
 2.031400000000000E10   -1.402243290579430E-3  -1.316399185596333E-3  
 2.031600000000000E10   -1.489433398136846E-3  -9.096121784863006E-4  
 2.031800000000000E10   -1.405550961750617E-3  -5.829392631975129E-4  
 2.032000000000000E10   -1.292291166329825E-3  -4.018863137052567E-4  
 2.032200000000000E10   -1.237219583277625E-3  -2.963130389639166E-4  
 2.032400000000000E10   -1.236542549133761E-3  -2.255196960942596E-4  
 2.032600000000000E10   -1.290001742610777E-3  -1.362353214062751E-4  
 2.032800000000000E10   -1.332267469232097E-3  -2.959631038484769E-6  
 2.033000000000000E10   -1.393581729060338E-3   1.574455229364290E-4  
 2.033200000000000E10   -1.408790673681156E-3   4.086102571706346E-4  
 2.033400000000000E10   -1.346543336425115E-3   6.089578238948261E-4  
 2.033600000000000E10   -1.414034006841205E-3   6.341296010995629E-4  
 2.033800000000000E10   -1.364487871516174E-3   1.061117437518673E-3  
 2.034000000000000E10   -1.218662143075540E-3   1.502248334962829E-3  
 2.034200000000000E10   -8.140089731220802E-4   1.902083446628150E-3  
 2.034400000000000E10   -2.423301673304566E-4   2.049867351205997E-3  
 2.034600000000000E10    2.919100510620478E-4   1.957667436749663E-3  
 2.034800000000000E10    7.379884532664294E-4   1.718543482840889E-3  
 2.035000000000000E10    1.070601727675509E-3   1.345514499490368E-3  
 2.035200000000000E10    1.183712543103338E-3   8.695734130149639E-4  
 2.035400000000000E10    1.007794612374755E-3   4.902593895683733E-4  
 2.035600000000000E10    6.962270356634243E-4   4.034279364184190E-4  
 2.035800000000000E10    5.577324363575491E-4   5.986026558668619E-4  
 2.036000000000000E10    7.323979634635675E-4   8.216565316772942E-4  
 2.036200000000000E10    1.107784051356125E-3   8.543772212614849E-4  
 2.036400000000000E10    1.473202544011544E-3   6.302190760587470E-4  
 2.036600000000000E10    1.686085213872570E-3   2.618225518610281E-4  
 2.036800000000000E10    1.774147204640839E-3  -1.536229651214348E-4  
 2.037000000000000E10    1.712964748515299E-3  -6.230957202475381E-4  
 2.037200000000000E10    1.492366863035218E-3  -9.975542708150584E-4  
 2.037400000000000E10    1.226681679125048E-3  -1.249720269158759E-3  
 2.037600000000000E10    9.174769561749276E-4  -1.441727135111981E-3  
 2.037800000000000E10    5.866846622666346E-4  -1.567915314808488E-3  
 2.038000000000000E10    2.574686295702122E-4  -1.619806682782961E-3  
 2.038200000000000E10   -6.069682404128719E-5  -1.601635689709198E-3  
 2.038400000000000E10   -3.576534340319075E-4  -1.519462059217471E-3  
 2.038600000000000E10   -6.068398375466558E-4  -1.344126424275017E-3  
 2.038800000000000E10   -7.466503266636054E-4  -1.162980934662492E-3  
 2.039000000000000E10   -8.918685956432681E-4  -1.080810408579347E-3  
 2.039200000000000E10   -1.111201376418503E-3  -9.555179607065649E-4  
 2.039400000000000E10   -1.279808862571731E-3  -6.966411968244725E-4  
 2.039600000000000E10   -1.323767236353439E-3  -4.122566940538862E-4  
 2.039800000000000E10   -1.295851385450842E-3  -2.239836566006467E-4  
 2.040000000000000E10   -1.343638574371092E-3  -1.014758933178885E-4  
 2.040200000000000E10   -1.471540949560334E-3   9.046345129954043E-5  
 2.040400000000000E10   -1.544325914302910E-3   4.192450662994367E-4  
 2.040600000000000E10   -1.443288737425098E-3   8.151390062311642E-4  
 2.040800000000000E10   -1.178634731691147E-3   1.150265790200160E-3  
 2.041000000000000E10   -8.298538583560768E-4   1.293809569935188E-3  
 2.041200000000000E10   -5.863658044728693E-4   1.278155139089781E-3  
 2.041400000000000E10   -4.551634357747749E-4   1.296504599007744E-3  
 2.041600000000000E10   -3.309234469068341E-4   1.407242140065833E-3  
 2.041800000000000E10   -1.566293904483089E-4   1.559218551308193E-3  
 2.042000000000000E10    1.390883393648920E-4   1.754750500513632E-3  
 2.042200000000000E10    6.101854680175032E-4   1.839796033756877E-3  
 2.042400000000000E10    1.105541965556274E-3   1.678965948407113E-3  
 2.042600000000000E10    1.502641397643329E-3   1.373623385680495E-3  
 2.042800000000000E10    1.829922111578470E-3   9.847267891602294E-4  
 2.043000000000000E10    1.986080869733368E-3   4.383089839348593E-4  
 2.043200000000000E10    1.854977431063207E-3  -8.775567488398484E-5  
 2.043400000000000E10    1.590602029471394E-3  -4.015984477182092E-4  
 2.043600000000000E10    1.382810739156457E-3  -5.176118898412420E-4  
 2.043800000000000E10    1.304328835419851E-3  -5.981589970753793E-4  
 2.044000000000000E10    1.238747790202867E-3  -7.398206191597346E-4  
 2.044200000000000E10    1.179983520328447E-3  -8.527226713744717E-4  
 2.044400000000000E10    1.158306250107233E-3  -1.009982408392301E-3  
 2.044600000000000E10    1.128363954823143E-3  -1.263156795535053E-3  
 2.044800000000000E10    9.930443096285067E-4  -1.584419045010927E-3  
 2.045000000000000E10    6.976858569010174E-4  -1.898136268726286E-3  
 2.045200000000000E10    2.418112251936331E-4  -2.103243498878991E-3  
 2.045400000000000E10   -2.633364663465110E-4  -2.130447119405425E-3  
 2.045600000000000E10   -6.806891843429365E-4  -1.987966513376177E-3  
 2.045800000000000E10   -9.850378494629247E-4  -1.837938303921234E-3  
 2.046000000000000E10   -1.303440047554488E-3  -1.708571863774624E-3  
 2.046200000000000E10   -1.656280952666737E-3  -1.516779680609887E-3  
 2.046400000000000E10   -2.047166271411159E-3  -1.175473915573991E-3  
 2.046600000000000E10   -2.321193095319617E-3  -6.506256629816361E-4  
 2.046800000000000E10   -2.314874195252304E-3  -2.617687511510779E-5  
 2.047000000000000E10   -2.032274969589012E-3   4.375810656958134E-4  
 2.047200000000000E10   -1.738023985878645E-3   6.190480863428274E-4  
 2.047400000000000E10   -1.613298376424262E-3   6.897518943771030E-4  
 2.047600000000000E10   -1.560154651222682E-3   8.569492284426995E-4  
 2.047800000000000E10   -1.475320467840375E-3   1.028970355328954E-3  
 2.048000000000000E10   -1.412443448731929E-3   1.182700152347945E-3  
 2.048200000000000E10   -1.412324874696357E-3   1.404995459453835E-3  
 2.048400000000000E10   -1.347321258098991E-3   1.811877025268329E-3  
 2.048600000000000E10   -1.012562006642973E-3   2.234141644159401E-3  
 2.048800000000000E10   -5.237336460404663E-4   2.470758550995846E-3  
 2.049000000000000E10   -1.207654713653028E-5   2.554150548315159E-3  
 2.049200000000000E10    4.697386985630327E-4   2.515599171826501E-3  
 2.049400000000000E10    8.759535619138200E-4   2.405811328279936E-3  
 2.049600000000000E10    1.261011499014718E-3   2.295866677606548E-3  
 2.049800000000000E10    1.693881716130784E-3   2.147816337162146E-3  
 2.050000000000000E10    2.143554073287013E-3   1.882201067838864E-3  
 2.050200000000000E10    2.572026928702807E-3   1.515726133445163E-3  
 2.050400000000000E10    2.970001065275736E-3   9.666637051850557E-4  
 2.050600000000000E10    3.140546413092518E-3   2.209562790309896E-4  
 2.050800000000000E10    2.950649352077349E-3  -5.108708047586851E-4  
 2.051000000000000E10    2.590378154253151E-3  -9.690591415827290E-4  
 2.051200000000000E10    2.303878920451727E-3  -1.251033757364860E-3  
 2.051400000000000E10    2.057720303397488E-3  -1.504200851303284E-3  
 2.051600000000000E10    1.816032465869262E-3  -1.699730141640262E-3  
 2.051800000000000E10    1.640687672202878E-3  -1.865147500885306E-3  
 2.052000000000000E10    1.488178315928873E-3  -2.115778055869871E-3  
 2.052200000000000E10    1.296407354846137E-3  -2.426724234181974E-3  
 2.052400000000000E10    9.767105960988521E-4  -2.828872322829234E-3  
 2.052600000000000E10    3.806933502660904E-4  -3.150871581179493E-3  
 2.052800000000000E10   -3.374417466585766E-4  -3.171772604095347E-3  
 2.053000000000000E10   -9.094971888928595E-4  -2.991983072004385E-3  
 2.053200000000000E10   -1.380463866631926E-3  -2.787145150733399E-3  
 2.053400000000000E10   -1.817878002277863E-3  -2.539810385371065E-3  
 2.053600000000000E10   -2.241644410439480E-3  -2.268415479058469E-3  
 2.053800000000000E10   -2.671472521291839E-3  -1.898540362117836E-3  
 2.054000000000000E10   -3.021542347944630E-3  -1.412789137562576E-3  
 2.054200000000000E10   -3.311715206637243E-3  -8.591450082517610E-4  
 2.054400000000000E10   -3.429727870281097E-3  -1.618335096102300E-4  
 2.054600000000000E10   -3.315640337489270E-3   4.805439725995387E-4  
 2.054800000000000E10   -3.128435379354123E-3   1.069718337313123E-3  
 2.055000000000000E10   -2.775861574106931E-3   1.616207950311587E-3  
 2.055200000000000E10   -2.295871345717231E-3   1.966677025466422E-3  
 2.055400000000000E10   -1.884944627728360E-3   2.090895979630727E-3  
 2.055600000000000E10   -1.673857874041539E-3   2.150609471294800E-3  
