#  HZ   S   RI   R     50.00 
! Rohde & Schwarz ZVA40 4Ports - Version 3.90 - 1145.1110k42 SN: 100403
! Date: 2023-10-03 10:51:23
! Measurement: S12 
! 
 2.000000000000000E10    1.304298928179951E-3  -1.120389365867056E-3  
 2.000200000000000E10    9.169776199592486E-4  -1.159365573484037E-3  
 2.000400000000000E10    6.012356941398509E-4  -9.930210438108555E-4  
 2.000600000000000E10    5.949706225052339E-4  -7.116730255937136E-4  
 2.000800000000000E10    8.942202537717230E-4  -6.791847193165234E-4  
 2.001000000000000E10    1.148811243991885E-3  -1.103147877276772E-3  
 2.001200000000000E10    9.434061228401132E-4  -1.732011045398260E-3  
 2.001400000000000E10    3.146810225492421E-4  -2.089631605755400E-3  
 2.001600000000000E10   -3.483104864480319E-4  -2.013865720342707E-3  
 2.001800000000000E10   -7.953287977552801E-4  -1.694848924806273E-3  
 2.002000000000000E10   -1.062400820147660E-3  -1.322819510716255E-3  
 2.002200000000000E10   -1.166446130136373E-3  -9.069586371037144E-4  
 2.002400000000000E10   -1.063058079496302E-3  -6.308370481107248E-4  
 2.002600000000000E10   -9.722780669108034E-4  -6.172935105429067E-4  
 2.002800000000000E10   -1.148257406721651E-3  -7.007807381106196E-4  
 2.003000000000000E10   -1.559181108691350E-3  -5.287532511391436E-4  
 2.003200000000000E10   -1.795283040135271E-3   1.035795678574313E-5  
 2.003400000000000E10   -1.630724662121524E-3   5.678266364460191E-4  
 2.003600000000000E10   -1.288993603170470E-3   8.956682738951512E-4  
 2.003800000000000E10   -9.049725809341506E-4   1.033354447119766E-3  
 2.004000000000000E10   -5.669448771557117E-4   1.021210293940924E-3  
 2.004200000000000E10   -3.420307890606908E-4   9.211933874111210E-4  
 2.004400000000000E10   -2.589146124255086E-4   8.576491187947494E-4  
 2.004600000000000E10   -1.859873246522276E-4   8.482866256532296E-4  
 2.004800000000000E10   -1.658844652141583E-4   8.197880977402546E-4  
 2.005000000000000E10   -1.831260411159343E-4   9.152413005250749E-4  
 2.005200000000000E10   -6.221705465308066E-5   1.108664706677061E-3  
 2.005400000000000E10    2.718136788138914E-4   1.286378033303966E-3  
 2.005600000000000E10    7.442659569076367E-4   1.149337786180830E-3  
 2.005800000000000E10    9.579100749558874E-4   7.306021267410231E-4  
 2.006000000000000E10    9.239708715877326E-4   4.253896010966317E-4  
 2.006200000000000E10    8.948668320145872E-4   2.404615528222267E-4  
 2.006400000000000E10    8.219425475949215E-4   1.162335837660875E-4  
 2.006600000000000E10    7.572871453939352E-4   1.231012070935255E-4  
 2.006800000000000E10    8.601920002278081E-4   1.758686493202630E-4  
 2.007000000000000E10    1.088326820603538E-3   3.655984808035472E-5  
 2.007200000000000E10    1.223701944885155E-3  -3.174420880559073E-4  
 2.007400000000000E10    1.152661534164239E-3  -7.195442125925589E-4  
 2.007600000000000E10    8.308212660873930E-4  -1.044041970830963E-3  
 2.007800000000000E10    4.235206363739930E-4  -1.092112724479564E-3  
 2.008000000000000E10    1.660490399646936E-4  -9.993967337154405E-4  
 2.008200000000000E10    3.999379505667432E-5  -9.142941864276375E-4  
 2.008400000000000E10    3.236476213378074E-5  -8.902550411962526E-4  
 2.008600000000000E10   -3.174625723019106E-5  -1.025735323006908E-3  
 2.008800000000000E10   -2.661575214275488E-4  -1.126869458756927E-3  
 2.009000000000000E10   -5.422126193513613E-4  -1.114730708111354E-3  
 2.009200000000000E10   -8.281222458376930E-4  -1.061511756334868E-3  
 2.009400000000000E10   -1.144874120924484E-3  -8.548771837484782E-4  
 2.009600000000000E10   -1.327084004447830E-3  -4.656244278454257E-4  
 2.009800000000000E10   -1.282200894180548E-3  -3.657083693219142E-5  
 2.010000000000000E10   -1.056929638488563E-3   2.244542066128580E-4  
 2.010200000000000E10   -8.669335791772166E-4   2.536496402980346E-4  
 2.010400000000000E10   -8.677588581728440E-4   1.750810545975886E-4  
 2.010600000000000E10   -1.059550936420069E-3   2.231050090173355E-4  
 2.010800000000000E10   -1.235537584526119E-3   5.276235670963717E-4  
 2.011000000000000E10   -1.198929018789420E-3   9.683099126926177E-4  
 2.011200000000000E10   -9.452459354953912E-4   1.346562993367789E-3  
 2.011400000000000E10   -5.418244852787920E-4   1.556375124319284E-3  
 2.011600000000000E10   -5.644056283118615E-5   1.606854312639270E-3  
 2.011800000000000E10    4.290238608114629E-4   1.391802608311453E-3  
 2.012000000000000E10    6.013337966848028E-4   1.030930751262026E-3  
 2.012200000000000E10    5.358407151005750E-4   8.331687551819617E-4  
 2.012400000000000E10    4.916911249758280E-4   8.461964122640591E-4  
 2.012600000000000E10    6.273243386574367E-4   8.961101799892883E-4  
 2.012800000000000E10    8.514054093716874E-4   8.254659068943175E-4  
 2.013000000000000E10    9.734140303744764E-4   7.155964590816035E-4  
 2.013200000000000E10    1.106412520770122E-3   6.577426446946683E-4  
 2.013400000000000E10    1.307710474874411E-3   4.742553865071386E-4  
 2.013600000000000E10    1.362780367748605E-3   1.608013613063290E-4  
 2.013800000000000E10    1.290019700752089E-3  -6.615138435908773E-5  
 2.014000000000000E10    1.232307257682637E-3  -1.525355727170353E-4  
 2.014200000000000E10    1.291251456778911E-3  -1.693394464112957E-4  
 2.014400000000000E10    1.523262652982441E-3  -3.366810826129816E-4  
 2.014600000000000E10    1.681139494326932E-3  -7.689118760430979E-4  
 2.014800000000000E10    1.633728405943624E-3  -1.339449922347235E-3  
 2.015000000000000E10    1.309671827281515E-3  -1.887276954086567E-3  
 2.015200000000000E10    7.584350101684256E-4  -2.244358002725575E-3  
 2.015400000000000E10    7.444881959128432E-5  -2.331464111598002E-3  
 2.015600000000000E10   -5.170460682603773E-4  -2.088411547312583E-3  
 2.015800000000000E10   -8.082360469011797E-4  -1.742157188278658E-3  
 2.016000000000000E10   -9.076502691540455E-4  -1.471448719880923E-3  
 2.016200000000000E10   -9.572079288773241E-4  -1.324310178730499E-3  
 2.016400000000000E10   -1.041168638039380E-3  -1.232422202722066E-3  
 2.016600000000000E10   -1.218008541467565E-3  -1.234385935175750E-3  
 2.016800000000000E10   -1.539608373099731E-3  -1.168419132699017E-3  
 2.017000000000000E10   -1.848953366452069E-3  -8.927219530084620E-4  
 2.017200000000000E10   -2.009071866740232E-3  -4.905444134406194E-4  
 2.017400000000000E10   -1.991871399460016E-3  -1.395706721167597E-4  
 2.017600000000000E10   -2.062875122107842E-3   6.381555404341615E-5  
 2.017800000000000E10   -2.216269391485387E-3   4.321037736695467E-4  
 2.018000000000000E10   -2.146264702012694E-3   8.864485749250486E-4  
 2.018200000000000E10   -1.936959577034470E-3   1.254625493419115E-3  
 2.018400000000000E10   -1.695101623664852E-3   1.566422831577560E-3  
 2.018600000000000E10   -1.461431345281502E-3   1.876338665304637E-3  
 2.018800000000000E10   -1.108200211698810E-3   2.171944516400497E-3  
 2.019000000000000E10   -6.846677386891788E-4   2.339752347863935E-3  
 2.019200000000000E10   -2.199474962523069E-4   2.385849374587889E-3  
 2.019400000000000E10    1.993323468114896E-4   2.338617634787052E-3  
 2.019600000000000E10    5.641270588428059E-4   2.255714826147866E-3  
 2.019800000000000E10    8.643995970487596E-4   2.078426242978485E-3  
 2.020000000000000E10    1.051188800139008E-3   1.860535712222811E-3  
 2.020200000000000E10    1.110378113851227E-3   1.746833212328730E-3  
 2.020400000000000E10    1.336587713686404E-3   1.897163214851861E-3  
 2.020600000000000E10    1.889752689749003E-3   1.945186897905337E-3  
 2.020800000000000E10    2.564841372616314E-3   1.658453670744267E-3  
 2.021000000000000E10    3.078858825136666E-3   9.274214454409149E-4  
 2.021200000000000E10    3.107100500966664E-3   4.870688253841187E-5  
 2.021400000000000E10    2.832568302336667E-3  -5.959224837607947E-4  
 2.021600000000000E10    2.478165258825930E-3  -1.005854500733592E-3  
 2.021800000000000E10    2.169564073146494E-3  -1.181208662240318E-3  
 2.022000000000000E10    2.012977135126238E-3  -1.272678478724427E-3  
 2.022200000000000E10    2.040233721749650E-3  -1.517622313393211E-3  
 2.022400000000000E10    1.965815986127213E-3  -2.034239065660923E-3  
 2.022600000000000E10    1.578014930365263E-3  -2.545112994051090E-3  
 2.022800000000000E10    1.030486719510346E-3  -2.896709065815365E-3  
 2.023000000000000E10    3.404037086982970E-4  -3.048017638287059E-3  
 2.023200000000000E10   -3.591313251052743E-4  -2.940877806395292E-3  
 2.023400000000000E10   -8.960597592199016E-4  -2.611986973702356E-3  
 2.023600000000000E10   -1.176707610418951E-3  -2.255467344420376E-3  
 2.023800000000000E10   -1.362130390825095E-3  -1.973252864209590E-3  
 2.024000000000000E10   -1.537239148833410E-3  -1.705549937603926E-3  
 2.024200000000000E10   -1.648987626173982E-3  -1.469273171905014E-3  
 2.024400000000000E10   -1.742210282288768E-3  -1.327802940202808E-3  
 2.024600000000000E10   -1.953413503037559E-3  -1.230396817576278E-3  
 2.024800000000000E10   -2.212094462097243E-3  -9.902608279069819E-4  
 2.025000000000000E10   -2.420350900609737E-3  -6.565113866667230E-4  
 2.025200000000000E10   -2.601686140729322E-3  -2.645924708943952E-4  
 2.025400000000000E10   -2.712238269547622E-3   1.966102912168329E-4  
 2.025600000000000E10   -2.701564959284884E-3   7.489939582430655E-4  
 2.025800000000000E10   -2.459039454589839E-3   1.276168808410013E-3  
 2.026000000000000E10   -2.104097192555114E-3   1.672548552354177E-3  
 2.026200000000000E10   -1.774910393308986E-3   1.929121264429004E-3  
 2.026400000000000E10   -1.502677375726678E-3   2.193718933051935E-3  
 2.026600000000000E10   -1.096876739110384E-3   2.493424315212502E-3  
 2.026800000000000E10   -5.370186387423289E-4   2.623252001487547E-3  
 2.027000000000000E10   -5.951480017285250E-7   2.558541423813613E-3  
 2.027200000000000E10    4.456966244443148E-4   2.348677298330047E-3  
 2.027400000000000E10    6.859992259975386E-4   2.052428666502237E-3  
 2.027600000000000E10    7.228038911880167E-4   1.850900947357770E-3  
 2.027800000000000E10    7.608761079609394E-4   1.882011631365728E-3  
 2.028000000000000E10    1.041287668394270E-3   1.994216055781753E-3  
 2.028200000000000E10    1.494245043162395E-3   1.961944961092539E-3  
 2.028400000000000E10    2.018167689028714E-3   1.744968238873063E-3  
 2.028600000000000E10    2.447443738303803E-3   1.265934541286832E-3  
 2.028800000000000E10    2.639015989929990E-3   6.696192927106665E-4  
 2.029000000000000E10    2.661175361868960E-3   9.964515360210234E-5  
 2.029200000000000E10    2.486911826525574E-3  -4.490534051405524E-4  
 2.029400000000000E10    2.151626783112685E-3  -7.598525844514370E-4  
 2.029600000000000E10    1.915356502178367E-3  -8.715941415478786E-4  
 2.029800000000000E10    1.848005232642647E-3  -9.904232531510019E-4  
 2.030000000000000E10    1.789748948929763E-3  -1.232490189270013E-3  
 2.030200000000000E10    1.690625756358107E-3  -1.490421274125024E-3  
 2.030400000000000E10    1.625401808673309E-3  -1.836441664232148E-3  
 2.030600000000000E10    1.342506354881658E-3  -2.366072903559716E-3  
 2.030800000000000E10    6.857648054224060E-4  -2.751947630679718E-3  
 2.031000000000000E10   -3.816552365336702E-5  -2.756300089121969E-3  
 2.031200000000000E10   -6.091404464785700E-4  -2.514019194576476E-3  
 2.031400000000000E10   -9.924024688424888E-4  -2.179507709418734E-3  
 2.031600000000000E10   -1.234839256438944E-3  -1.851164619438351E-3  
 2.031800000000000E10   -1.341668130071075E-3  -1.539792322243254E-3  
 2.032000000000000E10   -1.405992631421045E-3  -1.321402706067871E-3  
 2.032200000000000E10   -1.477308295391224E-3  -1.178471567712862E-3  
 2.032400000000000E10   -1.605382189154625E-3  -1.050910507156341E-3  
 2.032600000000000E10   -1.779165787242905E-3  -8.828410128545431E-4  
 2.032800000000000E10   -1.939188037929988E-3  -6.706690118234191E-4  
 2.033000000000000E10   -2.111324203993987E-3  -3.963231073511352E-4  
 2.033200000000000E10   -2.218138495529140E-3  -4.325715040236162E-5  
 2.033400000000000E10   -2.234813067372199E-3   2.953825282424481E-4  
 2.033600000000000E10   -2.302295183417974E-3   3.957796208043066E-4  
 2.033800000000000E10   -2.287391883631547E-3   1.068778426593377E-3  
 2.034000000000000E10   -2.131341404660985E-3   1.656611829444214E-3  
 2.034200000000000E10   -1.688381191343070E-3   2.209482809390735E-3  
 2.034400000000000E10   -1.047073468928122E-3   2.523841853770945E-3  
 2.034600000000000E10   -4.121937392348494E-4   2.569087039403342E-3  
 2.034800000000000E10    1.529530116520753E-4   2.449907543551591E-3  
 2.035000000000000E10    6.329893949441612E-4   2.170849220689248E-3  
 2.035200000000000E10    9.146301093062869E-4   1.750219095912245E-3  
 2.035400000000000E10    9.001564230183486E-4   1.387722242658062E-3  
 2.035600000000000E10    7.449435544441696E-4   1.298341494812458E-3  
 2.035800000000000E10    7.539367997432474E-4   1.463234631551637E-3  
 2.036000000000000E10    1.045829394435579E-3   1.634866749453876E-3  
 2.036200000000000E10    1.543177619438481E-3   1.593127825159442E-3  
 2.036400000000000E10    2.031014710492283E-3   1.291251288623446E-3  
 2.036600000000000E10    2.375726346616392E-3   8.169919601641595E-4  
 2.036800000000000E10    2.549840352946410E-3   2.507081409459244E-4  
 2.037000000000000E10    2.533778384396876E-3  -3.595860411964909E-4  
 2.037200000000000E10    2.344639066399800E-3  -8.863730407837366E-4  
 2.037400000000000E10    2.074703164571138E-3  -1.316523640761497E-3  
 2.037600000000000E10    1.717421980747195E-3  -1.684921634107552E-3  
 2.037800000000000E10    1.280376946346628E-3  -1.923689079746880E-3  
 2.038000000000000E10    8.480020376198271E-4  -2.024064413961713E-3  
 2.038200000000000E10    4.727593569205731E-4  -2.055102265094994E-3  
 2.038400000000000E10    1.120959094367680E-4  -2.054701119454371E-3  
 2.038600000000000E10   -2.121732686646283E-4  -1.936886011174432E-3  
 2.038800000000000E10   -4.237402366319051E-4  -1.816331029490189E-3  
 2.039000000000000E10   -6.326616082030039E-4  -1.782183617318947E-3  
 2.039200000000000E10   -9.257239246464992E-4  -1.756188291538921E-3  
 2.039400000000000E10   -1.291511903723909E-3  -1.598077701163237E-3  
 2.039600000000000E10   -1.566723687574268E-3  -1.314432778464699E-3  
 2.039800000000000E10   -1.735680400290423E-3  -1.051191958443572E-3  
 2.040000000000000E10   -1.955657753300060E-3  -8.108040567970388E-4  
 2.040200000000000E10   -2.240567916521320E-3  -4.310723026584903E-4  
 2.040400000000000E10   -2.375897640983264E-3   1.262246323002964E-4  
 2.040600000000000E10   -2.259626242987536E-3   7.228014313753832E-4  
 2.040800000000000E10   -1.942259475105891E-3   1.204300059557513E-3  
 2.041000000000000E10   -1.526326682694533E-3   1.474630428236668E-3  
 2.041200000000000E10   -1.183760568016657E-3   1.553652062149788E-3  
 2.041400000000000E10   -9.855580283328891E-4   1.619877634328549E-3  
 2.041600000000000E10   -8.026180698329377E-4   1.781578003256410E-3  
 2.041800000000000E10   -5.445879478766411E-4   1.996631514177554E-3  
 2.042000000000000E10   -1.666768765534033E-4   2.212864545139450E-3  
 2.042200000000000E10    3.522706877750656E-4   2.317457106309357E-3  
 2.042400000000000E10    9.288557166992516E-4   2.195756839312338E-3  
 2.042600000000000E10    1.404743783900308E-3   1.905406419946640E-3  
 2.042800000000000E10    1.807183234228028E-3   1.514110899599338E-3  
 2.043000000000000E10    2.020373789559085E-3   9.813422673485347E-4  
 2.043200000000000E10    1.977891626733321E-3   4.835599862013219E-4  
 2.043400000000000E10    1.829584913880185E-3   1.623488130496332E-4  
 2.043600000000000E10    1.704933363254424E-3  -3.380974198484603E-6  
 2.043800000000000E10    1.728004284410013E-3  -1.560883605701815E-4  
 2.044000000000000E10    1.746611570491007E-3  -3.951355454908616E-4  
 2.044200000000000E10    1.745579130430189E-3  -6.160384800750763E-4  
 2.044400000000000E10    1.761099772044906E-3  -9.255873242013709E-4  
 2.044600000000000E10    1.685520444341280E-3  -1.325423928426096E-3  
 2.044800000000000E10    1.470812264381460E-3  -1.738107521776800E-3  
 2.045000000000000E10    1.102733296445675E-3  -2.101836169862913E-3  
 2.045200000000000E10    6.289952262132257E-4  -2.327486001713961E-3  
 2.045400000000000E10    1.128749324750431E-4  -2.382636570406181E-3  
 2.045600000000000E10   -3.400700704703384E-4  -2.289661059707955E-3  
 2.045800000000000E10   -6.712414626101102E-4  -2.201631915307156E-3  
 2.046000000000000E10   -1.048895314818731E-3  -2.157628122303221E-3  
 2.046200000000000E10   -1.526299342340618E-3  -2.024825869335069E-3  
 2.046400000000000E10   -2.050464821944911E-3  -1.694576232694089E-3  
 2.046600000000000E10   -2.430638013821510E-3  -1.122387544320965E-3  
 2.046800000000000E10   -2.496779534137912E-3  -4.601007709020956E-4  
 2.047000000000000E10   -2.292806067055574E-3   4.989525607217935E-5  
 2.047200000000000E10   -2.045937201560096E-3   3.140640449904216E-4  
 2.047400000000000E10   -1.930772641639191E-3   4.747878982150859E-4  
 2.047600000000000E10   -1.861982711556333E-3   6.847884355078418E-4  
 2.047800000000000E10   -1.781775137513049E-3   8.721346988480678E-4  
 2.048000000000000E10   -1.750249053455062E-3   1.044637713305376E-3  
 2.048200000000000E10   -1.792138580370833E-3   1.339112649913187E-3  
 2.048400000000000E10   -1.728773358519431E-3   1.841989686471169E-3  
 2.048600000000000E10   -1.355667620103944E-3   2.337567266766672E-3  
 2.048800000000000E10   -8.279691941829192E-4   2.614829163239510E-3  
 2.049000000000000E10   -3.093301843532740E-4   2.697190735489130E-3  
 2.049200000000000E10    1.469853224181053E-4   2.670344827627695E-3  
 2.049400000000000E10    5.515384157964339E-4   2.631243809850680E-3  
 2.049600000000000E10    9.622189035225247E-4   2.625633143233481E-3  
 2.049800000000000E10    1.478159920898853E-3   2.557105695207914E-3  
 2.050000000000000E10    2.039607204669328E-3   2.314102240941591E-3  
 2.050200000000000E10    2.568796225306061E-3   1.945467527817797E-3  
 2.050400000000000E10    3.059351454592414E-3   1.388128941740703E-3  
 2.050600000000000E10    3.333894104731304E-3   5.984576828605324E-4  
 2.050800000000000E10    3.222205210477114E-3  -1.912920903392930E-4  
 2.051000000000000E10    2.892755955043767E-3  -7.154674180869567E-4  
 2.051200000000000E10    2.606985745606600E-3  -1.051291275803966E-3  
 2.051400000000000E10    2.387770382618463E-3  -1.338474103249610E-3  
 2.051600000000000E10    2.187643044938644E-3  -1.604618672798906E-3  
 2.051800000000000E10    1.994135599859335E-3  -1.874763699662354E-3  
 2.052000000000000E10    1.808791800781533E-3  -2.181089465954790E-3  
 2.052200000000000E10    1.582964668395343E-3  -2.547109258119707E-3  
 2.052400000000000E10    1.227364021663865E-3  -3.005188122322715E-3  
 2.052600000000000E10    6.011652574805474E-4  -3.401699165503184E-3  
 2.052800000000000E10   -1.715033725270553E-4  -3.488502215111146E-3  
 2.053000000000000E10   -8.393239695578814E-4  -3.329973823080461E-3  
 2.053200000000000E10   -1.431581581494323E-3  -3.099811099538649E-3  
 2.053400000000000E10   -1.926705021307700E-3  -2.761443404273855E-3  
 2.053600000000000E10   -2.328145852381433E-3  -2.397250875623690E-3  
 2.053800000000000E10   -2.739537472802180E-3  -1.981283434563213E-3  
 2.054000000000000E10   -3.053170844429622E-3  -1.487219473347068E-3  
 2.054200000000000E10   -3.327540854957921E-3  -9.607027017476935E-4  
 2.054400000000000E10   -3.494161974500727E-3  -2.967879330821301E-4  
 2.054600000000000E10   -3.445606549373932E-3   3.757577468166819E-4  
 2.054800000000000E10   -3.260467442925331E-3   9.893006537351069E-4  
 2.055000000000000E10   -2.927263482922206E-3   1.552220692651140E-3  
 2.055200000000000E10   -2.478147149775868E-3   1.939158291659422E-3  
 2.055400000000000E10   -2.049906601853393E-3   2.113541898628076E-3  
 2.055600000000000E10   -1.810988316450406E-3   2.195495448109729E-3  
