#  HZ   S   RI   R     50.00 
! Rohde & Schwarz ZVA40 4Ports - Version 3.90 - 1145.1110k42 SN: 100403
! Date: 2023-10-03 10:54:37
! Measurement: S12 
! 
 2.000000000000000E10    1.383370688231087E-3   2.507036618080298E-4  
 2.000200000000000E10    1.331268855727013E-3  -1.894697153024206E-4  
 2.000400000000000E10    9.896524565259893E-4  -5.001900056492032E-4  
 2.000600000000000E10    5.861584187961719E-4  -4.573780065977279E-4  
 2.000800000000000E10    4.811551954373029E-4  -1.673213449482128E-4  
 2.001000000000000E10    6.998309349629708E-4  -5.201313283185219E-5  
 2.001200000000000E10    8.754939484743427E-4  -1.648073731404213E-4  
 2.001400000000000E10    1.033796621256589E-3  -3.382450316020830E-4  
 2.001600000000000E10    1.142011534273164E-3  -7.472406567238203E-4  
 2.001800000000000E10    8.690145059293251E-4  -1.252405769421639E-3  
 2.002000000000000E10    3.027324115621777E-4  -1.429528266731880E-3  
 2.002200000000000E10   -1.443186822458010E-4  -1.225699893382872E-3  
 2.002400000000000E10   -2.985057895492913E-4  -9.728143434327694E-4  
 2.002600000000000E10   -3.621016282668729E-4  -8.044985832968430E-4  
 2.002800000000000E10   -3.380357944636526E-4  -6.605861207289209E-4  
 2.003000000000000E10   -2.588038745962866E-4  -6.905642398640250E-4  
 2.003200000000000E10   -3.823901955641945E-4  -8.550243549922737E-4  
 2.003400000000000E10   -7.065751840989969E-4  -8.308025030994122E-4  
 2.003600000000000E10   -9.617969130717771E-4  -5.959137569233361E-4  
 2.003800000000000E10   -1.102774046119993E-3  -2.909102893928871E-4  
 2.004000000000000E10   -1.126351082168612E-3   1.040489346282643E-4  
 2.004200000000000E10   -8.962780185457733E-4   5.220192352332819E-4  
 2.004400000000000E10   -3.741310936697747E-4   6.743042656496444E-4  
 2.004600000000000E10    1.623777841163203E-5   3.410824366132327E-4  
 2.004800000000000E10   -7.771750258850968E-5  -4.239426934761054E-5  
 2.005000000000000E10   -3.524326850849860E-4  -1.488410749898097E-4  
 2.005200000000000E10   -6.544650841308874E-4  -4.983859423786564E-5  
 2.005400000000000E10   -8.492300137417553E-4   3.660742423775963E-4  
 2.005600000000000E10   -5.805665806056587E-4   8.516721355579335E-4  
 2.005800000000000E10   -1.236837764017652E-4   9.693555666110767E-4  
 2.006000000000000E10    3.334823404769356E-4   9.293572058797711E-4  
 2.006200000000000E10    8.062310315622592E-4   5.214966982344373E-4  
 2.006400000000000E10    8.061266889404736E-4  -1.932694342233137E-4  
 2.006600000000000E10    2.455246382548164E-4  -6.349641070873650E-4  
 2.006800000000000E10   -3.614199345458564E-4  -4.704602405480627E-4  
 2.007000000000000E10   -5.634027579224405E-4  -3.041979410530380E-5  
 2.007200000000000E10   -4.962647928752834E-4   3.023412652431562E-4  
 2.007400000000000E10   -3.031064112337284E-4   5.753737698987495E-4  
 2.007600000000000E10    5.515724105974600E-5   7.065949116454081E-4  
 2.007800000000000E10    4.567162857396689E-4   5.429223521877034E-4  
 2.008000000000000E10    5.787323145655754E-4   1.234779197989998E-4  
 2.008200000000000E10    3.562834419965468E-4  -1.402468482365855E-4  
 2.008400000000000E10    1.487161898245334E-4  -1.127449747097368E-4  
 2.008600000000000E10    1.081571969094781E-4  -3.813483950288181E-5  
 2.008800000000000E10    8.994731247241117E-5   2.424825537740686E-5  
 2.009000000000000E10    2.138031017194060E-4   1.096124603609946E-4  
 2.009200000000000E10    4.153848987900549E-4  -4.833791259712868E-5  
 2.009400000000000E10    3.724342181899206E-4  -3.733484445996353E-4  
 2.009600000000000E10    6.647515701730793E-5  -5.755701266160167E-4  
 2.009800000000000E10   -3.193497634780261E-4  -4.944934532690196E-4  
 2.010000000000000E10   -5.235763900499378E-4  -1.754894490457244E-4  
 2.010200000000000E10   -4.431726739750486E-4   1.806407061299126E-4  
 2.010400000000000E10   -1.386788517041247E-4   2.992396038291504E-4  
 2.010600000000000E10    3.958315709844754E-5   1.553327740201680E-4  
 2.010800000000000E10    4.941459706004272E-5   3.456088849400800E-6  
 2.011000000000000E10   -5.030466479217504E-5  -1.368498346835870E-4  
 2.011200000000000E10   -2.850305979257956E-4  -1.785250910253115E-4  
 2.011400000000000E10   -5.714453693571283E-4  -2.655054925492514E-5  
 2.011600000000000E10   -7.375733500036101E-4   4.238613319215308E-4  
 2.011800000000000E10   -4.555844905912693E-4   9.324115666526336E-4  
 2.012000000000000E10    2.978738808047234E-5   1.082153528077919E-3  
 2.012200000000000E10    4.477685649396369E-4   1.036857155634573E-3  
 2.012400000000000E10    8.665485448422440E-4   8.316229637942197E-4  
 2.012600000000000E10    1.153457138031997E-3   3.760786114273490E-4  
 2.012800000000000E10    1.052808322667800E-3  -1.742969763631944E-4  
 2.013000000000000E10    6.536926239165536E-4  -4.098284465007852E-4  
 2.013200000000000E10    3.838138331452178E-4  -3.027978682327142E-4  
 2.013400000000000E10    3.351934159312536E-4  -1.630326977321579E-4  
 2.013600000000000E10    4.007814602601562E-4  -5.230997820394863E-5  
 2.013800000000000E10    6.013038305186289E-4  -1.711616080425350E-5  
 2.014000000000000E10    8.622060679359202E-4  -2.424411411342545E-4  
 2.014200000000000E10    8.653834832970192E-4  -6.601233523982912E-4  
 2.014400000000000E10    6.268941675151849E-4  -1.004232497552387E-3  
 2.014600000000000E10    2.336350244823499E-4  -1.181964260916927E-3  
 2.014800000000000E10   -2.068647237014554E-4  -1.108091593329093E-3  
 2.015000000000000E10   -4.633650029894471E-4  -7.610306148072360E-4  
 2.015200000000000E10   -3.311610762691011E-4  -4.639051438533460E-4  
 2.015400000000000E10   -1.399736912715548E-4  -5.201196792409008E-4  
 2.015600000000000E10   -1.835620659457400E-4  -6.949364417520019E-4  
 2.015800000000000E10   -3.599679844172235E-4  -7.832655697532090E-4  
 2.016000000000000E10   -5.903911646053104E-4  -7.990533816570670E-4  
 2.016200000000000E10   -9.247367600852878E-4  -6.791379505388991E-4  
 2.016400000000000E10   -1.122891848308989E-3  -2.273060819766496E-4  
 2.016600000000000E10   -8.586611121570991E-4   1.629821186882363E-4  
 2.016800000000000E10   -5.466066068038344E-4   1.410983954153862E-4  
 2.017000000000000E10   -4.702976101400033E-4   6.076851818368460E-6  
 2.017200000000000E10   -4.649340422295127E-4  -1.015410254447848E-4  
 2.017400000000000E10   -5.533099018201164E-4  -2.916146965875624E-4  
 2.017600000000000E10   -9.493267186629921E-4  -4.074830150649952E-4  
 2.017800000000000E10   -1.464670761143444E-3  -6.650875280841169E-5  
 2.018000000000000E10   -1.572682726323421E-3   5.902348738019989E-4  
 2.018200000000000E10   -1.334867543644375E-3   1.128918910973970E-3  
 2.018400000000000E10   -8.913918159741128E-4   1.515985009501930E-3  
 2.018600000000000E10   -3.265907884112640E-4   1.602874591624664E-3  
 2.018800000000000E10    1.204736181534827E-4   1.341866947319589E-3  
 2.019000000000000E10    1.440406187701924E-4   9.912098369871578E-4  
 2.019200000000000E10   -4.627858504170072E-5   9.954993866016101E-4  
 2.019400000000000E10   -2.545356794682987E-5   1.284579630009830E-3  
 2.019600000000000E10    3.126882750362756E-4   1.548359243854605E-3  
 2.019800000000000E10    8.498809758838221E-4   1.569953570314856E-3  
 2.020000000000000E10    1.341184809585505E-3   1.253069159977230E-3  
 2.020200000000000E10    1.529728885981496E-3   7.384593108450467E-4  
 2.020400000000000E10    1.456391350883577E-3   3.792333344240490E-4  
 2.020600000000000E10    1.396513105669048E-3   1.384820465722846E-4  
 2.020800000000000E10    1.272261324539827E-3  -6.277482999046043E-5  
 2.021000000000000E10    1.141002250800806E-3  -1.176303424326312E-4  
 2.021200000000000E10    1.205145552420966E-3  -7.034841684889007E-5  
 2.021400000000000E10    1.466363615264404E-3  -3.073844265690028E-4  
 2.021600000000000E10    1.422294510390472E-3  -7.829817114714075E-4  
 2.021800000000000E10    1.152570600862856E-3  -1.108467733389756E-3  
 2.022000000000000E10    8.077989662939937E-4  -1.302553112273691E-3  
 2.022200000000000E10    4.468201271568736E-4  -1.358473505307403E-3  
 2.022400000000000E10    8.998191171687926E-5  -1.277805921150211E-3  
 2.022600000000000E10   -1.424941393104094E-4  -1.000277620429794E-3  
 2.022800000000000E10   -8.323429246507815E-5  -7.595666181181134E-4  
 2.023000000000000E10    3.210015468842677E-6  -7.230478021270242E-4  
 2.023200000000000E10    8.117022868791988E-5  -7.262067987158160E-4  
 2.023400000000000E10    1.913354901688887E-4  -8.776684523054205E-4  
 2.023600000000000E10    1.080617911173721E-4  -1.229571075075203E-3  
 2.023800000000000E10   -3.357978114056298E-4  -1.443326888594455E-3  
 2.024000000000000E10   -8.005193466274644E-4  -1.282318365863628E-3  
 2.024200000000000E10   -1.001629763553034E-3  -9.690537692312107E-4  
 2.024400000000000E10   -1.080594734104787E-3  -7.423327863503846E-4  
 2.024600000000000E10   -1.081388174947121E-3  -4.863697021066379E-4  
 2.024800000000000E10   -8.986862936850500E-4  -4.242379656693911E-4  
 2.025000000000000E10   -9.404301232324891E-4  -6.792422072864197E-4  
 2.025200000000000E10   -1.448563169285563E-3  -7.742394989264417E-4  
 2.025400000000000E10   -1.991780147094418E-3  -3.514827062364346E-4  
 2.025600000000000E10   -2.188538730052519E-3   3.597386950989151E-4  
 2.025800000000000E10   -2.019030177091927E-3   1.090872544151398E-3  
 2.026000000000000E10   -1.500242473097679E-3   1.670068086780332E-3  
 2.026200000000000E10   -7.687938064739201E-4   1.869479953138917E-3  
 2.026400000000000E10   -2.052700967149936E-4   1.661348050276255E-3  
 2.026600000000000E10    7.319042727172968E-5   1.353237502000950E-3  
 2.026800000000000E10    1.298703804265788E-4   1.060757689022770E-3  
 2.027000000000000E10   -1.416446329928057E-6   9.574907994254230E-4  
 2.027200000000000E10   -7.864664614855964E-5   1.112214144445772E-3  
 2.027400000000000E10    1.390677115759227E-4   1.381015146358146E-3  
 2.027600000000000E10    5.585359607788701E-4   1.403032600833678E-3  
 2.027800000000000E10    8.937998180404123E-4   1.238079162395019E-3  
 2.028000000000000E10    1.207566230822309E-3   9.989159463410394E-4  
 2.028200000000000E10    1.422449535356812E-3   5.498453539962893E-4  
 2.028400000000000E10    1.307942536602050E-3   3.672893989808214E-5  
 2.028600000000000E10    9.332566879931149E-4  -1.819847388060787E-4  
 2.028800000000000E10    6.926943900862734E-4  -7.558054961537206E-5  
 2.029000000000000E10    7.184443191947119E-4   3.928119137925270E-5  
 2.029200000000000E10    8.078950894191678E-4   6.793630611220429E-6  
 2.029400000000000E10    8.915374659139801E-4  -4.494998871383297E-5  
 2.029600000000000E10    1.046073966498636E-3  -2.578762299733318E-4  
 2.029800000000000E10    9.288987084464344E-4  -6.423068303258424E-4  
 2.030000000000000E10    5.393373308542335E-4  -7.297712425632335E-4  
 2.030200000000000E10    3.805636743767717E-4  -5.199479281954054E-4  
 2.030400000000000E10    4.964719445985041E-4  -4.128124295406182E-4  
 2.030600000000000E10    6.213805596574130E-4  -5.062378687499505E-4  
 2.030800000000000E10    7.048595810228570E-4  -6.598626902286700E-4  
 2.031000000000000E10    7.868944803816210E-4  -9.726186859260464E-4  
 2.031200000000000E10    5.867991091275336E-4  -1.460339250272991E-3  
 2.031400000000000E10    1.225472222381254E-5  -1.805800073607653E-3  
 2.031600000000000E10   -7.272644613777507E-4  -1.743437834428969E-3  
 2.031800000000000E10   -1.313813908864963E-3  -1.261753629444650E-3  
 2.032000000000000E10   -1.529975498187137E-3  -5.338557012793091E-4  
 2.032200000000000E10   -1.241396519033537E-3   1.261828919841382E-4  
 2.032400000000000E10   -6.763750312125518E-4   3.409169703782363E-4  
 2.032600000000000E10   -2.958708531496311E-4   1.274878328039460E-4  
 2.032800000000000E10   -2.254606174742718E-4  -1.815327344013861E-4  
 2.033000000000000E10   -4.073173207601672E-4  -4.411249437346411E-4  
 2.033200000000000E10   -7.927510952059595E-4  -4.835151010882799E-4  
 2.033400000000000E10   -1.149369622178284E-3  -1.831704558068771E-4  
 2.033600000000000E10   -1.218429630058875E-3   1.877312985734647E-4  
 2.033800000000000E10   -9.591841271124138E-4   6.929312769415571E-4  
 2.034000000000000E10   -6.372449024189494E-4   8.652721715654121E-4  
 2.034200000000000E10   -2.962359863931290E-4   9.198346546057750E-4  
 2.034400000000000E10    3.196489221105971E-5   7.626263519611072E-4  
 2.034600000000000E10    8.246022704873739E-5   4.777753535934069E-4  
 2.034800000000000E10   -2.553114674451480E-5   4.190760689793317E-4  
 2.035000000000000E10    1.036068904256725E-5   4.763611934412226E-4  
 2.035200000000000E10    1.141856326419792E-4   4.684935916031217E-4  
 2.035400000000000E10    2.378326349167360E-4   3.550261558022028E-4  
 2.035600000000000E10    2.162661256101903E-4   1.819272176003267E-4  
 2.035800000000000E10    1.180008589191273E-4   8.441023291433571E-5  
 2.036000000000000E10   -4.202061151132788E-5   4.897962717672113E-5  
 2.036200000000000E10   -2.057867810592907E-4   1.543734645195030E-4  
 2.036400000000000E10   -2.917849250715571E-4   3.631411490021965E-4  
 2.036600000000000E10   -2.419514668513274E-4   6.876251603516947E-4  
 2.036800000000000E10    1.087599305265030E-4   9.803934127701748E-4  
 2.037000000000000E10    6.660262595597702E-4   9.714274618337737E-4  
 2.037200000000000E10    1.121354210305453E-3   5.772328650992778E-4  
 2.037400000000000E10    1.245489108295721E-3  -2.571544618946533E-6  
 2.037600000000000E10    1.049664920701841E-3  -5.376408452219847E-4  
 2.037800000000000E10    6.013875460700581E-4  -8.796986212585995E-4  
 2.038000000000000E10    5.071013961073569E-5  -8.860510316918847E-4  
 2.038200000000000E10   -3.608466612615616E-4  -5.393554492462657E-4  
 2.038400000000000E10   -3.631576275640529E-4  -5.483834046358821E-5  
 2.038600000000000E10   -1.723961121356682E-5   1.993043970512111E-4  
 2.038800000000000E10    3.418651291594646E-4   6.497961420128917E-5  
 2.039000000000000E10    4.798282026945625E-4  -2.941445653746481E-4  
 2.039200000000000E10    3.100240701539327E-4  -7.133638072344994E-4  
 2.039400000000000E10   -2.049014603224710E-4  -9.508118274863122E-4  
 2.039600000000000E10   -8.017827898988294E-4  -6.981185139056273E-4  
 2.039800000000000E10   -1.033611906071504E-3  -1.367200598951406E-4  
 2.040000000000000E10   -9.113291902237653E-4   3.691036559578123E-4  
 2.040200000000000E10   -5.943200775180703E-4   7.091720278064411E-4  
 2.040400000000000E10   -1.912147719714860E-4   8.108310205976906E-4  
 2.040600000000000E10    1.314356341026723E-4   6.886058455379106E-4  
 2.040800000000000E10    2.415870667728423E-4   5.143660988032037E-4  
 2.041000000000000E10    2.945903566504978E-4   4.740904209658182E-4  
 2.041200000000000E10    4.180020010989896E-4   3.911634497696616E-4  
 2.041400000000000E10    4.464076245548549E-4   3.191849790272062E-4  
 2.041600000000000E10    5.846500970181768E-4   3.529388175840363E-4  
 2.041800000000000E10    8.980635823796930E-4   1.949161607042719E-4  
 2.042000000000000E10    1.045086221298042E-3  -2.981712818893110E-4  
 2.042200000000000E10    7.404926187002364E-4  -7.799123068926512E-4  
 2.042400000000000E10    2.461863310869645E-4  -9.019469632479697E-4  
 2.042600000000000E10   -1.621038317813302E-4  -7.309894757287830E-4  
 2.042800000000000E10   -3.526807785318751E-4  -3.694688274674578E-4  
 2.043000000000000E10   -2.327764068692808E-4  -1.146481785618553E-5  
 2.043200000000000E10    1.055681957636190E-4   1.098750670078314E-4  
 2.043400000000000E10    4.002767213315554E-4  -8.392957273445294E-5  
 2.043600000000000E10    4.467172379300781E-4  -4.452636517889017E-4  
 2.043800000000000E10    2.264734429456753E-4  -7.700382424288511E-4  
 2.044000000000000E10   -2.258134584589704E-4  -8.719173004206869E-4  
 2.044200000000000E10   -6.601514918499708E-4  -5.711256468921531E-4  
 2.044400000000000E10   -7.033343728700722E-4  -2.510338176593727E-5  
 2.044600000000000E10   -2.958997624155916E-4   3.096563001393261E-4  
 2.044800000000000E10    1.784574309073643E-4   2.108216644562982E-4  
 2.045000000000000E10    4.172603442350886E-4  -1.885448763920225E-4  
 2.045200000000000E10    3.359928500068225E-4  -6.554918830788891E-4  
 2.045400000000000E10   -3.918277124520739E-5  -1.024627204363545E-3  
 2.045600000000000E10   -6.348760823724954E-4  -1.098892270633376E-3  
 2.045800000000000E10   -1.167836777268001E-3  -7.744196487625165E-4  
 2.046000000000000E10   -1.396435575939163E-3  -2.218629368279061E-4  
 2.046200000000000E10   -1.277149764154061E-3   2.972053749814492E-4  
 2.046400000000000E10   -9.618326719781317E-4   5.994345755661252E-4  
 2.046600000000000E10   -6.072962560323011E-4   6.517199037688567E-4  
 2.046800000000000E10   -4.476696997665353E-4   4.648376320184060E-4  
 2.047000000000000E10   -5.735914944383651E-4   3.557026819764338E-4  
 2.047200000000000E10   -7.734723485442871E-4   5.279893487085371E-4  
 2.047400000000000E10   -7.767697155222665E-4   8.767375860501221E-4  
 2.047600000000000E10   -5.523697735402549E-4   1.245712921782225E-3  
 2.047800000000000E10   -8.665472031915903E-5   1.487624499498418E-3  
 2.048000000000000E10    4.864946959172319E-4   1.395289938505969E-3  
 2.048200000000000E10    8.460620596407006E-4   9.906714391193273E-4  
 2.048400000000000E10    9.020469424510261E-4   5.937813684907685E-4  
 2.048600000000000E10    8.235576470600971E-4   2.798825725345344E-4  
 2.048800000000000E10    5.960544358571004E-4   7.960452902257268E-5  
 2.049000000000000E10    3.370986454638677E-4   1.285676131194550E-4  
 2.049200000000000E10    2.761896174001498E-4   3.634942357750311E-4  
 2.049400000000000E10    4.632670446162482E-4   5.093384483817643E-4  
 2.049600000000000E10    6.965710652164288E-4   5.158632187054917E-4  
 2.049800000000000E10    9.701791015327162E-4   3.443153758848052E-4  
 2.050000000000000E10    1.028967252357599E-3  -2.979203880970071E-5  
 2.050200000000000E10    8.119547158985596E-4  -2.562750429475542E-4  
 2.050400000000000E10    6.186873192128577E-4  -1.975835166601349E-4  
 2.050600000000000E10    6.714057490620534E-4  -6.017994719850658E-5  
 2.050800000000000E10    8.651532892448208E-4  -6.352738444233478E-5  
 2.051000000000000E10    1.094331755015401E-3  -2.330841880505848E-4  
 2.051200000000000E10    1.228870762178652E-3  -5.827248304863864E-4  
 2.051400000000000E10    1.200146524718514E-3  -1.017909879324797E-3  
 2.051600000000000E10    9.311522115711813E-4  -1.496435496611176E-3  
 2.051800000000000E10    3.811777393293372E-4  -1.774799989904335E-3  
 2.052000000000000E10   -2.141181518069331E-4  -1.713259080942306E-3  
 2.052200000000000E10   -6.055847150963491E-4  -1.355447267458119E-3  
 2.052400000000000E10   -6.431882789956384E-4  -9.855903860434524E-4  
 2.052600000000000E10   -5.018048370716933E-4  -8.607485459508077E-4  
 2.052800000000000E10   -4.438024720631219E-4  -9.880676739101794E-4  
 2.053000000000000E10   -6.113395168170059E-4  -1.199412633906360E-3  
 2.053200000000000E10   -1.044229449083408E-3  -1.320059378171501E-3  
 2.053400000000000E10   -1.587113313790825E-3  -1.109854588400067E-3  
 2.053600000000000E10   -1.991880267145641E-3  -6.087948808900690E-4  
 2.053800000000000E10   -2.131705310333658E-3   5.715186718454656E-5  
 2.054000000000000E10   -1.876288197106785E-3   7.384128489152150E-4  
 2.054200000000000E10   -1.361752416145195E-3   1.072190589857874E-3  
 2.054400000000000E10   -9.315479029383927E-4   1.101862554392421E-3  
 2.054600000000000E10   -6.847669572402713E-4   9.807473519977965E-4  
 2.054800000000000E10   -6.652772545176387E-4   8.974422285344776E-4  
 2.055000000000000E10   -6.817378273325755E-4   1.041766032605306E-3  
 2.055200000000000E10   -4.996487096147497E-4   1.266496115145676E-3  
 2.055400000000000E10   -1.601390429214793E-4   1.350413484751811E-3  
 2.055600000000000E10    1.287720581864433E-4   1.257904497676610E-3  
