#  HZ   S   RI   R     50.00 
! Rohde & Schwarz ZVA40 4Ports - Version 3.90 - 1145.1110k42 SN: 100403
! Date: 2023-10-03 10:56:22
! Measurement: S12 
! 
 2.000000000000000E10    8.274371191521978E-4   7.863304462909522E-5  
 2.000200000000000E10    4.794525941680550E-4  -1.640357359476798E-4  
 2.000400000000000E10    1.695691627654373E-5  -5.475053354837154E-5  
 2.000600000000000E10   -8.708923347145820E-5   4.699210323241958E-4  
 2.000800000000000E10    3.248722436924086E-4   8.068488251586512E-4  
 2.001000000000000E10    8.304896294963337E-4   7.127895529684708E-4  
 2.001200000000000E10    1.130929470173402E-3   3.358665639951389E-4  
 2.001400000000000E10    1.168332371665280E-3  -1.137618354781351E-4  
 2.001600000000000E10    9.519265916240652E-4  -4.935999194432220E-4  
 2.001800000000000E10    5.704923562845409E-4  -6.443256662713955E-4  
 2.002000000000000E10    2.456606843947374E-4  -4.573897584370212E-4  
 2.002200000000000E10    2.838120492292116E-4  -1.474221061183132E-4  
 2.002400000000000E10    5.914156735729074E-4  -9.712013946568266E-5  
 2.002600000000000E10    8.553193487828684E-4  -3.742284587979195E-4  
 2.002800000000000E10    8.371014312319766E-4  -8.495684361962963E-4  
 2.003000000000000E10    4.558996709423914E-4  -1.252389889509406E-3  
 2.003200000000000E10   -1.218577198575945E-4  -1.302692019706401E-3  
 2.003400000000000E10   -5.389451697936337E-4  -1.013184979523498E-3  
 2.003600000000000E10   -7.205267332363952E-4  -6.468342770458250E-4  
 2.003800000000000E10   -7.524599815592355E-4  -2.817731185259544E-4  
 2.004000000000000E10   -5.617629246328241E-4   9.866265260035732E-5  
 2.004200000000000E10   -1.274105204545238E-4   2.315342751472476E-4  
 2.004400000000000E10    2.484216046741869E-4  -4.475708121966586E-5  
 2.004600000000000E10    2.398958485745998E-4  -5.058765213997890E-4  
 2.004800000000000E10   -1.262525668106318E-4  -7.935145317956255E-4  
 2.005000000000000E10   -5.958502962006786E-4  -7.217717903125803E-4  
 2.005200000000000E10   -8.993606409345423E-4  -3.326867420586601E-4  
 2.005400000000000E10   -8.033235181782227E-4   1.819927816735792E-4  
 2.005600000000000E10   -3.510972414522168E-4   3.927289938852154E-4  
 2.005800000000000E10   -1.918005757123650E-5   1.913959110383742E-4  
 2.006000000000000E10    7.575743201500388E-5  -9.731008468694993E-5  
 2.006200000000000E10   -5.274872454132408E-5  -4.294343841733573E-4  
 2.006400000000000E10   -4.531792021277955E-4  -6.008765877247501E-4  
 2.006600000000000E10   -9.474320295975842E-4  -3.874569868049949E-4  
 2.006800000000000E10   -1.099118730053306E-3   1.566965398569103E-4  
 2.007000000000000E10   -8.679618215793937E-4   5.914636814790499E-4  
 2.007200000000000E10   -5.005742472341600E-4   7.894371416795340E-4  
 2.007400000000000E10   -1.176142298394657E-4   7.087212135448072E-4  
 2.007600000000000E10    3.552249469710494E-5   4.272962356975050E-4  
 2.007800000000000E10   -1.009880373955785E-4   2.211693688338899E-4  
 2.008000000000000E10   -3.037175747335131E-4   2.966006040317295E-4  
 2.008200000000000E10   -3.105022767940757E-4   5.370431194951905E-4  
 2.008400000000000E10   -1.068622892609426E-4   7.042663726177635E-4  
 2.008600000000000E10    1.486482356740603E-4   6.800430930802147E-4  
 2.008800000000000E10    3.304244344862401E-4   5.485877504144938E-4  
 2.009000000000000E10    4.539491972596665E-4   3.250026707794377E-4  
 2.009200000000000E10    3.649332405378422E-4   3.941365160285626E-5  
 2.009400000000000E10    8.772692782996002E-5  -8.045647877441919E-5  
 2.009600000000000E10   -1.982546896308924E-4   3.556087874201864E-5  
 2.009800000000000E10   -3.333199952983915E-4   3.704748384955382E-4  
 2.010000000000000E10   -1.447960935010136E-4   7.612592329409112E-4  
 2.010200000000000E10    2.968355033828383E-4   9.207671319916386E-4  
 2.010400000000000E10    7.403569282588278E-4   7.129652155448258E-4  
 2.010600000000000E10    8.944826475593720E-4   3.048502316711847E-4  
 2.010800000000000E10    7.928370360626147E-4  -1.374673907203368E-5  
 2.011000000000000E10    5.872197683475177E-4  -1.933144566213996E-4  
 2.011200000000000E10    3.241162944523764E-4  -1.800989303613319E-4  
 2.011400000000000E10    2.153794358555350E-4   8.330954826358373E-5  
 2.011600000000000E10    4.906747587180387E-4   3.228108862720607E-4  
 2.011800000000000E10    9.390663045627132E-4   1.277511975520446E-4  
 2.012000000000000E10    9.976007260378344E-4  -3.812598999217920E-4  
 2.012200000000000E10    7.282413387529308E-4  -7.024059573249746E-4  
 2.012400000000000E10    4.310029996712329E-4  -8.133150710927424E-4  
 2.012600000000000E10    1.546275278147590E-4  -7.895934539214698E-4  
 2.012800000000000E10   -2.765734714729933E-5  -6.457765234793335E-4  
 2.013000000000000E10   -6.901546281002728E-5  -4.873112031620825E-4  
 2.013200000000000E10   -2.910312713662100E-5  -3.946779956686629E-4  
 2.013400000000000E10    5.929900399068374E-5  -3.948838372404377E-4  
 2.013600000000000E10    8.800755816161128E-5  -5.226722504529689E-4  
 2.013800000000000E10   -2.497858043885580E-5  -6.737498587587612E-4  
 2.014000000000000E10   -2.819089119086894E-4  -7.264526594916950E-4  
 2.014200000000000E10   -5.514245820921605E-4  -5.463847750127164E-4  
 2.014400000000000E10   -6.063822623334611E-4  -2.357478532844334E-4  
 2.014600000000000E10   -4.578011583272415E-4   2.216623144532345E-6  
 2.014800000000000E10   -2.172480228571643E-4   7.463497391886582E-5  
 2.015000000000000E10    2.694808760750847E-5  -3.881241969164551E-5  
 2.015200000000000E10    1.314314342807062E-4  -3.510807012543159E-4  
 2.015400000000000E10   -1.115302704734567E-4  -6.975600248731582E-4  
 2.015600000000000E10   -5.384796323473164E-4  -7.055986829776578E-4  
 2.015800000000000E10   -8.125229733382878E-4  -4.960353112082025E-4  
 2.016000000000000E10   -9.757268123727278E-4  -2.321033109647295E-4  
 2.016200000000000E10   -1.032776919331540E-3   9.238316286225908E-5  
 2.016400000000000E10   -8.817726811834847E-4   4.368437664418524E-4  
 2.016600000000000E10   -5.844400569493787E-4   5.572069845442113E-4  
 2.016800000000000E10   -4.080817146023636E-4   5.097289484879578E-4  
 2.017000000000000E10   -3.353972485003449E-4   4.602489086805073E-4  
 2.017200000000000E10   -2.903086094975227E-4   4.556264786754924E-4  
 2.017400000000000E10   -2.283412000090613E-4   4.263739189019987E-4  
 2.017600000000000E10   -2.747567810325159E-4   3.742198760423871E-4  
 2.017800000000000E10   -3.510457924672560E-4   5.239472904629669E-4  
 2.018000000000000E10   -1.749426678374962E-4   6.839740911686464E-4  
 2.018200000000000E10    1.789964141454449E-6   6.243577512046285E-4  
 2.018400000000000E10    5.091220244536283E-5   5.724686691384196E-4  
 2.018600000000000E10    1.210250004317799E-4   5.482683222215823E-4  
 2.018800000000000E10    1.635521742177039E-4   4.675337408071408E-4  
 2.019000000000000E10    9.450519146898825E-5   4.369283212136110E-4  
 2.019200000000000E10    7.622521559884121E-5   5.467224479537964E-4  
 2.019400000000000E10    2.018042687717596E-4   6.826524687413541E-4  
 2.019600000000000E10    4.481796518738532E-4   7.196872987604314E-4  
 2.019800000000000E10    7.168010793197058E-4   5.623228692760071E-4  
 2.020000000000000E10    8.142513616792399E-4   2.432815517862270E-4  
 2.020200000000000E10    6.555437276603601E-4  -1.668283670212222E-5  
 2.020400000000000E10    4.207460056902236E-4  -2.404345643089570E-5  
 2.020600000000000E10    3.632134381861814E-4   1.263548225257115E-4  
 2.020800000000000E10    4.546794052994639E-4   2.273994514962022E-4  
 2.021000000000000E10    6.415077946014673E-4   2.364012067313517E-4  
 2.021200000000000E10    8.417151086492305E-4   8.986071052164828E-5  
 2.021400000000000E10    9.024498771987243E-4  -2.017500636061470E-4  
 2.021600000000000E10    7.809972768522983E-4  -4.660696183607259E-4  
 2.021800000000000E10    5.420700448360142E-4  -6.196993633571998E-4  
 2.022000000000000E10    2.738287741986176E-4  -5.597236837881308E-4  
 2.022200000000000E10    2.009786281191194E-4  -3.303707683403352E-4  
 2.022400000000000E10    3.848259589719154E-4  -2.023724950528731E-4  
 2.022600000000000E10    6.067711934677246E-4  -3.092463631657195E-4  
 2.022800000000000E10    7.046884679860234E-4  -6.102592269449262E-4  
 2.023000000000000E10    5.535960715808313E-4  -9.263439080965373E-4  
 2.023200000000000E10    3.048036934485958E-4  -1.100169662903581E-3  
 2.023400000000000E10    6.390576412808565E-6  -1.207112912912642E-3  
 2.023600000000000E10   -3.760830745237033E-4  -1.147142015474201E-3  
 2.023800000000000E10   -6.001713221467297E-4  -8.631657124899421E-4  
 2.024000000000000E10   -5.986120895800707E-4  -6.056112580292634E-4  
 2.024200000000000E10   -4.751498809988792E-4  -5.240631704180361E-4  
 2.024400000000000E10   -4.644986361106130E-4  -5.935201135851107E-4  
 2.024600000000000E10   -5.179351038077211E-4  -6.412751512762942E-4  
 2.024800000000000E10   -6.614283770188659E-4  -7.747518892281157E-4  
 2.025000000000000E10   -1.058842802378100E-3  -8.011734356946571E-4  
 2.025200000000000E10   -1.483603028500062E-3  -4.740361239973824E-4  
 2.025400000000000E10   -1.642742988063261E-3   1.052843097253864E-4  
 2.025600000000000E10   -1.439118954264885E-3   6.472172676451474E-4  
 2.025800000000000E10   -1.050642875517592E-3   9.689922329544287E-4  
 2.026000000000000E10   -5.996314846573269E-4   1.053588800688002E-3  
 2.026200000000000E10   -2.676762893697517E-4   8.917952046457511E-4  
 2.026400000000000E10   -1.545963142260741E-4   6.748820054287345E-4  
 2.026600000000000E10   -1.921191204677853E-4   5.370708257429410E-4  
 2.026800000000000E10   -2.996182263687008E-4   5.283148337918269E-4  
 2.027000000000000E10   -3.420018070351540E-4   6.747207437390885E-4  
 2.027200000000000E10   -2.318907719787686E-4   8.435207991592526E-4  
 2.027400000000000E10   -1.381101739955031E-5   9.137305851217069E-4  
 2.027600000000000E10    1.691020229017389E-4   8.408962693851090E-4  
 2.027800000000000E10    2.518259208034265E-4   7.803256876398753E-4  
 2.028000000000000E10    3.665456858055414E-4   7.599557734596632E-4  
 2.028200000000000E10    4.693775705096348E-4   6.704109971442188E-4  
 2.028400000000000E10    5.394491069296705E-4   6.236761066786670E-4  
 2.028600000000000E10    6.724998719967259E-4   5.733161803465261E-4  
 2.028800000000000E10    8.086379693625611E-4   4.432492699270968E-4  
 2.029000000000000E10    9.264523676527597E-4   2.490104581641394E-4  
 2.029200000000000E10    9.436606991951789E-4  -4.996984489293247E-5  
 2.029400000000000E10    7.707689169683177E-4  -2.959356204905536E-4  
 2.029600000000000E10    5.234674126132097E-4  -4.233855110020167E-4  
 2.029800000000000E10    2.228422459898087E-4  -3.482151975128954E-4  
 2.030000000000000E10    8.705463546959189E-5  -6.336286689241959E-5  
 2.030200000000000E10    2.535910906371711E-4   2.427638794387473E-4  
 2.030400000000000E10    6.582928167985669E-4   3.395953029412490E-4  
 2.030600000000000E10    1.103457229675672E-3   7.479832483386795E-5  
 2.030800000000000E10    1.301666373413808E-3  -5.233449851346697E-4  
 2.031000000000000E10    1.024983256553212E-3  -1.183964488376316E-3  
 2.031200000000000E10    3.811859302011937E-4  -1.506564845982556E-3  
 2.031400000000000E10   -2.519099957811735E-4  -1.408725203716277E-3  
 2.031600000000000E10   -7.087755795001003E-4  -1.041020425764744E-3  
 2.031800000000000E10   -8.764038745835119E-4  -5.140974988333054E-4  
 2.032000000000000E10   -6.975134208974709E-4  -2.202407607603665E-5  
 2.032200000000000E10   -2.621811721905100E-4   1.478354528212418E-4  
 2.032400000000000E10    3.922286291414408E-5  -4.965794890308891E-5  
 2.032600000000000E10    4.527933906352147E-5  -3.178083677867183E-4  
 2.032800000000000E10   -1.139794251164843E-4  -4.388460262588499E-4  
 2.033000000000000E10   -2.898110546039441E-4  -4.137563888067879E-4  
 2.033200000000000E10   -3.564469747431194E-4  -2.791644327333888E-4  
 2.033400000000000E10   -2.804102262083457E-4  -2.111306699896385E-4  
 2.033600000000000E10   -2.065052029460194E-4  -3.136942894178838E-4  
 2.033800000000000E10   -3.462144507357752E-4  -4.179136125263548E-4  
 2.034000000000000E10   -5.965429521549050E-4  -3.993614498188590E-4  
 2.034200000000000E10   -7.605706315215510E-4  -1.711823628164268E-4  
 2.034400000000000E10   -7.772236198202206E-4   4.004982831038022E-5  
 2.034600000000000E10   -7.448032782930469E-4   2.612057390480031E-4  
 2.034800000000000E10   -5.622557029051423E-4   4.693747219273155E-4  
 2.035000000000000E10   -2.933319696606570E-4   5.028521929055054E-4  
 2.035200000000000E10   -1.108266071256786E-4   3.478052087392613E-4  
 2.035400000000000E10   -1.403628050495711E-4   1.352829992801810E-4  
 2.035600000000000E10   -3.333392189173680E-4   7.038771444567530E-5  
 2.035800000000000E10   -5.272348701700937E-4   1.857885228988088E-4  
 2.036000000000000E10   -6.076584272124947E-4   4.732315555509994E-4  
 2.036200000000000E10   -4.314456224621662E-4   7.701473025060854E-4  
 2.036400000000000E10   -1.454384159000323E-4   8.891803021312773E-4  
 2.036600000000000E10    1.404234856714920E-4   8.797624307481473E-4  
 2.036800000000000E10    4.089235220585449E-4   7.460676593545045E-4  
 2.037000000000000E10    5.663416861966560E-4   4.596776533067043E-4  
 2.037200000000000E10    4.886960137181306E-4   1.750525785729849E-4  
 2.037400000000000E10    2.853012567222188E-4   7.225421576261513E-5  
 2.037600000000000E10    1.519630316545738E-4   1.436015114569898E-4  
 2.037800000000000E10    1.273750357589505E-4   2.429502865983702E-4  
 2.038000000000000E10    1.769903525657408E-4   3.423758068564157E-4  
 2.038200000000000E10    3.117366710442038E-4   4.220262424706065E-4  
 2.038400000000000E10    5.123665979814261E-4   3.893718417109194E-4  
 2.038600000000000E10    6.805812360799331E-4   2.307914743710640E-4  
 2.038800000000000E10    7.610267620828817E-4  -2.346210686359152E-5  
 2.039000000000000E10    6.666255620434697E-4  -3.056495105263245E-4  
 2.039200000000000E10    4.128792137290839E-4  -4.665409782498984E-4  
 2.039400000000000E10    1.569909896597293E-4  -3.937250803274566E-4  
 2.039600000000000E10    1.051438821265532E-4  -2.067883945944041E-4  
 2.039800000000000E10    2.519393146565997E-4  -1.434631900906892E-4  
 2.040000000000000E10    3.305300651022345E-4  -3.410468237125914E-4  
 2.040200000000000E10    1.443777064832456E-4  -5.403112626343261E-4  
 2.040400000000000E10   -1.537121017703043E-4  -5.310669823055283E-4  
 2.040600000000000E10   -4.159361211469957E-4  -3.291235654854404E-4  
 2.040800000000000E10   -5.126936251485391E-4   6.950309369789719E-5  
 2.041000000000000E10   -2.462099679784539E-4   4.626480237783964E-4  
 2.041200000000000E10    2.096259855466930E-4   5.341776962384367E-4  
 2.041400000000000E10    5.645474685842763E-4   3.288208966225112E-4  
 2.041600000000000E10    7.509585271623953E-4  -1.637135465962237E-5  
 2.041800000000000E10    7.174822083605385E-4  -4.372840725439276E-4  
 2.042000000000000E10    4.141690911832476E-4  -7.319473350083326E-4  
 2.042200000000000E10    5.754165122273029E-5  -7.546979700667409E-4  
 2.042400000000000E10   -1.852462688033851E-4  -6.291304512328849E-4  
 2.042600000000000E10   -3.355704568932025E-4  -4.427792794749509E-4  
 2.042800000000000E10   -3.261815221432153E-4  -1.929786898015612E-4  
 2.043000000000000E10   -1.195936227626507E-4  -7.308805335040966E-5  
 2.043200000000000E10    5.771536800441231E-5  -2.038367231541272E-4  
 2.043400000000000E10    1.273117878655386E-5  -4.248616353650827E-4  
 2.043600000000000E10   -1.821984199976162E-4  -5.054240447465224E-4  
 2.043800000000000E10   -3.397445414318807E-4  -4.901094905890280E-4  
 2.044000000000000E10   -5.398886920232710E-4  -4.313022995112779E-4  
 2.044200000000000E10   -6.948170508928751E-4  -1.916117356431866E-4  
 2.044400000000000E10   -6.433339174376962E-4   9.270685171222683E-5  
 2.044600000000000E10   -4.350811831361841E-4   2.445843421787966E-4  
 2.044800000000000E10   -2.368158733169453E-4   2.248735393179771E-4  
 2.045000000000000E10   -1.156319289622970E-4   1.122177196865415E-4  
 2.045200000000000E10   -1.042174011627701E-4  -8.546586133230196E-5  
 2.045400000000000E10   -3.374779773344298E-4  -2.450681496744520E-4  
 2.045600000000000E10   -6.490657285695184E-4  -7.326388123771944E-5  
 2.045800000000000E10   -6.541847768757079E-4   2.684653294703889E-4  
 2.046000000000000E10   -4.534136000067312E-4   4.498235509566074E-4  
 2.046200000000000E10   -2.576156480413543E-4   4.435851525634130E-4  
 2.046400000000000E10   -1.837855123482054E-4   3.542653958666725E-4  
 2.046600000000000E10   -1.979382199830752E-4   3.111998893372301E-4  
 2.046800000000000E10   -2.503337762788046E-4   3.018268052758765E-4  
 2.047000000000000E10   -3.398682086377831E-4   3.888666226888850E-4  
 2.047200000000000E10   -3.309175785326250E-4   5.840230706807058E-4  
 2.047400000000000E10   -2.005597030697367E-4   7.480932948171879E-4  
 2.047600000000000E10    1.911644388130126E-5   8.572398980987478E-4  
 2.047800000000000E10    3.022984580597707E-4   8.231432089934687E-4  
 2.048000000000000E10    4.811592581164506E-4   6.229413906591391E-4  
 2.048200000000000E10    4.630088542660876E-4   4.493894868476677E-4  
 2.048400000000000E10    4.275004249382305E-4   4.538570996852968E-4  
 2.048600000000000E10    5.515660370083013E-4   4.918451129684970E-4  
 2.048800000000000E10    7.312769487542350E-4   3.672261800714712E-4  
 2.049000000000000E10    8.074205609253100E-4   1.481608943685549E-4  
 2.049200000000000E10    7.641003160534329E-4  -6.718368341454255E-5  
 2.049400000000000E10    6.429470978282515E-4  -2.361025796329350E-4  
 2.049600000000000E10    4.603491980848843E-4  -2.881908680167655E-4  
 2.049800000000000E10    3.289451350509707E-4  -2.434892786394637E-4  
 2.050000000000000E10    2.485766890458763E-4  -1.460129157146593E-4  
 2.050200000000000E10    2.700798394332867E-4   1.742961194769598E-5  
 2.050400000000000E10    4.694882096193824E-4   1.442764339338099E-4  
 2.050600000000000E10    7.766798366658361E-4   5.459726571830980E-5  
 2.050800000000000E10    9.742952368716584E-4  -2.419550218303217E-4  
 2.051000000000000E10    1.000515957566078E-3  -6.257880732049178E-4  
 2.051200000000000E10    8.547451043378855E-4  -1.043634563435345E-3  
 2.051400000000000E10    4.597307267165724E-4  -1.388099574897852E-3  
 2.051600000000000E10   -1.160795803906069E-4  -1.443023995569152E-3  
 2.051800000000000E10   -5.665412589470730E-4  -1.168879733512891E-3  
 2.052000000000000E10   -7.742291585630413E-4  -7.802253232601985E-4  
 2.052200000000000E10   -7.398098658333407E-4  -3.806543489774391E-4  
 2.052400000000000E10   -4.507409202207049E-4  -1.675662333806862E-4  
 2.052600000000000E10   -2.094767167311499E-4  -2.908065592689984E-4  
 2.052800000000000E10   -2.353795910198548E-4  -5.198421179261366E-4  
 2.053000000000000E10   -4.299236868734284E-4  -6.490158321481553E-4  
 2.053200000000000E10   -7.159646591861493E-4  -6.294316775548760E-4  
 2.053400000000000E10   -9.506816581493329E-4  -4.187034512007679E-4  
 2.053600000000000E10   -1.034428743998149E-3  -1.088922402647577E-4  
 2.053800000000000E10   -9.393419001113487E-4   1.799308008863112E-4  
 2.054000000000000E10   -7.014580829348800E-4   3.003464593003991E-4  
 2.054200000000000E10   -6.030755991369120E-4   2.034707029025289E-4  
 2.054400000000000E10   -6.980537135085023E-4   1.961181434077391E-4  
 2.054600000000000E10   -7.691907134949550E-4   3.281653832491879E-4  
 2.054800000000000E10   -7.820701611768686E-4   5.191501104004621E-4  
 2.055000000000000E10   -6.928847584808284E-4   7.583382424473028E-4  
 2.055200000000000E10   -4.433292896513648E-4   9.647815882557920E-4  
 2.055400000000000E10   -8.311189588690138E-5   9.610370125376273E-4  
 2.055600000000000E10    1.405701726898283E-4   7.236707580003719E-4  
