#  HZ   S   RI   R     50.00 
! Rohde & Schwarz ZVA40 4Ports - Version 3.90 - 1145.1110k42 SN: 100403
! Date: 2023-09-30 05:05:09
! Measurement: S22 
! 
 2.000000000000000E10    2.589924453654507E-2  -7.856584111059101E-2  
 2.000200000000000E10    1.845020803440782E-2  -7.879780008628082E-2  
 2.000400000000000E10    1.077352019844214E-2  -7.842632369026872E-2  
 2.000600000000000E10    3.578497246119288E-3  -7.658539310658674E-2  
 2.000800000000000E10   -3.311834034298881E-3  -7.408356478284763E-2  
 2.001000000000000E10   -9.594671838008230E-3  -7.059381624680616E-2  
 2.001200000000000E10   -1.527757806675911E-2  -6.656371700570200E-2  
 2.001400000000000E10   -2.058942063863894E-2  -6.194933924033065E-2  
 2.001600000000000E10   -2.542352193199704E-2  -5.649402788434974E-2  
 2.001800000000000E10   -2.934057557053445E-2  -5.026367000101036E-2  
 2.002000000000000E10   -3.227094941737176E-2  -4.374036837623008E-2  
 2.002200000000000E10   -3.418506829034282E-2  -3.564413295338529E-2  
 2.002400000000000E10   -3.485603406945847E-2  -2.867888750199265E-2  
 2.002600000000000E10   -3.429377679451177E-2  -2.202415571634208E-2  
 2.002800000000000E10   -3.281680304109097E-2  -1.591086931438086E-2  
 2.003000000000000E10   -3.090521455835396E-2  -1.037683455374860E-2  
 2.003200000000000E10   -2.856666453590373E-2  -5.268051746521231E-3  
 2.003400000000000E10   -2.602230600196221E-2  -1.925645000867321E-4  
 2.003600000000000E10   -2.278296269119840E-2   4.757989973929635E-3  
 2.003800000000000E10   -1.897665364714617E-2   9.399517528023451E-3  
 2.004000000000000E10   -1.421576563136605E-2   1.348991999199656E-2  
 2.004200000000000E10   -9.312676518503676E-3   1.692838386590344E-2  
 2.004400000000000E10   -3.859795352540294E-3   2.001132916604041E-2  
 2.004600000000000E10    2.224469240292092E-3   2.242075413410992E-2  
 2.004800000000000E10    8.864535213128867E-3   2.357037210173541E-2  
 2.005000000000000E10    1.530775681508240E-2   2.362297688175213E-2  
 2.005200000000000E10    2.143644127098231E-2   2.256670052909875E-2  
 2.005400000000000E10    2.692700679047890E-2   2.075513549497662E-2  
 2.005600000000000E10    3.201659511212096E-2   1.840704542139994E-2  
 2.005800000000000E10    3.654929000195562E-2   1.599558802698285E-2  
 2.006000000000000E10    4.112414866311125E-2   1.333253348373687E-2  
 2.006200000000000E10    4.582013679173477E-2   9.963150119280929E-3  
 2.006400000000000E10    5.011401326372719E-2   5.917213190371941E-3  
 2.006600000000000E10    5.384696424041485E-2   1.016655187101942E-3  
 2.006800000000000E10    5.663915894978967E-2  -4.726477518164995E-3  
 2.007000000000000E10    5.845330139337344E-2  -1.084917423983497E-2  
 2.007200000000000E10    5.905974714428692E-2  -1.703166407617450E-2  
 2.007400000000000E10    5.851574832392692E-2  -2.322906601848699E-2  
 2.007600000000000E10    5.708785030370242E-2  -2.825069516009174E-2  
 2.007800000000000E10    5.563144708150791E-2  -3.275723145663458E-2  
 2.008000000000000E10    5.414671307372042E-2  -3.696324063683316E-2  
 2.008200000000000E10    5.284582869903634E-2  -4.139710446364578E-2  
 2.008400000000000E10    5.096971130629100E-2  -4.610203886357792E-2  
 2.008600000000000E10    4.816827676296598E-2  -5.161407438993020E-2  
 2.008800000000000E10    4.390028756264597E-2  -5.679500296387145E-2  
 2.009000000000000E10    3.827763561342770E-2  -6.119526621942804E-2  
 2.009200000000000E10    3.195344665052415E-2  -6.394616890891154E-2  
 2.009400000000000E10    2.548650315610843E-2  -6.549266574859185E-2  
 2.009600000000000E10    1.946083818189147E-2  -6.566529400672806E-2  
 2.009800000000000E10    1.395836887851919E-2  -6.535395182813383E-2  
 2.010000000000000E10    8.701374044000532E-3  -6.449401378631592E-2  
 2.010200000000000E10    3.682200873021938E-3  -6.354969691992207E-2  
 2.010400000000000E10   -1.479863120848221E-3  -6.233894283534224E-2  
 2.010600000000000E10   -6.807179417122754E-3  -6.052182572105277E-2  
 2.010800000000000E10   -1.223231652418555E-2  -5.813267175888911E-2  
 2.011000000000000E10   -1.778215927001890E-2  -5.457810194919593E-2  
 2.011200000000000E10   -2.262217877922426E-2  -4.970614306118827E-2  
 2.011400000000000E10   -2.646154045917842E-2  -4.403859108738685E-2  
 2.011600000000000E10   -2.920492765767794E-2  -3.760667345001829E-2  
 2.011800000000000E10   -3.049727421349877E-2  -3.114694677323962E-2  
 2.012000000000000E10   -3.075069981966281E-2  -2.512126287504761E-2  
 2.012200000000000E10   -3.025156267287119E-2  -1.966730338893065E-2  
 2.012400000000000E10   -2.946249560637957E-2  -1.474669846613684E-2  
 2.012600000000000E10   -2.867829803967328E-2  -1.007590475785303E-2  
 2.012800000000000E10   -2.771428835843281E-2  -4.996843705306674E-3  
 2.013000000000000E10   -2.589558463670272E-2   5.459430672380505E-4  
 2.013200000000000E10   -2.278158310565157E-2   5.890022680453528E-3  
 2.013400000000000E10   -1.902681948738325E-2   1.044785892802383E-2  
 2.013600000000000E10   -1.452220252842379E-2   1.451474043582248E-2  
 2.013800000000000E10   -9.371791486616290E-3   1.751536032591783E-2  
 2.014000000000000E10   -3.948317125701965E-3   1.945215697512270E-2  
 2.014200000000000E10    1.136115755354385E-3   2.046616978612893E-2  
 2.014400000000000E10    6.288282495080595E-3   2.075519815832263E-2  
 2.014600000000000E10    1.117562764985585E-2   2.031812413611657E-2  
 2.014800000000000E10    1.560762775469969E-2   1.940156964307251E-2  
 2.015000000000000E10    1.955615856364367E-2   1.834332646233991E-2  
 2.015200000000000E10    2.376205238504138E-2   1.685896602094019E-2  
 2.015400000000000E10    2.756324604197922E-2   1.500108619963654E-2  
 2.015600000000000E10    3.155327253265092E-2   1.245238079075233E-2  
 2.015800000000000E10    3.519855843761258E-2   8.918455282799394E-3  
 2.016000000000000E10    3.786551100388567E-2   4.512095479446543E-3  
 2.016200000000000E10    3.932176831859294E-2  -5.445365804720105E-5  
 2.016400000000000E10    3.999982887532377E-2  -4.509589500410713E-3  
 2.016600000000000E10    3.981631058694804E-2  -8.714589439082657E-3  
 2.016800000000000E10    3.892669355988758E-2  -1.267074280718109E-2  
 2.017000000000000E10    3.746432719436784E-2  -1.596455859363016E-2  
 2.017200000000000E10    3.587319096699392E-2  -1.902270037553111E-2  
 2.017400000000000E10    3.379843944893471E-2  -2.194981955075851E-2  
 2.017600000000000E10    3.135112830266105E-2  -2.430382434797122E-2  
 2.017800000000000E10    2.875698165650949E-2  -2.635709193518542E-2  
 2.018000000000000E10    2.598145587781166E-2  -2.806722912344060E-2  
 2.018200000000000E10    2.274575856532871E-2  -2.942502127375214E-2  
 2.018400000000000E10    1.908187922064741E-2  -2.998379194526171E-2  
 2.018600000000000E10    1.554564851373230E-2  -2.998033509219389E-2  
 2.018800000000000E10    1.178684987149357E-2  -2.939092446498447E-2  
 2.019000000000000E10    8.165927085161865E-3  -2.773750220201007E-2  
 2.019200000000000E10    5.360820371915389E-3  -2.550670628064999E-2  
 2.019400000000000E10    3.032159121277547E-3  -2.329276408702067E-2  
 2.019600000000000E10    1.105436217824088E-3  -2.082270565102775E-2  
 2.019800000000000E10   -7.473984512583081E-4  -1.827390586556758E-2  
 2.020000000000000E10   -2.690451964338530E-3  -1.520711105036388E-2  
 2.020200000000000E10   -4.238915516410209E-3  -1.124951178203735E-2  
 2.020400000000000E10   -4.621095824140685E-3  -6.794050410761806E-3  
 2.020600000000000E10   -4.113479675175764E-3  -2.400602615893914E-3  
 2.020800000000000E10   -2.740336092804442E-3   1.696603061613437E-3  
 2.021000000000000E10   -7.702106094366684E-4   5.475364753633234E-3  
 2.021200000000000E10    2.076362576337088E-3   8.902311298528918E-3  
 2.021400000000000E10    5.376520201054526E-3   1.153586915912920E-2  
 2.021600000000000E10    8.837319295464441E-3   1.355209379989102E-2  
 2.021800000000000E10    1.230525898860279E-2   1.523701950306983E-2  
 2.022000000000000E10    1.593114290516463E-2   1.644194989543675E-2  
 2.022200000000000E10    1.961688313055758E-2   1.742813896772212E-2  
 2.022400000000000E10    2.365123548892291E-2   1.800816129558635E-2  
 2.022600000000000E10    2.787128547364084E-2   1.810989117358011E-2  
 2.022800000000000E10    3.271562283930483E-2   1.760576937856961E-2  
 2.023000000000000E10    3.777381494832083E-2   1.591882704405265E-2  
 2.023200000000000E10    4.233585004512357E-2   1.290098443454749E-2  
 2.023400000000000E10    4.590715952881898E-2   9.191948902177033E-3  
 2.023600000000000E10    4.854991329520729E-2   5.354837930226559E-3  
 2.023800000000000E10    5.068951730985883E-2   1.339559972282960E-3  
 2.024000000000000E10    5.228500228475698E-2  -2.576633447145562E-3  
 2.024200000000000E10    5.367703559755771E-2  -6.667767793256401E-3  
 2.024400000000000E10    5.490845462429127E-2  -1.110508983009128E-2  
 2.024600000000000E10    5.587089424443271E-2  -1.621352733226289E-2  
 2.024800000000000E10    5.593673569289237E-2  -2.171254825034923E-2  
 2.025000000000000E10    5.504434205156750E-2  -2.752313911920504E-2  
 2.025200000000000E10    5.304066985595738E-2  -3.347863509485661E-2  
 2.025400000000000E10    4.940826659194583E-2  -3.928603461181731E-2  
 2.025600000000000E10    4.448585057620631E-2  -4.392110960064929E-2  
 2.025800000000000E10    3.888138240770203E-2  -4.726526900135677E-2  
 2.026000000000000E10    3.326392035623038E-2  -4.955525853669857E-2  
 2.026200000000000E10    2.795820108435582E-2  -5.099923218614789E-2  
 2.026400000000000E10    2.277971489698200E-2  -5.198476570074270E-2  
 2.026600000000000E10    1.762393264889472E-2  -5.257757813263061E-2  
 2.026800000000000E10    1.219817874914825E-2  -5.298445359351633E-2  
 2.027000000000000E10    6.178263248286653E-3  -5.283563044515531E-2  
 2.027200000000000E10   -3.298610282349708E-4  -5.169679243568967E-2  
 2.027400000000000E10   -7.089889546930950E-3  -4.929314802033549E-2  
 2.027600000000000E10   -1.366113588092413E-2  -4.545719209406057E-2  
 2.027800000000000E10   -1.908127332838402E-2  -4.034461450377374E-2  
 2.028000000000000E10   -2.351225502312075E-2  -3.443870113898825E-2  
 2.028200000000000E10   -2.666545702995342E-2  -2.788120739115410E-2  
 2.028400000000000E10   -2.854862634953912E-2  -2.137295868417518E-2  
 2.028600000000000E10   -2.969962036791571E-2  -1.498726360125684E-2  
 2.028800000000000E10   -3.026487732485262E-2  -8.665215943563396E-3  
 2.029000000000000E10   -3.026076592306251E-2  -2.435213791628350E-3  
 2.029200000000000E10   -3.018071980472110E-2   3.683460345494606E-3  
 2.029400000000000E10   -2.948040237306477E-2   1.040731609362193E-2  
 2.029600000000000E10   -2.767053185233237E-2   1.773058502902083E-2  
 2.029800000000000E10   -2.420648977426181E-2   2.506756213546309E-2  
 2.030000000000000E10   -1.919206296220238E-2   3.180841545307080E-2  
 2.030200000000000E10   -1.288781345266474E-2   3.744290096776422E-2  
 2.030400000000000E10   -5.908064327942715E-3   4.178785272209479E-2  
 2.030600000000000E10    1.460460646346557E-3   4.495898088546193E-2  
 2.030800000000000E10    9.042097496473788E-3   4.681421456936021E-2  
 2.031000000000000E10    1.648569986794239E-2   4.743031821514736E-2  
 2.031200000000000E10    2.359241570024261E-2   4.703837904197344E-2  
 2.031400000000000E10    3.025536335728787E-2   4.620440706560715E-2  
 2.031600000000000E10    3.685922495086207E-2   4.521670552290553E-2  
 2.031800000000000E10    4.345282391304197E-2   4.327604541010818E-2  
 2.032000000000000E10    5.014370826300535E-2   4.037876679500853E-2  
 2.032200000000000E10    5.661474209863082E-2   3.623362572179792E-2  
 2.032400000000000E10    6.255533514753600E-2   3.105991394817603E-2  
 2.032600000000000E10    6.772915528843887E-2   2.481516138187016E-2  
 2.032800000000000E10    7.158506879686058E-2   1.772903075824695E-2  
 2.033000000000000E10    7.414458213197153E-2   1.041136984496905E-2  
 2.033200000000000E10    7.568899950563610E-2   3.155002136333058E-3  
 2.033400000000000E10    7.634830478714511E-2  -3.926060036363612E-3  
 2.033600000000000E10    7.650956717719940E-2  -1.144236494752828E-2  
 2.033800000000000E10    7.588030036207817E-2  -1.829497744408055E-2  
 2.034000000000000E10    7.430403796347554E-2  -2.538464441180066E-2  
 2.034200000000000E10    7.190614308144985E-2  -3.243715629649316E-2  
 2.034400000000000E10    6.841684754207139E-2  -3.955350851169122E-2  
 2.034600000000000E10    6.360219469536117E-2  -4.616779906709572E-2  
 2.034800000000000E10    5.756023394577280E-2  -5.193065401042332E-2  
 2.035000000000000E10    5.078080691813952E-2  -5.621424885323328E-2  
 2.035200000000000E10    4.393186205519698E-2  -5.934999749743527E-2  
 2.035400000000000E10    3.703321144325471E-2  -6.158746003984243E-2  
 2.035600000000000E10    3.000285787341245E-2  -6.289885256248103E-2  
 2.035800000000000E10    2.303056149903757E-2  -6.362965956586944E-2  
 2.036000000000000E10    1.593041524030990E-2  -6.367355880464221E-2  
 2.036200000000000E10    8.775531365840633E-3  -6.292018148070920E-2  
 2.036400000000000E10    1.627456561052305E-3  -6.135838084755249E-2  
 2.036600000000000E10   -5.408821073899436E-3  -5.878140157546563E-2  
 2.036800000000000E10   -1.204684765924565E-2  -5.531335454970722E-2  
 2.037000000000000E10   -1.835615253775763E-2  -5.085501656778847E-2  
 2.037200000000000E10   -2.392955771208064E-2  -4.508870417861709E-2  
 2.037400000000000E10   -2.826179285070833E-2  -3.875082972672560E-2  
 2.037600000000000E10   -3.144591906663122E-2  -3.231876635504667E-2  
 2.037800000000000E10   -3.395870664707591E-2  -2.605544691407142E-2  
 2.038000000000000E10   -3.607749797868268E-2  -1.962347733868394E-2  
 2.038200000000000E10   -3.756968549517593E-2  -1.280405617369723E-2  
 2.038400000000000E10   -3.822297882246110E-2  -5.805525908933950E-3  
 2.038600000000000E10   -3.793510161379983E-2   1.358266617483753E-3  
 2.038800000000000E10   -3.678024634934657E-2   8.579379632941855E-3  
 2.039000000000000E10   -3.477088305142446E-2   1.575523087886290E-2  
 2.039200000000000E10   -3.151794036742737E-2   2.280059867396422E-2  
 2.039400000000000E10   -2.701557229513341E-2   2.892971077768964E-2  
 2.039600000000000E10   -2.185400384677709E-2   3.387593566767237E-2  
 2.039800000000000E10   -1.678194720772160E-2   3.784527530477208E-2  
 2.040000000000000E10   -1.155890442071560E-2   4.137316548757084E-2  
 2.040200000000000E10   -6.135401642184227E-3   4.450446721453109E-2  
 2.040400000000000E10   -3.266579068856787E-4   4.742731651408502E-2  
 2.040600000000000E10    6.097797263013943E-3   4.976934413051592E-2  
 2.040800000000000E10    1.279302554810044E-2   5.114917663099054E-2  
 2.041000000000000E10    1.979820425679655E-2   5.183825459268250E-2  
 2.041200000000000E10    2.729778908303264E-2   5.154783276375739E-2  
 2.041400000000000E10    3.492497698589990E-2   4.948641591011398E-2  
 2.041600000000000E10    4.151626978500499E-2   4.592279044377824E-2  
 2.041800000000000E10    4.693675450747870E-2   4.169563628816057E-2  
 2.042000000000000E10    5.145219471853531E-2   3.739114841504480E-2  
 2.042200000000000E10    5.531628522723846E-2   3.316864147589277E-2  
 2.042400000000000E10    5.890002779150461E-2   2.872829409842811E-2  
 2.042600000000000E10    6.212473220724629E-2   2.418258878382681E-2  
 2.042800000000000E10    6.535882887985083E-2   1.911545301109185E-2  
 2.043000000000000E10    6.810841226297043E-2   1.332688745255447E-2  
 2.043200000000000E10    7.009759757794398E-2   6.903812107615171E-3  
 2.043400000000000E10    7.109699306864507E-2  -1.754449742496715E-4  
 2.043600000000000E10    7.080421520113456E-2  -7.347951704845450E-3  
 2.043800000000000E10    6.923477521322066E-2  -1.419350815103119E-2  
 2.044000000000000E10    6.664644879546042E-2  -2.043838552378869E-2  
 2.044200000000000E10    6.339035198521714E-2  -2.594629358860791E-2  
 2.044400000000000E10    5.969147378091333E-2  -3.095727417043998E-2  
 2.044600000000000E10    5.563482101634770E-2  -3.537207389966669E-2  
 2.044800000000000E10    5.143072272724285E-2  -3.947523668705918E-2  
 2.045000000000000E10    4.666892524295929E-2  -4.349836764632611E-2  
 2.045200000000000E10    4.130738475776595E-2  -4.711392685496178E-2  
 2.045400000000000E10    3.506500433663137E-2  -5.008371723902389E-2  
 2.045600000000000E10    2.818024159613370E-2  -5.193233003561917E-2  
 2.045800000000000E10    2.095180635908731E-2  -5.255900121540527E-2  
 2.046000000000000E10    1.389109480639472E-2  -5.186603473312898E-2  
 2.046200000000000E10    7.277337743250168E-3  -5.028495111674040E-2  
 2.046400000000000E10    9.991118957377568E-4  -4.787760473091671E-2  
 2.046600000000000E10   -4.632805129452107E-3  -4.470244532366149E-2  
 2.046800000000000E10   -9.520904256851096E-3  -4.119576407533161E-2  
 2.047000000000000E10   -1.388963777217046E-2  -3.722144976926003E-2  
 2.047200000000000E10   -1.775005602528638E-2  -3.318234103252168E-2  
 2.047400000000000E10   -2.161913859389519E-2  -2.906717132590172E-2  
 2.047600000000000E10   -2.569988888904573E-2  -2.429688161284736E-2  
 2.047800000000000E10   -2.943908220540004E-2  -1.821559777086173E-2  
 2.048000000000000E10   -3.194990388411990E-2  -1.119936562576634E-2  
 2.048200000000000E10   -3.320650945831646E-2  -3.950285556802952E-3  
 2.048400000000000E10   -3.309418597241452E-2   3.434800841266282E-3  
 2.048600000000000E10   -3.154509227210167E-2   1.049418895533900E-2  
 2.048800000000000E10   -2.910687863364569E-2   1.668127186084245E-2  
 2.049000000000000E10   -2.638188226784699E-2   2.232262469723655E-2  
 2.049200000000000E10   -2.318621510144388E-2   2.764166047011066E-2  
 2.049400000000000E10   -1.963055644492663E-2   3.258346810691642E-2  
 2.049600000000000E10   -1.561434689731501E-2   3.742440192733228E-2  
 2.049800000000000E10   -1.081121161397257E-2   4.187596513640043E-2  
 2.050000000000000E10   -5.072520688094394E-3   4.557141566197968E-2  
 2.050200000000000E10    1.338377469039703E-3   4.827460729811019E-2  
 2.050400000000000E10    7.937762351140819E-3   4.987439599000015E-2  
 2.050600000000000E10    1.452553735509676E-2   5.047542277046174E-2  
 2.050800000000000E10    2.089104540288367E-2   5.014920170973795E-2  
 2.051000000000000E10    2.688868507354512E-2   4.909447201517294E-2  
 2.051200000000000E10    3.250046914042797E-2   4.744653201397556E-2  
 2.051400000000000E10    3.766477061158782E-2   4.533795932626656E-2  
 2.051600000000000E10    4.265868416116508E-2   4.266561931398035E-2  
 2.051800000000000E10    4.751012237869445E-2   3.966258007864403E-2  
 2.052000000000000E10    5.247273746945477E-2   3.610969692777524E-2  
 2.052200000000000E10    5.719069202811394E-2   3.144084579641909E-2  
 2.052400000000000E10    6.083778184684580E-2   2.580333937023666E-2  
 2.052600000000000E10    6.347784859217298E-2   1.985485715437564E-2  
 2.052800000000000E10    6.523688727808952E-2   1.366400358722357E-2  
 2.053000000000000E10    6.593138957587781E-2   7.247391732310518E-3  
 2.053200000000000E10    6.541800576068702E-2   7.300730676230115E-4  
 2.053400000000000E10    6.397978945683097E-2  -5.246758731339009E-3  
 2.053600000000000E10    6.201412207609525E-2  -1.053215557633536E-2  
 2.053800000000000E10    5.980785839762690E-2  -1.545461607695812E-2  
 2.054000000000000E10    5.724594434031971E-2  -2.014146857599563E-2  
 2.054200000000000E10    5.412438343724925E-2  -2.468978426271715E-2  
 2.054400000000000E10    5.049925877045085E-2  -2.890209941770624E-2  
 2.054600000000000E10    4.628946660706827E-2  -3.305251019992783E-2  
 2.054800000000000E10    4.070410564214769E-2  -3.680463900513956E-2  
 2.055000000000000E10    3.437806848783516E-2  -3.909659038873149E-2  
 2.055200000000000E10    2.821984708211514E-2  -4.016030292274966E-2  
 2.055400000000000E10    2.222560367816252E-2  -4.025991682534974E-2  
 2.055600000000000E10    1.667321791011892E-2  -3.952423102939080E-2  
