#  HZ   S   RI   R     50.00 
! Rohde & Schwarz ZVA40 4Ports - Version 3.90 - 1145.1110k42 SN: 100403
! Date: 2023-09-30 07:09:55
! Measurement: S12 
! 
 2.000000000000000E10   -4.254085655657598E-3  -1.653605569039046E-3  
 2.000200000000000E10   -4.476944036367867E-3  -1.014837845220948E-3  
 2.000400000000000E10   -4.589876736832377E-3  -3.095260743912187E-4  
 2.000600000000000E10   -4.612871202345126E-3   4.317242185797911E-4  
 2.000800000000000E10   -4.515404744004763E-3   1.174373224515606E-3  
 2.001000000000000E10   -4.314449516128856E-3   1.930007438938069E-3  
 2.001200000000000E10   -3.952667182273091E-3   2.687419164895153E-3  
 2.001400000000000E10   -3.400775085590444E-3   3.320120721518872E-3  
 2.001600000000000E10   -2.826455326122328E-3   3.814883188080089E-3  
 2.001800000000000E10   -2.171864408286818E-3   4.267451311212509E-3  
 2.002000000000000E10   -1.406674213906743E-3   4.571741883769448E-3  
 2.002200000000000E10   -6.099866038196004E-4   4.706717343472037E-3  
 2.002400000000000E10    8.736348916597305E-5   4.796532513535441E-3  
 2.002600000000000E10    8.537926262727492E-4   4.876183347830189E-3  
 2.002800000000000E10    1.794043607883340E-3   4.820252513827244E-3  
 2.003000000000000E10    2.787731545728176E-3   4.454193508382810E-3  
 2.003200000000000E10    3.631855487639522E-3   3.783676001998317E-3  
 2.003400000000000E10    4.212010508104240E-3   2.931800092198722E-3  
 2.003600000000000E10    4.541345184032687E-3   2.082840299019169E-3  
 2.003800000000000E10    4.706062378415478E-3   1.297639107998507E-3  
 2.004000000000000E10    4.807874169430616E-3   5.464437879993746E-4  
 2.004200000000000E10    4.824236378364970E-3  -2.114667087446500E-4  
 2.004400000000000E10    4.781903254458444E-3  -9.925168313262335E-4  
 2.004600000000000E10    4.582040966200976E-3  -1.835061904088951E-3  
 2.004800000000000E10    4.187509218238510E-3  -2.621635629837651E-3  
 2.005000000000000E10    3.675736949698609E-3  -3.341279747616117E-3  
 2.005200000000000E10    2.996383273184545E-3  -3.980554212957867E-3  
 2.005400000000000E10    2.131239157514992E-3  -4.433374717800952E-3  
 2.005600000000000E10    1.223815840270386E-3  -4.586915974217801E-3  
 2.005800000000000E10    4.450460871223576E-4  -4.545722085859918E-3  
 2.006000000000000E10   -2.172590558438221E-4  -4.433537283414064E-3  
 2.006200000000000E10   -8.248260492409118E-4  -4.304025055832947E-3  
 2.006400000000000E10   -1.410925906983208E-3  -4.162890229128885E-3  
 2.006600000000000E10   -2.070455731433115E-3  -3.977553711997138E-3  
 2.006800000000000E10   -2.768251363670937E-3  -3.640376373458609E-3  
 2.007000000000000E10   -3.408160489895707E-3  -3.108652323913673E-3  
 2.007200000000000E10   -3.893474496349141E-3  -2.452366105798218E-3  
 2.007400000000000E10   -4.254848152061795E-3  -1.731183964839596E-3  
 2.007600000000000E10   -4.485426043302067E-3  -9.560634103247230E-4  
 2.007800000000000E10   -4.559813910489711E-3  -1.165928685170054E-4  
 2.008000000000000E10   -4.404122565600853E-3   6.842676704891272E-4  
 2.008200000000000E10   -4.112212493279834E-3   1.348894712258391E-3  
 2.008400000000000E10   -3.818816940372987E-3   1.867176493947920E-3  
 2.008600000000000E10   -3.565501320126003E-3   2.395934878499727E-3  
 2.008800000000000E10   -3.218724148984187E-3   3.004691572170015E-3  
 2.009000000000000E10   -2.681127594163021E-3   3.589558435236047E-3  
 2.009200000000000E10   -2.044233495423211E-3   4.005703298995893E-3  
 2.009400000000000E10   -1.405558570426096E-3   4.359090237000598E-3  
 2.009600000000000E10   -6.038185705837063E-4   4.724219903242564E-3  
 2.009800000000000E10    4.206775332400537E-4   4.845408517714023E-3  
 2.010000000000000E10    1.451796226379742E-3   4.598719058290063E-3  
 2.010200000000000E10    2.292070272397787E-3   4.097524787004226E-3  
 2.010400000000000E10    2.910138500678074E-3   3.451758968823977E-3  
 2.010600000000000E10    3.337591974670259E-3   2.834333486303135E-3  
 2.010800000000000E10    3.696548337607411E-3   2.197513238952300E-3  
 2.011000000000000E10    3.923124986328952E-3   1.536662192103059E-3  
 2.011200000000000E10    4.101486035350543E-3   9.010062275603874E-4  
 2.011400000000000E10    4.215130950381727E-3   1.585681192383339E-4  
 2.011600000000000E10    4.102579109110093E-3  -6.076061720634073E-4  
 2.011800000000000E10    3.847565115793560E-3  -1.267392966329070E-3  
 2.012000000000000E10    3.520175814628602E-3  -1.832446626697978E-3  
 2.012200000000000E10    3.168200885248467E-3  -2.295236267080462E-3  
 2.012400000000000E10    2.810876509902899E-3  -2.746152365771832E-3  
 2.012600000000000E10    2.393572575914762E-3  -3.199781604502121E-3  
 2.012800000000000E10    1.879047721225784E-3  -3.658647859783330E-3  
 2.013000000000000E10    1.167596331241813E-3  -4.064887698831751E-3  
 2.013200000000000E10    3.011295092368783E-4  -4.224385656109809E-3  
 2.013400000000000E10   -5.116472768102900E-4  -4.122838657732610E-3  
 2.013600000000000E10   -1.237339101570808E-3  -3.901512897669227E-3  
 2.013800000000000E10   -1.903885922781786E-3  -3.554998593282246E-3  
 2.014000000000000E10   -2.452220431425505E-3  -3.062449066052712E-3  
 2.014200000000000E10   -2.809218924354624E-3  -2.550894635012795E-3  
 2.014400000000000E10   -3.097629325977937E-3  -2.105132629711626E-3  
 2.014600000000000E10   -3.402213703020795E-3  -1.633331848887167E-3  
 2.014800000000000E10   -3.649426042581353E-3  -1.101272036474765E-3  
 2.015000000000000E10   -3.861438558693715E-3  -5.550180440155384E-4  
 2.015200000000000E10   -4.097157182869475E-3   1.063430282694993E-4  
 2.015400000000000E10   -4.157017174832248E-3   1.006084500520716E-3  
 2.015600000000000E10   -3.882539031237610E-3   1.941132378369693E-3  
 2.015800000000000E10   -3.315742158258158E-3   2.704675715615966E-3  
 2.016000000000000E10   -2.626378918948120E-3   3.238607104101177E-3  
 2.016200000000000E10   -1.894739921177918E-3   3.574266883165197E-3  
 2.016400000000000E10   -1.193310670198206E-3   3.726914256749821E-3  
 2.016600000000000E10   -5.359306371935602E-4   3.782473392439662E-3  
 2.016800000000000E10    9.073115812318493E-5   3.755684715883478E-3  
 2.017000000000000E10    6.744993223958178E-4   3.660623674997639E-3  
 2.017200000000000E10    1.265107204183292E-3   3.527579723700207E-3  
 2.017400000000000E10    1.893463268600129E-3   3.270160690440564E-3  
 2.017600000000000E10    2.461360778023371E-3   2.856007512704826E-3  
 2.017800000000000E10    2.911731312358024E-3   2.350874972403234E-3  
 2.018000000000000E10    3.236453813489205E-3   1.775023453186722E-3  
 2.018200000000000E10    3.471214477540044E-3   1.217994668402177E-3  
 2.018400000000000E10    3.659730631505511E-3   5.798348280267768E-4  
 2.018600000000000E10    3.657738921527633E-3  -1.073617088956253E-4  
 2.018800000000000E10    3.516886681279958E-3  -7.067441651904228E-4  
 2.019000000000000E10    3.354529917255474E-3  -1.236223724935158E-3  
 2.019200000000000E10    3.118810272649115E-3  -1.790039466479372E-3  
 2.019400000000000E10    2.786634818539637E-3  -2.270160012000812E-3  
 2.019600000000000E10    2.454181918452797E-3  -2.746672116587928E-3  
 2.019800000000000E10    1.956667526387476E-3  -3.249228154903148E-3  
 2.020000000000000E10    1.272596116560998E-3  -3.597827319730335E-3  
 2.020200000000000E10    5.725381872904154E-4  -3.749916761147756E-3  
 2.020400000000000E10   -1.287082701954040E-4  -3.759092553576202E-3  
 2.020600000000000E10   -7.626036900179961E-4  -3.608911751420717E-3  
 2.020800000000000E10   -1.288236299943593E-3  -3.425535368407338E-3  
 2.021000000000000E10   -1.833121401043188E-3  -3.247974800720137E-3  
 2.021200000000000E10   -2.430357814118757E-3  -2.975863375827487E-3  
 2.021400000000000E10   -3.015669261070866E-3  -2.549109477434814E-3  
 2.021600000000000E10   -3.543860434244077E-3  -1.941976106319378E-3  
 2.021800000000000E10   -3.898374084766510E-3  -1.193268082311584E-3  
 2.022000000000000E10   -4.034396646153413E-3  -3.636890042375835E-4  
 2.022200000000000E10   -3.951794814717010E-3   4.217058248672283E-4  
 2.022400000000000E10   -3.721998831057930E-3   1.086877038560563E-3  
 2.022600000000000E10   -3.434887487410642E-3   1.656127413792283E-3  
 2.022800000000000E10   -3.132625422612937E-3   2.183309119049107E-3  
 2.023000000000000E10   -2.768154972742615E-3   2.704423185391927E-3  
 2.023200000000000E10   -2.268665844819858E-3   3.217082824213086E-3  
 2.023400000000000E10   -1.635155786660504E-3   3.617632013090231E-3  
 2.023600000000000E10   -9.166142680977354E-4   3.896237899062566E-3  
 2.023800000000000E10   -8.531892708111785E-5   3.968489707022170E-3  
 2.024000000000000E10    6.768994750512512E-4   3.752616437251676E-3  
 2.024200000000000E10    1.216901278931939E-3   3.405379262703008E-3  
 2.024400000000000E10    1.582646615987207E-3   3.098977968257703E-3  
 2.024600000000000E10    1.918570306669507E-3   2.901931804003110E-3  
 2.024800000000000E10    2.369755432546262E-3   2.737217375801669E-3  
 2.025000000000000E10    2.947515877990873E-3   2.431960183352907E-3  
 2.025200000000000E10    3.474692680869145E-3   1.863021288573006E-3  
 2.025400000000000E10    3.789275514782089E-3   1.153914854332897E-3  
 2.025600000000000E10    3.941693540601206E-3   4.352097097236219E-4  
 2.025800000000000E10    3.933122425642892E-3  -2.982198000107528E-4  
 2.026000000000000E10    3.769073209920783E-3  -9.748686417370056E-4  
 2.026200000000000E10    3.515511039268885E-3  -1.595447825386722E-3  
 2.026400000000000E10    3.146502287069589E-3  -2.120284745929602E-3  
 2.026600000000000E10    2.734454198253682E-3  -2.514929686952766E-3  
 2.026800000000000E10    2.400842751088886E-3  -2.852482034215405E-3  
 2.027000000000000E10    2.049610119335998E-3  -3.284487462269120E-3  
 2.027200000000000E10    1.525417126431571E-3  -3.731569057759742E-3  
 2.027400000000000E10    8.374156761883832E-4  -4.059846001320784E-3  
 2.027600000000000E10    7.383167833090309E-5  -4.232182857339030E-3  
 2.027800000000000E10   -7.460542895578217E-4  -4.239229801582334E-3  
 2.028000000000000E10   -1.569386789145968E-3  -4.042445973267036E-3  
 2.028200000000000E10   -2.335530434593313E-3  -3.671612487071091E-3  
 2.028400000000000E10   -2.999182029746075E-3  -3.096295431555238E-3  
 2.028600000000000E10   -3.422927572257787E-3  -2.386011136312483E-3  
 2.028800000000000E10   -3.641929955570480E-3  -1.737747471702933E-3  
 2.029000000000000E10   -3.808127639531600E-3  -1.149143077962009E-3  
 2.029200000000000E10   -3.936869592440349E-3  -5.461035079299761E-4  
 2.029400000000000E10   -3.983313767737691E-3   9.699041348304257E-5  
 2.029600000000000E10   -3.927506021618721E-3   7.746398902628496E-4  
 2.029800000000000E10   -3.715978276153161E-3   1.454813963515155E-3  
 2.030000000000000E10   -3.340385676028184E-3   2.052354417480682E-3  
 2.030200000000000E10   -2.884134865814337E-3   2.476236987054165E-3  
 2.030400000000000E10   -2.509796307824644E-3   2.797690466421929E-3  
 2.030600000000000E10   -2.114574246706419E-3   3.181363387922508E-3  
 2.030800000000000E10   -1.597928242094876E-3   3.519176252554229E-3  
 2.031000000000000E10   -1.036229189351171E-3   3.770670960868093E-3  
 2.031200000000000E10   -3.913338443431084E-4   3.950800487978592E-3  
 2.031400000000000E10    3.180263465540599E-4   3.960175648592260E-3  
 2.031600000000000E10    9.340754673728115E-4   3.801940037742442E-3  
 2.031800000000000E10    1.428167070281297E-3   3.582015670950951E-3  
 2.032000000000000E10    1.912168047482861E-3   3.431084417304937E-3  
 2.032200000000000E10    2.500064587680462E-3   3.244784879095761E-3  
 2.032400000000000E10    3.160378331349159E-3   2.858310787451795E-3  
 2.032600000000000E10    3.693942978035338E-3   2.255138026075170E-3  
 2.032800000000000E10    4.074968309467467E-3   1.594628531240510E-3  
 2.033000000000000E10    4.376228318124275E-3   8.496256334871945E-4  
 2.033200000000000E10    4.484344296801238E-3   1.285756596548765E-5  
 2.033400000000000E10    4.415525280613714E-3  -7.865159581185400E-4  
 2.033600000000000E10    4.354208590915051E-3  -1.149513998735742E-3  
 2.033800000000000E10    3.875944400282861E-3  -2.332976206738517E-3  
 2.034000000000000E10    3.370078239367639E-3  -2.995795941118290E-3  
 2.034200000000000E10    2.768116105355537E-3  -3.534083485549677E-3  
 2.034400000000000E10    2.080941588115791E-3  -3.960998594730235E-3  
 2.034600000000000E10    1.286673160756597E-3  -4.239969950077343E-3  
 2.034800000000000E10    4.856115538356711E-4  -4.284422660683409E-3  
 2.035000000000000E10   -1.917130896129834E-4  -4.164882780363163E-3  
 2.035200000000000E10   -7.503150026658897E-4  -4.049475166808677E-3  
 2.035400000000000E10   -1.354485533177209E-3  -3.943000969940744E-3  
 2.035600000000000E10   -2.004508339175226E-3  -3.738107056253487E-3  
 2.035800000000000E10   -2.657971017200638E-3  -3.389693377922777E-3  
 2.036000000000000E10   -3.267027893766700E-3  -2.884113144535771E-3  
 2.036200000000000E10   -3.750534963874538E-3  -2.203338822625854E-3  
 2.036400000000000E10   -4.013876193068892E-3  -1.468069782890686E-3  
 2.036600000000000E10   -4.136926297159721E-3  -7.587311757774450E-4  
 2.036800000000000E10   -4.136778962311677E-3  -5.948055316856967E-5  
 2.037000000000000E10   -4.040621914766699E-3   5.786692105145521E-4  
 2.037200000000000E10   -3.895783955959504E-3   1.201159332269504E-3  
 2.037400000000000E10   -3.638308154181444E-3   1.801671881378157E-3  
 2.037600000000000E10   -3.341078074120078E-3   2.329349998813966E-3  
 2.037800000000000E10   -2.942697650948425E-3   2.908483844196784E-3  
 2.038000000000000E10   -2.364424871733037E-3   3.364337147347660E-3  
 2.038200000000000E10   -1.773462902444105E-3   3.622884499943919E-3  
 2.038400000000000E10   -1.260004410186760E-3   3.833220268450218E-3  
 2.038600000000000E10   -7.296138425806055E-4   4.082583247419494E-3  
 2.038800000000000E10   -3.273364420964167E-5   4.325972226114921E-3  
 2.039000000000000E10    8.134302664490671E-4   4.374077892383185E-3  
 2.039200000000000E10    1.643819938061200E-3   4.183797263482839E-3  
 2.039400000000000E10    2.421721574608927E-3   3.822407532874265E-3  
 2.039600000000000E10    3.109481139683430E-3   3.322672458181595E-3  
 2.039800000000000E10    3.708268390247913E-3   2.683550541944526E-3  
 2.040000000000000E10    4.158739843731555E-3   1.868921035513619E-3  
 2.040200000000000E10    4.342838376377223E-3   9.575777087329962E-4  
 2.040400000000000E10    4.228243268949628E-3   1.315807666411095E-4  
 2.040600000000000E10    4.009665193135847E-3  -4.799791442617437E-4  
 2.040800000000000E10    3.833799913272630E-3  -9.485101447068924E-4  
 2.041000000000000E10    3.766393528507693E-3  -1.451441204681257E-3  
 2.041200000000000E10    3.631279634219814E-3  -2.149626834954254E-3  
 2.041400000000000E10    3.219580218395211E-3  -2.890124505983643E-3  
 2.041600000000000E10    2.576896845106297E-3  -3.453170466754172E-3  
 2.041800000000000E10    1.860597397971117E-3  -3.825349478365340E-3  
 2.042000000000000E10    1.146241372409028E-3  -4.020917294508637E-3  
 2.042200000000000E10    4.622959728264577E-4  -4.095004915562555E-3  
 2.042400000000000E10   -2.158274329741727E-4  -4.104960075514430E-3  
 2.042600000000000E10   -8.967025789964961E-4  -4.019887640750335E-3  
 2.042800000000000E10   -1.582467403941225E-3  -3.824771809249872E-3  
 2.043000000000000E10   -2.254769128436844E-3  -3.505581643991939E-3  
 2.043200000000000E10   -2.871495101470578E-3  -3.015667773062678E-3  
 2.043400000000000E10   -3.331342310579533E-3  -2.418898424486258E-3  
 2.043600000000000E10   -3.679289677996695E-3  -1.776508405352387E-3  
 2.043800000000000E10   -3.883164468961059E-3  -1.053329400522750E-3  
 2.044000000000000E10   -3.887664694377364E-3  -3.587461929191518E-4  
 2.044200000000000E10   -3.825842217952320E-3   1.951347474931498E-4  
 2.044400000000000E10   -3.804368908812174E-3   7.746504301611537E-4  
 2.044600000000000E10   -3.684244270976863E-3   1.466513042234712E-3  
 2.044800000000000E10   -3.333044771120382E-3   2.137703892924352E-3  
 2.045000000000000E10   -2.857903829189363E-3   2.663272175240358E-3  
 2.045200000000000E10   -2.346544822585988E-3   3.091007012130364E-3  
 2.045400000000000E10   -1.744546698513652E-3   3.441813059818047E-3  
 2.045600000000000E10   -1.080363625258116E-3   3.632465801910793E-3  
 2.045800000000000E10   -4.407053855496916E-4   3.638941024280625E-3  
 2.046000000000000E10    2.507456011463311E-5   3.564799508202530E-3  
 2.046200000000000E10    4.705815574100603E-4   3.623714066903901E-3  
 2.046400000000000E10    1.087760525935717E-3   3.679894060356382E-3  
 2.046600000000000E10    1.830065958278538E-3   3.549525686712177E-3  
 2.046800000000000E10    2.571082930751299E-3   3.170627824686193E-3  
 2.047000000000000E10    3.173378659335613E-3   2.564644887506840E-3  
 2.047200000000000E10    3.532529198238818E-3   1.876076763886729E-3  
 2.047400000000000E10    3.753037367269029E-3   1.215743737433244E-3  
 2.047600000000000E10    3.898793233581532E-3   5.517665415603684E-4  
 2.047800000000000E10    3.957340359657145E-3  -1.565199966950595E-4  
 2.048000000000000E10    3.845118196995416E-3  -9.188392444383431E-4  
 2.048200000000000E10    3.538469369082479E-3  -1.600324619396632E-3  
 2.048400000000000E10    3.133342738374455E-3  -2.147087766961368E-3  
 2.048600000000000E10    2.672528413051563E-3  -2.595908971457386E-3  
 2.048800000000000E10    2.179639818292464E-3  -2.965087099805659E-3  
 2.049000000000000E10    1.667905642474722E-3  -3.240865573800580E-3  
 2.049200000000000E10    1.101136758517275E-3  -3.446529057919367E-3  
 2.049400000000000E10    5.546005223801076E-4  -3.547201514696327E-3  
 2.049600000000000E10    3.985589554994712E-5  -3.635016113803282E-3  
 2.049800000000000E10   -5.772560775000220E-4  -3.700240104125791E-3  
 2.050000000000000E10   -1.300431466987165E-3  -3.606249947185196E-3  
 2.050200000000000E10   -1.965888126737941E-3  -3.285754916599258E-3  
 2.050400000000000E10   -2.498773016694765E-3  -2.851845924608379E-3  
 2.050600000000000E10   -2.916478272144197E-3  -2.367369168526168E-3  
 2.050800000000000E10   -3.257703967392446E-3  -1.883755027941225E-3  
 2.051000000000000E10   -3.591573984963905E-3  -1.338621355217610E-3  
 2.051200000000000E10   -3.845824971181866E-3  -6.752412607165155E-4  
 2.051400000000000E10   -3.922469226007232E-3   7.145144967273656E-5  
 2.051600000000000E10   -3.814767819058933E-3   7.934847867227478E-4  
 2.051800000000000E10   -3.583854920932173E-3   1.434246062803171E-3  
 2.052000000000000E10   -3.271586489729554E-3   2.013937200308459E-3  
 2.052200000000000E10   -2.869726869626423E-3   2.530825873376963E-3  
 2.052400000000000E10   -2.424625152867640E-3   2.958913189991390E-3  
 2.052600000000000E10   -1.939851531965866E-3   3.341652247901440E-3  
 2.052800000000000E10   -1.383012524277064E-3   3.699511399783900E-3  
 2.053000000000000E10   -6.940508876455788E-4   3.985727096643346E-3  
 2.053200000000000E10    1.001669149778768E-4   4.090590339245989E-3  
 2.053400000000000E10    8.780857526080171E-4   3.966669630596545E-3  
 2.053600000000000E10    1.557136389499707E-3   3.711098474507899E-3  
 2.053800000000000E10    2.161904820720110E-3   3.360705333282796E-3  
 2.054000000000000E10    2.696085987620271E-3   2.920674826037676E-3  
 2.054200000000000E10    3.130781558177477E-3   2.427917091681818E-3  
 2.054400000000000E10    3.492368624733432E-3   1.900729763037966E-3  
 2.054600000000000E10    3.824755998803572E-3   1.312492217450813E-3  
 2.054800000000000E10    4.069337425868453E-3   6.247414369423541E-4  
 2.055000000000000E10    4.161954226945777E-3  -1.322029688090868E-4  
 2.055200000000000E10    4.091886838001234E-3  -9.034135891028794E-4  
 2.055400000000000E10    3.908492363184507E-3  -1.653228678027697E-3  
 2.055600000000000E10    3.533273754227493E-3  -2.433011488444766E-3  
