#  HZ   S   RI   R     50.00 
! Rohde & Schwarz ZVA40 4Ports - Version 3.90 - 1145.1110k42 SN: 100403
! Date: 2023-09-30 08:47:57
! Measurement: S12 
! 
 2.000000000000000E10   -6.830479981012348E-3  -5.535935506541462E-3  
 2.000200000000000E10   -7.672799606162377E-3  -4.249120641509979E-3  
 2.000400000000000E10   -8.124527959625746E-3  -2.802341006854639E-3  
 2.000600000000000E10   -8.317119140428365E-3  -1.431352825706317E-3  
 2.000800000000000E10   -8.358423966040583E-3  -1.810092035606274E-4  
 2.001000000000000E10   -8.369836509125551E-3   1.068499292833386E-3  
 2.001200000000000E10   -8.277959355110987E-3   2.426341220107957E-3  
 2.001400000000000E10   -7.888433534973935E-3   3.937368340590977E-3  
 2.001600000000000E10   -7.136266850400078E-3   5.373499308941460E-3  
 2.001800000000000E10   -6.084625701840319E-3   6.649902966818857E-3  
 2.002000000000000E10   -4.739059889701864E-3   7.697967790062088E-3  
 2.002200000000000E10   -3.080100463371116E-3   8.425533047152892E-3  
 2.002400000000000E10   -1.503990909444943E-3   8.747877817554976E-3  
 2.002600000000000E10    5.547966907808204E-5   8.771372020029974E-3  
 2.002800000000000E10    1.519846583017760E-3   8.541857556724828E-3  
 2.003000000000000E10    2.897968525015871E-3   8.146466991374852E-3  
 2.003200000000000E10    4.243152523323874E-3   7.525154773978868E-3  
 2.003400000000000E10    5.453107669050148E-3   6.668401410003464E-3  
 2.003600000000000E10    6.515904411479361E-3   5.655443181497121E-3  
 2.003800000000000E10    7.424407036890710E-3   4.405317012992252E-3  
 2.004000000000000E10    8.054213471894649E-3   2.998583379683222E-3  
 2.004200000000000E10    8.387075375576489E-3   1.510869862226864E-3  
 2.004400000000000E10    8.436023898995055E-3   3.647086722580671E-5  
 2.004600000000000E10    8.215102064327450E-3  -1.428931058526285E-3  
 2.004800000000000E10    7.718489630548962E-3  -2.726297038933071E-3  
 2.005000000000000E10    7.108555534989951E-3  -3.835377300641051E-3  
 2.005200000000000E10    6.461632476968817E-3  -4.879835950892895E-3  
 2.005400000000000E10    5.658220003431840E-3  -5.919840414874226E-3  
 2.005600000000000E10    4.628143020342162E-3  -6.885816403811567E-3  
 2.005800000000000E10    3.360773895359989E-3  -7.679870808228790E-3  
 2.006000000000000E10    1.882585297007783E-3  -8.178720015659419E-3  
 2.006200000000000E10    3.911548224900594E-4  -8.337349521024320E-3  
 2.006400000000000E10   -1.101978980892674E-3  -8.190939044490437E-3  
 2.006600000000000E10   -2.458980732721332E-3  -7.793488035257013E-3  
 2.006800000000000E10   -3.692234028897291E-3  -7.223101643224559E-3  
 2.007000000000000E10   -4.843376673354330E-3  -6.509273631730730E-3  
 2.007200000000000E10   -5.930108590554882E-3  -5.558792666489941E-3  
 2.007400000000000E10   -6.790778372917116E-3  -4.376365281948093E-3  
 2.007600000000000E10   -7.370276697266169E-3  -3.091673138366172E-3  
 2.007800000000000E10   -7.700357745837202E-3  -1.738212888023020E-3  
 2.008000000000000E10   -7.781452982238046E-3  -4.045605527419746E-4  
 2.008200000000000E10   -7.604624833962760E-3   8.973858588463303E-4  
 2.008400000000000E10   -7.248419958495105E-3   2.044771756754552E-3  
 2.008600000000000E10   -6.825057357876718E-3   3.068825590586487E-3  
 2.008800000000000E10   -6.310920915802731E-3   4.105183421742729E-3  
 2.009000000000000E10   -5.640565182640639E-3   5.129253266913247E-3  
 2.009200000000000E10   -4.705628151500749E-3   6.094941263188020E-3  
 2.009400000000000E10   -3.604035097620207E-3   6.811643405772737E-3  
 2.009600000000000E10   -2.415389741102773E-3   7.328584506617163E-3  
 2.009800000000000E10   -1.174396914794060E-3   7.693681056612519E-3  
 2.010000000000000E10    1.946743756872973E-4   7.862738402629341E-3  
 2.010200000000000E10    1.606307266981422E-3   7.746630122141584E-3  
 2.010400000000000E10    2.993697827536261E-3   7.366348648844966E-3  
 2.010600000000000E10    4.309088902596503E-3   6.696319250985267E-3  
 2.010800000000000E10    5.464791714383702E-3   5.747644921230723E-3  
 2.011000000000000E10    6.379508963991750E-3   4.568760598203570E-3  
 2.011200000000000E10    6.978625268771204E-3   3.250981805289091E-3  
 2.011400000000000E10    7.248242051610200E-3   1.933009494498464E-3  
 2.011600000000000E10    7.292758966623634E-3   6.723339171647076E-4  
 2.011800000000000E10    7.148149881936070E-3  -5.005788118246336E-4  
 2.012000000000000E10    6.850916160262907E-3  -1.561651108064657E-3  
 2.012200000000000E10    6.467818559769578E-3  -2.499950888077378E-3  
 2.012400000000000E10    6.051978921014382E-3  -3.401040923570901E-3  
 2.012600000000000E10    5.542275707897908E-3  -4.297307679692823E-3  
 2.012800000000000E10    4.925694282770935E-3  -5.181087237183614E-3  
 2.013000000000000E10    4.154981723992954E-3  -6.085091278810357E-3  
 2.013200000000000E10    3.115438685633641E-3  -6.960664534064928E-3  
 2.013400000000000E10    1.726263097489946E-3  -7.613708511689891E-3  
 2.013600000000000E10    1.503348161080525E-4  -7.856445703834338E-3  
 2.013800000000000E10   -1.351329008218244E-3  -7.703819044511793E-3  
 2.014000000000000E10   -2.788295203485157E-3  -7.261300407763986E-3  
 2.014200000000000E10   -4.092448670161564E-3  -6.535828077784947E-3  
 2.014400000000000E10   -5.180148029666707E-3  -5.536233598752196E-3  
 2.014600000000000E10   -5.979094581502212E-3  -4.389710277216753E-3  
 2.014800000000000E10   -6.503088451508020E-3  -3.150974238733411E-3  
 2.015000000000000E10   -6.759509416131000E-3  -1.924655853741290E-3  
 2.015200000000000E10   -6.782630109068503E-3  -7.675216768469678E-4  
 2.015400000000000E10   -6.656292714153012E-3   2.984709105347712E-4  
 2.015600000000000E10   -6.430169775703890E-3   1.277984891582500E-3  
 2.015800000000000E10   -6.117049673641171E-3   2.208236442043335E-3  
 2.016000000000000E10   -5.721757335355826E-3   3.114205430579897E-3  
 2.016200000000000E10   -5.169527809581477E-3   4.007593835276055E-3  
 2.016400000000000E10   -4.440102694282726E-3   4.782750328749787E-3  
 2.016600000000000E10   -3.651323770102631E-3   5.433392649023336E-3  
 2.016800000000000E10   -2.761670582466574E-3   6.011405412301892E-3  
 2.017000000000000E10   -1.744501819049707E-3   6.474270346729068E-3  
 2.017200000000000E10   -6.116185599519004E-4   6.739682799642103E-3  
 2.017400000000000E10    5.741786271294092E-4   6.785193529102661E-3  
 2.017600000000000E10    1.741504818213841E-3   6.649201905127458E-3  
 2.017800000000000E10    2.940319747432801E-3   6.340015662989909E-3  
 2.018000000000000E10    4.162900972554387E-3   5.718450515501621E-3  
 2.018200000000000E10    5.158722055730997E-3   4.745106408896312E-3  
 2.018400000000000E10    5.821766681836304E-3   3.628997129627053E-3  
 2.018600000000000E10    6.231245174058632E-3   2.544504529969008E-3  
 2.018800000000000E10    6.505443911938143E-3   1.475604476991004E-3  
 2.019000000000000E10    6.657312472129882E-3   3.793120442663508E-4  
 2.019200000000000E10    6.638607668814306E-3  -7.725060077138829E-4  
 2.019400000000000E10    6.398960838761228E-3  -1.953510529858627E-3  
 2.019600000000000E10    5.935036702482708E-3  -3.053043401750273E-3  
 2.019800000000000E10    5.206216770557710E-3  -4.064065296923428E-3  
 2.020000000000000E10    4.315511373335443E-3  -4.813490675657539E-3  
 2.020200000000000E10    3.402018631183747E-3  -5.332448759304031E-3  
 2.020400000000000E10    2.504661622098219E-3  -5.711791382154607E-3  
 2.020600000000000E10    1.613601967622111E-3  -5.997679219932510E-3  
 2.020800000000000E10    7.019918925379275E-4  -6.234201483827070E-3  
 2.021000000000000E10   -3.117085207334819E-4  -6.414529590884069E-3  
 2.021200000000000E10   -1.475491145637209E-3  -6.427276115583460E-3  
 2.021400000000000E10   -2.727021762477784E-3  -6.148114171906265E-3  
 2.021600000000000E10   -3.944347779278034E-3  -5.510545383617590E-3  
 2.021800000000000E10   -4.910166084699958E-3  -4.527202751155335E-3  
 2.022000000000000E10   -5.527748173774720E-3  -3.440850650040824E-3  
 2.022200000000000E10   -5.897280835483955E-3  -2.371853093242347E-3  
 2.022400000000000E10   -6.108706829806252E-3  -1.338799800104187E-3  
 2.022600000000000E10   -6.188327101006881E-3  -2.910655156307789E-4  
 2.022800000000000E10   -6.101550450050293E-3   7.721540318969358E-4  
 2.023000000000000E10   -5.786014209145015E-3   1.809000518761923E-3  
 2.023200000000000E10   -5.290974982961788E-3   2.685394804651335E-3  
 2.023400000000000E10   -4.736231256720952E-3   3.426831764321065E-3  
 2.023600000000000E10   -4.156699052159720E-3   4.104503655910943E-3  
 2.023800000000000E10   -3.425770182103757E-3   4.750841028288273E-3  
 2.024000000000000E10   -2.567715196460179E-3   5.226930528010443E-3  
 2.024200000000000E10   -1.693275824843284E-3   5.531148915402643E-3  
 2.024400000000000E10   -8.172705392346851E-4   5.732552981354164E-3  
 2.024600000000000E10    8.191982850215855E-5   5.858179949612367E-3  
 2.024800000000000E10    1.062575821759657E-3   5.881443603120143E-3  
 2.025000000000000E10    2.162215480994848E-3   5.721276286166719E-3  
 2.025200000000000E10    3.254615622208504E-3   5.251149869228833E-3  
 2.025400000000000E10    4.157442687046095E-3   4.499320932172127E-3  
 2.025600000000000E10    4.845995873734049E-3   3.649065013596756E-3  
 2.025800000000000E10    5.401885182953176E-3   2.716269632494806E-3  
 2.026000000000000E10    5.737441820597126E-3   1.644998257539002E-3  
 2.026200000000000E10    5.790356454657921E-3   5.990808152731646E-4  
 2.026400000000000E10    5.670370204458512E-3  -3.374084865496161E-4  
 2.026600000000000E10    5.470538614075044E-3  -1.180384111678834E-3  
 2.026800000000000E10    5.200427863619128E-3  -1.952701749022034E-3  
 2.027000000000000E10    4.899418244038714E-3  -2.710660851837759E-3  
 2.027200000000000E10    4.505431070663190E-3  -3.499660136967653E-3  
 2.027400000000000E10    3.935099781883066E-3  -4.295076177147600E-3  
 2.027600000000000E10    3.172340055490718E-3  -4.997060892257753E-3  
 2.027800000000000E10    2.276975417826504E-3  -5.546905791491721E-3  
 2.028000000000000E10    1.249994792137423E-3  -5.960136216992337E-3  
 2.028200000000000E10    1.226978896618960E-4  -6.140346576897901E-3  
 2.028400000000000E10   -1.047721259591051E-3  -6.063883721097712E-3  
 2.028600000000000E10   -2.162512977555170E-3  -5.726103358537940E-3  
 2.028800000000000E10   -3.137519729383730E-3  -5.174190861227909E-3  
 2.029000000000000E10   -3.957409532395779E-3  -4.451275352179106E-3  
 2.029200000000000E10   -4.557639660648440E-3  -3.664342075553104E-3  
 2.029400000000000E10   -5.054406067343692E-3  -2.902820321510257E-3  
 2.029600000000000E10   -5.509973686975422E-3  -2.020675737368625E-3  
 2.029800000000000E10   -5.776240973923719E-3  -1.024674421236359E-3  
 2.030000000000000E10   -5.869058324266814E-3  -3.528409035552540E-5  
 2.030200000000000E10   -5.818763405432101E-3   9.846063551144223E-4  
 2.030400000000000E10   -5.569584017417641E-3   2.025233395461540E-3  
 2.030600000000000E10   -5.076125707472222E-3   2.997719396904765E-3  
 2.030800000000000E10   -4.379841060836293E-3   3.810088253683515E-3  
 2.031000000000000E10   -3.598851616148146E-3   4.389130492504324E-3  
 2.031200000000000E10   -2.854173041021628E-3   4.827299012211044E-3  
 2.031400000000000E10   -2.094375373302501E-3   5.216781897610885E-3  
 2.031600000000000E10   -1.282398418883636E-3   5.561174325956689E-3  
 2.031800000000000E10   -3.465399875592081E-4   5.774336247430254E-3  
 2.032000000000000E10    6.724767275448425E-4   5.800640165795597E-3  
 2.032200000000000E10    1.675345879993485E-3   5.638493569912735E-3  
 2.032400000000000E10    2.654326962439960E-3   5.304330506391406E-3  
 2.032600000000000E10    3.566239379852275E-3   4.782233467077728E-3  
 2.032800000000000E10    4.384033150705210E-3   4.104862968208696E-3  
 2.033000000000000E10    5.103722762122281E-3   3.279692233720251E-3  
 2.033200000000000E10    5.652361429348813E-3   2.253734029826948E-3  
 2.033400000000000E10    5.930098005543644E-3   1.138670500371074E-3  
 2.033600000000000E10    5.902237933389691E-3   5.757588924235181E-4  
 2.033800000000000E10    5.709598885289559E-3  -1.023655130517694E-3  
 2.034000000000000E10    5.341418190962739E-3  -1.896448971560565E-3  
 2.034200000000000E10    4.921274857572568E-3  -2.634659872309846E-3  
 2.034400000000000E10    4.501086536447412E-3  -3.333086936143119E-3  
 2.034600000000000E10    4.009475202691858E-3  -4.060949675421983E-3  
 2.034800000000000E10    3.325889777808626E-3  -4.819223713461919E-3  
 2.035000000000000E10    2.379923674376332E-3  -5.421912288024961E-3  
 2.035200000000000E10    1.329281329833973E-3  -5.724673528627932E-3  
 2.035400000000000E10    3.059153985901224E-4  -5.806614182996776E-3  
 2.035600000000000E10   -6.398947234616829E-4  -5.748957971721602E-3  
 2.035800000000000E10   -1.590350016329402E-3  -5.591891296540065E-3  
 2.036000000000000E10   -2.547223648868900E-3  -5.251749680570452E-3  
 2.036200000000000E10   -3.440441877040783E-3  -4.743253837744559E-3  
 2.036400000000000E10   -4.217725640625294E-3  -4.058703117772672E-3  
 2.036600000000000E10   -4.842322694702363E-3  -3.247641903362321E-3  
 2.036800000000000E10   -5.303638958498652E-3  -2.367758156989787E-3  
 2.037000000000000E10   -5.605884765713018E-3  -1.413100130315640E-3  
 2.037200000000000E10   -5.766317085458787E-3  -4.534571262224053E-4  
 2.037400000000000E10   -5.775115529358879E-3   5.654498333665857E-4  
 2.037600000000000E10   -5.555455617616861E-3   1.608350608990987E-3  
 2.037800000000000E10   -5.074241478379373E-3   2.534803209394544E-3  
 2.038000000000000E10   -4.478556839225429E-3   3.248449287215052E-3  
 2.038200000000000E10   -3.841392768723240E-3   3.814857010442166E-3  
 2.038400000000000E10   -3.233567734896647E-3   4.259363394256156E-3  
 2.038600000000000E10   -2.627844516946762E-3   4.693472452604804E-3  
 2.038800000000000E10   -1.965540726969354E-3   5.109847856069749E-3  
 2.039000000000000E10   -1.194199324561224E-3   5.505339865315967E-3  
 2.039200000000000E10   -2.585013445105215E-4   5.802364021524359E-3  
 2.039400000000000E10    7.974062884189394E-4   5.906292405337178E-3  
 2.039600000000000E10    1.917455208057280E-3   5.745305022447076E-3  
 2.039800000000000E10    2.959504228504311E-3   5.320010272420648E-3  
 2.040000000000000E10    3.856999469047160E-3   4.724292250015404E-3  
 2.040200000000000E10    4.644852844469342E-3   3.993709263773776E-3  
 2.040400000000000E10    5.306404223857226E-3   3.143441715483415E-3  
 2.040600000000000E10    5.860102247952680E-3   2.194062776643840E-3  
 2.040800000000000E10    6.265808908659736E-3   1.026558371267789E-3  
 2.041000000000000E10    6.315501314167584E-3  -2.504358851716219E-4  
 2.041200000000000E10    6.026272338128999E-3  -1.431760727108516E-3  
 2.041400000000000E10    5.529672192315098E-3  -2.431365695177733E-3  
 2.041600000000000E10    4.917271599423944E-3  -3.264199942031005E-3  
 2.041800000000000E10    4.222354168182211E-3  -3.935944672868127E-3  
 2.042000000000000E10    3.515094136039948E-3  -4.460450126412639E-3  
 2.042200000000000E10    2.762062884854416E-3  -4.920098295662711E-3  
 2.042400000000000E10    1.960796252786040E-3  -5.265473541439561E-3  
 2.042600000000000E10    1.118895003383031E-3  -5.534551595689012E-3  
 2.042800000000000E10    1.916291405921432E-4  -5.682971980039475E-3  
 2.043000000000000E10   -7.903354165153210E-4  -5.637521472272805E-3  
 2.043200000000000E10   -1.701518400752373E-3  -5.371354938074641E-3  
 2.043400000000000E10   -2.495734178843118E-3  -5.001044975892630E-3  
 2.043600000000000E10   -3.212616650837338E-3  -4.578417532442366E-3  
 2.043800000000000E10   -3.883420048979085E-3  -4.094936033462997E-3  
 2.044000000000000E10   -4.585542699477965E-3  -3.521918642381910E-3  
 2.044200000000000E10   -5.255476048469177E-3  -2.763433599415324E-3  
 2.044400000000000E10   -5.765329912274218E-3  -1.815215187832018E-3  
 2.044600000000000E10   -6.092448479308146E-3  -7.298080355538355E-4  
 2.044800000000000E10   -6.158397460818824E-3   4.513051215685721E-4  
 2.045000000000000E10   -5.915051627653782E-3   1.566150504361138E-3  
 2.045200000000000E10   -5.495669691988225E-3   2.571176139980208E-3  
 2.045400000000000E10   -4.903840570517693E-3   3.438064032611125E-3  
 2.045600000000000E10   -4.222299228454283E-3   4.141567228936856E-3  
 2.045800000000000E10   -3.496782979397781E-3   4.767620966058169E-3  
 2.046000000000000E10   -2.648978898766744E-3   5.283852534519384E-3  
 2.046200000000000E10   -1.715403758097997E-3   5.632089384523603E-3  
 2.046400000000000E10   -7.757151135133610E-4   5.802159416086881E-3  
 2.046600000000000E10    1.546717110623808E-4   5.860976959784377E-3  
 2.046800000000000E10    1.119061616704185E-3   5.792572118331703E-3  
 2.047000000000000E10    2.079133098927137E-3   5.544060854616848E-3  
 2.047200000000000E10    2.962915540771210E-3   5.167885194181252E-3  
 2.047400000000000E10    3.822893504722784E-3   4.641048707303034E-3  
 2.047600000000000E10    4.581105950274423E-3   3.964669957108010E-3  
 2.047800000000000E10    5.262991615963285E-3   3.168343920235117E-3  
 2.048000000000000E10    5.810437595602049E-3   2.190510888963386E-3  
 2.048200000000000E10    6.116128637773512E-3   1.084895666071632E-3  
 2.048400000000000E10    6.172444841943283E-3  -2.990695308101130E-5  
 2.048600000000000E10    6.004569324471865E-3  -1.092860815645450E-3  
 2.048800000000000E10    5.684765679212429E-3  -2.063382041687849E-3  
 2.049000000000000E10    5.254878518165222E-3  -2.931115619610837E-3  
 2.049200000000000E10    4.728780288392339E-3  -3.769573190253336E-3  
 2.049400000000000E10    4.050753263319717E-3  -4.558736092407150E-3  
 2.049600000000000E10    3.166417481725210E-3  -5.212125485310708E-3  
 2.049800000000000E10    2.165493983341016E-3  -5.617883458825542E-3  
 2.050000000000000E10    1.191440713879319E-3  -5.789106919983370E-3  
 2.050200000000000E10    2.964423559259545E-4  -5.847565838696617E-3  
 2.050400000000000E10   -5.948207345446228E-4  -5.818198245933436E-3  
 2.050600000000000E10   -1.463674609606833E-3  -5.679975347452898E-3  
 2.050800000000000E10   -2.333152188059704E-3  -5.496909692423580E-3  
 2.051000000000000E10   -3.307453010790817E-3  -5.172976410202939E-3  
 2.051200000000000E10   -4.256855124104335E-3  -4.552908046924815E-3  
 2.051400000000000E10   -5.012221505356997E-3  -3.749664387102297E-3  
 2.051600000000000E10   -5.612364721667170E-3  -2.852399996705405E-3  
 2.051800000000000E10   -6.061277552846366E-3  -1.857541572744607E-3  
 2.052000000000000E10   -6.352052977244755E-3  -7.931879941637237E-4  
 2.052200000000000E10   -6.455691273238598E-3   3.592571723837003E-4  
 2.052400000000000E10   -6.312786453928600E-3   1.552362321232112E-3  
 2.052600000000000E10   -5.903279862337235E-3   2.674751587988827E-3  
 2.052800000000000E10   -5.290677310421103E-3   3.665757785833586E-3  
 2.053000000000000E10   -4.532504739273029E-3   4.525662962582337E-3  
 2.053200000000000E10   -3.612529424457353E-3   5.227637956294504E-3  
 2.053400000000000E10   -2.549107664932889E-3   5.683837602852713E-3  
 2.053600000000000E10   -1.518207700892425E-3   5.843363371415803E-3  
 2.053800000000000E10   -6.587960704936250E-4   5.843054488510794E-3  
 2.054000000000000E10    1.287336197196871E-4   5.869295778307446E-3  
 2.054200000000000E10    9.611190166720414E-4   5.921764629516133E-3  
 2.054400000000000E10    1.958000873226995E-3   5.846151540411026E-3  
 2.054600000000000E10    3.007402433087572E-3   5.516202308477730E-3  
 2.054800000000000E10    3.960506476983122E-3   4.994369907220328E-3  
 2.055000000000000E10    4.860732994401325E-3   4.285449718491818E-3  
 2.055200000000000E10    5.637634092678709E-3   3.362866009959878E-3  
 2.055400000000000E10    6.205681155707857E-3   2.283529210477986E-3  
 2.055600000000000E10    6.565160079717393E-3   1.088012116054132E-3  
