#  HZ   S   RI   R     50.00 
! Rohde & Schwarz ZVA40 4Ports - Version 3.90 - 1145.1110k42 SN: 100403
! Date: 2023-09-30 07:07:48
! Measurement: S12 
! 
 2.000000000000000E10   -9.005893392817965E-2   2.828284220580075E-2  
 2.000200000000000E10   -8.470588228884604E-2   4.241995015711779E-2  
 2.000400000000000E10   -7.641558058195373E-2   5.611569476648178E-2  
 2.000600000000000E10   -6.579222930761360E-2   6.831163607766000E-2  
 2.000800000000000E10   -5.332264141488360E-2   7.836284527276607E-2  
 2.001000000000000E10   -3.919228186100981E-2   8.635330971485414E-2  
 2.001200000000000E10   -2.406394999997225E-2   9.173512401227055E-2  
 2.001400000000000E10   -8.234088562912714E-3   9.448122207601704E-2  
 2.001600000000000E10    7.938352275501801E-3   9.456482710879746E-2  
 2.001800000000000E10    2.379950202803908E-2   9.192091057943219E-2  
 2.002000000000000E10    3.921349678115318E-2   8.647840524243067E-2  
 2.002200000000000E10    5.426639940540270E-2   7.783199339137539E-2  
 2.002400000000000E10    6.655612698307745E-2   6.757115272214875E-2  
 2.002600000000000E10    7.687322056124514E-2   5.530818117076423E-2  
 2.002800000000000E10    8.503122780357915E-2   4.156741920124465E-2  
 2.003000000000000E10    9.073759963251328E-2   2.673290534840091E-2  
 2.003200000000000E10    9.389736119080311E-2   1.118610719338939E-2  
 2.003400000000000E10    9.438053053511189E-2  -4.953505559924481E-3  
 2.003600000000000E10    9.213783165459553E-2  -2.074933915591071E-2  
 2.003800000000000E10    8.734146399984745E-2  -3.577684087633651E-2  
 2.004000000000000E10    8.014402586232598E-2  -5.002362461471919E-2  
 2.004200000000000E10    7.051790516208611E-2  -6.289559238214280E-2  
 2.004400000000000E10    5.872145294121101E-2  -7.389556105530967E-2  
 2.004600000000000E10    4.547698297216351E-2  -8.247695625114508E-2  
 2.004800000000000E10    3.077914021912644E-2  -8.884497497198406E-2  
 2.005000000000000E10    1.564559748010462E-2  -9.266873162919440E-2  
 2.005200000000000E10   -6.152739557892158E-5  -9.406706188972761E-2  
 2.005400000000000E10   -1.581507405946666E-2  -9.291176880855893E-2  
 2.005600000000000E10   -3.131010316935751E-2  -8.906014819612884E-2  
 2.005800000000000E10   -4.602097891949060E-2  -8.254034861506641E-2  
 2.006000000000000E10   -5.930512454692884E-2  -7.357025284458091E-2  
 2.006200000000000E10   -7.093408084455342E-2  -6.249293372900344E-2  
 2.006400000000000E10   -8.031961703728366E-2  -4.982359022086050E-2  
 2.006600000000000E10   -8.768938520644756E-2  -3.547222062836350E-2  
 2.006800000000000E10   -9.256890368791385E-2  -2.022452916307814E-2  
 2.007000000000000E10   -9.481291659602198E-2  -4.274049929884414E-3  
 2.007200000000000E10   -9.414491682536101E-2   1.201711111256166E-2  
 2.007400000000000E10   -9.064805315178065E-2   2.788439890004399E-2  
 2.007600000000000E10   -8.458718395854548E-2   4.270576232227497E-2  
 2.007800000000000E10   -7.630460374108396E-2   5.633894371990478E-2  
 2.008000000000000E10   -6.574546674519410E-2   6.855897321976862E-2  
 2.008200000000000E10   -5.279846436113707E-2   7.893467589592793E-2  
 2.008400000000000E10   -3.884077911057809E-2   8.644130470671500E-2  
 2.008600000000000E10   -2.355178327363106E-2   9.161477194265194E-2  
 2.008800000000000E10   -7.821485751521851E-3   9.421825079161336E-2  
 2.009000000000000E10    8.219784444217603E-3   9.420844940123738E-2  
 2.009200000000000E10    2.396378384168066E-2   9.148241452460537E-2  
 2.009400000000000E10    3.903110605542334E-2   8.611396448043694E-2  
 2.009600000000000E10    5.322613789064186E-2   7.817087262514580E-2  
 2.009800000000000E10    6.555949539545743E-2   6.804534632441767E-2  
 2.010000000000000E10    7.611312219812602E-2   5.576322095363884E-2  
 2.010200000000000E10    8.414768956679977E-2   4.212513322604265E-2  
 2.010400000000000E10    8.987122214734419E-2   2.737856212241987E-2  
 2.010600000000000E10    9.314185131560956E-2   1.197060247798884E-2  
 2.010800000000000E10    9.392210887510812E-2  -3.705925952471116E-3  
 2.011000000000000E10    9.204080297854812E-2  -1.947234502419060E-2  
 2.011200000000000E10    8.754877185012089E-2  -3.475721224045503E-2  
 2.011400000000000E10    8.050670613763428E-2  -4.910676537322629E-2  
 2.011600000000000E10    7.098761037721121E-2  -6.216563271962458E-2  
 2.011800000000000E10    5.951776051111128E-2  -7.322321732362003E-2  
 2.012000000000000E10    4.612042582165885E-2  -8.235418991405888E-2  
 2.012200000000000E10    3.150546712401419E-2  -8.889619220485959E-2  
 2.012400000000000E10    1.603461098595330E-2  -9.283823966911846E-2  
 2.012600000000000E10    1.258280893636726E-4  -9.409341291036029E-2  
 2.012800000000000E10   -1.560115488097038E-2  -9.274092547265048E-2  
 2.013000000000000E10   -3.099124429463850E-2  -8.879495187605906E-2  
 2.013200000000000E10   -4.536270775381267E-2  -8.242211431932603E-2  
 2.013400000000000E10   -5.875356366093922E-2  -7.366662129085252E-2  
 2.013600000000000E10   -7.055244185660713E-2  -6.272089331797068E-2  
 2.013800000000000E10   -8.023417658616705E-2  -4.997721528033989E-2  
 2.014000000000000E10   -8.767610019099295E-2  -3.530840306561126E-2  
 2.014200000000000E10   -9.227693480855535E-2  -1.993836914148705E-2  
 2.014400000000000E10   -9.410108804743642E-2  -4.219329889112540E-3  
 2.014600000000000E10   -9.338758839187855E-2   1.175916839815135E-2  
 2.014800000000000E10   -9.012347541214619E-2   2.716411781852029E-2  
 2.015000000000000E10   -8.428551802760018E-2   4.203990108287112E-2  
 2.015200000000000E10   -7.618286519574968E-2   5.551858552934703E-2  
 2.015400000000000E10   -6.564786304239820E-2   6.785845198163064E-2  
 2.015600000000000E10   -5.312171865767359E-2   7.810372712067618E-2  
 2.015800000000000E10   -3.916984538121425E-2   8.594308488980570E-2  
 2.016000000000000E10   -2.395660698219664E-2   9.132433121927701E-2  
 2.016200000000000E10   -8.108628585433847E-3   9.405834439019392E-2  
 2.016400000000000E10    7.901352854930190E-3   9.397708556466200E-2  
 2.016600000000000E10    2.370576696852789E-2   9.119029840174256E-2  
 2.016800000000000E10    3.855305458033636E-2   8.588892358743171E-2  
 2.017000000000000E10    5.250372291871769E-2   7.810411362763570E-2  
 2.017200000000000E10    6.489932797355200E-2   6.821560978576045E-2  
 2.017400000000000E10    7.560248898148919E-2   5.634801145804818E-2  
 2.017600000000000E10    8.423922296782091E-2   4.246750824872250E-2  
 2.017800000000000E10    9.007573813527048E-2   2.772605630974139E-2  
 2.018000000000000E10    9.337183601803360E-2   1.188759056397318E-2  
 2.018200000000000E10    9.388261699259529E-2  -4.002122115854824E-3  
 2.018400000000000E10    9.177923080212024E-2  -1.964658663565976E-2  
 2.018600000000000E10    8.704126446716962E-2  -3.479229788128568E-2  
 2.018800000000000E10    7.998298458792491E-2  -4.879774021731702E-2  
 2.019000000000000E10    7.069725684641048E-2  -6.152872131923644E-2  
 2.019200000000000E10    5.931817475496824E-2  -7.265484088433079E-2  
 2.019400000000000E10    4.627178999785697E-2  -8.166619105444253E-2  
 2.019600000000000E10    3.180926089921552E-2  -8.844566580962526E-2  
 2.019800000000000E10    1.641711309657803E-2  -9.252013888160662E-2  
 2.020000000000000E10    4.656307962346204E-4  -9.395292808421411E-2  
 2.020200000000000E10   -1.543201353344735E-2  -9.256397937878007E-2  
 2.020400000000000E10   -3.054663291516973E-2  -8.861074212361103E-2  
 2.020600000000000E10   -4.494011931540382E-2  -8.221543927101660E-2  
 2.020800000000000E10   -5.818074605728756E-2  -7.355504000246881E-2  
 2.021000000000000E10   -6.980259439541317E-2  -6.290315328379664E-2  
 2.021200000000000E10   -7.960071694403956E-2  -5.021315088958081E-2  
 2.021400000000000E10   -8.697979930306224E-2  -3.604130971721989E-2  
 2.021600000000000E10   -9.184985262757849E-2  -2.065602067907379E-2  
 2.021800000000000E10   -9.395823940791442E-2  -4.863951624352800E-3  
 2.022000000000000E10   -9.341826000317735E-2   1.093803837496803E-2  
 2.022200000000000E10   -9.020502799223372E-2   2.662347725055564E-2  
 2.022400000000000E10   -8.451523233901763E-2   4.132880208307770E-2  
 2.022600000000000E10   -7.646289619753011E-2   5.508238640641536E-2  
 2.022800000000000E10   -6.590395141776208E-2   6.741649531437810E-2  
 2.023000000000000E10   -5.358472632888960E-2   7.752153350983138E-2  
 2.023200000000000E10   -3.977226497793667E-2   8.539936027886066E-2  
 2.023400000000000E10   -2.459322685690084E-2   9.096536877005954E-2  
 2.023600000000000E10   -8.925870182286485E-3   9.377398697900405E-2  
 2.023800000000000E10    7.237803513098171E-3   9.379499919020973E-2  
 2.024000000000000E10    2.273970013752642E-2   9.103463126485295E-2  
 2.024200000000000E10    3.763031374933953E-2   8.581579808753870E-2  
 2.024400000000000E10    5.140994506056418E-2   7.821143620911941E-2  
 2.024600000000000E10    6.373381158520111E-2   6.857161030384522E-2  
 2.024800000000000E10    7.434284273121093E-2   5.691530871463521E-2  
 2.025000000000000E10    8.290990884575498E-2   4.357692352476925E-2  
 2.025200000000000E10    8.906156865085269E-2   2.934358324421205E-2  
 2.025400000000000E10    9.291815135677384E-2   1.377123022544831E-2  
 2.025600000000000E10    9.398097185836192E-2  -2.207307500260528E-3  
 2.025800000000000E10    9.224114250553545E-2  -1.809656985485642E-2  
 2.026000000000000E10    8.766711103313854E-2  -3.345826315379710E-2  
 2.026200000000000E10    8.057401117037899E-2  -4.758342515948053E-2  
 2.026400000000000E10    7.130291880839593E-2  -6.022589986911364E-2  
 2.026600000000000E10    6.022865235274059E-2  -7.119518256468158E-2  
 2.026800000000000E10    4.763226856992406E-2  -8.011216967344068E-2  
 2.027000000000000E10    3.368838670206605E-2  -8.705820320714922E-2  
 2.027200000000000E10    1.880502519140273E-2  -9.158232918151396E-2  
 2.027400000000000E10    3.017279564858226E-3  -9.362241489856170E-2  
 2.027600000000000E10   -1.287684547721277E-2  -9.286897831520209E-2  
 2.027800000000000E10   -2.819307825123959E-2  -8.948719922230024E-2  
 2.028000000000000E10   -4.296059913466552E-2  -8.348824260275170E-2  
 2.028200000000000E10   -5.656880710595921E-2  -7.505880027437081E-2  
 2.028400000000000E10   -6.843069122161397E-2  -6.453254893183655E-2  
 2.028600000000000E10   -7.844403989112264E-2  -5.184196628490485E-2  
 2.028800000000000E10   -8.596513374011486E-2  -3.783211555071329E-2  
 2.029000000000000E10   -9.104995860470777E-2  -2.296651411370622E-2  
 2.029200000000000E10   -9.371133924729759E-2  -7.354273655416490E-3  
 2.029400000000000E10   -9.371734643546643E-2   8.595994612347689E-3  
 2.029600000000000E10   -9.092236129344737E-2   2.440518339321693E-2  
 2.029800000000000E10   -8.544081733632318E-2   3.946877951096279E-2  
 2.030000000000000E10   -7.765463166616801E-2   5.310384441843359E-2  
 2.030200000000000E10   -6.740836029558026E-2   6.549379181850977E-2  
 2.030400000000000E10   -5.548371960739868E-2   7.584621761016341E-2  
 2.030600000000000E10   -4.206369966472946E-2   8.408491272576391E-2  
 2.030800000000000E10   -2.714416410247649E-2   9.007873389551398E-2  
 2.031000000000000E10   -1.163414854106630E-2   9.340926627685996E-2  
 2.031200000000000E10    4.226660220293992E-3   9.404104092266119E-2  
 2.031400000000000E10    2.027985756807149E-2   9.186971034968779E-2  
 2.031600000000000E10    3.488266392588398E-2   8.722632045840151E-2  
 2.031800000000000E10    4.898073206556461E-2   8.014209864888500E-2  
 2.032000000000000E10    6.181086704925309E-2   7.070212854838122E-2  
 2.032200000000000E10    7.270212334874128E-2   5.943016784549252E-2  
 2.032400000000000E10    8.179128838078750E-2   4.627199462990975E-2  
 2.032600000000000E10    8.846556186117319E-2   3.182718838779252E-2  
 2.032800000000000E10    9.254365738363751E-2   1.637713331005238E-2  
 2.033000000000000E10    9.392441522328344E-2   3.595697599521506E-4  
 2.033200000000000E10    9.252072710613711E-2  -1.544537053115165E-2  
 2.033400000000000E10    8.854083566290635E-2  -3.077068442762389E-2  
 2.033600000000000E10    8.589189810312989E-2  -3.751197310652590E-2  
 2.033800000000000E10    7.278271357749880E-2  -5.860605051508494E-2  
 2.034000000000000E10    6.169376125244939E-2  -6.986819223339394E-2  
 2.034200000000000E10    4.908504677748213E-2  -7.897763142628816E-2  
 2.034400000000000E10    3.536757408114510E-2  -8.594542249839603E-2  
 2.034600000000000E10    2.033754530229496E-2  -9.067740523357287E-2  
 2.034800000000000E10    4.875799358252201E-3  -9.274876815410418E-2  
 2.035000000000000E10   -1.059734852534004E-2  -9.214993353011569E-2  
 2.035200000000000E10   -2.583742996905158E-2  -8.899462824686510E-2  
 2.035400000000000E10   -4.022166421138701E-2  -8.340988073465648E-2  
 2.035600000000000E10   -5.353330091752580E-2  -7.554634550784788E-2  
 2.035800000000000E10   -6.544078681422089E-2  -6.561091352487516E-2  
 2.036000000000000E10   -7.551724899425648E-2  -5.378067158895047E-2  
 2.036200000000000E10   -8.346684051530244E-2  -4.022789446898504E-2  
 2.036400000000000E10   -8.889416407982836E-2  -2.588380050556296E-2  
 2.036600000000000E10   -9.197552884393596E-2  -1.094401224035554E-2  
 2.036800000000000E10   -9.262251278882056E-2   4.644657932962860E-3  
 2.037000000000000E10   -9.068382260567204E-2   1.999259242727488E-2  
 2.037200000000000E10   -8.643307179130809E-2   3.474185416652942E-2  
 2.037400000000000E10   -7.952165723896268E-2   4.906267434644765E-2  
 2.037600000000000E10   -7.034376023782679E-2   6.180547548106233E-2  
 2.037800000000000E10   -5.903902042454436E-2   7.295768179602422E-2  
 2.038000000000000E10   -4.595389192439293E-2   8.203316929272773E-2  
 2.038200000000000E10   -3.143816461397406E-2   8.877770780195207E-2  
 2.038400000000000E10   -1.607588104644785E-2   9.292002757444849E-2  
 2.038600000000000E10   -1.014257248532276E-4   9.447969026117498E-2  
 2.038800000000000E10    1.596830111588034E-2   9.321914024899745E-2  
 2.039000000000000E10    3.164607600726709E-2   8.921714429924574E-2  
 2.039200000000000E10    4.625940844791363E-2   8.255670985839769E-2  
 2.039400000000000E10    5.963612437779686E-2   7.356413106668690E-2  
 2.039600000000000E10    7.126738226094856E-2   6.251893182309404E-2  
 2.039800000000000E10    8.085563066524081E-2   4.955400973830968E-2  
 2.040000000000000E10    8.803107621166116E-2   3.513845943244942E-2  
 2.040200000000000E10    9.265759632938467E-2   1.955666471226716E-2  
 2.040400000000000E10    9.438252946081696E-2   3.669596415470433E-3  
 2.040600000000000E10    9.357751524361183E-2  -1.220899357221541E-2  
 2.040800000000000E10    9.022224905368778E-2  -2.773609421176348E-2  
 2.041000000000000E10    8.440779165544084E-2  -4.250137096549422E-2  
 2.041200000000000E10    7.608217274524004E-2  -5.627869982928188E-2  
 2.041400000000000E10    6.537151554361784E-2  -6.847626222599901E-2  
 2.041600000000000E10    5.284709324289470E-2  -7.844285160016949E-2  
 2.041800000000000E10    3.861632266571166E-2  -8.626210130154952E-2  
 2.042000000000000E10    2.361872732966362E-2  -9.136578673347798E-2  
 2.042200000000000E10    7.982714902686240E-3  -9.386922031041420E-2  
 2.042400000000000E10   -8.044495862650176E-3  -9.376897982091301E-2  
 2.042600000000000E10   -2.361744347317583E-2  -9.099087655326249E-2  
 2.042800000000000E10   -3.836027212239970E-2  -8.576489324759393E-2  
 2.043000000000000E10   -5.229416821419404E-2  -7.811439742862662E-2  
 2.043200000000000E10   -6.476572412140685E-2  -6.826396402998718E-2  
 2.043400000000000E10   -7.531773912535993E-2  -5.638430823555374E-2  
 2.043600000000000E10   -8.374652597639297E-2  -4.294556179000845E-2  
 2.043800000000000E10   -8.977278568630739E-2  -2.827459581581272E-2  
 2.044000000000000E10   -9.322386756914090E-2  -1.266300515410123E-2  
 2.044200000000000E10   -9.396897866865464E-2   3.036598464479193E-3  
 2.044400000000000E10   -9.220374807899381E-2   1.877989207326712E-2  
 2.044600000000000E10   -8.771721652832870E-2   3.409355098341610E-2  
 2.044800000000000E10   -8.066006337650629E-2   4.845210749555463E-2  
 2.045000000000000E10   -7.139566116917337E-2   6.128353369177397E-2  
 2.045200000000000E10   -6.014308361502670E-2   7.247677533306050E-2  
 2.045400000000000E10   -4.715699040738481E-2   8.167264998899404E-2  
 2.045600000000000E10   -3.269794682457287E-2   8.852632870113246E-2  
 2.045800000000000E10   -1.711168878843346E-2   9.275889351357596E-2  
 2.046000000000000E10   -1.218287360155636E-3   9.419435583596697E-2  
 2.046200000000000E10    1.454173247395897E-2   9.301131320533876E-2  
 2.046400000000000E10    3.003523964051602E-2   8.924279547631606E-2  
 2.046600000000000E10    4.462378143678260E-2   8.296708709840968E-2  
 2.046800000000000E10    5.798820536507011E-2   7.435719065528294E-2  
 2.047000000000000E10    6.997600534379783E-2   6.332508313108048E-2  
 2.047200000000000E10    7.956356365126348E-2   5.067174679335253E-2  
 2.047400000000000E10    8.690136018331378E-2   3.657376709311970E-2  
 2.047600000000000E10    9.184923917259537E-2   2.133606653192107E-2  
 2.047800000000000E10    9.416010118015948E-2   5.671962955774962E-3  
 2.048000000000000E10    9.377729967679399E-2  -1.034109165383547E-2  
 2.048200000000000E10    9.062013035843676E-2  -2.615157712658056E-2  
 2.048400000000000E10    8.494269504127953E-2  -4.093083024031777E-2  
 2.048600000000000E10    7.683612782019267E-2  -5.467924922295886E-2  
 2.048800000000000E10    6.646048749452539E-2  -6.709688126523038E-2  
 2.049000000000000E10    5.436191365981299E-2  -7.726060993591291E-2  
 2.049200000000000E10    4.029710953999831E-2  -8.545653056651423E-2  
 2.049400000000000E10    2.530056441728253E-2  -9.096679743847785E-2  
 2.049600000000000E10    9.754100958397252E-3  -9.393661732563541E-2  
 2.049800000000000E10   -6.349596428285875E-3  -9.428501718519594E-2  
 2.050000000000000E10   -2.234909675715583E-2  -9.188129644539458E-2  
 2.050200000000000E10   -3.751320161085507E-2  -8.674212523693903E-2  
 2.050400000000000E10   -5.169026463692408E-2  -7.906847985084056E-2  
 2.050600000000000E10   -6.439986851562035E-2  -6.907353714401450E-2  
 2.050800000000000E10   -7.503330060265956E-2  -5.714782027448483E-2  
 2.051000000000000E10   -8.354275973422592E-2  -4.357559896177717E-2  
 2.051200000000000E10   -8.956874380331908E-2  -2.880461577958014E-2  
 2.051400000000000E10   -9.304229516892004E-2  -1.338064467264438E-2  
 2.051600000000000E10   -9.390334731157808E-2   2.506927910095203E-3  
 2.051800000000000E10   -9.213443207424638E-2   1.830731950373235E-2  
 2.052000000000000E10   -8.773523923409929E-2   3.353523733337067E-2  
 2.052200000000000E10   -8.063793662725981E-2   4.796632542306832E-2  
 2.052400000000000E10   -7.147827436512991E-2   6.063461038324460E-2  
 2.052600000000000E10   -6.029468101790414E-2   7.170277481339107E-2  
 2.052800000000000E10   -4.735913358809309E-2   8.091558557247321E-2  
 2.053000000000000E10   -3.307679154840736E-2   8.778218876282594E-2  
 2.053200000000000E10   -1.769724176199294E-2   9.205554316359457E-2  
 2.053400000000000E10   -1.872948037969757E-3   9.354266603011001E-2  
 2.053600000000000E10    1.376297743330958E-2   9.245571818766554E-2  
 2.053800000000000E10    2.898385433738206E-2   8.880694982160103E-2  
 2.054000000000000E10    4.354632230391228E-2   8.269020173039457E-2  
 2.054200000000000E10    5.664468274562939E-2   7.440900769226073E-2  
 2.054400000000000E10    6.828893023740228E-2   6.403914845842831E-2  
 2.054600000000000E10    7.832576653008382E-2   5.170208498133772E-2  
 2.054800000000000E10    8.606901798255924E-2   3.794204412861998E-2  
 2.055000000000000E10    9.148327702725376E-2   2.278755713640881E-2  
 2.055200000000000E10    9.417319816299155E-2   6.943516288664676E-3  
 2.055400000000000E10    9.407103400307811E-2  -9.110537354647435E-3  
 2.055600000000000E10    9.125883747139205E-2  -2.505091510910693E-2  
