#  HZ   S   RI   R     50.00 
! Rohde & Schwarz ZVA40 4Ports - Version 3.90 - 1145.1110k42 SN: 100403
! Date: 2023-09-30 08:46:41
! Measurement: S12 
! 
 2.000000000000000E10   -9.663442221129928E-2  -1.681672660595596E-2  
 2.000200000000000E10   -9.840744516799918E-2  -1.094861975784793E-3  
 2.000400000000000E10   -9.722043140176012E-2   1.551869799816069E-2  
 2.000600000000000E10   -9.317201160654175E-2   3.189260430998546E-2  
 2.000800000000000E10   -8.646420438130480E-2   4.715354357018665E-2  
 2.001000000000000E10   -7.716921232487439E-2   6.128232455997638E-2  
 2.001200000000000E10   -6.571664586901721E-2   7.343928013073565E-2  
 2.001400000000000E10   -5.210074702823715E-2   8.371679987000395E-2  
 2.001600000000000E10   -3.712187974684360E-2   9.131762190842445E-2  
 2.001800000000000E10   -2.099265798476662E-2   9.633153054231264E-2  
 2.002000000000000E10   -4.137179827373808E-3   9.829215761946936E-2  
 2.002200000000000E10    1.401018116377877E-2   9.717533287728930E-2  
 2.002400000000000E10    2.983419860746826E-2   9.328416729142365E-2  
 2.002600000000000E10    4.507461098411556E-2   8.676842454297935E-2  
 2.002800000000000E10    5.890902316101514E-2   7.793855217081476E-2  
 2.003000000000000E10    7.111167869559151E-2   6.688985633261411E-2  
 2.003200000000000E10    8.129996642177380E-2   5.385327188763982E-2  
 2.003400000000000E10    8.913417550244178E-2   3.937458545378371E-2  
 2.003600000000000E10    9.436755143634035E-2   2.388368925453595E-2  
 2.003800000000000E10    9.698038114891461E-2   7.629855906196489E-3  
 2.004000000000000E10    9.679966987501178E-2  -8.848589062724805E-3  
 2.004200000000000E10    9.388433208422517E-2  -2.494416192896191E-2  
 2.004400000000000E10    8.838786841610768E-2  -4.029412555351179E-2  
 2.004600000000000E10    8.016412802275645E-2  -5.481027576017991E-2  
 2.004800000000000E10    6.967885797024864E-2  -6.743201974201923E-2  
 2.005000000000000E10    5.723572231464644E-2  -7.806208299811050E-2  
 2.005200000000000E10    4.339881301110174E-2  -8.648457598566302E-2  
 2.005400000000000E10    2.829708583026130E-2  -9.259346443657250E-2  
 2.005600000000000E10    1.235850797144242E-2  -9.607242522348158E-2  
 2.005800000000000E10   -4.069736753311477E-3  -9.684219356808536E-2  
 2.006000000000000E10   -2.049172172006893E-2  -9.477203022850450E-2  
 2.006200000000000E10   -3.595964103650982E-2  -9.000157854112252E-2  
 2.006400000000000E10   -5.076375039857331E-2  -8.248300645645210E-2  
 2.006600000000000E10   -6.384349426328728E-2  -7.274125242511269E-2  
 2.006800000000000E10   -7.521499837499589E-2  -6.098006369318656E-2  
 2.007000000000000E10   -8.443665853988978E-2  -4.756586551734396E-2  
 2.007200000000000E10   -9.143932224355664E-2  -3.244433868514603E-2  
 2.007400000000000E10   -9.561614057532064E-2  -1.646077401755496E-2  
 2.007600000000000E10   -9.693893432535428E-2   8.186942652982722E-5  
 2.007800000000000E10   -9.533933942577968E-2   1.655919141437182E-2  
 2.008000000000000E10   -9.112381938867065E-2   3.222373496037562E-2  
 2.008200000000000E10   -8.413915290140812E-2   4.720646929580108E-2  
 2.008400000000000E10   -7.483114920825681E-2   6.060293391278798E-2  
 2.008600000000000E10   -6.360280634022000E-2   7.208905973061613E-2  
 2.008800000000000E10   -5.064553184205668E-2   8.166677181817214E-2  
 2.009000000000000E10   -3.613744262532661E-2   8.904096813958479E-2  
 2.009200000000000E10   -2.041872720492584E-2   9.387075035374189E-2  
 2.009400000000000E10   -4.487798783023663E-3   9.586919664955054E-2  
 2.009600000000000E10    1.183448562072356E-2   9.518819189897455E-2  
 2.009800000000000E10    2.753297492323481E-2   9.173758444812782E-2  
 2.010000000000000E10    4.263574041334200E-2   8.561740598628988E-2  
 2.010200000000000E10    5.628604504224860E-2   7.715116129190780E-2  
 2.010400000000000E10    6.831660684135117E-2   6.660716279925526E-2  
 2.010600000000000E10    7.839412891842976E-2   5.431298873756486E-2  
 2.010800000000000E10    8.647310671110813E-2   4.042344003622807E-2  
 2.011000000000000E10    9.211608890834115E-2   2.525644184392122E-2  
 2.011200000000000E10    9.509815711052821E-2   9.434321850528036E-3  
 2.011400000000000E10    9.529183383232176E-2  -6.641442144811700E-3  
 2.011600000000000E10    9.272884825184077E-2  -2.276881375304493E-2  
 2.011800000000000E10    8.747699124986418E-2  -3.799338400990766E-2  
 2.012000000000000E10    7.982844195043765E-2  -5.212991555218399E-2  
 2.012200000000000E10    6.994129139563785E-2  -6.469787451833364E-2  
 2.012400000000000E10    5.802580189073964E-2  -7.553162604270595E-2  
 2.012600000000000E10    4.465890023729602E-2  -8.406238957973830E-2  
 2.012800000000000E10    2.994169838212100E-2  -9.039812313948913E-2  
 2.013000000000000E10    1.442542118814557E-2  -9.425052229841389E-2  
 2.013200000000000E10   -1.526305481053082E-3  -9.545475662531351E-2  
 2.013400000000000E10   -1.768521067635704E-2  -9.395535380179665E-2  
 2.013600000000000E10   -3.347600241386297E-2  -8.970052412671481E-2  
 2.013800000000000E10   -4.811842903617480E-2  -8.281893909631607E-2  
 2.014000000000000E10   -6.158932390234000E-2  -7.339143435541877E-2  
 2.014200000000000E10   -7.304344550422409E-2  -6.198461071188232E-2  
 2.014400000000000E10   -8.243927967346691E-2  -4.874487775861264E-2  
 2.014600000000000E10   -8.942062521858417E-2  -3.425448137805187E-2  
 2.014800000000000E10   -9.395641805267685E-2  -1.856337442643222E-2  
 2.015000000000000E10   -9.576441726430565E-2  -2.466758716213558E-3  
 2.015200000000000E10   -9.474044087737678E-2   1.372466390508738E-2  
 2.015400000000000E10   -9.103598012995601E-2   2.951894342476885E-2  
 2.015600000000000E10   -8.484457823638236E-2   4.439115379504761E-2  
 2.015800000000000E10   -7.611139136386562E-2   5.818642662419923E-2  
 2.016000000000000E10   -6.513869660899256E-2   7.030866978835669E-2  
 2.016200000000000E10   -5.224081457247187E-2   8.032960779573148E-2  
 2.016400000000000E10   -3.787135724600015E-2   8.786368538009343E-2  
 2.016600000000000E10   -2.251675377153184E-2   9.279743720665337E-2  
 2.016800000000000E10   -6.523559466140643E-3   9.516978562287018E-2  
 2.017000000000000E10    9.425843347444840E-3   9.495337434865921E-2  
 2.017200000000000E10    2.529666997035808E-2   9.203385699678351E-2  
 2.017400000000000E10    4.053693455501295E-2   8.637894697872320E-2  
 2.017600000000000E10    5.452918210528897E-2   7.825686789412015E-2  
 2.017800000000000E10    6.696846582094285E-2   6.797609449959152E-2  
 2.018000000000000E10    7.752458393151324E-2   5.570026308427568E-2  
 2.018200000000000E10    8.579439667462760E-2   4.164252472785057E-2  
 2.018400000000000E10    9.143961178735888E-2   2.650549486926772E-2  
 2.018600000000000E10    9.441909085657700E-2   1.068959968734344E-2  
 2.018800000000000E10    9.471717098013258E-2  -5.393555459183580E-3  
 2.019000000000000E10    9.231047403828763E-2  -2.113755140666500E-2  
 2.019200000000000E10    8.733546680029419E-2  -3.628487642607463E-2  
 2.019400000000000E10    7.989181041594887E-2  -5.040484515734608E-2  
 2.019600000000000E10    7.046553069767367E-2  -6.285946427154171E-2  
 2.019800000000000E10    5.876879942031500E-2  -7.389278697624130E-2  
 2.020000000000000E10    4.560133680926103E-2  -8.261883493204558E-2  
 2.020200000000000E10    3.110254595288688E-2  -8.906650905010632E-2  
 2.020400000000000E10    1.583652805952610E-2  -9.296668719484974E-2  
 2.020600000000000E10    9.923812578058379E-5  -9.430541345448490E-2  
 2.020800000000000E10   -1.570426296505773E-2  -9.302225187727455E-2  
 2.021000000000000E10   -3.106168236465939E-2  -8.915807467224832E-2  
 2.021200000000000E10   -4.569458548076687E-2  -8.277300606593729E-2  
 2.021400000000000E10   -5.904595647901502E-2  -7.397335734359740E-2  
 2.021600000000000E10   -7.063381910787417E-2  -6.299557208769607E-2  
 2.021800000000000E10   -8.023718345244291E-2  -5.005702870515967E-2  
 2.022000000000000E10   -8.736731821631100E-2  -3.590835867833754E-2  
 2.022200000000000E10   -9.207543256515013E-2  -2.087448032979122E-2  
 2.022400000000000E10   -9.434635032038197E-2  -5.238732922639976E-3  
 2.022600000000000E10   -9.409266118527442E-2   1.059312508775796E-2  
 2.022800000000000E10   -9.119507438742958E-2   2.624410913109944E-2  
 2.023000000000000E10   -8.560012933675919E-2   4.131316390547733E-2  
 2.023200000000000E10   -7.745088887271895E-2   5.528427364588275E-2  
 2.023400000000000E10   -6.704130820899344E-2   6.768805153112627E-2  
 2.023600000000000E10   -5.491525510681183E-2   7.798957537857976E-2  
 2.023800000000000E10   -4.089328891094766E-2   8.626574719734373E-2  
 2.024000000000000E10   -2.574459395393096E-2   9.194904366515792E-2  
 2.024200000000000E10   -9.896441389626438E-3   9.499644261206131E-2  
 2.024400000000000E10    6.279538054475719E-3   9.534155430249228E-2  
 2.024600000000000E10    2.221214837787710E-2   9.302647959630023E-2  
 2.024800000000000E10    3.761886254934127E-2   8.803114217331709E-2  
 2.025000000000000E10    5.206142053703060E-2   8.041476617066024E-2  
 2.025200000000000E10    6.485567492303862E-2   7.056579061591795E-2  
 2.025400000000000E10    7.592886922413430E-2   5.861753809755940E-2  
 2.025600000000000E10    8.480852531293892E-2   4.486561953769355E-2  
 2.025800000000000E10    9.122005466135007E-2   2.987505488990239E-2  
 2.026000000000000E10    9.485354634946377E-2   1.408172984299632E-2  
 2.026200000000000E10    9.574001030694093E-2  -2.084311561073016E-3  
 2.026400000000000E10    9.394473554911439E-2  -1.824330944256201E-2  
 2.026600000000000E10    8.960387502146684E-2  -3.361490032255350E-2  
 2.026800000000000E10    8.274446088849655E-2  -4.822232479686928E-2  
 2.027000000000000E10    7.354081972282012E-2  -6.155940048502198E-2  
 2.027200000000000E10    6.215568094471301E-2  -7.316605734822411E-2  
 2.027400000000000E10    4.886551495346787E-2  -8.268472706284979E-2  
 2.027600000000000E10    3.412847725949607E-2  -8.977112306897697E-2  
 2.027800000000000E10    1.844041155941638E-2  -9.419747704327464E-2  
 2.028000000000000E10    2.234675178826401E-3  -9.590542804625246E-2  
 2.028200000000000E10   -1.386668968129823E-2  -9.486558481499002E-2  
 2.028400000000000E10   -2.970784874041030E-2  -9.118088919739230E-2  
 2.028600000000000E10   -4.459652920250595E-2  -8.495805963063056E-2  
 2.028800000000000E10   -5.849331111622065E-2  -7.618895828192454E-2  
 2.029000000000000E10   -7.064522575939636E-2  -6.503911183190554E-2  
 2.029200000000000E10   -8.048612230926222E-2  -5.214569710321115E-2  
 2.029400000000000E10   -8.800388576916816E-2  -3.786415837885694E-2  
 2.029600000000000E10   -9.309872304556521E-2  -2.240433707274582E-2  
 2.029800000000000E10   -9.544830355719994E-2  -6.397387055636720E-3  
 2.030000000000000E10   -9.514988795992552E-2   9.645663778402789E-3  
 2.030200000000000E10   -9.218671072698589E-2   2.546140273490425E-2  
 2.030400000000000E10   -8.664491510671954E-2   4.065298256696388E-2  
 2.030600000000000E10   -7.861553120951051E-2   5.466243590278936E-2  
 2.030800000000000E10   -6.832641764800737E-2   6.718967479211205E-2  
 2.031000000000000E10   -5.595785051679634E-2   7.777675465737298E-2  
 2.031200000000000E10   -4.199368549935830E-2   8.607957829990834E-2  
 2.031400000000000E10   -2.684650020047880E-2   9.191500243594999E-2  
 2.031600000000000E10   -1.137856699425811E-2   9.502001121728784E-2  
 2.031800000000000E10    4.555333566489521E-3   9.561017662913604E-2  
 2.032000000000000E10    2.069956957816969E-2   9.345815648253673E-2  
 2.032200000000000E10    3.606934121170707E-2   8.875474352840970E-2  
 2.032400000000000E10    5.048303172898501E-2   8.151185377294418E-2  
 2.032600000000000E10    6.357086130307590E-2   7.191207760686902E-2  
 2.032800000000000E10    7.494298485203536E-2   6.016370588526042E-2  
 2.033000000000000E10    8.409359563647967E-2   4.668489385738622E-2  
 2.033200000000000E10    9.089471252612127E-2   3.165559758524619E-2  
 2.033400000000000E10    9.498425499524602E-2   1.585219393109125E-2  
 2.033600000000000E10    9.601129412950858E-2   8.403411483418524E-3  
 2.033800000000000E10    9.463293179631180E-2  -1.733175450003360E-2  
 2.034000000000000E10    9.019369194577916E-2  -3.306779258419894E-2  
 2.034200000000000E10    8.316724853369545E-2  -4.773124213878510E-2  
 2.034400000000000E10    7.396964281184193E-2  -6.085027766400786E-2  
 2.034600000000000E10    6.264956236383008E-2  -7.241997330236175E-2  
 2.034800000000000E10    4.952204362525482E-2  -8.195437630617189E-2  
 2.035000000000000E10    3.506157756069779E-2  -8.911209741873888E-2  
 2.035200000000000E10    1.948206604487775E-2  -9.368536381496380E-2  
 2.035400000000000E10    3.300423962888098E-3  -9.557308174863931E-2  
 2.035600000000000E10   -1.267050743183087E-2  -9.471057303961851E-2  
 2.035800000000000E10   -2.847086372740557E-2  -9.118444105302792E-2  
 2.036000000000000E10   -4.338790248239700E-2  -8.495888559579523E-2  
 2.036200000000000E10   -5.703622110743310E-2  -7.621230768950280E-2  
 2.036400000000000E10   -6.880412017053593E-2  -6.555495779428192E-2  
 2.036600000000000E10   -7.865637954738405E-2  -5.325940569030624E-2  
 2.036800000000000E10   -8.640344078457951E-2  -3.942400552451639E-2  
 2.037000000000000E10   -9.178412286628586E-2  -2.430661837219048E-2  
 2.037200000000000E10   -9.462767895983955E-2  -8.872130539508433E-3  
 2.037400000000000E10   -9.492901848245006E-2   7.123182944197142E-3  
 2.037600000000000E10   -9.250553938546136E-2   2.294121303812358E-2  
 2.037800000000000E10   -8.735976593375588E-2   3.828725221157620E-2  
 2.038000000000000E10   -7.987166298310618E-2   5.233822180751149E-2  
 2.038200000000000E10   -7.008222439788389E-2   6.508134368502175E-2  
 2.038400000000000E10   -5.816704400009798E-2   7.607229585428461E-2  
 2.038600000000000E10   -4.462550400113700E-2   8.489905103570969E-2  
 2.038800000000000E10   -2.973031394684430E-2   9.140009183997044E-2  
 2.039000000000000E10   -1.384922306325456E-2   9.528163848440563E-2  
 2.039200000000000E10    2.612432904216147E-3   9.629701648229436E-2  
 2.039400000000000E10    1.894661102735212E-2   9.441945553302876E-2  
 2.039600000000000E10    3.460766824416282E-2   8.987389095757835E-2  
 2.039800000000000E10    4.914978980868170E-2   8.278025341295575E-2  
 2.040000000000000E10    6.234689507246782E-2   7.330521603575244E-2  
 2.040200000000000E10    7.379433918432608E-2   6.179613013810147E-2  
 2.040400000000000E10    8.316822881820163E-2   4.854538129020022E-2  
 2.040600000000000E10    9.028377050085051E-2   3.382725635169575E-2  
 2.040800000000000E10    9.479581618832302E-2   1.798890090228545E-2  
 2.041000000000000E10    9.651391877599870E-2   1.641719072776543E-3  
 2.041200000000000E10    9.533761622606485E-2  -1.472161475706984E-2  
 2.041400000000000E10    9.147872282153786E-2  -3.058266189336014E-2  
 2.041600000000000E10    8.495355154901649E-2  -4.563712565782793E-2  
 2.041800000000000E10    7.584422051388760E-2  -5.936516972985179E-2  
 2.042000000000000E10    6.476259327297296E-2  -7.099553520242319E-2  
 2.042200000000000E10    5.184126779723233E-2  -8.081000574890425E-2  
 2.042400000000000E10    3.761131662039055E-2  -8.826433541530010E-2  
 2.042600000000000E10    2.237765813032596E-2  -9.334813863393321E-2  
 2.042800000000000E10    6.322437856656385E-3  -9.587657070754053E-2  
 2.043000000000000E10   -9.916019664287814E-3  -9.563950618884858E-2  
 2.043200000000000E10   -2.584751922029119E-2  -9.262638948908887E-2  
 2.043400000000000E10   -4.127405156139975E-2  -8.689680114340773E-2  
 2.043600000000000E10   -5.510968094581767E-2  -7.885684482804380E-2  
 2.043800000000000E10   -6.758423859554173E-2  -6.851248066339202E-2  
 2.044000000000000E10   -7.831915867930960E-2  -5.599528745797927E-2  
 2.044200000000000E10   -8.653580626642318E-2  -4.218318848050944E-2  
 2.044400000000000E10   -9.243021985140358E-2  -2.696717879681704E-2  
 2.044600000000000E10   -9.566556828911579E-2  -1.090295822029592E-2  
 2.044800000000000E10   -9.614189595297479E-2   5.372508686839868E-3  
 2.045000000000000E10   -9.383281779564515E-2   2.159626625996095E-2  
 2.045200000000000E10   -8.886080208329454E-2   3.708692578744496E-2  
 2.045400000000000E10   -8.134532535885589E-2   5.142895005401489E-2  
 2.045600000000000E10   -7.146575880012505E-2   6.438814049776581E-2  
 2.045800000000000E10   -5.964473399891939E-2   7.545106884587777E-2  
 2.046000000000000E10   -4.615806590614115E-2   8.432181826807564E-2  
 2.046200000000000E10   -3.124003639171317E-2   9.096310923074445E-2  
 2.046400000000000E10   -1.547583107758615E-2   9.494271845811028E-2  
 2.046600000000000E10    7.664997173855647E-4   9.626826568313752E-2  
 2.046800000000000E10    1.704178262837521E-2   9.479420702643848E-2  
 2.047000000000000E10    3.294631086075257E-2   9.052841731563900E-2  
 2.047200000000000E10    4.768554894760368E-2   8.371083439759158E-2  
 2.047400000000000E10    6.113960452728694E-2   7.442864531393079E-2  
 2.047600000000000E10    7.277957094849438E-2   6.294319245863791E-2  
 2.047800000000000E10    8.222669321118724E-2   4.968427823942495E-2  
 2.048000000000000E10    8.932164370686593E-2   3.518549334317460E-2  
 2.048200000000000E10    9.390646068674821E-2   1.971277870258268E-2  
 2.048400000000000E10    9.594569517411107E-2   3.655365735840072E-3  
 2.048600000000000E10    9.530194494132319E-2  -1.252457630238443E-2  
 2.048800000000000E10    9.184133866482476E-2  -2.870637012682226E-2  
 2.049000000000000E10    8.566222680885061E-2  -4.377312539720242E-2  
 2.049200000000000E10    7.685766437920906E-2  -5.765951027609086E-2  
 2.049400000000000E10    6.599010030428569E-2  -6.976948947627414E-2  
 2.049600000000000E10    5.330486246948926E-2  -7.977584584573116E-2  
 2.049800000000000E10    3.906269802123813E-2  -8.756350544990336E-2  
 2.050000000000000E10    2.361441803921507E-2  -9.283925181022235E-2  
 2.050200000000000E10    7.611960180957174E-3  -9.538969820323578E-2  
 2.050400000000000E10   -8.587263583724747E-3  -9.519918317125986E-2  
 2.050600000000000E10   -2.454870307897263E-2  -9.223594552627372E-2  
 2.050800000000000E10   -3.957321686447894E-2  -8.668857899753810E-2  
 2.051000000000000E10   -5.351314853977329E-2  -7.868712726566528E-2  
 2.051200000000000E10   -6.589061410175268E-2  -6.851651849992538E-2  
 2.051400000000000E10   -7.629720017715956E-2  -5.656773975492888E-2  
 2.051600000000000E10   -8.477247144923017E-2  -4.285995717742534E-2  
 2.051800000000000E10   -9.068187709793851E-2  -2.801167347290007E-2  
 2.052000000000000E10   -9.400328113490936E-2  -1.245542852890222E-2  
 2.052200000000000E10   -9.472323979656068E-2   3.638072691604012E-3  
 2.052400000000000E10   -9.274830325763414E-2   1.932312635714244E-2  
 2.052600000000000E10   -8.816798033714840E-2   3.448551104569686E-2  
 2.052800000000000E10   -8.107325991008399E-2   4.883499792042421E-2  
 2.053000000000000E10   -7.179147141692190E-2   6.168305854622666E-2  
 2.053200000000000E10   -6.037382689352772E-2   7.290817932432300E-2  
 2.053400000000000E10   -4.718213800935371E-2   8.199274142378807E-2  
 2.053600000000000E10   -3.284690219263373E-2   8.854430696233311E-2  
 2.053800000000000E10   -1.764399137485911E-2   9.274513207318090E-2  
 2.054000000000000E10   -1.807939464006630E-3   9.444265329216409E-2  
 2.054200000000000E10    1.373575393631748E-2   9.350965083135991E-2  
 2.054400000000000E10    2.929430316569847E-2   8.998268619554471E-2  
 2.054600000000000E10    4.412948463161515E-2   8.382996073938911E-2  
 2.054800000000000E10    5.744280905778354E-2   7.543492691261780E-2  
 2.055000000000000E10    6.942213093329633E-2   6.480313514226858E-2  
 2.055200000000000E10    7.942254353479868E-2   5.238988389319409E-2  
 2.055400000000000E10    8.728803902401139E-2   3.836286518847120E-2  
 2.055600000000000E10    9.279195855320128E-2   2.299284607097064E-2  
