#  HZ   S   RI   R     50.00 
! Rohde & Schwarz ZVA40 4Ports - Version 3.90 - 1145.1110k42 SN: 100403
! Date: 2023-09-30 05:02:47
! Measurement: S22 
! 
 2.000000000000000E10    9.832728629477183E-2  -9.372384218334942E-2  
 2.000200000000000E10    8.676224963239360E-2  -1.080745828661716E-1  
 2.000400000000000E10    7.157688599457671E-2  -1.216949828246602E-1  
 2.000600000000000E10    5.418957567470757E-2  -1.317951749631310E-1  
 2.000800000000000E10    3.482302614479568E-2  -1.388220987306010E-1  
 2.001000000000000E10    1.400531922356129E-2  -1.423516290903255E-1  
 2.001200000000000E10   -7.366765450802140E-3  -1.418615245664863E-1  
 2.001400000000000E10   -2.880103009774861E-2  -1.373481140411130E-1  
 2.001600000000000E10   -4.938474605916837E-2  -1.286641228409041E-1  
 2.001800000000000E10   -6.819839804653231E-2  -1.159433437911498E-1  
 2.002000000000000E10   -8.399580003706508E-2  -1.001596447061112E-1  
 2.002200000000000E10   -9.742623542066631E-2  -7.975580157817322E-2  
 2.002400000000000E10   -1.066204872922490E-1  -5.879558822990821E-2  
 2.002600000000000E10   -1.115767243363529E-1  -3.611794217920459E-2  
 2.002800000000000E10   -1.120799028264099E-1  -1.321474100849457E-2  
 2.003000000000000E10   -1.081073818776484E-1   9.844826689014562E-3  
 2.003200000000000E10   -1.001660029746161E-1   3.145653325709525E-2  
 2.003400000000000E10   -8.790441081001733E-2   5.157718753398281E-2  
 2.003600000000000E10   -7.199479926957314E-2   6.887683181359405E-2  
 2.003800000000000E10   -5.275834594596177E-2   8.273220640249573E-2  
 2.004000000000000E10   -3.165356243555861E-2   9.231215146724084E-2  
 2.004200000000000E10   -9.143491485878513E-3   9.763252038076076E-2  
 2.004400000000000E10    1.388157870424796E-2   9.841263604807919E-2  
 2.004600000000000E10    3.617426345964774E-2   9.484222344706816E-2  
 2.004800000000000E10    5.733051299832647E-2   8.691908490589576E-2  
 2.005000000000000E10    7.571046726711866E-2   7.539894286043250E-2  
 2.005200000000000E10    9.150119720275657E-2   6.031417535987374E-2  
 2.005400000000000E10    1.035835168804946E-1   4.293246402646012E-2  
 2.005600000000000E10    1.120631837886152E-1   2.352250950942890E-2  
 2.005800000000000E10    1.161284867339140E-1   4.010160991243321E-3  
 2.006000000000000E10    1.165493489203130E-1  -1.640650212254878E-2  
 2.006200000000000E10    1.126950628684469E-1  -3.555352897303528E-2  
 2.006400000000000E10    1.051746674337954E-1  -5.333574452230476E-2  
 2.006600000000000E10    9.426355067569008E-2  -6.851357284600231E-2  
 2.006800000000000E10    8.051521677609125E-2  -8.120022518488070E-2  
 2.007000000000000E10    6.514262225599209E-2  -8.987324463104211E-2  
 2.007200000000000E10    4.884475241465948E-2  -9.504518541921456E-2  
 2.007400000000000E10    3.226909276650504E-2  -9.671828765719726E-2  
 2.007600000000000E10    1.626896855274453E-2  -9.477632922014487E-2  
 2.007800000000000E10    1.743522905150322E-3  -8.944040770332858E-2  
 2.008000000000000E10   -1.079911635155362E-2  -8.126826333599389E-2  
 2.008200000000000E10   -2.078723202864356E-2  -7.083810264004392E-2  
 2.008400000000000E10   -2.789990228128478E-2  -5.890544862241808E-2  
 2.008600000000000E10   -3.186239423547918E-2  -4.627438326792975E-2  
 2.008800000000000E10   -3.279868787933717E-2  -3.358478164123242E-2  
 2.009000000000000E10   -3.065221228222450E-2  -2.146155337302014E-2  
 2.009200000000000E10   -2.590410380286086E-2  -1.069231229019784E-2  
 2.009400000000000E10   -1.871544512866183E-2  -1.690010886388788E-3  
 2.009600000000000E10   -9.902251090601780E-3   5.023791111482721E-3  
 2.009800000000000E10    4.132978864335154E-4   9.057945764326529E-3  
 2.010000000000000E10    1.076640813589737E-2   1.021108969609538E-2  
 2.010200000000000E10    2.081470602265134E-2   8.543923407333910E-3  
 2.010400000000000E10    2.978491271086716E-2   4.515873878075875E-3  
 2.010600000000000E10    3.755909794160821E-2  -1.809253595482284E-3  
 2.010800000000000E10    4.315750937512758E-2  -9.636004361204433E-3  
 2.011000000000000E10    4.677469134300655E-2  -1.861500688443008E-2  
 2.011200000000000E10    4.828858937576674E-2  -2.840180555021271E-2  
 2.011400000000000E10    4.743280183697931E-2  -3.848513529028655E-2  
 2.011600000000000E10    4.397022692622040E-2  -4.828985256025296E-2  
 2.011800000000000E10    3.799799312852026E-2  -5.741360924384817E-2  
 2.012000000000000E10    2.972877663372318E-2  -6.520366877955738E-2  
 2.012200000000000E10    1.962161314281785E-2  -7.084176787490418E-2  
 2.012400000000000E10    8.294034782865858E-3  -7.426171976885632E-2  
 2.012600000000000E10   -3.901261731402177E-3  -7.529959730193021E-2  
 2.012800000000000E10   -1.654146342969408E-2  -7.361799347353240E-2  
 2.013000000000000E10   -2.878487658309977E-2  -6.908308689574916E-2  
 2.013200000000000E10   -4.013612585996795E-2  -6.179274071814361E-2  
 2.013400000000000E10   -4.998962898227508E-2  -5.218127212342714E-2  
 2.013600000000000E10   -5.787580713764630E-2  -4.048479758542779E-2  
 2.013800000000000E10   -6.349978469237223E-2  -2.742440378744350E-2  
 2.014000000000000E10   -6.660667582073498E-2  -1.308402368399650E-2  
 2.014200000000000E10   -6.702334252875992E-2   1.955671601395989E-3  
 2.014400000000000E10   -6.405753440000310E-2   1.723430042883332E-2  
 2.014600000000000E10   -5.820135193563927E-2   3.165600666050875E-2  
 2.014800000000000E10   -4.948627625101883E-2   4.501226095897114E-2  
 2.015000000000000E10   -3.818072082804316E-2   5.646423820968730E-2  
 2.015200000000000E10   -2.462087616126065E-2   6.555555561768831E-2  
 2.015400000000000E10   -1.005120367807387E-2   7.203759156071080E-2  
 2.015600000000000E10    5.880917088974938E-3   7.572722392866536E-2  
 2.015800000000000E10    2.267367278684470E-2   7.621466213937908E-2  
 2.016000000000000E10    3.915433855569477E-2   7.337681661058823E-2  
 2.016200000000000E10    5.471127981992863E-2   6.745782075650783E-2  
 2.016400000000000E10    6.904899304722321E-2   5.876598120223582E-2  
 2.016600000000000E10    8.159121936697807E-2   4.737490146741875E-2  
 2.016800000000000E10    9.156750343566669E-2   3.389120118535374E-2  
 2.017000000000000E10    9.898073800043510E-2   1.865839175409552E-2  
 2.017200000000000E10    1.033553728008946E-1   2.262756938245100E-3  
 2.017400000000000E10    1.046394709700484E-1  -1.511654263714742E-2  
 2.017600000000000E10    1.024669395744944E-1  -3.244349915351941E-2  
 2.017800000000000E10    9.687114374610391E-2  -4.932985612060614E-2  
 2.018000000000000E10    8.796651444028175E-2  -6.462513490623312E-2  
 2.018200000000000E10    7.619586349921739E-2  -7.824847529308079E-2  
 2.018400000000000E10    6.187129225178904E-2  -8.942514690950326E-2  
 2.018600000000000E10    4.520572687518436E-2  -9.777740889429215E-2  
 2.018800000000000E10    2.676251845249849E-2  -1.025800805872417E-1  
 2.019000000000000E10    7.331200510996424E-3  -1.035704814567601E-1  
 2.019200000000000E10   -1.205488884807331E-2  -1.004736509599909E-1  
 2.019400000000000E10   -3.069746729467454E-2  -9.333077972321466E-2  
 2.019600000000000E10   -4.760764016006229E-2  -8.227684705421856E-2  
 2.019800000000000E10   -6.203554551727978E-2  -6.771584363300287E-2  
 2.020000000000000E10   -7.332695035233289E-2  -5.037926806119338E-2  
 2.020200000000000E10   -8.093135965071044E-2  -3.075015103986141E-2  
 2.020400000000000E10   -8.436492863535698E-2  -9.682594096940705E-3  
 2.020600000000000E10   -8.320628557523033E-2   1.186906218440753E-2  
 2.020800000000000E10   -7.755153321063912E-2   3.289667749882302E-2  
 2.021000000000000E10   -6.761038020245584E-2   5.233936412261442E-2  
 2.021200000000000E10   -5.366946430422218E-2   6.922371377964981E-2  
 2.021400000000000E10   -3.635536508968443E-2   8.304023179242963E-2  
 2.021600000000000E10   -1.670539613380271E-2   9.310543082122058E-2  
 2.021800000000000E10    4.599333949052931E-3   9.902976298719088E-2  
 2.022000000000000E10    2.680701168741398E-2   1.004650894611594E-1  
 2.022200000000000E10    4.906653962861862E-2   9.715927830582301E-2  
 2.022400000000000E10    6.988559500576536E-2   8.941861744934246E-2  
 2.022600000000000E10    8.863456091081785E-2   7.769899246239351E-2  
 2.022800000000000E10    1.047597728132549E-1   6.233011422235553E-2  
 2.023000000000000E10    1.174802800334472E-1   4.399290911266067E-2  
 2.023200000000000E10    1.261402924704463E-1   2.364880725758651E-2  
 2.023400000000000E10    1.305014931441288E-1   1.826613801817447E-3  
 2.023600000000000E10    1.301057533944879E-1  -2.014262357904680E-2  
 2.023800000000000E10    1.251250803923818E-1  -4.161765954657661E-2  
 2.024000000000000E10    1.158824452478287E-1  -6.123468503816805E-2  
 2.024200000000000E10    1.030233397350318E-1  -7.816612688593397E-2  
 2.024400000000000E10    8.743838781020930E-2  -9.214887507680769E-2  
 2.024600000000000E10    6.942421515411555E-2  -1.028409190037292E-1  
 2.024800000000000E10    4.977742732162389E-2  -1.094258628728889E-1  
 2.025000000000000E10    2.924105888139221E-2  -1.116587693689204E-1  
 2.025200000000000E10    8.961685434745416E-3  -1.093111476570408E-1  
 2.025400000000000E10   -9.969717848066544E-3  -1.027127112850701E-1  
 2.025600000000000E10   -2.650966235868722E-2  -9.245982140699408E-2  
 2.025800000000000E10   -4.019760179848850E-2  -7.937153151301814E-2  
 2.026000000000000E10   -5.049195896993330E-2  -6.431285226222357E-2  
 2.026200000000000E10   -5.711636697626688E-2  -4.776472213503558E-2  
 2.026400000000000E10   -5.987783922920531E-2  -3.065049956835386E-2  
 2.026600000000000E10   -5.894464394111745E-2  -1.379493925021644E-2  
 2.026800000000000E10   -5.441524665373412E-2   1.995941564554981E-3  
 2.027000000000000E10   -4.659842319882769E-2   1.580900423669817E-2  
 2.027200000000000E10   -3.627020188648568E-2   2.700066893670267E-2  
 2.027400000000000E10   -2.432514304751077E-2   3.515232593809724E-2  
 2.027600000000000E10   -1.151088022478785E-2   3.980531879854351E-2  
 2.027800000000000E10    1.446637532244824E-3   4.139249223158625E-2  
 2.028000000000000E10    1.387643415392360E-2   4.000905007259829E-2  
 2.028200000000000E10    2.522102731285325E-2   3.594595056576394E-2  
 2.028400000000000E10    3.489493554483257E-2   2.945168122471019E-2  
 2.028600000000000E10    4.221240313488330E-2   2.095363267410127E-2  
 2.028800000000000E10    4.690216002073797E-2   1.134419777509861E-2  
 2.029000000000000E10    4.889332071568467E-2   1.211268946738868E-3  
 2.029200000000000E10    4.796097895275612E-2  -9.060766330553662E-3  
 2.029400000000000E10    4.435825212818449E-2  -1.849895864992062E-2  
 2.029600000000000E10    3.849044396189476E-2  -2.648660429483314E-2  
 2.029800000000000E10    3.076022830278093E-2  -3.256612888977943E-2  
 2.030000000000000E10    2.171177658612377E-2  -3.626061383307037E-2  
 2.030200000000000E10    1.197795572223540E-2  -3.747482067569396E-2  
 2.030400000000000E10    2.065317685236677E-3  -3.616006079835148E-2  
 2.030600000000000E10   -7.389029078652755E-3  -3.225548598393249E-2  
 2.030800000000000E10   -1.597405814500259E-2  -2.612653154317952E-2  
 2.031000000000000E10   -2.307062155394579E-2  -1.789965167108192E-2  
 2.031200000000000E10   -2.828308149843692E-2  -7.976952544008075E-3  
 2.031400000000000E10   -3.126920640797753E-2   3.474295811255677E-3  
 2.031600000000000E10   -3.160539932811492E-2   1.577064357905777E-2  
 2.031800000000000E10   -2.926849675000202E-2   2.840429228886175E-2  
 2.032000000000000E10   -2.401663513938541E-2   4.049052333104559E-2  
 2.032200000000000E10   -1.605368448110909E-2   5.160573447553090E-2  
 2.032400000000000E10   -5.650082635923035E-3   6.117549740874510E-2  
 2.032600000000000E10    7.009601606474898E-3   6.870879185383866E-2  
 2.032800000000000E10    2.143637294030562E-2   7.370490964910685E-2  
 2.033000000000000E10    3.724221942168525E-2   7.574170837100924E-2  
 2.033200000000000E10    5.362044453927775E-2   7.458831437231295E-2  
 2.033400000000000E10    7.001953785999981E-2   7.009311888229097E-2  
 2.033600000000000E10    8.567684882295226E-2   6.172413318415121E-2  
 2.033800000000000E10    9.998743014041159E-2   5.073416523215595E-2  
 2.034000000000000E10    1.117567727090455E-1   3.702623439040257E-2  
 2.034200000000000E10    1.210358631032257E-1   2.099358228541636E-2  
 2.034400000000000E10    1.273784897416029E-1   2.937955561555348E-3  
 2.034600000000000E10    1.302098385914891E-1  -1.652296689069863E-2  
 2.034800000000000E10    1.292813987075507E-1  -3.650047971080912E-2  
 2.035000000000000E10    1.246245851021768E-1  -5.626720144576873E-2  
 2.035200000000000E10    1.164361008114861E-1  -7.506610901824287E-2  
 2.035400000000000E10    1.047434742853391E-1  -9.248635192477424E-2  
 2.035600000000000E10    8.970563443701969E-2  -1.077077550357350E-1  
 2.035800000000000E10    7.183170796867533E-2  -1.201452568184631E-1  
 2.036000000000000E10    5.163180801444350E-2  -1.292378817327562E-1  
 2.036200000000000E10    2.979448223772050E-2  -1.345624823882863E-1  
 2.036400000000000E10    7.065786760647615E-3  -1.356951107954982E-1  
 2.036600000000000E10   -1.549499869074483E-2  -1.326625826406795E-1  
 2.036800000000000E10   -3.725663921605242E-2  -1.256379713098992E-1  
 2.037000000000000E10   -5.760840111468156E-2  -1.147445219385636E-1  
 2.037200000000000E10   -7.598005455021115E-2  -9.996163726535107E-2  
 2.037400000000000E10   -9.134556283829230E-2  -8.188202210537719E-2  
 2.037600000000000E10   -1.030331023986947E-1  -6.120118037445008E-2  
 2.037800000000000E10   -1.106763297628063E-1  -3.881357773614948E-2  
 2.038000000000000E10   -1.139437411727404E-1  -1.533826357115687E-2  
 2.038200000000000E10   -1.128073290975276E-1   8.155871365909447E-3  
 2.038400000000000E10   -1.073176725389995E-1   3.090609584660686E-2  
 2.038600000000000E10   -9.760789096085823E-2   5.215180281210581E-2  
 2.038800000000000E10   -8.415095432100943E-2   7.104185673510471E-2  
 2.039000000000000E10   -6.747403880088132E-2   8.672328535997963E-2  
 2.039200000000000E10   -4.848359327441382E-2   9.870879105449046E-2  
 2.039400000000000E10   -2.808393675647790E-2   1.067206934254486E-1  
 2.039600000000000E10   -6.798407623079483E-3   1.106659294054389E-1  
 2.039800000000000E10    1.458360866052440E-2   1.104236886800815E-1  
 2.040000000000000E10    3.508417065770508E-2   1.060354023999089E-1  
 2.040200000000000E10    5.400892417815986E-2   9.773603994842481E-2  
 2.040400000000000E10    7.037092712917317E-2   8.619943256710440E-2  
 2.040600000000000E10    8.371006117375113E-2   7.183219342241184E-2  
 2.040800000000000E10    9.332639060692449E-2   5.551620604883222E-2  
 2.041000000000000E10    9.908878731027562E-2   3.826089807810255E-2  
 2.041200000000000E10    1.011133396675870E-1   2.086147203355344E-2  
 2.041400000000000E10    9.955861405597785E-2   3.991785804924508E-3  
 2.041600000000000E10    9.463742198177233E-2  -1.172004719014660E-2  
 2.041800000000000E10    8.667220191834765E-2  -2.546006483938484E-2  
 2.042000000000000E10    7.636934441254334E-2  -3.643120230189573E-2  
 2.042200000000000E10    6.432533508208521E-2  -4.455508636497678E-2  
 2.042400000000000E10    5.119746630335520E-2  -4.951858201017900E-2  
 2.042600000000000E10    3.779944766387693E-2  -5.111859532168614E-2  
 2.042800000000000E10    2.498595561683512E-2  -4.958446031374768E-2  
 2.043000000000000E10    1.341546343501899E-2  -4.512466821352427E-2  
 2.043200000000000E10    3.711737738074892E-3  -3.824179644055065E-2  
 2.043400000000000E10   -3.671471651698807E-3  -2.955192747205248E-2  
 2.043600000000000E10   -8.343503765810827E-3  -1.940287404276707E-2  
 2.043800000000000E10   -1.013291855819234E-2  -8.617242085122438E-3  
 2.044000000000000E10   -8.936329368931151E-3   1.968945151323127E-3  
 2.044200000000000E10   -5.060593531195061E-3   1.156295773308079E-2  
 2.044400000000000E10    1.093451478863780E-3   1.971509031717773E-2  
 2.044600000000000E10    9.143249092255520E-3   2.591478271870566E-2  
 2.044800000000000E10    1.856705779561343E-2   2.980357043738402E-2  
 2.045000000000000E10    2.887517974693171E-2   3.106586912519125E-2  
 2.045200000000000E10    3.941853627843582E-2   2.967139202099788E-2  
 2.045400000000000E10    4.951555443045463E-2   2.555287279075103E-2  
 2.045600000000000E10    5.841026928854862E-2   1.897449815008080E-2  
 2.045800000000000E10    6.572570450551878E-2   1.014429504638265E-2  
 2.046000000000000E10    7.092297189335767E-2  -4.633642525565353E-4  
 2.046200000000000E10    7.373228382822838E-2  -1.234441117132680E-2  
 2.046400000000000E10    7.385211402925915E-2  -2.515772923222080E-2  
 2.046600000000000E10    7.097313066653696E-2  -3.826160223340911E-2  
 2.046800000000000E10    6.519249493614432E-2  -5.099026165460870E-2  
 2.047000000000000E10    5.641060998931492E-2  -6.242026820300855E-2  
 2.047200000000000E10    4.506027473509645E-2  -7.200772100819758E-2  
 2.047400000000000E10    3.168097427181051E-2  -7.934039917648925E-2  
 2.047600000000000E10    1.647064376951577E-2  -8.406956223508229E-2  
 2.047800000000000E10   -8.290767954741699E-7  -8.571477013869337E-2  
 2.048000000000000E10   -1.704959226761856E-2  -8.393380815493419E-2  
 2.048200000000000E10   -3.394474465739980E-2  -7.862667443980669E-2  
 2.048400000000000E10   -4.968265562237992E-2  -6.990193300466888E-2  
 2.048600000000000E10   -6.370944918039609E-2  -5.794190566908366E-2  
 2.048800000000000E10   -7.538578094748505E-2  -4.328095651445173E-2  
 2.049000000000000E10   -8.433060952171179E-2  -2.633039542019484E-2  
 2.049200000000000E10   -9.015294633767049E-2  -7.699539663395538E-3  
 2.049400000000000E10   -9.253854231981117E-2   1.229811054425280E-2  
 2.049600000000000E10   -9.101673148507054E-2   3.291081317247452E-2  
 2.049800000000000E10   -8.534848929022904E-2   5.323689720529418E-2  
 2.050000000000000E10   -7.560454582552792E-2   7.205262344235197E-2  
 2.050200000000000E10   -6.236553233523154E-2   8.878255358390927E-2  
 2.050400000000000E10   -4.624810179363546E-2   1.028491502623471E-1  
 2.050600000000000E10   -2.773004525459569E-2   1.138576115958464E-1  
 2.050800000000000E10   -7.364454114202064E-3   1.214854157457658E-1  
 2.051000000000000E10    1.423473007115024E-2   1.253145127115108E-1  
 2.051200000000000E10    3.650986679145699E-2   1.250900505523866E-1  
 2.051400000000000E10    5.851976558912671E-2   1.205899478334946E-1  
 2.051600000000000E10    7.945447002516534E-2   1.115832964734231E-1  
 2.051800000000000E10    9.817316191459516E-2   9.875433569140986E-2  
 2.052000000000000E10    1.140637581294793E-1   8.282001171812971E-2  
 2.052200000000000E10    1.268177321619906E-1   6.424453461260646E-2  
 2.052400000000000E10    1.358591634347209E-1   4.365035774635367E-2  
 2.052600000000000E10    1.408371691208357E-1   2.173971846707305E-2  
 2.052800000000000E10    1.416332610836560E-1  -7.708929242487199E-4  
 2.053000000000000E10    1.379726096788868E-1  -2.297216993995844E-2  
 2.053200000000000E10    1.299882075427978E-1  -4.424994678858346E-2  
 2.053400000000000E10    1.181096290516809E-1  -6.340489543463512E-2  
 2.053600000000000E10    1.027654612885198E-1  -7.972485610077176E-2  
 2.053800000000000E10    8.471553678324911E-2  -9.255003773156628E-2  
 2.054000000000000E10    6.465701558884826E-2  -1.014686522073115E-1  
 2.054200000000000E10    4.340310224037063E-2  -1.060713756028274E-1  
 2.054400000000000E10    2.198135579844168E-2  -1.062136178168594E-1  
 2.054600000000000E10    1.309452611583642E-3  -1.021074308933211E-1  
 2.054800000000000E10   -1.790628338498167E-2  -9.423964963471798E-2  
 2.055000000000000E10   -3.493351262061472E-2  -8.282763798837534E-2  
 2.055200000000000E10   -4.901324574010130E-2  -6.839552267500390E-2  
 2.055400000000000E10   -5.964504183222572E-2  -5.154364214918211E-2  
 2.055600000000000E10   -6.637560371247753E-2  -3.308513032706395E-2  
