#  HZ   S   RI   R     50.00 
! Rohde & Schwarz ZVA40 4Ports - Version 3.90 - 1145.1110k42 SN: 100403
! Date: 2023-09-30 06:53:44
! Measurement: S12 
! 
 2.000000000000000E10   -7.454436080241564E-2   6.837909281335577E-2  
 2.000200000000000E10   -6.305451558287090E-2   7.946704220747262E-2  
 2.000400000000000E10   -4.888670454606599E-2   8.906982442560839E-2  
 2.000600000000000E10   -3.312943954996776E-2   9.622165833603699E-2  
 2.000800000000000E10   -1.642003706024017E-2   1.005452428171501E-1  
 2.001000000000000E10    1.231257870489290E-3   1.019747191925108E-1  
 2.001200000000000E10    1.854788739137117E-2   1.002219941451717E-1  
 2.001400000000000E10    3.541300472367776E-2   9.551184386301108E-2  
 2.001600000000000E10    5.116234812246757E-2   8.795198630567115E-2  
 2.001800000000000E10    6.535622571557967E-2   7.780870152394633E-2  
 2.002000000000000E10    7.748285972287136E-2   6.534017692990755E-2  
 2.002200000000000E10    8.790774182486764E-2   5.004282525660080E-2  
 2.002400000000000E10    9.495976179919946E-2   3.457326060786987E-2  
 2.002600000000000E10    9.920038317620183E-2   1.806627742343152E-2  
 2.002800000000000E10    1.006894194928544E-1   1.061446784927787E-3  
 2.003000000000000E10    9.929099616649548E-2  -1.571918375386419E-2  
 2.003200000000000E10    9.515750225229686E-2  -3.210913479859610E-2  
 2.003400000000000E10    8.837739653139286E-2  -4.762501211834380E-2  
 2.003600000000000E10    7.907020620521368E-2  -6.192842844888998E-2  
 2.003800000000000E10    6.753797580798468E-2  -7.425398164938508E-2  
 2.004000000000000E10    5.390935628809067E-2  -8.461300034295713E-2  
 2.004200000000000E10    3.874251515245569E-2  -9.249049132825253E-2  
 2.004400000000000E10    2.251350356135595E-2  -9.767285216247106E-2  
 2.004600000000000E10    5.666450210891675E-3  -9.989048550812471E-2  
 2.004800000000000E10   -1.146549341972759E-2  -9.919385087710841E-2  
 2.005000000000000E10   -2.793735709291754E-2  -9.566770038159952E-2  
 2.005200000000000E10   -4.358746134899608E-2  -8.954895379734629E-2  
 2.005400000000000E10   -5.798970680525438E-2  -8.082981860400555E-2  
 2.005600000000000E10   -7.073038831782441E-2  -6.979412802166737E-2  
 2.005800000000000E10   -8.135399758938409E-2  -5.693778985873663E-2  
 2.006000000000000E10   -8.973111829558192E-2  -4.243299151439890E-2  
 2.006200000000000E10   -9.564062988766267E-2  -2.671442763172142E-2  
 2.006400000000000E10   -9.873418642823754E-2  -1.032520283335521E-2  
 2.006600000000000E10   -9.911874545781539E-2   6.571340597578325E-3  
 2.006800000000000E10   -9.673518021124709E-2   2.316367853335801E-2  
 2.007000000000000E10   -9.152455509363053E-2   3.940972875911022E-2  
 2.007200000000000E10   -8.350358073521708E-2   5.452375460431411E-2  
 2.007400000000000E10   -7.279571470777685E-2   6.813551569344740E-2  
 2.007600000000000E10   -5.994617850589983E-2   7.940471544350780E-2  
 2.007800000000000E10   -4.534566294611400E-2   8.820271263070233E-2  
 2.008000000000000E10   -2.970629654293280E-2   9.435921455688766E-2  
 2.008200000000000E10   -1.314250994167088E-2   9.784630792335557E-2  
 2.008400000000000E10    3.348852476789853E-3   9.840511130002957E-2  
 2.008600000000000E10    1.983682152563489E-2   9.607698818456655E-2  
 2.008800000000000E10    3.554183057163152E-2   9.116292906355303E-2  
 2.009000000000000E10    5.007352713694789E-2   8.394732579731976E-2  
 2.009200000000000E10    6.327618345802213E-2   7.458322087433114E-2  
 2.009400000000000E10    7.498416951531738E-2   6.304203393895932E-2  
 2.009600000000000E10    8.478076005832323E-2   4.944939527083164E-2  
 2.009800000000000E10    9.192928597228844E-2   3.466654542848897E-2  
 2.010000000000000E10    9.662917295192335E-2   1.857149280066026E-2  
 2.010200000000000E10    9.843305951119780E-2   1.906324663124110E-3  
 2.010400000000000E10    9.733448341100470E-2  -1.491358363681533E-2  
 2.010600000000000E10    9.338097731149737E-2  -3.101665869518727E-2  
 2.010800000000000E10    8.688447187017186E-2  -4.639102422487916E-2  
 2.011000000000000E10    7.781456554990739E-2  -6.052427018886569E-2  
 2.011200000000000E10    6.641896693508649E-2  -7.287531187668424E-2  
 2.011400000000000E10    5.304243325655680E-2  -8.301862130971277E-2  
 2.011600000000000E10    3.828677208519277E-2  -9.071728115995890E-2  
 2.011800000000000E10    2.245138612651204E-2  -9.588195094314952E-2  
 2.012000000000000E10    5.992031207152315E-3  -9.841694190219273E-2  
 2.012200000000000E10   -1.069433629942039E-2  -9.816571009257205E-2  
 2.012400000000000E10   -2.717777712344715E-2  -9.514419144768122E-2  
 2.012600000000000E10   -4.306573275635109E-2  -8.921690822792316E-2  
 2.012800000000000E10   -5.769803850248518E-2  -8.062312847056999E-2  
 2.013000000000000E10   -7.067270055719856E-2  -6.964560027843642E-2  
 2.013200000000000E10   -8.141395464968781E-2  -5.669391800142284E-2  
 2.013400000000000E10   -8.999159487554567E-2  -4.180500872014155E-2  
 2.013600000000000E10   -9.572440192655282E-2  -2.573152370648702E-2  
 2.013800000000000E10   -9.853680080265341E-2  -9.100997568822284E-3  
 2.014000000000000E10   -9.843444078138663E-2   7.798892533373401E-3  
 2.014200000000000E10   -9.560723783670633E-2   2.416500592775470E-2  
 2.014400000000000E10   -9.004235998388836E-2   3.976244894360974E-2  
 2.014600000000000E10   -8.198240248100586E-2   5.429262959172207E-2  
 2.014800000000000E10   -7.179155354023963E-2   6.711867956549381E-2  
 2.015000000000000E10   -5.962410224767707E-2   7.832603194381640E-2  
 2.015200000000000E10   -4.565963220101653E-2   8.730168646745723E-2  
 2.015400000000000E10   -3.011693346054794E-2   9.383801363704958E-2  
 2.015600000000000E10   -1.391462124475318E-2   9.759788792605920E-2  
 2.015800000000000E10    2.613075165044829E-3   9.861643894464393E-2  
 2.016000000000000E10    1.934878793589781E-2   9.679502381627618E-2  
 2.016200000000000E10    3.546100646380045E-2   9.212317090834121E-2  
 2.016400000000000E10    5.039578559201605E-2   8.480430349441878E-2  
 2.016600000000000E10    6.382195643355001E-2   7.523874154592902E-2  
 2.016800000000000E10    7.565490666403857E-2   6.345604310024260E-2  
 2.017000000000000E10    8.536697677828485E-2   4.974413482250011E-2  
 2.017200000000000E10    9.248760080958918E-2   3.462862533572116E-2  
 2.017400000000000E10    9.688017045151551E-2   1.872046050885169E-2  
 2.017600000000000E10    9.870127749990862E-2   2.054843311587704E-3  
 2.017800000000000E10    9.781645476531919E-2  -1.428666543113311E-2  
 2.018000000000000E10    9.417499080606942E-2  -3.056559302883711E-2  
 2.018200000000000E10    8.786433242230750E-2  -4.597766964155951E-2  
 2.018400000000000E10    7.904836172634029E-2  -6.024498306981331E-2  
 2.018600000000000E10    6.792261855183643E-2  -7.281651464386733E-2  
 2.018800000000000E10    5.460124801645064E-2  -8.344859536864958E-2  
 2.019000000000000E10    3.971432392141784E-2  -9.158909503774226E-2  
 2.019200000000000E10    2.360700839167188E-2  -9.709164326491836E-2  
 2.019400000000000E10    6.653012023709807E-3  -9.961759906124187E-2  
 2.019600000000000E10   -1.031747650206907E-2  -9.921203733553451E-2  
 2.019800000000000E10   -2.679514108207819E-2  -9.591392700564225E-2  
 2.020000000000000E10   -4.234928443046755E-2  -9.014381704384408E-2  
 2.020200000000000E10   -5.689685930726624E-2  -8.179238748280601E-2  
 2.020400000000000E10   -6.983085273061107E-2  -7.114039659908936E-2  
 2.020600000000000E10   -8.090775934225575E-2  -5.834943133269645E-2  
 2.020800000000000E10   -8.963718370563864E-2  -4.382526605749000E-2  
 2.021000000000000E10   -9.563434804663248E-2  -2.814137437655521E-2  
 2.021200000000000E10   -9.889540380820000E-2  -1.171892986023500E-2  
 2.021400000000000E10   -9.947858096722552E-2   5.031087215407274E-3  
 2.021600000000000E10   -9.732704063869800E-2   2.160383470928800E-2  
 2.021800000000000E10   -9.237705740377575E-2   3.774834634283934E-2  
 2.022000000000000E10   -8.467410839020961E-2   5.271115419755094E-2  
 2.022200000000000E10   -7.447412938124851E-2   6.620478401131756E-2  
 2.022400000000000E10   -6.237173685484626E-2   7.761195688335985E-2  
 2.022600000000000E10   -4.854199424672193E-2   8.697365843710096E-2  
 2.022800000000000E10   -3.337189606780542E-2   9.392326583751109E-2  
 2.023000000000000E10   -1.712310482557500E-2   9.836272813573951E-2  
 2.023200000000000E10   -2.869709082934220E-4   9.990280607027938E-2  
 2.023400000000000E10    1.684322957823306E-2   9.842760770981535E-2  
 2.023600000000000E10    3.303997218608856E-2   9.401744337361538E-2  
 2.023800000000000E10    4.815721747418164E-2   8.695827664702682E-2  
 2.024000000000000E10    6.173212925899668E-2   7.771235283346661E-2  
 2.024200000000000E10    7.390318677054186E-2   6.632754794323233E-2  
 2.024400000000000E10    8.397955052932760E-2   5.309763602881766E-2  
 2.024600000000000E10    9.165462656317099E-2   3.839507603453184E-2  
 2.024800000000000E10    9.678539154420011E-2   2.247282278319037E-2  
 2.025000000000000E10    9.919536736153774E-2   5.777797160928223E-3  
 2.025200000000000E10    9.874387599517617E-2  -1.071162959139166E-2  
 2.025400000000000E10    9.550585470000086E-2  -2.706994864430448E-2  
 2.025600000000000E10    8.954226844963224E-2  -4.266868502065152E-2  
 2.025800000000000E10    8.132469815563601E-2  -5.680864306859193E-2  
 2.026000000000000E10    7.085494659278946E-2  -6.954303264249992E-2  
 2.026200000000000E10    5.831421966394934E-2  -8.058962291323764E-2  
 2.026400000000000E10    4.400621637170535E-2  -8.932650414268667E-2  
 2.026600000000000E10    2.856417120126458E-2  -9.543921821974270E-2  
 2.026800000000000E10    1.222465157544622E-2  -9.904672218734510E-2  
 2.027000000000000E10   -4.696789520201166E-3  -9.994956096749250E-2  
 2.027200000000000E10   -2.160435958429456E-2  -9.785731290102988E-2  
 2.027400000000000E10   -3.782109448632586E-2  -9.280247945435582E-2  
 2.027600000000000E10   -5.299729518643460E-2  -8.506409612334806E-2  
 2.027800000000000E10   -6.654828009087037E-2  -7.487514756098698E-2  
 2.028000000000000E10   -7.820483563858786E-2  -6.252743403423472E-2  
 2.028200000000000E10   -8.748944160951347E-2  -4.850133647439575E-2  
 2.028400000000000E10   -9.449773572068486E-2  -3.318464296099581E-2  
 2.028600000000000E10   -9.886947459195052E-2  -1.686619099520852E-2  
 2.028800000000000E10   -1.004714557826928E-1   1.791536486125152E-4  
 2.029000000000000E10   -9.905054080919638E-2   1.734498273760122E-2  
 2.029200000000000E10   -9.464894433407464E-2   3.405391980366289E-2  
 2.029400000000000E10   -8.738111805768661E-2   4.954894637722211E-2  
 2.029600000000000E10   -7.757082134894058E-2   6.358740146595102E-2  
 2.029800000000000E10   -6.549872699179604E-2   7.575555102815354E-2  
 2.030000000000000E10   -5.174815690014589E-2   8.558390049368594E-2  
 2.030200000000000E10   -3.644938442462593E-2   9.294172051389524E-2  
 2.030400000000000E10   -2.014275908531476E-2   9.763287303174639E-2  
 2.030600000000000E10   -3.532787150957601E-3   9.937568547508191E-2  
 2.030800000000000E10    1.321922992043126E-2   9.844321516356516E-2  
 2.031000000000000E10    2.948010293064213E-2   9.478193655385241E-2  
 2.031200000000000E10    4.499786180049305E-2   8.849532923703332E-2  
 2.031400000000000E10    5.931444542255095E-2   7.957907626085976E-2  
 2.031600000000000E10    7.146470822056626E-2   6.877198638535005E-2  
 2.031800000000000E10    8.195263100340861E-2   5.590258500396961E-2  
 2.032000000000000E10    9.032882680536462E-2   4.107475010946455E-2  
 2.032200000000000E10    9.598949435071201E-2   2.524555461999893E-2  
 2.032400000000000E10    9.883644037326833E-2   8.467505385764507E-3  
 2.032600000000000E10    9.859429373417374E-2  -8.354850642291118E-3  
 2.032800000000000E10    9.559739430132229E-2  -2.493108509284724E-2  
 2.033000000000000E10    8.986848407771200E-2  -4.068305556993263E-2  
 2.033200000000000E10    8.156270002345817E-2  -5.527248891231455E-2  
 2.033400000000000E10    7.098869650288703E-2  -6.811928155286487E-2  
 2.033600000000000E10    6.542160698252289E-2  -7.336571485580895E-2  
 2.033800000000000E10    4.369577407755153E-2  -8.764631921535331E-2  
 2.034000000000000E10    2.829678313466830E-2  -9.362398161564345E-2  
 2.034200000000000E10    1.208642338222437E-2  -9.694520550663743E-2  
 2.034400000000000E10   -4.382106922669094E-3  -9.746331170671437E-2  
 2.034600000000000E10   -2.054966312663219E-2  -9.523584444295560E-2  
 2.034800000000000E10   -3.628578966557572E-2  -9.036187446370865E-2  
 2.035000000000000E10   -5.096345676929372E-2  -8.292406102430348E-2  
 2.035200000000000E10   -6.421772011431812E-2  -7.306453983193401E-2  
 2.035400000000000E10   -7.547795613116198E-2  -6.114447721892098E-2  
 2.035600000000000E10   -8.462526305835436E-2  -4.736935746931409E-2  
 2.035800000000000E10   -9.113832403725558E-2  -3.243083545148619E-2  
 2.036000000000000E10   -9.507708114524602E-2  -1.681258277494885E-2  
 2.036200000000000E10   -9.644438280367558E-2  -6.520869788446750E-4  
 2.036400000000000E10   -9.520810386689768E-2   1.547288811358078E-2  
 2.036600000000000E10   -9.146860804005089E-2   3.084015191388310E-2  
 2.036800000000000E10   -8.521657533156693E-2   4.584507204704652E-2  
 2.037000000000000E10   -7.630897302114098E-2   5.972668959852438E-2  
 2.037200000000000E10   -6.533607656573073E-2   7.179089227821603E-2  
 2.037400000000000E10   -5.239404659764267E-2   8.185677723997416E-2  
 2.037600000000000E10   -3.786308740473906E-2   8.971569412202667E-2  
 2.037800000000000E10   -2.214680299857844E-2   9.495028706244484E-2  
 2.038000000000000E10   -5.858735751810348E-3   9.751108951038787E-2  
 2.038200000000000E10    1.083240148819605E-2   9.717156305725194E-2  
 2.038400000000000E10    2.723498591087729E-2   9.404340585686054E-2  
 2.038600000000000E10    4.279674764911662E-2   8.819465436276423E-2  
 2.038800000000000E10    5.728585373697132E-2   7.978945434992861E-2  
 2.039000000000000E10    7.010637144002406E-2   6.901262274372236E-2  
 2.039200000000000E10    8.096917719670940E-2   5.600279312074921E-2  
 2.039400000000000E10    8.933623097274857E-2   4.127593008885659E-2  
 2.039600000000000E10    9.503128712764332E-2   2.557803177631196E-2  
 2.039800000000000E10    9.798820172685656E-2   9.102379789496729E-3  
 2.040000000000000E10    9.816570302014163E-2  -7.637276827129032E-3  
 2.040200000000000E10    9.545447939012933E-2  -2.415433958101257E-2  
 2.040400000000000E10    8.993381172909169E-2  -4.003133026394989E-2  
 2.040600000000000E10    8.178365433943780E-2  -5.474271953862228E-2  
 2.040800000000000E10    7.125493101213531E-2  -6.787181273613777E-2  
 2.041000000000000E10    5.870870581543169E-2  -7.889981111013350E-2  
 2.041200000000000E10    4.454545844831749E-2  -8.766509229713344E-2  
 2.041400000000000E10    2.898875474469898E-2  -9.401544062893416E-2  
 2.041600000000000E10    1.265717269047911E-2  -9.759637078753228E-2  
 2.041800000000000E10   -4.252601395755885E-3  -9.829125621845369E-2  
 2.042000000000000E10   -2.082222580541799E-2  -9.592653449180197E-2  
 2.042200000000000E10   -3.653885962234604E-2  -9.080601807566174E-2  
 2.042400000000000E10   -5.101772413598004E-2  -8.328009056456297E-2  
 2.042600000000000E10   -6.420621692889023E-2  -7.353458298045749E-2  
 2.042800000000000E10   -7.560490596073646E-2  -6.183862403566620E-2  
 2.043000000000000E10   -8.494920014762750E-2  -4.838777169973600E-2  
 2.043200000000000E10   -9.199308090944186E-2  -3.355644737844278E-2  
 2.043400000000000E10   -9.656596380006141E-2  -1.755146108904984E-2  
 2.043600000000000E10   -9.825608348895495E-2  -1.330775554663667E-3  
 2.043800000000000E10   -9.731702232638834E-2   1.519664503450011E-2  
 2.044000000000000E10   -9.362408976659528E-2   3.164313719269343E-2  
 2.044200000000000E10   -8.717072791891334E-2   4.712398380899627E-2  
 2.044400000000000E10   -7.800826520259163E-2   6.140282625953357E-2  
 2.044600000000000E10   -6.638792684539356E-2   7.397182141679796E-2  
 2.044800000000000E10   -5.272302138318906E-2   8.428679385180338E-2  
 2.045000000000000E10   -3.754866997032991E-2   9.196331961123870E-2  
 2.045200000000000E10   -2.130787025508567E-2   9.691079713107792E-2  
 2.045400000000000E10   -4.620850511631113E-3   9.894557861388960E-2  
 2.045600000000000E10    1.197836543363104E-2   9.817383871688440E-2  
 2.045800000000000E10    2.822333016012513E-2   9.471312068167702E-2  
 2.046000000000000E10    4.374975438225908E-2   8.866418511779221E-2  
 2.046200000000000E10    5.797916108586499E-2   8.011377676401610E-2  
 2.046400000000000E10    7.075296300469768E-2   6.920726390859555E-2  
 2.046600000000000E10    8.146184881119409E-2   5.630408043989757E-2  
 2.046800000000000E10    8.983846269394635E-2   4.172813581668138E-2  
 2.047000000000000E10    9.556546995342188E-2   2.579232630293066E-2  
 2.047200000000000E10    9.847393657485809E-2   9.425862703794316E-3  
 2.047400000000000E10    9.857156891145827E-2  -7.119900926395702E-3  
 2.047600000000000E10    9.596211788217719E-2  -2.349625501030513E-2  
 2.047800000000000E10    9.067821299302073E-2  -3.915127880861076E-2  
 2.048000000000000E10    8.294610581034988E-2  -5.359349372210327E-2  
 2.048200000000000E10    7.298530202834205E-2  -6.676185138227192E-2  
 2.048400000000000E10    6.094580846334027E-2  -7.827766031149484E-2  
 2.048600000000000E10    4.701709532177662E-2  -8.766195336446188E-2  
 2.048800000000000E10    3.147511955846322E-2  -9.456473657419326E-2  
 2.049000000000000E10    1.516023250769400E-2  -9.873451476479757E-2  
 2.049200000000000E10   -1.881650801836188E-3  -9.996421965265799E-2  
 2.049400000000000E10   -1.886215893646245E-2  -9.830774229903937E-2  
 2.049600000000000E10   -3.538309127623816E-2  -9.357355788493191E-2  
 2.049800000000000E10   -5.059165397176038E-2  -8.606231947453752E-2  
 2.050000000000000E10   -6.418672182555063E-2  -7.609319747189274E-2  
 2.050200000000000E10   -7.584849131818663E-2  -6.417016710559692E-2  
 2.050400000000000E10   -8.536016711114366E-2  -5.070200339164101E-2  
 2.050600000000000E10   -9.267056362373841E-2  -3.578918494682745E-2  
 2.050800000000000E10   -9.750729471199798E-2  -1.973217330995656E-2  
 2.051000000000000E10   -9.947642595066458E-2  -3.132809198810240E-3  
 2.051200000000000E10   -9.861151579721478E-2   1.367127387918563E-2  
 2.051400000000000E10   -9.487485276491720E-2   3.012287781531674E-2  
 2.051600000000000E10   -8.835344049256853E-2   4.564984212278175E-2  
 2.051800000000000E10   -7.935766270703577E-2   5.969320390940695E-2  
 2.052000000000000E10   -6.817193318091958E-2   7.205273021927261E-2  
 2.052200000000000E10   -5.508767255928129E-2   8.244910611373735E-2  
 2.052400000000000E10   -4.064719991142695E-2   9.030140398788192E-2  
 2.052600000000000E10   -2.500851185856942E-2   9.571571972103606E-2  
 2.052800000000000E10   -8.825174956972135E-3   9.848308499866718E-2  
 2.053000000000000E10    7.613002884090562E-3   9.866389362409775E-2  
 2.053200000000000E10    2.383994690266493E-2   9.621707011724534E-2  
 2.053400000000000E10    3.963921694353285E-2   9.111843552486397E-2  
 2.053600000000000E10    5.448855366174576E-2   8.338665834465800E-2  
 2.053800000000000E10    6.791743319302758E-2   7.314641997524742E-2  
 2.054000000000000E10    7.938726990392997E-2   6.056846218344607E-2  
 2.054200000000000E10    8.833648026275702E-2   4.652445782768057E-2  
 2.054400000000000E10    9.497825375187056E-2   3.114215337731384E-2  
 2.054600000000000E10    9.900675552535615E-2   1.482266705069277E-2  
 2.054800000000000E10    1.003323814669428E-1  -1.962737819379188E-3  
 2.055000000000000E10    9.875463820043416E-2  -1.903192306241463E-2  
 2.055200000000000E10    9.421516280360676E-2  -3.556577875106423E-2  
 2.055400000000000E10    8.684262025217299E-2  -5.107881473211269E-2  
 2.055600000000000E10    7.686891665347484E-2  -6.509952796993597E-2  
