#  HZ   S   RI   R     50.00 
! Rohde & Schwarz ZVA40 4Ports - Version 3.90 - 1145.1110k42 SN: 100403
! Date: 2023-09-30 07:13:58
! Measurement: S12 
! 
 2.000000000000000E10    3.865393588960744E-2   8.722456755175349E-2  
 2.000200000000000E10    5.246398981216023E-2   8.041744939829587E-2  
 2.000400000000000E10    6.561511234777620E-2   7.051843054214460E-2  
 2.000600000000000E10    7.689273728387347E-2   5.822814264640069E-2  
 2.000800000000000E10    8.572703457867986E-2   4.434972080122297E-2  
 2.001000000000000E10    9.224364618337695E-2   2.883941433884316E-2  
 2.001200000000000E10    9.593060138457762E-2   1.264111760783997E-2  
 2.001400000000000E10    9.674071754611244E-2  -4.088025630179624E-3  
 2.001600000000000E10    9.457427934731968E-2  -2.068125739417695E-2  
 2.001800000000000E10    8.969258914595607E-2  -3.657097117502667E-2  
 2.002000000000000E10    8.195814666107032E-2  -5.159491428336327E-2  
 2.002200000000000E10    7.104888562475868E-2  -6.582511497459623E-2  
 2.002400000000000E10    5.878716656639253E-2  -7.696201296622862E-2  
 2.002600000000000E10    4.463786925144484E-2  -8.580023443788823E-2  
 2.002800000000000E10    2.913240212512770E-2  -9.202755471520301E-2  
 2.003000000000000E10    1.308625256221113E-2  -9.542320934424514E-2  
 2.003200000000000E10   -3.257735650245463E-3  -9.607554174990322E-2  
 2.003400000000000E10   -1.961893074991200E-2  -9.390108374206783E-2  
 2.003600000000000E10   -3.519689448085833E-2  -8.904910754969420E-2  
 2.003800000000000E10   -4.957927529928780E-2  -8.177471805788036E-2  
 2.004000000000000E10   -6.271184796904342E-2  -7.220749361811026E-2  
 2.004200000000000E10   -7.412185509713426E-2  -6.040418523124871E-2  
 2.004400000000000E10   -8.328092396668121E-2  -4.683261771976377E-2  
 2.004600000000000E10   -8.980685740259614E-2  -3.202062655388492E-2  
 2.004800000000000E10   -9.381495652252755E-2  -1.607143791681169E-2  
 2.005000000000000E10   -9.500244218953191E-2  -4.173666273917036E-5  
 2.005200000000000E10   -9.351032992776368E-2   1.605619459741319E-2  
 2.005400000000000E10   -8.939977153747335E-2   3.146156611940498E-2  
 2.005600000000000E10   -8.268375326821835E-2   4.613589595579153E-2  
 2.005800000000000E10   -7.371808209332584E-2   5.932800714003207E-2  
 2.006000000000000E10   -6.257162144502169E-2   7.096588507355978E-2  
 2.006200000000000E10   -4.971265959437166E-2   8.047742820734515E-2  
 2.006400000000000E10   -3.558500181111943E-2   8.756802305681390E-2  
 2.006600000000000E10   -2.009274954402970E-2   9.232056892089885E-2  
 2.006800000000000E10   -4.320466420798474E-3   9.436944323312110E-2  
 2.007000000000000E10    1.158939413879634E-2   9.377395269679437E-2  
 2.007200000000000E10    2.720652633846134E-2   9.055018414767518E-2  
 2.007400000000000E10    4.229519937815981E-2   8.465631916321846E-2  
 2.007600000000000E10    5.598403708127792E-2   7.627969592891440E-2  
 2.007800000000000E10    6.799931819097170E-2   6.588763039462034E-2  
 2.008000000000000E10    7.819979611288538E-2   5.372265926645291E-2  
 2.008200000000000E10    8.648157932262854E-2   3.962846494321961E-2  
 2.008400000000000E10    9.201488106298186E-2   2.451898759315289E-2  
 2.008600000000000E10    9.494335946354848E-2   8.455459301236033E-3  
 2.008800000000000E10    9.509113336950339E-2  -7.682562955183749E-3  
 2.009000000000000E10    9.248813196750991E-2  -2.388165054129966E-2  
 2.009200000000000E10    8.723715758168323E-2  -3.924398789046887E-2  
 2.009400000000000E10    7.939232802031300E-2  -5.368992443540134E-2  
 2.009600000000000E10    6.914438092659532E-2  -6.655974116876456E-2  
 2.009800000000000E10    5.681998554019282E-2  -7.753512136566623E-2  
 2.010000000000000E10    4.249060164181458E-2  -8.630227219870390E-2  
 2.010200000000000E10    2.717052154059028E-2  -9.220733216597057E-2  
 2.010400000000000E10    1.084445840813251E-2  -9.545230744879271E-2  
 2.010600000000000E10   -5.763684087707592E-3  -9.576389281429219E-2  
 2.010800000000000E10   -2.208430392332937E-2  -9.316158609462211E-2  
 2.011000000000000E10   -3.751728065894465E-2  -8.781595902187836E-2  
 2.011200000000000E10   -5.177721167583689E-2  -7.996334861171917E-2  
 2.011400000000000E10   -6.449898860745634E-2  -6.986470905800743E-2  
 2.011600000000000E10   -7.527827066771779E-2  -5.792367780793188E-2  
 2.011800000000000E10   -8.390617816209467E-2  -4.435940757802649E-2  
 2.012000000000000E10   -9.029845153435105E-2  -2.940005374451479E-2  
 2.012200000000000E10   -9.401277177781890E-2  -1.369424330119161E-2  
 2.012400000000000E10   -9.489353913788280E-2   2.724452904618469E-3  
 2.012600000000000E10   -9.281720530716972E-2   1.881078203733811E-2  
 2.012800000000000E10   -8.798396450420140E-2   3.425759738834962E-2  
 2.013000000000000E10   -8.073783689402096E-2   4.845871317452038E-2  
 2.013200000000000E10   -7.130374165637668E-2   6.119611690176041E-2  
 2.013400000000000E10   -5.980802734672452E-2   7.229033999645826E-2  
 2.013600000000000E10   -4.674655546540259E-2   8.122692909219466E-2  
 2.013800000000000E10   -3.248688133512669E-2   8.787387914046013E-2  
 2.014000000000000E10   -1.700969819689811E-2   9.210712116196324E-2  
 2.014200000000000E10   -1.353556705148193E-3   9.362889270314792E-2  
 2.014400000000000E10    1.442363447240147E-2   9.247207041671411E-2  
 2.014600000000000E10    2.976753413983824E-2   8.877316552670406E-2  
 2.014800000000000E10    4.437186193380337E-2   8.244579134123153E-2  
 2.015000000000000E10    5.774793294047624E-2   7.364878281235532E-2  
 2.015200000000000E10    6.911764956182905E-2   6.289258526717359E-2  
 2.015400000000000E10    7.873157753170929E-2   5.029310835384866E-2  
 2.015600000000000E10    8.603360144158287E-2   3.654423872691123E-2  
 2.015800000000000E10    9.113700579550368E-2   2.148187807946376E-2  
 2.016000000000000E10    9.362066341934545E-2   5.822733591409052E-3  
 2.016200000000000E10    9.348962746243747E-2  -1.000281684841598E-2  
 2.016400000000000E10    9.060070383655028E-2  -2.576200800995114E-2  
 2.016600000000000E10    8.500633908969713E-2  -4.097261386623272E-2  
 2.016800000000000E10    7.685237198005163E-2  -5.486965287778277E-2  
 2.017000000000000E10    6.637779379005460E-2  -6.718947789510420E-2  
 2.017200000000000E10    5.418061969395529E-2  -7.738990358119149E-2  
 2.017400000000000E10    4.022223491666249E-2  -8.574283267122239E-2  
 2.017600000000000E10    2.499229901193020E-2  -9.154390765479237E-2  
 2.017800000000000E10    9.008399999108990E-3  -9.462497363937573E-2  
 2.018000000000000E10   -7.531265701347419E-3  -9.477710651313002E-2  
 2.018200000000000E10   -2.359985308248974E-2  -9.198848419760156E-2  
 2.018400000000000E10   -3.895338043693163E-2  -8.646464820016070E-2  
 2.018600000000000E10   -5.311986481558803E-2  -7.846296524478250E-2  
 2.018800000000000E10   -6.562375342690570E-2  -6.817136529132992E-2  
 2.019000000000000E10   -7.612187429669791E-2  -5.587233147687383E-2  
 2.019200000000000E10   -8.429837074585578E-2  -4.212528634279844E-2  
 2.019400000000000E10   -9.017578404095275E-2  -2.702683579069352E-2  
 2.019600000000000E10   -9.340038180187735E-2  -1.147536335280485E-2  
 2.019800000000000E10   -9.394368969813624E-2   4.432686706123406E-3  
 2.020000000000000E10   -9.177533893837034E-2   2.038373275620375E-2  
 2.020200000000000E10   -8.688103593630392E-2   3.561868539031478E-2  
 2.020400000000000E10   -7.951270948344300E-2   4.981892076621168E-2  
 2.020600000000000E10   -6.979056243338867E-2   6.250406485894090E-2  
 2.020800000000000E10   -5.810659621498550E-2   7.330819317465458E-2  
 2.021000000000000E10   -4.475513815021320E-2   8.189790451641110E-2  
 2.021200000000000E10   -3.018726479768017E-2   8.819817084262074E-2  
 2.021400000000000E10   -1.493040438158890E-2   9.185348213005133E-2  
 2.021600000000000E10    8.507858465498488E-4   9.293079570405932E-2  
 2.021800000000000E10    1.631839186290410E-2   9.134474908741415E-2  
 2.022000000000000E10    3.155015686473239E-2   8.712652462581877E-2  
 2.022200000000000E10    4.568551207888765E-2   8.050732009000414E-2  
 2.022400000000000E10    5.842293678324247E-2   7.167021997671561E-2  
 2.022600000000000E10    6.961123569675598E-2   6.085031408055167E-2  
 2.022800000000000E10    7.893578477193627E-2   4.833618504479426E-2  
 2.023000000000000E10    8.597334912774986E-2   3.438144557903661E-2  
 2.023200000000000E10    9.057740117991740E-2   1.921186919626876E-2  
 2.023400000000000E10    9.253181954551955E-2   3.650349692923154E-3  
 2.023600000000000E10    9.187186410234136E-2  -1.197755189334005E-2  
 2.023800000000000E10    8.848646178902914E-2  -2.733870235173382E-2  
 2.024000000000000E10    8.252142120372449E-2  -4.199328025693103E-2  
 2.024200000000000E10    7.413563113889578E-2  -5.538754225472201E-2  
 2.024400000000000E10    6.370897034109049E-2  -6.699319771492270E-2  
 2.024600000000000E10    5.137192076698090E-2  -7.671142631147790E-2  
 2.024800000000000E10    3.765638868116221E-2  -8.422069994551329E-2  
 2.025000000000000E10    2.296913042920035E-2  -8.930337679443373E-2  
 2.025200000000000E10    7.669749431470500E-3  -9.199595642474127E-2  
 2.025400000000000E10   -7.959975220968205E-3  -9.212843648608984E-2  
 2.025600000000000E10   -2.352693216014138E-2  -8.962093151605016E-2  
 2.025800000000000E10   -3.850261808790789E-2  -8.443607304076600E-2  
 2.026000000000000E10   -5.246326451500259E-2  -7.658848964669252E-2  
 2.026200000000000E10   -6.489636297292999E-2  -6.636393321639718E-2  
 2.026400000000000E10   -7.516343676994859E-2  -5.420430492614851E-2  
 2.026600000000000E10   -8.316192104492659E-2  -4.051829602656214E-2  
 2.026800000000000E10   -8.870740126516921E-2  -2.557502748299038E-2  
 2.027000000000000E10   -9.156417687243396E-2  -1.008475959474740E-2  
 2.027200000000000E10   -9.176544753121743E-2   5.489062646912369E-3  
 2.027400000000000E10   -8.931816688167707E-2   2.109571260914963E-2  
 2.027600000000000E10   -8.434749302672753E-2   3.574599679789426E-2  
 2.027800000000000E10   -7.689914765508416E-2   4.949851590623908E-2  
 2.028000000000000E10   -6.720953552238899E-2   6.180706066277457E-2  
 2.028200000000000E10   -5.562643160524847E-2   7.218742912280055E-2  
 2.028400000000000E10   -4.247104597312433E-2   8.039899445324115E-2  
 2.028600000000000E10   -2.811453575511120E-2   8.624904731541505E-2  
 2.028800000000000E10   -1.310414699288226E-2   8.955895995774879E-2  
 2.029000000000000E10    2.375453582388390E-3   9.028566569416940E-2  
 2.029200000000000E10    1.742631248077084E-2   8.839891254084265E-2  
 2.029400000000000E10    3.209683514712443E-2   8.406728178017425E-2  
 2.029600000000000E10    4.578553955741381E-2   7.724953233296326E-2  
 2.029800000000000E10    5.806294823543200E-2   6.813065039277569E-2  
 2.030000000000000E10    6.855233380537792E-2   5.727745570109542E-2  
 2.030200000000000E10    7.709737339750730E-2   4.480645478548501E-2  
 2.030400000000000E10    8.324962221750346E-2   3.128353755445883E-2  
 2.030600000000000E10    8.723809190901874E-2   1.668829266211869E-2  
 2.030800000000000E10    8.873761589389771E-2   1.869760688288273E-3  
 2.031000000000000E10    8.775929233828364E-2  -1.305777345884934E-2  
 2.031200000000000E10    8.423018594501114E-2  -2.781282933058400E-2  
 2.031400000000000E10    7.814570533722354E-2  -4.174758906288403E-2  
 2.031600000000000E10    7.008134848623447E-2  -5.378982301070694E-2  
 2.031800000000000E10    5.987086993819729E-2  -6.474839540298094E-2  
 2.032000000000000E10    4.800352983084727E-2  -7.372912556055643E-2  
 2.032200000000000E10    3.491513801046197E-2  -8.069773663259502E-2  
 2.032400000000000E10    2.086811624109664E-2  -8.533966693572384E-2  
 2.032600000000000E10    6.113126805621944E-3  -8.758232547340734E-2  
 2.032800000000000E10   -8.861039192843749E-3  -8.721258038519505E-2  
 2.033000000000000E10   -2.339377068494165E-2  -8.428831395421010E-2  
 2.033200000000000E10   -3.728023630315221E-2  -7.895720255432143E-2  
 2.033400000000000E10   -5.006800332350660E-2  -7.142961161167698E-2  
 2.033600000000000E10   -5.517147639344749E-2  -6.748238148676189E-2  
 2.033800000000000E10   -7.094969363328689E-2  -5.041864980395440E-2  
 2.034000000000000E10   -7.837567664427358E-2  -3.764927203272597E-2  
 2.034200000000000E10   -8.349029816922175E-2  -2.384119122883175E-2  
 2.034400000000000E10   -8.622391868398024E-2  -9.378014610178351E-3  
 2.034600000000000E10   -8.649111635196030E-2   5.344877460912709E-3  
 2.034800000000000E10   -8.422712410387516E-2   1.986296448105402E-2  
 2.035000000000000E10   -7.947193403997868E-2   3.391026400939264E-2  
 2.035200000000000E10   -7.242961453761912E-2   4.667818592797419E-2  
 2.035400000000000E10   -6.333017975746033E-2   5.817032763823888E-2  
 2.035600000000000E10   -5.251094299804201E-2   6.785427937373541E-2  
 2.035800000000000E10   -4.035582660157004E-2   7.558602009821985E-2  
 2.036000000000000E10   -2.697199668648394E-2   8.116393384047171E-2  
 2.036200000000000E10   -1.277079336621143E-2   8.445427415506668E-2  
 2.036400000000000E10    1.556638785381131E-3   8.526151401434090E-2  
 2.036600000000000E10    1.597797260485559E-2   8.364267361098685E-2  
 2.036800000000000E10    2.972702950300504E-2   7.960978519319673E-2  
 2.037000000000000E10    4.264013044055762E-2   7.332158390182200E-2  
 2.037200000000000E10    5.432559835465194E-2   6.505239911285449E-2  
 2.037400000000000E10    6.444245844629731E-2   5.494421737368216E-2  
 2.037600000000000E10    7.265661232715119E-2   4.329938329091942E-2  
 2.037800000000000E10    7.894876604421967E-2   3.024195506146743E-2  
 2.038000000000000E10    8.288168453385311E-2   1.663668701279556E-2  
 2.038200000000000E10    8.443315612313189E-2   2.255497894739153E-3  
 2.038400000000000E10    8.344923705884624E-2  -1.216689724633560E-2  
 2.038600000000000E10    7.998644590214285E-2  -2.605758274973094E-2  
 2.038800000000000E10    7.425374461054313E-2  -3.913646023235040E-2  
 2.039000000000000E10    6.658289699070412E-2  -5.088191645523976E-2  
 2.039200000000000E10    5.702962268486272E-2  -6.131592621855612E-2  
 2.039400000000000E10    4.579402027531580E-2  -7.004961822135949E-2  
 2.039600000000000E10    3.344959853056037E-2  -7.672541364720820E-2  
 2.039800000000000E10    1.992067974699541E-2  -8.129049679175000E-2  
 2.040000000000000E10    5.679902218829009E-3  -8.350547812930188E-2  
 2.040200000000000E10   -8.523726258401355E-3  -8.314915450062446E-2  
 2.040400000000000E10   -2.267389375823761E-2  -8.019766670400061E-2  
 2.040600000000000E10   -3.582491688379208E-2  -7.476095806178734E-2  
 2.040800000000000E10   -4.758928785680580E-2  -6.745335954370488E-2  
 2.041000000000000E10   -5.800806028341725E-2  -5.836993743076574E-2  
 2.041200000000000E10   -6.685596574685539E-2  -4.773699245396466E-2  
 2.041400000000000E10   -7.379907386988116E-2  -3.607608353404843E-2  
 2.041600000000000E10   -7.892044188022943E-2  -2.317885210832124E-2  
 2.041800000000000E10   -8.175367406161889E-2  -9.425754076322167E-3  
 2.042000000000000E10   -8.211033630845316E-2   4.439642020489699E-3  
 2.042200000000000E10   -8.005488127347374E-2   1.833510764495091E-2  
 2.042400000000000E10   -7.566847301641447E-2   3.161001979119167E-2  
 2.042600000000000E10   -6.912491202804125E-2   4.383458996342371E-2  
 2.042800000000000E10   -6.060307224591575E-2   5.483146755354396E-2  
 2.043000000000000E10   -5.046119606339557E-2   6.417955445899887E-2  
 2.043200000000000E10   -3.883402903956478E-2   7.172941417524029E-2  
 2.043400000000000E10   -2.595173595894757E-2   7.723270660197294E-2  
 2.043600000000000E10   -1.264142719530520E-2   8.036113487472260E-2  
 2.043800000000000E10    1.149082962942242E-3   8.117852388626919E-2  
 2.044000000000000E10    1.495780264358299E-2   7.962184304317821E-2  
 2.044200000000000E10    2.805998050115891E-2   7.575746252621807E-2  
 2.044400000000000E10    4.038600392118404E-2   6.967245387769369E-2  
 2.044600000000000E10    5.146322761686578E-2   6.167564179814730E-2  
 2.044800000000000E10    6.096311962163008E-2   5.196396405048497E-2  
 2.045000000000000E10    6.872146505101065E-2   4.067621404619375E-2  
 2.045200000000000E10    7.422712928678110E-2   2.854946017551488E-2  
 2.045400000000000E10    7.774041518466790E-2   1.566524346919912E-2  
 2.045600000000000E10    7.905605334190677E-2   2.222040333096527E-3  
 2.045800000000000E10    7.800804387231261E-2  -1.101051299961792E-2  
 2.046000000000000E10    7.473813231385459E-2  -2.378290683664740E-2  
 2.046200000000000E10    6.938956689155970E-2  -3.586403965766048E-2  
 2.046400000000000E10    6.224772794011199E-2  -4.667553314313150E-2  
 2.046600000000000E10    5.345265953118092E-2  -5.615029265830711E-2  
 2.046800000000000E10    4.321375085534056E-2  -6.417521951906639E-2  
 2.047000000000000E10    3.187671858454520E-2  -7.032070791320710E-2  
 2.047200000000000E10    1.974670885869178E-2  -7.449592495610523E-2  
 2.047400000000000E10    7.037854499205314E-3  -7.657653485796581E-2  
 2.047600000000000E10   -5.666813612577030E-3  -7.654690381716964E-2  
 2.047800000000000E10   -1.829940456493320E-2  -7.442636393388769E-2  
 2.048000000000000E10   -3.053154142008806E-2  -7.019895340720977E-2  
 2.048200000000000E10   -4.162648564973650E-2  -6.397951719324285E-2  
 2.048400000000000E10   -5.166101947283713E-2  -5.595375469723520E-2  
 2.048600000000000E10   -6.010453847067020E-2  -4.642981701161310E-2  
 2.048800000000000E10   -6.679270941820328E-2  -3.578643003077502E-2  
 2.049000000000000E10   -7.169977135046685E-2  -2.424903263035135E-2  
 2.049200000000000E10   -7.471677336959356E-2  -1.189216655718651E-2  
 2.049400000000000E10   -7.554723697475610E-2   5.457852786631719E-4  
 2.049600000000000E10   -7.425916363550314E-2   1.306994877811854E-2  
 2.049800000000000E10   -7.103238869024076E-2   2.516040162519337E-2  
 2.050000000000000E10   -6.591410956387658E-2   3.650884219382690E-2  
 2.050200000000000E10   -5.891497408656918E-2   4.710329545787007E-2  
 2.050400000000000E10   -5.012698751581714E-2   5.632161256564663E-2  
 2.050600000000000E10   -3.996283201237602E-2   6.380097507735504E-2  
 2.050800000000000E10   -2.872064374438366E-2   6.942529705530659E-2  
 2.051000000000000E10   -1.678174718785188E-2   7.315454465453355E-2  
 2.051200000000000E10   -4.445173102462939E-3   7.488834260054578E-2  
 2.051400000000000E10    8.063148633054421E-3   7.448042098264146E-2  
 2.051600000000000E10    2.028381472404929E-2   7.211921350782628E-2  
 2.051800000000000E10    3.193749288615704E-2   6.776617462293276E-2  
 2.052000000000000E10    4.282503681888469E-2   6.158079564142130E-2  
 2.052200000000000E10    5.259282219086983E-2   5.354743371161906E-2  
 2.052400000000000E10    6.083114645526898E-2   4.394337081124263E-2  
 2.052600000000000E10    6.719554013308185E-2   3.303163875768215E-2  
 2.052800000000000E10    7.159314663321885E-2   2.143208497550099E-2  
 2.053000000000000E10    7.411067089671462E-2   9.295851402291302E-3  
 2.053200000000000E10    7.464422804746773E-2  -3.119314320651184E-3  
 2.053400000000000E10    7.309657628603271E-2  -1.550768820673677E-2  
 2.053600000000000E10    6.944775842998910E-2  -2.742243128150334E-2  
 2.053800000000000E10    6.388118583070235E-2  -3.858128549794275E-2  
 2.054000000000000E10    5.657048008324189E-2  -4.867551476785349E-2  
 2.054200000000000E10    4.777122078915683E-2  -5.730521750977501E-2  
 2.054400000000000E10    3.764934363086365E-2  -6.439276376869454E-2  
 2.054600000000000E10    2.634221925534339E-2  -6.977748999625077E-2  
 2.054800000000000E10    1.452778674794977E-2  -7.323104845275605E-2  
 2.055000000000000E10    2.264764144587419E-3  -7.467764483148998E-2  
 2.055200000000000E10   -1.019016605008532E-2  -7.404844749039258E-2  
 2.055400000000000E10   -2.232464001768247E-2  -7.142819832136603E-2  
 2.055600000000000E10   -3.384296868931610E-2  -6.691445316225086E-2  
