#  HZ   S   RI   R     50.00 
! Rohde & Schwarz ZVA40 4Ports - Version 3.90 - 1145.1110k42 SN: 100403
! Date: 2023-09-30 05:51:23
! Measurement: S12 
! 
 2.000000000000000E10    5.185713963928047E-2   8.915289589529667E-2  
 2.000200000000000E10    6.579026359098930E-2   8.010066616437073E-2  
 2.000400000000000E10    7.867198434386236E-2   6.785480411332331E-2  
 2.000600000000000E10    8.936932600206800E-2   5.328239448399211E-2  
 2.000800000000000E10    9.726386974132603E-2   3.725531294083400E-2  
 2.001000000000000E10    1.024198217524423E-1   1.970151149564320E-2  
 2.001200000000000E10    1.042807375084716E-1   1.740223920469100E-3  
 2.001400000000000E10    1.028833130504860E-1  -1.637318067313958E-2  
 2.001600000000000E10    9.830188999573392E-2  -3.388013679978780E-2  
 2.001800000000000E10    9.085663653327605E-2  -5.016910447259990E-2  
 2.002000000000000E10    8.062340711615215E-2  -6.501191385366299E-2  
 2.002200000000000E10    6.710438510027443E-2  -7.848410992097464E-2  
 2.002400000000000E10    5.281811324044021E-2  -8.846967118512457E-2  
 2.002600000000000E10    3.706688646978312E-2  -9.599735348680874E-2  
 2.002800000000000E10    2.016665632434098E-2  -1.009440650481256E-1  
 2.003000000000000E10    2.759123915220025E-3  -1.028087553050783E-1  
 2.003200000000000E10   -1.478868444668658E-2  -1.016371473056790E-1  
 2.003400000000000E10   -3.188917083750047E-2  -9.736888898620882E-2  
 2.003600000000000E10   -4.785255854757725E-2  -9.039536894226272E-2  
 2.003800000000000E10   -6.230866332603582E-2  -8.098378179617871E-2  
 2.004000000000000E10   -7.517369493167589E-2  -6.910846060440866E-2  
 2.004200000000000E10   -8.571589477513554E-2  -5.509417100882335E-2  
 2.004400000000000E10   -9.355167894329064E-2  -3.965595074825817E-2  
 2.004600000000000E10   -9.860455318365570E-2  -2.340467369237555E-2  
 2.004800000000000E10   -1.010782231457930E-1  -6.340074337589644E-3  
 2.005000000000000E10   -1.006994805463548E-1   1.070936848581941E-2  
 2.005200000000000E10   -9.749035782529494E-2   2.757428952113347E-2  
 2.005400000000000E10   -9.147322239208615E-2   4.363557257892664E-2  
 2.005600000000000E10   -8.274185277306986E-2   5.860505312865164E-2  
 2.005800000000000E10   -7.161030651610575E-2   7.178425975910432E-2  
 2.006000000000000E10   -5.839631681947552E-2   8.279506773247151E-2  
 2.006200000000000E10   -4.353165733838769E-2   9.149816518825760E-2  
 2.006400000000000E10   -2.762912859979235E-2   9.749483737190078E-2  
 2.006600000000000E10   -1.057137324716206E-2   1.009220584859083E-1  
 2.006800000000000E10    6.640260023497996E-3   1.014169576298062E-1  
 2.007000000000000E10    2.399543050385307E-2   9.891245259669584E-2  
 2.007200000000000E10    4.057509663664265E-2   9.330304960409802E-2  
 2.007400000000000E10    5.598907207939852E-2   8.487606674064827E-2  
 2.007600000000000E10    6.942958418479184E-2   7.401283575919432E-2  
 2.007800000000000E10    8.087373659811885E-2   6.112546562657927E-2  
 2.008000000000000E10    8.997512329753045E-2   4.654656381273467E-2  
 2.008200000000000E10    9.646440662229014E-2   3.049144069874974E-2  
 2.008400000000000E10    1.000792133035483E-1   1.413973847427118E-2  
 2.008600000000000E10    1.011351430060442E-1  -2.960960315339222E-3  
 2.008800000000000E10    9.933323192375680E-2  -2.009819355245236E-2  
 2.009000000000000E10    9.466490155630153E-2  -3.669932549014504E-2  
 2.009200000000000E10    8.723403283475359E-2  -5.223050376270044E-2  
 2.009400000000000E10    7.714018354445329E-2  -6.647100590874630E-2  
 2.009600000000000E10    6.457301710613472E-2  -7.891254384576540E-2  
 2.009800000000000E10    5.030149474372100E-2  -8.863867316471698E-2  
 2.010000000000000E10    3.430151022633408E-2  -9.591786891467288E-2  
 2.010200000000000E10    1.757550210435204E-2  -1.002397438196979E-1  
 2.010400000000000E10    2.310547373811392E-4  -1.017861948827657E-1  
 2.010600000000000E10   -1.701141952885767E-2  -1.003873128091357E-1  
 2.010800000000000E10   -3.387537629270750E-2  -9.607482306015347E-2  
 2.011000000000000E10   -4.973463438175343E-2  -8.882625109742209E-2  
 2.011200000000000E10   -6.403666440351510E-2  -7.906853009030654E-2  
 2.011400000000000E10   -7.652315871460449E-2  -6.709443235102997E-2  
 2.011600000000000E10   -8.698158800111387E-2  -5.310622996692796E-2  
 2.011800000000000E10   -9.475719275665875E-2  -3.748826789880486E-2  
 2.012000000000000E10   -9.970188996306174E-2  -2.064155252964654E-2  
 2.012200000000000E10   -1.016630670170725E-1  -3.357440308445429E-3  
 2.012400000000000E10   -1.006027947298784E-1   1.393182253380739E-2  
 2.012600000000000E10   -9.658761797741119E-2   3.084318085339825E-2  
 2.012800000000000E10   -8.981315092540082E-2   4.665290105919289E-2  
 2.013000000000000E10   -8.044917007655275E-2   6.113543375222773E-2  
 2.013200000000000E10   -6.895431535847395E-2   7.358174277431191E-2  
 2.013400000000000E10   -5.543857406625533E-2   8.410110585238217E-2  
 2.013600000000000E10   -4.033673096279549E-2   9.215282121435606E-2  
 2.013800000000000E10   -2.435831952487491E-2   9.747812243891355E-2  
 2.014000000000000E10   -7.501740826853389E-3   1.000662362624589E-1  
 2.014200000000000E10    9.184664145970542E-3   9.996560678928479E-2  
 2.014400000000000E10    2.578543155710884E-2   9.710587184002371E-2  
 2.014600000000000E10    4.204516492998650E-2   9.143023266468520E-2  
 2.014800000000000E10    5.684763324972043E-2   8.305146287620804E-2  
 2.015000000000000E10    7.011329309072026E-2   7.223768826620079E-2  
 2.015200000000000E10    8.123059763952539E-2   5.935095451434945E-2  
 2.015400000000000E10    9.014114933739965E-2   4.453707040276057E-2  
 2.015600000000000E10    9.626353305185775E-2   2.869462293913826E-2  
 2.015800000000000E10    9.962763710890289E-2   1.224193833155151E-2  
 2.016000000000000E10    1.002330665971026E-1  -4.839801472906836E-3  
 2.016200000000000E10    9.795549413794845E-2  -2.161493147780866E-2  
 2.016400000000000E10    9.300819980632133E-2  -3.761160985371213E-2  
 2.016600000000000E10    8.548917934114551E-2  -5.279888577544642E-2  
 2.016800000000000E10    7.543900888029931E-2  -6.655646305638577E-2  
 2.017000000000000E10    6.311278275133653E-2  -7.851292330909659E-2  
 2.017200000000000E10    4.891442498307170E-2  -8.821208106637493E-2  
 2.017400000000000E10    3.314816441248965E-2  -9.529554831638261E-2  
 2.017600000000000E10    1.610575607544724E-2  -9.953868524037272E-2  
 2.017800000000000E10   -8.800479548948780E-4  -1.006367445421317E-1  
 2.018000000000000E10   -1.802365116223141E-2  -9.882533363231418E-2  
 2.018200000000000E10   -3.439422402484918E-2  -9.422165989385221E-2  
 2.018400000000000E10   -4.972638928718529E-2  -8.701610289238118E-2  
 2.018600000000000E10   -6.371059762352289E-2  -7.719456389117144E-2  
 2.018800000000000E10   -7.576118639589830E-2  -6.507839099983130E-2  
 2.019000000000000E10   -8.543066195990323E-2  -5.118898365171359E-2  
 2.019200000000000E10   -9.265004153604861E-2  -3.598408739814543E-2  
 2.019400000000000E10   -9.717649650671847E-2  -1.990194033846689E-2  
 2.019600000000000E10   -9.909506816677598E-2  -3.218317266894743E-3  
 2.019800000000000E10   -9.806732591164949E-2   1.355117575913177E-2  
 2.020000000000000E10   -9.424290563834550E-2   2.974513694337366E-2  
 2.020200000000000E10   -8.774957431809893E-2   4.505061545244461E-2  
 2.020400000000000E10   -7.890945853887764E-2   5.905783092104851E-2  
 2.020600000000000E10   -6.772551820479304E-2   7.144661821087693E-2  
 2.020800000000000E10   -5.465785295936307E-2   8.176098668894161E-2  
 2.021000000000000E10   -4.023569892831301E-2   8.961711820874196E-2  
 2.021200000000000E10   -2.454843756899913E-2   9.511651764068095E-2  
 2.021400000000000E10   -8.078835404443522E-3   9.789159510729245E-2  
 2.021600000000000E10    8.570757418594980E-3   9.773708840088592E-2  
 2.021800000000000E10    2.488086167952897E-2   9.471681422780082E-2  
 2.022000000000000E10    4.028444010534404E-2   8.914068853290975E-2  
 2.022200000000000E10    5.472277416061963E-2   8.103027148747151E-2  
 2.022400000000000E10    6.750151315711654E-2   7.071933947472907E-2  
 2.022600000000000E10    7.845436818437812E-2   5.829636892112196E-2  
 2.022800000000000E10    8.717803246199840E-2   4.417802586599633E-2  
 2.023000000000000E10    9.331902846264742E-2   2.892101329939111E-2  
 2.023200000000000E10    9.685690471051654E-2   1.282641674495406E-2  
 2.023400000000000E10    9.766705438433362E-2  -3.974404216671187E-3  
 2.023600000000000E10    9.563019926901219E-2  -2.020255818871069E-2  
 2.023800000000000E10    9.086773170487872E-2  -3.612425026518328E-2  
 2.024000000000000E10    8.345048509752800E-2  -5.095834252826962E-2  
 2.024200000000000E10    7.353202974109493E-2  -6.443921314100180E-2  
 2.024400000000000E10    6.155647331304512E-2  -7.590147990871360E-2  
 2.024600000000000E10    4.793116388988104E-2  -8.516315058057691E-2  
 2.024800000000000E10    3.287903414157684E-2  -9.212254518221437E-2  
 2.025000000000000E10    1.659068620836539E-2  -9.650435356936830E-2  
 2.025200000000000E10    1.273649885298098E-4  -9.798049834775338E-2  
 2.025400000000000E10   -1.668927885224054E-2  -9.660016101451571E-2  
 2.025600000000000E10   -3.297269347395917E-2  -9.237413313776378E-2  
 2.025800000000000E10   -4.816748670957707E-2  -8.553706081929031E-2  
 2.026000000000000E10   -6.209409893049626E-2  -7.600258956107585E-2  
 2.026200000000000E10   -7.424720781452864E-2  -6.422154731098027E-2  
 2.026400000000000E10   -8.418662895145732E-2  -5.059606586525470E-2  
 2.026600000000000E10   -9.169363270325917E-2  -3.534536335019418E-2  
 2.026800000000000E10   -9.630938340361719E-2  -1.895983264218142E-2  
 2.027000000000000E10   -9.795838720146032E-2  -1.926674804824631E-3  
 2.027200000000000E10   -9.654566936900097E-2   1.486539357790241E-2  
 2.027400000000000E10   -9.229863134553895E-2   3.112762427501718E-2  
 2.027600000000000E10   -8.531926253450262E-2   4.631062287362025E-2  
 2.027800000000000E10   -7.602320691195046E-2   5.993765525121259E-2  
 2.028000000000000E10   -6.458589857743112E-2   7.181076003322877E-2  
 2.028200000000000E10   -5.123181047814865E-2   8.171339633533495E-2  
 2.028400000000000E10   -3.650137053902258E-2   8.901513423080798E-2  
 2.028600000000000E10   -2.073895404644219E-2   9.374932901849473E-2  
 2.028800000000000E10   -4.433736125574498E-3   9.579743153641745E-2  
 2.029000000000000E10    1.197745514566025E-2   9.493188866617261E-2  
 2.029200000000000E10    2.795494416797603E-2   9.120647458995812E-2  
 2.029400000000000E10    4.291928383241957E-2   8.492006496392161E-2  
 2.029600000000000E10    5.653126145341270E-2   7.619177850553530E-2  
 2.029800000000000E10    6.853980485181260E-2   6.523731001365334E-2  
 2.030000000000000E10    7.833818291072493E-2   5.261443727055697E-2  
 2.030200000000000E10    8.592172172457104E-2   3.850460250252560E-2  
 2.030400000000000E10    9.097239651061871E-2   2.334666416938168E-2  
 2.030600000000000E10    9.339009023007053E-2   7.769270621838026E-3  
 2.030800000000000E10    9.323446955455185E-2  -8.106059820195775E-3  
 2.031000000000000E10    9.045437968684814E-2  -2.365195919824726E-2  
 2.031200000000000E10    8.514493449357313E-2  -3.844777494668961E-2  
 2.031400000000000E10    7.737072860753096E-2  -5.236479908289243E-2  
 2.031600000000000E10    6.783513528574642E-2  -6.426877795178214E-2  
 2.031800000000000E10    5.609816975063749E-2  -7.490332274402611E-2  
 2.032000000000000E10    4.217755270225031E-2  -8.350411814794620E-2  
 2.032200000000000E10    2.735772045183575E-2  -8.929851755438520E-2  
 2.032400000000000E10    1.178026604063717E-2  -9.245775866900943E-2  
 2.032600000000000E10   -3.996291138431050E-3  -9.299110179698027E-2  
 2.032800000000000E10   -1.964846774629114E-2  -9.088976947981635E-2  
 2.033000000000000E10   -3.475412934895897E-2  -8.618123412377551E-2  
 2.033200000000000E10   -4.889572946806995E-2  -7.899778416004692E-2  
 2.033400000000000E10   -6.151226494047378E-2  -6.951262394096627E-2  
 2.033600000000000E10   -6.667249821463732E-2  -6.457260956244215E-2  
 2.033800000000000E10   -8.128030343678755E-2  -4.480039976813176E-2  
 2.034000000000000E10   -8.788876431714361E-2  -3.025019670158257E-2  
 2.034200000000000E10   -9.178238546038853E-2  -1.463711922490057E-2  
 2.034400000000000E10   -9.284783473598615E-2   1.144397817216737E-3  
 2.034600000000000E10   -9.119826221049079E-2   1.690247032500099E-2  
 2.034800000000000E10   -8.691897384301137E-2   3.221831892314272E-2  
 2.035000000000000E10   -8.015174571991950E-2   4.649470715856357E-2  
 2.035200000000000E10   -7.084851917415981E-2   5.948408478449403E-2  
 2.035400000000000E10   -5.948771432103445E-2   7.051359558546985E-2  
 2.035600000000000E10   -4.661334450107544E-2   7.935472866022048E-2  
 2.035800000000000E10   -3.252824933225972E-2   8.590853281717734E-2  
 2.036000000000000E10   -1.756072947333870E-2   9.002948941762556E-2  
 2.036200000000000E10   -2.014739566325467E-3   9.158608424688074E-2  
 2.036400000000000E10    1.337321861091342E-2   9.060686388256128E-2  
 2.036600000000000E10    2.830870960812265E-2   8.720644719806719E-2  
 2.036800000000000E10    4.278618854627688E-2   8.125056298794571E-2  
 2.037000000000000E10    5.612482636431117E-2   7.272573122026499E-2  
 2.037200000000000E10    6.768489420536615E-2   6.218310851803043E-2  
 2.037400000000000E10    7.738030474985580E-2   4.957302501846735E-2  
 2.037600000000000E10    8.461818175673977E-2   3.552519050215989E-2  
 2.037800000000000E10    8.924429465100600E-2   2.044837304808721E-2  
 2.038000000000000E10    9.113858410237749E-2   4.923400149101953E-3  
 2.038200000000000E10    9.030467296333471E-2  -1.064860136650595E-2  
 2.038400000000000E10    8.687814423208866E-2  -2.555467533292594E-2  
 2.038600000000000E10    8.116517261958417E-2  -3.968220398811156E-2  
 2.038800000000000E10    7.326017709548582E-2  -5.261116804470743E-2  
 2.039000000000000E10    6.339133852793848E-2  -6.396623734584073E-2  
 2.039200000000000E10    5.170748934701638E-2  -7.360207507149183E-2  
 2.039400000000000E10    3.857759928997653E-2  -8.128588974721149E-2  
 2.039600000000000E10    2.443601067634032E-2  -8.663776277759930E-2  
 2.039800000000000E10    9.269610702715540E-3  -8.957068186728553E-2  
 2.040000000000000E10   -6.049121896747822E-3  -8.968997446229921E-2  
 2.040200000000000E10   -2.110346300918379E-2  -8.713690025938883E-2  
 2.040400000000000E10   -3.541574090596580E-2  -8.202373472506128E-2  
 2.040600000000000E10   -4.863959253447538E-2  -7.457151521503191E-2  
 2.040800000000000E10   -6.019982422698183E-2  -6.503215251268184E-2  
 2.041000000000000E10   -6.987529919471272E-2  -5.397113828072824E-2  
 2.041200000000000E10   -7.763550792334012E-2  -4.158371181031804E-2  
 2.041400000000000E10   -8.339079871099184E-2  -2.807241732660881E-2  
 2.041600000000000E10   -8.678914005619019E-2  -1.394512247938065E-2  
 2.041800000000000E10   -8.791297220398861E-2   8.435857663345005E-4  
 2.042000000000000E10   -8.646422830015545E-2   1.546226800591858E-2  
 2.042200000000000E10   -8.258686036852653E-2   2.952490389776329E-2  
 2.042400000000000E10   -7.646889671867277E-2   4.285677451900985E-2  
 2.042600000000000E10   -6.818995594119831E-2   5.507370731467574E-2  
 2.042800000000000E10   -5.810864787901381E-2   6.563817347886633E-2  
 2.043000000000000E10   -4.622523503477682E-2   7.451731076946966E-2  
 2.043200000000000E10   -3.294769726662970E-2   8.130689130889046E-2  
 2.043400000000000E10   -1.874578124824375E-2   8.562745923490682E-2  
 2.043600000000000E10   -4.131575223296084E-3   8.743518514275062E-2  
 2.043800000000000E10    1.070500566114369E-2   8.670622364851674E-2  
 2.044000000000000E10    2.520986398061117E-2   8.349930915077039E-2  
 2.044200000000000E10    3.877163221561369E-2   7.790017768801977E-2  
 2.044400000000000E10    5.124701974997796E-2   6.998061437788325E-2  
 2.044600000000000E10    6.197763363152375E-2   6.016727903313599E-2  
 2.044800000000000E10    7.091611304891454E-2   4.874543788931007E-2  
 2.045000000000000E10    7.780558110019309E-2   3.610208271830170E-2  
 2.045200000000000E10    8.253337522593056E-2   2.267374309860630E-2  
 2.045400000000000E10    8.500536111156637E-2   8.647762800455709E-3  
 2.045600000000000E10    8.517076252909846E-2  -5.643838562393262E-3  
 2.045800000000000E10    8.294023251459924E-2  -1.984140368124831E-2  
 2.046000000000000E10    7.815104128156672E-2  -3.356738754935226E-2  
 2.046200000000000E10    7.103607119846737E-2  -4.610023757925741E-2  
 2.046400000000000E10    6.192095812272144E-2  -5.703643612839558E-2  
 2.046600000000000E10    5.123909533698373E-2  -6.613869428512001E-2  
 2.046800000000000E10    3.947264800775690E-2  -7.328691465373885E-2  
 2.047000000000000E10    2.673876488680948E-2  -7.850054525789411E-2  
 2.047200000000000E10    1.356478952208664E-2  -8.157349371738396E-2  
 2.047400000000000E10   -1.484075050471400E-5  -8.249895044682939E-2  
 2.047600000000000E10   -1.351839605212948E-2  -8.124517585024423E-2  
 2.047800000000000E10   -2.659989748564032E-2  -7.787120213479173E-2  
 2.048000000000000E10   -3.903912067597296E-2  -7.242478240174032E-2  
 2.048200000000000E10   -5.057382007194646E-2  -6.490610368212556E-2  
 2.048400000000000E10   -6.065980374138543E-2  -5.552100134177955E-2  
 2.048600000000000E10   -6.902453784712059E-2  -4.453687222651494E-2  
 2.048800000000000E10   -7.543566617578146E-2  -3.215770792108751E-2  
 2.049000000000000E10   -7.952982775958969E-2  -1.923159944514434E-2  
 2.049200000000000E10   -8.148487669572910E-2  -5.574883174519113E-3  
 2.049400000000000E10   -8.104790259658556E-2   8.084003851890811E-3  
 2.049600000000000E10   -7.834548990667603E-2   2.132701777197697E-2  
 2.049800000000000E10   -7.349481639057522E-2   3.389469853031293E-2  
 2.050000000000000E10   -6.666961582109272E-2   4.556749259800087E-2  
 2.050200000000000E10   -5.819478240094068E-2   5.575564433149842E-2  
 2.050400000000000E10   -4.808720806805196E-2   6.457000136866002E-2  
 2.050600000000000E10   -3.656005983551344E-2   7.157775128083957E-2  
 2.050800000000000E10   -2.420071832866336E-2   7.649415556663350E-2  
 2.051000000000000E10   -1.118565873921286E-2   7.942026408979433E-2  
 2.051200000000000E10    2.295494137078892E-3   8.013323538097336E-2  
 2.051400000000000E10    1.563435273988502E-2   7.852230677879397E-2  
 2.051600000000000E10    2.852055732421424E-2   7.466026456880963E-2  
 2.051800000000000E10    4.068412872437588E-2   6.858043529001284E-2  
 2.052000000000000E10    5.135217282936407E-2   6.057513184814788E-2  
 2.052200000000000E10    6.051650359736059E-2   5.076431766642955E-2  
 2.052400000000000E10    6.760959955767841E-2   3.995401553288409E-2  
 2.052600000000000E10    7.284168785614242E-2   2.831806649488432E-2  
 2.052800000000000E10    7.629293571283789E-2   1.595592401814436E-2  
 2.053000000000000E10    7.773322728558334E-2   3.329864843966969E-3  
 2.053200000000000E10    7.718831932348480E-2  -9.328228494328728E-3  
 2.053400000000000E10    7.460962551734085E-2  -2.183947182517238E-2  
 2.053600000000000E10    7.008949645752771E-2  -3.387992203603557E-2  
 2.053800000000000E10    6.360048046450557E-2  -4.499489573355565E-2  
 2.054000000000000E10    5.510779375156749E-2  -5.512599214727497E-2  
 2.054200000000000E10    4.514044492578311E-2  -6.345034491868667E-2  
 2.054400000000000E10    3.402512422437040E-2  -6.985149894354276E-2  
 2.054600000000000E10    2.184889869526826E-2  -7.441873272014746E-2  
 2.054800000000000E10    9.446633937519520E-3  -7.685707889711907E-2  
 2.055000000000000E10   -3.234565370129767E-3  -7.733148547970220E-2  
 2.055200000000000E10   -1.592734938203798E-2  -7.586077766286004E-2  
 2.055400000000000E10   -2.823671098384593E-2  -7.240737376757611E-2  
 2.055600000000000E10   -3.993376726169645E-2  -6.694944613754997E-2  
