#  HZ   S   RI   R     50.00 
! Rohde & Schwarz ZVA40 4Ports - Version 3.90 - 1145.1110k42 SN: 100403
! Date: 2023-09-30 06:23:09
! Measurement: S12 
! 
 2.000000000000000E10    6.169236042917076E-2   7.694029168595885E-2  
 2.000200000000000E10    7.365743793073615E-2   6.642215793665328E-2  
 2.000400000000000E10    8.413072943578424E-2   5.302765998507289E-2  
 2.000600000000000E10    9.213780509891389E-2   3.778747675806680E-2  
 2.000800000000000E10    9.732608525418890E-2   2.155884527092418E-2  
 2.001000000000000E10    9.962876952901846E-2   4.422011754548354E-3  
 2.001200000000000E10    9.897888114545572E-2  -1.257877799400836E-2  
 2.001400000000000E10    9.560056209264417E-2  -2.925334319431432E-2  
 2.001600000000000E10    8.937581024202083E-2  -4.540088681472618E-2  
 2.001800000000000E10    8.033439691787886E-2  -6.022691620904723E-2  
 2.002000000000000E10    6.864053139034668E-2  -7.331759857706247E-2  
 2.002200000000000E10    5.389230537718436E-2  -8.477595620875933E-2  
 2.002400000000000E10    3.852005190312673E-2  -9.272011457361150E-2  
 2.002600000000000E10    2.205781814666524E-2  -9.777102521635597E-2  
 2.002800000000000E10    5.025735560371948E-3  -9.988151268567679E-2  
 2.003000000000000E10   -1.192245019789722E-2  -9.906438974877391E-2  
 2.003200000000000E10   -2.840288278102112E-2  -9.544103467265494E-2  
 2.003400000000000E10   -4.405916465346706E-2  -8.909343832709446E-2  
 2.003600000000000E10   -5.834687161878958E-2  -8.038176439794495E-2  
 2.003800000000000E10   -7.088558408540301E-2  -6.956064908892586E-2  
 2.004000000000000E10   -8.172227766587957E-2  -5.664597942941420E-2  
 2.004200000000000E10   -9.025767477587801E-2  -4.208266915294424E-2  
 2.004400000000000E10   -9.622609424206785E-2  -2.620645800957165E-2  
 2.004600000000000E10   -9.938619868036926E-2  -9.603290451127591E-3  
 2.004800000000000E10   -9.960223319435645E-2   7.750314204716417E-3  
 2.005000000000000E10   -9.678686599263768E-2   2.459135355796643E-2  
 2.005200000000000E10   -9.123109105274349E-2   4.045445906193387E-2  
 2.005400000000000E10   -8.307274078390728E-2   5.531362381818691E-2  
 2.005600000000000E10   -7.263625287810691E-2   6.858253665012914E-2  
 2.005800000000000E10   -5.999751957955294E-2   7.994273046025634E-2  
 2.006000000000000E10   -4.577124241277897E-2   8.892606120432248E-2  
 2.006200000000000E10   -3.012507934605335E-2   9.557514695623559E-2  
 2.006400000000000E10   -1.370584185200709E-2   9.944999135202834E-2  
 2.006600000000000E10    3.340537460102684E-3   1.005989037246316E-1  
 2.006800000000000E10    2.042777143047453E-2   9.889382503119354E-2  
 2.007000000000000E10    3.721589629317344E-2   9.422972851152231E-2  
 2.007200000000000E10    5.297253633818237E-2   8.659424070331896E-2  
 2.007400000000000E10    6.708943651019030E-2   7.636582790428939E-2  
 2.007600000000000E10    7.925535826021862E-2   6.380621504650086E-2  
 2.007800000000000E10    8.910861319407079E-2   4.923722985663478E-2  
 2.008000000000000E10    9.628336069910398E-2   3.334513674206967E-2  
 2.008200000000000E10    1.005717160620535E-1   1.620406739730567E-2  
 2.008400000000000E10    1.017937860432476E-1  -1.004225856955212E-3  
 2.008600000000000E10    9.996223308326560E-2  -1.834374328433895E-2  
 2.008800000000000E10    9.533872845091668E-2  -3.506755039681841E-2  
 2.009000000000000E10    8.816417980518417E-2  -5.046270609372111E-2  
 2.009200000000000E10    7.851242102345322E-2  -6.470254529991487E-2  
 2.009400000000000E10    6.658982564569557E-2  -7.722099500469384E-2  
 2.009600000000000E10    5.244467844381745E-2  -8.776231083523264E-2  
 2.009800000000000E10    3.699129520756610E-2  -9.555480088212473E-2  
 2.010000000000000E10    1.993260051923960E-2  -1.006776240893189E-1  
 2.010200000000000E10    2.144183419414025E-3  -1.026397903296955E-1  
 2.010400000000000E10   -1.548220373470393E-2  -1.014033879728747E-1  
 2.010600000000000E10   -3.251694488945104E-2  -9.704016509819753E-2  
 2.010800000000000E10   -4.851671908038853E-2  -8.989579113013788E-2  
 2.011000000000000E10   -6.296926148484493E-2  -8.014103966826003E-2  
 2.011200000000000E10   -7.538437461084464E-2  -6.826847313362876E-2  
 2.011400000000000E10   -8.557864076874822E-2  -5.469805335223157E-2  
 2.011600000000000E10   -9.367447233685197E-2  -3.954104779038628E-2  
 2.011800000000000E10   -9.920150939261038E-2  -2.315086785194587E-2  
 2.012000000000000E10   -1.018535262054649E-1  -6.117593258777724E-3  
 2.012200000000000E10   -1.015185728553337E-1   1.151492728357330E-2  
 2.012400000000000E10   -9.802112035422660E-2   2.850913417461288E-2  
 2.012600000000000E10   -9.162545782970849E-2   4.484415153968973E-2  
 2.012800000000000E10   -8.269447141727684E-2   5.961112998797298E-2  
 2.013000000000000E10   -7.139588479220078E-2   7.272726666330476E-2  
 2.013200000000000E10   -5.809023162962424E-2   8.366340512914859E-2  
 2.013400000000000E10   -4.300269953971266E-2   9.236941934245116E-2  
 2.013600000000000E10   -2.649858590278470E-2   9.828754790062551E-2  
 2.013800000000000E10   -9.618400793248355E-3   1.012593546160891E-1  
 2.014000000000000E10    7.583015926895987E-3   1.013257786815550E-1  
 2.014200000000000E10    2.448704876141920E-2   9.871186878469147E-2  
 2.014400000000000E10    4.084135885135355E-2   9.325085836196526E-2  
 2.014600000000000E10    5.617859346385847E-2   8.502310104276364E-2  
 2.014800000000000E10    6.973510888623605E-2   7.427729428782004E-2  
 2.015000000000000E10    8.126796118720897E-2   6.135887329845218E-2  
 2.015200000000000E10    9.048401716301091E-2   4.665212229466570E-2  
 2.015400000000000E10    9.708464887311703E-2   3.074658078758560E-2  
 2.015600000000000E10    1.009690727737052E-1   1.376973168271205E-2  
 2.015800000000000E10    1.018163051284172E-1  -3.493469689683551E-3  
 2.016000000000000E10    9.980582314018362E-2  -2.084635207484888E-2  
 2.016200000000000E10    9.478011101511555E-2  -3.757541383619608E-2  
 2.016400000000000E10    8.698525974739073E-2  -5.293272107423961E-2  
 2.016600000000000E10    7.674078583363045E-2  -6.683292106700152E-2  
 2.016800000000000E10    6.423240640104010E-2  -7.900772625295116E-2  
 2.017000000000000E10    4.992575776709179E-2  -8.871553539139636E-2  
 2.017200000000000E10    3.399232731707085E-2  -9.587285908174997E-2  
 2.017400000000000E10    1.728980931200881E-2  -1.000899336431525E-1  
 2.017600000000000E10   -2.226159111161752E-4  -1.015736483476944E-1  
 2.017800000000000E10   -1.739096313980709E-2  -1.000255808356858E-1  
 2.018000000000000E10   -3.403384359251107E-2  -9.549251084642212E-2  
 2.018200000000000E10   -4.971211047602072E-2  -8.818236458748512E-2  
 2.018400000000000E10   -6.384167465231003E-2  -7.846387760874667E-2  
 2.018600000000000E10   -7.617370088281947E-2  -6.637880683394945E-2  
 2.018800000000000E10   -8.621335856081638E-2  -5.227958500405726E-2  
 2.019000000000000E10   -9.354790570627462E-2  -3.690326403593113E-2  
 2.019200000000000E10   -9.825446782697542E-2  -2.059154718804289E-2  
 2.019400000000000E10   -1.001995253880438E-1  -3.552866497391748E-3  
 2.019600000000000E10   -9.925010721665517E-2   1.325000199022144E-2  
 2.019800000000000E10   -9.547668072013048E-2   2.982629425346743E-2  
 2.020000000000000E10   -8.921953294107672E-2   4.513659740610378E-2  
 2.020200000000000E10   -8.029840091114782E-2   5.966883148975880E-2  
 2.020400000000000E10   -6.901140821391610E-2   7.235864094391664E-2  
 2.020600000000000E10   -5.593264321479342E-2   8.285534604327779E-2  
 2.020800000000000E10   -4.108726937250564E-2   9.108473205190301E-2  
 2.021000000000000E10   -2.500204474268764E-2   9.665658798836989E-2  
 2.021200000000000E10   -8.459643782748855E-3   9.944533201374856E-2  
 2.021400000000000E10    8.463485345285290E-3   9.942948562018558E-2  
 2.021600000000000E10    2.498155217200423E-2   9.658955298210860E-2  
 2.021800000000000E10    4.094759334657201E-2   9.101601375610141E-2  
 2.022000000000000E10    5.561992960586415E-2   8.288652435878560E-2  
 2.022200000000000E10    6.879782853507539E-2   7.235702603483071E-2  
 2.022400000000000E10    8.005378119030882E-2   5.976802130260860E-2  
 2.022600000000000E10    8.895857005997997E-2   4.566285225371548E-2  
 2.022800000000000E10    9.549000589104621E-2   3.019583850305240E-2  
 2.023000000000000E10    9.948228683559440E-2   1.360359700344704E-2  
 2.023200000000000E10    1.006301203491375E-1  -3.340445130349746E-3  
 2.023400000000000E10    9.881885079253905E-2  -2.053752465656510E-2  
 2.023600000000000E10    9.408560454518383E-2  -3.703920836175039E-2  
 2.023800000000000E10    8.655712294984640E-2  -5.252097434120252E-2  
 2.024000000000000E10    7.646311439018465E-2  -6.662509753911748E-2  
 2.024200000000000E10    6.414803410154205E-2  -7.874521818548565E-2  
 2.024400000000000E10    4.977739630944118E-2  -8.864945392658791E-2  
 2.024600000000000E10    3.391589758518248E-2  -9.582909927024221E-2  
 2.024800000000000E10    1.721566783415029E-2  -1.001807571813349E-1  
 2.025000000000000E10   -5.338851336423747E-5  -1.016825111280526E-1  
 2.025200000000000E10   -1.717454258984472E-2  -1.004882338667603E-1  
 2.025400000000000E10   -3.396395394756580E-2  -9.636236286062493E-2  
 2.025600000000000E10   -5.028697273599868E-2  -8.924812249495225E-2  
 2.025800000000000E10   -6.486429128272926E-2  -7.950874831260042E-2  
 2.026000000000000E10   -7.767531056353969E-2  -6.717092545203113E-2  
 2.026200000000000E10   -8.805597047855934E-2  -5.276347977327713E-2  
 2.026400000000000E10   -9.569735609413994E-2  -3.684350413495567E-2  
 2.026600000000000E10   -1.004215954310228E-1  -1.998918121625258E-2  
 2.026800000000000E10   -1.023346357350760E-1  -2.444609012867818E-3  
 2.027000000000000E10   -1.011622674460002E-1   1.492395411383073E-2  
 2.027200000000000E10   -9.705898587800187E-2   3.195740987904878E-2  
 2.027400000000000E10   -9.016635598360158E-2   4.793753407667313E-2  
 2.027600000000000E10   -8.062948957664760E-2   6.260019937844434E-2  
 2.027800000000000E10   -6.875483101641801E-2   7.533324729935678E-2  
 2.028000000000000E10   -5.507299443004227E-2   8.596322085890643E-2  
 2.028200000000000E10   -3.957208733159111E-2   9.421656862630332E-2  
 2.028400000000000E10   -2.269292068525052E-2   9.968000383656704E-2  
 2.028600000000000E10   -5.301302141979658E-3   1.020767590329971E-1  
 2.028800000000000E10    1.248288343464219E-2   1.014669551239420E-1  
 2.029000000000000E10    2.988359106727589E-2   9.768930574939522E-2  
 2.029200000000000E10    4.616734752909310E-2   9.083376569348926E-2  
 2.029400000000000E10    6.091179523598293E-2   8.118220977400012E-2  
 2.029600000000000E10    7.362546869879398E-2   6.925733991147834E-2  
 2.029800000000000E10    8.406027491282372E-2   5.548395569405167E-2  
 2.030000000000000E10    9.196911827172655E-2   4.039930616631920E-2  
 2.030200000000000E10    9.716993701147283E-2   2.415442785608426E-2  
 2.030400000000000E10    9.951195622626975E-2   7.293587098486644E-3  
 2.030600000000000E10    9.904328775926440E-2  -9.490757096843275E-3  
 2.030800000000000E10    9.591661862753058E-2  -2.576290749040679E-2  
 2.031000000000000E10    9.023534101155126E-2  -4.157264476831940E-2  
 2.031200000000000E10    8.207979564613331E-2  -5.623909638224534E-2  
 2.031400000000000E10    7.138096652907983E-2  -6.948752097264241E-2  
 2.031600000000000E10    5.870069745820737E-2  -8.037986978036824E-2  
 2.031800000000000E10    4.413370394276113E-2  -8.912317854086996E-2  
 2.032000000000000E10    2.827032134243491E-2  -9.514255237786479E-2  
 2.032200000000000E10    1.165066557929131E-2  -9.839697352516419E-2  
 2.032400000000000E10   -5.216357092086480E-3  -9.872420930023003E-2  
 2.032600000000000E10   -2.176101956215007E-2  -9.621822507306765E-2  
 2.032800000000000E10   -3.756204611827481E-2  -9.105352384209034E-2  
 2.033000000000000E10   -5.229545027106170E-2  -8.343783920016745E-2  
 2.033200000000000E10   -6.564970483477933E-2  -7.337107630314543E-2  
 2.033400000000000E10   -7.703117614720149E-2  -6.148428564433864E-2  
 2.033600000000000E10   -8.166213671557154E-2  -5.561470158762676E-2  
 2.033800000000000E10   -9.371765998669505E-2  -3.200921417986034E-2  
 2.034000000000000E10   -9.806934279097127E-2  -1.577598775920527E-2  
 2.034200000000000E10   -9.955345935332596E-2   1.325141262815806E-3  
 2.034400000000000E10   -9.799391354225956E-2   1.863932238562117E-2  
 2.034600000000000E10   -9.331983379648329E-2   3.523952650884870E-2  
 2.034800000000000E10   -8.576925182361608E-2   5.071805323851834E-2  
 2.035000000000000E10   -7.561849832030591E-2   6.464822197211188E-2  
 2.035200000000000E10   -6.339427725223304E-2   7.639269844194936E-2  
 2.035400000000000E10   -4.937356711455989E-2   8.586646894791054E-2  
 2.035600000000000E10   -3.412750757852537E-2   9.284516903952916E-2  
 2.035800000000000E10   -1.799884058320474E-2   9.726536173456929E-2  
 2.036000000000000E10   -1.316945491614997E-3   9.890209050839713E-2  
 2.036200000000000E10    1.550381259663115E-2   9.772211651198115E-2  
 2.036400000000000E10    3.181448487533409E-2   9.376265024438427E-2  
 2.036600000000000E10    4.729493673010183E-2   8.708356506526335E-2  
 2.036800000000000E10    6.136162413661482E-2   7.791687479344034E-2  
 2.037000000000000E10    7.387058072688105E-2   6.637728883351265E-2  
 2.037200000000000E10    8.417957134044057E-2   5.300320709779158E-2  
 2.037400000000000E10    9.212545789250186E-2   3.793857309492037E-2  
 2.037600000000000E10    9.734378381711903E-2   2.162682344505899E-2  
 2.037800000000000E10    9.970581054919162E-2   4.461151016914428E-3  
 2.038000000000000E10    9.894836458254475E-2  -1.255661554321150E-2  
 2.038200000000000E10    9.515797972992561E-2  -2.930797791090604E-2  
 2.038400000000000E10    8.868049303172768E-2  -4.494233466224906E-2  
 2.038600000000000E10    7.980048614219820E-2  -5.915249869820186E-2  
 2.038800000000000E10    6.861618590793711E-2  -7.194628056852470E-2  
 2.039000000000000E10    5.564215881677595E-2  -8.259577877141594E-2  
 2.039200000000000E10    4.084483280634848E-2  -9.092016246256679E-2  
 2.039400000000000E10    2.453770103366560E-2  -9.666113934603576E-2  
 2.039600000000000E10    7.762348873836296E-3  -9.946050744965354E-2  
 2.039800000000000E10   -9.196348000312705E-3  -9.922013058406776E-2  
 2.040000000000000E10   -2.595152621079538E-2  -9.607223168213074E-2  
 2.040200000000000E10   -4.174721625790675E-2  -9.023760125606531E-2  
 2.040400000000000E10   -5.637282496262863E-2  -8.182443990438129E-2  
 2.040600000000000E10   -6.937826746435105E-2  -7.101246746274835E-2  
 2.040800000000000E10   -8.035875838820555E-2  -5.816944622126791E-2  
 2.041000000000000E10   -8.893064609130444E-2  -4.374339588916515E-2  
 2.041200000000000E10   -9.498977990225675E-2  -2.817176198429260E-2  
 2.041400000000000E10   -9.841817440946299E-2  -1.187237573529508E-2  
 2.041600000000000E10   -9.913168954533097E-2   4.923371581090713E-3  
 2.041800000000000E10   -9.697678439901691E-2   2.149589580603397E-2  
 2.042000000000000E10   -9.217418895146048E-2   3.749875930765202E-2  
 2.042200000000000E10   -8.459691755102278E-2   5.274170660978048E-2  
 2.042400000000000E10   -7.456669028785386E-2   6.642074969515825E-2  
 2.042600000000000E10   -6.236918244015207E-2   7.822221860623438E-2  
 2.042800000000000E10   -4.802524263680555E-2   8.798970270154137E-2  
 2.043000000000000E10   -3.231468771349692E-2   9.493084387469633E-2  
 2.043200000000000E10   -1.565411790718240E-2   9.907354610010977E-2  
 2.043400000000000E10    1.751343542243647E-3   1.002689023976137E-1  
 2.043600000000000E10    1.856387716858121E-2   9.847856210787440E-2  
 2.043800000000000E10    3.483403394544676E-2   9.389054073105135E-2  
 2.044000000000000E10    5.043513112359523E-2   8.654979400755775E-2  
 2.044200000000000E10    6.435655395721376E-2   7.686525549540305E-2  
 2.044400000000000E10    7.655937190899634E-2   6.479367240071025E-2  
 2.044600000000000E10    8.650999054973618E-2   5.065656293423743E-2  
 2.044800000000000E10    9.389009936165474E-2   3.520846176103855E-2  
 2.045000000000000E10    9.857041324021670E-2   1.861398196623759E-2  
 2.045200000000000E10    1.003072767271045E-1   1.433558830421607E-3  
 2.045400000000000E10    9.898908540885854E-2  -1.578579298048108E-2  
 2.045600000000000E10    9.461068639648415E-2  -3.243673429792474E-2  
 2.045800000000000E10    8.749375992446498E-2  -4.801430320516264E-2  
 2.046000000000000E10    7.791564123348173E-2  -6.201254111592446E-2  
 2.046200000000000E10    6.606180228677908E-2  -7.420730010308685E-2  
 2.046400000000000E10    5.237562224016814E-2  -8.414228329333641E-2  
 2.046600000000000E10    3.735554876137281E-2  -9.161589277297547E-2  
 2.046800000000000E10    2.129258706426452E-2  -9.654557333588876E-2  
 2.047000000000000E10    4.554418351281491E-3  -9.870610658333193E-2  
 2.047200000000000E10   -1.209592095788723E-2  -9.798908312338700E-2  
 2.047400000000000E10   -2.854628157540032E-2  -9.437872297724581E-2  
 2.047600000000000E10   -4.400699970639892E-2  -8.807250756853839E-2  
 2.047800000000000E10   -5.811882041357237E-2  -7.929153801046338E-2  
 2.048000000000000E10   -7.061421736618348E-2  -6.830792527630497E-2  
 2.048200000000000E10   -8.102550844746637E-2  -5.548588507930112E-2  
 2.048400000000000E10   -8.930864703603461E-2  -4.099095660969990E-2  
 2.048600000000000E10   -9.504024752905016E-2  -2.527647284483414E-2  
 2.048800000000000E10   -9.808171660075955E-2  -8.721211463533204E-3  
 2.049000000000000E10   -9.826210403161668E-2   8.112509787733365E-3  
 2.049200000000000E10   -9.550026234598755E-2   2.498734199025068E-2  
 2.049400000000000E10   -8.977234285541143E-2   4.078662460376042E-2  
 2.049600000000000E10   -8.134979693364706E-2   5.552784132396026E-2  
 2.049800000000000E10   -7.064360596501888E-2   6.849052769629772E-2  
 2.050000000000000E10   -5.800582427458237E-2   7.946997775326160E-2  
 2.050200000000000E10   -4.348563527237841E-2   8.830823428387179E-2  
 2.050400000000000E10   -2.759118236015391E-2   9.442221175386967E-2  
 2.050600000000000E10   -1.103002470834960E-2   9.759835091474453E-2  
 2.050800000000000E10    5.911693204352723E-3   9.790921112446685E-2  
 2.051000000000000E10    2.275863268966674E-2   9.534309963194489E-2  
 2.051200000000000E10    3.863381284574805E-2   8.984950527201302E-2  
 2.051400000000000E10    5.344145986237481E-2   8.158580399794180E-2  
 2.051600000000000E10    6.640441893209428E-2   7.090450767095524E-2  
 2.051800000000000E10    7.715813538964940E-2   5.841241764849216E-2  
 2.052000000000000E10    8.576298951012500E-2   4.426677811722207E-2  
 2.052200000000000E10    9.183925542184956E-2   2.875730591546361E-2  
 2.052400000000000E10    9.500085646273833E-2   1.279295930765811E-2  
 2.052600000000000E10    9.537670452353833E-2  -3.442381024782244E-3  
 2.052800000000000E10    9.315364866099732E-2  -1.938712643225225E-2  
 2.053000000000000E10    8.844680092448670E-2  -3.463537932450662E-2  
 2.053200000000000E10    8.123102497307744E-2  -4.911056784533944E-2  
 2.053400000000000E10    7.166113345370645E-2  -6.207666765842256E-2  
 2.053600000000000E10    6.010466131326758E-2  -7.318998926719902E-2  
 2.053800000000000E10    4.667272418907750E-2  -8.232499831102733E-2  
 2.054000000000000E10    3.187912505138776E-2  -8.894050966864807E-2  
 2.054200000000000E10    1.643898148067504E-2  -9.290871849248658E-2  
 2.054400000000000E10    4.385983374776343E-4  -9.426072084186939E-2  
 2.054600000000000E10   -1.555706975214221E-2  -9.292204958775517E-2  
 2.054800000000000E10   -3.099097721414939E-2  -8.892364088645199E-2  
 2.055000000000000E10   -4.578058391461975E-2  -8.235312179650792E-2  
 2.055200000000000E10   -5.908932247095639E-2  -7.341369300072305E-2  
 2.055400000000000E10   -7.074011697390881E-2  -6.234789418612762E-2  
 2.055600000000000E10   -8.046139139642879E-2  -4.931273998519739E-2  
