#  HZ   S   RI   R     50.00 
! Rohde & Schwarz ZVA40 4Ports - Version 3.90 - 1145.1110k42 SN: 100403
! Date: 2023-09-30 08:39:58
! Measurement: S12 
! 
 2.000000000000000E10   -6.894279349530391E-2   7.112470774766133E-2  
 2.000200000000000E10   -5.696074370173114E-2   8.147190739479468E-2  
 2.000400000000000E10   -4.254590805902149E-2   8.998786513677781E-2  
 2.000600000000000E10   -2.663897875922970E-2   9.609980343741228E-2  
 2.000800000000000E10   -1.000443321966369E-2   9.931652967223840E-2  
 2.001000000000000E10    7.174001904683801E-3   9.965916094920238E-2  
 2.001200000000000E10    2.391701101696932E-2   9.698288461137328E-2  
 2.001400000000000E10    4.025772623295726E-2   9.150847442902754E-2  
 2.001600000000000E10    5.526870185881135E-2   8.333760496925995E-2  
 2.001800000000000E10    6.873155097611848E-2   7.278949703228388E-2  
 2.002000000000000E10    8.029210036512145E-2   5.974875445454149E-2  
 2.002200000000000E10    8.987633786595511E-2   4.383610164962309E-2  
 2.002400000000000E10    9.578138685399658E-2   2.801320130760739E-2  
 2.002600000000000E10    9.898536734770139E-2   1.133793498516372E-2  
 2.002800000000000E10    9.940339910140983E-2  -5.521050744725442E-3  
 2.003000000000000E10    9.699904166836934E-2  -2.213484061032009E-2  
 2.003200000000000E10    9.175860319425316E-2  -3.828573975507088E-2  
 2.003400000000000E10    8.384925654849854E-2  -5.329024110290147E-2  
 2.003600000000000E10    7.354146543526284E-2  -6.658591538242215E-2  
 2.003800000000000E10    6.103094207643495E-2  -7.814422952683969E-2  
 2.004000000000000E10    4.681761558187274E-2  -8.725719262708079E-2  
 2.004200000000000E10    3.121684823462100E-2  -9.378223222006279E-2  
 2.004400000000000E10    1.503003733582284E-2  -9.756616375473939E-2  
 2.004600000000000E10   -1.979197961072104E-3  -9.856178226326140E-2  
 2.004800000000000E10   -1.846142539621363E-2  -9.663841594431707E-2  
 2.005000000000000E10   -3.452095071685931E-2  -9.189871650734055E-2  
 2.005200000000000E10   -4.935594032048388E-2  -8.471240783158052E-2  
 2.005400000000000E10   -6.286084763310169E-2  -7.511930324385906E-2  
 2.005600000000000E10   -7.455326783468114E-2  -6.340615154947929E-2  
 2.005800000000000E10   -8.411140109061809E-2  -4.988652754122484E-2  
 2.006000000000000E10   -9.137267951076125E-2  -3.480514086567550E-2  
 2.006200000000000E10   -9.584790679510669E-2  -1.914233439416715E-2  
 2.006400000000000E10   -9.760135893099062E-2  -2.376616366622278E-3  
 2.006600000000000E10   -9.643611666896762E-2   1.400571173917262E-2  
 2.006800000000000E10   -9.259915778545239E-2   2.994204770270396E-2  
 2.007000000000000E10   -8.623661377417488E-2   4.493035468414010E-2  
 2.007200000000000E10   -7.745908560305237E-2   5.880674323358442E-2  
 2.007400000000000E10   -6.646034044407070E-2   7.105055523540702E-2  
 2.007600000000000E10   -5.357283427126554E-2   8.120478011347115E-2  
 2.007800000000000E10   -3.898036460436797E-2   8.915438712012665E-2  
 2.008000000000000E10   -2.363694616109519E-2   9.444627641226433E-2  
 2.008200000000000E10   -7.085986765703319E-3   9.714822292059885E-2  
 2.008400000000000E10    9.510937877355574E-3   9.688785882346948E-2  
 2.008600000000000E10    2.554146913490857E-2   9.377651695664178E-2  
 2.008800000000000E10    4.087916491953955E-2   8.809009870956303E-2  
 2.009000000000000E10    5.498383609151318E-2   7.999517653927246E-2  
 2.009200000000000E10    6.782226696226623E-2   6.954715949914408E-2  
 2.009400000000000E10    7.845339750920177E-2   5.737943092199935E-2  
 2.009600000000000E10    8.721367224103849E-2   4.322593627612154E-2  
 2.009800000000000E10    9.328650372922467E-2   2.801027948991913E-2  
 2.010000000000000E10    9.674417157630241E-2   1.174804348322946E-2  
 2.010200000000000E10    9.737161284208797E-2  -4.878754305175335E-3  
 2.010400000000000E10    9.517781364220053E-2  -2.119214662653017E-2  
 2.010600000000000E10    9.034511896607075E-2  -3.687300552947943E-2  
 2.010800000000000E10    8.291789370751301E-2  -5.166472423192763E-2  
 2.011000000000000E10    7.294686241514017E-2  -6.515028449438311E-2  
 2.011200000000000E10    6.090994292372116E-2  -7.665543424704935E-2  
 2.011400000000000E10    4.709090679934681E-2  -8.585523529385053E-2  
 2.011600000000000E10    3.162017600945945E-2  -9.270400008784679E-2  
 2.011800000000000E10    1.545946878412161E-2  -9.669282146811531E-2  
 2.012000000000000E10   -1.305293204745572E-3  -9.796096720545237E-2  
 2.012200000000000E10   -1.783510673425322E-2  -9.631132304453424E-2  
 2.012400000000000E10   -3.400937162662573E-2  -9.186440336279092E-2  
 2.012600000000000E10   -4.901684910950033E-2  -8.469648735957050E-2  
 2.012800000000000E10   -6.265880447519825E-2  -7.507105033706737E-2  
 2.013000000000000E10   -7.443276815135712E-2  -6.332249083096182E-2  
 2.013200000000000E10   -8.398848401658610E-2  -4.986492665977109E-2  
 2.013400000000000E10   -9.125381959071825E-2  -3.481605271449911E-2  
 2.013600000000000E10   -9.589331860962133E-2  -1.869163031433890E-2  
 2.013800000000000E10   -9.768308423864937E-2  -2.227362871206667E-3  
 2.014000000000000E10   -9.653329825093035E-2   1.476617307843984E-2  
 2.014200000000000E10   -9.252883104772787E-2   3.075195794973073E-2  
 2.014400000000000E10   -8.578859182368122E-2   4.604815488855984E-2  
 2.014600000000000E10   -7.669173624049128E-2   5.965768323291132E-2  
 2.014800000000000E10   -6.520490039800331E-2   7.174312142167993E-2  
 2.015000000000000E10   -5.207500654356344E-2   8.149427044285948E-2  
 2.015200000000000E10   -3.751255411573139E-2   8.889533286065475E-2  
 2.015400000000000E10   -2.196794083657176E-2   9.378492863450311E-2  
 2.015600000000000E10   -6.106123726634050E-3   9.608885626372168E-2  
 2.015800000000000E10    1.020113500195209E-2   9.575795249397702E-2  
 2.016000000000000E10    2.634265953400953E-2   9.267719589415675E-2  
 2.016200000000000E10    4.157799727897156E-2   8.685121506373827E-2  
 2.016400000000000E10    5.551512918748223E-2   7.845621105291639E-2  
 2.016600000000000E10    6.763579634943794E-2   6.798697284086447E-2  
 2.016800000000000E10    7.807638678232819E-2   5.558527520273068E-2  
 2.017000000000000E10    8.622008898675743E-2   4.189605094950077E-2  
 2.017200000000000E10    9.208154467920618E-2   2.684583061952975E-2  
 2.017400000000000E10    9.536052406097656E-2   1.099997416031904E-2  
 2.017600000000000E10    9.599897111713759E-2  -5.082112927210666E-3  
 2.017800000000000E10    9.397551100900770E-2  -2.126260635473362E-2  
 2.018000000000000E10    8.927526373060560E-2  -3.688087370995190E-2  
 2.018200000000000E10    8.186055920434812E-2  -5.156100725053210E-2  
 2.018400000000000E10    7.190900079075875E-2  -6.479678035080691E-2  
 2.018600000000000E10    5.992821149400464E-2  -7.599773569916321E-2  
 2.018800000000000E10    4.612282739838365E-2  -8.503012507941940E-2  
 2.019000000000000E10    3.122573395553086E-2  -9.149060416661016E-2  
 2.019200000000000E10    1.525484758948713E-2  -9.550726322955624E-2  
 2.019400000000000E10   -1.121765261983269E-3  -9.677148352613273E-2  
 2.019600000000000E10   -1.711297577242009E-2  -9.549732454757423E-2  
 2.019800000000000E10   -3.327894125078677E-2  -9.137335749315501E-2  
 2.020000000000000E10   -4.830869078853446E-2  -8.468535359923703E-2  
 2.020200000000000E10   -6.214504782190891E-2  -7.529178060531036E-2  
 2.020400000000000E10   -7.416207372108104E-2  -6.355506390513357E-2  
 2.020600000000000E10   -8.380185060877993E-2  -5.006765405809421E-2  
 2.020800000000000E10   -9.102056874234352E-2  -3.507099238752423E-2  
 2.021000000000000E10   -9.562845174617804E-2  -1.925142604036466E-2  
 2.021200000000000E10   -9.760351284679009E-2  -2.698187779377603E-3  
 2.021400000000000E10   -9.678266899803031E-2   1.388840192499943E-2  
 2.021600000000000E10   -9.314814289769756E-2   3.009774003701955E-2  
 2.021800000000000E10   -8.662714360963462E-2   4.574905371503794E-2  
 2.022000000000000E10   -7.753654819329944E-2   5.979642489081760E-2  
 2.022200000000000E10   -6.614090241758658E-2   7.197790620200781E-2  
 2.022400000000000E10   -5.279912376666660E-2   8.209010267591706E-2  
 2.022600000000000E10   -3.819905452156573E-2   8.968726732186937E-2  
 2.022800000000000E10   -2.246171567828086E-2   9.479966872861789E-2  
 2.023000000000000E10   -6.225840295236994E-3   9.714695738480599E-2  
 2.023200000000000E10    1.038374142999609E-2   9.677397026935683E-2  
 2.023400000000000E10    2.674608446628511E-2   9.355317291699611E-2  
 2.023600000000000E10    4.196816886653262E-2   8.778333375804377E-2  
 2.023800000000000E10    5.624244784837798E-2   7.933122966831635E-2  
 2.024000000000000E10    6.868620635309956E-2   6.867798257840393E-2  
 2.024200000000000E10    7.918146945188270E-2   5.605279828141615E-2  
 2.024400000000000E10    8.749636574827888E-2   4.175401245150778E-2  
 2.024600000000000E10    9.311359848838291E-2   2.655635712577359E-2  
 2.024800000000000E10    9.617389703848642E-2   1.050987447216567E-2  
 2.025000000000000E10    9.646755486676797E-2  -5.814804708132708E-3  
 2.025200000000000E10    9.421252890999639E-2  -2.176180045713147E-2  
 2.025400000000000E10    8.932360178099558E-2  -3.724989150824214E-2  
 2.025600000000000E10    8.186968198510829E-2  -5.179943478051279E-2  
 2.025800000000000E10    7.213319461297404E-2  -6.485678018901867E-2  
 2.026000000000000E10    6.030257213683789E-2  -7.610719684635015E-2  
 2.026200000000000E10    4.672382477946667E-2  -8.521245861040749E-2  
 2.026400000000000E10    3.162339855590554E-2  -9.198353169186417E-2  
 2.026600000000000E10    1.587748239873426E-2  -9.602668486383761E-2  
 2.026800000000000E10   -5.809053793990619E-4  -9.751948899243269E-2  
 2.027000000000000E10   -1.708406046724099E-2  -9.625114127104044E-2  
 2.027200000000000E10   -3.316701547402299E-2  -9.223565295272768E-2  
 2.027400000000000E10   -4.847327230247137E-2  -8.541425369232887E-2  
 2.027600000000000E10   -6.243149138601345E-2  -7.602037385848762E-2  
 2.027800000000000E10   -7.445985227686988E-2  -6.434736718693226E-2  
 2.028000000000000E10   -8.439919735413225E-2  -5.076355993579645E-2  
 2.028200000000000E10   -9.182997820175429E-2  -3.578194493683096E-2  
 2.028400000000000E10   -9.674281305947430E-2  -1.950081753982799E-2  
 2.028600000000000E10   -9.871471840408480E-2  -2.892625784248861E-3  
 2.028800000000000E10   -9.789008092431771E-2   1.405022559591065E-2  
 2.029000000000000E10   -9.404422587306802E-2   3.079193850798178E-2  
 2.029200000000000E10   -8.741901804906582E-2   4.637348157262522E-2  
 2.029400000000000E10   -7.818065792805162E-2   6.053298447260873E-2  
 2.029600000000000E10   -6.667312471144861E-2   7.299802874612452E-2  
 2.029800000000000E10   -5.327540232778135E-2   8.315991606881863E-2  
 2.030000000000000E10   -3.828985211501179E-2   9.098229979903078E-2  
 2.030200000000000E10   -2.233269963980702E-2   9.606948795462994E-2  
 2.030400000000000E10   -5.714694539631342E-3   9.842444671043410E-2  
 2.030600000000000E10    1.113376844604700E-2   9.789694544102602E-2  
 2.030800000000000E10    2.761310805841848E-2   9.460488651675533E-2  
 2.031000000000000E10    4.329126446482274E-2   8.848153668536360E-2  
 2.031200000000000E10    5.761821355790117E-2   7.981795589360791E-2  
 2.031400000000000E10    7.031790825581821E-2   6.875303066914532E-2  
 2.031600000000000E10    8.062194444979923E-2   5.602994320034734E-2  
 2.031800000000000E10    8.873781424407728E-2   4.180423429014661E-2  
 2.032000000000000E10    9.449189561206033E-2   2.607207558282609E-2  
 2.032200000000000E10    9.752024133376329E-2   9.790193389544569E-3  
 2.032400000000000E10    9.778608401431695E-2  -6.695108836046322E-3  
 2.032600000000000E10    9.520663204166407E-2  -2.328734718096975E-2  
 2.032800000000000E10    8.986317080231768E-2  -3.906216839730501E-2  
 2.033000000000000E10    8.196442066239239E-2  -5.367285147519767E-2  
 2.033200000000000E10    7.157815535266680E-2  -6.686132368788042E-2  
 2.033400000000000E10    5.940865602692332E-2  -7.793469654361826E-2  
 2.033600000000000E10    5.330572103600687E-2  -8.236250099753703E-2  
 2.033800000000000E10    2.942833236762132E-2  -9.346863971137846E-2  
 2.034000000000000E10    1.308596411689920E-2  -9.696277944731750E-2  
 2.034200000000000E10   -3.613033474908029E-3  -9.760940286215383E-2  
 2.034400000000000E10   -1.985872859072908E-2  -9.538695024529810E-2  
 2.034600000000000E10   -3.562495585087929E-2  -9.054659559708789E-2  
 2.034800000000000E10   -5.026864824083281E-2  -8.317861171535911E-2  
 2.035000000000000E10   -6.335882397731656E-2  -7.368249561907722E-2  
 2.035200000000000E10   -7.489624584545750E-2  -6.195229093434366E-2  
 2.035400000000000E10   -8.432920604508165E-2  -4.843651916147921E-2  
 2.035600000000000E10   -9.122850775857988E-2  -3.368853422170708E-2  
 2.035800000000000E10   -9.568978884266699E-2  -1.771904666625751E-2  
 2.036000000000000E10   -9.729572734212343E-2  -1.436840903624275E-3  
 2.036200000000000E10   -9.612788766719449E-2   1.502385810190763E-2  
 2.036400000000000E10   -9.219045115010513E-2   3.110569503079030E-2  
 2.036600000000000E10   -8.575226221051346E-2   4.612379878405839E-2  
 2.036800000000000E10   -7.679218875717138E-2   5.996407843115175E-2  
 2.037000000000000E10   -6.547595760830231E-2   7.216151073928567E-2  
 2.037200000000000E10   -5.256296754105180E-2   8.214716970131711E-2  
 2.037400000000000E10   -3.797954260286220E-2   8.994193021451254E-2  
 2.037600000000000E10   -2.230823596559307E-2   9.519216880752676E-2  
 2.037800000000000E10   -5.693946460743903E-3   9.765099774532640E-2  
 2.038000000000000E10    1.095759852893958E-2   9.729086887389492E-2  
 2.038200000000000E10    2.725150667585939E-2   9.402053358017878E-2  
 2.038400000000000E10    4.295826420549067E-2   8.796869863286674E-2  
 2.038600000000000E10    5.713213396336299E-2   7.945828279194077E-2  
 2.038800000000000E10    6.980174623067526E-2   6.872045477529626E-2  
 2.039000000000000E10    8.053685376110320E-2   5.596232727061733E-2  
 2.039200000000000E10    8.894019841887402E-2   4.154834796583751E-2  
 2.039400000000000E10    9.475629137343389E-2   2.573512678746665E-2  
 2.039600000000000E10    9.780343306049164E-2   9.085896671229414E-3  
 2.039800000000000E10    9.780965611487757E-2  -7.615628051715154E-3  
 2.040000000000000E10    9.490855480855374E-2  -2.408860316679396E-2  
 2.040200000000000E10    8.931030832662190E-2  -3.979762427322217E-2  
 2.040400000000000E10    8.124219346077034E-2  -5.418930840145972E-2  
 2.040600000000000E10    7.086563314454245E-2  -6.715650245473862E-2  
 2.040800000000000E10    5.849515700882477E-2  -7.816586946507499E-2  
 2.041000000000000E10    4.439675684741787E-2  -8.692911057234998E-2  
 2.041200000000000E10    2.894680425197285E-2  -9.313687195742404E-2  
 2.041400000000000E10    1.274897644569492E-2  -9.661752890309253E-2  
 2.041600000000000E10   -3.733229481764693E-3  -9.728931037921379E-2  
 2.041800000000000E10   -2.017780670066532E-2  -9.515256728757988E-2  
 2.042000000000000E10   -3.572605352451125E-2  -9.032027153680100E-2  
 2.042200000000000E10   -5.046272021113862E-2  -8.287226474243337E-2  
 2.042400000000000E10   -6.356422052295363E-2  -7.316040329289547E-2  
 2.042600000000000E10   -7.487683650233946E-2  -6.152398906497127E-2  
 2.042800000000000E10   -8.429635062557117E-2  -4.807496518377385E-2  
 2.043000000000000E10   -9.124840753522885E-2  -3.337893396656107E-2  
 2.043200000000000E10   -9.575508470671976E-2  -1.745312728216019E-2  
 2.043400000000000E10   -9.739257441864373E-2  -8.120778344551910E-4  
 2.043600000000000E10   -9.624655546423372E-2   1.544340674156971E-2  
 2.043800000000000E10   -9.228663418809374E-2   3.160123276728984E-2  
 2.044000000000000E10   -8.551559775010884E-2   4.703935197280239E-2  
 2.044200000000000E10   -7.645412437420567E-2   6.070166671619192E-2  
 2.044400000000000E10   -6.495802836131259E-2   7.293480463518651E-2  
 2.044600000000000E10   -5.168954158292757E-2   8.290358864008300E-2  
 2.044800000000000E10   -3.693342831220284E-2   9.046569359770081E-2  
 2.045000000000000E10   -2.078389759529735E-2   9.552285885541947E-2  
 2.045200000000000E10   -4.293971804164111E-3   9.773081617297086E-2  
 2.045400000000000E10    1.236575761329119E-2   9.705731597285819E-2  
 2.045600000000000E10    2.886990385199792E-2   9.341945943309485E-2  
 2.045800000000000E10    4.435437881862683E-2   8.700472356571098E-2  
 2.046000000000000E10    5.839858050746526E-2   7.801212286475848E-2  
 2.046200000000000E10    7.071563306847090E-2   6.678692811666355E-2  
 2.046400000000000E10    8.078715013202806E-2   5.374683660489543E-2  
 2.046600000000000E10    8.858701062271801E-2   3.924450087257653E-2  
 2.046800000000000E10    9.389683903505218E-2   2.365266261474211E-2  
 2.047000000000000E10    9.648466483458802E-2   7.365618039202472E-3  
 2.047200000000000E10    9.631718529254596E-2  -9.021575358676270E-3  
 2.047400000000000E10    9.332089547526090E-2  -2.516575598353879E-2  
 2.047600000000000E10    8.758885397623634E-2  -4.054147237497806E-2  
 2.047800000000000E10    7.930098283360816E-2  -5.474361001738130E-2  
 2.048000000000000E10    6.878620298721380E-2  -6.728230429493315E-2  
 2.048200000000000E10    5.636701589487243E-2  -7.783366625472092E-2  
 2.048400000000000E10    4.240389883113951E-2  -8.619280110151130E-2  
 2.048600000000000E10    2.732102276246062E-2  -9.208572672268656E-2  
 2.048800000000000E10    1.103954676620847E-2  -9.538067573561199E-2  
 2.049000000000000E10   -5.180563736188956E-3  -9.576870663846614E-2  
 2.049200000000000E10   -2.129943974144647E-2  -9.326522932632278E-2  
 2.049400000000000E10   -3.659827208904173E-2  -8.822147296855637E-2  
 2.049600000000000E10   -5.077925865754986E-2  -8.075829215965906E-2  
 2.049800000000000E10   -6.366576417097322E-2  -7.101694656458291E-2  
 2.050000000000000E10   -7.475900822482096E-2  -5.921895765549786E-2  
 2.050200000000000E10   -8.361019437103709E-2  -4.581985202099029E-2  
 2.050400000000000E10   -9.022112847470731E-2  -3.091884695348557E-2  
 2.050600000000000E10   -9.405213045191489E-2  -1.518436068088772E-2  
 2.050800000000000E10   -9.515323253588932E-2   8.519455907662522E-4  
 2.051000000000000E10   -9.357077495964758E-2   1.699388757448750E-2  
 2.051200000000000E10   -8.929481298512684E-2   3.247842968425507E-2  
 2.051400000000000E10   -8.257842985053425E-2   4.691201077274226E-2  
 2.051600000000000E10   -7.337913137630120E-2   6.028971394316451E-2  
 2.051800000000000E10   -6.216335035408198E-2   7.175925267096708E-2  
 2.052000000000000E10   -4.916854875657833E-2   8.117822521273299E-2  
 2.052200000000000E10   -3.456777431249092E-2   8.834257009320645E-2  
 2.052400000000000E10   -1.943818242722778E-2   9.282112130591017E-2  
 2.052600000000000E10   -3.488831343955417E-3   9.483136662285316E-2  
 2.052800000000000E10    1.264201973752342E-2   9.416074531905835E-2  
 2.053000000000000E10    2.822703813661504E-2   9.078828540199543E-2  
 2.053200000000000E10    4.337894695776481E-2   8.477468656479439E-2  
 2.053400000000000E10    5.725539935743192E-2   7.615555386329967E-2  
 2.053600000000000E10    6.929529000378198E-2   6.534655354127819E-2  
 2.053800000000000E10    7.951503112872055E-2   5.252049266190505E-2  
 2.054000000000000E10    8.727110195334339E-2   3.822331366252289E-2  
 2.054200000000000E10    9.247738785251750E-2   2.305096952580679E-2  
 2.054400000000000E10    9.508020177605449E-2   6.904653918180907E-3  
 2.054600000000000E10    9.485520489496085E-2  -9.387813397743628E-3  
 2.054800000000000E10    9.189297893078767E-2  -2.529249419256881E-2  
 2.055000000000000E10    8.620530534585802E-2  -4.069025085884394E-2  
 2.055200000000000E10    7.806966902914980E-2  -5.462133688503473E-2  
 2.055400000000000E10    6.752312978063302E-2  -6.716416771107985E-2  
 2.055600000000000E10    5.507043955827466E-2  -7.772786376315248E-2  
