#  HZ   S   RI   R     50.00 
! Rohde & Schwarz ZVA40 4Ports - Version 3.90 - 1145.1110k42 SN: 100403
! Date: 2023-09-30 08:42:26
! Measurement: S12 
! 
 2.000000000000000E10   -3.595539342542190E-2   9.145680855181211E-2  
 2.000200000000000E10   -2.107224841510590E-2   9.638236468520731E-2  
 2.000400000000000E10   -4.582775944727209E-3   9.869683070247122E-2  
 2.000600000000000E10    1.232874268775778E-2   9.817951943199005E-2  
 2.000800000000000E10    2.882712870192381E-2   9.473727126684592E-2  
 2.001000000000000E10    4.472665989854100E-2   8.844447600947814E-2  
 2.001200000000000E10    5.905914925989302E-2   7.961104668857413E-2  
 2.001400000000000E10    7.201157526292375E-2   6.824908011380429E-2  
 2.001600000000000E10    8.258678043916121E-2   5.506264274598368E-2  
 2.001800000000000E10    9.091195393954996E-2   4.017244276488869E-2  
 2.002000000000000E10    9.649247842724595E-2   2.384267245842188E-2  
 2.002200000000000E10    9.916908805316914E-2   5.466902839760014E-3  
 2.002400000000000E10    9.848252680130512E-2  -1.127481181387439E-2  
 2.002600000000000E10    9.490321258744751E-2  -2.793712849602288E-2  
 2.002800000000000E10    8.865480457450028E-2  -4.355225139214506E-2  
 2.003000000000000E10    7.985751015386683E-2  -5.788794031284093E-2  
 2.003200000000000E10    6.870733984376834E-2  -7.055259778053183E-2  
 2.003400000000000E10    5.560269648618878E-2  -8.111899557672903E-2  
 2.003600000000000E10    4.100844648653479E-2  -8.917256122753946E-2  
 2.003800000000000E10    2.518541746992988E-2  -9.472180332325889E-2  
 2.004000000000000E10    8.687425433744511E-3  -9.743778114933158E-2  
 2.004200000000000E10   -7.891588924417744E-3  -9.729376722128905E-2  
 2.004400000000000E10   -2.406558988144886E-2  -9.439056583351888E-2  
 2.004600000000000E10   -3.981301267165052E-2  -8.871181095960101E-2  
 2.004800000000000E10   -5.402780600338426E-2  -8.056894102813886E-2  
 2.005000000000000E10   -6.677916876300592E-2  -7.012713869167456E-2  
 2.005200000000000E10   -7.755328196679615E-2  -5.787224381494371E-2  
 2.005400000000000E10   -8.618641772810379E-2  -4.389911140543062E-2  
 2.005600000000000E10   -9.231653421517645E-2  -2.873288677638260E-2  
 2.005800000000000E10   -9.576870045217142E-2  -1.260120191819588E-2  
 2.006000000000000E10   -9.644216321200938E-2   3.801084962679021E-3  
 2.006200000000000E10   -9.433234189341044E-2   1.983778309596555E-2  
 2.006400000000000E10   -8.937692851046206E-2   3.561538906540564E-2  
 2.006600000000000E10   -8.193217746310438E-2   5.000357724688728E-2  
 2.006800000000000E10   -7.229419343878704E-2   6.294234719759372E-2  
 2.007000000000000E10   -6.076218694904978E-2   7.409748570268757E-2  
 2.007200000000000E10   -4.743906692740141E-2   8.329857540392255E-2  
 2.007400000000000E10   -3.283921728667791E-2   9.016144185045512E-2  
 2.007600000000000E10   -1.714601679600752E-2   9.451522255358111E-2  
 2.007800000000000E10   -8.443976487850697E-4   9.612238676268925E-2  
 2.008000000000000E10    1.516134419214879E-2   9.497747978405917E-2  
 2.008200000000000E10    3.113567686388905E-2   9.104580688705498E-2  
 2.008400000000000E10    4.618932513216069E-2   8.448905506987632E-2  
 2.008600000000000E10    5.975794333114601E-2   7.541953117868157E-2  
 2.008800000000000E10    7.161038233351372E-2   6.427666682887961E-2  
 2.009000000000000E10    8.141477307569617E-2   5.126274850306362E-2  
 2.009200000000000E10    8.899465852272692E-2   3.673182457862623E-2  
 2.009400000000000E10    9.397385366155397E-2   2.130769817460930E-2  
 2.009600000000000E10    9.641788799399159E-2   4.995468529205299E-3  
 2.009800000000000E10    9.605245003634304E-2  -1.124281095869747E-2  
 2.010000000000000E10    9.281574787549032E-2  -2.754395265791397E-2  
 2.010200000000000E10    8.679208925286003E-2  -4.301659627100023E-2  
 2.010400000000000E10    7.815632109275190E-2  -5.722166517102997E-2  
 2.010600000000000E10    6.735871835459735E-2  -6.957371567325284E-2  
 2.010800000000000E10    5.456123913961512E-2  -8.006468299089856E-2  
 2.011000000000000E10    4.006298806537054E-2  -8.822085728479621E-2  
 2.011200000000000E10    2.450303742632264E-2  -9.376711562228193E-2  
 2.011400000000000E10    8.211761469018886E-3  -9.658751348872463E-2  
 2.011600000000000E10   -8.501929075980521E-3  -9.657570555853857E-2  
 2.011800000000000E10   -2.479913715097695E-2  -9.364739498511049E-2  
 2.012000000000000E10   -4.042078047534294E-2  -8.795533756455931E-2  
 2.012200000000000E10   -5.473111427819616E-2  -7.972652560834970E-2  
 2.012400000000000E10   -6.754797669131843E-2  -6.907398566079021E-2  
 2.012600000000000E10   -7.808992524546579E-2  -5.652653564586998E-2  
 2.012800000000000E10   -8.644561427992450E-2  -4.223067919324674E-2  
 2.013000000000000E10   -9.212174031851116E-2  -2.701216871808886E-2  
 2.013200000000000E10   -9.525206034716048E-2  -1.107731749097956E-2  
 2.013400000000000E10   -9.562599995894472E-2   5.258462170780278E-3  
 2.013600000000000E10   -9.327028691768648E-2   2.144892044726523E-2  
 2.013800000000000E10   -8.823738372865529E-2   3.673658111172286E-2  
 2.014000000000000E10   -8.050360515284441E-2   5.128911270274113E-2  
 2.014200000000000E10   -7.058887882051701E-2   6.402292038528246E-2  
 2.014400000000000E10   -5.859615018392843E-2   7.495423377405089E-2  
 2.014600000000000E10   -4.511919941976293E-2   8.357887306971588E-2  
 2.014800000000000E10   -3.021593358934907E-2   8.986152136195018E-2  
 2.015000000000000E10   -1.471726901089976E-2   9.346516307053308E-2  
 2.015200000000000E10    1.325758994558241E-3   9.447305506775792E-2  
 2.015400000000000E10    1.711221142605145E-2   9.277486237669624E-2  
 2.015600000000000E10    3.226828616356055E-2   8.860908793460087E-2  
 2.015800000000000E10    4.669925981513376E-2   8.196053520410532E-2  
 2.016000000000000E10    5.995146057576583E-2   7.289194882556518E-2  
 2.016200000000000E10    7.141205309717745E-2   6.168624057950198E-2  
 2.016400000000000E10    8.071455585667681E-2   4.873524583232257E-2  
 2.016600000000000E10    8.760968548389239E-2   3.447419093265128E-2  
 2.016800000000000E10    9.212482485206477E-2   1.918357167227742E-2  
 2.017000000000000E10    9.409044594063191E-2   3.650091329583525E-3  
 2.017200000000000E10    9.342430593300259E-2  -1.231806793143257E-2  
 2.017400000000000E10    9.013413291068509E-2  -2.782367629599070E-2  
 2.017600000000000E10    8.431438782142078E-2  -4.266238022147656E-2  
 2.017800000000000E10    7.610077028698066E-2  -5.640674125578615E-2  
 2.018000000000000E10    6.559953934657395E-2  -6.866217606624732E-2  
 2.018200000000000E10    5.301362215947986E-2  -7.899494660284949E-2  
 2.018400000000000E10    3.877934326333002E-2  -8.698492443378952E-2  
 2.018600000000000E10    2.331919687922327E-2  -9.234600033820575E-2  
 2.018800000000000E10    7.188711138880781E-3  -9.491900451035060E-2  
 2.019000000000000E10   -8.979912331582452E-3  -9.475656539869465E-2  
 2.019200000000000E10   -2.505781166562083E-2  -9.181151822188918E-2  
 2.019400000000000E10   -4.025951812105960E-2  -8.619567885088715E-2  
 2.019600000000000E10   -5.411319158014011E-2  -7.827486507645688E-2  
 2.019800000000000E10   -6.677397647825725E-2  -6.792635515938626E-2  
 2.020000000000000E10   -7.742113713047306E-2  -5.569172686687278E-2  
 2.020200000000000E10   -8.587585789226865E-2  -4.158737554049242E-2  
 2.020400000000000E10   -9.170255818539251E-2  -2.619208330923039E-2  
 2.020600000000000E10   -9.465866392818174E-2  -1.013855414808301E-2  
 2.020800000000000E10   -9.480533047072901E-2   6.074313611127726E-3  
 2.021000000000000E10   -9.228700842277396E-2   2.196896632611207E-2  
 2.021200000000000E10   -8.717932600475198E-2   3.736276481561210E-2  
 2.021400000000000E10   -7.965058924661798E-2   5.147087053282108E-2  
 2.021600000000000E10   -6.977092137770617E-2   6.422312772663752E-2  
 2.021800000000000E10   -5.770694155281791E-2   7.518826700341610E-2  
 2.022000000000000E10   -4.401973136379178E-2   8.387224406862456E-2  
 2.022200000000000E10   -2.896327591042542E-2   8.994905747708308E-2  
 2.022400000000000E10   -1.320117577709425E-2   9.332700062476723E-2  
 2.022600000000000E10    2.732981460541146E-3   9.393403902956490E-2  
 2.022800000000000E10    1.843059570905440E-2   9.193649638323247E-2  
 2.023000000000000E10    3.345708621416291E-2   8.746261903560484E-2  
 2.023200000000000E10    4.768966101910571E-2   8.049413360822241E-2  
 2.023400000000000E10    6.040061789700633E-2   7.123980087248986E-2  
 2.023600000000000E10    7.140576609150155E-2   6.011498964059065E-2  
 2.023800000000000E10    8.047225197524202E-2   4.723450064720441E-2  
 2.024000000000000E10    8.723055342724187E-2   3.310984248234957E-2  
 2.024200000000000E10    9.152686788398598E-2   1.793633757314973E-2  
 2.024400000000000E10    9.315739358103761E-2   2.147170837837003E-3  
 2.024600000000000E10    9.208967096875345E-2  -1.344410826507011E-2  
 2.024800000000000E10    8.845947920989926E-2  -2.869478092585518E-2  
 2.025000000000000E10    8.237462355208061E-2  -4.307360223536629E-2  
 2.025200000000000E10    7.419275143918351E-2  -5.616950345573549E-2  
 2.025400000000000E10    6.385721521776565E-2  -6.776120080337932E-2  
 2.025600000000000E10    5.152277847914649E-2  -7.770414658957113E-2  
 2.025800000000000E10    3.780830661912296E-2  -8.537771208718537E-2  
 2.026000000000000E10    2.295301077273348E-2  -9.066102479656484E-2  
 2.026200000000000E10    7.311813611235721E-3  -9.339418025814239E-2  
 2.026400000000000E10   -8.678025987627822E-3  -9.340799944990566E-2  
 2.026600000000000E10   -2.421741545707955E-2  -9.067806710199947E-2  
 2.026800000000000E10   -3.942939650504133E-2  -8.531895527896349E-2  
 2.027000000000000E10   -5.336004084936005E-2  -7.755324067007097E-2  
 2.027200000000000E10   -6.585272826053371E-2  -6.749067111106895E-2  
 2.027400000000000E10   -7.642453044625686E-2  -5.532435049947181E-2  
 2.027600000000000E10   -8.486459364030370E-2  -4.144688907228871E-2  
 2.027800000000000E10   -9.066469337114964E-2  -2.631579225292668E-2  
 2.028000000000000E10   -9.381326014762827E-2  -1.047996083759095E-2  
 2.028200000000000E10   -9.420971645303770E-2   5.684478471168902E-3  
 2.028400000000000E10   -9.187661544694496E-2   2.180962667472160E-2  
 2.028600000000000E10   -8.680618388785258E-2   3.705397504286021E-2  
 2.028800000000000E10   -7.914055538439130E-2   5.143378996411634E-2  
 2.029000000000000E10   -6.914479163857318E-2   6.416295032742148E-2  
 2.029200000000000E10   -5.711121954940257E-2   7.494479403833196E-2  
 2.029400000000000E10   -4.334683695175248E-2   8.349623170327422E-2  
 2.029600000000000E10   -2.838352691956209E-2   8.956080409397969E-2  
 2.029800000000000E10   -1.264104516652959E-2   9.293300502434898E-2  
 2.030000000000000E10    3.397358505623386E-3   9.356478067514393E-2  
 2.030200000000000E10    1.919805105293539E-2   9.144122586178902E-2  
 2.030400000000000E10    3.442009872104079E-2   8.666035579283271E-2  
 2.030600000000000E10    4.848291532949439E-2   7.941913093381896E-2  
 2.030800000000000E10    6.118701185450252E-2   6.996903815155550E-2  
 2.031000000000000E10    7.202812799333055E-2   5.850539382191135E-2  
 2.031200000000000E10    8.070480071304595E-2   4.541743817391274E-2  
 2.031400000000000E10    8.711367890845166E-2   3.086473299322414E-2  
 2.031600000000000E10    9.080439423064855E-2   1.603734883329451E-2  
 2.031800000000000E10    9.203795574956362E-2   6.395511989606100E-4  
 2.032000000000000E10    9.067037400108635E-2  -1.501850587510469E-2  
 2.032200000000000E10    8.680881672953165E-2  -2.995721326061838E-2  
 2.032400000000000E10    8.047594546345091E-2  -4.411564918450422E-2  
 2.032600000000000E10    7.175398640467472E-2  -5.718492693044195E-2  
 2.032800000000000E10    6.097047693710597E-2  -6.842751604103313E-2  
 2.033000000000000E10    4.843103078589574E-2  -7.763046943329219E-2  
 2.033200000000000E10    3.443672527079175E-2  -8.455743867892025E-2  
 2.033400000000000E10    1.971774701766626E-2  -8.911123513752978E-2  
 2.033600000000000E10    1.286578622391549E-2  -9.039048004978915E-2  
 2.033800000000000E10   -1.156648827327486E-2  -9.039354217027933E-2  
 2.034000000000000E10   -2.677053221551234E-2  -8.689561635460220E-2  
 2.034200000000000E10   -4.109982110876770E-2  -8.087743069954426E-2  
 2.034400000000000E10   -5.392675863167551E-2  -7.262332397451346E-2  
 2.034600000000000E10   -6.524512120984602E-2  -6.227927191492136E-2  
 2.034800000000000E10   -7.448449089721181E-2  -5.039014508517628E-2  
 2.035000000000000E10   -8.168773974833231E-2  -3.727377461593992E-2  
 2.035200000000000E10   -8.670838721604124E-2  -2.303757333968757E-2  
 2.035400000000000E10   -8.936228648434506E-2  -8.135823151594942E-3  
 2.035600000000000E10   -8.945809819475396E-2   6.974115211024343E-3  
 2.035800000000000E10   -8.698446864699141E-2   2.209878692026138E-2  
 2.036000000000000E10   -8.194053867021871E-2   3.639078152182444E-2  
 2.036200000000000E10   -7.449699263077761E-2   4.974519273340295E-2  
 2.036400000000000E10   -6.499584583343303E-2   6.157123048759565E-2  
 2.036600000000000E10   -5.373196192102778E-2   7.153874877576258E-2  
 2.036800000000000E10   -4.081906740748289E-2   7.948916386361531E-2  
 2.037000000000000E10   -2.668068107519049E-2   8.512723697651781E-2  
 2.037200000000000E10   -1.196438839780887E-2   8.828995709324952E-2  
 2.037400000000000E10    3.081927628728643E-3   8.898701535467150E-2  
 2.037600000000000E10    1.804967584096110E-2   8.717715501730772E-2  
 2.037800000000000E10    3.263271320824162E-2   8.270636777669042E-2  
 2.038000000000000E10    4.605512903721354E-2   7.594073974328551E-2  
 2.038200000000000E10    5.812848765261653E-2   6.691708881450562E-2  
 2.038400000000000E10    6.853450620466028E-2   5.596729276670296E-2  
 2.038600000000000E10    7.672022607741316E-2   4.362846108661922E-2  
 2.038800000000000E10    8.288002583770160E-2   3.000803405157524E-2  
 2.039000000000000E10    8.671158413174059E-2   1.565871172285225E-2  
 2.039200000000000E10    8.806413242778226E-2   8.312833298378425E-4  
 2.039400000000000E10    8.682662631871771E-2  -1.424998251928224E-2  
 2.039600000000000E10    8.307630503332993E-2  -2.874729908478141E-2  
 2.039800000000000E10    7.681820735124133E-2  -4.231036696319009E-2  
 2.040000000000000E10    6.829075058764611E-2  -5.458405150750429E-2  
 2.040200000000000E10    5.795666913552595E-2  -6.510282094940838E-2  
 2.040400000000000E10    4.602865207042661E-2  -7.364044445777628E-2  
 2.040600000000000E10    3.289743787453608E-2  -8.010333364937587E-2  
 2.040800000000000E10    1.903134017882960E-2  -8.427565766964322E-2  
 2.041000000000000E10    4.501791750125599E-3  -8.612624615444460E-2  
 2.041200000000000E10   -1.000738679037473E-2  -8.550151157485442E-2  
 2.041400000000000E10   -2.419256634676381E-2  -8.247390242611158E-2  
 2.041600000000000E10   -3.765532649307422E-2  -7.710872184456241E-2  
 2.041800000000000E10   -5.004584267701415E-2  -6.952380460517071E-2  
 2.042000000000000E10   -6.086218651770783E-2  -6.004480451215988E-2  
 2.042200000000000E10   -6.988683146363697E-2  -4.880209914934544E-2  
 2.042400000000000E10   -7.680327092328464E-2  -3.636528895150106E-2  
 2.042600000000000E10   -8.162011418731779E-2  -2.303217426896314E-2  
 2.042800000000000E10   -8.428250762851589E-2  -9.036793315610251E-3  
 2.043000000000000E10   -8.465245164075726E-2   5.126099799732858E-3  
 2.043200000000000E10   -8.261285992411649E-2   1.939434815278242E-2  
 2.043400000000000E10   -7.806293862251371E-2   3.317285417168175E-2  
 2.043600000000000E10   -7.134754156202393E-2   4.575622310520418E-2  
 2.043800000000000E10   -6.243898348042179E-2   5.714892872294500E-2  
 2.044000000000000E10   -5.165835995623987E-2   6.681491177704546E-2  
 2.044200000000000E10   -3.965011242799254E-2   7.430019038872029E-2  
 2.044400000000000E10   -2.636927879570035E-2   7.976147395852064E-2  
 2.044600000000000E10   -1.257334742056326E-2   8.286204144774260E-2  
 2.044800000000000E10    1.565580342836239E-3   8.358265954539501E-2  
 2.045000000000000E10    1.573720902705307E-2   8.194494105374700E-2  
 2.045200000000000E10    2.913910357147851E-2   7.798510186874982E-2  
 2.045400000000000E10    4.177707177512331E-2   7.180787898535374E-2  
 2.045600000000000E10    5.321584503959728E-2   6.351509041978609E-2  
 2.045800000000000E10    6.297597839958222E-2   5.347056320651678E-2  
 2.046000000000000E10    7.084802735067146E-2   4.192893911250172E-2  
 2.046200000000000E10    7.653874935600168E-2   2.930107088542361E-2  
 2.046400000000000E10    7.998841633031399E-2   1.598332615532612E-2  
 2.046600000000000E10    8.116118924349043E-2   2.360883576941951E-3  
 2.046800000000000E10    8.020234802949904E-2  -1.113999740973926E-2  
 2.047000000000000E10    7.701422384491674E-2  -2.425772667946367E-2  
 2.047200000000000E10    7.178897233479745E-2  -3.660403315878973E-2  
 2.047400000000000E10    6.456766250638261E-2  -4.795558839034807E-2  
 2.047600000000000E10    5.549077806499488E-2  -5.797739476340245E-2  
 2.047800000000000E10    4.495844317520925E-2  -6.617944759487507E-2  
 2.048000000000000E10    3.328363160816949E-2  -7.248748174924311E-2  
 2.048200000000000E10    2.073633700530852E-2  -7.680469199463175E-2  
 2.048400000000000E10    7.809856600776677E-3  -7.899623818331024E-2  
 2.048600000000000E10   -5.438895405929794E-3  -7.915421907126115E-2  
 2.048800000000000E10   -1.862932241189191E-2  -7.705311531692431E-2  
 2.049000000000000E10   -3.110172777386850E-2  -7.279245429010114E-2  
 2.049200000000000E10   -4.279407800933680E-2  -6.639494868544722E-2  
 2.049400000000000E10   -5.302814148267657E-2  -5.833419622741828E-2  
 2.049600000000000E10   -6.184883107046696E-2  -4.870878358273187E-2  
 2.049800000000000E10   -6.903374763686854E-2  -3.770917927089161E-2  
 2.050000000000000E10   -7.426917156401323E-2  -2.574748689054108E-2  
 2.050200000000000E10   -7.744343272207206E-2  -1.310076311428252E-2  
 2.050400000000000E10   -7.852707856054116E-2   1.182270637379294E-4  
 2.050600000000000E10   -7.729426396999614E-2   1.316210907676556E-2  
 2.050800000000000E10   -7.387940602647045E-2   2.582468616826845E-2  
 2.051000000000000E10   -6.840288705159717E-2   3.777667243164808E-2  
 2.051200000000000E10   -6.107246804391353E-2   4.848275928292638E-2  
 2.051400000000000E10   -5.210454619238789E-2   5.790363971159292E-2  
 2.051600000000000E10   -4.168833145266208E-2   6.566924952689404E-2  
 2.051800000000000E10   -3.023499969919360E-2   7.148980792521559E-2  
 2.052000000000000E10   -1.798213361181186E-2   7.537727182280490E-2  
 2.052200000000000E10   -5.215817175177022E-3   7.719464773149540E-2  
 2.052400000000000E10    7.345544294827625E-3   7.694501875400217E-2  
 2.052600000000000E10    2.000097274630376E-2   7.470592222409431E-2  
 2.052800000000000E10    3.205779591889539E-2   7.043856181371253E-2  
 2.053000000000000E10    4.326334841477855E-2   6.426100876092039E-2  
 2.053200000000000E10    5.350901449808642E-2   5.619194632320303E-2  
 2.053400000000000E10    6.216989762512146E-2   4.651022156352153E-2  
 2.053600000000000E10    6.905816551630063E-2   3.548404445107746E-2  
 2.053800000000000E10    7.398205377233046E-2   2.343654480115922E-2  
 2.054000000000000E10    7.678800979037237E-2   1.079908067340932E-2  
 2.054200000000000E10    7.749376206513570E-2  -2.032497435702572E-3  
 2.054400000000000E10    7.610336573948642E-2  -1.492828595403891E-2  
 2.054600000000000E10    7.254415832947095E-2  -2.733810249142005E-2  
 2.054800000000000E10    6.704492532449279E-2  -3.900401968258563E-2  
 2.055000000000000E10    5.962660008292794E-2  -4.964334787021613E-2  
 2.055200000000000E10    5.058833409082035E-2  -5.887814139360482E-2  
 2.055400000000000E10    4.011621960546527E-2  -6.655501703734698E-2  
 2.055600000000000E10    2.855346103594437E-2  -7.234161907221884E-2  
