#  HZ   S   RI   R     50.00 
! Rohde & Schwarz ZVA40 4Ports - Version 3.90 - 1145.1110k42 SN: 100403
! Date: 2023-09-30 06:21:01
! Measurement: S12 
! 
 2.000000000000000E10    9.313269532879685E-2   3.886377451167185E-2  
 2.000200000000000E10    9.863989116478360E-2   2.335888030842990E-2  
 2.000400000000000E10    1.013160106024625E-1   6.104087094879813E-3  
 2.000600000000000E10    1.008912684556879E-1  -1.154998236109691E-2  
 2.000800000000000E10    9.735245266814294E-2  -2.861211373788830E-2  
 2.001000000000000E10    9.086171421126575E-2  -4.505089664287529E-2  
 2.001200000000000E10    8.177682098169878E-2  -5.980898196130625E-2  
 2.001400000000000E10    7.044378018060341E-2  -7.282489461540687E-2  
 2.001600000000000E10    5.691345065157601E-2  -8.399718582875446E-2  
 2.001800000000000E10    4.168140593870187E-2  -9.263537339712857E-2  
 2.002000000000000E10    2.489863226473822E-2  -9.845115851472927E-2  
 2.002200000000000E10    6.237516767985415E-3  -1.012630447622680E-1  
 2.002400000000000E10   -1.121497350848384E-2  -1.007290547215399E-1  
 2.002600000000000E10   -2.827535865544783E-2  -9.711531240017818E-2  
 2.002800000000000E10   -4.438150037892562E-2  -9.064204849824004E-2  
 2.003000000000000E10   -5.897131744664885E-2  -8.153506162971136E-2  
 2.003200000000000E10   -7.176508886333358E-2  -7.014891075989838E-2  
 2.003400000000000E10   -8.240572363138199E-2  -5.673524640776494E-2  
 2.003600000000000E10   -9.055997940247933E-2  -4.194817512675569E-2  
 2.003800000000000E10   -9.609552206080639E-2  -2.624544921357936E-2  
 2.004000000000000E10   -9.911136896399315E-2  -9.670562248814990E-3  
 2.004200000000000E10   -9.935800492027661E-2   7.127114571630955E-3  
 2.004400000000000E10   -9.681012076728139E-2   2.385461201638352E-2  
 2.004600000000000E10   -9.147917966783783E-2   3.982382161933699E-2  
 2.004800000000000E10   -8.322723194527529E-2   5.504505261165616E-2  
 2.005000000000000E10   -7.260676166770881E-2   6.834615481856429E-2  
 2.005200000000000E10   -5.996243805919656E-2   7.946864129216584E-2  
 2.005400000000000E10   -4.559471343218545E-2   8.841735934033806E-2  
 2.005600000000000E10   -3.004997127800567E-2   9.479370173603421E-2  
 2.005800000000000E10   -1.356922350670575E-2   9.851576111934804E-2  
 2.006000000000000E10    3.043155986892344E-3   9.931692106978886E-2  
 2.006200000000000E10    1.983085972996651E-2   9.750230475463007E-2  
 2.006400000000000E10    3.592273852032890E-2   9.287080487596647E-2  
 2.006600000000000E10    5.109444484421256E-2   8.565981431630415E-2  
 2.006800000000000E10    6.503549904980288E-2   7.597814037353415E-2  
 2.007000000000000E10    7.730084007659568E-2   6.396048378061367E-2  
 2.007200000000000E10    8.731791925896343E-2   4.978369887718940E-2  
 2.007400000000000E10    9.460344990339790E-2   3.413949937486845E-2  
 2.007600000000000E10    9.908057773800055E-2   1.741105277443865E-2  
 2.007800000000000E10    1.005524466496436E-1   8.868645572912299E-5  
 2.008000000000000E10    9.910489017826052E-2  -1.694808587615873E-2  
 2.008200000000000E10    9.460518613396360E-2  -3.378338549178815E-2  
 2.008400000000000E10    8.740403852712962E-2  -4.922406409135081E-2  
 2.008600000000000E10    7.758051552522331E-2  -6.330598200912829E-2  
 2.008800000000000E10    6.553749313938276E-2  -7.549745197036140E-2  
 2.009000000000000E10    5.192677225963570E-2  -8.524335926942867E-2  
 2.009200000000000E10    3.670749006938542E-2  -9.280880117489969E-2  
 2.009400000000000E10    2.055527887655875E-2  -9.766589850187304E-2  
 2.009600000000000E10    3.558545077311589E-3  -9.985130890406700E-2  
 2.009800000000000E10   -1.328478261843753E-2  -9.908148094459818E-2  
 2.010000000000000E10   -3.012000727984641E-2  -9.535897032591542E-2  
 2.010200000000000E10   -4.611592506798207E-2  -8.870808829250651E-2  
 2.010400000000000E10   -6.046158725342143E-2  -7.946706087991536E-2  
 2.010600000000000E10   -7.298774388714584E-2  -6.783732017617168E-2  
 2.010800000000000E10   -8.334236377428590E-2  -5.419619609850915E-2  
 2.011000000000000E10   -9.113087753454845E-2  -3.910086691808799E-2  
 2.011200000000000E10   -9.610395102834507E-2  -2.305831130854633E-2  
 2.011400000000000E10   -9.830825907703292E-2  -6.674323734969147E-3  
 2.011600000000000E10   -9.791870982435999E-2   1.000381857846622E-2  
 2.011800000000000E10   -9.481277105249006E-2   2.635104543387645E-2  
 2.012000000000000E10   -8.915059182624269E-2   4.179155849564223E-2  
 2.012200000000000E10   -8.071278976928061E-2   5.651745071381700E-2  
 2.012400000000000E10   -6.987432602011129E-2   6.931506640013355E-2  
 2.012600000000000E10   -5.690517880543761E-2   8.011083682010205E-2  
 2.012800000000000E10   -4.248231683125713E-2   8.841353099900509E-2  
 2.013000000000000E10   -2.684301784101092E-2   9.420849686419525E-2  
 2.013200000000000E10   -1.054904484975731E-2   9.722201477107689E-2  
 2.013400000000000E10    6.074096064692663E-3   9.753979524835149E-2  
 2.013600000000000E10    2.276819062116460E-2   9.491480175605038E-2  
 2.013800000000000E10    3.835283779374367E-2   8.959079607401366E-2  
 2.014000000000000E10    5.282179667871186E-2   8.160710834549290E-2  
 2.014200000000000E10    6.577971111599801E-2   7.148601209798469E-2  
 2.014400000000000E10    7.689899104980777E-2   5.938803976394022E-2  
 2.014600000000000E10    8.581329918937919E-2   4.550933630930053E-2  
 2.014800000000000E10    9.222296042820065E-2   3.020210466021864E-2  
 2.015000000000000E10    9.589805549064293E-2   1.405635755509138E-2  
 2.015200000000000E10    9.676511594910682E-2  -2.540991078188390E-3  
 2.015400000000000E10    9.486195328549595E-2  -1.875354776565185E-2  
 2.015600000000000E10    9.017308359896696E-2  -3.478713606488067E-2  
 2.015800000000000E10    8.278879593797182E-2  -4.955544822500568E-2  
 2.016000000000000E10    7.298795894217591E-2  -6.289652275082507E-2  
 2.016200000000000E10    6.105465057148857E-2  -7.430309222804177E-2  
 2.016400000000000E10    4.741240741968646E-2  -8.334881536386632E-2  
 2.016600000000000E10    3.251798449413768E-2  -8.991691770622270E-2  
 2.016800000000000E10    1.669377037573131E-2  -9.397724923896203E-2  
 2.017000000000000E10    5.537062438316033E-4  -9.525152712815094E-2  
 2.017200000000000E10   -1.576823085055921E-2  -9.366622328022384E-2  
 2.017400000000000E10   -3.121801970120321E-2  -8.929948665109683E-2  
 2.017600000000000E10   -4.584134459004972E-2  -8.243058410323698E-2  
 2.017800000000000E10   -5.895438439254899E-2  -7.337164777664493E-2  
 2.018000000000000E10   -7.017753257918261E-2  -6.229840956413699E-2  
 2.018200000000000E10   -7.951531776920759E-2  -4.936273133865110E-2  
 2.018400000000000E10   -8.652533382299997E-2  -3.522975663098779E-2  
 2.018600000000000E10   -9.106835309002136E-2  -2.008268035519025E-2  
 2.018800000000000E10   -9.286044041315715E-2  -4.312667105569210E-3  
 2.019000000000000E10   -9.194139464769835E-2   1.136272825653293E-2  
 2.019200000000000E10   -8.845817003353143E-2   2.653125359259025E-2  
 2.019400000000000E10   -8.245204128478291E-2   4.106700589014180E-2  
 2.019600000000000E10   -7.431951729358470E-2   5.400765184389712E-2  
 2.019800000000000E10   -6.402091218978781E-2   6.565692665155043E-2  
 2.020000000000000E10   -5.230401244796353E-2   7.512591009645306E-2  
 2.020200000000000E10   -3.885287567666529E-2   8.284016805911752E-2  
 2.020400000000000E10   -2.436624455875085E-2   8.807971576849620E-2  
 2.020600000000000E10   -9.374550559055905E-3   9.080365904196791E-2  
 2.020800000000000E10    6.047679107528901E-3   9.100618578278971E-2  
 2.021000000000000E10    2.133107603117517E-2   8.856301123100055E-2  
 2.021200000000000E10    3.573417778552315E-2   8.374215950691161E-2  
 2.021400000000000E10    4.931168708904291E-2   7.647886142563920E-2  
 2.021600000000000E10    6.143040412370070E-2   6.708572219306061E-2  
 2.021800000000000E10    7.186378431295663E-2   5.572354562059352E-2  
 2.022000000000000E10    8.015436449168642E-2   4.279884202367485E-2  
 2.022200000000000E10    8.611309034711541E-2   2.871649304535164E-2  
 2.022400000000000E10    8.968121448048841E-2   1.374429186859739E-2  
 2.022600000000000E10    9.068451046085163E-2  -1.448754368756165E-3  
 2.022800000000000E10    8.916071842236775E-2  -1.666605383648304E-2  
 2.023000000000000E10    8.509417463845187E-2  -3.151678732393210E-2  
 2.023200000000000E10    7.865220575053016E-2  -4.543382531882804E-2  
 2.023400000000000E10    6.983807682991028E-2  -5.814369655992270E-2  
 2.023600000000000E10    5.894278866763961E-2  -6.925310663602971E-2  
 2.023800000000000E10    4.629368146444545E-2  -7.824738289961600E-2  
 2.024000000000000E10    3.227364747888513E-2  -8.494789766553990E-2  
 2.024200000000000E10    1.737871679473561E-2  -8.914203576958230E-2  
 2.024400000000000E10    1.727409431578615E-3  -9.073645477432284E-2  
 2.024600000000000E10   -1.385114711820466E-2  -8.946183474098216E-2  
 2.024800000000000E10   -2.874778253275426E-2  -8.551499339533442E-2  
 2.025000000000000E10   -4.273284142338690E-2  -7.910467748656685E-2  
 2.025200000000000E10   -5.535807014431483E-2  -7.064076908576637E-2  
 2.025400000000000E10   -6.631054548324382E-2  -6.027125395497178E-2  
 2.025600000000000E10   -7.557103893271200E-2  -4.791220116578503E-2  
 2.025800000000000E10   -8.250170878667401E-2  -3.440549541954642E-2  
 2.026000000000000E10   -8.698442762280689E-2  -1.980732950102155E-2  
 2.026200000000000E10   -8.880845445051117E-2  -4.651809725412188E-3  
 2.026400000000000E10   -8.802404337459141E-2   1.059512163554568E-2  
 2.026600000000000E10   -8.460501302416924E-2   2.532959044930131E-2  
 2.026800000000000E10   -7.874929469554023E-2   3.917290872813743E-2  
 2.027000000000000E10   -7.075582141125644E-2   5.164419050201959E-2  
 2.027200000000000E10   -6.074766592417726E-2   6.269586999965794E-2  
 2.027400000000000E10   -4.910150818802693E-2   7.182025014127724E-2  
 2.027600000000000E10   -3.623234728972118E-2   7.868648029158637E-2  
 2.027800000000000E10   -2.243944451427509E-2   8.333486300191763E-2  
 2.028000000000000E10   -8.282342214719872E-3   8.575648655003482E-2  
 2.028200000000000E10    6.185343734337470E-3   8.589609421084449E-2  
 2.028400000000000E10    2.075634882957847E-2   8.353659078294849E-2  
 2.028600000000000E10    3.461198583858495E-2   7.870910411754264E-2  
 2.028800000000000E10    4.741440995485204E-2   7.160417382977138E-2  
 2.029000000000000E10    5.899510216811067E-2   6.232764876980351E-2  
 2.029200000000000E10    6.864218137882375E-2   5.111093043422504E-2  
 2.029400000000000E10    7.607948721804247E-2   3.833524781612703E-2  
 2.029600000000000E10    8.102117187569663E-2   2.475034976723018E-2  
 2.029800000000000E10    8.363152721536504E-2   1.061009731021070E-2  
 2.030000000000000E10    8.384481421959254E-2  -3.629488874334122E-3  
 2.030200000000000E10    8.164310550370826E-2  -1.768085441011706E-2  
 2.030400000000000E10    7.707466108440864E-2  -3.098705599521414E-2  
 2.030600000000000E10    7.036300089378908E-2  -4.326873442824977E-2  
 2.030800000000000E10    6.201653450788786E-2  -5.397796170946994E-2  
 2.031000000000000E10    5.208169701106755E-2  -6.339391124714550E-2  
 2.031200000000000E10    4.070310555245160E-2  -7.111969902927494E-2  
 2.031400000000000E10    2.812140908690147E-2  -7.693419347942612E-2  
 2.031600000000000E10    1.507847397798987E-2  -8.030540762860099E-2  
 2.031800000000000E10    1.295559664224294E-3  -8.147409365133004E-2  
 2.032000000000000E10   -1.241436602984682E-2  -8.018355436408473E-2  
 2.032200000000000E10   -2.571761392731481E-2  -7.664402071463229E-2  
 2.032400000000000E10   -3.804164870408337E-2  -7.087358694385601E-2  
 2.032600000000000E10   -4.911451035566292E-2  -6.315558408329518E-2  
 2.032800000000000E10   -5.863001251232968E-2  -5.378315849191369E-2  
 2.033000000000000E10   -6.641168705352540E-2  -4.313348624625324E-2  
 2.033200000000000E10   -7.228933795979975E-2  -3.140176674772684E-2  
 2.033400000000000E10   -7.624008190729983E-2  -1.913967023415821E-2  
 2.033600000000000E10   -7.733412442629231E-2  -1.371032259821769E-2  
 2.033800000000000E10   -7.818026307188436E-2   6.951504325639811E-3  
 2.034000000000000E10   -7.597123377730328E-2   1.975753416648372E-2  
 2.034200000000000E10   -7.165637042051481E-2   3.216541322415749E-2  
 2.034400000000000E10   -6.515538686342201E-2   4.377098284937718E-2  
 2.034600000000000E10   -5.679963633356762E-2   5.406678834385834E-2  
 2.034800000000000E10   -4.679579157458903E-2   6.263752594406223E-2  
 2.035000000000000E10   -3.539089424681272E-2   6.941585365391564E-2  
 2.035200000000000E10   -2.323286321182801E-2   7.401999861860473E-2  
 2.035400000000000E10   -1.060281913543557E-2   7.653673419368612E-2  
 2.035600000000000E10    2.125021182345571E-3   7.689504165953570E-2  
 2.035800000000000E10    1.464482485757443E-2   7.528486774291524E-2  
 2.036000000000000E10    2.666769794537207E-2   7.169702673645177E-2  
 2.036200000000000E10    3.800285685761476E-2   6.620440445073839E-2  
 2.036400000000000E10    4.820294498845384E-2   5.905843112203811E-2  
 2.036600000000000E10    5.720985332818189E-2   5.041543530767838E-2  
 2.036800000000000E10    6.464462711977861E-2   4.044485335916649E-2  
 2.037000000000000E10    7.049465651620074E-2   2.924198345300347E-2  
 2.037200000000000E10    7.448138689062725E-2   1.724538647803505E-2  
 2.037400000000000E10    7.643489607077078E-2   4.712056218159727E-3  
 2.037600000000000E10    7.624605319504876E-2  -7.955675492438762E-3  
 2.037800000000000E10    7.389724717586621E-2  -2.075602548817794E-2  
 2.038000000000000E10    6.945349509088102E-2  -3.265900045265387E-2  
 2.038200000000000E10    6.290689448025003E-2  -4.374600850321629E-2  
 2.038400000000000E10    5.461351397167509E-2  -5.349610897677917E-2  
 2.038600000000000E10    4.504833522218246E-2  -6.159607895914421E-2  
 2.038800000000000E10    3.435603112227633E-2  -6.807290299684424E-2  
 2.039000000000000E10    2.278893498450886E-2  -7.284185737984664E-2  
 2.039200000000000E10    1.055901790030086E-2  -7.568463569683304E-2  
 2.039400000000000E10   -2.137393563211639E-3  -7.652302889666932E-2  
 2.039600000000000E10   -1.477879634579268E-2  -7.521695361583813E-2  
 2.039800000000000E10   -2.703396811192173E-2  -7.174828059879351E-2  
 2.040000000000000E10   -3.845867697042203E-2  -6.626092709999518E-2  
 2.040200000000000E10   -4.878444338041079E-2  -5.905127188060510E-2  
 2.040400000000000E10   -5.783404002096429E-2  -5.024710676245729E-2  
 2.040600000000000E10   -6.539332796148803E-2  -4.002495957806768E-2  
 2.040800000000000E10   -7.109223897932980E-2  -2.871611124142208E-2  
 2.041000000000000E10   -7.484602002204692E-2  -1.668538199162778E-2  
 2.041200000000000E10   -7.658370648637231E-2  -4.201708768720552E-3  
 2.041400000000000E10   -7.636292809198915E-2   8.275594313172893E-3  
 2.041600000000000E10   -7.414458658346915E-2   2.065233540541106E-2  
 2.041800000000000E10   -6.992495982857890E-2   3.263504232889341E-2  
 2.042000000000000E10   -6.394044539810700E-2   4.359493465948498E-2  
 2.042200000000000E10   -5.610477364786859E-2   5.364795177868365E-2  
 2.042400000000000E10   -4.665170881299327E-2   6.241865983470478E-2  
 2.042600000000000E10   -3.596120809086066E-2   6.951475054516225E-2  
 2.042800000000000E10   -2.396820831292696E-2   7.487939408531896E-2  
 2.043000000000000E10   -1.112919228358401E-2   7.805540228699462E-2  
 2.043200000000000E10    1.945200887865123E-3   7.902020792411679E-2  
 2.043400000000000E10    1.518898155279611E-2   7.773901574282981E-2  
 2.043600000000000E10    2.784790581575147E-2   7.432871876062190E-2  
 2.043800000000000E10    3.968299397961103E-2   6.887291163328745E-2  
 2.044000000000000E10    5.076996321356837E-2   6.146824615911693E-2  
 2.044200000000000E10    6.035006144409809E-2   5.245161186827065E-2  
 2.044400000000000E10    6.840637427421265E-2   4.190411469266739E-2  
 2.044600000000000E10    7.463751196738624E-2   2.998824295714314E-2  
 2.044800000000000E10    7.886998450437202E-2   1.717982973152228E-2  
 2.045000000000000E10    8.090027237747924E-2   3.853788741178229E-3  
 2.045200000000000E10    8.071412418972809E-2  -9.772011059731123E-3  
 2.045400000000000E10    7.811945462177812E-2  -2.323978477820693E-2  
 2.045600000000000E10    7.325123624546540E-2  -3.603088271654683E-2  
 2.045800000000000E10    6.620548211743313E-2  -4.777629031136694E-2  
 2.046000000000000E10    5.735383926289073E-2  -5.819847416362646E-2  
 2.046200000000000E10    4.694950182006193E-2  -6.699951376321386E-2  
 2.046400000000000E10    3.519598857610806E-2  -7.390909145275752E-2  
 2.046600000000000E10    2.252744750690804E-2  -7.881897160545789E-2  
 2.046800000000000E10    9.211330026878743E-3  -8.162754424560219E-2  
 2.047000000000000E10   -4.555895570052381E-3  -8.222888526602538E-2  
 2.047200000000000E10   -1.804180136678641E-2  -8.056971032187774E-2  
 2.047400000000000E10   -3.131135456539967E-2  -7.663797056724016E-2  
 2.047600000000000E10   -4.363662990216366E-2  -7.053273637230996E-2  
 2.047800000000000E10   -5.475387196420643E-2  -6.253430855924211E-2  
 2.048000000000000E10   -6.458180118735436E-2  -5.270009346827559E-2  
 2.048200000000000E10   -7.265456707634554E-2  -4.138478244283073E-2  
 2.048400000000000E10   -7.875341906714342E-2  -2.895527167452706E-2  
 2.048600000000000E10   -8.285978421139620E-2  -1.541721379698672E-2  
 2.048800000000000E10   -8.465651419672948E-2  -1.319146814033650E-3  
 2.049000000000000E10   -8.410800806411500E-2   1.279372445963047E-2  
 2.049200000000000E10   -8.105180541306367E-2   2.714315177911103E-2  
 2.049400000000000E10   -7.555068974141722E-2   4.050600493457092E-2  
 2.049600000000000E10   -6.783957022085113E-2   5.266854545645754E-2  
 2.049800000000000E10   -5.818132945784817E-2   6.350361215479582E-2  
 2.050000000000000E10   -4.683265640350527E-2   7.267017969133433E-2  
 2.050200000000000E10   -3.405817572042776E-2   7.982501758592120E-2  
 2.050400000000000E10   -1.992976749047576E-2   8.477703638282824E-2  
 2.050600000000000E10   -5.230520288517447E-3   8.709503734798589E-2  
 2.050800000000000E10    9.523971351208511E-3   8.693964052715419E-2  
 2.051000000000000E10    2.430370545834917E-2   8.429207514833523E-2  
 2.051200000000000E10    3.844134964876705E-2   7.904062018472963E-2  
 2.051400000000000E10    5.141886789734963E-2   7.132309592432447E-2  
 2.051600000000000E10    6.280028541024331E-2   6.145598162962086E-2  
 2.051800000000000E10    7.221325833365752E-2   4.995712135063769E-2  
 2.052000000000000E10    7.960132491073492E-2   3.712811072667440E-2  
 2.052200000000000E10    8.486765239832333E-2   2.293902080613400E-2  
 2.052400000000000E10    8.741757460705049E-2   8.395069957147412E-3  
 2.052600000000000E10    8.751320489394814E-2  -6.393311430274705E-3  
 2.052800000000000E10    8.522874999929359E-2  -2.091145688675559E-2  
 2.053000000000000E10    8.070595412219994E-2  -3.481252338170025E-2  
 2.053200000000000E10    7.393648122809063E-2  -4.791831861368914E-2  
 2.053400000000000E10    6.491618085299991E-2  -5.992649986174863E-2  
 2.053600000000000E10    5.403301539857693E-2  -7.011308104045108E-2  
 2.053800000000000E10    4.150633520059625E-2  -7.835797465755126E-2  
 2.054000000000000E10    2.755461916051530E-2  -8.448276911007525E-2  
 2.054200000000000E10    1.311510572125637E-2  -8.805769927217147E-2  
 2.054400000000000E10   -1.967196163545083E-3  -8.917744307483666E-2  
 2.054600000000000E10   -1.720957903367747E-2  -8.778232195004515E-2  
 2.054800000000000E10   -3.172831295571701E-2  -8.386886147437273E-2  
 2.055000000000000E10   -4.554481634203299E-2  -7.752704838053190E-2  
 2.055200000000000E10   -5.820353280124351E-2  -6.890413824300218E-2  
 2.055400000000000E10   -6.929492073539845E-2  -5.828998679364170E-2  
 2.055600000000000E10   -7.845342757157339E-2  -4.581325711230193E-2  
