#  HZ   S   RI   R     50.00 
! Rohde & Schwarz ZVA40 4Ports - Version 3.90 - 1145.1110k42 SN: 100403
! Date: 2023-09-30 07:16:14
! Measurement: S12 
! 
 2.000000000000000E10   -3.679122317051767E-3   9.501407371776859E-2  
 2.000200000000000E10    1.147170093550999E-2   9.495443974080348E-2  
 2.000400000000000E10    2.744646916343952E-2   9.187761161375876E-2  
 2.000600000000000E10    4.279284744732556E-2   8.595063013740475E-2  
 2.000800000000000E10    5.670240807087662E-2   7.759002190735662E-2  
 2.001000000000000E10    6.936093921946455E-2   6.680172960821984E-2  
 2.001200000000000E10    7.976531193075957E-2   5.419264579635535E-2  
 2.001400000000000E10    8.796524219674830E-2   3.979255572969805E-2  
 2.001600000000000E10    9.353617217287824E-2   2.425939655318945E-2  
 2.001800000000000E10    9.646050978467299E-2   7.970727248109665E-3  
 2.002000000000000E10    9.648222057212694E-2  -8.757445580957550E-3  
 2.002200000000000E10    9.332305596648258E-2  -2.639328600148061E-2  
 2.002400000000000E10    8.757363954089689E-2  -4.188654063823946E-2  
 2.002600000000000E10    7.903926964009470E-2  -5.626889929229886E-2  
 2.002800000000000E10    6.818869634679207E-2  -6.893226091086076E-2  
 2.003000000000000E10    5.553885587121889E-2  -7.936235502273677E-2  
 2.003200000000000E10    4.122440935979983E-2  -8.756103098842180E-2  
 2.003400000000000E10    2.569267597385041E-2  -9.319135408369876E-2  
 2.003600000000000E10    9.479266925658274E-3  -9.614872564163501E-2  
 2.003800000000000E10   -6.784678000537743E-3  -9.633823316569848E-2  
 2.004000000000000E10   -2.309427396566780E-2  -9.388475078164470E-2  
 2.004200000000000E10   -3.889815976556219E-2  -8.856186952746836E-2  
 2.004400000000000E10   -5.349617821914343E-2  -8.055373759208667E-2  
 2.004600000000000E10   -6.634023561426425E-2  -7.011576615883763E-2  
 2.004800000000000E10   -7.726385072384681E-2  -5.756030457752669E-2  
 2.005000000000000E10   -8.567842507967408E-2  -4.361466077851770E-2  
 2.005200000000000E10   -9.171571361797828E-2  -2.839831712348689E-2  
 2.005400000000000E10   -9.508111356844030E-2  -1.259107252171542E-2  
 2.005600000000000E10   -9.577319575503478E-2   3.749813409253895E-3  
 2.005800000000000E10   -9.374986008783973E-2   1.976712632227637E-2  
 2.006000000000000E10   -8.898085397661797E-2   3.554576244946207E-2  
 2.006200000000000E10   -8.163025892783804E-2   5.002666665747878E-2  
 2.006400000000000E10   -7.196225851406288E-2   6.296083536876301E-2  
 2.006600000000000E10   -6.011720222625823E-2   7.424300616742489E-2  
 2.006800000000000E10   -4.675911388742799E-2   8.328484691028788E-2  
 2.007000000000000E10   -3.203908716182378E-2   8.994406049157258E-2  
 2.007200000000000E10   -1.650734701601403E-2   9.402848052812268E-2  
 2.007400000000000E10   -1.908262818860112E-4   9.545917600856617E-2  
 2.007600000000000E10    1.585397357355325E-2   9.406954920150182E-2  
 2.007800000000000E10    3.138440990821380E-2   9.011876663839541E-2  
 2.008000000000000E10    4.612482902621591E-2   8.372718669477533E-2  
 2.008200000000000E10    5.993767846486425E-2   7.470465644642160E-2  
 2.008400000000000E10    7.172689770502101E-2   6.357276477481769E-2  
 2.008600000000000E10    8.151888607855962E-2   5.050309951522333E-2  
 2.008800000000000E10    8.888087710889443E-2   3.609127943264769E-2  
 2.009000000000000E10    9.382826409412948E-2   2.046101273237215E-2  
 2.009200000000000E10    9.612431144490875E-2   4.360281716040828E-3  
 2.009400000000000E10    9.565736878038163E-2  -1.211120964168045E-2  
 2.009600000000000E10    9.239859637477708E-2  -2.821286378839707E-2  
 2.009800000000000E10    8.631717323384769E-2  -4.377943623315324E-2  
 2.010000000000000E10    7.749436915970090E-2  -5.810325042053779E-2  
 2.010200000000000E10    6.645065615533639E-2  -7.038340811580626E-2  
 2.010400000000000E10    5.335825472681775E-2  -8.070651098070596E-2  
 2.010600000000000E10    3.876634375807572E-2  -8.861446189496090E-2  
 2.010800000000000E10    2.302652131042145E-2  -9.386599712520090E-2  
 2.011000000000000E10    6.829570404202375E-3  -9.627984598054157E-2  
 2.011200000000000E10   -9.561572840525019E-3  -9.596936876881762E-2  
 2.011400000000000E10   -2.568336293803104E-2  -9.297345335427953E-2  
 2.011600000000000E10   -4.110281502254816E-2  -8.732171914023683E-2  
 2.011800000000000E10   -5.545027868308650E-2  -7.906665413835903E-2  
 2.012000000000000E10   -6.826002638962481E-2  -6.855141762584435E-2  
 2.012200000000000E10   -7.901659900868491E-2  -5.589095460166657E-2  
 2.012400000000000E10   -8.744237379472880E-2  -4.133493664483257E-2  
 2.012600000000000E10   -9.299404069842626E-2  -2.572586357075710E-2  
 2.012800000000000E10   -9.573909927501929E-2  -9.404901753230405E-3  
 2.013000000000000E10   -9.570163933992060E-2   6.738878110748178E-3  
 2.013200000000000E10   -9.302915960795596E-2   2.277621013722602E-2  
 2.013400000000000E10   -8.777296934898554E-2   3.813102593194911E-2  
 2.013600000000000E10   -8.007167886463977E-2   5.236377642171865E-2  
 2.013800000000000E10   -7.010044178967614E-2   6.513634794206451E-2  
 2.014000000000000E10   -5.787442862190338E-2   7.618110840199036E-2  
 2.014200000000000E10   -4.414094616260821E-2   8.476999624507528E-2  
 2.014400000000000E10   -2.914356949786428E-2   9.090266644164315E-2  
 2.014600000000000E10   -1.344114962401432E-2   9.447807022151089E-2  
 2.014800000000000E10    2.741986166202060E-3   9.532034100396593E-2  
 2.015000000000000E10    1.878331491070411E-2   9.337888491115563E-2  
 2.015200000000000E10    3.416836111681561E-2   8.876861625056753E-2  
 2.015400000000000E10    4.858404216724932E-2   8.175390898486389E-2  
 2.015600000000000E10    6.150972137289829E-2   7.259669071757527E-2  
 2.015800000000000E10    7.309963212446041E-2   6.111036967886439E-2  
 2.016000000000000E10    8.240533773082548E-2   4.799812339556289E-2  
 2.016200000000000E10    8.946654611749633E-2   3.351617972253664E-2  
 2.016400000000000E10    9.392433864276162E-2   1.796430501461738E-2  
 2.016600000000000E10    9.570747235075330E-2   1.714377270123160E-3  
 2.016800000000000E10    9.464192372726753E-2  -1.455354774783859E-2  
 2.017000000000000E10    9.083106377637709E-2  -3.029867158934414E-2  
 2.017200000000000E10    8.452728438388284E-2  -4.504300301164648E-2  
 2.017400000000000E10    7.584683114350198E-2  -5.893054227402182E-2  
 2.017600000000000E10    6.491790195074484E-2  -7.116800130340245E-2  
 2.017800000000000E10    5.186628765938869E-2  -8.143201326609859E-2  
 2.018000000000000E10    3.719092193168214E-2  -8.918367263575260E-2  
 2.018200000000000E10    2.147854426743699E-2  -9.420545688422785E-2  
 2.018400000000000E10    5.044895636703893E-3  -9.643514042147014E-2  
 2.018600000000000E10   -1.147734098243738E-2  -9.587223459227642E-2  
 2.018800000000000E10   -2.758803105669094E-2  -9.247298918197731E-2  
 2.019000000000000E10   -4.285655091471961E-2  -8.640455715886307E-2  
 2.019200000000000E10   -5.681968623943454E-2  -7.788919050043777E-2  
 2.019400000000000E10   -6.940910338701373E-2  -6.696259278069909E-2  
 2.019600000000000E10   -7.977318743633037E-2  -5.432876250244573E-2  
 2.019800000000000E10   -8.789852387934011E-2  -3.989853019215879E-2  
 2.020000000000000E10   -9.341987389704928E-2  -2.438619459549559E-2  
 2.020200000000000E10   -9.611105673256999E-2  -8.195414679285923E-3  
 2.020400000000000E10   -9.604454281725841E-2   8.396015953056253E-3  
 2.020600000000000E10   -9.309244252976405E-2   2.458166463575682E-2  
 2.020800000000000E10   -8.745195857999966E-2   3.993392074978892E-2  
 2.021000000000000E10   -7.931568932127180E-2   5.407452635436393E-2  
 2.021200000000000E10   -6.888655888936157E-2   6.675439603221325E-2  
 2.021400000000000E10   -5.650812345563304E-2   7.737276591036928E-2  
 2.021600000000000E10   -4.253064221172340E-2   8.568830196722274E-2  
 2.021800000000000E10   -2.753163570436813E-2   9.143218119080666E-2  
 2.022000000000000E10   -1.156209453482183E-2   9.469600886815098E-2  
 2.022200000000000E10    4.420159358951121E-3   9.517935857646916E-2  
 2.022400000000000E10    2.033436266772678E-2   9.302825480018188E-2  
 2.022600000000000E10    3.565402811365036E-2   8.828077620984651E-2  
 2.022800000000000E10    5.003896654572017E-2   8.104624092292721E-2  
 2.023000000000000E10    6.294465438723838E-2   7.143874453132863E-2  
 2.023200000000000E10    7.419035131657675E-2   5.965737788458912E-2  
 2.023400000000000E10    8.317608379123961E-2   4.622154744366669E-2  
 2.023600000000000E10    8.973557623652602E-2   3.164858078378818E-2  
 2.023800000000000E10    9.367557786061007E-2   1.615139511833330E-2  
 2.024000000000000E10    9.503706003985127E-2   5.777208223427049E-6  
 2.024200000000000E10    9.362368559218676E-2  -1.599313534632714E-2  
 2.024400000000000E10    8.955145137709029E-2  -3.137490710999032E-2  
 2.024600000000000E10    8.291357399654761E-2  -4.588704383674418E-2  
 2.024800000000000E10    7.409166481991474E-2  -5.906819506191914E-2  
 2.025000000000000E10    6.328421492499199E-2  -7.060679160722819E-2  
 2.025200000000000E10    5.079234310881047E-2  -8.041264973223128E-2  
 2.025400000000000E10    3.669714611185486E-2  -8.804386917537460E-2  
 2.025600000000000E10    2.120823148854339E-2  -9.330678304676930E-2  
 2.025800000000000E10    5.146552949963256E-3  -9.576755837389582E-2  
 2.026000000000000E10   -1.136265973469807E-2  -9.533584049072887E-2  
 2.026200000000000E10   -2.754023507455467E-2  -9.197651385020927E-2  
 2.026400000000000E10   -4.272732631250992E-2  -8.591820858333774E-2  
 2.026600000000000E10   -5.660845352584607E-2  -7.737478211515290E-2  
 2.026800000000000E10   -6.890124508410107E-2  -6.661789793100433E-2  
 2.027000000000000E10   -7.916270095938464E-2  -5.406764473818895E-2  
 2.027200000000000E10   -8.726316002961104E-2  -3.982081940158296E-2  
 2.027400000000000E10   -9.280689438497525E-2  -2.441467182173351E-2  
 2.027600000000000E10   -9.562088570599697E-2  -8.390553875612952E-3  
 2.027800000000000E10   -9.565510427060607E-2   8.094730490165375E-3  
 2.028000000000000E10   -9.287038756509761E-2   2.431029134575205E-2  
 2.028200000000000E10   -8.732402241551610E-2   3.977244786124389E-2  
 2.028400000000000E10   -7.918246582348053E-2   5.403993727411918E-2  
 2.028600000000000E10   -6.871428439469440E-2   6.669935076801975E-2  
 2.028800000000000E10   -5.627915373043924E-2   7.733029283491183E-2  
 2.029000000000000E10   -4.225147391870026E-2   8.566846816396409E-2  
 2.029200000000000E10   -2.710807929603298E-2   9.146858002627666E-2  
 2.029400000000000E10   -1.107419513218756E-2   9.468112811003313E-2  
 2.029600000000000E10    5.071943819992991E-3   9.503945746089862E-2  
 2.029800000000000E10    2.117443012323182E-2   9.259625541997600E-2  
 2.030000000000000E10    3.643479913295979E-2   8.754916757236185E-2  
 2.030200000000000E10    5.057431076439103E-2   7.998131891132547E-2  
 2.030400000000000E10    6.315960405308416E-2   7.019859253951388E-2  
 2.030600000000000E10    7.408317501789151E-2   5.842760698397138E-2  
 2.030800000000000E10    8.283369117094930E-2   4.517436981419205E-2  
 2.031000000000000E10    8.921794353839085E-2   3.055697148065345E-2  
 2.031200000000000E10    9.309957218350044E-2   1.498050138798884E-2  
 2.031400000000000E10    9.418197727715748E-2  -1.187804766644685E-3  
 2.031600000000000E10    9.247006483079640E-2  -1.654768366899783E-2  
 2.031800000000000E10    8.824289419782397E-2  -3.171050848688882E-2  
 2.032000000000000E10    8.147446724667526E-2  -4.608247375816693E-2  
 2.032200000000000E10    7.257328005307442E-2  -5.900026164918280E-2  
 2.032400000000000E10    6.170394812264725E-2  -7.027862335810338E-2  
 2.032600000000000E10    4.890398977892446E-2  -7.975746135925343E-2  
 2.032800000000000E10    3.471406576639723E-2  -8.683875192571680E-2  
 2.033000000000000E10    1.966683743636550E-2  -9.139077523471997E-2  
 2.033200000000000E10    3.828730023664921E-3  -9.337093524386146E-2  
 2.033400000000000E10   -1.190364809010977E-2  -9.270589398054104E-2  
 2.033600000000000E10   -1.882829531775145E-2  -9.164969186342413E-2  
 2.033800000000000E10   -4.245893416520009E-2  -8.332513358612612E-2  
 2.034000000000000E10   -5.585229554212307E-2  -7.494849656126409E-2  
 2.034200000000000E10   -6.764948622898039E-2  -6.439758909446333E-2  
 2.034400000000000E10   -7.755612263095724E-2  -5.204797928252612E-2  
 2.034600000000000E10   -8.532803781265858E-2  -3.824914296025221E-2  
 2.034800000000000E10   -9.055347173084230E-2  -2.330776962192298E-2  
 2.035000000000000E10   -9.314281335351782E-2  -7.633681072643566E-3  
 2.035200000000000E10   -9.301480987830200E-2   8.167938350997508E-3  
 2.035400000000000E10   -9.030598920191268E-2   2.371778752898375E-2  
 2.035600000000000E10   -8.513148441045429E-2   3.849768975198569E-2  
 2.035800000000000E10   -7.750137447697636E-2   5.233758686610320E-2  
 2.036000000000000E10   -6.763249063020327E-2   6.480456629080703E-2  
 2.036200000000000E10   -5.571866426216614E-2   7.540141789401893E-2  
 2.036400000000000E10   -4.214304192805051E-2   8.386752267283396E-2  
 2.036600000000000E10   -2.724190571170367E-2   8.986315862618466E-2  
 2.036800000000000E10   -1.172185864233104E-2   9.309614060687649E-2  
 2.037000000000000E10    4.254336376254166E-3   9.371413011827806E-2  
 2.037200000000000E10    2.002802705728659E-2   9.176740763350388E-2  
 2.037400000000000E10    3.522983766925297E-2   8.711781120417486E-2  
 2.037600000000000E10    4.954267209067867E-2   7.990195791594341E-2  
 2.037800000000000E10    6.249332497817064E-2   7.028708551428228E-2  
 2.038000000000000E10    7.352691517813217E-2   5.876180538451994E-2  
 2.038200000000000E10    8.247982489160605E-2   4.527672409847768E-2  
 2.038400000000000E10    8.889118110174234E-2   3.053101062754218E-2  
 2.038600000000000E10    9.263174637818261E-2   1.506812684919309E-2  
 2.038800000000000E10    9.378704630012213E-2  -8.704508041290574E-4  
 2.039000000000000E10    9.230824091157033E-2  -1.654914152992879E-2  
 2.039200000000000E10    8.819629967035528E-2  -3.198248810238309E-2  
 2.039400000000000E10    8.148421153978067E-2  -4.645112412374861E-2  
 2.039600000000000E10    7.259658021936692E-2  -5.952401435880778E-2  
 2.039800000000000E10    6.146613823758396E-2  -7.105017349185278E-2  
 2.040000000000000E10    4.847779695947911E-2  -8.050589777859696E-2  
 2.040200000000000E10    3.399846942309218E-2  -8.753403950743224E-2  
 2.040400000000000E10    1.837096315015246E-2  -9.186225915246760E-2  
 2.040600000000000E10    2.668428657939262E-3  -9.332403163483115E-2  
 2.040800000000000E10   -1.293492928372162E-2  -9.224797421099665E-2  
 2.041000000000000E10   -2.817195436308714E-2  -8.876766163598582E-2  
 2.041200000000000E10   -4.255345493732221E-2  -8.290317280547610E-2  
 2.041400000000000E10   -5.593216640318591E-2  -7.476920340504886E-2  
 2.041600000000000E10   -6.801087051888935E-2  -6.432816032260644E-2  
 2.041800000000000E10   -7.808068716258942E-2  -5.190274699548091E-2  
 2.042000000000000E10   -8.569025935091601E-2  -3.803730010134639E-2  
 2.042200000000000E10   -9.094202542651120E-2  -2.285344674365675E-2  
 2.042400000000000E10   -9.355311648972134E-2  -7.180979610158870E-3  
 2.042600000000000E10   -9.345419135985443E-2   8.707538081880680E-3  
 2.042800000000000E10   -9.071881877991726E-2   2.443872076200742E-2  
 2.043000000000000E10   -8.548779708640350E-2   3.949075281129453E-2  
 2.043200000000000E10   -7.777235225681090E-2   5.349104855231734E-2  
 2.043400000000000E10   -6.754555763054179E-2   6.627724687967010E-2  
 2.043600000000000E10   -5.540567140806524E-2   7.690093273856513E-2  
 2.043800000000000E10   -4.144050752225401E-2   8.538610376093996E-2  
 2.044000000000000E10   -2.610963554971967E-2   9.131790306138078E-2  
 2.044200000000000E10   -1.011116831138846E-2   9.449393055893596E-2  
 2.044400000000000E10    6.231060979788197E-3   9.483036095004788E-2  
 2.044600000000000E10    2.239702469156140E-2   9.236906932868749E-2  
 2.044800000000000E10    3.802522314285710E-2   8.706170497662302E-2  
 2.045000000000000E10    5.246117029034172E-2   7.908510965574916E-2  
 2.045200000000000E10    6.504957114568191E-2   6.891231236457282E-2  
 2.045400000000000E10    7.583216097415393E-2   5.674450736872727E-2  
 2.045600000000000E10    8.431551939666027E-2   4.287604514422568E-2  
 2.045800000000000E10    9.022813062445455E-2   2.779077829824609E-2  
 2.046000000000000E10    9.348643974839252E-2   1.186143155718605E-2  
 2.046200000000000E10    9.393043880818042E-2  -4.176418937676280E-3  
 2.046400000000000E10    9.170138138202866E-2  -2.002524551912073E-2  
 2.046600000000000E10    8.677619511017148E-2  -3.525590084775922E-2  
 2.046800000000000E10    7.952084324514699E-2  -4.938405683535826E-2  
 2.047000000000000E10    6.992135728719195E-2  -6.211914803115648E-2  
 2.047200000000000E10    5.832591077468687E-2  -7.307792226705151E-2  
 2.047400000000000E10    4.503929164136280E-2  -8.181220867424510E-2  
 2.047600000000000E10    3.056173269122935E-2  -8.815366911408452E-2  
 2.047800000000000E10    1.511609189597286E-2  -9.203488166794475E-2  
 2.048000000000000E10   -7.206673757205061E-4  -9.316789075411996E-2  
 2.048200000000000E10   -1.640616080527389E-2  -9.152465771541349E-2  
 2.048400000000000E10   -3.171368753073366E-2  -8.734082267076719E-2  
 2.048600000000000E10   -4.597244210197166E-2  -8.066531140944923E-2  
 2.048800000000000E10   -5.885330603126256E-2  -7.167853030048663E-2  
 2.049000000000000E10   -7.009543893432095E-2  -6.077000970437368E-2  
 2.049200000000000E10   -7.939678036054632E-2  -4.794706879111257E-2  
 2.049400000000000E10   -8.628360428014847E-2  -3.391875973406534E-2  
 2.049600000000000E10   -9.076461128832601E-2  -1.886727853716919E-2  
 2.049800000000000E10   -9.268439167988700E-2  -3.399600695276137E-3  
 2.050000000000000E10   -9.206580703845568E-2   1.230004449746737E-2  
 2.050200000000000E10   -8.877305198966723E-2   2.780790661836821E-2  
 2.050400000000000E10   -8.281463465368472E-2   4.256430233879399E-2  
 2.050600000000000E10   -7.429203297729956E-2   5.606193618553385E-2  
 2.050800000000000E10   -6.366498168740145E-2   6.783461098563035E-2  
 2.051000000000000E10   -5.125590401714832E-2   7.758890966547098E-2  
 2.051200000000000E10   -3.738324891794584E-2   8.518044603882069E-2  
 2.051400000000000E10   -2.241869927709731E-2   9.030201463569612E-2  
 2.051600000000000E10   -6.847439675962798E-3   9.284529205076109E-2  
 2.051800000000000E10    8.933207059341260E-3   9.279601863927367E-2  
 2.052000000000000E10    2.465002314039819E-2   9.008658626578855E-2  
 2.052200000000000E10    3.987970305023316E-2   8.462714094874738E-2  
 2.052400000000000E10    5.367805039536534E-2   7.657757920997026E-2  
 2.052600000000000E10    6.589061532477894E-2   6.621221684270327E-2  
 2.052800000000000E10    7.609602133732821E-2   5.402439567471239E-2  
 2.053000000000000E10    8.420535014149366E-2   4.032951201621834E-2  
 2.053200000000000E10    8.989465160011756E-2   2.538412439823832E-2  
 2.053400000000000E10    9.291750279173876E-2   9.606156474346433E-3  
 2.053600000000000E10    9.315521368832691E-2  -6.322941748160491E-3  
 2.053800000000000E10    9.065306706547358E-2  -2.208887073319963E-2  
 2.054000000000000E10    8.547909680803345E-2  -3.731011329146353E-2  
 2.054200000000000E10    7.792968742096322E-2  -5.115912937115032E-2  
 2.054400000000000E10    6.806258327499286E-2  -6.365739189643647E-2  
 2.054600000000000E10    5.617623433136865E-2  -7.433155185496584E-2  
 2.054800000000000E10    4.277584626146469E-2  -8.271544977893119E-2  
 2.055000000000000E10    2.801644090762355E-2  -8.877506326487145E-2  
 2.055200000000000E10    1.242836462278439E-2  -9.218085957516478E-2  
 2.055400000000000E10   -3.371229647370469E-3  -9.294536356845294E-2  
 2.055600000000000E10   -1.917373240045151E-2  -9.108253465186095E-2  
