#  HZ   S   RI   R     50.00 
! Rohde & Schwarz ZVA40 4Ports - Version 3.90 - 1145.1110k42 SN: 100403
! Date: 2023-10-03 11:33:06
! Measurement: S12 
! 
 2.000000000000000E10   -4.934732750472096E-3  -1.094776705873233E-3  
 2.000200000000000E10   -5.065944201002519E-3  -2.762380875841094E-4  
 2.000400000000000E10   -5.029181104705290E-3   5.868812354660974E-4  
 2.000600000000000E10   -4.810507167820578E-3   1.431596025617586E-3  
 2.000800000000000E10   -4.394271531728684E-3   2.149815938469989E-3  
 2.001000000000000E10   -3.951235795048653E-3   2.708707237616181E-3  
 2.001200000000000E10   -3.574321149951883E-3   3.236484541385263E-3  
 2.001400000000000E10   -3.137150520665778E-3   3.825896980102968E-3  
 2.001600000000000E10   -2.472442471318775E-3   4.401625116804133E-3  
 2.001800000000000E10   -1.637698366755137E-3   4.781892799116947E-3  
 2.002000000000000E10   -7.294390902475075E-4   4.976820148941544E-3  
 2.002200000000000E10    2.173452643613995E-4   4.982337631561138E-3  
 2.002400000000000E10    1.087882359839838E-3   4.886363874431011E-3  
 2.002600000000000E10    1.951891299406136E-3   4.603722443183264E-3  
 2.002800000000000E10    2.745847485062701E-3   4.129639343806992E-3  
 2.003000000000000E10    3.454635264696899E-3   3.471625554892752E-3  
 2.003200000000000E10    3.927839255926234E-3   2.726280233926244E-3  
 2.003400000000000E10    4.220887552946806E-3   1.980080321017239E-3  
 2.003600000000000E10    4.394785156128584E-3   1.243184868211824E-3  
 2.003800000000000E10    4.461987633947974E-3   4.714604532367689E-4  
 2.004000000000000E10    4.400166838119428E-3  -2.648859517648816E-4  
 2.004200000000000E10    4.276220445279723E-3  -9.746552526916344E-4  
 2.004400000000000E10    4.035312897974143E-3  -1.660375295344878E-3  
 2.004600000000000E10    3.655741836323783E-3  -2.282714316000541E-3  
 2.004800000000000E10    3.187957590583850E-3  -2.783495932817459E-3  
 2.005000000000000E10    2.748982187498499E-3  -3.216292665995382E-3  
 2.005200000000000E10    2.272791944927088E-3  -3.650778542376227E-3  
 2.005400000000000E10    1.710699254612404E-3  -3.997976426035166E-3  
 2.005600000000000E10    1.092693018209603E-3  -4.304505401739369E-3  
 2.005800000000000E10    3.666105885376629E-4  -4.533290983764111E-3  
 2.006000000000000E10   -4.624556423988435E-4  -4.654723512767642E-3  
 2.006200000000000E10   -1.328440240791275E-3  -4.599441049827470E-3  
 2.006400000000000E10   -2.162826851148296E-3  -4.314490214542107E-3  
 2.006600000000000E10   -2.925804514368927E-3  -3.869528545894557E-3  
 2.006800000000000E10   -3.601144033449668E-3  -3.276540871916546E-3  
 2.007000000000000E10   -4.141933112232774E-3  -2.591840879715704E-3  
 2.007200000000000E10   -4.534765008699012E-3  -1.832535688730854E-3  
 2.007400000000000E10   -4.768152497018930E-3  -9.980905796746140E-4  
 2.007600000000000E10   -4.826564428017096E-3  -1.304002513212187E-4  
 2.007800000000000E10   -4.689172548414381E-3   7.339905693057788E-4  
 2.008000000000000E10   -4.387574787769053E-3   1.474730347076224E-3  
 2.008200000000000E10   -4.026032173661171E-3   2.022158544234656E-3  
 2.008400000000000E10   -3.735772247805640E-3   2.479379746580014E-3  
 2.008600000000000E10   -3.453527784181966E-3   3.070376183906640E-3  
 2.008800000000000E10   -2.956397917673544E-3   3.716906549891940E-3  
 2.009000000000000E10   -2.290733158588409E-3   4.189720377326012E-3  
 2.009200000000000E10   -1.634354241778729E-3   4.491622249285380E-3  
 2.009400000000000E10   -9.606699588605100E-4   4.786299800293313E-3  
 2.009600000000000E10   -1.197287686712419E-4   5.063590334935321E-3  
 2.009800000000000E10    9.226292108737485E-4   5.114041803473676E-3  
 2.010000000000000E10    1.959037061573731E-3   4.828747844806424E-3  
 2.010200000000000E10    2.822950094317397E-3   4.284589637622790E-3  
 2.010400000000000E10    3.460572911771360E-3   3.567332453611825E-3  
 2.010600000000000E10    3.886001339803140E-3   2.799620058525492E-3  
 2.010800000000000E10    4.124960396438837E-3   2.115818404558081E-3  
 2.011000000000000E10    4.302627544988086E-3   1.514647720830032E-3  
 2.011200000000000E10    4.503285926249293E-3   9.203802889074993E-4  
 2.011400000000000E10    4.675747309294012E-3   2.010813728298268E-4  
 2.011600000000000E10    4.735730209008412E-3  -6.508484910699298E-4  
 2.011800000000000E10    4.592390782717202E-3  -1.573338095719616E-3  
 2.012000000000000E10    4.179862396860565E-3  -2.408532063580222E-3  
 2.012200000000000E10    3.597113122749660E-3  -3.043881358785762E-3  
 2.012400000000000E10    3.012642324729651E-3  -3.502417976657550E-3  
 2.012600000000000E10    2.432512550580281E-3  -3.935060153404872E-3  
 2.012800000000000E10    1.787470994275753E-3  -4.334022549705373E-3  
 2.013000000000000E10    1.039147911662305E-3  -4.649365527762308E-3  
 2.013200000000000E10    1.676867616845778E-4  -4.791120187965809E-3  
 2.013400000000000E10   -6.966992945375820E-4  -4.766577113143824E-3  
 2.013600000000000E10   -1.610267252005913E-3  -4.627373914613769E-3  
 2.013800000000000E10   -2.536524725319059E-3  -4.283326160576609E-3  
 2.014000000000000E10   -3.362757024458714E-3  -3.661469116600024E-3  
 2.014200000000000E10   -3.963076742365956E-3  -2.831361213423036E-3  
 2.014400000000000E10   -4.268452714852713E-3  -1.957757234642352E-3  
 2.014600000000000E10   -4.412227551694271E-3  -1.197150585034655E-3  
 2.014800000000000E10   -4.493600671628008E-3  -4.843925643298362E-4  
 2.015000000000000E10   -4.469012755348728E-3   2.531658818177810E-4  
 2.015200000000000E10   -4.317302550016730E-3   9.673606039507800E-4  
 2.015400000000000E10   -4.102491790911666E-3   1.626201568999225E-3  
 2.015600000000000E10   -3.860111693265262E-3   2.287994182013252E-3  
 2.015800000000000E10   -3.499464209501943E-3   2.952225402825410E-3  
 2.016000000000000E10   -2.992194991006896E-3   3.591079790904015E-3  
 2.016200000000000E10   -2.329856355640072E-3   4.161962118275740E-3  
 2.016400000000000E10   -1.523577914297305E-3   4.581114035789614E-3  
 2.016600000000000E10   -6.743135357586048E-4   4.808451342223971E-3  
 2.016800000000000E10    1.956595741729770E-4   4.873874855952131E-3  
 2.017000000000000E10    1.073959602594928E-3   4.772200456096067E-3  
 2.017200000000000E10    1.940951889587774E-3   4.487822142740091E-3  
 2.017400000000000E10    2.754477620193804E-3   4.010917248066378E-3  
 2.017600000000000E10    3.405087791314280E-3   3.389568499254960E-3  
 2.017800000000000E10    3.844693898119860E-3   2.698287488547741E-3  
 2.018000000000000E10    4.148257240928986E-3   2.011555652306588E-3  
 2.018200000000000E10    4.356207446781574E-3   1.363754673447046E-3  
 2.018400000000000E10    4.511659757958518E-3   7.455677453738948E-4  
 2.018600000000000E10    4.655366849706129E-3   1.026937367256593E-4  
 2.018800000000000E10    4.741984385031242E-3  -6.015766800070803E-4  
 2.019000000000000E10    4.744772230171496E-3  -1.408181377445106E-3  
 2.019200000000000E10    4.539867345657614E-3  -2.319318535565227E-3  
 2.019400000000000E10    4.120587629990445E-3  -3.205170234044393E-3  
 2.019600000000000E10    3.516825364419708E-3  -4.019037285750664E-3  
 2.019800000000000E10    2.676031017607009E-3  -4.691059597664410E-3  
 2.020000000000000E10    1.683510986536190E-3  -5.126569627059831E-3  
 2.020200000000000E10    6.310379486186085E-4  -5.279557986391916E-3  
 2.020400000000000E10   -3.509798342646618E-4  -5.193623058773854E-3  
 2.020600000000000E10   -1.180622222212454E-3  -4.934648345052093E-3  
 2.020800000000000E10   -1.935888987241520E-3  -4.572683151949336E-3  
 2.021000000000000E10   -2.575605245376075E-3  -4.064856321309452E-3  
 2.021200000000000E10   -3.034745705210500E-3  -3.592114878335486E-3  
 2.021400000000000E10   -3.534023615497131E-3  -3.245117746431519E-3  
 2.021600000000000E10   -4.155410470923892E-3  -2.738543113486635E-3  
 2.021800000000000E10   -4.690642796318841E-3  -1.941975568317705E-3  
 2.022000000000000E10   -4.953153345181987E-3  -1.041162871169272E-3  
 2.022200000000000E10   -5.017353325254388E-3  -1.623896047628174E-4  
 2.022400000000000E10   -4.947846617411685E-3   6.773534696549178E-4  
 2.022600000000000E10   -4.770061829023892E-3   1.462225780684363E-3  
 2.022800000000000E10   -4.465287534037123E-3   2.226097069473730E-3  
 2.023000000000000E10   -4.008590123029772E-3   2.960109660677888E-3  
 2.023200000000000E10   -3.463973799996354E-3   3.598810665102469E-3  
 2.023400000000000E10   -2.819055837958500E-3   4.155478595445554E-3  
 2.023600000000000E10   -2.052669973905992E-3   4.567323114584994E-3  
 2.023800000000000E10   -1.268317120977574E-3   4.837915629010510E-3  
 2.024000000000000E10   -4.203079809451959E-4   5.015467897195508E-3  
 2.024200000000000E10    4.754689310815324E-4   5.015574119709157E-3  
 2.024400000000000E10    1.318009164943188E-3   4.815223333598287E-3  
 2.024600000000000E10    2.075490360665653E-3   4.522956545568176E-3  
 2.024800000000000E10    2.823114662465674E-3   4.115601277185812E-3  
 2.025000000000000E10    3.521999378723127E-3   3.557586352582331E-3  
 2.025200000000000E10    4.066623333427642E-3   2.885812384731792E-3  
 2.025400000000000E10    4.473418532008375E-3   2.176952600065205E-3  
 2.025600000000000E10    4.807296226284018E-3   1.405957275656638E-3  
 2.025800000000000E10    4.987329296353791E-3   5.375101269843678E-4  
 2.026000000000000E10    5.004894126344611E-3  -3.319014730449353E-4  
 2.026200000000000E10    4.877955394072666E-3  -1.204066909849644E-3  
 2.026400000000000E10    4.563506606414363E-3  -2.032435956169610E-3  
 2.026600000000000E10    4.128812924372378E-3  -2.770024696709934E-3  
 2.026800000000000E10    3.592779402862545E-3  -3.461078050787803E-3  
 2.027000000000000E10    2.904069868640767E-3  -4.095923569467333E-3  
 2.027200000000000E10    2.054539228858496E-3  -4.532751506539407E-3  
 2.027400000000000E10    1.201833430160251E-3  -4.741931247904346E-3  
 2.027600000000000E10    3.653486597209445E-4  -4.806555169462054E-3  
 2.027800000000000E10   -4.420993985453000E-4  -4.691556113323680E-3  
 2.028000000000000E10   -1.145084539462847E-3  -4.498348950787828E-3  
 2.028200000000000E10   -1.817580683294822E-3  -4.260712958596371E-3  
 2.028400000000000E10   -2.487572530905406E-3  -3.917420524413940E-3  
 2.028600000000000E10   -3.132562101301220E-3  -3.405435381595184E-3  
 2.028800000000000E10   -3.648561528987356E-3  -2.771366525579382E-3  
 2.029000000000000E10   -3.988663571093370E-3  -2.161176293157041E-3  
 2.029200000000000E10   -4.319290458052247E-3  -1.552446413336805E-3  
 2.029400000000000E10   -4.643913392943365E-3  -8.187245564638742E-4  
 2.029600000000000E10   -4.813013891517013E-3   9.302538563605159E-5  
 2.029800000000000E10   -4.658744618710545E-3   1.063239784411120E-3  
 2.030000000000000E10   -4.278462328430680E-3   1.817518194137073E-3  
 2.030200000000000E10   -3.889696284507712E-3   2.441053916872652E-3  
 2.030400000000000E10   -3.413691538972436E-3   3.084794894136765E-3  
 2.030600000000000E10   -2.746539440488926E-3   3.645050253167197E-3  
 2.030800000000000E10   -2.005352716272076E-3   3.998569169737123E-3  
 2.031000000000000E10   -1.274283613181777E-3   4.187035460576968E-3  
 2.031200000000000E10   -5.756068190007852E-4   4.253423376077856E-3  
 2.031400000000000E10    8.345859640502129E-5   4.248521652900511E-3  
 2.031600000000000E10    7.391592716211798E-4   4.225238450561409E-3  
 2.031800000000000E10    1.454716600063775E-3   4.075477727585370E-3  
 2.032000000000000E10    2.107996467707886E-3   3.738618033282735E-3  
 2.032200000000000E10    2.654261671489588E-3   3.327107229442509E-3  
 2.032400000000000E10    3.163615759048197E-3   2.839440178057110E-3  
 2.032600000000000E10    3.624936238069226E-3   2.263177807132403E-3  
 2.032800000000000E10    4.005108718518858E-3   1.605257460916484E-3  
 2.033000000000000E10    4.215890938347138E-3   8.500166327899530E-4  
 2.033200000000000E10    4.246788133901579E-3   9.241360762475613E-5  
 2.033400000000000E10    4.218126353980215E-3  -6.072179250488128E-4  
 2.033600000000000E10    4.190861902855061E-3  -9.628577433802464E-4  
 2.033800000000000E10    3.762096615025291E-3  -2.126345971461248E-3  
 2.034000000000000E10    3.255499000833543E-3  -2.795219248919576E-3  
 2.034200000000000E10    2.578066282526211E-3  -3.295618669923258E-3  
 2.034400000000000E10    1.807287964900887E-3  -3.593249315464939E-3  
 2.034600000000000E10    1.087082373150797E-3  -3.673004133074925E-3  
 2.034800000000000E10    5.098638368373807E-4  -3.632371736414455E-3  
 2.035000000000000E10    2.311849554340977E-5  -3.566203500937533E-3  
 2.035200000000000E10   -4.724240581573988E-4  -3.529018265436645E-3  
 2.035400000000000E10   -1.004591144414412E-3  -3.450746208222376E-3  
 2.035600000000000E10   -1.553817660789247E-3  -3.278050735523857E-3  
 2.035800000000000E10   -2.079869603255281E-3  -3.019781576262580E-3  
 2.036000000000000E10   -2.580690249386761E-3  -2.652645585368629E-3  
 2.036200000000000E10   -3.014687560843649E-3  -2.164747678088370E-3  
 2.036400000000000E10   -3.392402281018872E-3  -1.587031150443687E-3  
 2.036600000000000E10   -3.668685383335860E-3  -9.236089751572798E-4  
 2.036800000000000E10   -3.761143596084030E-3  -1.648631781184425E-4  
 2.037000000000000E10   -3.635303358788844E-3   5.989923870570407E-4  
 2.037200000000000E10   -3.332149047680475E-3   1.262795089537071E-3  
 2.037400000000000E10   -2.898049971985597E-3   1.768978381598438E-3  
 2.037600000000000E10   -2.448366256430745E-3   2.110648374245675E-3  
 2.037800000000000E10   -2.026648484860306E-3   2.351916188167201E-3  
 2.038000000000000E10   -1.610214903916198E-3   2.550480137061742E-3  
 2.038200000000000E10   -1.174829723485918E-3   2.685093890047736E-3  
 2.038400000000000E10   -7.730073067014694E-4   2.803700346568669E-3  
 2.038600000000000E10   -3.194186051755593E-4   2.899941514004712E-3  
 2.038800000000000E10    1.865195249087669E-4   2.896711859783089E-3  
 2.039000000000000E10    6.691397823117398E-4   2.760252941192852E-3  
 2.039200000000000E10    1.089793397113681E-3   2.554953943386122E-3  
 2.039400000000000E10    1.451536590509393E-3   2.289926564251935E-3  
 2.039600000000000E10    1.706950189718218E-3   2.008839023161542E-3  
 2.039800000000000E10    1.954788928506551E-3   1.727689260237471E-3  
 2.040000000000000E10    2.161364864420008E-3   1.403646487570196E-3  
 2.040200000000000E10    2.349853619105286E-3   1.072662117183899E-3  
 2.040400000000000E10    2.529292833060026E-3   6.806468041355000E-4  
 2.040600000000000E10    2.608896172777923E-3   2.074839360796398E-4  
 2.040800000000000E10    2.558818138721917E-3  -2.355355436520767E-4  
 2.041000000000000E10    2.467443243841882E-3  -6.410541396622582E-4  
 2.041200000000000E10    2.320714915792148E-3  -1.038687579609730E-3  
 2.041400000000000E10    2.101637017740696E-3  -1.392918867403987E-3  
 2.041600000000000E10    1.860978444003397E-3  -1.723372101507805E-3  
 2.041800000000000E10    1.514070874287023E-3  -2.057969018265053E-3  
 2.042000000000000E10    1.043543103151023E-3  -2.292353478777740E-3  
 2.042200000000000E10    5.250742725803760E-4  -2.367761270660494E-3  
 2.042400000000000E10    6.936729241041812E-5  -2.277552952162094E-3  
 2.042600000000000E10   -2.946977620013058E-4  -2.122225222626218E-3  
 2.042800000000000E10   -6.059352200719771E-4  -1.913937153639617E-3  
 2.043000000000000E10   -8.204338481408304E-4  -1.656272715923411E-3  
 2.043200000000000E10   -9.091035376682327E-4  -1.429119901904078E-3  
 2.043400000000000E10   -9.405106905399375E-4  -1.277034067445331E-3  
 2.043600000000000E10   -9.778967726527268E-4  -1.232621057338461E-3  
 2.043800000000000E10   -1.105702102736191E-3  -1.246728278972485E-3  
 2.044000000000000E10   -1.388306699313776E-3  -1.210513080608238E-3  
 2.044200000000000E10   -1.743094797280652E-3  -1.027794649686527E-3  
 2.044400000000000E10   -2.042440826901131E-3  -6.501372295638754E-4  
 2.044600000000000E10   -2.145603273270859E-3  -1.064279034229306E-4  
 2.044800000000000E10   -1.979667745116685E-3   3.988324266780789E-4  
 2.045000000000000E10   -1.672211008284379E-3   6.574522445185318E-4  
 2.045200000000000E10   -1.475836827281725E-3   7.298871447953086E-4  
 2.045400000000000E10   -1.385733015248897E-3   8.350042022626711E-4  
 2.045600000000000E10   -1.288043033262646E-3   9.683983926488847E-4  
 2.045800000000000E10   -1.207000231025396E-3   1.134522923233885E-3  
 2.046000000000000E10   -1.070132961979619E-3   1.371548640438252E-3  
 2.046200000000000E10   -8.380981032840081E-4   1.582700500471725E-3  
 2.046400000000000E10   -5.468958934889762E-4   1.712832375671025E-3  
 2.046600000000000E10   -2.234293755868243E-4   1.782635800298994E-3  
 2.046800000000000E10    8.942026114608679E-5   1.767343694896058E-3  
 2.047000000000000E10    3.740069169671862E-4   1.685188833141217E-3  
 2.047200000000000E10    6.057384781780894E-4   1.532103551586193E-3  
 2.047400000000000E10    7.310405856481305E-4   1.378467578130464E-3  
 2.047600000000000E10    8.535807633220599E-4   1.319795269174156E-3  
 2.047800000000000E10    1.075029026078819E-3   1.236748722105943E-3  
 2.048000000000000E10    1.306055924268785E-3   1.058060770716381E-3  
 2.048200000000000E10    1.461348259235146E-3   8.225926624921461E-4  
 2.048400000000000E10    1.566841620606957E-3   5.663430374288174E-4  
 2.048600000000000E10    1.606975462184184E-3   3.049556635906575E-4  
 2.048800000000000E10    1.594758420078843E-3   7.077543381860273E-5  
 2.049000000000000E10    1.558739084026052E-3  -1.188839389080251E-4  
 2.049200000000000E10    1.515303686675098E-3  -2.647337818483788E-4  
 2.049400000000000E10    1.534397778515187E-3  -3.934221027453465E-4  
 2.049600000000000E10    1.552394811167485E-3  -5.907777662354488E-4  
 2.049800000000000E10    1.552119652775151E-3  -8.325430551647313E-4  
 2.050000000000000E10    1.531454820737795E-3  -1.118477489971728E-3  
 2.050200000000000E10    1.445198617013240E-3  -1.483591588179547E-3  
 2.050400000000000E10    1.205176666930870E-3  -1.908311896302082E-3  
 2.050600000000000E10    7.638036644224216E-4  -2.270261989906430E-3  
 2.050800000000000E10    1.680933023130315E-4  -2.445828540388633E-3  
 2.051000000000000E10   -4.371758399496752E-4  -2.345672360172978E-3  
 2.051200000000000E10   -8.992472258223980E-4  -2.022846731253796E-3  
 2.051400000000000E10   -1.112329670124584E-3  -1.651139990254133E-3  
 2.051600000000000E10   -1.163158574383016E-3  -1.388840549797924E-3  
 2.051800000000000E10   -1.241634957733806E-3  -1.268665690009517E-3  
 2.052000000000000E10   -1.417312464952745E-3  -1.132240331369556E-3  
 2.052200000000000E10   -1.564455179808041E-3  -8.885159385735516E-4  
 2.052400000000000E10   -1.629174648163219E-3  -6.614606417888018E-4  
 2.052600000000000E10   -1.657727752225819E-3  -5.072684714967317E-4  
 2.052800000000000E10   -1.784519464881332E-3  -4.052067837350209E-4  
 2.053000000000000E10   -1.974844925657467E-3  -1.735030853995812E-4  
 2.053200000000000E10   -2.111251181405452E-3   1.435564338828920E-4  
 2.053400000000000E10   -2.197464971147754E-3   5.121381642917793E-4  
 2.053600000000000E10   -2.180725543035402E-3   1.003603798044087E-3  
 2.053800000000000E10   -1.952126725680299E-3   1.511607051792520E-3  
 2.054000000000000E10   -1.552268138362302E-3   1.872997545568204E-3  
 2.054200000000000E10   -1.140516009871607E-3   2.076893242903882E-3  
 2.054400000000000E10   -7.350843041893785E-4   2.190637419483176E-3  
 2.054600000000000E10   -3.377602379596621E-4   2.233126209358926E-3  
 2.054800000000000E10    3.193142981251218E-5   2.185386872884852E-3  
 2.055000000000000E10    3.279259609472421E-4   2.054060835184323E-3  
 2.055200000000000E10    4.976688737601594E-4   1.936870596923486E-3  
 2.055400000000000E10    6.527458619395341E-4   1.921630533481086E-3  
 2.055600000000000E10    9.208333450024604E-4   1.939537952205649E-3  
