#  HZ   S   RI   R     50.00 
! Rohde & Schwarz ZVA40 4Ports - Version 3.90 - 1145.1110k42 SN: 100403
! Date: 2023-10-03 11:31:06
! Measurement: S12 
! 
 2.000000000000000E10   -3.055138910120285E-3  -3.175259326343184E-3  
 2.000200000000000E10   -3.594185130808641E-3  -2.665208963056406E-3  
 2.000400000000000E10   -4.037428302345453E-3  -2.017254820438447E-3  
 2.000600000000000E10   -4.350714644210206E-3  -1.296974528856852E-3  
 2.000800000000000E10   -4.472843750759408E-3  -5.573964811413101E-4  
 2.001000000000000E10   -4.523134100492355E-3   1.330706759795754E-4  
 2.001200000000000E10   -4.550694212041520E-3   8.746597579576904E-4  
 2.001400000000000E10   -4.463580712951996E-3   1.717731330750717E-3  
 2.001600000000000E10   -4.121430321700044E-3   2.609145715487776E-3  
 2.001800000000000E10   -3.554605059670630E-3   3.343529913022563E-3  
 2.002000000000000E10   -2.849247297961955E-3   3.935085557815102E-3  
 2.002200000000000E10   -1.991212135180831E-3   4.399921848542161E-3  
 2.002400000000000E10   -1.130881736537925E-3   4.675065701896394E-3  
 2.002600000000000E10   -2.503391243172465E-4   4.730408925011203E-3  
 2.002800000000000E10    5.837706827420604E-4   4.618684416291891E-3  
 2.003000000000000E10    1.407111904376911E-3   4.333350496987502E-3  
 2.003200000000000E10    2.070724584714130E-3   3.881264426228073E-3  
 2.003400000000000E10    2.555278500680019E-3   3.395654614669858E-3  
 2.003600000000000E10    2.945764818125301E-3   2.920577371561969E-3  
 2.003800000000000E10    3.257239694465642E-3   2.447010664683250E-3  
 2.004000000000000E10    3.565868819822316E-3   1.958261399219434E-3  
 2.004200000000000E10    3.855033501706742E-3   1.424889433784066E-3  
 2.004400000000000E10    4.075739808656552E-3   8.240627077477123E-4  
 2.004600000000000E10    4.159389529377222E-3   1.512653969392111E-4  
 2.004800000000000E10    4.099792749103573E-3  -4.682612440471228E-4  
 2.005000000000000E10    4.047006972272088E-3  -1.075366567992778E-3  
 2.005200000000000E10    3.939777595439443E-3  -1.755578689173692E-3  
 2.005400000000000E10    3.677346260735283E-3  -2.454421741680967E-3  
 2.005600000000000E10    3.234723462136808E-3  -3.110903444596463E-3  
 2.005800000000000E10    2.667212962276406E-3  -3.679114971654835E-3  
 2.006000000000000E10    1.970486301514838E-3  -4.172425786102260E-3  
 2.006200000000000E10    1.155033824034035E-3  -4.487469171484312E-3  
 2.006400000000000E10    3.091920365544933E-4  -4.586173445676213E-3  
 2.006600000000000E10   -5.128764659511271E-4  -4.539475000152986E-3  
 2.006800000000000E10   -1.320566581044760E-3  -4.316966584021295E-3  
 2.007000000000000E10   -2.064612426760573E-3  -3.950438427704353E-3  
 2.007200000000000E10   -2.672764282949545E-3  -3.462442809163972E-3  
 2.007400000000000E10   -3.133603466536713E-3  -2.926998030118369E-3  
 2.007600000000000E10   -3.524887875688297E-3  -2.350882152785306E-3  
 2.007800000000000E10   -3.817781064383410E-3  -1.708006641517083E-3  
 2.008000000000000E10   -3.968484492765534E-3  -1.080685014905477E-3  
 2.008200000000000E10   -4.039664442340533E-3  -5.161086338813660E-4  
 2.008400000000000E10   -4.140631295740604E-3   4.318203422439248E-5  
 2.008600000000000E10   -4.173210753058947E-3   7.534987278092929E-4  
 2.008800000000000E10   -3.991413896006567E-3   1.513355609926361E-3  
 2.009000000000000E10   -3.667641448339931E-3   2.167371774299277E-3  
 2.009200000000000E10   -3.278076933282945E-3   2.725255270316094E-3  
 2.009400000000000E10   -2.864381462266600E-3   3.246880878038981E-3  
 2.009600000000000E10   -2.316877004449015E-3   3.854299058999729E-3  
 2.009800000000000E10   -1.505422505067179E-3   4.330889201136652E-3  
 2.010000000000000E10   -5.985083731098309E-4   4.521325954960452E-3  
 2.010200000000000E10    3.026229010343000E-4   4.457178577366803E-3  
 2.010400000000000E10    1.062444083530594E-3   4.159379578023046E-3  
 2.010600000000000E10    1.651678950077406E-3   3.787408125828263E-3  
 2.010800000000000E10    2.141045018409689E-3   3.453928192525551E-3  
 2.011000000000000E10    2.622123876655544E-3   3.126519801164115E-3  
 2.011200000000000E10    3.114602545759192E-3   2.714962094884228E-3  
 2.011400000000000E10    3.585855804245781E-3   2.173087956314838E-3  
 2.011600000000000E10    3.989943216934249E-3   1.481251661769218E-3  
 2.011800000000000E10    4.189499395175113E-3   6.949520838032995E-4  
 2.012000000000000E10    4.147965857690132E-3  -3.605190364329178E-5  
 2.012200000000000E10    3.985216944581933E-3  -6.555552180442546E-4  
 2.012400000000000E10    3.842504729551298E-3  -1.174108983293452E-3  
 2.012600000000000E10    3.727486960727860E-3  -1.747627988354200E-3  
 2.012800000000000E10    3.532884728715376E-3  -2.433672133419249E-3  
 2.013000000000000E10    3.136279639201584E-3  -3.128958779766604E-3  
 2.013200000000000E10    2.521905366814247E-3  -3.760287193236528E-3  
 2.013400000000000E10    1.720170835377994E-3  -4.248507665815178E-3  
 2.013600000000000E10    7.981770107074194E-4  -4.552587659822570E-3  
 2.013800000000000E10   -1.569633448660305E-4  -4.578050812361418E-3  
 2.014000000000000E10   -1.029149521383698E-3  -4.319149397175622E-3  
 2.014200000000000E10   -1.718801170311592E-3  -3.875067302336296E-3  
 2.014400000000000E10   -2.195547541810407E-3  -3.433380586405596E-3  
 2.014600000000000E10   -2.635981930695750E-3  -3.078912514158422E-3  
 2.014800000000000E10   -3.087489943330487E-3  -2.651644646431561E-3  
 2.015000000000000E10   -3.459747794463679E-3  -2.123756032368100E-3  
 2.015200000000000E10   -3.740220873927077E-3  -1.555396205124756E-3  
 2.015400000000000E10   -3.983675898915089E-3  -9.837725471394758E-4  
 2.015600000000000E10   -4.222436997763537E-3  -3.513371263613442E-4  
 2.015800000000000E10   -4.363610529927193E-3   3.962862990900047E-4  
 2.016000000000000E10   -4.300017599706297E-3   1.248972179989020E-3  
 2.016200000000000E10   -4.023580087555780E-3   2.077095132942001E-3  
 2.016400000000000E10   -3.563997542692556E-3   2.864423854690460E-3  
 2.016600000000000E10   -2.929831053026849E-3   3.500480661858564E-3  
 2.016800000000000E10   -2.215612498629425E-3   3.949918042592429E-3  
 2.017000000000000E10   -1.407753460592142E-3   4.263786874987461E-3  
 2.017200000000000E10   -5.222029759790060E-4   4.371066491498992E-3  
 2.017400000000000E10    2.696674328709142E-4   4.268999608164585E-3  
 2.017600000000000E10    9.540787691043485E-4   4.047094568334245E-3  
 2.017800000000000E10    1.517667517031509E-3   3.755676103065964E-3  
 2.018000000000000E10    2.018959994462354E-3   3.444682168601840E-3  
 2.018200000000000E10    2.491243442313539E-3   3.107291422094460E-3  
 2.018400000000000E10    2.937916588659088E-3   2.762406762620366E-3  
 2.018600000000000E10    3.402548497197805E-3   2.369484001839603E-3  
 2.018800000000000E10    3.901201007128866E-3   1.869625131668592E-3  
 2.019000000000000E10    4.352007647631346E-3   1.157563391003620E-3  
 2.019200000000000E10    4.620952997356653E-3   2.471124322188121E-4  
 2.019400000000000E10    4.638841720642868E-3  -7.051643010021913E-4  
 2.019600000000000E10    4.427486996131915E-3  -1.644811144581548E-3  
 2.019800000000000E10    3.923067159053904E-3  -2.541388040063558E-3  
 2.020000000000000E10    3.193462034687400E-3  -3.211612830421440E-3  
 2.020200000000000E10    2.394054205743252E-3  -3.604217027141541E-3  
 2.020400000000000E10    1.660317035943822E-3  -3.742052681951060E-3  
 2.020600000000000E10    1.067978657644104E-3  -3.766883966616459E-3  
 2.020800000000000E10    5.213271619545089E-4  -3.781012957915665E-3  
 2.021000000000000E10    2.136397449282445E-5  -3.715851283804686E-3  
 2.021200000000000E10   -3.475781106519410E-4  -3.731015310795219E-3  
 2.021400000000000E10   -8.550402320300542E-4  -3.882335542045810E-3  
 2.021600000000000E10   -1.597574687804337E-3  -3.895278735500244E-3  
 2.021800000000000E10   -2.409636396569787E-3  -3.585982300272143E-3  
 2.022000000000000E10   -3.076008883201414E-3  -3.063947798822213E-3  
 2.022200000000000E10   -3.589461686917477E-3  -2.473193462248202E-3  
 2.022400000000000E10   -3.967309844921585E-3  -1.816977522577401E-3  
 2.022600000000000E10   -4.245477193897522E-3  -1.090030836941743E-3  
 2.022800000000000E10   -4.388278229507032E-3  -3.343049557534634E-4  
 2.023000000000000E10   -4.399464069003309E-3   4.449544595209537E-4  
 2.023200000000000E10   -4.288453384544011E-3   1.211659021296159E-3  
 2.023400000000000E10   -4.018319770693779E-3   1.954416308931455E-3  
 2.023600000000000E10   -3.610083902323688E-3   2.599431331165963E-3  
 2.023800000000000E10   -3.126335683865128E-3   3.188205460362413E-3  
 2.024000000000000E10   -2.537353041892251E-3   3.771422344639346E-3  
 2.024200000000000E10   -1.758621048389210E-3   4.192307850139009E-3  
 2.024400000000000E10   -9.363071466968569E-4   4.325790537728204E-3  
 2.024600000000000E10   -2.305158279206673E-4   4.334982381098801E-3  
 2.024800000000000E10    4.492588740066384E-4   4.325308112634554E-3  
 2.025000000000000E10    1.153361414455705E-3   4.237091427461969E-3  
 2.025200000000000E10    1.831411716045329E-3   4.019345588016290E-3  
 2.025400000000000E10    2.486664896692943E-3   3.688882596583830E-3  
 2.025600000000000E10    3.119213989487401E-3   3.216461916626604E-3  
 2.025800000000000E10    3.651872880894830E-3   2.636196246991555E-3  
 2.026000000000000E10    4.078373174976420E-3   2.012857235968113E-3  
 2.026200000000000E10    4.409067798405886E-3   1.284791035922589E-3  
 2.026400000000000E10    4.589779285231123E-3   4.705664512045958E-4  
 2.026600000000000E10    4.652353400295533E-3  -3.930637699172453E-4  
 2.026800000000000E10    4.538502733878516E-3  -1.278823875408206E-3  
 2.027000000000000E10    4.170723431916149E-3  -2.129649510607123E-3  
 2.027200000000000E10    3.599464436303135E-3  -2.786082801995455E-3  
 2.027400000000000E10    3.009365397264009E-3  -3.230716541616454E-3  
 2.027600000000000E10    2.421531929737992E-3  -3.624670854252246E-3  
 2.027800000000000E10    1.806703322842993E-3  -3.945065420810824E-3  
 2.028000000000000E10    1.180790877832031E-3  -4.179477191495675E-3  
 2.028200000000000E10    4.792254918289406E-4  -4.319275901825340E-3  
 2.028400000000000E10   -2.582588135232477E-4  -4.344793071073515E-3  
 2.028600000000000E10   -1.015399285178218E-3  -4.251380744217723E-3  
 2.028800000000000E10   -1.726551447063685E-3  -3.991905220404820E-3  
 2.029000000000000E10   -2.298251035864707E-3  -3.673393296560756E-3  
 2.029200000000000E10   -2.897153565384172E-3  -3.349255925665299E-3  
 2.029400000000000E10   -3.548386515359636E-3  -2.808964423214396E-3  
 2.029600000000000E10   -4.074307193082792E-3  -2.033633757727566E-3  
 2.029800000000000E10   -4.297537280729524E-3  -1.181828608322475E-3  
 2.030000000000000E10   -4.297531761780934E-3  -4.461574685087221E-4  
 2.030200000000000E10   -4.253547724888281E-3   2.571726772994562E-4  
 2.030400000000000E10   -4.112388352277103E-3   9.964093203759857E-4  
 2.030600000000000E10   -3.801033737275888E-3   1.695201525257694E-3  
 2.030800000000000E10   -3.358102343217643E-3   2.221379222141372E-3  
 2.031000000000000E10   -2.921518817957905E-3   2.592285905309298E-3  
 2.031200000000000E10   -2.536646788939834E-3   2.912145176971401E-3  
 2.031400000000000E10   -2.148852631863621E-3   3.307180789609750E-3  
 2.031600000000000E10   -1.662396614577759E-3   3.723227255115355E-3  
 2.031800000000000E10   -1.014866396198394E-3   4.023332286764075E-3  
 2.032000000000000E10   -2.995563236591234E-4   4.123022676342064E-3  
 2.032200000000000E10    3.765843036860504E-4   4.113105194712127E-3  
 2.032400000000000E10    1.063092482379741E-3   4.049105586966983E-3  
 2.032600000000000E10    1.778624693138732E-3   3.879218707206073E-3  
 2.032800000000000E10    2.526841100512280E-3   3.545284693784736E-3  
 2.033000000000000E10    3.181334274510543E-3   2.967530878743640E-3  
 2.033200000000000E10    3.626308438402636E-3   2.269186941837823E-3  
 2.033400000000000E10    3.966432909860656E-3   1.576682531136882E-3  
 2.033600000000000E10    4.085076455440787E-3   1.174409390875587E-3  
 2.033800000000000E10    4.144156058491381E-3  -5.587634923695414E-5  
 2.034000000000000E10    3.912856647123894E-3  -7.905759331252840E-4  
 2.034200000000000E10    3.566469781583659E-3  -1.399529239818178E-3  
 2.034400000000000E10    3.159587754419557E-3  -1.876952191297379E-3  
 2.034600000000000E10    2.751473216684881E-3  -2.221813140850929E-3  
 2.034800000000000E10    2.376494644623664E-3  -2.506422051401050E-3  
 2.035000000000000E10    2.018841871715807E-3  -2.757074613193120E-3  
 2.035200000000000E10    1.633261308867347E-3  -3.067754510859097E-3  
 2.035400000000000E10    1.181759755127132E-3  -3.360525635933435E-3  
 2.035600000000000E10    6.494961142177798E-4  -3.605255218981593E-3  
 2.035800000000000E10    3.237237318966538E-6  -3.756478903125283E-3  
 2.036000000000000E10   -7.376473898788122E-4  -3.738261405723515E-3  
 2.036200000000000E10   -1.452869817580062E-3  -3.542745779095977E-3  
 2.036400000000000E10   -2.106503885308350E-3  -3.194992956532925E-3  
 2.036600000000000E10   -2.658814726466383E-3  -2.695736233834868E-3  
 2.036800000000000E10   -3.062158814389949E-3  -2.044473541900516E-3  
 2.037000000000000E10   -3.247440326958896E-3  -1.341814977220363E-3  
 2.037200000000000E10   -3.260721676741486E-3  -7.425718919236076E-4  
 2.037400000000000E10   -3.203455056926167E-3  -2.405147684772534E-4  
 2.037600000000000E10   -3.102331586113131E-3   1.917902588536015E-4  
 2.037800000000000E10   -3.018127211059134E-3   6.072216061444057E-4  
 2.038000000000000E10   -2.912205204160677E-3   1.065251007848592E-3  
 2.038200000000000E10   -2.705896652683064E-3   1.519746806782981E-3  
 2.038400000000000E10   -2.448476773376267E-3   1.911862830941876E-3  
 2.038600000000000E10   -2.114996771086698E-3   2.297180894486331E-3  
 2.038800000000000E10   -1.655576233234671E-3   2.621485161836501E-3  
 2.039000000000000E10   -1.155592639137198E-3   2.824726229947475E-3  
 2.039200000000000E10   -6.699324477705416E-4   2.923631807789207E-3  
 2.039400000000000E10   -1.935180463516628E-4   2.915863327130124E-3  
 2.039600000000000E10    2.073282152263414E-4   2.881676467411496E-3  
 2.039800000000000E10    6.544626343788373E-4   2.825453015113319E-3  
 2.040000000000000E10    1.096360842455869E-3   2.672193658158735E-3  
 2.040200000000000E10    1.477553849798386E-3   2.480810904806411E-3  
 2.040400000000000E10    1.842346253666889E-3   2.285666315367928E-3  
 2.040600000000000E10    2.220443225707169E-3   1.989356362847267E-3  
 2.040800000000000E10    2.575188047356076E-3   1.602376198947982E-3  
 2.041000000000000E10    2.862889975033425E-3   1.126457751659608E-3  
 2.041200000000000E10    3.015614373402463E-3   5.786744058477106E-4  
 2.041400000000000E10    3.057520224333362E-3   4.587287683669410E-5  
 2.041600000000000E10    3.056938604762157E-3  -5.211221168455842E-4  
 2.041800000000000E10    2.890095701096235E-3  -1.169029317140855E-3  
 2.042000000000000E10    2.505391482608738E-3  -1.694575219449622E-3  
 2.042200000000000E10    2.043281750822509E-3  -2.037811222382718E-3  
 2.042400000000000E10    1.583310848757349E-3  -2.221508391408457E-3  
 2.042600000000000E10    1.172547306244572E-3  -2.309946386419513E-3  
 2.042800000000000E10    8.168633815970411E-4  -2.368752577307600E-3  
 2.043000000000000E10    4.821942453013940E-4  -2.396031205231945E-3  
 2.043200000000000E10    1.686939115272792E-4  -2.400696217254908E-3  
 2.043400000000000E10   -1.580252246303307E-4  -2.365547154719631E-3  
 2.043600000000000E10   -4.409596634407839E-4  -2.329654646692453E-3  
 2.043800000000000E10   -7.599619652696506E-4  -2.339485446336093E-3  
 2.044000000000000E10   -1.194704556837678E-3  -2.289719370849155E-3  
 2.044200000000000E10   -1.660706445195333E-3  -2.108290105954641E-3  
 2.044400000000000E10   -2.111650878322070E-3  -1.743052689427579E-3  
 2.044600000000000E10   -2.418807793960527E-3  -1.170333953470820E-3  
 2.044800000000000E10   -2.436643302509631E-3  -6.070455182688656E-4  
 2.045000000000000E10   -2.283915101240079E-3  -2.369064223549450E-4  
 2.045200000000000E10   -2.212309916676195E-3  -2.744433381680951E-5  
 2.045400000000000E10   -2.217545544866611E-3   2.406001828300456E-4  
 2.045600000000000E10   -2.196487229041480E-3   5.583272863144953E-4  
 2.045800000000000E10   -2.136306130085831E-3   9.103515961517892E-4  
 2.046000000000000E10   -1.960920088027639E-3   1.288824201630498E-3  
 2.046200000000000E10   -1.703744141936855E-3   1.588266877526487E-3  
 2.046400000000000E10   -1.402473491099146E-3   1.825942575966043E-3  
 2.046600000000000E10   -1.079840210473372E-3   2.019535034412036E-3  
 2.046800000000000E10   -7.653402237876975E-4   2.140276720402418E-3  
 2.047000000000000E10   -4.306442397474139E-4   2.252514655184415E-3  
 2.047200000000000E10   -3.792175589801950E-5   2.275059758513063E-3  
 2.047400000000000E10    2.893020746004940E-4   2.208744891470781E-3  
 2.047600000000000E10    6.077741671577787E-4   2.192793577840483E-3  
 2.047800000000000E10    1.025999359424330E-3   2.110351454811516E-3  
 2.048000000000000E10    1.405768217173992E-3   1.870753027981630E-3  
 2.048200000000000E10    1.689236098038102E-3   1.523034862691054E-3  
 2.048400000000000E10    1.863688484903563E-3   1.141530888465544E-3  
 2.048600000000000E10    1.912573201547343E-3   8.084472717234384E-4  
 2.048800000000000E10    1.933483053343716E-3   5.509867375992515E-4  
 2.049000000000000E10    1.939543609127954E-3   3.103265534500006E-4  
 2.049200000000000E10    1.907221765981780E-3   1.039504236865064E-4  
 2.049400000000000E10    1.936190037263765E-3  -4.143827822257733E-5  
 2.049600000000000E10    2.042977018626752E-3  -2.301527390416056E-4  
 2.049800000000000E10    2.181062224769482E-3  -5.105871015176591E-4  
 2.050000000000000E10    2.277409425005317E-3  -9.139258332585021E-4  
 2.050200000000000E10    2.242910727444623E-3  -1.467244699597359E-3  
 2.050400000000000E10    1.988962275424490E-3  -2.084211118657280E-3  
 2.050600000000000E10    1.488508729919516E-3  -2.603688009980101E-3  
 2.050800000000000E10    8.019252606943526E-4  -2.924111611382277E-3  
 2.051000000000000E10    6.831991076641890E-5  -2.956702744726230E-3  
 2.051200000000000E10   -5.781406049478662E-4  -2.724013299922700E-3  
 2.051400000000000E10   -9.957432220862421E-4  -2.354930612017160E-3  
 2.051600000000000E10   -1.206006427916388E-3  -2.031052924899592E-3  
 2.051800000000000E10   -1.353897637239209E-3  -1.849449174996052E-3  
 2.052000000000000E10   -1.609477011866316E-3  -1.665257615968585E-3  
 2.052200000000000E10   -1.850123836279468E-3  -1.363518565927667E-3  
 2.052400000000000E10   -1.958774661438333E-3  -1.065106812381634E-3  
 2.052600000000000E10   -2.038723426974482E-3  -8.249683930814543E-4  
 2.052800000000000E10   -2.186190362812744E-3  -6.392217980680506E-4  
 2.053000000000000E10   -2.392525603580806E-3  -3.511459702470651E-4  
 2.053200000000000E10   -2.532595734077472E-3   6.548875205259750E-5  
 2.053400000000000E10   -2.609655752571093E-3   5.309316086789262E-4  
 2.053600000000000E10   -2.606375539606369E-3   1.087988985495435E-3  
 2.053800000000000E10   -2.355550036386208E-3   1.692466920724622E-3  
 2.054000000000000E10   -1.858997766652869E-3   2.170549377937008E-3  
 2.054200000000000E10   -1.322981310766881E-3   2.404824666747893E-3  
 2.054400000000000E10   -8.079242758901309E-4   2.499680146919909E-3  
 2.054600000000000E10   -3.367388648998545E-4   2.477342392214471E-3  
 2.054800000000000E10    4.091499485420405E-5   2.370250273357939E-3  
 2.055000000000000E10    3.370545735513722E-4   2.233465288386301E-3  
 2.055200000000000E10    5.755111751905471E-4   2.128327416290564E-3  
 2.055400000000000E10    8.180077382820418E-4   2.072951872833073E-3  
 2.055600000000000E10    1.104759561173894E-3   1.991597724285115E-3  
