#  HZ   S   RI   R     50.00 
! Rohde & Schwarz ZVA40 4Ports - Version 3.90 - 1145.1110k42 SN: 100403
! Date: 2023-10-03 11:34:15
! Measurement: S12 
! 
 2.000000000000000E10   -5.057579303091324E-3  -1.188972508788101E-4  
 2.000200000000000E10   -5.043294573961585E-3   6.834338311347422E-4  
 2.000400000000000E10   -4.847387231334493E-3   1.556718329623066E-3  
 2.000600000000000E10   -4.439250755779170E-3   2.367775680290328E-3  
 2.000800000000000E10   -3.876695642247796E-3   3.018791244054834E-3  
 2.001000000000000E10   -3.299689791337760E-3   3.456684174361053E-3  
 2.001200000000000E10   -2.801889777873402E-3   3.860423332770114E-3  
 2.001400000000000E10   -2.290392648083745E-3   4.308841432686206E-3  
 2.001600000000000E10   -1.568731575928353E-3   4.769463161075557E-3  
 2.001800000000000E10   -6.944011612277892E-4   5.039003349978616E-3  
 2.002000000000000E10    2.095489361198378E-4   5.094072212361628E-3  
 2.002200000000000E10    1.148999134009635E-3   4.950702397359743E-3  
 2.002400000000000E10    1.985740584873215E-3   4.695308894884807E-3  
 2.002600000000000E10    2.805893223180815E-3   4.275421267030417E-3  
 2.002800000000000E10    3.510897754932996E-3   3.695704137768459E-3  
 2.003000000000000E10    4.075312253984589E-3   2.953770570456982E-3  
 2.003200000000000E10    4.409252717677090E-3   2.172315648446481E-3  
 2.003400000000000E10    4.627749082390910E-3   1.424487093808475E-3  
 2.003600000000000E10    4.751756718313254E-3   6.560642375714250E-4  
 2.003800000000000E10    4.742011065698333E-3  -9.563230479317202E-5  
 2.004000000000000E10    4.655979142558796E-3  -8.003416803182553E-4  
 2.004200000000000E10    4.480000343863612E-3  -1.527452349869742E-3  
 2.004400000000000E10    4.178590468924355E-3  -2.229783132120415E-3  
 2.004600000000000E10    3.764929405103128E-3  -2.880623917681752E-3  
 2.004800000000000E10    3.264278354537156E-3  -3.413613920134527E-3  
 2.005000000000000E10    2.736397147937506E-3  -3.905319056853101E-3  
 2.005200000000000E10    2.082048121977736E-3  -4.374981219707816E-3  
 2.005400000000000E10    1.334206464148506E-3  -4.682578974299962E-3  
 2.005600000000000E10    5.754267891730975E-4  -4.884275331817292E-3  
 2.005800000000000E10   -2.116220472358961E-4  -5.012966830421378E-3  
 2.006000000000000E10   -1.112377331419676E-3  -5.004359460953210E-3  
 2.006200000000000E10   -2.049257858069959E-3  -4.784798491056320E-3  
 2.006400000000000E10   -2.942195170800443E-3  -4.339220364474589E-3  
 2.006600000000000E10   -3.692904892550023E-3  -3.703743710906969E-3  
 2.006800000000000E10   -4.263990731151016E-3  -2.959393637461795E-3  
 2.007000000000000E10   -4.701021179142926E-3  -2.144030985180979E-3  
 2.007200000000000E10   -4.995418315822328E-3  -1.271688603554611E-3  
 2.007400000000000E10   -5.107657621718116E-3  -3.633306435033404E-4  
 2.007600000000000E10   -5.069657228887081E-3   5.181905763930884E-4  
 2.007800000000000E10   -4.866396611625398E-3   1.417290673729170E-3  
 2.008000000000000E10   -4.430248833226937E-3   2.224677190598515E-3  
 2.008200000000000E10   -3.871094607920559E-3   2.829540788230521E-3  
 2.008400000000000E10   -3.405054531025666E-3   3.282504199348666E-3  
 2.008600000000000E10   -2.963610131431509E-3   3.811518782404838E-3  
 2.008800000000000E10   -2.285368680195125E-3   4.375615277913986E-3  
 2.009000000000000E10   -1.448476023075206E-3   4.718250215605454E-3  
 2.009200000000000E10   -6.117329876697451E-4   4.846824540032282E-3  
 2.009400000000000E10    1.346081280644285E-4   4.869860286513965E-3  
 2.009600000000000E10    8.957325437761568E-4   4.896024466250783E-3  
 2.009800000000000E10    1.795627094839734E-3   4.776770835397421E-3  
 2.010000000000000E10    2.696627854473061E-3   4.402921552321425E-3  
 2.010200000000000E10    3.516017985357731E-3   3.803878229249407E-3  
 2.010400000000000E10    4.132221539125399E-3   3.025778862475246E-3  
 2.010600000000000E10    4.513131730534413E-3   2.186028191957761E-3  
 2.010800000000000E10    4.729067717023470E-3   1.369496458210051E-3  
 2.011000000000000E10    4.843557149999673E-3   5.844526501648404E-4  
 2.011200000000000E10    4.900529032090197E-3  -1.793503685837129E-4  
 2.011400000000000E10    4.868067732011832E-3  -1.001695179621931E-3  
 2.011600000000000E10    4.695948247832281E-3  -1.861724166061592E-3  
 2.011800000000000E10    4.299428814125282E-3  -2.732928092074064E-3  
 2.012000000000000E10    3.656615063341128E-3  -3.494018309370235E-3  
 2.012200000000000E10    2.874032913327769E-3  -3.992773540731934E-3  
 2.012400000000000E10    2.155794753451591E-3  -4.270257100600888E-3  
 2.012600000000000E10    1.540016641633378E-3  -4.497467522957811E-3  
 2.012800000000000E10    8.601757365761810E-4  -4.761554438758781E-3  
 2.013000000000000E10    5.289759425337523E-5  -4.975619036014434E-3  
 2.013200000000000E10   -8.592239270607631E-4  -4.993829755457464E-3  
 2.013400000000000E10   -1.740369756050684E-3  -4.803158584292289E-3  
 2.013600000000000E10   -2.575340853245170E-3  -4.499307350703964E-3  
 2.013800000000000E10   -3.428802618549930E-3  -4.030204619522449E-3  
 2.014000000000000E10   -4.211075172794086E-3  -3.322295344400186E-3  
 2.014200000000000E10   -4.794344530199414E-3  -2.390036204208931E-3  
 2.014400000000000E10   -5.023809874223338E-3  -1.370989066479659E-3  
 2.014600000000000E10   -5.050316004565469E-3  -4.929920283353163E-4  
 2.014800000000000E10   -5.026197509357224E-3   3.537357595093825E-4  
 2.015000000000000E10   -4.860421228739951E-3   1.214333697808562E-3  
 2.015200000000000E10   -4.518154077231884E-3   1.979921332181052E-3  
 2.015400000000000E10   -4.121209046355000E-3   2.622235506014140E-3  
 2.015600000000000E10   -3.682474786829618E-3   3.249368397518993E-3  
 2.015800000000000E10   -3.130299737676978E-3   3.841120042596703E-3  
 2.016000000000000E10   -2.466085470385022E-3   4.366519584975861E-3  
 2.016200000000000E10   -1.712340188937055E-3   4.755248143165200E-3  
 2.016400000000000E10   -8.823961683514496E-4   5.018669991167608E-3  
 2.016600000000000E10    8.748725997941586E-6   5.150788377418563E-3  
 2.016800000000000E10    9.410005252532387E-4   5.138017909808292E-3  
 2.017000000000000E10    1.906483753204898E-3   4.933339750601186E-3  
 2.017200000000000E10    2.843940518451510E-3   4.474509472924251E-3  
 2.017400000000000E10    3.595043292821006E-3   3.784378809440468E-3  
 2.017600000000000E10    4.123594801597022E-3   2.968330634757877E-3  
 2.017800000000000E10    4.412840982830084E-3   2.172291080501897E-3  
 2.018000000000000E10    4.573125892353279E-3   1.472910193519460E-3  
 2.018200000000000E10    4.702656564337236E-3   8.137815123147988E-4  
 2.018400000000000E10    4.807334548483293E-3   1.286763748524849E-4  
 2.018600000000000E10    4.806655114171683E-3  -6.264309890361297E-4  
 2.018800000000000E10    4.748609951800771E-3  -1.369171547358511E-3  
 2.019000000000000E10    4.610575787309144E-3  -2.161608137949198E-3  
 2.019200000000000E10    4.291260959925476E-3  -3.010939065091037E-3  
 2.019400000000000E10    3.772516674534591E-3  -3.832344345196530E-3  
 2.019600000000000E10    3.063996227596094E-3  -4.596309977825042E-3  
 2.019800000000000E10    2.127235729454292E-3  -5.196775033794068E-3  
 2.020000000000000E10    1.042989690581130E-3  -5.531003181305197E-3  
 2.020200000000000E10   -7.320172523948177E-5  -5.555204064067868E-3  
 2.020400000000000E10   -1.097803853486699E-3  -5.319138402464214E-3  
 2.020600000000000E10   -1.976746315550474E-3  -4.966128393317815E-3  
 2.020800000000000E10   -2.800376594273581E-3  -4.477655739282017E-3  
 2.021000000000000E10   -3.465476488970496E-3  -3.778224759217766E-3  
 2.021200000000000E10   -3.818439561183807E-3  -3.092359716969508E-3  
 2.021400000000000E10   -4.153164655522065E-3  -2.572536727206575E-3  
 2.021600000000000E10   -4.602342171387540E-3  -1.979614784768611E-3  
 2.021800000000000E10   -4.967163161685070E-3  -1.181858945293007E-3  
 2.022000000000000E10   -5.113844242360857E-3  -2.945734466063894E-4  
 2.022200000000000E10   -5.073097637957998E-3   5.732024739565398E-4  
 2.022400000000000E10   -4.919290490862397E-3   1.384325584189760E-3  
 2.022600000000000E10   -4.673881559736200E-3   2.192991647731375E-3  
 2.022800000000000E10   -4.281002976414231E-3   2.972679937051402E-3  
 2.023000000000000E10   -3.737383099548795E-3   3.676329885988876E-3  
 2.023200000000000E10   -3.071018356691909E-3   4.299642569902871E-3  
 2.023400000000000E10   -2.286743346808685E-3   4.817734024039021E-3  
 2.023600000000000E10   -1.403607488437384E-3   5.132317818977215E-3  
 2.023800000000000E10   -5.307789575049861E-4   5.294486035213427E-3  
 2.024000000000000E10    3.777028242540029E-4   5.382918976937180E-3  
 2.024200000000000E10    1.376504281156317E-3   5.263808252358879E-3  
 2.024400000000000E10    2.299350306943611E-3   4.897474863187031E-3  
 2.024600000000000E10    3.065522734282746E-3   4.423327864734112E-3  
 2.024800000000000E10    3.792287040225886E-3   3.849846164316492E-3  
 2.025000000000000E10    4.414900999378276E-3   3.111301386659896E-3  
 2.025200000000000E10    4.856550151965133E-3   2.275392645969987E-3  
 2.025400000000000E10    5.138741271501339E-3   1.428302575799603E-3  
 2.025600000000000E10    5.311375897791651E-3   5.517155686565849E-4  
 2.025800000000000E10    5.342831938631006E-3  -3.876946392227654E-4  
 2.026000000000000E10    5.172661902313984E-3  -1.299858671026650E-3  
 2.026200000000000E10    4.879425228055981E-3  -2.167018294265425E-3  
 2.026400000000000E10    4.445052188303736E-3  -2.970345965069202E-3  
 2.026600000000000E10    3.883350726768927E-3  -3.687726333737373E-3  
 2.026800000000000E10    3.211693933095645E-3  -4.307665224014609E-3  
 2.027000000000000E10    2.394392922589625E-3  -4.867327899706585E-3  
 2.027200000000000E10    1.403527291215680E-3  -5.223945024664756E-3  
 2.027400000000000E10    4.240453935280029E-4  -5.285967227623419E-3  
 2.027600000000000E10   -5.065240418641932E-4  -5.179384067930557E-3  
 2.027800000000000E10   -1.383658899511728E-3  -4.878449684905786E-3  
 2.028000000000000E10   -2.079687193381014E-3  -4.471682339768720E-3  
 2.028200000000000E10   -2.708378153059770E-3  -4.088079125654918E-3  
 2.028400000000000E10   -3.315603774454859E-3  -3.625625856565657E-3  
 2.028600000000000E10   -3.853401971153087E-3  -3.049845289852885E-3  
 2.028800000000000E10   -4.302395162759005E-3  -2.353736716840003E-3  
 2.029000000000000E10   -4.621518965534591E-3  -1.636604252443822E-3  
 2.029200000000000E10   -4.862356741257288E-3  -9.018756401794101E-4  
 2.029400000000000E10   -5.021244994606134E-3  -6.834619341168070E-5  
 2.029600000000000E10   -5.016776922814273E-3   8.963916722374659E-4  
 2.029800000000000E10   -4.702344485041169E-3   1.860375274662619E-3  
 2.030000000000000E10   -4.185985101179944E-3   2.620501305769991E-3  
 2.030200000000000E10   -3.647467112858539E-3   3.229635043276682E-3  
 2.030400000000000E10   -3.052120597136242E-3   3.797540053104362E-3  
 2.030600000000000E10   -2.289239256815226E-3   4.253870635120957E-3  
 2.030800000000000E10   -1.453529064612532E-3   4.511490533197368E-3  
 2.031000000000000E10   -6.324930280378020E-4   4.592310223314498E-3  
 2.031200000000000E10    1.205191834338216E-4   4.500260593852511E-3  
 2.031400000000000E10    7.629646678213721E-4   4.322303855722702E-3  
 2.031600000000000E10    1.369077341493081E-3   4.141062791286796E-3  
 2.031800000000000E10    2.008603846964737E-3   3.882681726719495E-3  
 2.032000000000000E10    2.612672280520201E-3   3.523626856298910E-3  
 2.032200000000000E10    3.156719858654672E-3   3.097352692512451E-3  
 2.032400000000000E10    3.672654990589730E-3   2.536961972644484E-3  
 2.032600000000000E10    4.075219285570914E-3   1.850616781868869E-3  
 2.032800000000000E10    4.350651452248848E-3   1.085903801679335E-3  
 2.033000000000000E10    4.423662382005542E-3   2.928078956082809E-4  
 2.033200000000000E10    4.343228725095591E-3  -4.364586073077387E-4  
 2.033400000000000E10    4.234764449022435E-3  -1.125769866457968E-3  
 2.033600000000000E10    4.146128513470845E-3  -1.504213441404756E-3  
 2.033800000000000E10    3.545355612274122E-3  -2.639533124036260E-3  
 2.034000000000000E10    2.937880499909322E-3  -3.250238166570112E-3  
 2.034200000000000E10    2.215637877169583E-3  -3.681668106259571E-3  
 2.034400000000000E10    1.418146869616100E-3  -3.900504058778839E-3  
 2.034600000000000E10    6.642384881464144E-4  -3.899185297389826E-3  
 2.034800000000000E10    5.865424841262950E-5  -3.781236699540859E-3  
 2.035000000000000E10   -4.364938886956900E-4  -3.643442031547980E-3  
 2.035200000000000E10   -9.528901772918526E-4  -3.526607097161038E-3  
 2.035400000000000E10   -1.499537520834969E-3  -3.304097215058628E-3  
 2.035600000000000E10   -1.970164210501093E-3  -2.979069577392053E-3  
 2.035800000000000E10   -2.377598874132943E-3  -2.640763659858041E-3  
 2.036000000000000E10   -2.778976155375993E-3  -2.270509161193062E-3  
 2.036200000000000E10   -3.129706476573592E-3  -1.810391761224579E-3  
 2.036400000000000E10   -3.449378845592340E-3  -1.276709734358721E-3  
 2.036600000000000E10   -3.693756328343794E-3  -6.309925444872568E-4  
 2.036800000000000E10   -3.755927620524610E-3   1.272285775889436E-4  
 2.037000000000000E10   -3.573271049255575E-3   8.688912386316118E-4  
 2.037200000000000E10   -3.236628930877757E-3   1.465442594727156E-3  
 2.037400000000000E10   -2.810139838537133E-3   1.943979955588778E-3  
 2.037600000000000E10   -2.364109020197281E-3   2.289365623491230E-3  
 2.037800000000000E10   -1.937981807040396E-3   2.562490102179625E-3  
 2.038000000000000E10   -1.492175674583349E-3   2.798459759947879E-3  
 2.038200000000000E10   -9.850095957517624E-4   2.911797681547426E-3  
 2.038400000000000E10   -5.462941071191045E-4   2.957263754473792E-3  
 2.038600000000000E10   -1.203314561819382E-4   2.994620620652482E-3  
 2.038800000000000E10    3.618109309442203E-4   2.982884766189037E-3  
 2.039000000000000E10    8.513035610559639E-4   2.891584532335401E-3  
 2.039200000000000E10    1.332019498847701E-3   2.685633384519153E-3  
 2.039400000000000E10    1.761665636742557E-3   2.358225096638004E-3  
 2.039600000000000E10    2.070129064291164E-3   2.014424781211549E-3  
 2.039800000000000E10    2.355940191558114E-3   1.655662643585216E-3  
 2.040000000000000E10    2.569862408563495E-3   1.220342664358517E-3  
 2.040200000000000E10    2.697343653481868E-3   7.973464024770593E-4  
 2.040400000000000E10    2.809764481046134E-3   3.647560585738609E-4  
 2.040600000000000E10    2.823989346830382E-3  -1.472356487755423E-4  
 2.040800000000000E10    2.706117195042748E-3  -6.271678333481153E-4  
 2.041000000000000E10    2.531795158844304E-3  -1.060146290843410E-3  
 2.041200000000000E10    2.280875324720034E-3  -1.466323681934564E-3  
 2.041400000000000E10    1.981384056206379E-3  -1.789150694902573E-3  
 2.041600000000000E10    1.687901021257319E-3  -2.090236413534041E-3  
 2.041800000000000E10    1.294597931620148E-3  -2.396469823671160E-3  
 2.042000000000000E10    7.659641064324037E-4  -2.601825632154942E-3  
 2.042200000000000E10    1.963477886790686E-4  -2.640032261196110E-3  
 2.042400000000000E10   -3.232798168297720E-4  -2.511358345617299E-3  
 2.042600000000000E10   -7.510427428685407E-4  -2.258239253596576E-3  
 2.042800000000000E10   -1.063287907055821E-3  -1.921389592570012E-3  
 2.043000000000000E10   -1.207129352864016E-3  -1.573557784366939E-3  
 2.043200000000000E10   -1.269678223050303E-3  -1.322145556548128E-3  
 2.043400000000000E10   -1.298720301646326E-3  -1.152995797046633E-3  
 2.043600000000000E10   -1.332387595471961E-3  -1.058877368147175E-3  
 2.043800000000000E10   -1.451376446143345E-3  -1.010042438456030E-3  
 2.044000000000000E10   -1.696570267624878E-3  -9.036830505701129E-4  
 2.044200000000000E10   -1.989855491383761E-3  -6.807389156030560E-4  
 2.044400000000000E10   -2.262387873121986E-3  -2.687396783450688E-4  
 2.044600000000000E10   -2.328968718992892E-3   3.578968128379159E-4  
 2.044800000000000E10   -2.040317583898152E-3   9.533029299712293E-4  
 2.045000000000000E10   -1.562859242161115E-3   1.244935672730207E-3  
 2.045200000000000E10   -1.202005556681090E-3   1.296217557629226E-3  
 2.045400000000000E10   -9.679639242003086E-4   1.306538599439793E-3  
 2.045600000000000E10   -7.937063756226390E-4   1.282122934720031E-3  
 2.045800000000000E10   -6.993720286387813E-4   1.299064627986540E-3  
 2.046000000000000E10   -5.851339320307253E-4   1.426988897879643E-3  
 2.046200000000000E10   -3.952493597925814E-4   1.553057671386611E-3  
 2.046400000000000E10   -1.430042935276611E-4   1.622251403104100E-3  
 2.046600000000000E10    1.394966659265467E-4   1.620652774969737E-3  
 2.046800000000000E10    4.061965468011935E-4   1.529998762567562E-3  
 2.047000000000000E10    6.272871741438630E-4   1.394072465633077E-3  
 2.047200000000000E10    7.952537767037199E-4   1.241438448670562E-3  
 2.047400000000000E10    8.672640822758831E-4   1.096228206599200E-3  
 2.047600000000000E10    9.342055569437368E-4   1.044266322558677E-3  
 2.047800000000000E10    1.118815948117387E-3   9.810159336430609E-4  
 2.048000000000000E10    1.322775579023141E-3   8.030753276586810E-4  
 2.048200000000000E10    1.431434423904176E-3   5.674608810632318E-4  
 2.048400000000000E10    1.483146532404202E-3   3.245485142408008E-4  
 2.048600000000000E10    1.460762034791211E-3   1.009029462390269E-4  
 2.048800000000000E10    1.399132250635713E-3  -7.798938922523695E-5  
 2.049000000000000E10    1.349305557259531E-3  -2.310289219841017E-4  
 2.049200000000000E10    1.310767023824155E-3  -3.438049030524714E-4  
 2.049400000000000E10    1.317393336514080E-3  -4.182879832418015E-4  
 2.049600000000000E10    1.379425223502848E-3  -5.440834146510396E-4  
 2.049800000000000E10    1.451428897713346E-3  -7.574575849705273E-4  
 2.050000000000000E10    1.509872372952049E-3  -1.054424184581472E-3  
 2.050200000000000E10    1.471212181193685E-3  -1.481497233423094E-3  
 2.050400000000000E10    1.231554395484704E-3  -1.972316876398745E-3  
 2.050600000000000E10    7.431149801791267E-4  -2.375955400229605E-3  
 2.050800000000000E10    7.413902548486712E-5  -2.541105012857804E-3  
 2.051000000000000E10   -6.157719267152802E-4  -2.395690315299564E-3  
 2.051200000000000E10   -1.091474399867433E-3  -2.007701796376043E-3  
 2.051400000000000E10   -1.285715175240680E-3  -1.583778273521198E-3  
 2.051600000000000E10   -1.328459833058770E-3  -1.288054058224791E-3  
 2.051800000000000E10   -1.362989518653464E-3  -1.150950621296134E-3  
 2.052000000000000E10   -1.489023298577026E-3  -1.038022498876133E-3  
 2.052200000000000E10   -1.639763850511777E-3  -8.387261165167999E-4  
 2.052400000000000E10   -1.735866143092237E-3  -6.396836230393362E-4  
 2.052600000000000E10   -1.822332735173404E-3  -4.623793087106337E-4  
 2.052800000000000E10   -1.971490957118847E-3  -2.546326178600322E-4  
 2.053000000000000E10   -2.103521393750001E-3   7.000070763751864E-5  
 2.053200000000000E10   -2.121629288282108E-3   4.323865243889116E-4  
 2.053400000000000E10   -2.108987153473276E-3   7.807372129280811E-4  
 2.053600000000000E10   -2.071662969818270E-3   1.201643052303957E-3  
 2.053800000000000E10   -1.889425291058918E-3   1.674148948276761E-3  
 2.054000000000000E10   -1.499147473455028E-3   2.084212808835286E-3  
 2.054200000000000E10   -1.022297007255946E-3   2.332015532172389E-3  
 2.054400000000000E10   -5.262226924834843E-4   2.411295125191963E-3  
 2.054600000000000E10   -7.215103195684844E-5   2.373214629996154E-3  
 2.054800000000000E10    2.993647250588294E-4   2.256925752455438E-3  
 2.055000000000000E10    5.831631693851066E-4   2.079988545220760E-3  
 2.055200000000000E10    7.613176691207898E-4   1.921067126440229E-3  
 2.055400000000000E10    9.317330033000973E-4   1.880802240015732E-3  
 2.055600000000000E10    1.207563935572075E-3   1.892786800723385E-3  
