#  HZ   S   RI   R     50.00 
! Rohde & Schwarz ZVA40 4Ports - Version 3.90 - 1145.1110k42 SN: 100403
! Date: 2023-10-03 11:35:09
! Measurement: S12 
! 
 2.000000000000000E10   -4.935412257603167E-3  -2.860094861999993E-4  
 2.000200000000000E10   -4.997993233666049E-3   5.213324791325107E-4  
 2.000400000000000E10   -4.830542517460588E-3   1.409600002420313E-3  
 2.000600000000000E10   -4.433461752386741E-3   2.261510209866451E-3  
 2.000800000000000E10   -3.851101239977101E-3   2.929167067619304E-3  
 2.001000000000000E10   -3.281392639347024E-3   3.339385556310048E-3  
 2.001200000000000E10   -2.854157628207909E-3   3.688890036305385E-3  
 2.001400000000000E10   -2.381080146738429E-3   4.139111208664292E-3  
 2.001600000000000E10   -1.654152819262090E-3   4.649556844925767E-3  
 2.001800000000000E10   -7.649774968800416E-4   4.959732982673682E-3  
 2.002000000000000E10    1.293810153007376E-4   5.075171851745931E-3  
 2.002200000000000E10    1.042874464005058E-3   4.999353678766715E-3  
 2.002400000000000E10    1.926245951618801E-3   4.782717855102977E-3  
 2.002600000000000E10    2.786689001009052E-3   4.355742222411030E-3  
 2.002800000000000E10    3.525692456949947E-3   3.778509569861538E-3  
 2.003000000000000E10    4.131796962066729E-3   3.033544467404404E-3  
 2.003200000000000E10    4.488854865136012E-3   2.193687176101922E-3  
 2.003400000000000E10    4.698046423055345E-3   1.364249827094959E-3  
 2.003600000000000E10    4.799604020496661E-3   5.521171117700964E-4  
 2.003800000000000E10    4.775859325464984E-3  -2.296276435056630E-4  
 2.004000000000000E10    4.663655543329376E-3  -9.370067349918679E-4  
 2.004200000000000E10    4.457134978950474E-3  -1.669947921256286E-3  
 2.004400000000000E10    4.094027762719020E-3  -2.409689442033590E-3  
 2.004600000000000E10    3.615710187757028E-3  -3.053631224070353E-3  
 2.004800000000000E10    3.059337080733542E-3  -3.548812772056653E-3  
 2.005000000000000E10    2.491663177836232E-3  -3.931257796482745E-3  
 2.005200000000000E10    1.851536507784697E-3  -4.257420277215327E-3  
 2.005400000000000E10    1.124715167755678E-3  -4.504227181015070E-3  
 2.005600000000000E10    3.648842002242161E-4  -4.670652701418506E-3  
 2.005800000000000E10   -4.067830433998774E-4  -4.756913665395910E-3  
 2.006000000000000E10   -1.224346398229012E-3  -4.707965790326050E-3  
 2.006200000000000E10   -2.052146752987093E-3  -4.472335375748341E-3  
 2.006400000000000E10   -2.864740216281823E-3  -4.046241333133277E-3  
 2.006600000000000E10   -3.562124770847552E-3  -3.462495673217892E-3  
 2.006800000000000E10   -4.091066721601947E-3  -2.749229118608664E-3  
 2.007000000000000E10   -4.465454152628105E-3  -1.978741391512102E-3  
 2.007200000000000E10   -4.735220812608595E-3  -1.143932127105059E-3  
 2.007400000000000E10   -4.823689428202819E-3  -2.373869889005393E-4  
 2.007600000000000E10   -4.754404162423397E-3   6.226301293044681E-4  
 2.007800000000000E10   -4.503141994752880E-3   1.449640161282446E-3  
 2.008000000000000E10   -4.042437827707727E-3   2.120312754593698E-3  
 2.008200000000000E10   -3.540334305170265E-3   2.605586807755818E-3  
 2.008400000000000E10   -3.159587370520471E-3   2.991992248533951E-3  
 2.008600000000000E10   -2.810038612779889E-3   3.473133567672106E-3  
 2.008800000000000E10   -2.266708689592319E-3   3.982269242201486E-3  
 2.009000000000000E10   -1.562090014108803E-3   4.340634270557120E-3  
 2.009200000000000E10   -8.295071486157555E-4   4.540795588735568E-3  
 2.009400000000000E10   -1.165170963949892E-4   4.693704383225476E-3  
 2.009600000000000E10    7.191648454001668E-4   4.858123023568849E-3  
 2.009800000000000E10    1.731380752884414E-3   4.794535023991955E-3  
 2.010000000000000E10    2.713913904101843E-3   4.340168271361964E-3  
 2.010200000000000E10    3.518611779730303E-3   3.658591127674644E-3  
 2.010400000000000E10    4.073869821517148E-3   2.859607043794889E-3  
 2.010600000000000E10    4.377118882880291E-3   2.016951966218252E-3  
 2.010800000000000E10    4.493526562496469E-3   1.238211847277070E-3  
 2.011000000000000E10    4.532959669271411E-3   5.374463873599824E-4  
 2.011200000000000E10    4.592896934818421E-3  -1.101948941907040E-4  
 2.011400000000000E10    4.636431596432245E-3  -8.617853207656776E-4  
 2.011600000000000E10    4.537754324846103E-3  -1.690658537251939E-3  
 2.011800000000000E10    4.201551889732419E-3  -2.543621232786788E-3  
 2.012000000000000E10    3.595713134446222E-3  -3.299942742828766E-3  
 2.012200000000000E10    2.843306090399133E-3  -3.817572872268116E-3  
 2.012400000000000E10    2.154172732225212E-3  -4.117126070060072E-3  
 2.012600000000000E10    1.540556774392919E-3  -4.358943448937275E-3  
 2.012800000000000E10    8.591375418616759E-4  -4.620749550004106E-3  
 2.013000000000000E10    7.207448523728287E-5  -4.806959209516543E-3  
 2.013200000000000E10   -7.942640020598919E-4  -4.809329067759309E-3  
 2.013400000000000E10   -1.602141911276350E-3  -4.625577389534732E-3  
 2.013600000000000E10   -2.383933956409065E-3  -4.338565357898163E-3  
 2.013800000000000E10   -3.215634264690682E-3  -3.903946304624832E-3  
 2.014000000000000E10   -3.996344843421986E-3  -3.237268243263513E-3  
 2.014200000000000E10   -4.575204165506756E-3  -2.345250615408065E-3  
 2.014400000000000E10   -4.792453983698977E-3  -1.436032404655537E-3  
 2.014600000000000E10   -4.847684043455763E-3  -6.452057480592337E-4  
 2.014800000000000E10   -4.863351266652305E-3   1.473198313256777E-4  
 2.015000000000000E10   -4.764577502893242E-3   9.969404787757781E-4  
 2.015200000000000E10   -4.506578852916942E-3   1.814855424884007E-3  
 2.015400000000000E10   -4.176466808167629E-3   2.501894606836907E-3  
 2.015600000000000E10   -3.746863797917677E-3   3.155115939132532E-3  
 2.015800000000000E10   -3.205681285490021E-3   3.766337697699523E-3  
 2.016000000000000E10   -2.542320406383775E-3   4.325269120368489E-3  
 2.016200000000000E10   -1.753198983695803E-3   4.753661812097857E-3  
 2.016400000000000E10   -8.588682768952017E-4   5.007429832825119E-3  
 2.016600000000000E10    4.229716130330154E-5   5.062097917337723E-3  
 2.016800000000000E10    9.309704717637051E-4   4.984042342159443E-3  
 2.017000000000000E10    1.825189199241132E-3   4.763620567670289E-3  
 2.017200000000000E10    2.680911586092292E-3   4.377036386096675E-3  
 2.017400000000000E10    3.446074372568822E-3   3.780803413849595E-3  
 2.017600000000000E10    4.032025768438199E-3   3.022506193031745E-3  
 2.017800000000000E10    4.394795459443487E-3   2.241847973408891E-3  
 2.018000000000000E10    4.618692230969791E-3   1.469636391222334E-3  
 2.018200000000000E10    4.707214426356580E-3   7.287925334432672E-4  
 2.018400000000000E10    4.703741342427186E-3   1.705955342983376E-5  
 2.018600000000000E10    4.645795400403900E-3  -6.834771068937904E-4  
 2.018800000000000E10    4.571694204908258E-3  -1.377406031843812E-3  
 2.019000000000000E10    4.432978400441887E-3  -2.144979824987847E-3  
 2.019200000000000E10    4.119349887597136E-3  -2.949480055186218E-3  
 2.019400000000000E10    3.591965080081742E-3  -3.700021075644366E-3  
 2.019600000000000E10    2.928835876728057E-3  -4.405147186512402E-3  
 2.019800000000000E10    2.034989888754269E-3  -5.008125479686981E-3  
 2.020000000000000E10    9.967598847569631E-4  -5.366450652802064E-3  
 2.020200000000000E10   -1.049952569587887E-4  -5.407830015519846E-3  
 2.020400000000000E10   -1.107945859870415E-3  -5.143007138981619E-3  
 2.020600000000000E10   -1.949128110040956E-3  -4.726139393562276E-3  
 2.020800000000000E10   -2.710264319533531E-3  -4.188105402659978E-3  
 2.021000000000000E10   -3.286135927818726E-3  -3.515867743480170E-3  
 2.021200000000000E10   -3.580820427016855E-3  -2.881620016360377E-3  
 2.021400000000000E10   -3.879084634442594E-3  -2.453007971017082E-3  
 2.021600000000000E10   -4.322724677469015E-3  -1.972125152340581E-3  
 2.021800000000000E10   -4.743383846032359E-3  -1.250140528310862E-3  
 2.022000000000000E10   -4.952741988688014E-3  -4.118430705651462E-4  
 2.022200000000000E10   -4.953282135340740E-3   4.605671886394768E-4  
 2.022400000000000E10   -4.809258579160247E-3   1.306257245963790E-3  
 2.022600000000000E10   -4.525427806826082E-3   2.151984708966236E-3  
 2.022800000000000E10   -4.095416608686842E-3   2.937771829320387E-3  
 2.023000000000000E10   -3.520706779322242E-3   3.607680180476691E-3  
 2.023200000000000E10   -2.856691699763773E-3   4.160619003567922E-3  
 2.023400000000000E10   -2.101868623548248E-3   4.609236936372372E-3  
 2.023600000000000E10   -1.270160903331450E-3   4.869964949158117E-3  
 2.023800000000000E10   -4.828602617890134E-4   4.986926360727788E-3  
 2.024000000000000E10    3.570540697075586E-4   5.038068603611819E-3  
 2.024200000000000E10    1.256276701994762E-3   4.922463561169324E-3  
 2.024400000000000E10    2.075360940363059E-3   4.586317758516643E-3  
 2.024600000000000E10    2.762614045450554E-3   4.151328913969677E-3  
 2.024800000000000E10    3.399888982303922E-3   3.663446678523235E-3  
 2.025000000000000E10    3.963759545216387E-3   3.053971544222394E-3  
 2.025200000000000E10    4.437790475836834E-3   2.365562760121661E-3  
 2.025400000000000E10    4.794451685951939E-3   1.618853415520951E-3  
 2.025600000000000E10    5.034316365641577E-3   8.264151195815379E-4  
 2.025800000000000E10    5.138683072783166E-3  -3.406430244059670E-5  
 2.026000000000000E10    5.081333463375339E-3  -9.191135059216857E-4  
 2.026200000000000E10    4.887860932033535E-3  -1.823309449982333E-3  
 2.026400000000000E10    4.485637571698436E-3  -2.692097328176572E-3  
 2.026600000000000E10    3.946103299335566E-3  -3.446132530405893E-3  
 2.026800000000000E10    3.285936930757247E-3  -4.077876362290403E-3  
 2.027000000000000E10    2.521766731336673E-3  -4.609078424375898E-3  
 2.027200000000000E10    1.628877337484152E-3  -4.984806176780919E-3  
 2.027400000000000E10    7.166645715756671E-4  -5.119221634391200E-3  
 2.027600000000000E10   -1.530197506876847E-4  -5.112038403417308E-3  
 2.027800000000000E10   -9.961884108848555E-4  -4.933330857045490E-3  
 2.028000000000000E10   -1.729447839191421E-3  -4.647813183581265E-3  
 2.028200000000000E10   -2.412140160857793E-3  -4.328792925607235E-3  
 2.028400000000000E10   -3.100582348011608E-3  -3.920099121839095E-3  
 2.028600000000000E10   -3.753163185244011E-3  -3.368853030225521E-3  
 2.028800000000000E10   -4.296977394254080E-3  -2.659375795299911E-3  
 2.029000000000000E10   -4.686891332534443E-3  -1.910690682114898E-3  
 2.029200000000000E10   -4.992068290393621E-3  -1.133531172164500E-3  
 2.029400000000000E10   -5.199557346571621E-3  -2.497357801738322E-4  
 2.029600000000000E10   -5.201328351623564E-3   7.506233715229965E-4  
 2.029800000000000E10   -4.902384765778346E-3   1.739649554019582E-3  
 2.030000000000000E10   -4.409811682411469E-3   2.515079056593719E-3  
 2.030200000000000E10   -3.879477791820330E-3   3.159056436487657E-3  
 2.030400000000000E10   -3.289046365478996E-3   3.788679346649184E-3  
 2.030600000000000E10   -2.536490872573869E-3   4.320067243039895E-3  
 2.030800000000000E10   -1.676582908883834E-3   4.666594218013014E-3  
 2.031000000000000E10   -7.801903710369692E-4   4.819430391698954E-3  
 2.031200000000000E10    4.339919355322655E-5   4.754575479147121E-3  
 2.031400000000000E10    7.734727329224483E-4   4.596423138627995E-3  
 2.031600000000000E10    1.462564257513962E-3   4.385559361003882E-3  
 2.031800000000000E10    2.144285208138092E-3   4.079006764327467E-3  
 2.032000000000000E10    2.784123923374016E-3   3.623512365940872E-3  
 2.032200000000000E10    3.326809671560536E-3   3.072394961644532E-3  
 2.032400000000000E10    3.757599270129666E-3   2.444583444187957E-3  
 2.032600000000000E10    4.071312343934232E-3   1.782867379757399E-3  
 2.032800000000000E10    4.317411128942574E-3   1.091451855537332E-3  
 2.033000000000000E10    4.440054832095350E-3   3.543758310699537E-4  
 2.033200000000000E10    4.415857139336066E-3  -3.918226842563447E-4  
 2.033400000000000E10    4.296375854408423E-3  -1.112077550148778E-3  
 2.033600000000000E10    4.239863610669296E-3  -1.458787253740997E-3  
 2.033800000000000E10    3.683196135767224E-3  -2.618877767790902E-3  
 2.034000000000000E10    3.084691861626502E-3  -3.295920883140569E-3  
 2.034200000000000E10    2.317844630079792E-3  -3.799171903680382E-3  
 2.034400000000000E10    1.427222157295778E-3  -4.060443229487855E-3  
 2.034600000000000E10    5.838603582309844E-4  -4.048018301077015E-3  
 2.034800000000000E10   -7.992772041948523E-5  -3.851167032998491E-3  
 2.035000000000000E10   -5.627070308952952E-4  -3.628365895091282E-3  
 2.035200000000000E10   -1.023235454639888E-3  -3.445650364971109E-3  
 2.035400000000000E10   -1.497923215117883E-3  -3.229750942155229E-3  
 2.035600000000000E10   -1.933296107264193E-3  -2.952635699604602E-3  
 2.035800000000000E10   -2.333987469111655E-3  -2.643056551444208E-3  
 2.036000000000000E10   -2.759052939081900E-3  -2.275855275348790E-3  
 2.036200000000000E10   -3.132028876329851E-3  -1.797810897125067E-3  
 2.036400000000000E10   -3.460213207270547E-3  -1.261573944870633E-3  
 2.036600000000000E10   -3.715559379970566E-3  -6.139512378716043E-4  
 2.036800000000000E10   -3.806554712674521E-3   1.558442263520963E-4  
 2.037000000000000E10   -3.630766181328906E-3   9.674394800422257E-4  
 2.037200000000000E10   -3.213310232884232E-3   1.651048337860577E-3  
 2.037400000000000E10   -2.682709541371085E-3   2.112081314951938E-3  
 2.037600000000000E10   -2.169854830712878E-3   2.363767480638660E-3  
 2.037800000000000E10   -1.735875663438248E-3   2.544988316594941E-3  
 2.038000000000000E10   -1.312311911995080E-3   2.712350044225756E-3  
 2.038200000000000E10   -8.550784237611279E-4   2.830091443561805E-3  
 2.038400000000000E10   -4.308612284455602E-4   2.885443624428414E-3  
 2.038600000000000E10   -1.275724803366791E-6   2.920235452575633E-3  
 2.038800000000000E10    4.826582436431382E-4   2.878965995503163E-3  
 2.039000000000000E10    9.634631786678135E-4   2.701350726028815E-3  
 2.039200000000000E10    1.385533157927694E-3   2.450891150498894E-3  
 2.039400000000000E10    1.728166611443577E-3   2.126839105167589E-3  
 2.039600000000000E10    1.963684934834006E-3   1.794249548983029E-3  
 2.039800000000000E10    2.210759655195602E-3   1.457176917163587E-3  
 2.040000000000000E10    2.379719084908034E-3   1.037974620000964E-3  
 2.040200000000000E10    2.447874400258801E-3   6.387104485976027E-4  
 2.040400000000000E10    2.509679811379383E-3   3.105047941706125E-4  
 2.040600000000000E10    2.558764091351764E-3  -6.322176467955612E-5  
 2.040800000000000E10    2.526489972099867E-3  -4.672424116239607E-4  
 2.041000000000000E10    2.443899346556418E-3  -9.068765618266035E-4  
 2.041200000000000E10    2.241203590169733E-3  -1.351613271119142E-3  
 2.041400000000000E10    1.920837452424376E-3  -1.690618490221539E-3  
 2.041600000000000E10    1.598135069164669E-3  -1.958539809096498E-3  
 2.041800000000000E10    1.231776576122558E-3  -2.220767080037764E-3  
 2.042000000000000E10    7.779948913287219E-4  -2.422914188738468E-3  
 2.042200000000000E10    2.551332394549667E-4  -2.512275848144203E-3  
 2.042400000000000E10   -2.459858772570053E-4  -2.413694385888850E-3  
 2.042600000000000E10   -6.259048522248180E-4  -2.185872251318643E-3  
 2.042800000000000E10   -9.274885707709873E-4  -1.908629374139124E-3  
 2.043000000000000E10   -1.116027153449693E-3  -1.611642458218065E-3  
 2.043200000000000E10   -1.188360079733300E-3  -1.366332604834716E-3  
 2.043400000000000E10   -1.222342461927581E-3  -1.180777125813026E-3  
 2.043600000000000E10   -1.252020058632204E-3  -1.100917139016501E-3  
 2.043800000000000E10   -1.400697170386273E-3  -1.064727743892753E-3  
 2.044000000000000E10   -1.671486734910849E-3  -9.470325900243011E-4  
 2.044200000000000E10   -1.975658977600978E-3  -7.177592151056062E-4  
 2.044400000000000E10   -2.225416769632567E-3  -3.052168204854735E-4  
 2.044600000000000E10   -2.256551828358031E-3   2.498803744111747E-4  
 2.044800000000000E10   -2.015404568490699E-3   7.472664278463063E-4  
 2.045000000000000E10   -1.684148745120737E-3   9.967770605681489E-4  
 2.045200000000000E10   -1.448154646203188E-3   1.083391513362456E-3  
 2.045400000000000E10   -1.277956066254542E-3   1.199390633007453E-3  
 2.045600000000000E10   -1.096880691322730E-3   1.311338992581150E-3  
 2.045800000000000E10   -9.416816685066416E-4   1.437249270380208E-3  
 2.046000000000000E10   -7.693991187189557E-4   1.615909592533390E-3  
 2.046200000000000E10   -5.257549120460743E-4   1.778795204696403E-3  
 2.046400000000000E10   -2.149267505449710E-4   1.876999277542301E-3  
 2.046600000000000E10    1.442965810513985E-4   1.884950203048155E-3  
 2.046800000000000E10    4.770277762758088E-4   1.783742604519155E-3  
 2.047000000000000E10    7.270507939895731E-4   1.619063756449100E-3  
 2.047200000000000E10    8.969589637813450E-4   1.409231053520919E-3  
 2.047400000000000E10    9.624624938003987E-4   1.223874434385454E-3  
 2.047600000000000E10    1.068547351441675E-3   1.146448173928132E-3  
 2.047800000000000E10    1.280209394836152E-3   1.050305603083545E-3  
 2.048000000000000E10    1.483336859638196E-3   8.420432847189949E-4  
 2.048200000000000E10    1.588439821669339E-3   6.091492849805192E-4  
 2.048400000000000E10    1.657654830083425E-3   3.669082773743972E-4  
 2.048600000000000E10    1.698977042140314E-3   1.083832495220342E-4  
 2.048800000000000E10    1.696415106281741E-3  -1.491951804066912E-4  
 2.049000000000000E10    1.624300189965261E-3  -3.902070293830905E-4  
 2.049200000000000E10    1.491814566870694E-3  -5.566991414665278E-4  
 2.049400000000000E10    1.396096142875069E-3  -6.589137531295725E-4  
 2.049600000000000E10    1.345285104775472E-3  -7.826832516900737E-4  
 2.049800000000000E10    1.360637315776358E-3  -9.318035588100227E-4  
 2.050000000000000E10    1.413546342578997E-3  -1.179708303648606E-3  
 2.050200000000000E10    1.377088368285207E-3  -1.578080777681864E-3  
 2.050400000000000E10    1.116095503935251E-3  -2.024847473080471E-3  
 2.050600000000000E10    6.449139105770559E-4  -2.390652938409925E-3  
 2.050800000000000E10    3.903529303135533E-5  -2.560989064418690E-3  
 2.051000000000000E10   -5.974977573287893E-4  -2.474905782480136E-3  
 2.051200000000000E10   -1.103819760561644E-3  -2.129936800625774E-3  
 2.051400000000000E10   -1.364236565649162E-3  -1.689179730665486E-3  
 2.051600000000000E10   -1.430918659474471E-3  -1.360523991449002E-3  
 2.051800000000000E10   -1.493658726895675E-3  -1.201026944893276E-3  
 2.052000000000000E10   -1.674255872476177E-3  -1.035280892656112E-3  
 2.052200000000000E10   -1.810294311859011E-3  -7.447496047613962E-4  
 2.052400000000000E10   -1.837510854645859E-3  -4.578474014393848E-4  
 2.052600000000000E10   -1.820369431013127E-3  -2.574951763057875E-4  
 2.052800000000000E10   -1.876062580699865E-3  -1.269337600232399E-4  
 2.053000000000000E10   -2.006837594181054E-3   9.595261259845729E-5  
 2.053200000000000E10   -2.068543516671789E-3   4.152349107426085E-4  
 2.053400000000000E10   -2.090451357099234E-3   7.711476719023505E-4  
 2.053600000000000E10   -2.058135379432856E-3   1.210197666947397E-3  
 2.053800000000000E10   -1.854462237371993E-3   1.708196213408865E-3  
 2.054000000000000E10   -1.438996712428062E-3   2.102728331057849E-3  
 2.054200000000000E10   -9.448453246626049E-4   2.319331356581040E-3  
 2.054400000000000E10   -4.591475691935700E-4   2.390899464222303E-3  
 2.054600000000000E10   -2.480925784651665E-5   2.374671141531406E-3  
 2.054800000000000E10    3.892596096754719E-4   2.253670987337112E-3  
 2.055000000000000E10    7.202512941058772E-4   2.021740829132610E-3  
 2.055200000000000E10    9.090552875894763E-4   1.782553062700144E-3  
 2.055400000000000E10    1.044542286117064E-3   1.651331443954081E-3  
 2.055600000000000E10    1.225590446372408E-3   1.582283153618969E-3  
