#  HZ   S   RI   R     50.00 
! Rohde & Schwarz ZVA40 4Ports - Version 3.90 - 1145.1110k42 SN: 100403
! Date: 2023-10-03 11:35:59
! Measurement: S12 
! 
 2.000000000000000E10   -5.039265034375368E-3  -1.198757421729239E-5  
 2.000200000000000E10   -4.979059445085350E-3   7.788810482317652E-4  
 2.000400000000000E10   -4.808415417317992E-3   1.596566375896887E-3  
 2.000600000000000E10   -4.457755204014205E-3   2.403989692942964E-3  
 2.000800000000000E10   -3.878712490269984E-3   3.073614409745292E-3  
 2.001000000000000E10   -3.237365098256204E-3   3.563647443014715E-3  
 2.001200000000000E10   -2.657912042060937E-3   3.964294920916912E-3  
 2.001400000000000E10   -2.100043852503101E-3   4.371738233776005E-3  
 2.001600000000000E10   -1.368214527179522E-3   4.764630010834447E-3  
 2.001800000000000E10   -4.888819907878147E-4   4.933030430779414E-3  
 2.002000000000000E10    3.930346671647082E-4   4.908699663011013E-3  
 2.002200000000000E10    1.248692201140026E-3   4.747178784951017E-3  
 2.002400000000000E10    2.016586984542233E-3   4.510717535460437E-3  
 2.002600000000000E10    2.717588148597214E-3   4.097756257073747E-3  
 2.002800000000000E10    3.321278590226064E-3   3.587520025946476E-3  
 2.003000000000000E10    3.923400908846547E-3   2.975015124926965E-3  
 2.003200000000000E10    4.417742826734429E-3   2.251384417629905E-3  
 2.003400000000000E10    4.750916768831236E-3   1.435228278515516E-3  
 2.003600000000000E10    4.885929102009095E-3   5.527395815416068E-4  
 2.003800000000000E10    4.821163740147044E-3  -3.570236445671913E-4  
 2.004000000000000E10    4.566066294770551E-3  -1.181453065429297E-3  
 2.004200000000000E10    4.214630876150397E-3  -1.853508029684977E-3  
 2.004400000000000E10    3.824468978025295E-3  -2.396888539402022E-3  
 2.004600000000000E10    3.384132498737287E-3  -2.883878717612890E-3  
 2.004800000000000E10    2.880162257632172E-3  -3.311777383916909E-3  
 2.005000000000000E10    2.372784471070325E-3  -3.698059521546520E-3  
 2.005200000000000E10    1.827895783612298E-3  -4.067826421103545E-3  
 2.005400000000000E10    1.231711181053133E-3  -4.352148708507971E-3  
 2.005600000000000E10    5.112301204698506E-4  -4.598661360365373E-3  
 2.005800000000000E10   -3.252784145944235E-4  -4.700403522562098E-3  
 2.006000000000000E10   -1.210658039242305E-3  -4.640416328415827E-3  
 2.006200000000000E10   -2.055197992982964E-3  -4.389161088814339E-3  
 2.006400000000000E10   -2.804861317768141E-3  -3.935985543109753E-3  
 2.006600000000000E10   -3.428013503758444E-3  -3.312567645614899E-3  
 2.006800000000000E10   -3.885127586761007E-3  -2.625185237438591E-3  
 2.007000000000000E10   -4.251418945689997E-3  -1.954915364169412E-3  
 2.007200000000000E10   -4.538142467262569E-3  -1.220799478081366E-3  
 2.007400000000000E10   -4.651674397151780E-3  -3.952385552650042E-4  
 2.007600000000000E10   -4.587132397487209E-3   4.556374430345993E-4  
 2.007800000000000E10   -4.354132356605044E-3   1.255539802110030E-3  
 2.008000000000000E10   -3.973341064044724E-3   1.904282296352365E-3  
 2.008200000000000E10   -3.571144391403154E-3   2.363610348698718E-3  
 2.008400000000000E10   -3.251018623510997E-3   2.741211628610338E-3  
 2.008600000000000E10   -2.929904791354030E-3   3.247668457872890E-3  
 2.008800000000000E10   -2.420582170425742E-3   3.814613420723214E-3  
 2.009000000000000E10   -1.780094281356368E-3   4.241217548648517E-3  
 2.009200000000000E10   -1.121490827278683E-3   4.517208784818649E-3  
 2.009400000000000E10   -4.106218391960418E-4   4.750354646670598E-3  
 2.009600000000000E10    4.796233961651861E-4   4.967938263521151E-3  
 2.009800000000000E10    1.544399501721340E-3   4.952846836574652E-3  
 2.010000000000000E10    2.581087587815193E-3   4.573636395097883E-3  
 2.010200000000000E10    3.466923039889446E-3   3.924988874199766E-3  
 2.010400000000000E10    4.085544962435961E-3   3.088889514199562E-3  
 2.010600000000000E10    4.470332422190243E-3   2.198104694899586E-3  
 2.010800000000000E10    4.662648878163762E-3   1.370068324764294E-3  
 2.011000000000000E10    4.729144913316877E-3   6.297858479363775E-4  
 2.011200000000000E10    4.744828592433975E-3  -9.422654208416742E-5  
 2.011400000000000E10    4.675233132999253E-3  -8.789344617441574E-4  
 2.011600000000000E10    4.519444976553873E-3  -1.698554859979561E-3  
 2.011800000000000E10    4.214027361875332E-3  -2.522168758635720E-3  
 2.012000000000000E10    3.674217008261218E-3  -3.254405955818517E-3  
 2.012200000000000E10    2.937326802768641E-3  -3.786367890252560E-3  
 2.012400000000000E10    2.257759234419576E-3  -4.106814835082602E-3  
 2.012600000000000E10    1.647217263881531E-3  -4.430939063981728E-3  
 2.012800000000000E10    9.565235469145356E-4  -4.757027969592148E-3  
 2.013000000000000E10    1.304938977463516E-4  -4.962235568436208E-3  
 2.013200000000000E10   -8.040797913929931E-4  -4.946206799811788E-3  
 2.013400000000000E10   -1.703007452845298E-3  -4.753111585698746E-3  
 2.013600000000000E10   -2.603742630324430E-3  -4.442807424951484E-3  
 2.013800000000000E10   -3.472958570691171E-3  -3.898188644261272E-3  
 2.014000000000000E10   -4.168227297702322E-3  -3.087194921034906E-3  
 2.014200000000000E10   -4.587126085189758E-3  -2.107591273401071E-3  
 2.014400000000000E10   -4.683280518899362E-3  -1.180774562440261E-3  
 2.014600000000000E10   -4.678297391230310E-3  -4.692864194684835E-4  
 2.014800000000000E10   -4.679616833864539E-3   1.887005179284003E-4  
 2.015000000000000E10   -4.610821570235271E-3   9.276937365669895E-4  
 2.015200000000000E10   -4.403895836461474E-3   1.690456781674315E-3  
 2.015400000000000E10   -4.103330671097394E-3   2.410571478928129E-3  
 2.015600000000000E10   -3.702022954476653E-3   3.094594925642014E-3  
 2.015800000000000E10   -3.147558688565537E-3   3.698604259019097E-3  
 2.016000000000000E10   -2.458158026759823E-3   4.214794357755671E-3  
 2.016200000000000E10   -1.694553173837011E-3   4.622067566271182E-3  
 2.016400000000000E10   -8.369080972409362E-4   4.897884955560721E-3  
 2.016600000000000E10    4.710000235650956E-5   4.979263559949619E-3  
 2.016800000000000E10    9.041436585701177E-4   4.876461949337413E-3  
 2.017000000000000E10    1.746172089716075E-3   4.627068251095437E-3  
 2.017200000000000E10    2.554637207477182E-3   4.236696995104906E-3  
 2.017400000000000E10    3.283469437587041E-3   3.720069036784548E-3  
 2.017600000000000E10    3.862153195465605E-3   3.056633605242328E-3  
 2.017800000000000E10    4.236893124740434E-3   2.303441382806611E-3  
 2.018000000000000E10    4.508842248469591E-3   1.541884741056021E-3  
 2.018200000000000E10    4.663094740223002E-3   7.394166960794893E-4  
 2.018400000000000E10    4.650604135046403E-3   1.567590138788714E-5  
 2.018600000000000E10    4.578653654014624E-3  -6.231253242327108E-4  
 2.018800000000000E10    4.529482443575507E-3  -1.267988709043022E-3  
 2.019000000000000E10    4.427355127754036E-3  -2.045854632915171E-3  
 2.019200000000000E10    4.111064097809571E-3  -2.926598130552858E-3  
 2.019400000000000E10    3.580365700785209E-3  -3.711855194220941E-3  
 2.019600000000000E10    2.887348704798906E-3  -4.377486098005817E-3  
 2.019800000000000E10    1.979655344729071E-3  -4.893069776395957E-3  
 2.020000000000000E10    9.496651602805490E-4  -5.204500561511076E-3  
 2.020200000000000E10   -1.258025235815526E-4  -5.221263074350578E-3  
 2.020400000000000E10   -1.073357588784011E-3  -4.955794075848881E-3  
 2.020600000000000E10   -1.832172524666897E-3  -4.548718566419903E-3  
 2.020800000000000E10   -2.529129998206541E-3  -4.069993876058747E-3  
 2.021000000000000E10   -3.089479325960080E-3  -3.456952412509257E-3  
 2.021200000000000E10   -3.386051394045353E-3  -2.914639629630580E-3  
 2.021400000000000E10   -3.696601812003388E-3  -2.555183988685410E-3  
 2.021600000000000E10   -4.159348102769366E-3  -2.086993574199302E-3  
 2.021800000000000E10   -4.606608473868282E-3  -1.368811466144743E-3  
 2.022000000000000E10   -4.855512727603869E-3  -4.959150165733364E-4  
 2.022200000000000E10   -4.878970725392855E-3   3.674463250381113E-4  
 2.022400000000000E10   -4.723851637983764E-3   1.171838453349968E-3  
 2.022600000000000E10   -4.467643521450185E-3   1.933316079278787E-3  
 2.022800000000000E10   -4.117367720162428E-3   2.683904082341879E-3  
 2.023000000000000E10   -3.605259349569678E-3   3.391635595579391E-3  
 2.023200000000000E10   -2.998714188665704E-3   3.974701855676594E-3  
 2.023400000000000E10   -2.272400806692464E-3   4.441923668815031E-3  
 2.023600000000000E10   -1.453398356076192E-3   4.714848766862243E-3  
 2.023800000000000E10   -6.696524926357800E-4   4.864617285353166E-3  
 2.024000000000000E10    9.895392644533854E-5   4.954596860679212E-3  
 2.024200000000000E10    9.205531397903408E-4   4.917867981863243E-3  
 2.024400000000000E10    1.726216494312717E-3   4.704428043354442E-3  
 2.024600000000000E10    2.487512753793487E-3   4.403447404641797E-3  
 2.024800000000000E10    3.285762112311744E-3   3.990204418423000E-3  
 2.025000000000000E10    3.998787745971372E-3   3.393157290432741E-3  
 2.025200000000000E10    4.546214222770047E-3   2.656822325661779E-3  
 2.025400000000000E10    4.923655858470335E-3   1.828089619434818E-3  
 2.025600000000000E10    5.198699560154368E-3   9.589626333089891E-4  
 2.025800000000000E10    5.341949838179130E-3   3.228526811990713E-5  
 2.026000000000000E10    5.299096651099347E-3  -9.186160944712660E-4  
 2.026200000000000E10    5.038005851761059E-3  -1.855130510025279E-3  
 2.026400000000000E10    4.575508353472860E-3  -2.699672382462908E-3  
 2.026600000000000E10    4.023079122244208E-3  -3.446710753013139E-3  
 2.026800000000000E10    3.385604066015394E-3  -4.106020434173170E-3  
 2.027000000000000E10    2.633968212952217E-3  -4.655574068978981E-3  
 2.027200000000000E10    1.750571282442521E-3  -5.042465420922748E-3  
 2.027400000000000E10    8.253668331437642E-4  -5.222039469690235E-3  
 2.027600000000000E10   -1.170725765944183E-4  -5.257664403567712E-3  
 2.027800000000000E10   -1.002329871644852E-3  -5.092611122462485E-3  
 2.028000000000000E10   -1.767230948812708E-3  -4.827398496369521E-3  
 2.028200000000000E10   -2.522749153690206E-3  -4.492632165137265E-3  
 2.028400000000000E10   -3.297968129454940E-3  -4.014011144776036E-3  
 2.028600000000000E10   -3.995559592213896E-3  -3.350663628360188E-3  
 2.028800000000000E10   -4.509462940472144E-3  -2.546098704139392E-3  
 2.029000000000000E10   -4.804960055345739E-3  -1.722873455879313E-3  
 2.029200000000000E10   -4.995636572992361E-3  -9.167491656693597E-4  
 2.029400000000000E10   -5.121111783578441E-3  -4.351318547277417E-5  
 2.029600000000000E10   -5.078650752289428E-3   9.202178205466934E-4  
 2.029800000000000E10   -4.727323022153643E-3   1.840536021282552E-3  
 2.030000000000000E10   -4.214889576865568E-3   2.503529139277008E-3  
 2.030200000000000E10   -3.765075562383842E-3   3.090378379932157E-3  
 2.030400000000000E10   -3.233804358859306E-3   3.748318240805358E-3  
 2.030600000000000E10   -2.466702730291420E-3   4.331017499444662E-3  
 2.030800000000000E10   -1.571317729367702E-3   4.632238747069130E-3  
 2.031000000000000E10   -6.926964701118846E-4   4.693505216251922E-3  
 2.031200000000000E10    1.039853878966015E-4   4.623458910457515E-3  
 2.031400000000000E10    8.424159949990335E-4   4.479302196866937E-3  
 2.031600000000000E10    1.525441275185181E-3   4.247032036935843E-3  
 2.031800000000000E10    2.152185154112953E-3   3.865130918307438E-3  
 2.032000000000000E10    2.666085466949476E-3   3.401711281320012E-3  
 2.032200000000000E10    3.110322523517190E-3   2.950889489578981E-3  
 2.032400000000000E10    3.559318319376973E-3   2.459596256139102E-3  
 2.032600000000000E10    3.967557861297219E-3   1.890284250731822E-3  
 2.032800000000000E10    4.270117591928553E-3   1.188164206083726E-3  
 2.033000000000000E10    4.424174212747151E-3   3.649134871213593E-4  
 2.033200000000000E10    4.378643887186492E-3  -4.410619041192588E-4  
 2.033400000000000E10    4.230191568947501E-3  -1.158332051191893E-3  
 2.033600000000000E10    4.123126122134704E-3  -1.519161323947763E-3  
 2.033800000000000E10    3.473963217671823E-3  -2.605247673475080E-3  
 2.034000000000000E10    2.855432073206262E-3  -3.155421732959372E-3  
 2.034200000000000E10    2.166636426139761E-3  -3.570196434372553E-3  
 2.034400000000000E10    1.415403210557997E-3  -3.814362782846999E-3  
 2.034600000000000E10    6.805247588393589E-4  -3.812115096176664E-3  
 2.034800000000000E10    7.676046125534752E-5  -3.650270471418346E-3  
 2.035000000000000E10   -3.719275302029457E-4  -3.508035326376558E-3  
 2.035200000000000E10   -8.306135401923072E-4  -3.449508497767427E-3  
 2.035400000000000E10   -1.346575324768546E-3  -3.324644303777152E-3  
 2.035600000000000E10   -1.842359585377077E-3  -3.071579116362113E-3  
 2.035800000000000E10   -2.314317643780399E-3  -2.760769488910834E-3  
 2.036000000000000E10   -2.806186632908605E-3  -2.346712595748681E-3  
 2.036200000000000E10   -3.200907406776592E-3  -1.816160718186034E-3  
 2.036400000000000E10   -3.493916433028601E-3  -1.250052018332537E-3  
 2.036600000000000E10   -3.680727013421280E-3  -5.789382202136848E-4  
 2.036800000000000E10   -3.692865570041317E-3   1.650429222974237E-4  
 2.037000000000000E10   -3.509513731976903E-3   8.832659912985509E-4  
 2.037200000000000E10   -3.203150661041339E-3   1.466437182561667E-3  
 2.037400000000000E10   -2.765738172456622E-3   1.942079742784026E-3  
 2.037600000000000E10   -2.272632611156614E-3   2.226073570825436E-3  
 2.037800000000000E10   -1.862133822955743E-3   2.415017880223416E-3  
 2.038000000000000E10   -1.498836812701215E-3   2.612349723845169E-3  
 2.038200000000000E10   -1.098705071921426E-3   2.808542301257452E-3  
 2.038400000000000E10   -6.805107551810109E-4   2.944082590854831E-3  
 2.038600000000000E10   -1.760766899678856E-4   3.041974906982096E-3  
 2.038800000000000E10    4.043763587510007E-4   3.020824873130079E-3  
 2.039000000000000E10    9.302565465784736E-4   2.849031455331931E-3  
 2.039200000000000E10    1.369661931810832E-3   2.588829870715186E-3  
 2.039400000000000E10    1.716944910758348E-3   2.219560073205719E-3  
 2.039600000000000E10    1.937255414237303E-3   1.865660564766990E-3  
 2.039800000000000E10    2.132910277901425E-3   1.554719914026835E-3  
 2.040000000000000E10    2.314824403987991E-3   1.232860230461315E-3  
 2.040200000000000E10    2.467363106983680E-3   9.197107822358334E-4  
 2.040400000000000E10    2.631228684482199E-3   5.571974691486470E-4  
 2.040600000000000E10    2.737970151766031E-3   9.660907057372649E-5  
 2.040800000000000E10    2.733868883094854E-3  -3.834661825008139E-4  
 2.041000000000000E10    2.655026563270777E-3  -8.630638454902781E-4  
 2.041200000000000E10    2.451367158856657E-3  -1.321115453417103E-3  
 2.041400000000000E10    2.152548913188555E-3  -1.728966538966806E-3  
 2.041600000000000E10    1.821607096914064E-3  -2.085442542684851E-3  
 2.041800000000000E10    1.417332678101957E-3  -2.426779337434305E-3  
 2.042000000000000E10    8.990657278681519E-4  -2.666030510294217E-3  
 2.042200000000000E10    3.104815022433522E-4  -2.756118852024277E-3  
 2.042400000000000E10   -2.959455100440041E-4  -2.674530708679447E-3  
 2.042600000000000E10   -8.165954560455349E-4  -2.416253391722287E-3  
 2.042800000000000E10   -1.194893511840039E-3  -2.038007610718961E-3  
 2.043000000000000E10   -1.363727514183632E-3  -1.617280792237984E-3  
 2.043200000000000E10   -1.390127434947149E-3  -1.272706828011131E-3  
 2.043400000000000E10   -1.357242978108978E-3  -1.043715867800293E-3  
 2.043600000000000E10   -1.351680839434266E-3  -9.352437530954680E-4  
 2.043800000000000E10   -1.434705957459907E-3  -8.903867716004176E-4  
 2.044000000000000E10   -1.620375383127895E-3  -8.019242560732421E-4  
 2.044200000000000E10   -1.855206882788076E-3  -5.974883032548759E-4  
 2.044400000000000E10   -2.089994942286501E-3  -2.304892792987328E-4  
 2.044600000000000E10   -2.134737325832248E-3   2.787848977647998E-4  
 2.044800000000000E10   -1.921511117230963E-3   7.514022592524137E-4  
 2.045000000000000E10   -1.571400405804592E-3   9.902110323309901E-4  
 2.045200000000000E10   -1.309649656630225E-3   1.048441803841679E-3  
 2.045400000000000E10   -1.180803519673646E-3   1.122273414188789E-3  
 2.045600000000000E10   -1.054539875541296E-3   1.244210728651120E-3  
 2.045800000000000E10   -9.204177509268954E-4   1.388494356500882E-3  
 2.046000000000000E10   -7.289527458380219E-4   1.555513284445085E-3  
 2.046200000000000E10   -4.435502352727647E-4   1.698348576340963E-3  
 2.046400000000000E10   -1.074010301467583E-4   1.754694497557702E-3  
 2.046600000000000E10    1.963045323026125E-4   1.692156695450346E-3  
 2.046800000000000E10    4.232531678604169E-4   1.568868113854142E-3  
 2.047000000000000E10    5.945141914438594E-4   1.429965003842005E-3  
 2.047200000000000E10    7.526175942513403E-4   1.284913125413436E-3  
 2.047400000000000E10    8.630331010661193E-4   1.157599419389886E-3  
 2.047600000000000E10    9.689097189240988E-4   1.078688565434681E-3  
 2.047800000000000E10    1.103553890802518E-3   9.991393243480062E-4  
 2.048000000000000E10    1.279074013129705E-3   8.595018363040355E-4  
 2.048200000000000E10    1.434339546701975E-3   6.577248094361966E-4  
 2.048400000000000E10    1.535997717399840E-3   4.119128851151026E-4  
 2.048600000000000E10    1.566764687325944E-3   1.843547342340807E-4  
 2.048800000000000E10    1.560568059277203E-3   3.893372195307169E-6  
 2.049000000000000E10    1.536765761018076E-3  -1.902908145523354E-4  
 2.049200000000000E10    1.503211062367040E-3  -3.549085102147526E-4  
 2.049400000000000E10    1.531912397627754E-3  -5.082150132188366E-4  
 2.049600000000000E10    1.571261565442439E-3  -7.277881830102869E-4  
 2.049800000000000E10    1.554904889349860E-3  -1.000668405106774E-3  
 2.050000000000000E10    1.484646880136872E-3  -1.329497912795180E-3  
 2.050200000000000E10    1.322864468588873E-3  -1.701092101737029E-3  
 2.050400000000000E10    1.014825508550362E-3  -2.086481648600764E-3  
 2.050600000000000E10    5.701810479405579E-4  -2.402039132667361E-3  
 2.050800000000000E10   -2.057990584742381E-5  -2.536344428167299E-3  
 2.051000000000000E10   -6.523735312469028E-4  -2.424983040395159E-3  
 2.051200000000000E10   -1.170963730180153E-3  -2.067098411283008E-3  
 2.051400000000000E10   -1.408901634729571E-3  -1.608659526229733E-3  
 2.051600000000000E10   -1.416248791092248E-3  -1.289666824353238E-3  
 2.051800000000000E10   -1.460187960657533E-3  -1.162337850675815E-3  
 2.052000000000000E10   -1.677049746460937E-3  -1.014269866842639E-3  
 2.052200000000000E10   -1.855075687032055E-3  -6.902184427922800E-4  
 2.052400000000000E10   -1.876855001750368E-3  -3.606186984581184E-4  
 2.052600000000000E10   -1.805256271769327E-3  -1.482743743879299E-4  
 2.052800000000000E10   -1.814749902459207E-3  -2.756010562060747E-5  
 2.053000000000000E10   -1.912138187671425E-3   1.991896047170653E-4  
 2.053200000000000E10   -1.933184987003053E-3   4.892372547786821E-4  
 2.053400000000000E10   -1.959286535296727E-3   7.548149377625022E-4  
 2.053600000000000E10   -1.972202892863640E-3   1.156305971865853E-3  
 2.053800000000000E10   -1.791584641776152E-3   1.668026873462454E-3  
 2.054000000000000E10   -1.362260982946114E-3   2.062436633018984E-3  
 2.054200000000000E10   -8.913029731182314E-4   2.235152499957217E-3  
 2.054400000000000E10   -4.867860137622942E-4   2.277845499554166E-3  
 2.054600000000000E10   -1.191555644187180E-4   2.298918759657277E-3  
 2.054800000000000E10    2.905699290783594E-4   2.277281057710449E-3  
 2.055000000000000E10    6.855588074325136E-4   2.125635794881318E-3  
 2.055200000000000E10    9.606370672204154E-4   1.896796480718035E-3  
 2.055400000000000E10    1.143812973707639E-3   1.682869546736280E-3  
 2.055600000000000E10    1.293931578941367E-3   1.521126039464165E-3  
