#  HZ   S   RI   R     50.00 
! Rohde & Schwarz ZVA40 4Ports - Version 3.90 - 1145.1110k42 SN: 100403
! Date: 2023-10-03 11:36:35
! Measurement: S12 
! 
 2.000000000000000E10   -4.538307914993277E-3  -4.949263217255336E-4  
 2.000200000000000E10   -4.583522642928142E-3   2.332106670547984E-4  
 2.000400000000000E10   -4.466382752138156E-3   1.026254768172900E-3  
 2.000600000000000E10   -4.142430231527047E-3   1.787359606371158E-3  
 2.000800000000000E10   -3.653114721937865E-3   2.359470628477909E-3  
 2.001000000000000E10   -3.200312403755056E-3   2.689860968126191E-3  
 2.001200000000000E10   -2.893137529975286E-3   2.990333949802099E-3  
 2.001400000000000E10   -2.593872059757511E-3   3.449961275759119E-3  
 2.001600000000000E10   -2.057486877742190E-3   4.027318571590716E-3  
 2.001800000000000E10   -1.303953942152913E-3   4.436903857384568E-3  
 2.002000000000000E10   -4.877484429420697E-4   4.627370982672330E-3  
 2.002200000000000E10    3.705824939835887E-4   4.637607856205216E-3  
 2.002400000000000E10    1.203975745873457E-3   4.533428940232154E-3  
 2.002600000000000E10    2.039934853436771E-3   4.231337319921565E-3  
 2.002800000000000E10    2.753088897508052E-3   3.786025905153818E-3  
 2.003000000000000E10    3.354610185380336E-3   3.160863536996423E-3  
 2.003200000000000E10    3.730981990143106E-3   2.450960015671121E-3  
 2.003400000000000E10    4.000472249808136E-3   1.763028109929076E-3  
 2.003600000000000E10    4.205906194531256E-3   1.047624391503632E-3  
 2.003800000000000E10    4.268903043810969E-3   3.192486342245334E-4  
 2.004000000000000E10    4.203246802919442E-3  -3.356009428561838E-4  
 2.004200000000000E10    4.061242272318514E-3  -9.862105168091755E-4  
 2.004400000000000E10    3.832472928075328E-3  -1.645431357987777E-3  
 2.004600000000000E10    3.480727741218828E-3  -2.272350644623792E-3  
 2.004800000000000E10    3.026433978919631E-3  -2.766857708424882E-3  
 2.005000000000000E10    2.549523686024327E-3  -3.157589196537932E-3  
 2.005200000000000E10    2.028440358117223E-3  -3.510414415763485E-3  
 2.005400000000000E10    1.471751878313997E-3  -3.818286401737068E-3  
 2.005600000000000E10    8.540130651521464E-4  -4.094947733122994E-3  
 2.005800000000000E10    1.721061702550355E-4  -4.260649231986867E-3  
 2.006000000000000E10   -5.529571811806549E-4  -4.291705666454855E-3  
 2.006200000000000E10   -1.338044979126641E-3  -4.195276268378453E-3  
 2.006400000000000E10   -2.117803587612731E-3  -3.939229434494068E-3  
 2.006600000000000E10   -2.855785268669327E-3  -3.526238750459420E-3  
 2.006800000000000E10   -3.468659335609388E-3  -2.956484565166412E-3  
 2.007000000000000E10   -3.954977659439600E-3  -2.279341789997287E-3  
 2.007200000000000E10   -4.324144494064429E-3  -1.479478203691542E-3  
 2.007400000000000E10   -4.499364178627729E-3  -6.302335564719720E-4  
 2.007600000000000E10   -4.522953044485164E-3   2.006136788555456E-4  
 2.007800000000000E10   -4.327208045180198E-3   1.033394218043045E-3  
 2.008000000000000E10   -3.903314436751384E-3   1.710840587124781E-3  
 2.008200000000000E10   -3.451085080289179E-3   2.202955160841898E-3  
 2.008400000000000E10   -3.125004039180500E-3   2.593895730872949E-3  
 2.008600000000000E10   -2.812906082167670E-3   3.072056703752390E-3  
 2.008800000000000E10   -2.297662241660335E-3   3.553339254318012E-3  
 2.009000000000000E10   -1.676426532126412E-3   3.861129387385316E-3  
 2.009200000000000E10   -1.080172336919026E-3   4.091924987733364E-3  
 2.009400000000000E10   -4.785090773280160E-4   4.361275583505631E-3  
 2.009600000000000E10    2.977127991875426E-4   4.613823171153114E-3  
 2.009800000000000E10    1.290227799607372E-3   4.580799835147682E-3  
 2.010000000000000E10    2.217261922649212E-3   4.160784046958995E-3  
 2.010200000000000E10    2.973686481170633E-3   3.550529126422826E-3  
 2.010400000000000E10    3.485167338685305E-3   2.833164072836991E-3  
 2.010600000000000E10    3.750854559863607E-3   2.109924667618341E-3  
 2.010800000000000E10    3.863412128002556E-3   1.460908213630319E-3  
 2.011000000000000E10    3.945581890918591E-3   8.906869485077484E-4  
 2.011200000000000E10    4.064822569489479E-3   3.520314413536754E-4  
 2.011400000000000E10    4.176613512552448E-3  -2.450321033528006E-4  
 2.011600000000000E10    4.219738559590446E-3  -9.208293782581611E-4  
 2.011800000000000E10    4.064092895498982E-3  -1.723897725309211E-3  
 2.012000000000000E10    3.621738291931926E-3  -2.509374283599081E-3  
 2.012200000000000E10    3.012571949511766E-3  -3.085400935055482E-3  
 2.012400000000000E10    2.449191485842069E-3  -3.436544522022208E-3  
 2.012600000000000E10    1.956303181402662E-3  -3.733151307743457E-3  
 2.012800000000000E10    1.359826587657962E-3  -4.069715324375365E-3  
 2.013000000000000E10    6.199783076428706E-4  -4.336592396376311E-3  
 2.013200000000000E10   -1.735029984923097E-4  -4.422181027217044E-3  
 2.013400000000000E10   -9.281676159136826E-4  -4.346938631324857E-3  
 2.013600000000000E10   -1.649009477761057E-3  -4.184672419257738E-3  
 2.013800000000000E10   -2.458805114858680E-3  -3.891733940690756E-3  
 2.014000000000000E10   -3.277074045467157E-3  -3.346883286549538E-3  
 2.014200000000000E10   -3.890143509057385E-3  -2.559735284497341E-3  
 2.014400000000000E10   -4.144347686734465E-3  -1.688440515728737E-3  
 2.014600000000000E10   -4.213923277954261E-3  -9.420981190891731E-4  
 2.014800000000000E10   -4.240602013413554E-3  -2.245427792702147E-4  
 2.015000000000000E10   -4.183941727711095E-3   5.045016889063712E-4  
 2.015200000000000E10   -3.990084088097016E-3   1.168285830688008E-3  
 2.015400000000000E10   -3.719876848023247E-3   1.712296515944655E-3  
 2.015600000000000E10   -3.427883291065141E-3   2.242092638173037E-3  
 2.015800000000000E10   -3.078924190184033E-3   2.803130446139861E-3  
 2.016000000000000E10   -2.623939972922758E-3   3.385897932781114E-3  
 2.016200000000000E10   -2.016128437524593E-3   3.851295000425093E-3  
 2.016400000000000E10   -1.336765717025156E-3   4.156684899633683E-3  
 2.016600000000000E10   -5.626316091770100E-4   4.378338102941161E-3  
 2.016800000000000E10    3.042060297620655E-4   4.470321436033205E-3  
 2.017000000000000E10    1.175676231031065E-3   4.373969958612213E-3  
 2.017200000000000E10    2.007121073633985E-3   4.076143261045218E-3  
 2.017400000000000E10    2.724374911782367E-3   3.556176640645222E-3  
 2.017600000000000E10    3.241155098226888E-3   2.855108705935655E-3  
 2.017800000000000E10    3.540575728510266E-3   2.189122959626494E-3  
 2.018000000000000E10    3.739764629345802E-3   1.613640920603993E-3  
 2.018200000000000E10    3.869758418726701E-3   1.045313402924135E-3  
 2.018400000000000E10    3.937004823927527E-3   5.044351306019558E-4  
 2.018600000000000E10    3.997459335045682E-3  -5.518597484937075E-5  
 2.018800000000000E10    4.091048251009651E-3  -6.592189720659345E-4  
 2.019000000000000E10    4.118066643261248E-3  -1.367621128102420E-3  
 2.019200000000000E10    3.929598403542683E-3  -2.153102187784734E-3  
 2.019400000000000E10    3.502052872338229E-3  -2.888233124933862E-3  
 2.019600000000000E10    2.960126614198089E-3  -3.546752233955044E-3  
 2.019800000000000E10    2.266789286362905E-3  -4.131930380093831E-3  
 2.020000000000000E10    1.420622174110678E-3  -4.526923910749180E-3  
 2.020200000000000E10    4.916375964293602E-4  -4.643089275945117E-3  
 2.020400000000000E10   -3.910893369552301E-4  -4.502602783894099E-3  
 2.020600000000000E10   -1.126797382581841E-3  -4.266658987574004E-3  
 2.020800000000000E10   -1.793599713386761E-3  -3.978977962914441E-3  
 2.021000000000000E10   -2.344070709551926E-3  -3.539020764744944E-3  
 2.021200000000000E10   -2.669050651429980E-3  -3.127132197497068E-3  
 2.021400000000000E10   -3.094339743256569E-3  -2.841305927614923E-3  
 2.021600000000000E10   -3.699852145035510E-3  -2.426644347401129E-3  
 2.021800000000000E10   -4.230033589044104E-3  -1.736289532682686E-3  
 2.022000000000000E10   -4.482396826561955E-3  -9.168433435088784E-4  
 2.022200000000000E10   -4.508265069927331E-3  -1.160427428085650E-4  
 2.022400000000000E10   -4.433616305942890E-3   6.348809498983126E-4  
 2.022600000000000E10   -4.309360179360267E-3   1.361160827973099E-3  
 2.022800000000000E10   -4.079219419509172E-3   2.075870978404527E-3  
 2.023000000000000E10   -3.710298712744757E-3   2.742251415771467E-3  
 2.023200000000000E10   -3.199339568339013E-3   3.365046232593833E-3  
 2.023400000000000E10   -2.543307237189125E-3   3.932288744383389E-3  
 2.023600000000000E10   -1.803348099605905E-3   4.325028922822741E-3  
 2.023800000000000E10   -1.062179428387296E-3   4.563322911659877E-3  
 2.024000000000000E10   -2.776795272775754E-4   4.701326135545969E-3  
 2.024200000000000E10    5.860384984838743E-4   4.678657847560115E-3  
 2.024400000000000E10    1.404555880947522E-3   4.464758473827884E-3  
 2.024600000000000E10    2.088914327840839E-3   4.166788162870540E-3  
 2.024800000000000E10    2.753897311372890E-3   3.799440856609080E-3  
 2.025000000000000E10    3.373371394075178E-3   3.278581227210385E-3  
 2.025200000000000E10    3.888866372613444E-3   2.615748965008944E-3  
 2.025400000000000E10    4.284647327882273E-3   1.915297039818985E-3  
 2.025600000000000E10    4.577160278266228E-3   1.186139269352511E-3  
 2.025800000000000E10    4.733722018836825E-3   4.059349507938519E-4  
 2.026000000000000E10    4.717616209139427E-3  -4.178834486218101E-4  
 2.026200000000000E10    4.573295927710004E-3  -1.272493050675149E-3  
 2.026400000000000E10    4.277129088424975E-3  -2.060842838276316E-3  
 2.026600000000000E10    3.862370564429849E-3  -2.743418061139960E-3  
 2.026800000000000E10    3.347639796427555E-3  -3.352158030288087E-3  
 2.027000000000000E10    2.682854981955003E-3  -3.889350004977098E-3  
 2.027200000000000E10    1.868748718320772E-3  -4.278621567344225E-3  
 2.027400000000000E10    1.097565822958670E-3  -4.462478251230938E-3  
 2.027600000000000E10    3.620833600440098E-4  -4.536410224520499E-3  
 2.027800000000000E10   -3.832800775179985E-4  -4.435245913487894E-3  
 2.028000000000000E10   -1.034455585155498E-3  -4.242438271089838E-3  
 2.028200000000000E10   -1.672432124097314E-3  -4.066039238952929E-3  
 2.028400000000000E10   -2.348548896541750E-3  -3.790989431932017E-3  
 2.028600000000000E10   -2.960196618611614E-3  -3.368826436430768E-3  
 2.028800000000000E10   -3.457252100041068E-3  -2.828610069290908E-3  
 2.029000000000000E10   -3.869919158104394E-3  -2.240522117871378E-3  
 2.029200000000000E10   -4.278119205048791E-3  -1.608810465161999E-3  
 2.029400000000000E10   -4.618503998413131E-3  -8.342815584641089E-4  
 2.029600000000000E10   -4.740004996872611E-3   8.522065656035451E-5  
 2.029800000000000E10   -4.531784448772669E-3   1.005545905273822E-3  
 2.030000000000000E10   -4.157937304289253E-3   1.753210275502945E-3  
 2.030200000000000E10   -3.798842688815462E-3   2.400632102594332E-3  
 2.030400000000000E10   -3.351550092230793E-3   3.057365866239976E-3  
 2.030600000000000E10   -2.684527706285870E-3   3.601423102534480E-3  
 2.030800000000000E10   -1.914004812499991E-3   3.910093154344294E-3  
 2.031000000000000E10   -1.155107320907215E-3   4.044064769038448E-3  
 2.031200000000000E10   -4.991461335319199E-4   4.034833896353290E-3  
 2.031400000000000E10    2.081751935528936E-5   4.017428563976730E-3  
 2.031600000000000E10    6.019733565928484E-4   4.021107719314319E-3  
 2.031800000000000E10    1.307988103858575E-3   3.879505166507982E-3  
 2.032000000000000E10    1.970315205485181E-3   3.591418723334317E-3  
 2.032200000000000E10    2.538394148427028E-3   3.227495269298002E-3  
 2.032400000000000E10    3.042942637370693E-3   2.756855700647942E-3  
 2.032600000000000E10    3.417146961308189E-3   2.205831912794599E-3  
 2.032800000000000E10    3.750173228413419E-3   1.629491228851732E-3  
 2.033000000000000E10    4.046017959437989E-3   9.573686919692492E-4  
 2.033200000000000E10    4.203154170816697E-3   2.277224520083918E-4  
 2.033400000000000E10    4.213745412589224E-3  -5.373571486281300E-4  
 2.033600000000000E10    4.112887541177097E-3  -9.547299360511481E-4  
 2.033800000000000E10    3.635847630600135E-3  -2.130135307433429E-3  
 2.034000000000000E10    3.089152561086748E-3  -2.821852729000427E-3  
 2.034200000000000E10    2.371615247318039E-3  -3.315591037756315E-3  
 2.034400000000000E10    1.575580371233324E-3  -3.513036459615385E-3  
 2.034600000000000E10    8.604481893902024E-4  -3.443125281827870E-3  
 2.034800000000000E10    3.478338629873988E-4  -3.304921392420376E-3  
 2.035000000000000E10   -1.286367262730856E-5  -3.218042664229871E-3  
 2.035200000000000E10   -3.830778899740566E-4  -3.204790383784308E-3  
 2.035400000000000E10   -8.299753492422127E-4  -3.118378170593470E-3  
 2.035600000000000E10   -1.264939347661480E-3  -2.967245868165737E-3  
 2.035800000000000E10   -1.705704071490025E-3  -2.800430041841335E-3  
 2.036000000000000E10   -2.204273146128765E-3  -2.578406439473232E-3  
 2.036200000000000E10   -2.667448897328642E-3  -2.221653910560741E-3  
 2.036400000000000E10   -3.069686056632135E-3  -1.763039277176614E-3  
 2.036600000000000E10   -3.434755528966586E-3  -1.151355858719736E-3  
 2.036800000000000E10   -3.645366109493706E-3  -4.064761715535834E-4  
 2.037000000000000E10   -3.614199537507914E-3   3.810483871752190E-4  
 2.037200000000000E10   -3.302402889218044E-3   1.075219190507024E-3  
 2.037400000000000E10   -2.807756653055549E-3   1.576168919672017E-3  
 2.037600000000000E10   -2.349959746762007E-3   1.838783302378876E-3  
 2.037800000000000E10   -2.024478382534451E-3   2.017790624112995E-3  
 2.038000000000000E10   -1.763166855434301E-3   2.223720567093955E-3  
 2.038200000000000E10   -1.446388989548993E-3   2.417048594603936E-3  
 2.038400000000000E10   -1.110022219277367E-3   2.603565635918468E-3  
 2.038600000000000E10   -7.203984013931068E-4   2.825288524575256E-3  
 2.038800000000000E10   -2.303946961614269E-4   2.996961629294135E-3  
 2.039000000000000E10    3.242877687120603E-4   3.000234072614048E-3  
 2.039200000000000E10    8.390371566983287E-4   2.809949046759694E-3  
 2.039400000000000E10    1.266204096652843E-3   2.526491561352655E-3  
 2.039600000000000E10    1.580515652205106E-3   2.269901197265696E-3  
 2.039800000000000E10    1.929784409218917E-3   2.038697884590538E-3  
 2.040000000000000E10    2.240740306054553E-3   1.695436960155213E-3  
 2.040200000000000E10    2.432459378959956E-3   1.290621960328685E-3  
 2.040400000000000E10    2.593539413754587E-3   8.887779808396269E-4  
 2.040600000000000E10    2.730566016570838E-3   4.506257321702800E-4  
 2.040800000000000E10    2.769593244280528E-3  -8.178860837317609E-7  
 2.041000000000000E10    2.710224215493158E-3  -4.486283373639540E-4  
 2.041200000000000E10    2.565529257817953E-3  -8.957281199939275E-4  
 2.041400000000000E10    2.351621467689122E-3  -1.299511429991711E-3  
 2.041600000000000E10    2.120446120561273E-3  -1.656193549192890E-3  
 2.041800000000000E10    1.838334430767982E-3  -2.031519526132831E-3  
 2.042000000000000E10    1.420998859598681E-3  -2.336299702249192E-3  
 2.042200000000000E10    8.922407826132797E-4  -2.506704052427301E-3  
 2.042400000000000E10    3.724189241270156E-4  -2.536955246425890E-3  
 2.042600000000000E10   -7.896201579434868E-5  -2.487649278784240E-3  
 2.042800000000000E10   -4.841464165279091E-4  -2.313061298250600E-3  
 2.043000000000000E10   -7.762298380300679E-4  -2.029314870014787E-3  
 2.043200000000000E10   -9.327172732877512E-4  -1.797732690142261E-3  
 2.043400000000000E10   -1.051944792615595E-3  -1.632030958447744E-3  
 2.043600000000000E10   -1.186545317371686E-3  -1.543512826578485E-3  
 2.043800000000000E10   -1.373674849876099E-3  -1.497669339490434E-3  
 2.044000000000000E10   -1.624935539439321E-3  -1.387995620327139E-3  
 2.044200000000000E10   -1.968845285268294E-3  -1.182850036356184E-3  
 2.044400000000000E10   -2.349127472067873E-3  -7.783309491868649E-4  
 2.044600000000000E10   -2.515670041450196E-3  -1.789796240498415E-4  
 2.044800000000000E10   -2.348296904798459E-3   3.992669818991865E-4  
 2.045000000000000E10   -2.024511625576351E-3   7.635209304108113E-4  
 2.045200000000000E10   -1.769441188554521E-3   9.468064203651416E-4  
 2.045400000000000E10   -1.604152507045203E-3   1.121446705871710E-3  
 2.045600000000000E10   -1.439638918748609E-3   1.300454687292653E-3  
 2.045800000000000E10   -1.284465616292976E-3   1.455350153803550E-3  
 2.046000000000000E10   -1.072558436404776E-3   1.664329630633195E-3  
 2.046200000000000E10   -7.532098572011349E-4   1.864284104495137E-3  
 2.046400000000000E10   -3.812759996098639E-4   1.950848821757569E-3  
 2.046600000000000E10   -6.221853874632398E-5   1.898174251740178E-3  
 2.046800000000000E10    1.800866042753182E-4   1.799594059034631E-3  
 2.047000000000000E10    4.135151501503532E-4   1.737712533213198E-3  
 2.047200000000000E10    6.604481820465515E-4   1.626963580579118E-3  
 2.047400000000000E10    8.343833313254573E-4   1.498285913839936E-3  
 2.047600000000000E10    9.573084707544359E-4   1.430687481640942E-3  
 2.047800000000000E10    1.152561365247325E-3   1.376922371693783E-3  
 2.048000000000000E10    1.426071790909326E-3   1.218766168070336E-3  
 2.048200000000000E10    1.685318950977591E-3   9.631090668133565E-4  
 2.048400000000000E10    1.860530434728221E-3   6.319660352784452E-4  
 2.048600000000000E10    1.881261563135518E-3   2.721300805677419E-4  
 2.048800000000000E10    1.806523745741558E-3  -2.183080235866970E-5  
 2.049000000000000E10    1.714976129329039E-3  -2.657759291145744E-4  
 2.049200000000000E10    1.602802033260189E-3  -4.464125107646127E-4  
 2.049400000000000E10    1.571798951503028E-3  -5.581405582941242E-4  
 2.049600000000000E10    1.597389169209809E-3  -6.918029372442377E-4  
 2.049800000000000E10    1.619349332974741E-3  -9.172332464475875E-4  
 2.050000000000000E10    1.600953806364150E-3  -1.237228172141369E-3  
 2.050200000000000E10    1.504776542316432E-3  -1.644135383820092E-3  
 2.050400000000000E10    1.238652746434565E-3  -2.081263862136338E-3  
 2.050600000000000E10    7.707608294569785E-4  -2.419007864470284E-3  
 2.050800000000000E10    1.720393995330798E-4  -2.586867220492827E-3  
 2.051000000000000E10   -4.845156853897842E-4  -2.512069841570877E-3  
 2.051200000000000E10   -1.022562977461213E-3  -2.190543450760069E-3  
 2.051400000000000E10   -1.284038294451656E-3  -1.801746293764424E-3  
 2.051600000000000E10   -1.392266829498112E-3  -1.482846051523531E-3  
 2.051800000000000E10   -1.481472501634724E-3  -1.261683396512160E-3  
 2.052000000000000E10   -1.626464572769625E-3  -1.053158461150748E-3  
 2.052200000000000E10   -1.725321118202475E-3  -8.009228320723332E-4  
 2.052400000000000E10   -1.725102360877726E-3  -5.679748978258836E-4  
 2.052600000000000E10   -1.693803795475375E-3  -4.239410325815833E-4  
 2.052800000000000E10   -1.781524969609799E-3  -3.611524707930922E-4  
 2.053000000000000E10   -1.998981107371273E-3  -1.650212736287223E-4  
 2.053200000000000E10   -2.170010832034879E-3   1.567375665116641E-4  
 2.053400000000000E10   -2.287732618343500E-3   5.247846754543760E-4  
 2.053600000000000E10   -2.318857237696648E-3   1.029196656654003E-3  
 2.053800000000000E10   -2.129990995551149E-3   1.629264206039133E-3  
 2.054000000000000E10   -1.710473546861775E-3   2.109607224594112E-3  
 2.054200000000000E10   -1.204820448981115E-3   2.372700203624037E-3  
 2.054400000000000E10   -7.013384623590995E-4   2.474540603105669E-3  
 2.054600000000000E10   -2.293422561100064E-4   2.473308747910239E-3  
 2.054800000000000E10    2.063239420143267E-4   2.373508091464087E-3  
 2.055000000000000E10    5.382061159859102E-4   2.175470244967275E-3  
 2.055200000000000E10    7.158466981275491E-4   2.005368833326631E-3  
 2.055400000000000E10    8.629991358180566E-4   1.934044477012423E-3  
 2.055600000000000E10    1.098346642080557E-3   1.902927256499728E-3  
