#  HZ   S   RI   R     50.00 
! Rohde & Schwarz ZVA40 4Ports - Version 3.90 - 1145.1110k42 SN: 100403
! Date: 2023-10-03 11:37:09
! Measurement: S12 
! 
 2.000000000000000E10   -4.596806665951456E-3  -5.376112304576156E-4  
 2.000200000000000E10   -4.638468605224734E-3   1.673608286957326E-4  
 2.000400000000000E10   -4.550068121817377E-3   9.677709744277377E-4  
 2.000600000000000E10   -4.240439877051999E-3   1.780015295716348E-3  
 2.000800000000000E10   -3.745337422178300E-3   2.384529173098229E-3  
 2.001000000000000E10   -3.307526525868862E-3   2.781223264281397E-3  
 2.001200000000000E10   -2.974456184785124E-3   3.187000156483717E-3  
 2.001400000000000E10   -2.600707096496114E-3   3.737642024471253E-3  
 2.001600000000000E10   -1.970716126918517E-3   4.354837229820314E-3  
 2.001800000000000E10   -1.106387961448895E-3   4.755354106978135E-3  
 2.002000000000000E10   -1.805856034614543E-4   4.876297605396421E-3  
 2.002200000000000E10    7.656659387672942E-4   4.768246750312823E-3  
 2.002400000000000E10    1.629408289402448E-3   4.521396200827979E-3  
 2.002600000000000E10    2.400229900592456E-3   4.078152675733523E-3  
 2.002800000000000E10    3.016654652094952E-3   3.572041255042509E-3  
 2.003000000000000E10    3.562926237160961E-3   2.959235450597825E-3  
 2.003200000000000E10    3.966568589762406E-3   2.257533414565303E-3  
 2.003400000000000E10    4.248421035569024E-3   1.518966022154524E-3  
 2.003600000000000E10    4.379573260882387E-3   7.373994384478365E-4  
 2.003800000000000E10    4.303960750500361E-3   5.011876190245090E-6  
 2.004000000000000E10    4.157602010915677E-3  -5.762569489888847E-4  
 2.004200000000000E10    4.029950592666864E-3  -1.176523613846964E-3  
 2.004400000000000E10    3.810189190079217E-3  -1.807032140075333E-3  
 2.004600000000000E10    3.464205285396289E-3  -2.418386422235657E-3  
 2.004800000000000E10    3.004684000862418E-3  -2.934566250553838E-3  
 2.005000000000000E10    2.491547769211509E-3  -3.353541915270466E-3  
 2.005200000000000E10    1.908652333508212E-3  -3.718659411081010E-3  
 2.005400000000000E10    1.314186223748106E-3  -3.962996122599752E-3  
 2.005600000000000E10    6.995404428043577E-4  -4.160969035217056E-3  
 2.005800000000000E10    3.771374437949109E-5  -4.286996209649025E-3  
 2.006000000000000E10   -7.050266075465415E-4  -4.303388332051260E-3  
 2.006200000000000E10   -1.487767022034085E-3  -4.139499859539448E-3  
 2.006400000000000E10   -2.206971696405500E-3  -3.802391208915247E-3  
 2.006600000000000E10   -2.844397806459003E-3  -3.348995517525408E-3  
 2.006800000000000E10   -3.350525335581215E-3  -2.785786874247370E-3  
 2.007000000000000E10   -3.764389643307638E-3  -2.184930688667077E-3  
 2.007200000000000E10   -4.143532106859817E-3  -1.494975463073287E-3  
 2.007400000000000E10   -4.359997619219401E-3  -6.991635589791394E-4  
 2.007600000000000E10   -4.391496224949758E-3   1.361999410518264E-4  
 2.007800000000000E10   -4.196387698390970E-3   9.590912722396078E-4  
 2.008000000000000E10   -3.775240189430339E-3   1.622586700789355E-3  
 2.008200000000000E10   -3.319462140401205E-3   2.046434286360940E-3  
 2.008400000000000E10   -3.020581789314748E-3   2.345963139776831E-3  
 2.008600000000000E10   -2.787458184347661E-3   2.777299757494971E-3  
 2.008800000000000E10   -2.358377264398668E-3   3.288481462125978E-3  
 2.009000000000000E10   -1.785606447676266E-3   3.684225293842180E-3  
 2.009200000000000E10   -1.201669556192226E-3   3.960083290520642E-3  
 2.009400000000000E10   -6.091260066669849E-4   4.205030268403116E-3  
 2.009600000000000E10    1.459760061590243E-4   4.476333192239205E-3  
 2.009800000000000E10    1.144893519166443E-3   4.496896415259000E-3  
 2.010000000000000E10    2.087824891700789E-3   4.118098825630215E-3  
 2.010200000000000E10    2.840928138337202E-3   3.519786392442055E-3  
 2.010400000000000E10    3.329996838820754E-3   2.819775534724748E-3  
 2.010600000000000E10    3.599924630381995E-3   2.130423491406772E-3  
 2.010800000000000E10    3.769668043349629E-3   1.528209152941903E-3  
 2.011000000000000E10    3.923819659070837E-3   9.654382528323268E-4  
 2.011200000000000E10    4.076483814666669E-3   4.093571872174465E-4  
 2.011400000000000E10    4.185765326299050E-3  -2.434583422857234E-4  
 2.011600000000000E10    4.194039023584791E-3  -1.017165943738763E-3  
 2.011800000000000E10    3.965237505595994E-3  -1.864969329391089E-3  
 2.012000000000000E10    3.462233063247469E-3  -2.583153683830191E-3  
 2.012200000000000E10    2.838721248769650E-3  -3.045601891008793E-3  
 2.012400000000000E10    2.325698293538557E-3  -3.314998854572575E-3  
 2.012600000000000E10    1.906019799342310E-3  -3.616068451837809E-3  
 2.012800000000000E10    1.370077913937470E-3  -4.006465396809358E-3  
 2.013000000000000E10    6.626211990671303E-4  -4.325963884454083E-3  
 2.013200000000000E10   -1.591038593755069E-4  -4.441837090309020E-3  
 2.013400000000000E10   -9.498196498801311E-4  -4.380514724525038E-3  
 2.013600000000000E10   -1.737026411488101E-3  -4.203933963759079E-3  
 2.013800000000000E10   -2.555095616521107E-3  -3.886587728090861E-3  
 2.014000000000000E10   -3.338115194950391E-3  -3.343596890637721E-3  
 2.014200000000000E10   -3.956205177086372E-3  -2.556169569423354E-3  
 2.014400000000000E10   -4.235120334972939E-3  -1.664359907240228E-3  
 2.014600000000000E10   -4.318422103231705E-3  -9.106665103765275E-4  
 2.014800000000000E10   -4.375230158782668E-3  -2.015182547404914E-4  
 2.015000000000000E10   -4.308935806707100E-3   5.353597872373131E-4  
 2.015200000000000E10   -4.116481273538537E-3   1.217188753394617E-3  
 2.015400000000000E10   -3.846237556663929E-3   1.845757533037277E-3  
 2.015600000000000E10   -3.498671981678517E-3   2.446798944017954E-3  
 2.015800000000000E10   -3.079047116140525E-3   2.981769912703722E-3  
 2.016000000000000E10   -2.593099329344653E-3   3.520551836118103E-3  
 2.016200000000000E10   -1.965316262579075E-3   3.968929958150343E-3  
 2.016400000000000E10   -1.236919999226100E-3   4.270230833854941E-3  
 2.016600000000000E10   -4.808889557521239E-4   4.454516409033979E-3  
 2.016800000000000E10    3.005407049756657E-4   4.523524100443831E-3  
 2.017000000000000E10    1.122410081464935E-3   4.429480543843022E-3  
 2.017200000000000E10    1.948938036716923E-3   4.151330019036929E-3  
 2.017400000000000E10    2.696021296152915E-3   3.667047842302257E-3  
 2.017600000000000E10    3.271519973943080E-3   3.013571922632832E-3  
 2.017800000000000E10    3.630295801148923E-3   2.315907885699913E-3  
 2.018000000000000E10    3.822475076756544E-3   1.668367590927692E-3  
 2.018200000000000E10    3.923137318687859E-3   1.094823306495393E-3  
 2.018400000000000E10    4.031218596975562E-3   5.940938200284210E-4  
 2.018600000000000E10    4.157455379350319E-3   4.303829380795060E-5  
 2.018800000000000E10    4.254172952776707E-3  -5.852931342950023E-4  
 2.019000000000000E10    4.251551434949593E-3  -1.303593925614324E-3  
 2.019200000000000E10    4.079537397181548E-3  -2.092626635675078E-3  
 2.019400000000000E10    3.737659719600170E-3  -2.865694816810666E-3  
 2.019600000000000E10    3.209700566475039E-3  -3.651337396284497E-3  
 2.019800000000000E10    2.402992168855337E-3  -4.294831633429837E-3  
 2.020000000000000E10    1.464073343581900E-3  -4.662281178213932E-3  
 2.020200000000000E10    5.048555936405642E-4  -4.774717476080966E-3  
 2.020400000000000E10   -3.702716187237659E-4  -4.658108352924940E-3  
 2.020600000000000E10   -1.103681188801097E-3  -4.432790102092205E-3  
 2.020800000000000E10   -1.812211755249236E-3  -4.140574105635838E-3  
 2.021000000000000E10   -2.415108899758370E-3  -3.671803925600317E-3  
 2.021200000000000E10   -2.791879672764076E-3  -3.231877305855354E-3  
 2.021400000000000E10   -3.222784656962311E-3  -2.921011635205812E-3  
 2.021600000000000E10   -3.822676733964019E-3  -2.487903935144897E-3  
 2.021800000000000E10   -4.354055229298495E-3  -1.760172838759091E-3  
 2.022000000000000E10   -4.634336689142166E-3  -8.732530081437696E-4  
 2.022200000000000E10   -4.675347651182502E-3   2.903533135799484E-6  
 2.022400000000000E10   -4.558051522407267E-3   8.033124484225281E-4  
 2.022600000000000E10   -4.338817429487353E-3   1.546158834739968E-3  
 2.022800000000000E10   -4.011336972730028E-3   2.238678452731283E-3  
 2.023000000000000E10   -3.573760157451034E-3   2.852442898546104E-3  
 2.023200000000000E10   -3.079794002351938E-3   3.385640594556376E-3  
 2.023400000000000E10   -2.513831593441191E-3   3.888823799099084E-3  
 2.023600000000000E10   -1.825662929116300E-3   4.278062377125025E-3  
 2.023800000000000E10   -1.097102783171943E-3   4.540333455359496E-3  
 2.024000000000000E10   -2.987098834839546E-4   4.734764324018250E-3  
 2.024200000000000E10    5.961251790048900E-4   4.764711035898438E-3  
 2.024400000000000E10    1.451674753938008E-3   4.539729458176428E-3  
 2.024600000000000E10    2.178612406607028E-3   4.208843309984164E-3  
 2.024800000000000E10    2.889796392992139E-3   3.774634114018194E-3  
 2.025000000000000E10    3.501034212402172E-3   3.190797374204354E-3  
 2.025200000000000E10    3.942252404090983E-3   2.524310550479978E-3  
 2.025400000000000E10    4.275603081893039E-3   1.849767562277891E-3  
 2.025600000000000E10    4.543808340612385E-3   1.137265185308125E-3  
 2.025800000000000E10    4.706646712427891E-3   3.204636676754389E-4  
 2.026000000000000E10    4.695131822868631E-3  -5.227702225696434E-4  
 2.026200000000000E10    4.515813594615019E-3  -1.356730250538223E-3  
 2.026400000000000E10    4.154302645474672E-3  -2.120071590912563E-3  
 2.026600000000000E10    3.678424749523401E-3  -2.760950700138455E-3  
 2.026800000000000E10    3.158642850057395E-3  -3.292824650459268E-3  
 2.027000000000000E10    2.564819193341666E-3  -3.776098817103992E-3  
 2.027200000000000E10    1.835277782649630E-3  -4.162303154805193E-3  
 2.027400000000000E10    1.095233752426726E-3  -4.323959281599081E-3  
 2.027600000000000E10    3.722620641821306E-4  -4.382163596649965E-3  
 2.027800000000000E10   -3.352488210010860E-4  -4.322727193573008E-3  
 2.028000000000000E10   -9.524128033296656E-4  -4.176315213381141E-3  
 2.028200000000000E10   -1.573167210962210E-3  -4.019199491099076E-3  
 2.028400000000000E10   -2.235604260392763E-3  -3.762096080377147E-3  
 2.028600000000000E10   -2.861350602297872E-3  -3.362479550694978E-3  
 2.028800000000000E10   -3.407273269085973E-3  -2.832104003539792E-3  
 2.029000000000000E10   -3.825872118964240E-3  -2.240303213949557E-3  
 2.029200000000000E10   -4.197637860973677E-3  -1.634336770857098E-3  
 2.029400000000000E10   -4.514556740307147E-3  -8.742980145918276E-4  
 2.029600000000000E10   -4.639593194480297E-3   3.857086940789249E-5  
 2.029800000000000E10   -4.463067088552096E-3   9.249173691151319E-4  
 2.030000000000000E10   -4.118614019481121E-3   1.609692526808768E-3  
 2.030200000000000E10   -3.786522524293374E-3   2.195062814280391E-3  
 2.030400000000000E10   -3.402605721796001E-3   2.816442253619985E-3  
 2.030600000000000E10   -2.845613993014451E-3   3.406989491648145E-3  
 2.030800000000000E10   -2.154191559249605E-3   3.842399214152937E-3  
 2.031000000000000E10   -1.396566530241183E-3   4.097486259760681E-3  
 2.031200000000000E10   -6.816470025417706E-4   4.138871803189870E-3  
 2.031400000000000E10   -8.125268639694831E-5   4.133989223865448E-3  
 2.031600000000000E10    5.426833242246950E-4   4.160553958542921E-3  
 2.031800000000000E10    1.255446924241605E-3   4.048473995040965E-3  
 2.032000000000000E10    1.942280412617105E-3   3.759135354172301E-3  
 2.032200000000000E10    2.552655723842758E-3   3.328054289643964E-3  
 2.032400000000000E10    3.053479017344890E-3   2.788847933212916E-3  
 2.032600000000000E10    3.398858433313392E-3   2.221098919916485E-3  
 2.032800000000000E10    3.701270894250937E-3   1.668198305803041E-3  
 2.033000000000000E10    3.960894955391134E-3   1.054225955158472E-3  
 2.033200000000000E10    4.100936068290914E-3   3.908374896531718E-4  
 2.033400000000000E10    4.186503985827721E-3  -3.078319218561605E-4  
 2.033600000000000E10    4.217511301653253E-3  -6.949379975493584E-4  
 2.033800000000000E10    3.884473004964767E-3  -1.899684477528488E-3  
 2.034000000000000E10    3.410970455863411E-3  -2.644936735224393E-3  
 2.034200000000000E10    2.743896191801738E-3  -3.253994483707680E-3  
 2.034400000000000E10    1.933276705029938E-3  -3.642422862833849E-3  
 2.034600000000000E10    1.099593137580626E-3  -3.734729244132285E-3  
 2.034800000000000E10    4.276948284650981E-4  -3.606805664107756E-3  
 2.035000000000000E10   -4.471062479920132E-5  -3.436493411384248E-3  
 2.035200000000000E10   -4.668735329889589E-4  -3.353153700353923E-3  
 2.035400000000000E10   -9.407881060960118E-4  -3.273744506899406E-3  
 2.035600000000000E10   -1.408451370446495E-3  -3.107958826822816E-3  
 2.035800000000000E10   -1.866744904502951E-3  -2.897337906890445E-3  
 2.036000000000000E10   -2.345024590828905E-3  -2.590090579663714E-3  
 2.036200000000000E10   -2.787793520838022E-3  -2.182694928099712E-3  
 2.036400000000000E10   -3.177608734134723E-3  -1.683829977453031E-3  
 2.036600000000000E10   -3.502113011631149E-3  -1.043633657024691E-3  
 2.036800000000000E10   -3.635945867885043E-3  -2.842932919048946E-4  
 2.037000000000000E10   -3.526412123055370E-3   4.983188151123209E-4  
 2.037200000000000E10   -3.221031683669598E-3   1.163227807006075E-3  
 2.037400000000000E10   -2.789741545846617E-3   1.642271134726427E-3  
 2.037600000000000E10   -2.343961305019481E-3   1.941198017448187E-3  
 2.037800000000000E10   -1.964200701978472E-3   2.145034830189414E-3  
 2.038000000000000E10   -1.612168525483597E-3   2.340276432396086E-3  
 2.038200000000000E10   -1.242708988246267E-3   2.483040870477756E-3  
 2.038400000000000E10   -8.981428863653156E-4   2.589758632152721E-3  
 2.038600000000000E10   -5.249595679170281E-4   2.708056596694170E-3  
 2.038800000000000E10   -7.207344794921852E-5   2.779806024153476E-3  
 2.039000000000000E10    4.337288173027683E-4   2.759190207278287E-3  
 2.039200000000000E10    9.028639480540600E-4   2.622856068666335E-3  
 2.039400000000000E10    1.335264903631199E-3   2.372205084948629E-3  
 2.039600000000000E10    1.643047103209904E-3   2.069142267659859E-3  
 2.039800000000000E10    1.921389894387513E-3   1.760378225568544E-3  
 2.040000000000000E10    2.128263612070845E-3   1.387925370147935E-3  
 2.040200000000000E10    2.229741619278987E-3   1.052256751184662E-3  
 2.040400000000000E10    2.346561876712023E-3   7.612850598956425E-4  
 2.040600000000000E10    2.445982708768161E-3   3.959487501695684E-4  
 2.040800000000000E10    2.478322454003824E-3   2.091187963270827E-6  
 2.041000000000000E10    2.477875910699368E-3  -4.027726611605398E-4  
 2.041200000000000E10    2.389725323559510E-3  -8.379780079445079E-4  
 2.041400000000000E10    2.196750250058594E-3  -1.232899850475843E-3  
 2.041600000000000E10    1.965653867012373E-3  -1.580259542808765E-3  
 2.041800000000000E10    1.663892340190985E-3  -1.942765144458800E-3  
 2.042000000000000E10    1.250246466413416E-3  -2.227922530706834E-3  
 2.042200000000000E10    7.729349610464718E-4  -2.382850490027556E-3  
 2.042400000000000E10    2.957976348288530E-4  -2.383812830817920E-3  
 2.042600000000000E10   -1.265325217900682E-4  -2.268880631567704E-3  
 2.042800000000000E10   -5.099993960121302E-4  -2.068060105321584E-3  
 2.043000000000000E10   -7.325041676974960E-4  -1.794155441328055E-3  
 2.043200000000000E10   -8.195864092731092E-4  -1.588107996482264E-3  
 2.043400000000000E10   -8.833537943212800E-4  -1.485093811492402E-3  
 2.043600000000000E10   -1.003038142462847E-3  -1.458504978843310E-3  
 2.043800000000000E10   -1.218001453067970E-3  -1.448881829640380E-3  
 2.044000000000000E10   -1.550573402912253E-3  -1.368612128620347E-3  
 2.044200000000000E10   -1.917684028201082E-3  -1.148546580225229E-3  
 2.044400000000000E10   -2.237373954375033E-3  -7.513206736702059E-4  
 2.044600000000000E10   -2.370995020976773E-3  -1.735899335202434E-4  
 2.044800000000000E10   -2.228118160187646E-3   3.968449395701842E-4  
 2.045000000000000E10   -1.910842377347527E-3   7.371204189473281E-4  
 2.045200000000000E10   -1.655898156092951E-3   8.802820574837152E-4  
 2.045400000000000E10   -1.479529689445540E-3   1.000893384183723E-3  
 2.045600000000000E10   -1.340505632537383E-3   1.126900845621195E-3  
 2.045800000000000E10   -1.252729493124342E-3   1.289820746967086E-3  
 2.046000000000000E10   -1.107435876124159E-3   1.526142289448116E-3  
 2.046200000000000E10   -8.873712870775275E-4   1.757264602929354E-3  
 2.046400000000000E10   -5.576335825026036E-4   1.944232456110142E-3  
 2.046600000000000E10   -1.452589500264299E-4   2.018466169290521E-3  
 2.046800000000000E10    2.280519930300889E-4   1.950727141876188E-3  
 2.047000000000000E10    5.108763806573633E-4   1.817057922447997E-3  
 2.047200000000000E10    7.444995744326326E-4   1.647254689251660E-3  
 2.047400000000000E10    9.119703512017927E-4   1.466995872626150E-3  
 2.047600000000000E10    1.045232246353947E-3   1.339593867736834E-3  
 2.047800000000000E10    1.242927672272479E-3   1.213407042626016E-3  
 2.048000000000000E10    1.430247410166043E-3   1.032108303021502E-3  
 2.048200000000000E10    1.583364662817783E-3   8.317007859996348E-4  
 2.048400000000000E10    1.736765550621958E-3   5.688787765662979E-4  
 2.048600000000000E10    1.824131791686846E-3   2.706337513195144E-4  
 2.048800000000000E10    1.846709836239892E-3  -2.770440005406272E-5  
 2.049000000000000E10    1.789126678852848E-3  -3.369162926295152E-4  
 2.049200000000000E10    1.633340867960619E-3  -5.521369834982411E-4  
 2.049400000000000E10    1.532373906768583E-3  -6.718282863773682E-4  
 2.049600000000000E10    1.477862108947227E-3  -8.210111625009666E-4  
 2.049800000000000E10    1.460929672854642E-3  -1.003530753897158E-3  
 2.050000000000000E10    1.464756097886022E-3  -1.272893584057413E-3  
 2.050200000000000E10    1.363049817478491E-3  -1.664476219081769E-3  
 2.050400000000000E10    1.057769120153454E-3  -2.103323185885395E-3  
 2.050600000000000E10    5.632016389561749E-4  -2.430891721612878E-3  
 2.050800000000000E10   -5.836923756524577E-5  -2.566106358749999E-3  
 2.051000000000000E10   -7.149876996495383E-4  -2.440995053836593E-3  
 2.051200000000000E10   -1.230197717194204E-3  -2.035543288069743E-3  
 2.051400000000000E10   -1.442959213077471E-3  -1.538461695114772E-3  
 2.051600000000000E10   -1.435901159075675E-3  -1.175426451178889E-3  
 2.051800000000000E10   -1.420418266206980E-3  -1.005712396430749E-3  
 2.052000000000000E10   -1.507927275573214E-3  -8.621892452033031E-4  
 2.052200000000000E10   -1.596766873262823E-3  -6.325449665180512E-4  
 2.052400000000000E10   -1.636074485119295E-3  -4.205411726919314E-4  
 2.052600000000000E10   -1.641174364421103E-3  -2.620079456526717E-4  
 2.052800000000000E10   -1.709370205558285E-3  -1.501676522618962E-4  
 2.053000000000000E10   -1.845176430867502E-3   4.579108591079370E-5  
 2.053200000000000E10   -1.930278518961536E-3   3.196329354843194E-4  
 2.053400000000000E10   -1.979772872463973E-3   6.623606831352744E-4  
 2.053600000000000E10   -1.949751568544243E-3   1.073627275656219E-3  
 2.053800000000000E10   -1.768204185214860E-3   1.499713553736607E-3  
 2.054000000000000E10   -1.410818391445059E-3   1.850441995042342E-3  
 2.054200000000000E10   -9.993885264352517E-4   2.072806987497542E-3  
 2.054400000000000E10   -6.028460446503704E-4   2.190961097194641E-3  
 2.054600000000000E10   -1.927878324581629E-4   2.236585891633123E-3  
 2.054800000000000E10    2.076354926598638E-4   2.159188285952917E-3  
 2.055000000000000E10    5.080240683768084E-4   1.981013885664719E-3  
 2.055200000000000E10    6.883457428085861E-4   1.821330843355369E-3  
 2.055400000000000E10    8.422088533363961E-4   1.769525102443165E-3  
 2.055600000000000E10    1.071992795914412E-3   1.754408421995188E-3  
