#  HZ   S   RI   R     50.00 
! Rohde & Schwarz ZVA40 4Ports - Version 3.90 - 1145.1110k42 SN: 100403
! Date: 2023-10-03 11:38:41
! Measurement: S12 
! 
 2.000000000000000E10   -4.495359271182201E-3  -4.787191227864122E-4  
 2.000200000000000E10   -4.522970105318254E-3   2.133538897404133E-4  
 2.000400000000000E10   -4.395372962479485E-3   9.513625601084270E-4  
 2.000600000000000E10   -4.130866564427016E-3   1.694541728246666E-3  
 2.000800000000000E10   -3.718578709871988E-3   2.313169470601122E-3  
 2.001000000000000E10   -3.276532379826033E-3   2.746703927194386E-3  
 2.001200000000000E10   -2.920562952350626E-3   3.119091708366396E-3  
 2.001400000000000E10   -2.537766554864285E-3   3.615005660434196E-3  
 2.001600000000000E10   -1.894565533900273E-3   4.156628847812062E-3  
 2.001800000000000E10   -1.106640070565658E-3   4.491165609945977E-3  
 2.002000000000000E10   -3.144325545477325E-4   4.651792065734849E-3  
 2.002200000000000E10    5.298552939686504E-4   4.644451350540904E-3  
 2.002400000000000E10    1.374127318864160E-3   4.516464111935578E-3  
 2.002600000000000E10    2.202147065083125E-3   4.187816537441418E-3  
 2.002800000000000E10    2.890659336176981E-3   3.742297519182350E-3  
 2.003000000000000E10    3.507059315648774E-3   3.146361182118027E-3  
 2.003200000000000E10    3.959989209693891E-3   2.428319454653028E-3  
 2.003400000000000E10    4.255449905255695E-3   1.646909688373284E-3  
 2.003600000000000E10    4.408484288403160E-3   8.476015020817244E-4  
 2.003800000000000E10    4.402853190178367E-3   9.385793171142739E-5  
 2.004000000000000E10    4.287344357573693E-3  -5.783643765152728E-4  
 2.004200000000000E10    4.095946101341474E-3  -1.233388994122882E-3  
 2.004400000000000E10    3.815817807651597E-3  -1.869677602401609E-3  
 2.004600000000000E10    3.453490034956869E-3  -2.469490339726578E-3  
 2.004800000000000E10    2.995447745286083E-3  -2.945896615600022E-3  
 2.005000000000000E10    2.505674714858763E-3  -3.327660322948187E-3  
 2.005200000000000E10    1.955021442481367E-3  -3.658564958660078E-3  
 2.005400000000000E10    1.374842904684414E-3  -3.918284205374895E-3  
 2.005600000000000E10    7.906157141091464E-4  -4.169920350160497E-3  
 2.005800000000000E10    1.029432380254335E-4  -4.372568203159321E-3  
 2.006000000000000E10   -7.020207584276030E-4  -4.389432962186666E-3  
 2.006200000000000E10   -1.509427307116121E-3  -4.195595116051750E-3  
 2.006400000000000E10   -2.265715006731236E-3  -3.859745081774738E-3  
 2.006600000000000E10   -2.925928959952584E-3  -3.392025541874424E-3  
 2.006800000000000E10   -3.446516017487021E-3  -2.805730342336092E-3  
 2.007000000000000E10   -3.838179015014091E-3  -2.141008822347034E-3  
 2.007200000000000E10   -4.127745832787988E-3  -1.411781059922996E-3  
 2.007400000000000E10   -4.281289722203228E-3  -6.390590462143776E-4  
 2.007600000000000E10   -4.322971799889957E-3   1.344632880090077E-4  
 2.007800000000000E10   -4.147702764811708E-3   9.082660748270714E-4  
 2.008000000000000E10   -3.743730836122493E-3   1.555541732900397E-3  
 2.008200000000000E10   -3.296820381694616E-3   1.991012944253507E-3  
 2.008400000000000E10   -3.019824402728751E-3   2.305778644120498E-3  
 2.008600000000000E10   -2.807598291808134E-3   2.726943382548759E-3  
 2.008800000000000E10   -2.425831148531212E-3   3.224047295626545E-3  
 2.009000000000000E10   -1.882345998686559E-3   3.641679508366275E-3  
 2.009200000000000E10   -1.276754833079507E-3   3.953951102424675E-3  
 2.009400000000000E10   -6.366321463003725E-4   4.240161357945744E-3  
 2.009600000000000E10    1.484785560008767E-4   4.482689089383241E-3  
 2.009800000000000E10    1.075127437507634E-3   4.477081233980480E-3  
 2.010000000000000E10    1.985178887652456E-3   4.141076694054859E-3  
 2.010200000000000E10    2.771169799974058E-3   3.609841388608081E-3  
 2.010400000000000E10    3.325875866736589E-3   2.929423951041797E-3  
 2.010600000000000E10    3.630399308263214E-3   2.223929209220741E-3  
 2.010800000000000E10    3.787678690366601E-3   1.586914565529169E-3  
 2.011000000000000E10    3.898473102944317E-3   1.022680980199373E-3  
 2.011200000000000E10    4.041505086431165E-3   4.936799521025256E-4  
 2.011400000000000E10    4.218059871729020E-3  -1.166628816886278E-4  
 2.011600000000000E10    4.312187785842292E-3  -8.656660968211669E-4  
 2.011800000000000E10    4.148465450929762E-3  -1.752072974939835E-3  
 2.012000000000000E10    3.679812469025269E-3  -2.554611762824618E-3  
 2.012200000000000E10    3.049792322318680E-3  -3.125786498656551E-3  
 2.012400000000000E10    2.486999309525936E-3  -3.468527845701073E-3  
 2.012600000000000E10    1.995236274629157E-3  -3.793096122879981E-3  
 2.012800000000000E10    1.358734919984706E-3  -4.151366846520960E-3  
 2.013000000000000E10    5.930121566471740E-4  -4.391727840658201E-3  
 2.013200000000000E10   -2.088704716664291E-4  -4.458941314216137E-3  
 2.013400000000000E10   -9.393790734878172E-4  -4.409491881697513E-3  
 2.013600000000000E10   -1.720350150904262E-3  -4.291680503498626E-3  
 2.013800000000000E10   -2.598778454878142E-3  -3.969819762134626E-3  
 2.014000000000000E10   -3.411032588109988E-3  -3.367979510652799E-3  
 2.014200000000000E10   -3.986840603926791E-3  -2.546607777323007E-3  
 2.014400000000000E10   -4.227114226209161E-3  -1.704732292914311E-3  
 2.014600000000000E10   -4.317771580162241E-3  -9.776058121979117E-4  
 2.014800000000000E10   -4.363785969254412E-3  -2.588757650697712E-4  
 2.015000000000000E10   -4.338364065107373E-3   4.779950442768006E-4  
 2.015200000000000E10   -4.182289655362506E-3   1.190950777841571E-3  
 2.015400000000000E10   -3.947338568422285E-3   1.821767402728522E-3  
 2.015600000000000E10   -3.616766264439856E-3   2.452826113037673E-3  
 2.015800000000000E10   -3.185985086738696E-3   3.058528759489948E-3  
 2.016000000000000E10   -2.649661879833221E-3   3.623945604043979E-3  
 2.016200000000000E10   -2.006046206655878E-3   4.089020681280045E-3  
 2.016400000000000E10   -1.223512838974043E-3   4.404150840630870E-3  
 2.016600000000000E10   -3.952434179401832E-4   4.539527968645342E-3  
 2.016800000000000E10    4.586157630439159E-4   4.540745184254745E-3  
 2.017000000000000E10    1.314628626882969E-3   4.380816097444101E-3  
 2.017200000000000E10    2.101375078475831E-3   4.027087684076878E-3  
 2.017400000000000E10    2.751411212830510E-3   3.485764056796768E-3  
 2.017600000000000E10    3.242276448932757E-3   2.850555511068845E-3  
 2.017800000000000E10    3.553610925520522E-3   2.219439865523038E-3  
 2.018000000000000E10    3.755297733148860E-3   1.642873758400327E-3  
 2.018200000000000E10    3.895497681580699E-3   1.104715369821913E-3  
 2.018400000000000E10    3.990331093623560E-3   5.758711567566321E-4  
 2.018600000000000E10    4.074964992349409E-3   3.170969461497119E-5  
 2.018800000000000E10    4.182925771676588E-3  -5.834462238981585E-4  
 2.019000000000000E10    4.222194817484407E-3  -1.300792663488461E-3  
 2.019200000000000E10    4.067346421089560E-3  -2.108240507757713E-3  
 2.019400000000000E10    3.679464424580888E-3  -2.915530959949082E-3  
 2.019600000000000E10    3.108244183293157E-3  -3.692642269165490E-3  
 2.019800000000000E10    2.295819699472975E-3  -4.309368994347598E-3  
 2.020000000000000E10    1.380065296979721E-3  -4.648112308678560E-3  
 2.020200000000000E10    4.290662049085915E-4  -4.720166862133600E-3  
 2.020400000000000E10   -4.563192450565981E-4  -4.559442707540568E-3  
 2.020600000000000E10   -1.208971063376485E-3  -4.267115153586914E-3  
 2.020800000000000E10   -1.857015882990488E-3  -3.899252091040031E-3  
 2.021000000000000E10   -2.343668062009929E-3  -3.444226461543162E-3  
 2.021200000000000E10   -2.652085950567460E-3  -3.069975527401999E-3  
 2.021400000000000E10   -3.080044377694834E-3  -2.803038101482355E-3  
 2.021600000000000E10   -3.668583506036076E-3  -2.393398827723699E-3  
 2.021800000000000E10   -4.207504938122790E-3  -1.723380993626276E-3  
 2.022000000000000E10   -4.483243724553551E-3  -9.083942066563809E-4  
 2.022200000000000E10   -4.522798293549952E-3  -1.128634932324474E-4  
 2.022400000000000E10   -4.441921957557707E-3   6.428213644899245E-4  
 2.022600000000000E10   -4.296938518882412E-3   1.394107307349581E-3  
 2.022800000000000E10   -4.045390991547717E-3   2.114454197118619E-3  
 2.023000000000000E10   -3.638935944165100E-3   2.754005844946261E-3  
 2.023200000000000E10   -3.154589528210247E-3   3.344534605994454E-3  
 2.023400000000000E10   -2.561850222249213E-3   3.903401104365419E-3  
 2.023600000000000E10   -1.834090963416108E-3   4.346938784628985E-3  
 2.023800000000000E10   -1.068833904961745E-3   4.627934394503940E-3  
 2.024000000000000E10   -2.352144233686007E-4   4.806688064977589E-3  
 2.024200000000000E10    7.089087531189032E-4   4.750418444183261E-3  
 2.024400000000000E10    1.558235962396112E-3   4.403162373942726E-3  
 2.024600000000000E10    2.188757822730046E-3   4.008961646001280E-3  
 2.024800000000000E10    2.761191324380690E-3   3.628767865859433E-3  
 2.025000000000000E10    3.312494478345592E-3   3.138270307669547E-3  
 2.025200000000000E10    3.797906373317044E-3   2.541233589029546E-3  
 2.025400000000000E10    4.187641615515630E-3   1.854346846153676E-3  
 2.025600000000000E10    4.452441658042832E-3   1.133160539155389E-3  
 2.025800000000000E10    4.578663772087039E-3   3.869186006745117E-4  
 2.026000000000000E10    4.581821436606686E-3  -3.552406365406382E-4  
 2.026200000000000E10    4.482682083384613E-3  -1.142997175853684E-3  
 2.026400000000000E10    4.218944867712604E-3  -1.937386598016438E-3  
 2.026600000000000E10    3.832308409750892E-3  -2.645082874300242E-3  
 2.026800000000000E10    3.340661389668906E-3  -3.245139012588457E-3  
 2.027000000000000E10    2.732417410155261E-3  -3.797633657730166E-3  
 2.027200000000000E10    1.990575774538297E-3  -4.227758427399668E-3  
 2.027400000000000E10    1.214502876099399E-3  -4.469618304736085E-3  
 2.027600000000000E10    4.345629120642251E-4  -4.598784176134524E-3  
 2.027800000000000E10   -3.538871518865137E-4  -4.549196829306492E-3  
 2.028000000000000E10   -1.077650865605063E-3  -4.365599116333474E-3  
 2.028200000000000E10   -1.787464810370510E-3  -4.112254414293502E-3  
 2.028400000000000E10   -2.462577123631850E-3  -3.768756601445899E-3  
 2.028600000000000E10   -3.047851221865894E-3  -3.300824325240444E-3  
 2.028800000000000E10   -3.534980684541811E-3  -2.714237684016059E-3  
 2.029000000000000E10   -3.898844222534342E-3  -2.114471416046590E-3  
 2.029200000000000E10   -4.236656258365622E-3  -1.504599284419001E-3  
 2.029400000000000E10   -4.537711404800538E-3  -7.580913983691684E-4  
 2.029600000000000E10   -4.630718301644419E-3   1.256062819322077E-4  
 2.029800000000000E10   -4.438115092216696E-3   9.883500512501556E-4  
 2.030000000000000E10   -4.075333386000415E-3   1.681993485508878E-3  
 2.030200000000000E10   -3.722190285875720E-3   2.291013782751965E-3  
 2.030400000000000E10   -3.319133224479334E-3   2.915073649904121E-3  
 2.030600000000000E10   -2.720978228881220E-3   3.458322411012135E-3  
 2.030800000000000E10   -2.008132632714486E-3   3.832419293668168E-3  
 2.031000000000000E10   -1.256041687246366E-3   4.025701640380754E-3  
 2.031200000000000E10   -5.872662389007064E-4   4.046069582686627E-3  
 2.031400000000000E10   -2.102202975618510E-5   4.022481807204799E-3  
 2.031600000000000E10    5.478396695088060E-4   4.004676214998029E-3  
 2.031800000000000E10    1.200941115820880E-3   3.871096173538961E-3  
 2.032000000000000E10    1.834346225807145E-3   3.588303292185498E-3  
 2.032200000000000E10    2.399093623813472E-3   3.261031441145229E-3  
 2.032400000000000E10    2.918272417176653E-3   2.845409493931711E-3  
 2.032600000000000E10    3.364053799161390E-3   2.304509262949106E-3  
 2.032800000000000E10    3.733918152235971E-3   1.701528595955928E-3  
 2.033000000000000E10    4.002416226629613E-3   1.028859331042586E-3  
 2.033200000000000E10    4.130396574214408E-3   3.239613373949741E-4  
 2.033400000000000E10    4.148050123220119E-3  -3.953611007757455E-4  
 2.033600000000000E10    4.081948903684386E-3  -7.810007891935822E-4  
 2.033800000000000E10    3.623338947992450E-3  -1.910024776732848E-3  
 2.034000000000000E10    3.126387927995482E-3  -2.526628879692268E-3  
 2.034200000000000E10    2.567182846919254E-3  -2.999692248878043E-3  
 2.034400000000000E10    1.913912930150245E-3  -3.325877411275673E-3  
 2.034600000000000E10    1.217129853948828E-3  -3.476777307520556E-3  
 2.034800000000000E10    6.019843417917352E-4  -3.480544464218090E-3  
 2.035000000000000E10    1.149292204782223E-4  -3.407323093885565E-3  
 2.035200000000000E10   -3.405276692779965E-4  -3.350612163206433E-3  
 2.035400000000000E10   -7.998184176399509E-4  -3.245257522427926E-3  
 2.035600000000000E10   -1.248125008445371E-3  -3.077105977361708E-3  
 2.035800000000000E10   -1.703028558032902E-3  -2.868689844814041E-3  
 2.036000000000000E10   -2.206469581312972E-3  -2.619600751333767E-3  
 2.036200000000000E10   -2.665136248992427E-3  -2.248600530610593E-3  
 2.036400000000000E10   -3.079505954436008E-3  -1.739024706357331E-3  
 2.036600000000000E10   -3.392100062052655E-3  -1.090231865123221E-3  
 2.036800000000000E10   -3.513428819492276E-3  -3.688033669468384E-4  
 2.037000000000000E10   -3.430837442439219E-3   3.415204311765102E-4  
 2.037200000000000E10   -3.168075170115005E-3   9.430106690942997E-4  
 2.037400000000000E10   -2.792320388595386E-3   1.393560643514826E-3  
 2.037600000000000E10   -2.409210364399440E-3   1.700100170854679E-3  
 2.037800000000000E10   -2.088532848245323E-3   1.968845547322537E-3  
 2.038000000000000E10   -1.779348169809874E-3   2.226056380641988E-3  
 2.038200000000000E10   -1.412255964970117E-3   2.415448251858722E-3  
 2.038400000000000E10   -1.065614021003798E-3   2.575625598415304E-3  
 2.038600000000000E10   -6.737100947820755E-4   2.775188048711285E-3  
 2.038800000000000E10   -1.545418333825119E-4   2.910019528051770E-3  
 2.039000000000000E10    3.659328290811307E-4   2.874552854815874E-3  
 2.039200000000000E10    8.439072494015651E-4   2.721952527393530E-3  
 2.039400000000000E10    1.285543028598675E-3   2.456026819607420E-3  
 2.039600000000000E10    1.638947950614762E-3   2.138943373083823E-3  
 2.039800000000000E10    1.955273761433155E-3   1.822124975024428E-3  
 2.040000000000000E10    2.179770558926856E-3   1.432962082288086E-3  
 2.040200000000000E10    2.280710550569336E-3   1.047096576171816E-3  
 2.040400000000000E10    2.368924848988285E-3   7.379347659214382E-4  
 2.040600000000000E10    2.479954501000759E-3   3.793773932048070E-4  
 2.040800000000000E10    2.534366001992069E-3  -5.687791199007517E-6  
 2.041000000000000E10    2.554887502335411E-3  -4.174079228127414E-4  
 2.041200000000000E10    2.472560799109593E-3  -8.771726334613171E-4  
 2.041400000000000E10    2.245251796449776E-3  -1.299801357320430E-3  
 2.041600000000000E10    1.997250976872635E-3  -1.678512338740529E-3  
 2.041800000000000E10    1.690620604860348E-3  -2.049240362236407E-3  
 2.042000000000000E10    1.247050922360164E-3  -2.336494722346097E-3  
 2.042200000000000E10    7.211677652233714E-4  -2.514750336453994E-3  
 2.042400000000000E10    1.740060151298819E-4  -2.544692350520825E-3  
 2.042600000000000E10   -3.218884416233074E-4  -2.420360180300205E-3  
 2.042800000000000E10   -7.497113599986176E-4  -2.170323503947216E-3  
 2.043000000000000E10   -1.008535493376048E-3  -1.826922989875814E-3  
 2.043200000000000E10   -1.080431044580791E-3  -1.520131304553507E-3  
 2.043400000000000E10   -1.130093375811116E-3  -1.350594239420576E-3  
 2.043600000000000E10   -1.211833649548729E-3  -1.280938448583700E-3  
 2.043800000000000E10   -1.365855430088048E-3  -1.230465052764357E-3  
 2.044000000000000E10   -1.605227419056397E-3  -1.108062511536105E-3  
 2.044200000000000E10   -1.899264220132995E-3  -8.896900117665593E-4  
 2.044400000000000E10   -2.182840092736201E-3  -5.115686446081450E-4  
 2.044600000000000E10   -2.279022462290440E-3   3.102701901395446E-5  
 2.044800000000000E10   -2.115956170354116E-3   5.714819695198826E-4  
 2.045000000000000E10   -1.748362210207454E-3   8.821502920056200E-4  
 2.045200000000000E10   -1.444426281837586E-3   9.731056617569072E-4  
 2.045400000000000E10   -1.285783305032171E-3   1.050542466104828E-3  
 2.045600000000000E10   -1.179747717501021E-3   1.148776887578760E-3  
 2.045800000000000E10   -1.058444332373578E-3   1.275851268133478E-3  
 2.046000000000000E10   -8.898528420688286E-4   1.443401908927402E-3  
 2.046200000000000E10   -6.651001212995792E-4   1.590008537453665E-3  
 2.046400000000000E10   -4.092617278512368E-4   1.678927373735104E-3  
 2.046600000000000E10   -1.278641733576624E-4   1.718088893465116E-3  
 2.046800000000000E10    1.286138413521902E-4   1.677766213779925E-3  
 2.047000000000000E10    3.432486578893999E-4   1.602527627974381E-3  
 2.047200000000000E10    5.649399272704674E-4   1.494259697120683E-3  
 2.047400000000000E10    7.364059177537761E-4   1.379695968652612E-3  
 2.047600000000000E10    8.486959857601720E-4   1.323639755348058E-3  
 2.047800000000000E10    1.048875519423267E-3   1.277053711452970E-3  
 2.048000000000000E10    1.319388378940431E-3   1.130239851676970E-3  
 2.048200000000000E10    1.544011344293846E-3   8.850829736157149E-4  
 2.048400000000000E10    1.696029765178822E-3   5.818468536760031E-4  
 2.048600000000000E10    1.729608237946506E-3   2.625189056148592E-4  
 2.048800000000000E10    1.684561617089888E-3  -7.322783626346777E-6  
 2.049000000000000E10    1.570292863009858E-3  -2.459959757472140E-4  
 2.049200000000000E10    1.442244624213120E-3  -4.036754421595631E-4  
 2.049400000000000E10    1.412015978377236E-3  -4.797224735088050E-4  
 2.049600000000000E10    1.458776183426380E-3  -5.936272501746202E-4  
 2.049800000000000E10    1.515260836255158E-3  -8.073710568666981E-4  
 2.050000000000000E10    1.539655634366865E-3  -1.136456284223607E-3  
 2.050200000000000E10    1.458751302166486E-3  -1.570022041208030E-3  
 2.050400000000000E10    1.164750031237740E-3  -2.042899379667677E-3  
 2.050600000000000E10    6.536839162421111E-4  -2.399201873774208E-3  
 2.050800000000000E10    1.363471491320288E-5  -2.515554053463625E-3  
 2.051000000000000E10   -6.483227310131147E-4  -2.351034923222821E-3  
 2.051200000000000E10   -1.131695660248920E-3  -1.959126835033574E-3  
 2.051400000000000E10   -1.308613506130445E-3  -1.514668781463625E-3  
 2.051600000000000E10   -1.335689795602098E-3  -1.199051475731097E-3  
 2.051800000000000E10   -1.359740740700085E-3  -1.034368909397182E-3  
 2.052000000000000E10   -1.479784840212008E-3  -9.161929466757819E-4  
 2.052200000000000E10   -1.621704993179306E-3  -7.226070673722362E-4  
 2.052400000000000E10   -1.692547300953127E-3  -5.071352462575545E-4  
 2.052600000000000E10   -1.712481271372073E-3  -3.489633662390923E-4  
 2.052800000000000E10   -1.805948896942960E-3  -2.328306026704665E-4  
 2.053000000000000E10   -1.996619566516192E-3   2.568465173186984E-5  
 2.053200000000000E10   -2.108888153500334E-3   3.904514038674687E-4  
 2.053400000000000E10   -2.130126113497457E-3   7.824090744441552E-4  
 2.053600000000000E10   -2.053503660435325E-3   1.261666629831364E-3  
 2.053800000000000E10   -1.792775657710163E-3   1.781003957867255E-3  
 2.054000000000000E10   -1.327078900138997E-3   2.143432388135804E-3  
 2.054200000000000E10   -8.542508106303131E-4   2.285746914054816E-3  
 2.054400000000000E10   -4.434063371319762E-4   2.325294406149430E-3  
 2.054600000000000E10   -5.204173018978604E-5   2.321425642350636E-3  
 2.054800000000000E10    3.543864491773164E-4   2.225298053151909E-3  
 2.055000000000000E10    6.726638858547674E-4   2.035686076971331E-3  
 2.055200000000000E10    8.387969109256573E-4   1.853830268733020E-3  
 2.055400000000000E10    9.825975009443340E-4   1.758205174533612E-3  
 2.055600000000000E10    1.189370222826615E-3   1.699898131824110E-3  
