#  HZ   S   RI   R     50.00 
! Rohde & Schwarz ZVA40 4Ports - Version 3.90 - 1145.1110k42 SN: 100403
! Date: 2023-10-03 11:40:32
! Measurement: S12 
! 
 2.000000000000000E10    2.331718154622380E-4  -5.887319109644053E-3  
 2.000200000000000E10   -7.239620641080870E-4  -5.893633407713087E-3  
 2.000400000000000E10   -1.743544828733085E-3  -5.607786346916800E-3  
 2.000600000000000E10   -2.618472928319265E-3  -5.163520816023704E-3  
 2.000800000000000E10   -3.366976381383009E-3  -4.717282519710285E-3  
 2.001000000000000E10   -4.126406516189929E-3  -4.236306115570996E-3  
 2.001200000000000E10   -4.890433081460220E-3  -3.534381303729283E-3  
 2.001400000000000E10   -5.508321440882154E-3  -2.588786986759968E-3  
 2.001600000000000E10   -5.892434726572700E-3  -1.499176059884054E-3  
 2.001800000000000E10   -6.027102711851951E-3  -4.413999914605585E-4  
 2.002000000000000E10   -5.979722676177820E-3   5.559708030583959E-4  
 2.002200000000000E10   -5.755280575680513E-3   1.613952935224882E-3  
 2.002400000000000E10   -5.380723142513523E-3   2.625002603357037E-3  
 2.002600000000000E10   -4.777662852710045E-3   3.545894002955821E-3  
 2.002800000000000E10   -4.046611142931162E-3   4.240058931625552E-3  
 2.003000000000000E10   -3.263954935526407E-3   4.732674246446954E-3  
 2.003200000000000E10   -2.482161236306032E-3   5.106718003473901E-3  
 2.003400000000000E10   -1.653200873449721E-3   5.440980385713004E-3  
 2.003600000000000E10   -7.655600568762533E-4   5.661090594474917E-3  
 2.003800000000000E10    1.276311070089125E-4   5.756367618838946E-3  
 2.004000000000000E10    1.058668644098496E-3   5.695781394563340E-3  
 2.004200000000000E10    2.009944766070004E-3   5.423145454928832E-3  
 2.004400000000000E10    2.863526163208816E-3   5.025635835611159E-3  
 2.004600000000000E10    3.654914692527167E-3   4.559634788030828E-3  
 2.004800000000000E10    4.401153315686518E-3   4.005743570073888E-3  
 2.005000000000000E10    5.106546312432599E-3   3.236691467463971E-3  
 2.005200000000000E10    5.617698792506148E-3   2.260921962766184E-3  
 2.005400000000000E10    5.933971213245834E-3   1.263754640671390E-3  
 2.005600000000000E10    6.120715980176574E-3   2.259354422912347E-4  
 2.005800000000000E10    6.108932007380106E-3  -8.251463533034204E-4  
 2.006000000000000E10    5.874568855182992E-3  -1.922113829533811E-3  
 2.006200000000000E10    5.396349752252854E-3  -2.967361231437989E-3  
 2.006400000000000E10    4.743410705554265E-3  -3.843748864407341E-3  
 2.006600000000000E10    4.007035159264451E-3  -4.556732545434325E-3  
 2.006800000000000E10    3.191414841071324E-3  -5.117572844028473E-3  
 2.007000000000000E10    2.252706964672716E-3  -5.553898953453259E-3  
 2.007200000000000E10    1.252561294542695E-3  -5.776020991443484E-3  
 2.007400000000000E10    2.977639750396420E-4  -5.857648327946663E-3  
 2.007600000000000E10   -6.430418989448637E-4  -5.823179424084999E-3  
 2.007800000000000E10   -1.540215384146130E-3  -5.574676001237499E-3  
 2.008000000000000E10   -2.325521480223095E-3  -5.231953760678018E-3  
 2.008200000000000E10   -3.114904380506940E-3  -4.893431491735909E-3  
 2.008400000000000E10   -3.977512061181996E-3  -4.500316421466846E-3  
 2.008600000000000E10   -4.855382773611281E-3  -3.801406568123235E-3  
 2.008800000000000E10   -5.465490571050733E-3  -2.829874951944307E-3  
 2.009000000000000E10   -5.819455254822969E-3  -1.858992385677994E-3  
 2.009200000000000E10   -6.111539641602173E-3  -8.495467417459523E-4  
 2.009400000000000E10   -6.280435801104264E-3   2.713990128271420E-4  
 2.009600000000000E10   -6.160486437794236E-3   1.514932985796973E-3  
 2.009800000000000E10   -5.607027732939632E-3   2.631428660135026E-3  
 2.010000000000000E10   -4.870892243666782E-3   3.485290178408226E-3  
 2.010200000000000E10   -4.096480000212238E-3   4.144591503535157E-3  
 2.010400000000000E10   -3.394881090908139E-3   4.576242856543374E-3  
 2.010600000000000E10   -2.737439884286788E-3   4.984299290097423E-3  
 2.010800000000000E10   -2.001140680578020E-3   5.399127128637500E-3  
 2.011000000000000E10   -1.136886486266222E-3   5.783658215983047E-3  
 2.011200000000000E10   -1.034981063707232E-4   6.055396550369485E-3  
 2.011400000000000E10    1.049295843889316E-3   6.065865685404451E-3  
 2.011600000000000E10    2.194269180849747E-3   5.730102304369211E-3  
 2.011800000000000E10    3.173393205981012E-3   5.078641421816968E-3  
 2.012000000000000E10    3.888293402269483E-3   4.343762666124990E-3  
 2.012200000000000E10    4.457809634644677E-3   3.669778204143600E-3  
 2.012400000000000E10    5.014504754432926E-3   2.992517909862930E-3  
 2.012600000000000E10    5.511759297439346E-3   2.164773815483959E-3  
 2.012800000000000E10    5.864348504002448E-3   1.129226741829404E-3  
 2.013000000000000E10    5.972090642899275E-3   2.370546415612033E-5  
 2.013200000000000E10    5.850474815815687E-3  -1.010029486173557E-3  
 2.013400000000000E10    5.602960147101571E-3  -1.972388251926060E-3  
 2.013600000000000E10    5.163779033830872E-3  -2.955908749114585E-3  
 2.013800000000000E10    4.472109678856753E-3  -3.887698373377876E-3  
 2.014000000000000E10    3.569585460893534E-3  -4.599422147428549E-3  
 2.014200000000000E10    2.636398645807748E-3  -4.996912674633442E-3  
 2.014400000000000E10    1.816665607125119E-3  -5.204312210143717E-3  
 2.014600000000000E10    9.940000923557416E-4  -5.396932880911563E-3  
 2.014800000000000E10    8.810423147493836E-5  -5.472898483276367E-3  
 2.015000000000000E10   -8.299540107448896E-4  -5.387499031645281E-3  
 2.015200000000000E10   -1.665489424744414E-3  -5.167414158306741E-3  
 2.015400000000000E10   -2.456925490319177E-3  -4.823549978297067E-3  
 2.015600000000000E10   -3.214464290067554E-3  -4.347810004320410E-3  
 2.015800000000000E10   -3.925454095695859E-3  -3.779796564399644E-3  
 2.016000000000000E10   -4.572381610395733E-3  -3.082600758514471E-3  
 2.016200000000000E10   -5.072638737382713E-3  -2.278630707964853E-3  
 2.016400000000000E10   -5.408589917890452E-3  -1.336688335329570E-3  
 2.016600000000000E10   -5.525991475830476E-3  -3.069464679962645E-4  
 2.016800000000000E10   -5.424491043582008E-3   6.807170165875169E-4  
 2.017000000000000E10   -5.174171903895007E-3   1.579052406466670E-3  
 2.017200000000000E10   -4.766631216086724E-3   2.377835792247896E-3  
 2.017400000000000E10   -4.250842853690740E-3   3.062464020870351E-3  
 2.017600000000000E10   -3.672183922457475E-3   3.629210982816639E-3  
 2.017800000000000E10   -3.131924835206182E-3   4.148415048365241E-3  
 2.018000000000000E10   -2.527310745790601E-3   4.684920595199974E-3  
 2.018200000000000E10   -1.760854622935532E-3   5.160193873086462E-3  
 2.018400000000000E10   -8.469742261459708E-4   5.485632146398227E-3  
 2.018600000000000E10    1.750754632262720E-4   5.654488448743468E-3  
 2.018800000000000E10    1.292546857493343E-3   5.626351400106042E-3  
 2.019000000000000E10    2.392256451356743E-3   5.279597740068481E-3  
 2.019200000000000E10    3.328727135710695E-3   4.641608024636905E-3  
 2.019400000000000E10    4.084101602159165E-3   3.833629803180143E-3  
 2.019600000000000E10    4.646232748335160E-3   2.946889993769152E-3  
 2.019800000000000E10    4.978396533126081E-3   2.004605424762876E-3  
 2.020000000000000E10    5.050235962564195E-3   1.117448861434780E-3  
 2.020200000000000E10    4.959731776681212E-3   3.802711316556842E-4  
 2.020400000000000E10    4.915896941114356E-3  -2.572552260028682E-4  
 2.020600000000000E10    4.926956448428057E-3  -9.636839709451630E-4  
 2.020800000000000E10    4.797098502792694E-3  -1.766742754693109E-3  
 2.021000000000000E10    4.515081954499086E-3  -2.478255571245596E-3  
 2.021200000000000E10    4.225170739960892E-3  -3.223778300539211E-3  
 2.021400000000000E10    3.703202871191833E-3  -4.133094688532530E-3  
 2.021600000000000E10    2.827939646387542E-3  -4.931140018420087E-3  
 2.021800000000000E10    1.770677433038752E-3  -5.371699299387358E-3  
 2.022000000000000E10    7.861998574635774E-4  -5.510224960744381E-3  
 2.022200000000000E10   -1.640951261463300E-4  -5.513856791097810E-3  
 2.022400000000000E10   -1.113885621264301E-3  -5.400682523570679E-3  
 2.022600000000000E10   -2.062483932133074E-3  -5.152225701345338E-3  
 2.022800000000000E10   -2.937344472027488E-3  -4.737711942720193E-3  
 2.023000000000000E10   -3.737080704282832E-3  -4.160258436092625E-3  
 2.023200000000000E10   -4.462830222177285E-3  -3.372157070164880E-3  
 2.023400000000000E10   -4.982792599885553E-3  -2.432524830240894E-3  
 2.023600000000000E10   -5.250602908846405E-3  -1.499953110598856E-3  
 2.023800000000000E10   -5.365761324625325E-3  -5.943057821477177E-4  
 2.024000000000000E10   -5.347224366333750E-3   3.295426830407923E-4  
 2.024200000000000E10   -5.119526741543303E-3   1.217805344990834E-3  
 2.024400000000000E10   -4.808533729778396E-3   1.982354007109448E-3  
 2.024600000000000E10   -4.484719200128759E-3   2.717958745995054E-3  
 2.024800000000000E10   -4.001502171848660E-3   3.452411809660219E-3  
 2.025000000000000E10   -3.335712063643668E-3   4.078126546961290E-3  
 2.025200000000000E10   -2.618412038794270E-3   4.588756003175622E-3  
 2.025400000000000E10   -1.812184294168320E-3   5.035827160571461E-3  
 2.025600000000000E10   -8.923652499948664E-4   5.308520273064023E-3  
 2.025800000000000E10    3.713902616355990E-6   5.345552935506460E-3  
 2.026000000000000E10    8.990623496679796E-4   5.258437780732359E-3  
 2.026200000000000E10    1.779340793965040E-3   5.030422712917682E-3  
 2.026400000000000E10    2.617573270712186E-3   4.713127182589637E-3  
 2.026600000000000E10    3.455964900139306E-3   4.226621016170141E-3  
 2.026800000000000E10    4.159092075294919E-3   3.504997265904591E-3  
 2.027000000000000E10    4.653906742869704E-3   2.614645847912740E-3  
 2.027200000000000E10    4.893598284710338E-3   1.751295243458892E-3  
 2.027400000000000E10    5.057046276137785E-3   1.032288205654671E-3  
 2.027600000000000E10    5.173932191812331E-3   3.083345547094252E-4  
 2.027800000000000E10    5.236935439623065E-3  -4.446122243448541E-4  
 2.028000000000000E10    5.266063760414169E-3  -1.301926715920369E-3  
 2.028200000000000E10    5.128095788812197E-3  -2.309013252939891E-3  
 2.028400000000000E10    4.709724009174993E-3  -3.328411451851329E-3  
 2.028600000000000E10    4.002857953310013E-3  -4.201722486565511E-3  
 2.028800000000000E10    3.120865146801980E-3  -4.852601827156765E-3  
 2.029000000000000E10    2.196070056891552E-3  -5.368390931161466E-3  
 2.029200000000000E10    1.125553027830190E-3  -5.757118040626801E-3  
 2.029400000000000E10   -4.958271704338214E-5  -5.811222949651657E-3  
 2.029600000000000E10   -1.106795371958503E-3  -5.528499596510773E-3  
 2.029800000000000E10   -1.918760318033122E-3  -5.089879311897137E-3  
 2.030000000000000E10   -2.604133716818911E-3  -4.672093075458651E-3  
 2.030200000000000E10   -3.326087793404306E-3  -4.251319501135085E-3  
 2.030400000000000E10   -4.035882600065735E-3  -3.641894846050828E-3  
 2.030600000000000E10   -4.550180880835763E-3  -2.826514196823593E-3  
 2.030800000000000E10   -4.839325979076051E-3  -1.996612538480097E-3  
 2.031000000000000E10   -5.033921122688939E-3  -1.254127343633661E-3  
 2.031200000000000E10   -5.230855921076404E-3  -5.406074385434665E-4  
 2.031400000000000E10   -5.411038623639832E-3   2.743036915220458E-4  
 2.031600000000000E10   -5.441121567316630E-3   1.236440756151246E-3  
 2.031800000000000E10   -5.168110235697694E-3   2.268182243117028E-3  
 2.032000000000000E10   -4.652692746646979E-3   3.182967167554631E-3  
 2.032200000000000E10   -4.020209493184532E-3   3.935677292584270E-3  
 2.032400000000000E10   -3.278020527903681E-3   4.521522946931698E-3  
 2.032600000000000E10   -2.478381567117241E-3   5.008896191914877E-3  
 2.032800000000000E10   -1.559185299642936E-3   5.429970807637330E-3  
 2.033000000000000E10   -5.417441500833742E-4   5.647987489485079E-3  
 2.033200000000000E10    4.757798419127035E-4   5.681019431600968E-3  
 2.033400000000000E10    1.534018825084247E-3   5.498471169698018E-3  
 2.033600000000000E10    2.035578247159720E-3   5.209663261969885E-3  
 2.033800000000000E10    3.296619341536253E-3   4.321685060858727E-3  
 2.034000000000000E10    3.872670491950380E-3   3.626387299003977E-3  
 2.034200000000000E10    4.296555959930023E-3   2.940295367605157E-3  
 2.034400000000000E10    4.607454614920749E-3   2.198563681708442E-3  
 2.034600000000000E10    4.832403717079649E-3   1.448491398521044E-3  
 2.034800000000000E10    5.014651661945715E-3   7.163351638828991E-4  
 2.035000000000000E10    5.156836472451687E-3  -4.160446675356339E-5  
 2.035200000000000E10    5.183132123891955E-3  -9.379629433775942E-4  
 2.035400000000000E10    4.953543552094037E-3  -1.853753571157102E-3  
 2.035600000000000E10    4.574633203446865E-3  -2.660778523595245E-3  
 2.035800000000000E10    4.084906885745350E-3  -3.445608653473082E-3  
 2.036000000000000E10    3.428163903730888E-3  -4.154187178722135E-3  
 2.036200000000000E10    2.638437276430153E-3  -4.684497636777384E-3  
 2.036400000000000E10    1.723192222588868E-3  -5.069077618558099E-3  
 2.036600000000000E10    7.097278161112357E-4  -5.240134894847870E-3  
 2.036800000000000E10   -2.564456156472228E-4  -5.146196491464422E-3  
 2.037000000000000E10   -1.049906688017978E-3  -4.861611424496880E-3  
 2.037200000000000E10   -1.679843684003033E-3  -4.536494957628074E-3  
 2.037400000000000E10   -2.230445949222755E-3  -4.242640506062243E-3  
 2.037600000000000E10   -2.847623476689613E-3  -3.968034250040850E-3  
 2.037800000000000E10   -3.563911679925191E-3  -3.591945231029833E-3  
 2.038000000000000E10   -4.235149809607754E-3  -3.011864152978416E-3  
 2.038200000000000E10   -4.749653705706200E-3  -2.220346109458694E-3  
 2.038400000000000E10   -5.122147931682843E-3  -1.333809664679898E-3  
 2.038600000000000E10   -5.322074034699688E-3  -3.331320455159855E-4  
 2.038800000000000E10   -5.268818905784025E-3   6.549510052772584E-4  
 2.039000000000000E10   -5.011468090944821E-3   1.567341503687203E-3  
 2.039200000000000E10   -4.600247471696801E-3   2.365455195238745E-3  
 2.039400000000000E10   -4.088176207409965E-3   3.053885806972782E-3  
 2.039600000000000E10   -3.547570331849986E-3   3.703176285381670E-3  
 2.039800000000000E10   -2.876293733371077E-3   4.272718327464882E-3  
 2.040000000000000E10   -2.119588268989767E-3   4.664660500431503E-3  
 2.040200000000000E10   -1.311100769305119E-3   4.986061248928309E-3  
 2.040400000000000E10   -3.736824383614241E-4   5.176914321189679E-3  
 2.040600000000000E10    5.843317571648018E-4   5.138430606435847E-3  
 2.040800000000000E10    1.489078979594288E-3   4.939152427983505E-3  
 2.041000000000000E10    2.359035028213705E-3   4.545023112937257E-3  
 2.041200000000000E10    3.071763087064028E-3   3.975011598042868E-3  
 2.041400000000000E10    3.667260727120771E-3   3.347413028003993E-3  
 2.041600000000000E10    4.183408597277271E-3   2.656020362068106E-3  
 2.041800000000000E10    4.529914128835555E-3   1.853494124521536E-3  
 2.042000000000000E10    4.696829106520724E-3   1.014682597963623E-3  
 2.042200000000000E10    4.703979042393190E-3   1.430362759425339E-4  
 2.042400000000000E10    4.542627233873916E-3  -6.430674240820939E-4  
 2.042600000000000E10    4.282348910001694E-3  -1.312706718669722E-3  
 2.042800000000000E10    3.931773740246341E-3  -1.902674781848435E-3  
 2.043000000000000E10    3.570814142693525E-3  -2.382605603930575E-3  
 2.043200000000000E10    3.207869879487488E-3  -2.844753752773007E-3  
 2.043400000000000E10    2.821464143279526E-3  -3.330757142975927E-3  
 2.043600000000000E10    2.387274013556265E-3  -3.839889860332564E-3  
 2.043800000000000E10    1.750325158893786E-3  -4.368072444642032E-3  
 2.044000000000000E10    8.594915982232327E-4  -4.753994651966626E-3  
 2.044200000000000E10   -1.667816363300922E-4  -4.885976013072111E-3  
 2.044400000000000E10   -1.181280693142779E-3  -4.690943354809726E-3  
 2.044600000000000E10   -2.034215748103129E-3  -4.187405902754378E-3  
 2.044800000000000E10   -2.583459373218594E-3  -3.573448690413325E-3  
 2.045000000000000E10   -2.945050838644858E-3  -3.068563105814435E-3  
 2.045200000000000E10   -3.340000597139200E-3  -2.613015343538589E-3  
 2.045400000000000E10   -3.738182113954315E-3  -2.069656728525405E-3  
 2.045600000000000E10   -4.029525047237123E-3  -1.456951476737029E-3  
 2.045800000000000E10   -4.266797013028905E-3  -7.605933071183111E-4  
 2.046000000000000E10   -4.363878009219965E-3   5.419494873085235E-5  
 2.046200000000000E10   -4.269947849765973E-3   8.752606593555324E-4  
 2.046400000000000E10   -3.980756547577955E-3   1.646775027943982E-3  
 2.046600000000000E10   -3.507851200454213E-3   2.286239673762962E-3  
 2.046800000000000E10   -2.984352513319917E-3   2.745805161625699E-3  
 2.047000000000000E10   -2.460084665842631E-3   3.108508307141839E-3  
 2.047200000000000E10   -1.928136942701208E-3   3.398769086709729E-3  
 2.047400000000000E10   -1.407110416847799E-3   3.626923835663884E-3  
 2.047600000000000E10   -8.231581262036884E-4   3.820596926811117E-3  
 2.047800000000000E10   -1.382716336929999E-4   3.911657379595219E-3  
 2.048000000000000E10    5.393829498509015E-4   3.853333242996424E-3  
 2.048200000000000E10    1.166395032433448E-3   3.706773889630482E-3  
 2.048400000000000E10    1.750559934104482E-3   3.449188933397333E-3  
 2.048600000000000E10    2.285233862629092E-3   3.107176032952137E-3  
 2.048800000000000E10    2.767581027001143E-3   2.667146389959036E-3  
 2.049000000000000E10    3.153213636121816E-3   2.135487894217174E-3  
 2.049200000000000E10    3.420838698123893E-3   1.613321037169684E-3  
 2.049400000000000E10    3.620235594334426E-3   1.100254490868085E-3  
 2.049600000000000E10    3.782234137394915E-3   5.343973947068056E-4  
 2.049800000000000E10    3.915188972044875E-3  -9.193015716004151E-5  
 2.050000000000000E10    3.991641328428631E-3  -8.112964375565450E-4  
 2.050200000000000E10    3.892134167943840E-3  -1.628747162478114E-3  
 2.050400000000000E10    3.553669770351715E-3  -2.460493792400316E-3  
 2.050600000000000E10    2.960107729045882E-3  -3.223015383506815E-3  
 2.050800000000000E10    2.069971317218410E-3  -3.772300176529421E-3  
 2.051000000000000E10    1.080980791744811E-3  -3.941986865053575E-3  
 2.051200000000000E10    2.820819208864123E-4  -3.738613342176434E-3  
 2.051400000000000E10   -2.445022993790055E-4  -3.425030218851236E-3  
 2.051600000000000E10   -6.328968404516303E-4  -3.218875671909364E-3  
 2.051800000000000E10   -1.049353823031265E-3  -3.096863713667349E-3  
 2.052000000000000E10   -1.532936235889792E-3  -2.908159728610406E-3  
 2.052200000000000E10   -1.953993880845331E-3  -2.542752738076228E-3  
 2.052400000000000E10   -2.210647807698007E-3  -2.165100804564578E-3  
 2.052600000000000E10   -2.393289762376636E-3  -1.864436168775515E-3  
 2.052800000000000E10   -2.653747503818186E-3  -1.602856153449803E-3  
 2.053000000000000E10   -2.980580001517579E-3  -1.260209694953153E-3  
 2.053200000000000E10   -3.235884993854497E-3  -8.006771698732068E-4  
 2.053400000000000E10   -3.414057781574903E-3  -2.385413161526366E-4  
 2.053600000000000E10   -3.513089734715996E-3   4.347713849576260E-4  
 2.053800000000000E10   -3.439314654786830E-3   1.176582373402737E-3  
 2.054000000000000E10   -3.094695310142857E-3   1.890741814686745E-3  
 2.054200000000000E10   -2.577398058578924E-3   2.433559934919079E-3  
 2.054400000000000E10   -1.985444889955775E-3   2.805682433838094E-3  
 2.054600000000000E10   -1.339939707476232E-3   2.996955722294472E-3  
 2.054800000000000E10   -7.332814986714059E-4   3.017237504806232E-3  
 2.055000000000000E10   -2.634872879651893E-4   2.865016012004128E-3  
 2.055200000000000E10    2.948402949119487E-5   2.671507445888387E-3  
 2.055400000000000E10    2.415809668255626E-4   2.615382075654688E-3  
 2.055600000000000E10    5.245009001723872E-4   2.690202746264361E-3  
