#  HZ   S   RI   R     50.00 
! Rohde & Schwarz ZVA40 4Ports - Version 3.90 - 1145.1110k42 SN: 100403
! Date: 2023-10-03 11:44:09
! Measurement: S12 
! 
 2.000000000000000E10    2.876816915175465E-4  -5.864732893022859E-3  
 2.000200000000000E10   -7.167448997047229E-4  -5.868385237384849E-3  
 2.000400000000000E10   -1.743076777338614E-3  -5.622501477384519E-3  
 2.000600000000000E10   -2.622440488004881E-3  -5.196234475775267E-3  
 2.000800000000000E10   -3.337980994433472E-3  -4.732144500201745E-3  
 2.001000000000000E10   -4.078483776239212E-3  -4.251381184967091E-3  
 2.001200000000000E10   -4.887722656820660E-3  -3.612231750639134E-3  
 2.001400000000000E10   -5.591437318304807E-3  -2.696213089197936E-3  
 2.001600000000000E10   -5.984881505707410E-3  -1.578138755546277E-3  
 2.001800000000000E10   -6.084011221848766E-3  -5.211662707099148E-4  
 2.002000000000000E10   -6.055557581025020E-3   5.313961966913731E-4  
 2.002200000000000E10   -5.840545702235077E-3   1.657022872303494E-3  
 2.002400000000000E10   -5.450240646799406E-3   2.671422898662066E-3  
 2.002600000000000E10   -4.865836917418881E-3   3.548047432499659E-3  
 2.002800000000000E10   -4.163489834148698E-3   4.261293172560357E-3  
 2.003000000000000E10   -3.388834612275410E-3   4.843904715368655E-3  
 2.003200000000000E10   -2.592053569071455E-3   5.331428518419159E-3  
 2.003400000000000E10   -1.674575129918632E-3   5.724086456859309E-3  
 2.003600000000000E10   -7.022319463610558E-4   5.895708480642902E-3  
 2.003800000000000E10    2.689275112330775E-4   5.895197207545057E-3  
 2.004000000000000E10    1.233224328722299E-3   5.775454314233958E-3  
 2.004200000000000E10    2.189761376460639E-3   5.502655073126526E-3  
 2.004400000000000E10    3.096798429104649E-3   5.083573138946860E-3  
 2.004600000000000E10    3.900321968926938E-3   4.493407190321283E-3  
 2.004800000000000E10    4.588380935046163E-3   3.804957273764989E-3  
 2.005000000000000E10    5.218022334324235E-3   3.005388580883543E-3  
 2.005200000000000E10    5.686080205894302E-3   2.048365661583136E-3  
 2.005400000000000E10    5.927927263173058E-3   1.089366413260055E-3  
 2.005600000000000E10    6.073994811149047E-3   1.181417627263922E-4  
 2.005800000000000E10    6.079231781708729E-3  -9.534652215532132E-4  
 2.006000000000000E10    5.804313066963552E-3  -2.107856200180120E-3  
 2.006200000000000E10    5.262318697715861E-3  -3.102973512653645E-3  
 2.006400000000000E10    4.574222900280002E-3  -3.896414311870995E-3  
 2.006600000000000E10    3.815983150943870E-3  -4.526120934390115E-3  
 2.006800000000000E10    3.020403535898637E-3  -5.031641580379059E-3  
 2.007000000000000E10    2.160367644066183E-3  -5.477359250126553E-3  
 2.007200000000000E10    1.219081708207083E-3  -5.740800736387694E-3  
 2.007400000000000E10    2.945017927961517E-4  -5.824736691244836E-3  
 2.007600000000000E10   -6.487653844648735E-4  -5.803886252942155E-3  
 2.007800000000000E10   -1.613193598802014E-3  -5.609844328352699E-3  
 2.008000000000000E10   -2.468251358763672E-3  -5.256575428777272E-3  
 2.008200000000000E10   -3.258562862390170E-3  -4.866217860929025E-3  
 2.008400000000000E10   -4.075353781198278E-3  -4.379504919818646E-3  
 2.008600000000000E10   -4.869981346950856E-3  -3.640043770572470E-3  
 2.008800000000000E10   -5.463007975507667E-3  -2.682428264706837E-3  
 2.009000000000000E10   -5.814639489269920E-3  -1.704207352753499E-3  
 2.009200000000000E10   -6.047627470866153E-3  -7.711757662410968E-4  
 2.009400000000000E10   -6.208329434686730E-3   2.891154753915207E-4  
 2.009600000000000E10   -6.102490451554827E-3   1.536347925827797E-3  
 2.009800000000000E10   -5.602662005066995E-3   2.695531345742905E-3  
 2.010000000000000E10   -4.887282135493962E-3   3.587403945019278E-3  
 2.010200000000000E10   -4.067698750384307E-3   4.253104181553970E-3  
 2.010400000000000E10   -3.255656189304382E-3   4.683842215641046E-3  
 2.010600000000000E10   -2.498608181222415E-3   5.018117764788401E-3  
 2.010800000000000E10   -1.738841583618871E-3   5.345325932335952E-3  
 2.011000000000000E10   -9.191843107105100E-4   5.619802529475203E-3  
 2.011200000000000E10    1.534474168644468E-5   5.761421900702481E-3  
 2.011400000000000E10    1.016889253263304E-3   5.683928959976131E-3  
 2.011600000000000E10    2.010268909921831E-3   5.436626000429500E-3  
 2.011800000000000E10    2.945672745582621E-3   4.998696713091293E-3  
 2.012000000000000E10    3.730784629283803E-3   4.422085083745145E-3  
 2.012200000000000E10    4.394675101011747E-3   3.736716846517698E-3  
 2.012400000000000E10    4.983425113552637E-3   2.952210241047199E-3  
 2.012600000000000E10    5.449021719932680E-3   2.045464524692653E-3  
 2.012800000000000E10    5.752876903018589E-3   1.034961252113030E-3  
 2.013000000000000E10    5.810454562536361E-3  -4.559893370893453E-5  
 2.013200000000000E10    5.571853906038858E-3  -1.033727976698582E-3  
 2.013400000000000E10    5.258090144460216E-3  -1.878332603462194E-3  
 2.013600000000000E10    4.890918390587771E-3  -2.714022791871625E-3  
 2.013800000000000E10    4.408204259251250E-3  -3.553858240529773E-3  
 2.014000000000000E10    3.675108099042021E-3  -4.286227124999949E-3  
 2.014200000000000E10    2.804751463862972E-3  -4.758595492798116E-3  
 2.014400000000000E10    1.990091733044251E-3  -5.054025924208847E-3  
 2.014600000000000E10    1.193794143508829E-3  -5.315364491761713E-3  
 2.014800000000000E10    3.272403087160347E-4  -5.484847530124733E-3  
 2.015000000000000E10   -5.894992328076452E-4  -5.470416031455921E-3  
 2.015200000000000E10   -1.513943596409611E-3  -5.301658460801400E-3  
 2.015400000000000E10   -2.439698361534886E-3  -4.983190583149470E-3  
 2.015600000000000E10   -3.278244956522997E-3  -4.472689053480640E-3  
 2.015800000000000E10   -3.968747026083892E-3  -3.874472880912294E-3  
 2.016000000000000E10   -4.582608237463997E-3  -3.174685108486885E-3  
 2.016200000000000E10   -5.086869219846932E-3  -2.336475677182707E-3  
 2.016400000000000E10   -5.429051611419201E-3  -1.380963338186405E-3  
 2.016600000000000E10   -5.579683544505158E-3  -4.153373103144238E-4  
 2.016800000000000E10   -5.545390831160939E-3   5.421625584873675E-4  
 2.017000000000000E10   -5.322578322878223E-3   1.483618562040782E-3  
 2.017200000000000E10   -4.921319187377339E-3   2.365495615788265E-3  
 2.017400000000000E10   -4.417488370627288E-3   3.137897078231468E-3  
 2.017600000000000E10   -3.844283191571511E-3   3.780672796177889E-3  
 2.017800000000000E10   -3.253739875254563E-3   4.312753717610498E-3  
 2.018000000000000E10   -2.577404115050112E-3   4.833685100047923E-3  
 2.018200000000000E10   -1.768660916057665E-3   5.302737018576375E-3  
 2.018400000000000E10   -8.172432457503133E-4   5.646746458079467E-3  
 2.018600000000000E10    2.230546489632698E-4   5.769819741754376E-3  
 2.018800000000000E10    1.270187114664342E-3   5.655659939480540E-3  
 2.019000000000000E10    2.298995975113701E-3   5.333707825023942E-3  
 2.019200000000000E10    3.276957386775027E-3   4.812646057426072E-3  
 2.019400000000000E10    4.151672791735626E-3   4.107012802451359E-3  
 2.019600000000000E10    4.838388896098844E-3   3.235029390104760E-3  
 2.019800000000000E10    5.252180617195344E-3   2.212306038081769E-3  
 2.020000000000000E10    5.391206492673713E-3   1.199083818590322E-3  
 2.020200000000000E10    5.339832733090156E-3   3.171351894213140E-4  
 2.020400000000000E10    5.276179546681943E-3  -4.284162506213941E-4  
 2.020600000000000E10    5.201045322182125E-3  -1.186126174784645E-3  
 2.020800000000000E10    4.950387069932474E-3  -2.031817849257908E-3  
 2.021000000000000E10    4.569072897235553E-3  -2.786813198431652E-3  
 2.021200000000000E10    4.220555028629034E-3  -3.565079913907704E-3  
 2.021400000000000E10    3.642118294481878E-3  -4.474943737526245E-3  
 2.021600000000000E10    2.672762289995888E-3  -5.208001857232534E-3  
 2.021800000000000E10    1.541631272802352E-3  -5.542922124971824E-3  
 2.022000000000000E10    5.306391246183757E-4  -5.592579639099018E-3  
 2.022200000000000E10   -3.813143227672887E-4  -5.568159968350773E-3  
 2.022400000000000E10   -1.281765731312181E-3  -5.486686127605263E-3  
 2.022600000000000E10   -2.265686396348440E-3  -5.217088294433960E-3  
 2.022800000000000E10   -3.193354376863858E-3  -4.679982109692853E-3  
 2.023000000000000E10   -3.965236407555181E-3  -3.957585659675271E-3  
 2.023200000000000E10   -4.580081980905416E-3  -3.172381897936020E-3  
 2.023400000000000E10   -5.047052077289840E-3  -2.297764875899250E-3  
 2.023600000000000E10   -5.309036894559616E-3  -1.343368981397661E-3  
 2.023800000000000E10   -5.380591421690866E-3  -3.852859725591195E-4  
 2.024000000000000E10   -5.294403124508667E-3   5.491118905193905E-4  
 2.024200000000000E10   -5.027799598811340E-3   1.390246896709435E-3  
 2.024400000000000E10   -4.693117239914928E-3   2.074131759366504E-3  
 2.024600000000000E10   -4.343173619926958E-3   2.767440635871924E-3  
 2.024800000000000E10   -3.842201281277609E-3   3.508375395173706E-3  
 2.025000000000000E10   -3.170618382110088E-3   4.144796457739524E-3  
 2.025200000000000E10   -2.437560631291857E-3   4.609344743667440E-3  
 2.025400000000000E10   -1.638496789981615E-3   4.946402452288219E-3  
 2.025600000000000E10   -7.702235435231479E-4   5.138547062000008E-3  
 2.025800000000000E10    9.089227995275690E-5   5.187873197757782E-3  
 2.026000000000000E10    9.652066138887267E-4   5.132085821924755E-3  
 2.026200000000000E10    1.818617667864870E-3   4.901434752875519E-3  
 2.026400000000000E10    2.588412888279116E-3   4.549140641427458E-3  
 2.026600000000000E10    3.365029234998695E-3   4.052746628982173E-3  
 2.026800000000000E10    4.070103998246140E-3   3.384229130161459E-3  
 2.027000000000000E10    4.607145176288277E-3   2.558788262621918E-3  
 2.027200000000000E10    4.864521527762521E-3   1.702483334298794E-3  
 2.027400000000000E10    4.988481093259384E-3   9.297579105314896E-4  
 2.027600000000000E10    5.039869332417785E-3   1.737710083741857E-4  
 2.027800000000000E10    5.045977783285910E-3  -5.543537865730134E-4  
 2.028000000000000E10    5.073128900502199E-3  -1.348439972452942E-3  
 2.028200000000000E10    4.923807533741489E-3  -2.278179181318102E-3  
 2.028400000000000E10    4.475204802957582E-3  -3.220211466345093E-3  
 2.028600000000000E10    3.780455768315329E-3  -4.041411864107529E-3  
 2.028800000000000E10    2.946183508944242E-3  -4.665207251937057E-3  
 2.029000000000000E10    2.098467845829978E-3  -5.096395913925436E-3  
 2.029200000000000E10    1.178329784630074E-3  -5.391778004712161E-3  
 2.029400000000000E10    1.912260697970125E-4  -5.506468998122609E-3  
 2.029600000000000E10   -8.066230649492656E-4  -5.411194763893699E-3  
 2.029800000000000E10   -1.677320839419440E-3  -5.129735407116727E-3  
 2.030000000000000E10   -2.426445969943831E-3  -4.799487607729902E-3  
 2.030200000000000E10   -3.210266640049563E-3  -4.390716571897392E-3  
 2.030400000000000E10   -4.007939105554496E-3  -3.747370468697860E-3  
 2.030600000000000E10   -4.608352381138155E-3  -2.896046716290615E-3  
 2.030800000000000E10   -4.956530175198622E-3  -2.022201229373584E-3  
 2.031000000000000E10   -5.123619565073356E-3  -1.192539810335241E-3  
 2.031200000000000E10   -5.227907932528253E-3  -4.391983272282622E-4  
 2.031400000000000E10   -5.311811358165840E-3   3.851961596953250E-4  
 2.031600000000000E10   -5.274669888118903E-3   1.276099290737093E-3  
 2.031800000000000E10   -5.027685402566760E-3   2.188484195941760E-3  
 2.032000000000000E10   -4.591553119382987E-3   3.017515002523737E-3  
 2.032200000000000E10   -4.015844911260247E-3   3.783926782639000E-3  
 2.032400000000000E10   -3.287917066273498E-3   4.463101097156482E-3  
 2.032600000000000E10   -2.460629640936607E-3   5.009308436295256E-3  
 2.032800000000000E10   -1.558939130102963E-3   5.387381612181419E-3  
 2.033000000000000E10   -5.803495746607982E-4   5.595864501969560E-3  
 2.033200000000000E10    4.472659191513366E-4   5.634347501942897E-3  
 2.033400000000000E10    1.515067434954024E-3   5.455665863329860E-3  
 2.033600000000000E10    2.010585247719117E-3   5.198027212326052E-3  
 2.033800000000000E10    3.243077595223800E-3   4.324001861820496E-3  
 2.034000000000000E10    3.765288829504524E-3   3.612375227972068E-3  
 2.034200000000000E10    4.169243914860880E-3   2.918553613356235E-3  
 2.034400000000000E10    4.526297126823861E-3   2.237754884471067E-3  
 2.034600000000000E10    4.832403621264569E-3   1.558536473458533E-3  
 2.034800000000000E10    5.076094775809429E-3   8.240551103305058E-4  
 2.035000000000000E10    5.244888729366011E-3   5.571157729449352E-6  
 2.035200000000000E10    5.277914790352309E-3  -9.619538330208557E-4  
 2.035400000000000E10    5.057749972743876E-3  -1.942190854262116E-3  
 2.035600000000000E10    4.628299587931285E-3  -2.800671125995954E-3  
 2.035800000000000E10    4.070857020455256E-3  -3.535462873930365E-3  
 2.036000000000000E10    3.361454229694581E-3  -4.187095643944825E-3  
 2.036200000000000E10    2.527957565607235E-3  -4.720077550981516E-3  
 2.036400000000000E10    1.613476221668132E-3  -5.087240965109426E-3  
 2.036600000000000E10    6.480788416325005E-4  -5.215241531592339E-3  
 2.036800000000000E10   -2.716041511162319E-4  -5.112406824535304E-3  
 2.037000000000000E10   -1.074350851016894E-3  -4.858849240551270E-3  
 2.037200000000000E10   -1.750176542039976E-3  -4.581207465073823E-3  
 2.037400000000000E10   -2.388343823414465E-3  -4.303198614360865E-3  
 2.037600000000000E10   -3.048296048164124E-3  -3.970579168502503E-3  
 2.037800000000000E10   -3.745483751926158E-3  -3.458949008098049E-3  
 2.038000000000000E10   -4.375166800103070E-3  -2.732475227848800E-3  
 2.038200000000000E10   -4.805012870533968E-3  -1.848044498141380E-3  
 2.038400000000000E10   -4.999574430961423E-3  -9.698134434022348E-4  
 2.038600000000000E10   -5.052985723126574E-3  -1.063427155230907E-4  
 2.038800000000000E10   -4.963429353426023E-3   7.820781116726439E-4  
 2.039000000000000E10   -4.703675511718533E-3   1.635865415657254E-3  
 2.039200000000000E10   -4.299298396387709E-3   2.377662796205209E-3  
 2.039400000000000E10   -3.838082304063403E-3   2.972149692567779E-3  
 2.039600000000000E10   -3.342932622895075E-3   3.512127363264807E-3  
 2.039800000000000E10   -2.696907385386558E-3   4.043442833356161E-3  
 2.040000000000000E10   -1.971551696214166E-3   4.439414233551840E-3  
 2.040200000000000E10   -1.228315561699371E-3   4.748253627017203E-3  
 2.040400000000000E10   -3.752131997166899E-4   4.942087184469151E-3  
 2.040600000000000E10    5.491284103565870E-4   4.925518655007392E-3  
 2.040800000000000E10    1.427987088361150E-3   4.715572251198592E-3  
 2.041000000000000E10    2.255719736670700E-3   4.334780893484016E-3  
 2.041200000000000E10    2.920852477735086E-3   3.819989373930443E-3  
 2.041400000000000E10    3.451142450526296E-3   3.256959974796439E-3  
 2.041600000000000E10    3.926294673724799E-3   2.599740382705513E-3  
 2.041800000000000E10    4.288317030104100E-3   1.821801076938280E-3  
 2.042000000000000E10    4.453768449693674E-3   1.031302914038730E-3  
 2.042200000000000E10    4.452398577666701E-3   2.864124090506584E-4  
 2.042400000000000E10    4.344649059092435E-3  -3.673466007630514E-4  
 2.042600000000000E10    4.221934815600454E-3  -9.894142075395789E-4  
 2.042800000000000E10    4.035046764883241E-3  -1.645489670087128E-3  
 2.043000000000000E10    3.756300900744682E-3  -2.283324150238263E-3  
 2.043200000000000E10    3.393409481471398E-3  -2.879518300770119E-3  
 2.043400000000000E10    2.900531660159859E-3  -3.434417465579057E-3  
 2.043600000000000E10    2.282970969147459E-3  -3.937415211411661E-3  
 2.043800000000000E10    1.536288491733863E-3  -4.342439751152272E-3  
 2.044000000000000E10    6.996882646325440E-4  -4.581555660906031E-3  
 2.044200000000000E10   -1.734093342665315E-4  -4.625654581995537E-3  
 2.044400000000000E10   -1.051711177485976E-3  -4.443138339575917E-3  
 2.044600000000000E10   -1.806437104476670E-3  -4.034878724396475E-3  
 2.044800000000000E10   -2.375544816324557E-3  -3.546731815761561E-3  
 2.045000000000000E10   -2.826503391757056E-3  -3.075750181528092E-3  
 2.045200000000000E10   -3.188656917064156E-3  -2.581776041200255E-3  
 2.045400000000000E10   -3.496674439436737E-3  -2.055946927241706E-3  
 2.045600000000000E10   -3.780077400314526E-3  -1.499184906011287E-3  
 2.045800000000000E10   -4.037449519636700E-3  -8.773222702666507E-4  
 2.046000000000000E10   -4.162293669112303E-3  -1.815467664000383E-4  
 2.046200000000000E10   -4.144688269100440E-3   5.253184573109735E-4  
 2.046400000000000E10   -4.025202909476841E-3   1.260354186009631E-3  
 2.046600000000000E10   -3.727406585290108E-3   2.005225056092496E-3  
 2.046800000000000E10   -3.259623186555481E-3   2.632289619947719E-3  
 2.047000000000000E10   -2.703574822387762E-3   3.098466360765230E-3  
 2.047200000000000E10   -2.097125750594608E-3   3.422995270402344E-3  
 2.047400000000000E10   -1.473030470188999E-3   3.662219058354329E-3  
 2.047600000000000E10   -8.334676086435043E-4   3.830468648117143E-3  
 2.047800000000000E10   -1.905096959576122E-4   3.913348247469576E-3  
 2.048000000000000E10    4.536518645630920E-4   3.855720417259775E-3  
 2.048200000000000E10    1.071398240828373E-3   3.691560072333787E-3  
 2.048400000000000E10    1.654048635693336E-3   3.448739516598637E-3  
 2.048600000000000E10    2.185044684658142E-3   3.141154396182900E-3  
 2.048800000000000E10    2.685008216994229E-3   2.765391911130874E-3  
 2.049000000000000E10    3.119215593431835E-3   2.261935390240740E-3  
 2.049200000000000E10    3.412142450587802E-3   1.653088701298698E-3  
 2.049400000000000E10    3.609640799738743E-3   1.043292454735150E-3  
 2.049600000000000E10    3.705765197337166E-3   4.394033453105976E-4  
 2.049800000000000E10    3.747690156669407E-3  -1.066233885523369E-4  
 2.050000000000000E10    3.782545444421440E-3  -7.032240394104289E-4  
 2.050200000000000E10    3.716916696708881E-3  -1.418381111615878E-3  
 2.050400000000000E10    3.455180903789377E-3  -2.191248791552927E-3  
 2.050600000000000E10    2.938737938517835E-3  -2.931002836958065E-3  
 2.050800000000000E10    2.170495654421825E-3  -3.444542311162616E-3  
 2.051000000000000E10    1.326141681104377E-3  -3.642254264703320E-3  
 2.051200000000000E10    5.654466042387082E-4  -3.569995313729525E-3  
 2.051400000000000E10   -4.170918089832073E-6  -3.385346010135709E-3  
 2.051600000000000E10   -4.225963624357150E-4  -3.209503622411333E-3  
 2.051800000000000E10   -7.933320792836480E-4  -3.078104878312032E-3  
 2.052000000000000E10   -1.220229811441353E-3  -2.960627319850795E-3  
 2.052200000000000E10   -1.674033501166314E-3  -2.755383248996649E-3  
 2.052400000000000E10   -2.082354498360260E-3  -2.463284662422636E-3  
 2.052600000000000E10   -2.399760791878580E-3  -2.137425400646320E-3  
 2.052800000000000E10   -2.702385252303302E-3  -1.818259791356086E-3  
 2.053000000000000E10   -3.036256456065448E-3  -1.396608446943171E-3  
 2.053200000000000E10   -3.310161503798371E-3  -8.741171008700300E-4  
 2.053400000000000E10   -3.510150875428639E-3  -2.633933303207007E-4  
 2.053600000000000E10   -3.553040807591484E-3   4.355380512340907E-4  
 2.053800000000000E10   -3.388770334729197E-3   1.143626244968654E-3  
 2.054000000000000E10   -3.055860377549206E-3   1.764322500752569E-3  
 2.054200000000000E10   -2.635924369786625E-3   2.273866194856081E-3  
 2.054400000000000E10   -2.119142628263361E-3   2.681929466732368E-3  
 2.054600000000000E10   -1.517169841530699E-3   2.917668025235458E-3  
 2.054800000000000E10   -9.205986711162110E-4   2.971557109835155E-3  
 2.055000000000000E10   -4.300761359711198E-4   2.901310286074571E-3  
 2.055200000000000E10   -6.800944089420993E-5   2.813148689782056E-3  
 2.055400000000000E10    2.291888122122501E-4   2.777694161107511E-3  
 2.055600000000000E10    5.778292514510270E-4   2.780416086431087E-3  
