#  HZ   S   RI   R     50.00 
! Rohde & Schwarz ZVA40 4Ports - Version 3.90 - 1145.1110k42 SN: 100403
! Date: 2023-10-03 11:45:28
! Measurement: S12 
! 
 2.000000000000000E10    9.138493383314784E-4  -6.354087819977676E-3  
 2.000200000000000E10   -1.180023297180284E-4  -6.464942634381631E-3  
 2.000400000000000E10   -1.196625835066776E-3  -6.319679032413312E-3  
 2.000600000000000E10   -2.164260438286964E-3  -6.049323407358228E-3  
 2.000800000000000E10   -3.096072164214688E-3  -5.737845992876424E-3  
 2.001000000000000E10   -4.115134377009524E-3  -5.284218019863339E-3  
 2.001200000000000E10   -5.117066923160981E-3  -4.537785368293157E-3  
 2.001400000000000E10   -5.955823858119089E-3  -3.520986714894757E-3  
 2.001600000000000E10   -6.526184113075336E-3  -2.310218933371851E-3  
 2.001800000000000E10   -6.786359175119871E-3  -1.096295100855239E-3  
 2.002000000000000E10   -6.837204621851813E-3   1.047831131102242E-4  
 2.002200000000000E10   -6.646341477509267E-3   1.386443148712042E-3  
 2.002400000000000E10   -6.258599028957111E-3   2.515456837567467E-3  
 2.002600000000000E10   -5.695386531038417E-3   3.508980236487625E-3  
 2.002800000000000E10   -4.993077212323746E-3   4.368866448877035E-3  
 2.003000000000000E10   -4.158191124184265E-3   5.092373227033719E-3  
 2.003200000000000E10   -3.263888366083489E-3   5.682587548860430E-3  
 2.003400000000000E10   -2.247314264905858E-3   6.120343048723393E-3  
 2.003600000000000E10   -1.215894743915142E-3   6.345843649066894E-3  
 2.003800000000000E10   -2.271224199190598E-4   6.413709245806124E-3  
 2.004000000000000E10    7.429285640368400E-4   6.375980155289542E-3  
 2.004200000000000E10    1.747739731253666E-3   6.243654590008069E-3  
 2.004400000000000E10    2.783054411181330E-3   5.938262276259470E-3  
 2.004600000000000E10    3.714885051005785E-3   5.448978710459707E-3  
 2.004800000000000E10    4.577083127964059E-3   4.871158216746501E-3  
 2.005000000000000E10    5.471755853957601E-3   4.103574114219275E-3  
 2.005200000000000E10    6.237773943324518E-3   3.074642745088096E-3  
 2.005400000000000E10    6.736487276668167E-3   1.915925852149541E-3  
 2.005600000000000E10    7.020508261098539E-3   7.010486629435126E-4  
 2.005800000000000E10    7.104643149140442E-3  -5.886131742348274E-4  
 2.006000000000000E10    6.866100416691217E-3  -1.974633414827196E-3  
 2.006200000000000E10    6.268885015383547E-3  -3.191670512113675E-3  
 2.006400000000000E10    5.473628507950057E-3  -4.161619495048568E-3  
 2.006600000000000E10    4.603968266351725E-3  -4.882083786076602E-3  
 2.006800000000000E10    3.757727887182508E-3  -5.433179087430975E-3  
 2.007000000000000E10    2.842413160926950E-3  -5.980212419627259E-3  
 2.007200000000000E10    1.805628575154661E-3  -6.378647589619146E-3  
 2.007400000000000E10    7.247294401347546E-4  -6.581162470450373E-3  
 2.007600000000000E10   -3.772260506930589E-4  -6.579225842645508E-3  
 2.007800000000000E10   -1.445869719724597E-3  -6.353616185578300E-3  
 2.008000000000000E10   -2.378046641954117E-3  -6.001989897570494E-3  
 2.008200000000000E10   -3.266918314850809E-3  -5.637008277124461E-3  
 2.008400000000000E10   -4.207399075873841E-3  -5.137141161586768E-3  
 2.008600000000000E10   -5.100711392537680E-3  -4.375672646234802E-3  
 2.008800000000000E10   -5.799108236614201E-3  -3.388607460591529E-3  
 2.009000000000000E10   -6.283814104756824E-3  -2.370545114563020E-3  
 2.009200000000000E10   -6.709009713642760E-3  -1.307914949045229E-3  
 2.009400000000000E10   -6.980925493724186E-3  -5.806515564697216E-5  
 2.009600000000000E10   -6.888644729545456E-3   1.350564356134446E-3  
 2.009800000000000E10   -6.371889596827973E-3   2.613986839459819E-3  
 2.010000000000000E10   -5.657951790195557E-3   3.611299588724420E-3  
 2.010200000000000E10   -4.837712025798766E-3   4.419826373549892E-3  
 2.010400000000000E10   -3.987130450291767E-3   4.981438186663537E-3  
 2.010600000000000E10   -3.163535849271734E-3   5.403957093985361E-3  
 2.010800000000000E10   -2.349965762990861E-3   5.798920989036562E-3  
 2.011000000000000E10   -1.454284395965070E-3   6.183392230283333E-3  
 2.011200000000000E10   -4.222743406483651E-4   6.443585372633405E-3  
 2.011400000000000E10    6.965861280655696E-4   6.488413308505660E-3  
 2.011600000000000E10    1.851598765229646E-3   6.303915512506610E-3  
 2.011800000000000E10    2.971924111293055E-3   5.873575542168118E-3  
 2.012000000000000E10    3.932673665177492E-3   5.241003410637747E-3  
 2.012200000000000E10    4.747896725426854E-3   4.483858410866909E-3  
 2.012400000000000E10    5.463055110777971E-3   3.623091658853271E-3  
 2.012600000000000E10    6.019856504820012E-3   2.584542699710087E-3  
 2.012800000000000E10    6.383415024129698E-3   1.423893185953300E-3  
 2.013000000000000E10    6.476881321703579E-3   2.309164155582197E-4  
 2.013200000000000E10    6.297304047800509E-3  -8.916579169669639E-4  
 2.013400000000000E10    5.972588095630026E-3  -1.885428862289790E-3  
 2.013600000000000E10    5.507720628592336E-3  -2.819919797741337E-3  
 2.013800000000000E10    4.930262568832181E-3  -3.663721431138708E-3  
 2.014000000000000E10    4.216569297613554E-3  -4.392684362598777E-3  
 2.014200000000000E10    3.413441438618818E-3  -4.929521649983931E-3  
 2.014400000000000E10    2.639992306307878E-3  -5.329876747212293E-3  
 2.014600000000000E10    1.795684970501397E-3  -5.745567490611180E-3  
 2.014800000000000E10    8.075410991700161E-4  -6.030337959757927E-3  
 2.015000000000000E10   -2.245573989820975E-4  -6.102289924007140E-3  
 2.015200000000000E10   -1.245852063961879E-3  -6.016633185891459E-3  
 2.015400000000000E10   -2.299585011730224E-3  -5.764729515821846E-3  
 2.015600000000000E10   -3.297495532114014E-3  -5.266354310061830E-3  
 2.015800000000000E10   -4.143000223938331E-3  -4.615001748373480E-3  
 2.016000000000000E10   -4.907393592329306E-3  -3.854708955910655E-3  
 2.016200000000000E10   -5.532157791341529E-3  -2.942271381156681E-3  
 2.016400000000000E10   -5.953527216650088E-3  -1.865716850856480E-3  
 2.016600000000000E10   -6.121084881647503E-3  -7.489768926192213E-4  
 2.016800000000000E10   -6.073851379807350E-3   2.944630451779238E-4  
 2.017000000000000E10   -5.867744703995594E-3   1.261715242570197E-3  
 2.017200000000000E10   -5.534459675811692E-3   2.165349660280311E-3  
 2.017400000000000E10   -5.099399848898621E-3   3.015722783374382E-3  
 2.017600000000000E10   -4.544373342974319E-3   3.784074016881211E-3  
 2.017800000000000E10   -3.921855039848590E-3   4.442177350736327E-3  
 2.018000000000000E10   -3.218592394626251E-3   5.047293178691173E-3  
 2.018200000000000E10   -2.415830160226719E-3   5.616129945135780E-3  
 2.018400000000000E10   -1.425259612949083E-3   6.111687244732439E-3  
 2.018600000000000E10   -2.394764269860232E-4   6.391847057750933E-3  
 2.018800000000000E10    9.918291578759199E-4   6.362051639797880E-3  
 2.019000000000000E10    2.166613286798015E-3   6.041545535863183E-3  
 2.019200000000000E10    3.236361638424390E-3   5.483975582238701E-3  
 2.019400000000000E10    4.155006069965937E-3   4.742262609027051E-3  
 2.019600000000000E10    4.899268883659885E-3   3.855751810112486E-3  
 2.019800000000000E10    5.398525247051393E-3   2.827494959979330E-3  
 2.020000000000000E10    5.625622634442501E-3   1.808078723879141E-3  
 2.020200000000000E10    5.640374864509077E-3   8.843916893741233E-4  
 2.020400000000000E10    5.643443986313579E-3   1.080848153013690E-4  
 2.020600000000000E10    5.683603731018526E-3  -6.924549054446413E-4  
 2.020800000000000E10    5.577684667559318E-3  -1.599287862866473E-3  
 2.021000000000000E10    5.328903710584582E-3  -2.461488407542125E-3  
 2.021200000000000E10    5.040261859971065E-3  -3.357544521237782E-3  
 2.021400000000000E10    4.496779718240839E-3  -4.384992759168885E-3  
 2.021600000000000E10    3.599548344442874E-3  -5.262121931868204E-3  
 2.021800000000000E10    2.511099351707984E-3  -5.825484677413364E-3  
 2.022000000000000E10    1.440453011094144E-3  -6.124155515413962E-3  
 2.022200000000000E10    3.505407406425357E-4  -6.312153652816277E-3  
 2.022400000000000E10   -8.198242371522444E-4  -6.334334249711700E-3  
 2.022600000000000E10   -1.992335896594105E-3  -6.073862021030101E-3  
 2.022800000000000E10   -3.041574202569915E-3  -5.574780148396522E-3  
 2.023000000000000E10   -3.971287474772077E-3  -4.904048879527384E-3  
 2.023200000000000E10   -4.774760052469778E-3  -4.077017847678544E-3  
 2.023400000000000E10   -5.369147734233627E-3  -3.103926323676183E-3  
 2.023600000000000E10   -5.711328014041540E-3  -2.102116993800910E-3  
 2.023800000000000E10   -5.899739549437792E-3  -1.146123745984594E-3  
 2.024000000000000E10   -5.995736710359287E-3  -1.406638985366797E-4  
 2.024200000000000E10   -5.893273359555522E-3   8.806808482292167E-4  
 2.024400000000000E10   -5.677931884556642E-3   1.791182278804942E-3  
 2.024600000000000E10   -5.395693491776417E-3   2.715859792114776E-3  
 2.024800000000000E10   -4.884404337240591E-3   3.673307465412367E-3  
 2.025000000000000E10   -4.173553462519691E-3   4.510133285765296E-3  
 2.025200000000000E10   -3.308611875974838E-3   5.188793288888756E-3  
 2.025400000000000E10   -2.311931569474163E-3   5.685007826275665E-3  
 2.025600000000000E10   -1.242546974048939E-3   5.946242652925446E-3  
 2.025800000000000E10   -1.986266036926091E-4   5.981312817491501E-3  
 2.026000000000000E10    8.055081261885297E-4   5.855529626578461E-3  
 2.026200000000000E10    1.700847112159763E-3   5.607702384162465E-3  
 2.026400000000000E10    2.557754643077468E-3   5.322558126975726E-3  
 2.026600000000000E10    3.460230529998189E-3   4.891938064247370E-3  
 2.026800000000000E10    4.294887920956553E-3   4.255649357758187E-3  
 2.027000000000000E10    4.984039307376485E-3   3.425549707134014E-3  
 2.027200000000000E10    5.428881683375365E-3   2.536760013619507E-3  
 2.027400000000000E10    5.796365071961910E-3   1.672064191316841E-3  
 2.027600000000000E10    6.058461854901212E-3   6.928760773950706E-4  
 2.027800000000000E10    6.142991031577559E-3  -3.465536243805410E-4  
 2.028000000000000E10    6.128667894014974E-3  -1.418046443435697E-3  
 2.028200000000000E10    5.903403349450710E-3  -2.568531264033583E-3  
 2.028400000000000E10    5.376599809545794E-3  -3.686500086598559E-3  
 2.028600000000000E10    4.580380142103008E-3  -4.661039541257017E-3  
 2.028800000000000E10    3.607877136357589E-3  -5.408287433516465E-3  
 2.029000000000000E10    2.570409894012559E-3  -5.940018066515526E-3  
 2.029200000000000E10    1.424180431417937E-3  -6.292443797222259E-3  
 2.029400000000000E10    2.077354611286371E-4  -6.351274777387764E-3  
 2.029600000000000E10   -9.241859093710872E-4  -6.095954314748080E-3  
 2.029800000000000E10   -1.847580572544241E-3  -5.695770115212159E-3  
 2.030000000000000E10   -2.663912993200400E-3  -5.339298236333294E-3  
 2.030200000000000E10   -3.529413683730880E-3  -4.871977487418020E-3  
 2.030400000000000E10   -4.311915458306487E-3  -4.142518046047585E-3  
 2.030600000000000E10   -4.851430895979759E-3  -3.305718969599701E-3  
 2.030800000000000E10   -5.228901500411240E-3  -2.533505035472321E-3  
 2.031000000000000E10   -5.567123147624511E-3  -1.768213050026033E-3  
 2.031200000000000E10   -5.890312984033868E-3  -9.374412661993211E-4  
 2.031400000000000E10   -6.105289271354309E-3   6.135513220574520E-5  
 2.031600000000000E10   -6.124085240801913E-3   1.157108000134704E-3  
 2.031800000000000E10   -5.884336077688655E-3   2.288368050537912E-3  
 2.032000000000000E10   -5.409185544668157E-3   3.325060150804528E-3  
 2.032200000000000E10   -4.755083776228590E-3   4.265528425206374E-3  
 2.032400000000000E10   -3.899947398077743E-3   5.076012091228256E-3  
 2.032600000000000E10   -2.916362033122116E-3   5.705425061607435E-3  
 2.032800000000000E10   -1.825267365662221E-3   6.137055183910294E-3  
 2.033000000000000E10   -6.618700133935538E-4   6.330751457516059E-3  
 2.033200000000000E10    4.985575279634860E-4   6.274850015746960E-3  
 2.033400000000000E10    1.616210318860357E-3   5.985034181287996E-3  
 2.033600000000000E10    2.084663589082567E-3   5.668480357408157E-3  
 2.033800000000000E10    3.404935675293760E-3   4.788463400607861E-3  
 2.034000000000000E10    4.009611755149601E-3   4.102046066826142E-3  
 2.034200000000000E10    4.492052600799520E-3   3.418181364619990E-3  
 2.034400000000000E10    4.924951575374531E-3   2.707481306667130E-3  
 2.034600000000000E10    5.293683194911775E-3   1.983502721643927E-3  
 2.034800000000000E10    5.645245382631267E-3   1.199007356240426E-3  
 2.035000000000000E10    5.914852781980127E-3   2.748153022108500E-4  
 2.035200000000000E10    5.989151006495512E-3  -8.171692743529509E-4  
 2.035400000000000E10    5.785678352378770E-3  -1.957057302610742E-3  
 2.035600000000000E10    5.321434469042738E-3  -2.999060847624033E-3  
 2.035800000000000E10    4.671381682985360E-3  -3.882825156144890E-3  
 2.036000000000000E10    3.885747637760677E-3  -4.615301099594361E-3  
 2.036200000000000E10    3.001195321112504E-3  -5.197086181767561E-3  
 2.036400000000000E10    2.009580929384188E-3  -5.625027168634130E-3  
 2.036600000000000E10    9.719377763017462E-4  -5.827235040703306E-3  
 2.036800000000000E10   -3.910013963180925E-5  -5.796339529577966E-3  
 2.037000000000000E10   -9.500768199494041E-4  -5.599294099266883E-3  
 2.037200000000000E10   -1.766379663927688E-3  -5.354967479950484E-3  
 2.037400000000000E10   -2.580078813120907E-3  -5.064801502696894E-3  
 2.037600000000000E10   -3.428838175526004E-3  -4.675354739582098E-3  
 2.037800000000000E10   -4.281653229285171E-3  -4.084003143541424E-3  
 2.038000000000000E10   -5.015668384500861E-3  -3.238774045588978E-3  
 2.038200000000000E10   -5.528249329438916E-3  -2.225976684533152E-3  
 2.038400000000000E10   -5.796081633709465E-3  -1.156827952298853E-3  
 2.038600000000000E10   -5.834282485101328E-3  -8.853555904531760E-5  
 2.038800000000000E10   -5.658690886640991E-3   9.303552768319663E-4  
 2.039000000000000E10   -5.333733445976252E-3   1.844589344087850E-3  
 2.039200000000000E10   -4.890022983337627E-3   2.681897717447561E-3  
 2.039400000000000E10   -4.368081654387492E-3   3.407607861093166E-3  
 2.039600000000000E10   -3.800386468086531E-3   4.076829364086375E-3  
 2.039800000000000E10   -3.037845028886273E-3   4.715477587816157E-3  
 2.040000000000000E10   -2.127426311396707E-3   5.135548082582746E-3  
 2.040200000000000E10   -1.225602094451955E-3   5.352204326356268E-3  
 2.040400000000000E10   -3.158319411823745E-4   5.478681283600537E-3  
 2.040600000000000E10    6.406070997961510E-4   5.444343673226275E-3  
 2.040800000000000E10    1.579208020695750E-3   5.230780690908432E-3  
 2.041000000000000E10    2.494460661654120E-3   4.836634008420839E-3  
 2.041200000000000E10    3.279697023516084E-3   4.278872817478799E-3  
 2.041400000000000E10    3.942202581207695E-3   3.638802421060794E-3  
 2.041600000000000E10    4.528064177268082E-3   2.877520923330277E-3  
 2.041800000000000E10    4.953986700670219E-3   1.959430578417709E-3  
 2.042000000000000E10    5.132660269737244E-3   1.005855853163442E-3  
 2.042200000000000E10    5.090433454577938E-3   3.353860694232937E-5  
 2.042400000000000E10    4.822147297270505E-3  -7.963049237006977E-4  
 2.042600000000000E10    4.517669892973371E-3  -1.417227132521846E-3  
 2.042800000000000E10    4.219305937258919E-3  -2.022026448775037E-3  
 2.043000000000000E10    3.888934646606630E-3  -2.635202129130011E-3  
 2.043200000000000E10    3.482803986925219E-3  -3.254637303244737E-3  
 2.043400000000000E10    2.915056149279814E-3  -3.823692553941115E-3  
 2.043600000000000E10    2.270409130249863E-3  -4.278622222719370E-3  
 2.043800000000000E10    1.550112163969948E-3  -4.668630613588994E-3  
 2.044000000000000E10    6.699501407436200E-4  -4.950823819977634E-3  
 2.044200000000000E10   -2.897043908618529E-4  -5.013909742788033E-3  
 2.044400000000000E10   -1.257924245164534E-3  -4.814285411280983E-3  
 2.044600000000000E10   -2.096153761225719E-3  -4.356356596367227E-3  
 2.044800000000000E10   -2.740905608659909E-3  -3.765666270973506E-3  
 2.045000000000000E10   -3.219368151837477E-3  -3.177530934206314E-3  
 2.045200000000000E10   -3.571779901207782E-3  -2.608168743734743E-3  
 2.045400000000000E10   -3.881668568485313E-3  -2.036317815015346E-3  
 2.045600000000000E10   -4.157567034578986E-3  -1.435220365148084E-3  
 2.045800000000000E10   -4.401175880137786E-3  -7.620637576716642E-4  
 2.046000000000000E10   -4.512481598390474E-3   3.219148156522015E-5  
 2.046200000000000E10   -4.417121375876445E-3   8.371317684420466E-4  
 2.046400000000000E10   -4.154382813951852E-3   1.571602205297462E-3  
 2.046600000000000E10   -3.771698780725768E-3   2.236283229043087E-3  
 2.046800000000000E10   -3.334862116816236E-3   2.813552077974619E-3  
 2.047000000000000E10   -2.819377802496340E-3   3.347066360422307E-3  
 2.047200000000000E10   -2.197807732348641E-3   3.774690384298196E-3  
 2.047400000000000E10   -1.505414228081520E-3   4.074949489469514E-3  
 2.047600000000000E10   -7.560140960619867E-4   4.245302036266637E-3  
 2.047800000000000E10   -7.043146103603300E-6   4.263692454975330E-3  
 2.048000000000000E10    7.008639477584282E-4   4.137326601064868E-3  
 2.048200000000000E10    1.355713069507921E-3   3.901559681298189E-3  
 2.048400000000000E10    1.945662522044631E-3   3.563786465904596E-3  
 2.048600000000000E10    2.463299157327892E-3   3.168323103131520E-3  
 2.048800000000000E10    2.941100240144649E-3   2.705970770437961E-3  
 2.049000000000000E10    3.308405662760323E-3   2.165107984946650E-3  
 2.049200000000000E10    3.544221247005978E-3   1.608454083368459E-3  
 2.049400000000000E10    3.728404974587906E-3   1.076990067326453E-3  
 2.049600000000000E10    3.886713054215099E-3   5.149049109514850E-4  
 2.049800000000000E10    4.017876622117597E-3  -5.755168788227035E-5  
 2.050000000000000E10    4.126138743703013E-3  -7.442122240504826E-4  
 2.050200000000000E10    4.072148456341691E-3  -1.587731927564299E-3  
 2.050400000000000E10    3.723544419317702E-3  -2.485558968382302E-3  
 2.050600000000000E10    3.070090618559424E-3  -3.285465609673181E-3  
 2.050800000000000E10    2.181500170586838E-3  -3.790149361723000E-3  
 2.051000000000000E10    1.249644675372559E-3  -3.947061796983084E-3  
 2.051200000000000E10    4.592618580194720E-4  -3.809694516943929E-3  
 2.051400000000000E10   -9.332159171197106E-5  -3.583132755011321E-3  
 2.051600000000000E10   -5.257876789668737E-4  -3.427934729390675E-3  
 2.051800000000000E10   -9.701931087392166E-4  -3.289615442217501E-3  
 2.052000000000000E10   -1.447127370255781E-3  -3.091909155180609E-3  
 2.052200000000000E10   -1.881947467839461E-3  -2.771087427750047E-3  
 2.052400000000000E10   -2.224235065327383E-3  -2.422863401955477E-3  
 2.052600000000000E10   -2.517136176013284E-3  -2.091191364107309E-3  
 2.052800000000000E10   -2.823805393375181E-3  -1.753781120189362E-3  
 2.053000000000000E10   -3.112088256504065E-3  -1.333688191759090E-3  
 2.053200000000000E10   -3.354580906208283E-3  -8.642443241609008E-4  
 2.053400000000000E10   -3.591610515421188E-3  -3.100112693191702E-4  
 2.053600000000000E10   -3.723060232184736E-3   4.099512970029021E-4  
 2.053800000000000E10   -3.590685485022856E-3   1.189609250789623E-3  
 2.054000000000000E10   -3.218220661819718E-3   1.881274457928943E-3  
 2.054200000000000E10   -2.724099642723615E-3   2.406547507156193E-3  
 2.054400000000000E10   -2.170612791231201E-3   2.799947875448399E-3  
 2.054600000000000E10   -1.577428631185566E-3   3.061709494364483E-3  
 2.054800000000000E10   -9.710789546025573E-4   3.167936106982791E-3  
 2.055000000000000E10   -4.322739823916812E-4   3.117370902112237E-3  
 2.055200000000000E10   -3.196905837049365E-5   3.034461689193124E-3  
 2.055400000000000E10    3.214465970005323E-4   3.002727576703937E-3  
 2.055600000000000E10    7.345668754517390E-4   3.001735876256853E-3  
