#  HZ   S   RI   R     50.00 
! Rohde & Schwarz ZVA40 4Ports - Version 3.90 - 1145.1110k42 SN: 100403
! Date: 2023-10-03 11:46:22
! Measurement: S12 
! 
 2.000000000000000E10    7.917573855166543E-4  -6.383891361133186E-3  
 2.000200000000000E10   -2.145633108829103E-4  -6.452082989760388E-3  
 2.000400000000000E10   -1.241840512698724E-3  -6.286649315123574E-3  
 2.000600000000000E10   -2.162641127030423E-3  -5.969740709082948E-3  
 2.000800000000000E10   -3.032894362408071E-3  -5.618660722249820E-3  
 2.001000000000000E10   -4.015168583273521E-3  -5.214815074003038E-3  
 2.001200000000000E10   -5.038971104371695E-3  -4.552188202922728E-3  
 2.001400000000000E10   -5.886154714971781E-3  -3.563009113372293E-3  
 2.001600000000000E10   -6.425989906729004E-3  -2.322887553385011E-3  
 2.001800000000000E10   -6.649744576188150E-3  -1.092023806887920E-3  
 2.002000000000000E10   -6.672690001626810E-3   7.820824122726113E-5  
 2.002200000000000E10   -6.488113865302301E-3   1.252740516649260E-3  
 2.002400000000000E10   -6.135078204542768E-3   2.308540057712867E-3  
 2.002600000000000E10   -5.570607932491436E-3   3.263897144661090E-3  
 2.002800000000000E10   -4.920460881642354E-3   4.070386388281614E-3  
 2.003000000000000E10   -4.211016424736124E-3   4.763953203772322E-3  
 2.003200000000000E10   -3.476585396622987E-3   5.360678309735694E-3  
 2.003400000000000E10   -2.598574195333102E-3   5.891283514139094E-3  
 2.003600000000000E10   -1.588454735925260E-3   6.249627040952078E-3  
 2.003800000000000E10   -5.549021060923460E-4   6.476331438961222E-3  
 2.004000000000000E10    5.334310462111953E-4   6.562551132828734E-3  
 2.004200000000000E10    1.633125380325465E-3   6.421943269899966E-3  
 2.004400000000000E10    2.675994693152147E-3   6.072794834588782E-3  
 2.004600000000000E10    3.671384341784835E-3   5.582475477116712E-3  
 2.004800000000000E10    4.624346121685741E-3   4.980490157771626E-3  
 2.005000000000000E10    5.538173008388208E-3   4.159061675086434E-3  
 2.005200000000000E10    6.245301444267418E-3   3.102915154563057E-3  
 2.005400000000000E10    6.683403102933994E-3   1.942775409128288E-3  
 2.005600000000000E10    6.931774668901424E-3   7.128608470529686E-4  
 2.005800000000000E10    6.987818183354391E-3  -5.427676908395909E-4  
 2.006000000000000E10    6.750133612917531E-3  -1.834769971829690E-3  
 2.006200000000000E10    6.188626556346816E-3  -2.975436775473717E-3  
 2.006400000000000E10    5.447407948704046E-3  -3.904606457109805E-3  
 2.006600000000000E10    4.646864305767749E-3  -4.678594276171040E-3  
 2.006800000000000E10    3.845449416311804E-3  -5.307824299153355E-3  
 2.007000000000000E10    2.945546195899815E-3  -5.853845657389842E-3  
 2.007200000000000E10    1.922217740987738E-3  -6.199550205542718E-3  
 2.007400000000000E10    8.922643919279915E-4  -6.367512277246994E-3  
 2.007600000000000E10   -1.464909397821621E-4  -6.403421862395826E-3  
 2.007800000000000E10   -1.107068519671390E-3  -6.278229538167334E-3  
 2.008000000000000E10   -1.971972847564353E-3  -6.076552807410927E-3  
 2.008200000000000E10   -2.900933803714536E-3  -5.838839118771348E-3  
 2.008400000000000E10   -3.973749765183455E-3  -5.443224746641922E-3  
 2.008600000000000E10   -5.056403433605109E-3  -4.711401200404874E-3  
 2.008800000000000E10   -5.891363027241128E-3  -3.720351724804920E-3  
 2.009000000000000E10   -6.469688234551822E-3  -2.644915771843107E-3  
 2.009200000000000E10   -6.908212851640988E-3  -1.439248589672332E-3  
 2.009400000000000E10   -7.110737816051202E-3  -5.687508167250565E-5  
 2.009600000000000E10   -6.919515618111617E-3   1.385481460422370E-3  
 2.009800000000000E10   -6.324167783015674E-3   2.589173965661982E-3  
 2.010000000000000E10   -5.579445511102676E-3   3.452208718101001E-3  
 2.010200000000000E10   -4.808731578336454E-3   4.171372374036799E-3  
 2.010400000000000E10   -4.083075629616226E-3   4.728508647531271E-3  
 2.010600000000000E10   -3.408387639663286E-3   5.271068239515580E-3  
 2.010800000000000E10   -2.639344628946281E-3   5.834043221433222E-3  
 2.011000000000000E10   -1.658727207945453E-3   6.312295472548333E-3  
 2.011200000000000E10   -4.892829312643980E-4   6.601213431560700E-3  
 2.011400000000000E10    7.566729449828007E-4   6.599629269107993E-3  
 2.011600000000000E10    1.932776130643892E-3   6.326351814937813E-3  
 2.011800000000000E10    2.976478761590926E-3   5.811180764188370E-3  
 2.012000000000000E10    3.818691366087692E-3   5.118383773039153E-3  
 2.012200000000000E10    4.532214323127712E-3   4.381919411919368E-3  
 2.012400000000000E10    5.180075574942209E-3   3.625209506509114E-3  
 2.012600000000000E10    5.767556125827042E-3   2.780349195049501E-3  
 2.012800000000000E10    6.203438925706311E-3   1.733282740503826E-3  
 2.013000000000000E10    6.372973276877110E-3   5.864450610300274E-4  
 2.013200000000000E10    6.320555608167694E-3  -5.082785917940424E-4  
 2.013400000000000E10    6.168463549082294E-3  -1.548021796078962E-3  
 2.013600000000000E10    5.815205124011379E-3  -2.597902088000635E-3  
 2.013800000000000E10    5.210502314622756E-3  -3.542545136570196E-3  
 2.014000000000000E10    4.439359841247400E-3  -4.319325319410843E-3  
 2.014200000000000E10    3.626625263419601E-3  -4.872478705681402E-3  
 2.014400000000000E10    2.887216773183074E-3  -5.325317785235836E-3  
 2.014600000000000E10    2.102105999020515E-3  -5.791338959731806E-3  
 2.014800000000000E10    1.117691575882980E-3  -6.166617311307311E-3  
 2.015000000000000E10    1.311707726921510E-5  -6.321909958151756E-3  
 2.015200000000000E10   -1.085172893111537E-3  -6.289762255080321E-3  
 2.015400000000000E10   -2.219160279994946E-3  -6.089638659937516E-3  
 2.015600000000000E10   -3.291147289636695E-3  -5.604853968561432E-3  
 2.015800000000000E10   -4.237639016391319E-3  -4.906695301610011E-3  
 2.016000000000000E10   -5.087977844393916E-3  -4.027758161594839E-3  
 2.016200000000000E10   -5.718720162770263E-3  -3.008258807829317E-3  
 2.016400000000000E10   -6.083369410286348E-3  -1.887057538512221E-3  
 2.016600000000000E10   -6.172197606460549E-3  -7.971657805121793E-4  
 2.016800000000000E10   -6.128535899161190E-3   2.246222233853912E-4  
 2.017000000000000E10   -5.939780406791856E-3   1.233156484459746E-3  
 2.017200000000000E10   -5.598642092979986E-3   2.168998380915986E-3  
 2.017400000000000E10   -5.135828922330230E-3   2.991456601676751E-3  
 2.017600000000000E10   -4.562873720984769E-3   3.690535553305606E-3  
 2.017800000000000E10   -3.987801442336706E-3   4.317077813831009E-3  
 2.018000000000000E10   -3.348926556538101E-3   4.976724366438978E-3  
 2.018200000000000E10   -2.566765140121182E-3   5.589110265129512E-3  
 2.018400000000000E10   -1.631284941758179E-3   6.065000538472778E-3  
 2.018600000000000E10   -5.217300272362744E-4   6.383681595095515E-3  
 2.018800000000000E10    7.108775309551462E-4   6.478770814238140E-3  
 2.019000000000000E10    1.961968944086061E-3   6.285660825439811E-3  
 2.019200000000000E10    3.129408562578906E-3   5.787046516981023E-3  
 2.019400000000000E10    4.124436332027854E-3   5.047917481005929E-3  
 2.019600000000000E10    4.956286814477709E-3   4.124049321506863E-3  
 2.019800000000000E10    5.526112450033795E-3   3.044034805677740E-3  
 2.020000000000000E10    5.796123681199037E-3   2.012708396823318E-3  
 2.020200000000000E10    5.877320200526789E-3   1.115859313695519E-3  
 2.020400000000000E10    5.958492971128888E-3   2.629599763212703E-4  
 2.020600000000000E10    6.008515623110681E-3  -6.826268997687250E-4  
 2.020800000000000E10    5.853252192200334E-3  -1.725034839991066E-3  
 2.021000000000000E10    5.522447649711444E-3  -2.653928568448734E-3  
 2.021200000000000E10    5.161514522990695E-3  -3.533841484444746E-3  
 2.021400000000000E10    4.550507487614214E-3  -4.554394937269850E-3  
 2.021600000000000E10    3.567904394901829E-3  -5.437429281480519E-3  
 2.021800000000000E10    2.427037066584569E-3  -5.987162362600184E-3  
 2.022000000000000E10    1.339818787887509E-3  -6.243826235058132E-3  
 2.022200000000000E10    2.788332636600337E-4  -6.356187021060859E-3  
 2.022400000000000E10   -8.455119936520028E-4  -6.313301346920156E-3  
 2.022600000000000E10   -1.993548527451945E-3  -6.024879340174391E-3  
 2.022800000000000E10   -3.007505755917526E-3  -5.552073676185108E-3  
 2.023000000000000E10   -3.916642119832062E-3  -4.941822937977168E-3  
 2.023200000000000E10   -4.713228645010128E-3  -4.140068052543535E-3  
 2.023400000000000E10   -5.331911911245114E-3  -3.166507058604449E-3  
 2.023600000000000E10   -5.731356887859695E-3  -2.152544112853063E-3  
 2.023800000000000E10   -5.960935675021676E-3  -1.140924203669492E-3  
 2.024000000000000E10   -6.002878586267250E-3  -1.262352779582373E-4  
 2.024200000000000E10   -5.822244899370421E-3   8.388976429957024E-4  
 2.024400000000000E10   -5.561380026241144E-3   1.677489547737311E-3  
 2.024600000000000E10   -5.299008687107284E-3   2.513633445940084E-3  
 2.024800000000000E10   -4.915595445551991E-3   3.385207765264276E-3  
 2.025000000000000E10   -4.341661326449227E-3   4.209627219142370E-3  
 2.025200000000000E10   -3.581269181413968E-3   4.955036209229335E-3  
 2.025400000000000E10   -2.627710921022995E-3   5.601796821725590E-3  
 2.025600000000000E10   -1.526025277677418E-3   6.033277466755223E-3  
 2.025800000000000E10   -4.065434181096930E-4   6.157339084893466E-3  
 2.026000000000000E10    6.647956511580651E-4   6.033315794703403E-3  
 2.026200000000000E10    1.617339524486459E-3   5.729172332787221E-3  
 2.026400000000000E10    2.457487750453530E-3   5.396207760053653E-3  
 2.026600000000000E10    3.349470871466178E-3   4.996907828306712E-3  
 2.026800000000000E10    4.185106398330795E-3   4.404075673700852E-3  
 2.027000000000000E10    4.868353320354665E-3   3.575628062848140E-3  
 2.027200000000000E10    5.337620108031934E-3   2.674933462576182E-3  
 2.027400000000000E10    5.715731657857513E-3   1.810576604322795E-3  
 2.027600000000000E10    6.001948120279445E-3   8.688825922788203E-4  
 2.027800000000000E10    6.124565377831460E-3  -7.860947696400098E-5  
 2.028000000000000E10    6.184428102440305E-3  -1.090741793935498E-3  
 2.028200000000000E10    6.071599177372309E-3  -2.273273645658736E-3  
 2.028400000000000E10    5.605802842542346E-3  -3.532253073551405E-3  
 2.028600000000000E10    4.769011141939296E-3  -4.572918276405998E-3  
 2.028800000000000E10    3.758826982919817E-3  -5.279806247096003E-3  
 2.029000000000000E10    2.726010949477370E-3  -5.794361653381293E-3  
 2.029200000000000E10    1.616392605133171E-3  -6.137991375807259E-3  
 2.029400000000000E10    4.687792259371944E-4  -6.257301535641340E-3  
 2.029600000000000E10   -5.964567097202864E-4  -6.103245535704458E-3  
 2.029800000000000E10   -1.481119057531526E-3  -5.797307530165087E-3  
 2.030000000000000E10   -2.291356635935329E-3  -5.515037535655278E-3  
 2.030200000000000E10   -3.209630521819180E-3  -5.159928428905982E-3  
 2.030400000000000E10   -4.107346706506279E-3  -4.563159389812270E-3  
 2.030600000000000E10   -4.789696304978413E-3  -3.793675481215304E-3  
 2.030800000000000E10   -5.317900048131929E-3  -2.945564595269568E-3  
 2.031000000000000E10   -5.714221311342202E-3  -2.023219737442739E-3  
 2.031200000000000E10   -6.006517734976464E-3  -1.107320185164335E-3  
 2.031400000000000E10   -6.220889599694883E-3  -1.313783459072174E-4  
 2.031600000000000E10   -6.292385083657725E-3   9.253226733697511E-4  
 2.031800000000000E10   -6.073637451562617E-3   2.079845295448638E-3  
 2.032000000000000E10   -5.623956337387180E-3   3.118730394491627E-3  
 2.032200000000000E10   -5.072809554590488E-3   4.103745615546718E-3  
 2.032400000000000E10   -4.325017430762083E-3   4.998735152184963E-3  
 2.032600000000000E10   -3.369554923272428E-3   5.742096083445682E-3  
 2.032800000000000E10   -2.215373367186130E-3   6.310192793377757E-3  
 2.033000000000000E10   -9.389376198803938E-4   6.608406535959171E-3  
 2.033200000000000E10    3.310164137036299E-4   6.616850630782638E-3  
 2.033400000000000E10    1.557232687008326E-3   6.341394703881241E-3  
 2.033600000000000E10    2.076520021131009E-3   5.975757558818586E-3  
 2.033800000000000E10    3.470120704330413E-3   5.029306304353623E-3  
 2.034000000000000E10    4.126909194675126E-3   4.282951418218422E-3  
 2.034200000000000E10    4.625869725175478E-3   3.569032488114857E-3  
 2.034400000000000E10    5.041062745645092E-3   2.847701911872000E-3  
 2.034600000000000E10    5.398568375335065E-3   2.073353308793388E-3  
 2.034800000000000E10    5.730686306861448E-3   1.223523136699733E-3  
 2.035000000000000E10    5.953977407634627E-3   2.936961105593515E-4  
 2.035200000000000E10    6.029294654267070E-3  -7.385035062691680E-4  
 2.035400000000000E10    5.854456811959362E-3  -1.820061413318287E-3  
 2.035600000000000E10    5.446205162845645E-3  -2.811762170843137E-3  
 2.035800000000000E10    4.906305422385534E-3  -3.746778845074184E-3  
 2.036000000000000E10    4.184764091293386E-3  -4.638476096047665E-3  
 2.036200000000000E10    3.260790511252888E-3  -5.344879319086488E-3  
 2.036400000000000E10    2.149776409000710E-3  -5.799072990078986E-3  
 2.036600000000000E10    1.027033054902230E-3  -5.953914140937506E-3  
 2.036800000000000E10    4.544558971337017E-6  -5.897983287771543E-3  
 2.037000000000000E10   -8.890944048704835E-4  -5.717866249198532E-3  
 2.037200000000000E10   -1.682692964814236E-3  -5.507823597225878E-3  
 2.037400000000000E10   -2.509000343213111E-3  -5.251069265751192E-3  
 2.037600000000000E10   -3.418823569024235E-3  -4.881433148029043E-3  
 2.037800000000000E10   -4.377989529597539E-3  -4.255759098601562E-3  
 2.038000000000000E10   -5.146319908952273E-3  -3.375170056788643E-3  
 2.038200000000000E10   -5.634611369007165E-3  -2.331316244018115E-3  
 2.038400000000000E10   -5.920308532860177E-3  -1.262177997786138E-3  
 2.038600000000000E10   -6.029456520430101E-3  -1.358659046448417E-4  
 2.038800000000000E10   -5.875024668596410E-3   9.865603886866645E-4  
 2.039000000000000E10   -5.506567358050818E-3   1.963548848037551E-3  
 2.039200000000000E10   -4.964170684279116E-3   2.788124192092154E-3  
 2.039400000000000E10   -4.366844162390924E-3   3.466406839980204E-3  
 2.039600000000000E10   -3.786530653244736E-3   4.106019474106071E-3  
 2.039800000000000E10   -3.048596461016088E-3   4.732805172004450E-3  
 2.040000000000000E10   -2.180435137110360E-3   5.123069429379188E-3  
 2.040200000000000E10   -1.316899435169259E-3   5.372697912892442E-3  
 2.040400000000000E10   -3.991179016596972E-4   5.537111996270625E-3  
 2.040600000000000E10    5.762246617024053E-4   5.563157984274038E-3  
 2.040800000000000E10    1.568348187217374E-3   5.421980853295989E-3  
 2.041000000000000E10    2.557833089757665E-3   5.032094753128880E-3  
 2.041200000000000E10    3.381812853025802E-3   4.418911199648808E-3  
 2.041400000000000E10    4.069981740120753E-3   3.735532443740486E-3  
 2.041600000000000E10    4.682678620066541E-3   2.938609599009341E-3  
 2.041800000000000E10    5.084368871685900E-3   1.986947152073737E-3  
 2.042000000000000E10    5.197441872255302E-3   9.926193865177073E-4  
 2.042200000000000E10    5.112238607748792E-3   7.879547588050562E-5  
 2.042400000000000E10    4.911397572284864E-3  -7.084589178478462E-4  
 2.042600000000000E10    4.703050053873916E-3  -1.381907479860533E-3  
 2.042800000000000E10    4.454123086215538E-3  -2.052195462179773E-3  
 2.043000000000000E10    4.129787711541594E-3  -2.744789103069056E-3  
 2.043200000000000E10    3.657039867162153E-3  -3.465643103728876E-3  
 2.043400000000000E10    2.991938152936874E-3  -4.111569006869823E-3  
 2.043600000000000E10    2.234353456807173E-3  -4.587907453332051E-3  
 2.043800000000000E10    1.384982987261021E-3  -4.911328246242103E-3  
 2.044000000000000E10    4.290242098777751E-4  -5.088796867862528E-3  
 2.044200000000000E10   -5.953995048148949E-4  -5.036123487868428E-3  
 2.044400000000000E10   -1.549352581302325E-3  -4.698332088689010E-3  
 2.044600000000000E10   -2.290677135511313E-3  -4.144498474757981E-3  
 2.044800000000000E10   -2.773968505753596E-3  -3.527022199705243E-3  
 2.045000000000000E10   -3.113367278588775E-3  -2.999511607750147E-3  
 2.045200000000000E10   -3.451614476809348E-3  -2.512684905395648E-3  
 2.045400000000000E10   -3.782081567210916E-3  -2.013086099867468E-3  
 2.045600000000000E10   -4.063099318034488E-3  -1.476590673979602E-3  
 2.045800000000000E10   -4.328989630772009E-3  -8.147489646001271E-4  
 2.046000000000000E10   -4.467523392335869E-3  -1.843343376588753E-5  
 2.046200000000000E10   -4.406421451059022E-3   8.035604762959721E-4  
 2.046400000000000E10   -4.184226660678784E-3   1.587145822410139E-3  
 2.046600000000000E10   -3.793636095468645E-3   2.285114452127874E-3  
 2.046800000000000E10   -3.308086262234016E-3   2.894430412669425E-3  
 2.047000000000000E10   -2.688227635290888E-3   3.427338904275755E-3  
 2.047200000000000E10   -1.987370737126948E-3   3.804927341134092E-3  
 2.047400000000000E10   -1.312063534077211E-3   4.021623809994371E-3  
 2.047600000000000E10   -5.920654662919266E-4   4.108373955306080E-3  
 2.047800000000000E10    1.365113953116960E-4   4.045709335233695E-3  
 2.048000000000000E10    7.793635099746841E-4   3.871377241326336E-3  
 2.048200000000000E10    1.360046977671668E-3   3.645634566100292E-3  
 2.048400000000000E10    1.885470040257515E-3   3.343385629884807E-3  
 2.048600000000000E10    2.360245836668729E-3   2.990258570162603E-3  
 2.048800000000000E10    2.805260452729317E-3   2.545256409104224E-3  
 2.049000000000000E10    3.160589038290912E-3   2.007304167627921E-3  
 2.049200000000000E10    3.395812560079827E-3   1.469875872710053E-3  
 2.049400000000000E10    3.535123024549750E-3   9.475002312503848E-4  
 2.049600000000000E10    3.592127695518696E-3   4.172330229244207E-4  
 2.049800000000000E10    3.639663765091956E-3  -6.093065311924203E-5  
 2.050000000000000E10    3.755282331832950E-3  -6.121187600203687E-4  
 2.050200000000000E10    3.786141984164715E-3  -1.342851149757611E-3  
 2.050400000000000E10    3.556533524030705E-3  -2.187843819689236E-3  
 2.050600000000000E10    3.007040867857912E-3  -2.971414146071047E-3  
 2.050800000000000E10    2.180220728832079E-3  -3.520173500694428E-3  
 2.051000000000000E10    1.290425012911452E-3  -3.738182234681315E-3  
 2.051200000000000E10    5.195426810705277E-4  -3.653094988822202E-3  
 2.051400000000000E10   -4.400727019306088E-5  -3.443294279507281E-3  
 2.051600000000000E10   -4.909345815475617E-4  -3.260053964446725E-3  
 2.051800000000000E10   -9.040492141251396E-4  -3.122062272863624E-3  
 2.052000000000000E10   -1.349811561486143E-3  -2.964494261246773E-3  
 2.052200000000000E10   -1.783296812245232E-3  -2.706333075040653E-3  
 2.052400000000000E10   -2.146578442742244E-3  -2.388082824095532E-3  
 2.052600000000000E10   -2.441832838855960E-3  -2.037225986750406E-3  
 2.052800000000000E10   -2.749457843256770E-3  -1.707167344535759E-3  
 2.053000000000000E10   -3.069303961424732E-3  -1.302052671549681E-3  
 2.053200000000000E10   -3.299000098105567E-3  -7.990293289580740E-4  
 2.053400000000000E10   -3.470838696546393E-3  -2.101025095692388E-4  
 2.053600000000000E10   -3.518451697963440E-3   4.712654504764043E-4  
 2.053800000000000E10   -3.382561759977245E-3   1.175834834690632E-3  
 2.054000000000000E10   -3.065035123676982E-3   1.792633561072526E-3  
 2.054200000000000E10   -2.638641184333850E-3   2.304727361066106E-3  
 2.054400000000000E10   -2.082713264512059E-3   2.695418710325971E-3  
 2.054600000000000E10   -1.476451231419672E-3   2.903890497062678E-3  
 2.054800000000000E10   -9.379160739941362E-4   2.952009183642122E-3  
 2.055000000000000E10   -5.157108642850762E-4   2.890976792615321E-3  
 2.055200000000000E10   -1.692276219492434E-4   2.848422988375396E-3  
 2.055400000000000E10    1.798475615358279E-4   2.874720151777621E-3  
 2.055600000000000E10    6.180844739665864E-4   2.915694412809831E-3  
