#  HZ   S   RI   R     50.00 
! Rohde & Schwarz ZVA40 4Ports - Version 3.90 - 1145.1110k42 SN: 100403
! Date: 2023-10-03 11:47:51
! Measurement: S12 
! 
 2.000000000000000E10   -5.500258864938382E-5  -5.566605728947455E-3  
 2.000200000000000E10   -9.309783582230687E-4  -5.462554214453257E-3  
 2.000400000000000E10   -1.795202321200460E-3  -5.154971136815019E-3  
 2.000600000000000E10   -2.494320756307355E-3  -4.740220839502636E-3  
 2.000800000000000E10   -3.061747471629470E-3  -4.367838613688946E-3  
 2.001000000000000E10   -3.702632358504667E-3  -3.987194797782987E-3  
 2.001200000000000E10   -4.414562670582975E-3  -3.425979512502198E-3  
 2.001400000000000E10   -5.026476612935464E-3  -2.653649490740565E-3  
 2.001600000000000E10   -5.437425148017981E-3  -1.729817892838684E-3  
 2.001800000000000E10   -5.637513059708808E-3  -8.411731859841558E-4  
 2.002000000000000E10   -5.745101012979394E-3   5.959656428550026E-5  
 2.002200000000000E10   -5.714139349206731E-3   1.140902970089681E-3  
 2.002400000000000E10   -5.456650301952054E-3   2.192558280916678E-3  
 2.002600000000000E10   -4.932288373648017E-3   3.122376122822365E-3  
 2.002800000000000E10   -4.270868203430265E-3   3.854347134215965E-3  
 2.003000000000000E10   -3.508154285588750E-3   4.445883135000865E-3  
 2.003200000000000E10   -2.698641296269165E-3   4.905817633563722E-3  
 2.003400000000000E10   -1.833300244201113E-3   5.240439454576484E-3  
 2.003600000000000E10   -9.420212547950173E-4   5.423170617885061E-3  
 2.003800000000000E10   -4.508502375015437E-5   5.434545584850842E-3  
 2.004000000000000E10    8.152081777721093E-4   5.284522332389047E-3  
 2.004200000000000E10    1.601450606594208E-3   5.055334643219357E-3  
 2.004400000000000E10    2.367296480332260E-3   4.793901531094755E-3  
 2.004600000000000E10    3.127158550476587E-3   4.427830619668520E-3  
 2.004800000000000E10    3.858005024354768E-3   3.940244282906255E-3  
 2.005000000000000E10    4.569462879940317E-3   3.257624106481672E-3  
 2.005200000000000E10    5.131931492575893E-3   2.405262112410532E-3  
 2.005400000000000E10    5.519145099377192E-3   1.519495841219194E-3  
 2.005600000000000E10    5.789310360948245E-3   5.278320976584736E-4  
 2.005800000000000E10    5.854215610910346E-3  -5.236928528002292E-4  
 2.006000000000000E10    5.660344587845935E-3  -1.661652013555997E-3  
 2.006200000000000E10    5.188444870765563E-3  -2.682104922348151E-3  
 2.006400000000000E10    4.579382948577404E-3  -3.477068178148734E-3  
 2.006600000000000E10    3.882496255553431E-3  -4.129096348252562E-3  
 2.006800000000000E10    3.160317143839267E-3  -4.617390516041606E-3  
 2.007000000000000E10    2.427532837760670E-3  -5.076053845523685E-3  
 2.007200000000000E10    1.563038939989552E-3  -5.459249916451949E-3  
 2.007400000000000E10    6.407565605412756E-4  -5.678285482443042E-3  
 2.007600000000000E10   -3.223451188845232E-4  -5.701903046833145E-3  
 2.007800000000000E10   -1.234530104772637E-3  -5.498163005406107E-3  
 2.008000000000000E10   -2.012709604093322E-3  -5.218370990068825E-3  
 2.008200000000000E10   -2.757904826904889E-3  -4.946592488084679E-3  
 2.008400000000000E10   -3.586515525562896E-3  -4.628749667770334E-3  
 2.008600000000000E10   -4.476415510806773E-3  -4.006783495208732E-3  
 2.008800000000000E10   -5.185703971181756E-3  -3.099747088358358E-3  
 2.009000000000000E10   -5.644929405577757E-3  -2.110702089137502E-3  
 2.009200000000000E10   -5.952692452680182E-3  -1.079881369757156E-3  
 2.009400000000000E10   -6.066279710029011E-3   2.152101983988864E-5  
 2.009600000000000E10   -5.882535767913970E-3   1.187852387644213E-3  
 2.009800000000000E10   -5.406391134278642E-3   2.203261389190124E-3  
 2.010000000000000E10   -4.800821447538005E-3   3.003322614218902E-3  
 2.010200000000000E10   -4.096274246910105E-3   3.639859966588793E-3  
 2.010400000000000E10   -3.414844102398665E-3   4.037892480415327E-3  
 2.010600000000000E10   -2.810470483921193E-3   4.406979635219884E-3  
 2.010800000000000E10   -2.148923696950078E-3   4.829453597604125E-3  
 2.011000000000000E10   -1.375901318776111E-3   5.197434599890754E-3  
 2.011200000000000E10   -4.974120335342984E-4   5.447756412818477E-3  
 2.011400000000000E10    4.574432381627116E-4   5.503859595154171E-3  
 2.011600000000000E10    1.447552767651225E-3   5.378923948026367E-3  
 2.011800000000000E10    2.426581241673342E-3   5.038779504873135E-3  
 2.012000000000000E10    3.273111052328238E-3   4.522153883482572E-3  
 2.012200000000000E10    3.966811483863880E-3   3.884609805902949E-3  
 2.012400000000000E10    4.581034373216056E-3   3.153154652358758E-3  
 2.012600000000000E10    5.064769423808214E-3   2.292355669110462E-3  
 2.012800000000000E10    5.399594635323243E-3   1.308554671359835E-3  
 2.013000000000000E10    5.505790175111206E-3   3.021330523080434E-4  
 2.013200000000000E10    5.387896499424070E-3  -6.231539451551659E-4  
 2.013400000000000E10    5.163963901361934E-3  -1.498473907337973E-3  
 2.013600000000000E10    4.814136911321570E-3  -2.391531296005404E-3  
 2.013800000000000E10    4.281578482025200E-3  -3.200164263102192E-3  
 2.014000000000000E10    3.593060136255291E-3  -3.815025091171265E-3  
 2.014200000000000E10    2.894497260934225E-3  -4.194450185254769E-3  
 2.014400000000000E10    2.264313425661789E-3  -4.529275534743513E-3  
 2.014600000000000E10    1.568353527949916E-3  -4.916786078225684E-3  
 2.014800000000000E10    7.208228279422554E-4  -5.192002316040022E-3  
 2.015000000000000E10   -1.800751513790736E-4  -5.275665937612454E-3  
 2.015200000000000E10   -1.073447308347871E-3  -5.196029372099374E-3  
 2.015400000000000E10   -2.027881775844705E-3  -4.962548579054851E-3  
 2.015600000000000E10   -2.911062419621482E-3  -4.490313309900187E-3  
 2.015800000000000E10   -3.602294354803033E-3  -3.912319153271340E-3  
 2.016000000000000E10   -4.215827366958062E-3  -3.253552536652596E-3  
 2.016200000000000E10   -4.699128610944308E-3  -2.445276921477031E-3  
 2.016400000000000E10   -4.969293958748933E-3  -1.519454492221552E-3  
 2.016600000000000E10   -5.048739206459788E-3  -6.555078930600927E-4  
 2.016800000000000E10   -5.071994503615080E-3   1.045237704939037E-4  
 2.017000000000000E10   -5.012286792474765E-3   8.962635399290809E-4  
 2.017200000000000E10   -4.828010909949189E-3   1.734051995703744E-3  
 2.017400000000000E10   -4.490227231548892E-3   2.569571810050143E-3  
 2.017600000000000E10   -3.978529255147334E-3   3.313444615169257E-3  
 2.017800000000000E10   -3.417521482333541E-3   3.899754163015772E-3  
 2.018000000000000E10   -2.786608576705611E-3   4.440570836541830E-3  
 2.018200000000000E10   -2.012313830804218E-3   4.935574045197832E-3  
 2.018400000000000E10   -1.100312357906390E-3   5.276881072118328E-3  
 2.018600000000000E10   -1.366135760758038E-4   5.436283536255360E-3  
 2.018800000000000E10    8.325701131036989E-4   5.429330212926424E-3  
 2.019000000000000E10    1.822354591072158E-3   5.198240901033084E-3  
 2.019200000000000E10    2.735865880148831E-3   4.742227684430503E-3  
 2.019400000000000E10    3.528755020212244E-3   4.198488779366016E-3  
 2.019600000000000E10    4.244061790544679E-3   3.522109550734362E-3  
 2.019800000000000E10    4.754072451895035E-3   2.651667308614210E-3  
 2.020000000000000E10    5.006493000244654E-3   1.741908175905270E-3  
 2.020200000000000E10    5.052445370152042E-3   9.383639424211450E-4  
 2.020400000000000E10    5.102754622283909E-3   2.653732576786920E-4  
 2.020600000000000E10    5.215253611957587E-3  -4.696982419032053E-4  
 2.020800000000000E10    5.127911576656281E-3  -1.348266511707118E-3  
 2.021000000000000E10    4.863814433553705E-3  -2.141620843084874E-3  
 2.021200000000000E10    4.648893916358551E-3  -2.915024947099112E-3  
 2.021400000000000E10    4.261458327096922E-3  -3.890482277643902E-3  
 2.021600000000000E10    3.488754707009153E-3  -4.803025543137834E-3  
 2.021800000000000E10    2.456574554175691E-3  -5.429419895841016E-3  
 2.022000000000000E10    1.367413788102567E-3  -5.728411229534282E-3  
 2.022200000000000E10    3.035957590866559E-4  -5.872380954247934E-3  
 2.022400000000000E10   -8.024431967728394E-4  -5.870770611282852E-3  
 2.022600000000000E10   -1.927832313985737E-3  -5.578109563362819E-3  
 2.022800000000000E10   -2.907282707315904E-3  -5.020390971805211E-3  
 2.023000000000000E10   -3.717654936567501E-3  -4.343515675928858E-3  
 2.023200000000000E10   -4.416187518034821E-3  -3.559065379064393E-3  
 2.023400000000000E10   -4.923156117675482E-3  -2.654461535038772E-3  
 2.023600000000000E10   -5.197643474848183E-3  -1.725137802875705E-3  
 2.023800000000000E10   -5.301311077481068E-3  -8.135218587186602E-4  
 2.024000000000000E10   -5.289353740712008E-3   5.448943368348950E-5  
 2.024200000000000E10   -5.153066927084217E-3   8.804755613069845E-4  
 2.024400000000000E10   -4.956566659664667E-3   1.608789178404819E-3  
 2.024600000000000E10   -4.755262820119108E-3   2.368898053343098E-3  
 2.024800000000000E10   -4.392037495832753E-3   3.272166156589434E-3  
 2.025000000000000E10   -3.763698351879915E-3   4.133399817402717E-3  
 2.025200000000000E10   -2.933029818383080E-3   4.787572349111239E-3  
 2.025400000000000E10   -2.000531776704722E-3   5.233062810643957E-3  
 2.025600000000000E10   -9.912042749217816E-4   5.479515133494581E-3  
 2.025800000000000E10    3.073656115601707E-5   5.498513958796308E-3  
 2.026000000000000E10    9.986302617040498E-4   5.307624875395387E-3  
 2.026200000000000E10    1.790897506806586E-3   4.968921153771657E-3  
 2.026400000000000E10    2.490787430562907E-3   4.616173725851156E-3  
 2.026600000000000E10    3.253545086072000E-3   4.163806378427479E-3  
 2.026800000000000E10    3.949280431563104E-3   3.550925568022111E-3  
 2.027000000000000E10    4.492145635325601E-3   2.800468044976394E-3  
 2.027200000000000E10    4.819199425616751E-3   2.021199497566731E-3  
 2.027400000000000E10    5.086385300038038E-3   1.272588209421547E-3  
 2.027600000000000E10    5.277428776025772E-3   4.217357986986086E-4  
 2.027800000000000E10    5.322017482723352E-3  -4.616556818493539E-4  
 2.028000000000000E10    5.317150235727982E-3  -1.351356355438906E-3  
 2.028200000000000E10    5.124801028243922E-3  -2.353260112512443E-3  
 2.028400000000000E10    4.619199075494652E-3  -3.369186478839429E-3  
 2.028600000000000E10    3.826891123834584E-3  -4.193465432359113E-3  
 2.028800000000000E10    2.963711731825715E-3  -4.734613570488162E-3  
 2.029000000000000E10    2.155792502755369E-3  -5.127701563415705E-3  
 2.029200000000000E10    1.282565955383082E-3  -5.470325842637708E-3  
 2.029400000000000E10    2.460116135167752E-4  -5.633728233752428E-3  
 2.029600000000000E10   -7.789511863073265E-4  -5.491211355008461E-3  
 2.029800000000000E10   -1.611564981026782E-3  -5.212611932721403E-3  
 2.030000000000000E10   -2.362211993723004E-3  -4.957055086614910E-3  
 2.030200000000000E10   -3.201320051664004E-3  -4.548699991708554E-3  
 2.030400000000000E10   -3.984892068223821E-3  -3.896055967305546E-3  
 2.030600000000000E10   -4.554204280591674E-3  -3.107319180681198E-3  
 2.030800000000000E10   -4.933853788922231E-3  -2.333512452120583E-3  
 2.031000000000000E10   -5.220938129005610E-3  -1.563426296882056E-3  
 2.031200000000000E10   -5.448543639094742E-3  -7.449109258164687E-4  
 2.031400000000000E10   -5.554128041559900E-3   1.782477214604754E-4  
 2.031600000000000E10   -5.525918194541226E-3   1.117009410841598E-3  
 2.031800000000000E10   -5.273468102569934E-3   2.091789299070283E-3  
 2.032000000000000E10   -4.833287266255529E-3   2.942784137471959E-3  
 2.032200000000000E10   -4.270307167812631E-3   3.753605083114020E-3  
 2.032400000000000E10   -3.547160679267513E-3   4.468181998365456E-3  
 2.032600000000000E10   -2.741486886171280E-3   5.048453445649810E-3  
 2.032800000000000E10   -1.800948538369051E-3   5.516100795594631E-3  
 2.033000000000000E10   -7.091639434090920E-4   5.762495203978486E-3  
 2.033200000000000E10    4.113966715522111E-4   5.716795670903392E-3  
 2.033400000000000E10    1.465943986894908E-3   5.433815307225343E-3  
 2.033600000000000E10    1.895179437404430E-3   5.131036491581688E-3  
 2.033800000000000E10    3.032375954919391E-3   4.346838117473656E-3  
 2.034000000000000E10    3.605702564258267E-3   3.753849831237286E-3  
 2.034200000000000E10    4.111280751035170E-3   3.120795608049742E-3  
 2.034400000000000E10    4.514127624807535E-3   2.460136130038235E-3  
 2.034600000000000E10    4.838296108775670E-3   1.796434210889318E-3  
 2.034800000000000E10    5.149582849332581E-3   1.092246155840931E-3  
 2.035000000000000E10    5.396206776990936E-3   2.799753635406012E-4  
 2.035200000000000E10    5.495292082842854E-3  -7.105643033153482E-4  
 2.035400000000000E10    5.350849660182441E-3  -1.766704975765337E-3  
 2.035600000000000E10    4.963324232785791E-3  -2.707706850573973E-3  
 2.035800000000000E10    4.406115264390355E-3  -3.531274920398439E-3  
 2.036000000000000E10    3.696690296271334E-3  -4.289290160630589E-3  
 2.036200000000000E10    2.851236956538978E-3  -4.897774990510058E-3  
 2.036400000000000E10    1.900177556779926E-3  -5.314370013635468E-3  
 2.036600000000000E10    8.901944448654023E-4  -5.500429068450575E-3  
 2.036800000000000E10   -8.690822168891490E-5  -5.438847984704707E-3  
 2.037000000000000E10   -9.378240318727440E-4  -5.185790463454194E-3  
 2.037200000000000E10   -1.677680247532273E-3  -4.941356644310333E-3  
 2.037400000000000E10   -2.441775760854836E-3  -4.666829067799781E-3  
 2.037600000000000E10   -3.205823099792556E-3  -4.237890260776988E-3  
 2.037800000000000E10   -3.929862769803515E-3  -3.629337073545214E-3  
 2.038000000000000E10   -4.542279764320012E-3  -2.867771433321415E-3  
 2.038200000000000E10   -4.976706700054585E-3  -1.993577263352496E-3  
 2.038400000000000E10   -5.235943943262100E-3  -1.079954939928872E-3  
 2.038600000000000E10   -5.313419840402074E-3  -1.035100959362117E-4  
 2.038800000000000E10   -5.141726160352982E-3   8.594308768537034E-4  
 2.039000000000000E10   -4.822492064839161E-3   1.696013116829650E-3  
 2.039200000000000E10   -4.416417623697608E-3   2.439669488618772E-3  
 2.039400000000000E10   -3.958470602002409E-3   3.072046088399711E-3  
 2.039600000000000E10   -3.472977826647737E-3   3.694831281555473E-3  
 2.039800000000000E10   -2.805481992523980E-3   4.337832469631126E-3  
 2.040000000000000E10   -1.961397964300381E-3   4.815262966547852E-3  
 2.040200000000000E10   -1.037826356305569E-3   5.101302276468940E-3  
 2.040400000000000E10   -8.574320829076763E-5   5.159314497615453E-3  
 2.040600000000000E10    8.091371273621918E-4   5.020523926726094E-3  
 2.040800000000000E10    1.631302250273250E-3   4.751916336654513E-3  
 2.041000000000000E10    2.413176508896329E-3   4.368822159314598E-3  
 2.041200000000000E10    3.100476279440854E-3   3.868645712457322E-3  
 2.041400000000000E10    3.687969848720564E-3   3.260733939155385E-3  
 2.041600000000000E10    4.202981410479105E-3   2.537958030761392E-3  
 2.041800000000000E10    4.540061284960421E-3   1.684188368488793E-3  
 2.042000000000000E10    4.675782320124132E-3   8.534519562359763E-4  
 2.042200000000000E10    4.645765103675701E-3   5.075298934200504E-5  
 2.042400000000000E10    4.467208973235555E-3  -6.582897665255048E-4  
 2.042600000000000E10    4.261416659035065E-3  -1.279998445641939E-3  
 2.042800000000000E10    3.989467880240193E-3  -1.933142357436871E-3  
 2.043000000000000E10    3.616954777734700E-3  -2.544329475818409E-3  
 2.043200000000000E10    3.153572962791832E-3  -3.064489035211780E-3  
 2.043400000000000E10    2.604090824240336E-3  -3.515607410076040E-3  
 2.043600000000000E10    1.998006279959723E-3  -3.909520822128764E-3  
 2.043800000000000E10    1.332705698183014E-3  -4.236925962484546E-3  
 2.044000000000000E10    5.718827790891131E-4  -4.465636711015747E-3  
 2.044200000000000E10   -2.867572324315983E-4  -4.537670355704096E-3  
 2.044400000000000E10   -1.177695523775010E-3  -4.352574426404856E-3  
 2.044600000000000E10   -1.944564006946705E-3  -3.901841757060202E-3  
 2.044800000000000E10   -2.482221530819381E-3  -3.351114500589946E-3  
 2.045000000000000E10   -2.846497904371333E-3  -2.866198231155674E-3  
 2.045200000000000E10   -3.184092377691910E-3  -2.412102262799939E-3  
 2.045400000000000E10   -3.531908573306822E-3  -1.901049339384945E-3  
 2.045600000000000E10   -3.834296155858924E-3  -1.308852207364032E-3  
 2.045800000000000E10   -4.063144981585168E-3  -6.287238491630114E-4  
 2.046000000000000E10   -4.130846217136693E-3   1.201755754765246E-4  
 2.046200000000000E10   -4.018844208783574E-3   8.660150062361802E-4  
 2.046400000000000E10   -3.762032155430428E-3   1.552485162392259E-3  
 2.046600000000000E10   -3.404780903279230E-3   2.161024923056916E-3  
 2.046800000000000E10   -2.974873624259124E-3   2.678059351940950E-3  
 2.047000000000000E10   -2.470818080904860E-3   3.101568022328947E-3  
 2.047200000000000E10   -1.909601010589136E-3   3.456343810453459E-3  
 2.047400000000000E10   -1.301477063895652E-3   3.723233550166091E-3  
 2.047600000000000E10   -6.564457499836056E-4   3.896988893824596E-3  
 2.047800000000000E10    1.345224316335385E-5   3.962549812125940E-3  
 2.048000000000000E10    7.039409268785406E-4   3.902116738673714E-3  
 2.048200000000000E10    1.370643381960690E-3   3.697692261387905E-3  
 2.048400000000000E10    1.972185646149296E-3   3.357758133292751E-3  
 2.048600000000000E10    2.477664940266146E-3   2.974393061810622E-3  
 2.048800000000000E10    2.910590825464439E-3   2.512981209696995E-3  
 2.049000000000000E10    3.228723243982704E-3   1.943529204086021E-3  
 2.049200000000000E10    3.418876755016822E-3   1.379064241148256E-3  
 2.049400000000000E10    3.543926040745444E-3   8.863363850482362E-4  
 2.049600000000000E10    3.625431373991348E-3   3.854161294401382E-4  
 2.049800000000000E10    3.709650313895610E-3  -9.967841739395497E-5  
 2.050000000000000E10    3.839794908546740E-3  -7.021763616379489E-4  
 2.050200000000000E10    3.810248708490421E-3  -1.509963107916216E-3  
 2.050400000000000E10    3.489855168111347E-3  -2.396297977409429E-3  
 2.050600000000000E10    2.884453240161141E-3  -3.167828691571399E-3  
 2.050800000000000E10    1.999364243130441E-3  -3.683290289094051E-3  
 2.051000000000000E10    1.033126335608325E-3  -3.841053082228259E-3  
 2.051200000000000E10    2.254055954701336E-4  -3.679208267756083E-3  
 2.051400000000000E10   -3.242580537011640E-4  -3.393502578277279E-3  
 2.051600000000000E10   -7.403773272892944E-4  -3.171218248705070E-3  
 2.051800000000000E10   -1.140270015673229E-3  -3.010287518716522E-3  
 2.052000000000000E10   -1.588626001547608E-3  -2.796301963152709E-3  
 2.052200000000000E10   -2.039331218434705E-3  -2.454112602949695E-3  
 2.052400000000000E10   -2.374106328244563E-3  -2.059792146880042E-3  
 2.052600000000000E10   -2.582466712704411E-3  -1.654509722289664E-3  
 2.052800000000000E10   -2.769116105304824E-3  -1.279843509783623E-3  
 2.053000000000000E10   -2.964986902144221E-3  -8.829528771996224E-4  
 2.053200000000000E10   -3.129397380959105E-3  -4.830970741480728E-4  
 2.053400000000000E10   -3.308656582332872E-3  -5.910336228596329E-6  
 2.053600000000000E10   -3.421305118266631E-3   6.460579041029431E-4  
 2.053800000000000E10   -3.285162745871478E-3   1.372016047955387E-3  
 2.054000000000000E10   -2.870511030778289E-3   2.017191844061017E-3  
 2.054200000000000E10   -2.356274726076259E-3   2.456818465833311E-3  
 2.054400000000000E10   -1.838906064491581E-3   2.729873604106683E-3  
 2.054600000000000E10   -1.299100867645056E-3   2.911000952331557E-3  
 2.054800000000000E10   -7.528107703870370E-4   3.007154920379873E-3  
 2.055000000000000E10   -2.600927325181181E-4   2.982754113704519E-3  
 2.055200000000000E10    1.630979189670783E-4   2.877467786203381E-3  
 2.055400000000000E10    5.087493811044152E-4   2.759020318518634E-3  
 2.055600000000000E10    8.550831008943972E-4   2.695181286307397E-3  
