#  HZ   S   RI   R     50.00 
! Rohde & Schwarz ZVA40 4Ports - Version 3.90 - 1145.1110k42 SN: 100403
! Date: 2023-10-03 11:49:48
! Measurement: S12 
! 
 2.000000000000000E10   -8.784494604225513E-4  -3.932137048032918E-3  
 2.000200000000000E10   -1.434772457915968E-3  -3.710888139328656E-3  
 2.000400000000000E10   -1.959672467898072E-3  -3.396345084004197E-3  
 2.000600000000000E10   -2.421671237198659E-3  -3.022603012253473E-3  
 2.000800000000000E10   -2.799937185359958E-3  -2.634553296238552E-3  
 2.001000000000000E10   -3.172299410733912E-3  -2.248348018591419E-3  
 2.001200000000000E10   -3.556550825359645E-3  -1.814322357847827E-3  
 2.001400000000000E10   -3.918146904281997E-3  -1.243302812742323E-3  
 2.001600000000000E10   -4.128343649898415E-3  -5.352517901086192E-4  
 2.001800000000000E10   -4.204589896547942E-3   1.417459779200547E-4  
 2.002000000000000E10   -4.218513370250111E-3   8.490748292433076E-4  
 2.002200000000000E10   -4.073335162513419E-3   1.695089371311536E-3  
 2.002400000000000E10   -3.702398426945747E-3   2.503816391927777E-3  
 2.002600000000000E10   -3.091288609775129E-3   3.175510050452970E-3  
 2.002800000000000E10   -2.390216346140261E-3   3.594324849316000E-3  
 2.003000000000000E10   -1.691095183178047E-3   3.839659723050801E-3  
 2.003200000000000E10   -1.039641899240698E-3   3.970754367333872E-3  
 2.003400000000000E10   -4.260615527595359E-4   4.011123458406440E-3  
 2.003600000000000E10    1.490420962836427E-4   4.020281710926398E-3  
 2.003800000000000E10    7.876195293782211E-4   3.997478277686938E-3  
 2.004000000000000E10    1.456295416035034E-3   3.789055143931398E-3  
 2.004200000000000E10    2.018728388335418E-3   3.445584519570809E-3  
 2.004400000000000E10    2.481697150218634E-3   3.080718949391150E-3  
 2.004600000000000E10    2.902830016718787E-3   2.700830108405632E-3  
 2.004800000000000E10    3.294708077899284E-3   2.308982783744549E-3  
 2.005000000000000E10    3.734545293551537E-3   1.835494634212443E-3  
 2.005200000000000E10    4.104948677352550E-3   1.186210916515578E-3  
 2.005400000000000E10    4.305565189340234E-3   4.642797906359911E-4  
 2.005600000000000E10    4.400354585851785E-3  -3.038166169624023E-4  
 2.005800000000000E10    4.332111924196836E-3  -1.113175259282192E-3  
 2.006000000000000E10    4.035926084781503E-3  -1.943646050575707E-3  
 2.006200000000000E10    3.532925675289683E-3  -2.643346671520928E-3  
 2.006400000000000E10    2.945958122174130E-3  -3.134478196892658E-3  
 2.006600000000000E10    2.364696515149173E-3  -3.497471802948434E-3  
 2.006800000000000E10    1.788808570392890E-3  -3.767891672014455E-3  
 2.007000000000000E10    1.171327632978375E-3  -4.005098836151539E-3  
 2.007200000000000E10    5.016297336960971E-4  -4.122509615334833E-3  
 2.007400000000000E10   -1.434907185116404E-4  -4.112376722242730E-3  
 2.007600000000000E10   -7.636470937193086E-4  -4.023214465835029E-3  
 2.007800000000000E10   -1.330019464934774E-3  -3.860431073670403E-3  
 2.008000000000000E10   -1.854381946570896E-3  -3.676219731224356E-3  
 2.008200000000000E10   -2.435030450147611E-3  -3.496622083202741E-3  
 2.008400000000000E10   -3.150085467316302E-3  -3.233239664063779E-3  
 2.008600000000000E10   -3.914682970692715E-3  -2.660080431213166E-3  
 2.008800000000000E10   -4.445571659339800E-3  -1.765793583206373E-3  
 2.009000000000000E10   -4.641688733511134E-3  -8.425146368631151E-4  
 2.009200000000000E10   -4.661531406052319E-3  -1.620705159349415E-5  
 2.009400000000000E10   -4.619934107464405E-3   8.024714986310789E-4  
 2.009600000000000E10   -4.412644640485079E-3   1.721654768550286E-3  
 2.009800000000000E10   -3.897322626370524E-3   2.545123842234413E-3  
 2.010000000000000E10   -3.206809013966977E-3   3.137321329250197E-3  
 2.010200000000000E10   -2.475797928823733E-3   3.502332766390877E-3  
 2.010400000000000E10   -1.861528167213647E-3   3.646088663465631E-3  
 2.010600000000000E10   -1.369174653204319E-3   3.785675288074547E-3  
 2.010800000000000E10   -8.429672661018962E-4   3.975993827169325E-3  
 2.011000000000000E10   -2.334859324755711E-4   4.132656935303484E-3  
 2.011200000000000E10    4.462715224679100E-4   4.196872417297629E-3  
 2.011400000000000E10    1.184928103028165E-3   4.123614129414898E-3  
 2.011600000000000E10    1.929320617762889E-3   3.899445984351599E-3  
 2.011800000000000E10    2.635478016196026E-3   3.505984212007420E-3  
 2.012000000000000E10    3.227857458922599E-3   2.949072039444690E-3  
 2.012200000000000E10    3.691161790126820E-3   2.333533061944225E-3  
 2.012400000000000E10    4.073804077680833E-3   1.652503856112836E-3  
 2.012600000000000E10    4.314315240876175E-3   8.610861626005286E-4  
 2.012800000000000E10    4.353717780085626E-3   5.778488151536552E-6  
 2.013000000000000E10    4.176556891589254E-3  -7.739050312393150E-4  
 2.013200000000000E10    3.882961592027619E-3  -1.411840096863424E-3  
 2.013400000000000E10    3.588057634777126E-3  -1.992054930370715E-3  
 2.013600000000000E10    3.193717426907870E-3  -2.599472815262867E-3  
 2.013800000000000E10    2.626329338476982E-3  -3.105697411767863E-3  
 2.014000000000000E10    1.973030598615699E-3  -3.441167414694289E-3  
 2.014200000000000E10    1.356596740848029E-3  -3.583408029818977E-3  
 2.014400000000000E10    8.648744853282419E-4  -3.688453420720719E-3  
 2.014600000000000E10    3.232088489357360E-4  -3.858638418562435E-3  
 2.014800000000000E10   -3.519405129029313E-4  -3.929237863853758E-3  
 2.015000000000000E10   -1.049168006212301E-3  -3.808179801260984E-3  
 2.015200000000000E10   -1.686043488321665E-3  -3.575496892962192E-3  
 2.015400000000000E10   -2.310875800357741E-3  -3.232603110832933E-3  
 2.015600000000000E10   -2.831594472360096E-3  -2.755905346324047E-3  
 2.015800000000000E10   -3.267517149517382E-3  -2.225925568146287E-3  
 2.016000000000000E10   -3.645697970771128E-3  -1.585255809599695E-3  
 2.016200000000000E10   -3.854046877542580E-3  -8.561853175683891E-4  
 2.016400000000000E10   -3.849770129301851E-3  -9.756015195442298E-5  
 2.016600000000000E10   -3.675476107516407E-3   5.415915763063104E-4  
 2.016800000000000E10   -3.444072060332991E-3   1.066881734992803E-3  
 2.017000000000000E10   -3.168476412049783E-3   1.533881115819110E-3  
 2.017200000000000E10   -2.880684591622816E-3   1.936585538917118E-3  
 2.017400000000000E10   -2.585041060767792E-3   2.325983879006940E-3  
 2.017600000000000E10   -2.215612044465947E-3   2.671789533148210E-3  
 2.017800000000000E10   -1.860104374771501E-3   2.991003953035415E-3  
 2.018000000000000E10   -1.455907089014848E-3   3.351386294435757E-3  
 2.018200000000000E10   -8.992574330028377E-4   3.702005196109783E-3  
 2.018400000000000E10   -2.119345739584439E-4   3.925447426966312E-3  
 2.018600000000000E10    5.398687244002006E-4   3.976901855181765E-3  
 2.018800000000000E10    1.323471420708998E-3   3.860028776811597E-3  
 2.019000000000000E10    2.073461937223688E-3   3.534872027366986E-3  
 2.019200000000000E10    2.689410759894937E-3   3.040663386338655E-3  
 2.019400000000000E10    3.152602059007795E-3   2.500069319029098E-3  
 2.019600000000000E10    3.568873528023194E-3   1.883898699299697E-3  
 2.019800000000000E10    3.844683061434348E-3   1.129224348847789E-3  
 2.020000000000000E10    3.873367661633242E-3   3.723860265583628E-4  
 2.020200000000000E10    3.753995908033333E-3  -2.673847514045150E-4  
 2.020400000000000E10    3.614477991459915E-3  -8.016958104067103E-4  
 2.020600000000000E10    3.442683478495405E-3  -1.362732258038941E-3  
 2.020800000000000E10    3.125885185314182E-3  -1.895948216882477E-3  
 2.021000000000000E10    2.760372371815237E-3  -2.256378008305659E-3  
 2.021200000000000E10    2.556952196575793E-3  -2.599031218890975E-3  
 2.021400000000000E10    2.272804920205180E-3  -3.148316089523796E-3  
 2.021600000000000E10    1.680010247021270E-3  -3.732129865337486E-3  
 2.021800000000000E10    8.491510848721698E-4  -4.058064203019496E-3  
 2.022000000000000E10    4.396239949719417E-5  -4.088800285517434E-3  
 2.022200000000000E10   -6.671928136643989E-4  -4.023622701312474E-3  
 2.022400000000000E10   -1.368881855734889E-3  -3.859440333290417E-3  
 2.022600000000000E10   -2.075877011880095E-3  -3.557547688323223E-3  
 2.022800000000000E10   -2.695078722971641E-3  -3.107733139193353E-3  
 2.023000000000000E10   -3.213988720542856E-3  -2.556014791659919E-3  
 2.023200000000000E10   -3.611583923806012E-3  -1.891707400733858E-3  
 2.023400000000000E10   -3.813616428409278E-3  -1.168093059131485E-3  
 2.023600000000000E10   -3.855695450724460E-3  -5.122555396807047E-4  
 2.023800000000000E10   -3.851256721342604E-3   8.635049678919190E-5  
 2.024000000000000E10   -3.798550331137247E-3   7.030404256196855E-4  
 2.024200000000000E10   -3.619351113835971E-3   1.316404609687995E-3  
 2.024400000000000E10   -3.353999740800557E-3   1.832785471457482E-3  
 2.024600000000000E10   -3.107885551282470E-3   2.349910668361886E-3  
 2.024800000000000E10   -2.750584930411460E-3   2.934850623003311E-3  
 2.025000000000000E10   -2.210140383491914E-3   3.474843360621620E-3  
 2.025200000000000E10   -1.545154344416971E-3   3.863114765902729E-3  
 2.025400000000000E10   -7.907818941066020E-4   4.113341161383339E-3  
 2.025600000000000E10    4.303051725771547E-6   4.200190777120032E-3  
 2.025800000000000E10    8.053518292770066E-4   4.084520677196576E-3  
 2.026000000000000E10    1.509358258458016E-3   3.780378330567922E-3  
 2.026200000000000E10    2.043755138637843E-3   3.400468497456592E-3  
 2.026400000000000E10    2.526397707607644E-3   3.043171274188309E-3  
 2.026600000000000E10    3.025083630173295E-3   2.589516103106701E-3  
 2.026800000000000E10    3.426334058957888E-3   2.011639471338303E-3  
 2.027000000000000E10    3.670623310393206E-3   1.354679656444968E-3  
 2.027200000000000E10    3.745757908571834E-3   7.482254504007691E-4  
 2.027400000000000E10    3.809895423919331E-3   2.379349749883850E-4  
 2.027600000000000E10    3.861621720716357E-3  -3.413227429889419E-4  
 2.027800000000000E10    3.835678822073488E-3  -9.417568008633861E-4  
 2.028000000000000E10    3.772509680991924E-3  -1.591509877830560E-3  
 2.028200000000000E10    3.546644151670698E-3  -2.354459644490738E-3  
 2.028400000000000E10    3.023526812386182E-3  -3.072212680162472E-3  
 2.028600000000000E10    2.325715344790140E-3  -3.546223392204187E-3  
 2.028800000000000E10    1.648481360372202E-3  -3.789078671324217E-3  
 2.029000000000000E10    1.058426977388193E-3  -3.980705290342924E-3  
 2.029200000000000E10    3.872083142158335E-4  -4.173239601063141E-3  
 2.029400000000000E10   -4.067461230550652E-4  -4.193469709544271E-3  
 2.029600000000000E10   -1.151717042285995E-3  -3.956617675376712E-3  
 2.029800000000000E10   -1.674009712677403E-3  -3.643142792430742E-3  
 2.030000000000000E10   -2.140243569342995E-3  -3.435071399665358E-3  
 2.030200000000000E10   -2.755426390694432E-3  -3.165690584775107E-3  
 2.030400000000000E10   -3.364440496367070E-3  -2.661623902917828E-3  
 2.030600000000000E10   -3.786446428915234E-3  -2.000070599563144E-3  
 2.030800000000000E10   -4.047192262347650E-3  -1.342247957421214E-3  
 2.031000000000000E10   -4.232908001192559E-3  -6.629719763971223E-4  
 2.031200000000000E10   -4.323749550054839E-3   3.455702657739483E-5  
 2.031400000000000E10   -4.316181139905512E-3   7.803570256384528E-4  
 2.031600000000000E10   -4.201470000416409E-3   1.542597099345316E-3  
 2.031800000000000E10   -3.881406165475463E-3   2.293661345992192E-3  
 2.032000000000000E10   -3.445621680491317E-3   2.944389027600855E-3  
 2.032200000000000E10   -2.912922609988371E-3   3.565943943635550E-3  
 2.032400000000000E10   -2.208031389149435E-3   4.078122062815561E-3  
 2.032600000000000E10   -1.402634845609650E-3   4.407104415198168E-3  
 2.032800000000000E10   -5.453452715839916E-4   4.584923760252603E-3  
 2.033000000000000E10    3.201469157773565E-4   4.535155043143918E-3  
 2.033200000000000E10    1.112558505279415E-3   4.320887078381616E-3  
 2.033400000000000E10    1.861047948262206E-3   3.982518178721270E-3  
 2.033600000000000E10    2.123284054471663E-3   3.680922168617448E-3  
 2.033800000000000E10    2.874714371253863E-3   2.931099359153046E-3  
 2.034000000000000E10    3.241703612729908E-3   2.425890545257264E-3  
 2.034200000000000E10    3.533750746606125E-3   1.833039936667055E-3  
 2.034400000000000E10    3.636945154011986E-3   1.267312130499861E-3  
 2.034600000000000E10    3.715445439871631E-3   8.329937621134760E-4  
 2.034800000000000E10    3.916723797396746E-3   3.829965257695963E-4  
 2.035000000000000E10    4.115257159243396E-3  -2.377724420871402E-4  
 2.035200000000000E10    4.132881990553421E-3  -1.021792039988034E-3  
 2.035400000000000E10    3.922653855916895E-3  -1.798918318394342E-3  
 2.035600000000000E10    3.581427762077915E-3  -2.468002577783701E-3  
 2.035800000000000E10    3.148223172850264E-3  -3.110176843395572E-3  
 2.036000000000000E10    2.521756740378929E-3  -3.727531460125322E-3  
 2.036200000000000E10    1.723655565630323E-3  -4.171078696984937E-3  
 2.036400000000000E10    8.314006723302567E-4  -4.377791226876003E-3  
 2.036600000000000E10   -5.090778444198043E-5  -4.299019837039122E-3  
 2.036800000000000E10   -7.384841439578638E-4  -4.010192095589491E-3  
 2.037000000000000E10   -1.233509301932322E-3  -3.689598338103590E-3  
 2.037200000000000E10   -1.633671332254178E-3  -3.462105224851841E-3  
 2.037400000000000E10   -2.097279508885595E-3  -3.276957908967211E-3  
 2.037600000000000E10   -2.617952603570842E-3  -3.004878201740392E-3  
 2.037800000000000E10   -3.147859715592163E-3  -2.604953047853929E-3  
 2.038000000000000E10   -3.637611515314124E-3  -2.071679960706352E-3  
 2.038200000000000E10   -4.024965205678234E-3  -1.408967688208285E-3  
 2.038400000000000E10   -4.269344985117148E-3  -6.376497072374655E-4  
 2.038600000000000E10   -4.329161367804549E-3   1.765316449979573E-4  
 2.038800000000000E10   -4.165892569739142E-3   9.795907844593866E-4  
 2.039000000000000E10   -3.875440736818645E-3   1.658453156217289E-3  
 2.039200000000000E10   -3.518660322843511E-3   2.232171911286351E-3  
 2.039400000000000E10   -3.129688884924960E-3   2.743509149661771E-3  
 2.039600000000000E10   -2.700859652027304E-3   3.256618076889420E-3  
 2.039800000000000E10   -2.106266718553265E-3   3.766688650450957E-3  
 2.040000000000000E10   -1.363553033486285E-3   4.123426209215397E-3  
 2.040200000000000E10   -5.543947260809580E-4   4.295113191790420E-3  
 2.040400000000000E10    2.627375210135210E-4   4.260185967992854E-3  
 2.040600000000000E10    9.823791584988805E-4   4.066781577780660E-3  
 2.040800000000000E10    1.628331092680679E-3   3.802738761828270E-3  
 2.041000000000000E10    2.237382020088442E-3   3.468967597632681E-3  
 2.041200000000000E10    2.792572881451544E-3   3.033229779383099E-3  
 2.041400000000000E10    3.271824366953455E-3   2.520948266150591E-3  
 2.041600000000000E10    3.699563840335166E-3   1.883089055169236E-3  
 2.041800000000000E10    3.942242260148497E-3   1.119196058515414E-3  
 2.042000000000000E10    3.962982684534826E-3   3.795458106640267E-4  
 2.042200000000000E10    3.849309757006942E-3  -2.742220888727771E-4  
 2.042400000000000E10    3.684396263395931E-3  -8.287248776558742E-4  
 2.042600000000000E10    3.499159937218568E-3  -1.362853447826189E-3  
 2.042800000000000E10    3.244829686059629E-3  -1.929484609583462E-3  
 2.043000000000000E10    2.869921897388535E-3  -2.446470874143236E-3  
 2.043200000000000E10    2.425965919147856E-3  -2.859943753315344E-3  
 2.043400000000000E10    1.950117418783958E-3  -3.206352237612010E-3  
 2.043600000000000E10    1.422070189563121E-3  -3.506967909979048E-3  
 2.043800000000000E10    8.487270348762841E-4  -3.750957298540959E-3  
 2.044000000000000E10    1.573619966497242E-4  -3.931529681991649E-3  
 2.044200000000000E10   -6.482691315784592E-4  -3.955989751251944E-3  
 2.044400000000000E10   -1.472211092204592E-3  -3.692673798075614E-3  
 2.044600000000000E10   -2.134072174674567E-3  -3.154505162074427E-3  
 2.044800000000000E10   -2.495395103009579E-3  -2.573404389284092E-3  
 2.045000000000000E10   -2.706915970868719E-3  -2.114845324813584E-3  
 2.045200000000000E10   -2.925559099372707E-3  -1.725992111684640E-3  
 2.045400000000000E10   -3.143159494401865E-3  -1.298344607844397E-3  
 2.045600000000000E10   -3.343733869791951E-3  -8.299273782248760E-4  
 2.045800000000000E10   -3.511237546824563E-3  -2.792310431372536E-4  
 2.046000000000000E10   -3.553820518132898E-3   3.805658260840394E-4  
 2.046200000000000E10   -3.425718250649947E-3   1.041788755870068E-3  
 2.046400000000000E10   -3.122549532786196E-3   1.621638670460218E-3  
 2.046600000000000E10   -2.746016051574254E-3   2.114943024575895E-3  
 2.046800000000000E10   -2.341466059011442E-3   2.499885658768040E-3  
 2.047000000000000E10   -1.904965220249178E-3   2.865201776364336E-3  
 2.047200000000000E10   -1.358988509444451E-3   3.161603070358620E-3  
 2.047400000000000E10   -7.658619778575721E-4   3.317873332833435E-3  
 2.047600000000000E10   -1.859963161638726E-4   3.358969967927279E-3  
 2.047800000000000E10    3.910877225909061E-4   3.300200061251720E-3  
 2.048000000000000E10    9.702230533469976E-4   3.148170518631369E-3  
 2.048200000000000E10    1.472719278140569E-3   2.870528363726206E-3  
 2.048400000000000E10    1.886958388588679E-3   2.498526885001748E-3  
 2.048600000000000E10    2.192424377426505E-3   2.118932882346857E-3  
 2.048800000000000E10    2.414545530085395E-3   1.733750385163283E-3  
 2.049000000000000E10    2.582982113515890E-3   1.371271800491269E-3  
 2.049200000000000E10    2.725163175735945E-3   1.043553073189141E-3  
 2.049400000000000E10    2.920893087040312E-3   7.313712863653990E-4  
 2.049600000000000E10    3.131546962569342E-3   3.161826914745487E-4  
 2.049800000000000E10    3.306168510958001E-3  -2.236453541470074E-4  
 2.050000000000000E10    3.393595420215050E-3  -8.539009298899293E-4  
 2.050200000000000E10    3.314390813034994E-3  -1.607102313205416E-3  
 2.050400000000000E10    2.980960702615572E-3  -2.418978088017968E-3  
 2.050600000000000E10    2.336621491445436E-3  -3.139074500880124E-3  
 2.050800000000000E10    1.410904563216056E-3  -3.563382280530570E-3  
 2.051000000000000E10    4.577073455431763E-4  -3.554527912242914E-3  
 2.051200000000000E10   -2.591792480764267E-4  -3.236987630917151E-3  
 2.051400000000000E10   -6.707482087356902E-4  -2.845559513518288E-3  
 2.051600000000000E10   -9.279563271348584E-4  -2.554294262311341E-3  
 2.051800000000000E10   -1.162486293146180E-3  -2.382251701352221E-3  
 2.052000000000000E10   -1.430829423537225E-3  -2.222415390366942E-3  
 2.052200000000000E10   -1.737832840543563E-3  -1.971949870629168E-3  
 2.052400000000000E10   -1.942993617432629E-3  -1.695361122040561E-3  
 2.052600000000000E10   -2.107224947439484E-3  -1.497568848634852E-3  
 2.052800000000000E10   -2.390643009731984E-3  -1.305146973557127E-3  
 2.053000000000000E10   -2.730424308942424E-3  -9.535401973321484E-4  
 2.053200000000000E10   -2.981852113418742E-3  -4.711603633714496E-4  
 2.053400000000000E10   -3.125045255953331E-3   1.099939169908334E-4  
 2.053600000000000E10   -3.102541426886563E-3   8.019911524851199E-4  
 2.053800000000000E10   -2.840158515207378E-3   1.441264647220112E-3  
 2.054000000000000E10   -2.400854786421046E-3   1.917306760636469E-3  
 2.054200000000000E10   -1.949406838343467E-3   2.218247083717107E-3  
 2.054400000000000E10   -1.541375514568278E-3   2.430185692867747E-3  
 2.054600000000000E10   -1.113909075358584E-3   2.622995407745978E-3  
 2.054800000000000E10   -6.235045061826156E-4   2.719986519810778E-3  
 2.055000000000000E10   -1.800226076020296E-4   2.679391031119007E-3  
 2.055200000000000E10    1.537791372637587E-4   2.594089992114424E-3  
 2.055400000000000E10    4.418778777938843E-4   2.541163772413577E-3  
 2.055600000000000E10    7.784727717933741E-4   2.544824962423724E-3  
