#  HZ   S   RI   R     50.00 
! Rohde & Schwarz ZVA40 4Ports - Version 3.90 - 1145.1110k42 SN: 100403
! Date: 2023-10-03 11:53:56
! Measurement: S12 
! 
 2.000000000000000E10   -2.526064653432480E-3  -2.207268107061585E-3  
 2.000200000000000E10   -2.886793317480220E-3  -1.847824581933243E-3  
 2.000400000000000E10   -3.182007379277990E-3  -1.335420387072696E-3  
 2.000600000000000E10   -3.377147441453956E-3  -7.326726055773045E-4  
 2.000800000000000E10   -3.435427814515101E-3  -1.717100202330147E-4  
 2.001000000000000E10   -3.460740248017290E-3   3.277618315122608E-4  
 2.001200000000000E10   -3.433695761486888E-3   8.753981156688600E-4  
 2.001400000000000E10   -3.278423773331775E-3   1.503402470714516E-3  
 2.001600000000000E10   -2.941602866889702E-3   2.138904157888007E-3  
 2.001800000000000E10   -2.519601774919365E-3   2.615344960725418E-3  
 2.002000000000000E10   -2.046531523336415E-3   2.997234851742785E-3  
 2.002200000000000E10   -1.496003996753307E-3   3.286476436726474E-3  
 2.002400000000000E10   -9.080569164965440E-4   3.518469588555120E-3  
 2.002600000000000E10   -2.412009122997040E-4   3.672253495703141E-3  
 2.002800000000000E10    4.174574536995756E-4   3.657348160804422E-3  
 2.003000000000000E10    1.035306141366837E-3   3.479439161579919E-3  
 2.003200000000000E10    1.578482794920328E-3   3.201720597981303E-3  
 2.003400000000000E10    2.104440910948648E-3   2.832582832693502E-3  
 2.003600000000000E10    2.538891578162159E-3   2.394195732281164E-3  
 2.003800000000000E10    2.858859633474990E-3   1.922952019850965E-3  
 2.004000000000000E10    3.089326002669556E-3   1.453519647906500E-3  
 2.004200000000000E10    3.260278324079183E-3   8.946173173306442E-4  
 2.004400000000000E10    3.288241620692943E-3   2.976269213293025E-4  
 2.004600000000000E10    3.220367064285610E-3  -1.945461063533677E-4  
 2.004800000000000E10    3.121816337591521E-3  -5.682562865937750E-4  
 2.005000000000000E10    3.077361034229399E-3  -9.549332834366297E-4  
 2.005200000000000E10    2.945488586124999E-3  -1.470759726577887E-3  
 2.005400000000000E10    2.697386606423944E-3  -1.959488468451633E-3  
 2.005600000000000E10    2.423166521583443E-3  -2.436661790987408E-3  
 2.005800000000000E10    2.022340350473921E-3  -2.897610611937665E-3  
 2.006000000000000E10    1.466392716220408E-3  -3.267937486439392E-3  
 2.006200000000000E10    8.031086957392594E-4  -3.501827406041601E-3  
 2.006400000000000E10    1.083999579552458E-4  -3.575089077154796E-3  
 2.006600000000000E10   -5.199556428663157E-4  -3.477548913064379E-3  
 2.006800000000000E10   -1.035977348995706E-3  -3.263046585575299E-3  
 2.007000000000000E10   -1.519701128860039E-3  -3.026210099320721E-3  
 2.007200000000000E10   -2.008867743252605E-3  -2.702236796418826E-3  
 2.007400000000000E10   -2.403927949705610E-3  -2.302871482377803E-3  
 2.007600000000000E10   -2.714757876539672E-3  -1.906695473870194E-3  
 2.007800000000000E10   -2.952774909014504E-3  -1.458152637092604E-3  
 2.008000000000000E10   -3.100085943178447E-3  -9.814901428331657E-4  
 2.008200000000000E10   -3.233973255932884E-3  -5.327485021014043E-4  
 2.008400000000000E10   -3.409242386826211E-3  -6.071694035738433E-5  
 2.008600000000000E10   -3.524824614740081E-3   5.345447463224885E-4  
 2.008800000000000E10   -3.424008825310955E-3   1.220034353469533E-3  
 2.009000000000000E10   -3.122167368591936E-3   1.821873304261654E-3  
 2.009200000000000E10   -2.782072664962875E-3   2.338770363065932E-3  
 2.009400000000000E10   -2.417047723644862E-3   2.862642726136579E-3  
 2.009600000000000E10   -1.875721905552955E-3   3.397968002698488E-3  
 2.009800000000000E10   -1.103805065482717E-3   3.742227701608230E-3  
 2.010000000000000E10   -2.683322104362392E-4   3.822562828039130E-3  
 2.010200000000000E10    5.145735685127201E-4   3.727353910950048E-3  
 2.010400000000000E10    1.174291970932649E-3   3.452560088286798E-3  
 2.010600000000000E10    1.680870493011618E-3   3.060801946385592E-3  
 2.010800000000000E10    2.049500355497003E-3   2.627841162460822E-3  
 2.011000000000000E10    2.345491278295716E-3   2.254970009542174E-3  
 2.011200000000000E10    2.672730850193788E-3   1.903955553037425E-3  
 2.011400000000000E10    2.967268271647670E-3   1.484783254218874E-3  
 2.011600000000000E10    3.195574852051559E-3   1.002359643785490E-3  
 2.011800000000000E10    3.349900788938006E-3   4.091613998214060E-4  
 2.012000000000000E10    3.360418257889925E-3  -2.363475731625739E-4  
 2.012200000000000E10    3.219291248738215E-3  -8.089280260416369E-4  
 2.012400000000000E10    3.057259445389112E-3  -1.262318506767905E-3  
 2.012600000000000E10    2.864099262903134E-3  -1.737045512224237E-3  
 2.012800000000000E10    2.560337574255688E-3  -2.274420396942232E-3  
 2.013000000000000E10    2.096174396919432E-3  -2.792537514189328E-3  
 2.013200000000000E10    1.477331142976053E-3  -3.156224791719406E-3  
 2.013400000000000E10    8.617211154800048E-4  -3.311243408394081E-3  
 2.013600000000000E10    2.563112677846760E-4  -3.350153798237443E-3  
 2.013800000000000E10   -3.415340060773478E-4  -3.313815816202098E-3  
 2.014000000000000E10   -9.538996662875569E-4  -3.195113674909981E-3  
 2.014200000000000E10   -1.495911722519884E-3  -2.890662643713532E-3  
 2.014400000000000E10   -1.840326564248514E-3  -2.527974330371729E-3  
 2.014600000000000E10   -2.165578374708141E-3  -2.223849926074898E-3  
 2.014800000000000E10   -2.545371470558975E-3  -1.856537156358913E-3  
 2.015000000000000E10   -2.844213766770231E-3  -1.385892448187978E-3  
 2.015200000000000E10   -3.040708497994476E-3  -9.179747193465355E-4  
 2.015400000000000E10   -3.182888315576646E-3  -3.891521385715654E-4  
 2.015600000000000E10   -3.178647771063779E-3   2.302706006621183E-4  
 2.015800000000000E10   -3.039949013058234E-3   7.768342922510651E-4  
 2.016000000000000E10   -2.886467725383464E-3   1.247196040047264E-3  
 2.016200000000000E10   -2.681687120693150E-3   1.719767702053543E-3  
 2.016400000000000E10   -2.322193105808563E-3   2.194240861744793E-3  
 2.016600000000000E10   -1.840085968271726E-3   2.561791368794662E-3  
 2.016800000000000E10   -1.319311507460144E-3   2.804297988337499E-3  
 2.017000000000000E10   -8.540801354683936E-4   2.951024005327513E-3  
 2.017200000000000E10   -3.529302581834297E-4   3.037975756106554E-3  
 2.017400000000000E10    1.695901335349643E-4   3.006977184365194E-3  
 2.017600000000000E10    6.670431164955653E-4   2.869666657514043E-3  
 2.017800000000000E10    1.056724488821433E-3   2.693732915860084E-3  
 2.018000000000000E10    1.388120400305424E-3   2.542375699030581E-3  
 2.018200000000000E10    1.750894938595593E-3   2.376620028236950E-3  
 2.018400000000000E10    2.135083769206648E-3   2.133095973274774E-3  
 2.018600000000000E10    2.525301425959225E-3   1.816313136024056E-3  
 2.018800000000000E10    2.924993918794725E-3   1.425471644055236E-3  
 2.019000000000000E10    3.273394424468280E-3   9.100922400614731E-4  
 2.019200000000000E10    3.467832114202557E-3   2.487830721225624E-4  
 2.019400000000000E10    3.504484797034551E-3  -4.473963948570331E-4  
 2.019600000000000E10    3.410543004671733E-3  -1.165524733045863E-3  
 2.019800000000000E10    3.141946607717762E-3  -1.859800420115116E-3  
 2.020000000000000E10    2.665720707564443E-3  -2.449994216914530E-3  
 2.020200000000000E10    2.016652772134101E-3  -2.826666683648472E-3  
 2.020400000000000E10    1.414424317233541E-3  -3.009965151755347E-3  
 2.020600000000000E10    9.035703648502629E-4  -3.133359218568162E-3  
 2.020800000000000E10    3.829794866895234E-4  -3.204899270915323E-3  
 2.021000000000000E10   -1.343274835663680E-4  -3.105624259828970E-3  
 2.021200000000000E10   -4.746384737599228E-4  -2.986487371985008E-3  
 2.021400000000000E10   -8.810609126360053E-4  -3.053402260842699E-3  
 2.021600000000000E10   -1.491289003752172E-3  -3.028486717354369E-3  
 2.021800000000000E10   -2.113655192294607E-3  -2.732878835457895E-3  
 2.022000000000000E10   -2.549144974047388E-3  -2.280033409112582E-3  
 2.022200000000000E10   -2.876693891637304E-3  -1.816546315913675E-3  
 2.022400000000000E10   -3.183215727201767E-3  -1.323034456517134E-3  
 2.022600000000000E10   -3.468071196780161E-3  -7.583090487902088E-4  
 2.022800000000000E10   -3.606579292358624E-3  -1.040853492129288E-4  
 2.023000000000000E10   -3.552115867259327E-3   5.779839401064373E-4  
 2.023200000000000E10   -3.399193140298680E-3   1.243324096625050E-3  
 2.023400000000000E10   -3.117103862610680E-3   1.886841349510683E-3  
 2.023600000000000E10   -2.685128633553783E-3   2.420748713322812E-3  
 2.023800000000000E10   -2.172550384852070E-3   2.815788887717106E-3  
 2.024000000000000E10   -1.610443927347660E-3   3.092733608489788E-3  
 2.024200000000000E10   -1.035277468704239E-3   3.258840577607906E-3  
 2.024400000000000E10   -5.054066304755571E-4   3.331040480622540E-3  
 2.024600000000000E10   -2.819955834301828E-5   3.402912592584337E-3  
 2.024800000000000E10    5.339170456863940E-4   3.451656886479922E-3  
 2.025000000000000E10    1.201601733488065E-3   3.355430258024070E-3  
 2.025200000000000E10    1.857857077589466E-3   3.061360541593146E-3  
 2.025400000000000E10    2.370157046243548E-3   2.650533087068686E-3  
 2.025600000000000E10    2.780804134629391E-3   2.204176064373719E-3  
 2.025800000000000E10    3.123990096220816E-3   1.656043791660556E-3  
 2.026000000000000E10    3.332162491494308E-3   1.027541174725802E-3  
 2.026200000000000E10    3.386965849333340E-3   3.842267944020461E-4  
 2.026400000000000E10    3.326963469455088E-3  -1.784015255031624E-4  
 2.026600000000000E10    3.235874663072604E-3  -6.700609314807312E-4  
 2.026800000000000E10    3.088769796131938E-3  -1.175580981739418E-3  
 2.027000000000000E10    2.853231021651516E-3  -1.737680713025232E-3  
 2.027200000000000E10    2.448842058786088E-3  -2.227263430271436E-3  
 2.027400000000000E10    1.996958727465460E-3  -2.565832696510134E-3  
 2.027600000000000E10    1.501457662218147E-3  -2.820550972871759E-3  
 2.027800000000000E10    9.686060624921488E-4  -2.912240396081298E-3  
 2.028000000000000E10    5.334390971930353E-4  -2.923300938197861E-3  
 2.028200000000000E10    1.316953460412118E-4  -2.972368125079407E-3  
 2.028400000000000E10   -3.076997753750119E-4  -2.993016365777564E-3  
 2.028600000000000E10   -7.734657437713059E-4  -2.921894770460549E-3  
 2.028800000000000E10   -1.262095101453640E-3  -2.767631542627459E-3  
 2.029000000000000E10   -1.719966543734902E-3  -2.529603377398518E-3  
 2.029200000000000E10   -2.120314243560036E-3  -2.243563644932928E-3  
 2.029400000000000E10   -2.491480334558421E-3  -1.869905765892731E-3  
 2.029600000000000E10   -2.766473037708137E-3  -1.373739736327143E-3  
 2.029800000000000E10   -2.885483455395809E-3  -8.615590459494680E-4  
 2.030000000000000E10   -2.954059289078471E-3  -4.265054551608585E-4  
 2.030200000000000E10   -3.039507730001653E-3   1.902144355915004E-5  
 2.030400000000000E10   -3.048024881907084E-3   5.775349951970081E-4  
 2.030600000000000E10   -2.842518690697573E-3   1.169733888538623E-3  
 2.030800000000000E10   -2.477689490964016E-3   1.631897365398429E-3  
 2.031000000000000E10   -2.080975833383424E-3   1.933432348003542E-3  
 2.031200000000000E10   -1.738473652275624E-3   2.108866943874293E-3  
 2.031400000000000E10   -1.455387139382462E-3   2.266742789221031E-3  
 2.031600000000000E10   -1.146156677148409E-3   2.458383829367382E-3  
 2.031800000000000E10   -7.772377748214815E-4   2.610943702704929E-3  
 2.032000000000000E10   -4.032068504279273E-4   2.710647699940536E-3  
 2.032200000000000E10   -2.203953691706474E-5   2.799475444825712E-3  
 2.032400000000000E10    4.176707039328499E-4   2.825363815106728E-3  
 2.032600000000000E10    9.071348640308889E-4   2.783014430423026E-3  
 2.032800000000000E10    1.443513306892581E-3   2.663304391144603E-3  
 2.033000000000000E10    1.963768270798028E-3   2.366100860483669E-3  
 2.033200000000000E10    2.337992915676700E-3   1.953202411877337E-3  
 2.033400000000000E10    2.650161601465058E-3   1.500156958139053E-3  
 2.033600000000000E10    2.744405728730339E-3   1.196598815214303E-3  
 2.033800000000000E10    2.881404486726281E-3   3.649701840778882E-4  
 2.034000000000000E10    2.815162900973250E-3  -1.204463102718971E-4  
 2.034200000000000E10    2.666925795859209E-3  -5.438226189990357E-4  
 2.034400000000000E10    2.427273585150640E-3  -9.174239509135349E-4  
 2.034600000000000E10    2.195695311658912E-3  -1.177881430420611E-3  
 2.034800000000000E10    2.045621215883229E-3  -1.397221491465138E-3  
 2.035000000000000E10    1.930800887445609E-3  -1.643307463921331E-3  
 2.035200000000000E10    1.752816166521775E-3  -1.972234626818035E-3  
 2.035400000000000E10    1.445779969260373E-3  -2.307166940429145E-3  
 2.035600000000000E10    1.061965883881957E-3  -2.565298936571236E-3  
 2.035800000000000E10    6.398503858320139E-4  -2.796321762380777E-3  
 2.036000000000000E10    1.108526900039847E-4  -2.953472547233105E-3  
 2.036200000000000E10   -4.697607154311200E-4  -2.939898994992729E-3  
 2.036400000000000E10   -1.047786905137063E-3  -2.787639542172353E-3  
 2.036600000000000E10   -1.573764525043468E-3  -2.486606697655387E-3  
 2.036800000000000E10   -1.954093562542565E-3  -2.072633313084091E-3  
 2.037000000000000E10   -2.155961830996805E-3  -1.641999701624392E-3  
 2.037200000000000E10   -2.280091176982279E-3  -1.264579175902462E-3  
 2.037400000000000E10   -2.384080629174908E-3  -9.287563152611257E-4  
 2.037600000000000E10   -2.497228629956091E-3  -6.194132729433477E-4  
 2.037800000000000E10   -2.637322578165267E-3  -2.609314580223765E-4  
 2.038000000000000E10   -2.700055544092148E-3   1.845435041037423E-4  
 2.038200000000000E10   -2.642900225947853E-3   6.710411053737281E-4  
 2.038400000000000E10   -2.492200764310029E-3   1.134371889444689E-3  
 2.038600000000000E10   -2.267035776404320E-3   1.574209662740706E-3  
 2.038800000000000E10   -1.943944323876942E-3   1.944835815164778E-3  
 2.039000000000000E10   -1.551643466680415E-3   2.219422064997532E-3  
 2.039200000000000E10   -1.114384141854114E-3   2.414077166812840E-3  
 2.039400000000000E10   -6.761745489374908E-4   2.500785531959048E-3  
 2.039600000000000E10   -3.330799949320930E-4   2.558797045990273E-3  
 2.039800000000000E10    5.656747480821248E-5   2.631548628280009E-3  
 2.040000000000000E10    5.220178777731405E-4   2.599654658870013E-3  
 2.040200000000000E10    9.700819091112527E-4   2.460941577468206E-3  
 2.040400000000000E10    1.395202332383229E-3   2.264437541641571E-3  
 2.040600000000000E10    1.776819539911769E-3   1.981137691203643E-3  
 2.040800000000000E10    2.056330839103019E-3   1.635289621642895E-3  
 2.041000000000000E10    2.280694113492414E-3   1.246277743053657E-3  
 2.041200000000000E10    2.438647120639130E-3   8.423473573876201E-4  
 2.041400000000000E10    2.547694258046923E-3   4.198387307244250E-4  
 2.041600000000000E10    2.584825752785912E-3  -4.053154643096837E-5  
 2.041800000000000E10    2.498366645778771E-3  -5.131466033937479E-4  
 2.042000000000000E10    2.292531370012849E-3  -9.333987383999759E-4  
 2.042200000000000E10    2.031761687248945E-3  -1.296011062718376E-3  
 2.042400000000000E10    1.722440675452904E-3  -1.562906903456207E-3  
 2.042600000000000E10    1.417759771424311E-3  -1.724320606121587E-3  
 2.042800000000000E10    1.112146794589030E-3  -1.838189558367487E-3  
 2.043000000000000E10    8.358356879196234E-4  -1.886054476792062E-3  
 2.043200000000000E10    6.272400151593268E-4  -1.951569682677035E-3  
 2.043400000000000E10    3.963665962887549E-4  -2.043899390156622E-3  
 2.043600000000000E10    1.319785908519946E-4  -2.140072139876861E-3  
 2.043800000000000E10   -1.692651847541263E-4  -2.216893317246879E-3  
 2.044000000000000E10   -5.766174074745289E-4  -2.257320478006646E-3  
 2.044200000000000E10   -1.045022961787052E-3  -2.209214416022102E-3  
 2.044400000000000E10   -1.530846080708283E-3  -1.999235017811535E-3  
 2.044600000000000E10   -1.918500328126053E-3  -1.572715308241271E-3  
 2.044800000000000E10   -2.073563428388702E-3  -1.061895890247629E-3  
 2.045000000000000E10   -2.048595998160266E-3  -6.559843507905802E-4  
 2.045200000000000E10   -1.978929279613550E-3  -4.054087179678458E-4  
 2.045400000000000E10   -1.995418272498582E-3  -2.250573364748292E-4  
 2.045600000000000E10   -2.061579859367124E-3   9.330167948199456E-7  
 2.045800000000000E10   -2.127915025792189E-3   3.090270523292323E-4  
 2.046000000000000E10   -2.117517335271394E-3   7.239111819890915E-4  
 2.046200000000000E10   -1.968305407057482E-3   1.117933606211510E-3  
 2.046400000000000E10   -1.732608204259089E-3   1.434501247583992E-3  
 2.046600000000000E10   -1.451885797669766E-3   1.700713825239628E-3  
 2.046800000000000E10   -1.126627485198831E-3   1.890644043063124E-3  
 2.047000000000000E10   -8.046437029002442E-4   2.011952654424090E-3  
 2.047200000000000E10   -5.090211699199346E-4   2.072658437235212E-3  
 2.047400000000000E10   -2.481509980969821E-4   2.134076276518129E-3  
 2.047600000000000E10    6.276655686734660E-5   2.194361183447419E-3  
 2.047800000000000E10    4.434729139406787E-4   2.226569301759203E-3  
 2.048000000000000E10    8.639574085396750E-4   2.154726362614720E-3  
 2.048200000000000E10    1.256333034554566E-3   1.975147553754074E-3  
 2.048400000000000E10    1.561298737888811E-3   1.695230202231970E-3  
 2.048600000000000E10    1.784884366551759E-3   1.400204703073811E-3  
 2.048800000000000E10    1.969623892499065E-3   1.097573114007160E-3  
 2.049000000000000E10    2.090590773150325E-3   7.779697965209683E-4  
 2.049200000000000E10    2.138460779355632E-3   5.070481436430580E-4  
 2.049400000000000E10    2.226378389254765E-3   2.580863979852034E-4  
 2.049600000000000E10    2.300979129763113E-3  -4.551008249917586E-5  
 2.049800000000000E10    2.398846300180864E-3  -3.691923737750148E-4  
 2.050000000000000E10    2.513441809073643E-3  -8.128852350637318E-4  
 2.050200000000000E10    2.495524689072261E-3  -1.398060104326794E-3  
 2.050400000000000E10    2.228356561520034E-3  -2.052483597287426E-3  
 2.050600000000000E10    1.688373236296078E-3  -2.624901641091263E-3  
 2.050800000000000E10    9.310110213441982E-4  -2.936485896093978E-3  
 2.051000000000000E10    1.712702133873892E-4  -2.890728241591542E-3  
 2.051200000000000E10   -3.717176398452096E-4  -2.610944884104861E-3  
 2.051400000000000E10   -6.696140734237378E-4  -2.295762576438763E-3  
 2.051600000000000E10   -8.665960394190970E-4  -2.106255653348786E-3  
 2.051800000000000E10   -1.085608352527575E-3  -2.006783736524759E-3  
 2.052000000000000E10   -1.386966077714331E-3  -1.878697770061317E-3  
 2.052200000000000E10   -1.663130876194272E-3  -1.625825004238222E-3  
 2.052400000000000E10   -1.853892864245508E-3  -1.341024120510729E-3  
 2.052600000000000E10   -1.993219126705771E-3  -1.093313524809977E-3  
 2.052800000000000E10   -2.167827234155050E-3  -8.795149106946258E-4  
 2.053000000000000E10   -2.384784433093888E-3  -5.755539093149345E-4  
 2.053200000000000E10   -2.533274375040222E-3  -1.836758962815145E-4  
 2.053400000000000E10   -2.627249056887296E-3   2.684428483782405E-4  
 2.053600000000000E10   -2.619392738712055E-3   8.014883475240183E-4  
 2.053800000000000E10   -2.457186321003570E-3   1.342013599006114E-3  
 2.054000000000000E10   -2.130848140007368E-3   1.805743267242280E-3  
 2.054200000000000E10   -1.724053704593745E-3   2.128081749779759E-3  
 2.054400000000000E10   -1.293815262788148E-3   2.376245438224740E-3  
 2.054600000000000E10   -8.127188366078945E-4   2.541562119774797E-3  
 2.054800000000000E10   -3.135498878287359E-4   2.555494188089614E-3  
 2.055000000000000E10    9.052904459639212E-5   2.394035958719475E-3  
 2.055200000000000E10    3.115290434194591E-4   2.216509551982637E-3  
 2.055400000000000E10    4.617183984481489E-4   2.210666477266286E-3  
 2.055600000000000E10    7.321864336349623E-4   2.323032132591362E-3  
