#  HZ   S   RI   R     50.00 
! Rohde & Schwarz ZVA40 4Ports - Version 3.90 - 1145.1110k42 SN: 100403
! Date: 2023-10-03 11:55:05
! Measurement: S12 
! 
 2.000000000000000E10   -2.487791857371728E-3  -1.966591191443581E-3  
 2.000200000000000E10   -2.829710866704032E-3  -1.645659049110556E-3  
 2.000400000000000E10   -3.104625485354552E-3  -1.149332724270170E-3  
 2.000600000000000E10   -3.202752615497620E-3  -5.731423217285839E-4  
 2.000800000000000E10   -3.145559742632840E-3  -8.258524893015552E-5  
 2.001000000000000E10   -3.146981535893348E-3   3.135618457303349E-4  
 2.001200000000000E10   -3.213774300766765E-3   7.745514449197800E-4  
 2.001400000000000E10   -3.187134767089178E-3   1.353902371462297E-3  
 2.001600000000000E10   -2.920484334161437E-3   1.988063626750200E-3  
 2.001800000000000E10   -2.506982604110683E-3   2.499452843848202E-3  
 2.002000000000000E10   -2.016300930538111E-3   2.916685452132866E-3  
 2.002200000000000E10   -1.436377914311985E-3   3.235190848095550E-3  
 2.002400000000000E10   -8.497304170978844E-4   3.425376507005206E-3  
 2.002600000000000E10   -2.207164725405164E-4   3.484035850744005E-3  
 2.002800000000000E10    3.899293083964882E-4   3.416158810809807E-3  
 2.003000000000000E10    9.695861264373419E-4   3.265918232500554E-3  
 2.003200000000000E10    1.460587321263221E-3   3.051763943706950E-3  
 2.003400000000000E10    1.936078787332884E-3   2.780704388256978E-3  
 2.003600000000000E10    2.375856412712623E-3   2.395290846901912E-3  
 2.003800000000000E10    2.729712631898346E-3   1.927838048518256E-3  
 2.004000000000000E10    2.977831254678745E-3   1.447904169455999E-3  
 2.004200000000000E10    3.139000636077038E-3   9.308744403016237E-4  
 2.004400000000000E10    3.179373874984406E-3   3.883955209689535E-4  
 2.004600000000000E10    3.082069818413368E-3  -9.636611449187275E-5  
 2.004800000000000E10    2.985262389605245E-3  -4.612084917931093E-4  
 2.005000000000000E10    2.991437886117234E-3  -8.459075880064457E-4  
 2.005200000000000E10    2.933598821982742E-3  -1.329971343727300E-3  
 2.005400000000000E10    2.750839408556069E-3  -1.795250892259733E-3  
 2.005600000000000E10    2.542409209396552E-3  -2.306067462389668E-3  
 2.005800000000000E10    2.159806623778962E-3  -2.892626354608823E-3  
 2.006000000000000E10    1.550763535002868E-3  -3.377775083882390E-3  
 2.006200000000000E10    8.132472004810418E-4  -3.612851680911802E-3  
 2.006400000000000E10    6.397060968555271E-5  -3.591844173907130E-3  
 2.006600000000000E10   -5.811629795331371E-4  -3.414281583563598E-3  
 2.006800000000000E10   -1.097336903007494E-3  -3.172694981374123E-3  
 2.007000000000000E10   -1.536973221744928E-3  -2.948276793446255E-3  
 2.007200000000000E10   -1.996651089198336E-3  -2.673728115580701E-3  
 2.007400000000000E10   -2.411841837413334E-3  -2.274398683328872E-3  
 2.007600000000000E10   -2.748610641531371E-3  -1.807902827513991E-3  
 2.007800000000000E10   -2.978628708256616E-3  -1.274708537729802E-3  
 2.008000000000000E10   -3.049542954950421E-3  -8.005496217972704E-4  
 2.008200000000000E10   -3.092114787755742E-3  -4.043595313473985E-4  
 2.008400000000000E10   -3.185005918904036E-3   2.812932372627851E-5  
 2.008600000000000E10   -3.215302764955495E-3   6.175656367472754E-4  
 2.008800000000000E10   -3.046640919314491E-3   1.218300368809314E-3  
 2.009000000000000E10   -2.761506199560784E-3   1.665874022162623E-3  
 2.009200000000000E10   -2.507551047192128E-3   2.028139178744621E-3  
 2.009400000000000E10   -2.276810506979625E-3   2.456297856514101E-3  
 2.009600000000000E10   -1.872614228718535E-3   2.986206431631690E-3  
 2.009800000000000E10   -1.234163827676740E-3   3.409191233071465E-3  
 2.010000000000000E10   -4.856367918869688E-4   3.577802037061365E-3  
 2.010200000000000E10    2.341953890950040E-4   3.532172172088866E-3  
 2.010400000000000E10    8.909014588290896E-4   3.305338185142588E-3  
 2.010600000000000E10    1.417044787322758E-3   2.956750224930821E-3  
 2.010800000000000E10    1.767359799015578E-3   2.608960166711498E-3  
 2.011000000000000E10    2.054582091255321E-3   2.309002301276282E-3  
 2.011200000000000E10    2.376805007871655E-3   2.042293401986913E-3  
 2.011400000000000E10    2.736531991373610E-3   1.669312344381103E-3  
 2.011600000000000E10    3.057876006803580E-3   1.204340459985866E-3  
 2.011800000000000E10    3.279895116402596E-3   6.350944706894182E-4  
 2.012000000000000E10    3.323949916564204E-3   2.860736357332724E-5  
 2.012200000000000E10    3.233925370430505E-3  -5.110994431931802E-4  
 2.012400000000000E10    3.132389202989914E-3  -1.021446263486589E-3  
 2.012600000000000E10    2.981451020955488E-3  -1.567046653858766E-3  
 2.012800000000000E10    2.700991290448993E-3  -2.111611034100255E-3  
 2.013000000000000E10    2.292933787598654E-3  -2.615554991212708E-3  
 2.013200000000000E10    1.758912017706920E-3  -3.009032570170584E-3  
 2.013400000000000E10    1.181379624607939E-3  -3.302447497844696E-3  
 2.013600000000000E10    5.173051785850139E-4  -3.493229548136394E-3  
 2.013800000000000E10   -1.730037544836739E-4  -3.505079343018157E-3  
 2.014000000000000E10   -8.250992697732593E-4  -3.354936993370454E-3  
 2.014200000000000E10   -1.408907718508056E-3  -3.014900385298663E-3  
 2.014400000000000E10   -1.783474663238007E-3  -2.649790607392788E-3  
 2.014600000000000E10   -2.122106573854884E-3  -2.372427541693604E-3  
 2.014800000000000E10   -2.502454056714972E-3  -2.039894073580702E-3  
 2.015000000000000E10   -2.821343217941899E-3  -1.592555428268733E-3  
 2.015200000000000E10   -3.044187401731810E-3  -1.125060901459720E-3  
 2.015400000000000E10   -3.291819279116613E-3  -6.022064631839318E-4  
 2.015600000000000E10   -3.389236086082680E-3   5.560940066591988E-5  
 2.015800000000000E10   -3.294302159230467E-3   6.761362138031810E-4  
 2.016000000000000E10   -3.110413724142645E-3   1.237801293394080E-3  
 2.016200000000000E10   -2.846737702687582E-3   1.788796507753432E-3  
 2.016400000000000E10   -2.467036497330776E-3   2.296705859609776E-3  
 2.016600000000000E10   -2.007514281474330E-3   2.695554246505102E-3  
 2.016800000000000E10   -1.486145861067430E-3   3.010706234447383E-3  
 2.017000000000000E10   -8.986168303871874E-4   3.210492561467820E-3  
 2.017200000000000E10   -2.601323668150818E-4   3.281322488975194E-3  
 2.017400000000000E10    3.608436602883524E-4   3.176507652150813E-3  
 2.017600000000000E10    8.633248076808675E-4   2.951992649791970E-3  
 2.017800000000000E10    1.239869096833799E-3   2.688154017690707E-3  
 2.018000000000000E10    1.582790342918425E-3   2.444810691048150E-3  
 2.018200000000000E10    1.920351698235781E-3   2.215572305161644E-3  
 2.018400000000000E10    2.266905080803015E-3   1.950904507086509E-3  
 2.018600000000000E10    2.601340180262923E-3   1.617630525423145E-3  
 2.018800000000000E10    2.893700876652643E-3   1.218882264327948E-3  
 2.019000000000000E10    3.147182934400109E-3   7.066639912038767E-4  
 2.019200000000000E10    3.271457997875082E-3   1.060406465074738E-4  
 2.019400000000000E10    3.248613008677408E-3  -4.838658432062302E-4  
 2.019600000000000E10    3.153149417980955E-3  -1.071840705763963E-3  
 2.019800000000000E10    2.900488907471300E-3  -1.679841692007526E-3  
 2.020000000000000E10    2.488949318864832E-3  -2.224912703106249E-3  
 2.020200000000000E10    1.952164944399287E-3  -2.615695802011976E-3  
 2.020400000000000E10    1.440942666872784E-3  -2.802995878651187E-3  
 2.020600000000000E10    1.019080212615706E-3  -2.948836820131099E-3  
 2.020800000000000E10    5.295808595191274E-4  -3.089140229685991E-3  
 2.021000000000000E10   -1.585884294601968E-6  -3.066895589991301E-3  
 2.021200000000000E10   -3.717877552844584E-4  -2.992860343376245E-3  
 2.021400000000000E10   -7.625485240067874E-4  -3.027954621723405E-3  
 2.021600000000000E10   -1.307986258460140E-3  -2.978569741740272E-3  
 2.021800000000000E10   -1.890629719666861E-3  -2.710476647027665E-3  
 2.022000000000000E10   -2.357945346307976E-3  -2.357295369384466E-3  
 2.022200000000000E10   -2.794418130414906E-3  -1.957447155965147E-3  
 2.022400000000000E10   -3.195265049321785E-3  -1.462180227800100E-3  
 2.022600000000000E10   -3.489017365845266E-3  -8.386740896471397E-4  
 2.022800000000000E10   -3.598899433941202E-3  -1.311150171440440E-4  
 2.023000000000000E10   -3.524913719889743E-3   5.269748486440492E-4  
 2.023200000000000E10   -3.394977758742041E-3   1.111172777773054E-3  
 2.023400000000000E10   -3.181315027177335E-3   1.719618918960569E-3  
 2.023600000000000E10   -2.790904957456170E-3   2.301379900287699E-3  
 2.023800000000000E10   -2.273926571770399E-3   2.773959267263611E-3  
 2.024000000000000E10   -1.685966207231913E-3   3.125105941392206E-3  
 2.024200000000000E10   -1.056754418338339E-3   3.337167220673076E-3  
 2.024400000000000E10   -4.631826682102488E-4   3.364873972410958E-3  
 2.024600000000000E10    2.433225853127186E-5   3.343797133614620E-3  
 2.024800000000000E10    5.587424276638087E-4   3.355984584669825E-3  
 2.025000000000000E10    1.154160808288941E-3   3.221406040851165E-3  
 2.025200000000000E10    1.658140595450446E-3   2.951361480410453E-3  
 2.025400000000000E10    2.062512173627814E-3   2.641736598754371E-3  
 2.025600000000000E10    2.478840450445811E-3   2.317712719862660E-3  
 2.025800000000000E10    2.906431978637422E-3   1.869399704177071E-3  
 2.026000000000000E10    3.238641208520643E-3   1.295920595078281E-3  
 2.026200000000000E10    3.421150078928029E-3   6.600024277792761E-4  
 2.026400000000000E10    3.409568953362328E-3   3.591585172452377E-5  
 2.026600000000000E10    3.319455871220541E-3  -5.061613326823271E-4  
 2.026800000000000E10    3.208606020995865E-3  -1.022854727192748E-3  
 2.027000000000000E10    3.016351058182341E-3  -1.580292742733878E-3  
 2.027200000000000E10    2.639484333081378E-3  -2.071958483645210E-3  
 2.027400000000000E10    2.203497009489823E-3  -2.404258750310099E-3  
 2.027600000000000E10    1.761000361983423E-3  -2.684405875495739E-3  
 2.027800000000000E10    1.292236908166497E-3  -2.856337223891859E-3  
 2.028000000000000E10    9.019739442953358E-4  -2.979709292520528E-3  
 2.028200000000000E10    5.080064594814623E-4  -3.152901850019893E-3  
 2.028400000000000E10   -6.246835726887007E-7  -3.304495200238847E-3  
 2.028600000000000E10   -5.943459238753552E-4  -3.343717427924275E-3  
 2.028800000000000E10   -1.229282041701178E-3  -3.238319445194470E-3  
 2.029000000000000E10   -1.803347082049759E-3  -2.992261899635196E-3  
 2.029200000000000E10   -2.307551292081674E-3  -2.641085276587142E-3  
 2.029400000000000E10   -2.783172125755637E-3  -2.172303696473440E-3  
 2.029600000000000E10   -3.134722700687471E-3  -1.559656691151085E-3  
 2.029800000000000E10   -3.271326301964346E-3  -9.122001140861325E-4  
 2.030000000000000E10   -3.288428169778652E-3  -4.051824518548395E-4  
 2.030200000000000E10   -3.332909541549507E-3   8.722373200321775E-5  
 2.030400000000000E10   -3.292515184040424E-3   7.071681579367982E-4  
 2.030600000000000E10   -3.043439817028466E-3   1.315288741520986E-3  
 2.030800000000000E10   -2.671870471978630E-3   1.770227690468784E-3  
 2.031000000000000E10   -2.278216450509650E-3   2.070562172405146E-3  
 2.031200000000000E10   -1.934677327948588E-3   2.289671838904421E-3  
 2.031400000000000E10   -1.617166575872236E-3   2.561560849210730E-3  
 2.031600000000000E10   -1.203918879144584E-3   2.861691983761611E-3  
 2.031800000000000E10   -6.977529340440891E-4   3.049983737852287E-3  
 2.032000000000000E10   -1.834236731897195E-4   3.101017136402704E-3  
 2.032200000000000E10    3.053184018763541E-4   3.089329167441638E-3  
 2.032400000000000E10    8.150702514858159E-4   3.007198925371524E-3  
 2.032600000000000E10    1.313631638401637E-3   2.824077192969897E-3  
 2.032800000000000E10    1.779786686206030E-3   2.582828091733434E-3  
 2.033000000000000E10    2.173881391408267E-3   2.227413364582592E-3  
 2.033200000000000E10    2.509050855964974E-3   1.824779164356490E-3  
 2.033400000000000E10    2.852072085564336E-3   1.361355452832801E-3  
 2.033600000000000E10    3.004359555672165E-3   1.037688188565274E-3  
 2.033800000000000E10    3.100610079450740E-3   9.444655087362562E-5  
 2.034000000000000E10    2.935621447654234E-3  -4.501358327818001E-4  
 2.034200000000000E10    2.685386213232522E-3  -8.791199911178815E-4  
 2.034400000000000E10    2.386562241655258E-3  -1.224396586487139E-3  
 2.034600000000000E10    2.094015755035259E-3  -1.434556587978646E-3  
 2.034800000000000E10    1.907470541212846E-3  -1.566588895878306E-3  
 2.035000000000000E10    1.795074169489521E-3  -1.764704313784562E-3  
 2.035200000000000E10    1.588981270928074E-3  -2.112634488622900E-3  
 2.035400000000000E10    1.213631903131803E-3  -2.442819851071195E-3  
 2.035600000000000E10    7.639938482531795E-4  -2.648808674334928E-3  
 2.035800000000000E10    3.179981377562164E-4  -2.772483258956561E-3  
 2.036000000000000E10   -1.726804831479159E-4  -2.811105895994438E-3  
 2.036200000000000E10   -6.621771004844320E-4  -2.738087265579789E-3  
 2.036400000000000E10   -1.142126357148367E-3  -2.586827449569548E-3  
 2.036600000000000E10   -1.585202386464786E-3  -2.328768346665634E-3  
 2.036800000000000E10   -1.927087238679330E-3  -1.956207617358477E-3  
 2.037000000000000E10   -2.126512850669247E-3  -1.543429529259878E-3  
 2.037200000000000E10   -2.278521441406122E-3  -1.182634702504233E-3  
 2.037400000000000E10   -2.438452810531965E-3  -8.277009948398229E-4  
 2.037600000000000E10   -2.565953363147047E-3  -4.488534339341439E-4  
 2.037800000000000E10   -2.631779527291656E-3  -9.228518643390603E-6  
 2.038000000000000E10   -2.586904154331596E-3   4.533868459812194E-4  
 2.038200000000000E10   -2.442139675150867E-3   8.984599866110971E-4  
 2.038400000000000E10   -2.205975396834590E-3   1.282684263531808E-3  
 2.038600000000000E10   -1.917948303916664E-3   1.577605070822217E-3  
 2.038800000000000E10   -1.588669907370652E-3   1.777282381361282E-3  
 2.039000000000000E10   -1.275325750207736E-3   1.907540010978227E-3  
 2.039200000000000E10   -1.002715195580903E-3   2.050953132479831E-3  
 2.039400000000000E10   -7.195458294720286E-4   2.175063498456169E-3  
 2.039600000000000E10   -4.737404955516536E-4   2.318534172243543E-3  
 2.039800000000000E10   -1.182158224832232E-4   2.493601783903109E-3  
 2.040000000000000E10    3.639944145645671E-4   2.525823449509012E-3  
 2.040200000000000E10    8.221097286204223E-4   2.417476614937186E-3  
 2.040400000000000E10    1.222168237695264E-3   2.244503608111430E-3  
 2.040600000000000E10    1.545371453243274E-3   2.019031930507885E-3  
 2.040800000000000E10    1.839744910183880E-3   1.765977772366670E-3  
 2.041000000000000E10    2.180225457306262E-3   1.435103032875944E-3  
 2.041200000000000E10    2.453185307482879E-3   1.010589096781419E-3  
 2.041400000000000E10    2.632361612524148E-3   5.161960585542990E-4  
 2.041600000000000E10    2.684801032214805E-3  -7.953112664701458E-6  
 2.041800000000000E10    2.587176505821171E-3  -5.107083620882974E-4  
 2.042000000000000E10    2.392383024993319E-3  -9.377738417781614E-4  
 2.042200000000000E10    2.150264171952451E-3  -1.334469752489693E-3  
 2.042400000000000E10    1.846057436153017E-3  -1.641780974481393E-3  
 2.042600000000000E10    1.500322862907693E-3  -1.842027767216442E-3  
 2.042800000000000E10    1.127684385412269E-3  -1.977449860768738E-3  
 2.043000000000000E10    7.996451588244075E-4  -2.035630021796183E-3  
 2.043200000000000E10    5.251447766096574E-4  -2.093203857334124E-3  
 2.043400000000000E10    2.466012979480352E-4  -2.157341818221741E-3  
 2.043600000000000E10   -3.266744358741021E-5  -2.187119602846603E-3  
 2.043800000000000E10   -3.324320828984060E-4  -2.216969754684855E-3  
 2.044000000000000E10   -7.260989320153992E-4  -2.234659489692638E-3  
 2.044200000000000E10   -1.212325818077834E-3  -2.145884360221249E-3  
 2.044400000000000E10   -1.667804313237193E-3  -1.849782597101121E-3  
 2.044600000000000E10   -1.960691060284498E-3  -1.318939051728834E-3  
 2.044800000000000E10   -1.995151707281669E-3  -7.929281801571726E-4  
 2.045000000000000E10   -1.867527090426948E-3  -4.599928873142712E-4  
 2.045200000000000E10   -1.797633512911422E-3  -2.972001472059034E-4  
 2.045400000000000E10   -1.816883204608328E-3  -1.529045424562086E-4  
 2.045600000000000E10   -1.864001249756526E-3   1.901009602955095E-5  
 2.045800000000000E10   -1.972143874607153E-3   2.654033483445852E-4  
 2.046000000000000E10   -2.013081977902740E-3   6.690846079167117E-4  
 2.046200000000000E10   -1.898281927289511E-3   1.067182021129325E-3  
 2.046400000000000E10   -1.649056371577360E-3   1.374701158729968E-3  
 2.046600000000000E10   -1.334546703017420E-3   1.621455717314449E-3  
 2.046800000000000E10   -9.996751797626969E-4   1.767250062483880E-3  
 2.047000000000000E10   -7.320868144570678E-4   1.840723881118552E-3  
 2.047200000000000E10   -5.239682720491180E-4   1.910803451513251E-3  
 2.047400000000000E10   -3.034316339633531E-4   2.031124679854623E-3  
 2.047600000000000E10    5.789634289814985E-6   2.142239767299207E-3  
 2.047800000000000E10    4.022736080784213E-4   2.195030519807781E-3  
 2.048000000000000E10    8.336715874503610E-4   2.140001937126120E-3  
 2.048200000000000E10    1.233017184185209E-3   1.977973427899458E-3  
 2.048400000000000E10    1.568764603386323E-3   1.679751314912682E-3  
 2.048600000000000E10    1.821738245241620E-3   1.320403862606596E-3  
 2.048800000000000E10    1.974091580551532E-3   9.411477410510461E-4  
 2.049000000000000E10    2.022081218590891E-3   5.934140213799699E-4  
 2.049200000000000E10    2.006184792628995E-3   3.409031099484613E-4  
 2.049400000000000E10    2.032010729804083E-3   1.415617682343711E-4  
 2.049600000000000E10    2.090695124395468E-3  -1.002219893659155E-4  
 2.049800000000000E10    2.157617213756398E-3  -3.712542039230122E-4  
 2.050000000000000E10    2.260374026028095E-3  -7.124134917157116E-4  
 2.050200000000000E10    2.287352233435269E-3  -1.193462297561820E-3  
 2.050400000000000E10    2.090756893502894E-3  -1.785889397271805E-3  
 2.050600000000000E10    1.635522879142728E-3  -2.329687320592779E-3  
 2.050800000000000E10    9.676801726325520E-4  -2.667917180116530E-3  
 2.051000000000000E10    2.807220173255903E-4  -2.691109923438894E-3  
 2.051200000000000E10   -2.241921217689567E-4  -2.472780334452788E-3  
 2.051400000000000E10   -5.136677322702276E-4  -2.235974435246101E-3  
 2.051600000000000E10   -7.326113280012377E-4  -2.101146891989090E-3  
 2.051800000000000E10   -9.767789117715977E-4  -2.020173913074865E-3  
 2.052000000000000E10   -1.268769868787516E-3  -1.893134804925433E-3  
 2.052200000000000E10   -1.538860861694923E-3  -1.645857679519665E-3  
 2.052400000000000E10   -1.729931742711752E-3  -1.369097403733543E-3  
 2.052600000000000E10   -1.870565974429526E-3  -1.136586988448269E-3  
 2.052800000000000E10   -2.057168305058170E-3  -9.644759788729804E-4  
 2.053000000000000E10   -2.318186745806425E-3  -6.996371494433671E-4  
 2.053200000000000E10   -2.520879066583735E-3  -3.225715611026519E-4  
 2.053400000000000E10   -2.659314208560520E-3   1.297943470288172E-4  
 2.053600000000000E10   -2.696014863128464E-3   6.838591911623047E-4  
 2.053800000000000E10   -2.560939570819890E-3   1.261274520031832E-3  
 2.054000000000000E10   -2.222480709423070E-3   1.743424244018065E-3  
 2.054200000000000E10   -1.800479328570267E-3   2.085758330024503E-3  
 2.054400000000000E10   -1.352644879025994E-3   2.366171985933627E-3  
 2.054600000000000E10   -8.372528892424373E-4   2.554822851110388E-3  
 2.054800000000000E10   -2.969828805092860E-4   2.552845989595409E-3  
 2.055000000000000E10    9.140582430215243E-5   2.367019644696956E-3  
 2.055200000000000E10    2.723099271490895E-4   2.214081076629185E-3  
 2.055400000000000E10    4.181568252129688E-4   2.219851732392002E-3  
 2.055600000000000E10    6.925063121511982E-4   2.321312402340550E-3  
