#  HZ   S   RI   R     50.00 
! Rohde & Schwarz ZVA40 4Ports - Version 3.90 - 1145.1110k42 SN: 100403
! Date: 2023-10-03 11:56:10
! Measurement: S12 
! 
 2.000000000000000E10   -2.786083697215854E-3  -2.084034652807516E-3  
 2.000200000000000E10   -3.164171641671701E-3  -1.608890696279766E-3  
 2.000400000000000E10   -3.423068848682855E-3  -9.746928308749857E-4  
 2.000600000000000E10   -3.453418996414737E-3  -3.179322493411564E-4  
 2.000800000000000E10   -3.282947628627546E-3   1.974732649050263E-4  
 2.001000000000000E10   -3.160014010797191E-3   5.407859615252485E-4  
 2.001200000000000E10   -3.176037594560094E-3   9.554137586579217E-4  
 2.001400000000000E10   -3.128808069175868E-3   1.543504940926452E-3  
 2.001600000000000E10   -2.819430163698526E-3   2.175346434980640E-3  
 2.001800000000000E10   -2.376593712234955E-3   2.605863966512692E-3  
 2.002000000000000E10   -1.909588418713311E-3   2.972716227781723E-3  
 2.002200000000000E10   -1.342964590044872E-3   3.294395687133233E-3  
 2.002400000000000E10   -7.634822027865883E-4   3.523276167299185E-3  
 2.002600000000000E10   -1.243428282313416E-4   3.617426477690517E-3  
 2.002800000000000E10    5.288958190819902E-4   3.553994051485260E-3  
 2.003000000000000E10    1.161969571529743E-3   3.333446361408034E-3  
 2.003200000000000E10    1.684357754520918E-3   3.021964112724250E-3  
 2.003400000000000E10    2.130472370381407E-3   2.649344666741525E-3  
 2.003600000000000E10    2.460077159464536E-3   2.216909996759610E-3  
 2.003800000000000E10    2.698128788836514E-3   1.797638207075526E-3  
 2.004000000000000E10    2.930914252309037E-3   1.390825471490329E-3  
 2.004200000000000E10    3.167378971559377E-3   9.084859904023563E-4  
 2.004400000000000E10    3.292184028683559E-3   3.631530967707593E-4  
 2.004600000000000E10    3.256453091271292E-3  -1.975958817373783E-4  
 2.004800000000000E10    3.092090230421791E-3  -6.697254910310079E-4  
 2.005000000000000E10    2.958453435845693E-3  -1.081674764622598E-3  
 2.005200000000000E10    2.817553585404302E-3  -1.532520637999368E-3  
 2.005400000000000E10    2.586505362222800E-3  -1.962388092788707E-3  
 2.005600000000000E10    2.308546279541956E-3  -2.401122541188087E-3  
 2.005800000000000E10    1.905380497632246E-3  -2.859783576857158E-3  
 2.006000000000000E10    1.320809598321842E-3  -3.262178786245638E-3  
 2.006200000000000E10    6.472002336166217E-4  -3.475002932936156E-3  
 2.006400000000000E10   -3.931297444128387E-5  -3.474573010673574E-3  
 2.006600000000000E10   -6.571176458368135E-4  -3.290961713961221E-3  
 2.006800000000000E10   -1.132242609038906E-3  -2.993202085376751E-3  
 2.007000000000000E10   -1.505421229780297E-3  -2.745138900160509E-3  
 2.007200000000000E10   -1.896077412149753E-3  -2.500589687213691E-3  
 2.007400000000000E10   -2.241901225383763E-3  -2.160132233004143E-3  
 2.007600000000000E10   -2.542939683091139E-3  -1.784934071263118E-3  
 2.007800000000000E10   -2.817777383524907E-3  -1.334667061390015E-3  
 2.008000000000000E10   -2.967169074674193E-3  -8.629899958549558E-4  
 2.008200000000000E10   -3.065180564568455E-3  -4.636907084999115E-4  
 2.008400000000000E10   -3.188424726737302E-3  -4.157601138270965E-5  
 2.008600000000000E10   -3.239151585522741E-3   5.327666980829503E-4  
 2.008800000000000E10   -3.091319074085086E-3   1.148118428631235E-3  
 2.009000000000000E10   -2.820019459157713E-3   1.635359342284092E-3  
 2.009200000000000E10   -2.569250617533436E-3   2.023129445422222E-3  
 2.009400000000000E10   -2.317658858551197E-3   2.453623835264468E-3  
 2.009600000000000E10   -1.885050343723279E-3   3.003329792270657E-3  
 2.009800000000000E10   -1.208951400182172E-3   3.411544381921389E-3  
 2.010000000000000E10   -4.753155317806685E-4   3.570372039542664E-3  
 2.010200000000000E10    2.271732477554119E-4   3.544386026598027E-3  
 2.010400000000000E10    8.760440142501181E-4   3.347059491403757E-3  
 2.010600000000000E10    1.412253299075216E-3   3.008801303394638E-3  
 2.010800000000000E10    1.800628596818756E-3   2.651883302312677E-3  
 2.011000000000000E10    2.110696997311245E-3   2.342258336942606E-3  
 2.011200000000000E10    2.424027421269215E-3   2.043586063655772E-3  
 2.011400000000000E10    2.741400565064792E-3   1.662925616044075E-3  
 2.011600000000000E10    3.071368996967893E-3   1.199168484420334E-3  
 2.011800000000000E10    3.336577872373647E-3   5.969347739561914E-4  
 2.012000000000000E10    3.383152306556622E-3  -5.890591699017640E-5  
 2.012200000000000E10    3.253548357967707E-3  -6.191124486602483E-4  
 2.012400000000000E10    3.111680973002668E-3  -1.111058246542393E-3  
 2.012600000000000E10    2.929952006836933E-3  -1.634844775087465E-3  
 2.012800000000000E10    2.649372305441123E-3  -2.180003390836215E-3  
 2.013000000000000E10    2.222923332400310E-3  -2.665977626119131E-3  
 2.013200000000000E10    1.676398326006363E-3  -3.012586287623334E-3  
 2.013400000000000E10    1.113915516308479E-3  -3.250612769759853E-3  
 2.013600000000000E10    4.989394077348223E-4  -3.431819508668211E-3  
 2.013800000000000E10   -1.595108112813184E-4  -3.512423451769302E-3  
 2.014000000000000E10   -8.388222325563899E-4  -3.412438349780626E-3  
 2.014200000000000E10   -1.463714858363463E-3  -3.100984419574857E-3  
 2.014400000000000E10   -1.909241226585466E-3  -2.702203736809574E-3  
 2.014600000000000E10   -2.301481547300080E-3  -2.360757121453647E-3  
 2.014800000000000E10   -2.691630107847798E-3  -1.953219119188270E-3  
 2.015000000000000E10   -2.973028167022169E-3  -1.443424993500775E-3  
 2.015200000000000E10   -3.136050005694217E-3  -8.983995716960456E-4  
 2.015400000000000E10   -3.241276232642483E-3  -3.445432568755891E-4  
 2.015600000000000E10   -3.240040088066174E-3   2.334192077297903E-4  
 2.015800000000000E10   -3.129334639080212E-3   7.546034526810550E-4  
 2.016000000000000E10   -2.980344995765155E-3   1.236688597285831E-3  
 2.016200000000000E10   -2.756909541850068E-3   1.732616546215653E-3  
 2.016400000000000E10   -2.416076455041952E-3   2.243855718016699E-3  
 2.016600000000000E10   -1.969731749464197E-3   2.675734671549214E-3  
 2.016800000000000E10   -1.440399570292591E-3   2.990686098940837E-3  
 2.017000000000000E10   -8.602270564281424E-4   3.164289498655606E-3  
 2.017200000000000E10   -2.506578386316264E-4   3.220184407397702E-3  
 2.017400000000000E10    3.200173169891423E-4   3.159893487811922E-3  
 2.017600000000000E10    8.373572709029534E-4   3.016867796122830E-3  
 2.017800000000000E10    1.262584532741097E-3   2.783857775295742E-3  
 2.018000000000000E10    1.620701900407964E-3   2.542711075999856E-3  
 2.018200000000000E10    1.988606236725823E-3   2.301039272320844E-3  
 2.018400000000000E10    2.388086745925034E-3   2.010514141881678E-3  
 2.018600000000000E10    2.766716447235595E-3   1.620513962157376E-3  
 2.018800000000000E10    3.081118428222001E-3   1.142255438679594E-3  
 2.019000000000000E10    3.298082575291890E-3   5.386112990773337E-4  
 2.019200000000000E10    3.357950608138953E-3  -1.206955468117243E-4  
 2.019400000000000E10    3.296696155113477E-3  -7.261302912145417E-4  
 2.019600000000000E10    3.139151393416071E-3  -1.312178612175396E-3  
 2.019800000000000E10    2.845588108097511E-3  -1.893900018668948E-3  
 2.020000000000000E10    2.385408270090398E-3  -2.411672363367369E-3  
 2.020200000000000E10    1.794255308593075E-3  -2.773863569480502E-3  
 2.020400000000000E10    1.240402241770004E-3  -2.916404202379643E-3  
 2.020600000000000E10    7.902709555749061E-4  -2.977383049266552E-3  
 2.020800000000000E10    3.134379134486137E-4  -3.026149705715654E-3  
 2.021000000000000E10   -1.651775527697271E-4  -2.969883970329268E-3  
 2.021200000000000E10   -5.051052565732066E-4  -2.923910545767859E-3  
 2.021400000000000E10   -9.218905499226381E-4  -3.005847709143847E-3  
 2.021600000000000E10   -1.519560391495341E-3  -2.945168599600762E-3  
 2.021800000000000E10   -2.099407464677474E-3  -2.620392052081237E-3  
 2.022000000000000E10   -2.539797615598575E-3  -2.178296154126565E-3  
 2.022200000000000E10   -2.898784516978165E-3  -1.716178847282939E-3  
 2.022400000000000E10   -3.197035972162025E-3  -1.222472522535145E-3  
 2.022600000000000E10   -3.423991317719355E-3  -6.422910324833654E-4  
 2.022800000000000E10   -3.500154879066140E-3   3.794769319682694E-5  
 2.023000000000000E10   -3.405898356393264E-3   7.205871488730170E-4  
 2.023200000000000E10   -3.204942690843537E-3   1.311138843426140E-3  
 2.023400000000000E10   -2.917042520394137E-3   1.850976387922644E-3  
 2.023600000000000E10   -2.520899558803239E-3   2.319072905351776E-3  
 2.023800000000000E10   -2.038215215322211E-3   2.660504309223941E-3  
 2.024000000000000E10   -1.555008184647766E-3   2.938620794504584E-3  
 2.024200000000000E10   -1.038754010333705E-3   3.148103884093342E-3  
 2.024400000000000E10   -5.204970685172797E-4   3.230137881631113E-3  
 2.024600000000000E10   -3.207720871921812E-5   3.271762113956218E-3  
 2.024800000000000E10    5.342252583516133E-4   3.266640822598313E-3  
 2.025000000000000E10    1.128677267850737E-3   3.146979500863859E-3  
 2.025200000000000E10    1.645822888005531E-3   2.919897252752161E-3  
 2.025400000000000E10    2.095428430071452E-3   2.630169661627619E-3  
 2.025600000000000E10    2.523401789044504E-3   2.262579327111745E-3  
 2.025800000000000E10    2.926675201778013E-3   1.784585562653820E-3  
 2.026000000000000E10    3.225409352798183E-3   1.212278442914960E-3  
 2.026200000000000E10    3.360535864808302E-3   6.099974517604284E-4  
 2.026400000000000E10    3.348851561578407E-3   2.401419049625827E-5  
 2.026600000000000E10    3.257586605618724E-3  -5.195093014670029E-4  
 2.026800000000000E10    3.127370149504048E-3  -1.058719407057837E-3  
 2.027000000000000E10    2.910055052580836E-3  -1.609215425585388E-3  
 2.027200000000000E10    2.540426994917823E-3  -2.073718931614238E-3  
 2.027400000000000E10    2.123189915298261E-3  -2.388087891270107E-3  
 2.027600000000000E10    1.681654947588294E-3  -2.640206762635648E-3  
 2.027800000000000E10    1.215007983390404E-3  -2.811307187377574E-3  
 2.028000000000000E10    8.147642863924781E-4  -2.911297216130332E-3  
 2.028200000000000E10    4.369530667783564E-4  -3.028183167102679E-3  
 2.028400000000000E10   -1.814366413799643E-5  -3.114063328240672E-3  
 2.028600000000000E10   -5.428831982810080E-4  -3.104600734769866E-3  
 2.028800000000000E10   -1.073709376835931E-3  -3.001413923796445E-3  
 2.029000000000000E10   -1.566684566892338E-3  -2.824946377809268E-3  
 2.029200000000000E10   -2.044473529409068E-3  -2.599619453996613E-3  
 2.029400000000000E10   -2.541146726011894E-3  -2.232580112518777E-3  
 2.029600000000000E10   -2.957346036903698E-3  -1.667317272577376E-3  
 2.029800000000000E10   -3.143242100237236E-3  -1.006450608331476E-3  
 2.030000000000000E10   -3.159356074148311E-3  -4.945622870499798E-4  
 2.030200000000000E10   -3.197829849246867E-3  -3.508001616179033E-5  
 2.030400000000000E10   -3.174597760715904E-3   5.532073706245532E-4  
 2.030600000000000E10   -2.960741235641089E-3   1.146278966537901E-3  
 2.030800000000000E10   -2.628117802704338E-3   1.597380350993155E-3  
 2.031000000000000E10   -2.262661678765087E-3   1.929671306508291E-3  
 2.031200000000000E10   -1.928028557889619E-3   2.131510320814775E-3  
 2.031400000000000E10   -1.631330694452370E-3   2.349802156116242E-3  
 2.031600000000000E10   -1.295033379922819E-3   2.611140553780691E-3  
 2.031800000000000E10   -8.939401890188917E-4   2.810449849883543E-3  
 2.032000000000000E10   -4.717709753673799E-4   2.926449162590011E-3  
 2.032200000000000E10   -1.846624060945188E-5   3.023021708927780E-3  
 2.032400000000000E10    5.265442468692021E-4   3.047987353115815E-3  
 2.032600000000000E10    1.079305035097338E-3   2.957021795906025E-3  
 2.032800000000000E10    1.630608151150223E-3   2.763008386191841E-3  
 2.033000000000000E10    2.133148479311508E-3   2.422826601571736E-3  
 2.033200000000000E10    2.528733982463883E-3   1.986472784454581E-3  
 2.033400000000000E10    2.876641209087901E-3   1.457487268925597E-3  
 2.033600000000000E10    2.993391200709679E-3   1.118406277199929E-3  
 2.033800000000000E10    3.118749018671948E-3   1.781613820060653E-4  
 2.034000000000000E10    2.961305330634218E-3  -4.075878271152421E-4  
 2.034200000000000E10    2.672528410981485E-3  -8.955933762883093E-4  
 2.034400000000000E10    2.326444424289469E-3  -1.262541631692942E-3  
 2.034600000000000E10    1.994885196129303E-3  -1.454767375768887E-3  
 2.034800000000000E10    1.789449102983687E-3  -1.560262800009791E-3  
 2.035000000000000E10    1.678027675862034E-3  -1.736368502329869E-3  
 2.035200000000000E10    1.476595907452486E-3  -2.030816751871088E-3  
 2.035400000000000E10    1.133402751366965E-3  -2.314931575839816E-3  
 2.035600000000000E10    7.379278957909598E-4  -2.500916725160000E-3  
 2.035800000000000E10    3.212036403187254E-4  -2.609635128576282E-3  
 2.036000000000000E10   -1.194434188536164E-4  -2.611551673469470E-3  
 2.036200000000000E10   -5.650969077545670E-4  -2.552425243022532E-3  
 2.036400000000000E10   -1.021021629456391E-3  -2.441979697230990E-3  
 2.036600000000000E10   -1.448322647062729E-3  -2.208037123173307E-3  
 2.036800000000000E10   -1.785359807518645E-3  -1.857113923203886E-3  
 2.037000000000000E10   -1.962956841532085E-3  -1.462981141893353E-3  
 2.037200000000000E10   -2.057684305116083E-3  -1.134360059328320E-3  
 2.037400000000000E10   -2.164017672069049E-3  -8.661627919355757E-4  
 2.037600000000000E10   -2.295672640158344E-3  -5.898683585597921E-4  
 2.037800000000000E10   -2.396890864372674E-3  -2.615140117854328E-4  
 2.038000000000000E10   -2.436501081371535E-3   1.374063515888707E-4  
 2.038200000000000E10   -2.413794781106787E-3   5.614331583062830E-4  
 2.038400000000000E10   -2.316585177042206E-3   9.720036064662652E-4  
 2.038600000000000E10   -2.136958874373594E-3   1.356579991135966E-3  
 2.038800000000000E10   -1.881100353447732E-3   1.694927863810374E-3  
 2.039000000000000E10   -1.550465885363170E-3   1.984563714663553E-3  
 2.039200000000000E10   -1.160077057028970E-3   2.196619044460827E-3  
 2.039400000000000E10   -8.068307495965510E-4   2.324005551864283E-3  
 2.039600000000000E10   -5.148066160562821E-4   2.418376489512190E-3  
 2.039800000000000E10   -1.320950071518645E-4   2.544976240641919E-3  
 2.040000000000000E10    3.605223352577638E-4   2.565328346264720E-3  
 2.040200000000000E10    8.369548782970855E-4   2.458925986740958E-3  
 2.040400000000000E10    1.267078162543041E-3   2.256163405049605E-3  
 2.040600000000000E10    1.600305525846626E-3   1.986592350075681E-3  
 2.040800000000000E10    1.874140216773539E-3   1.706754315666458E-3  
 2.041000000000000E10    2.161132263081949E-3   1.384155346805165E-3  
 2.041200000000000E10    2.400059442253556E-3   9.716887586940161E-4  
 2.041400000000000E10    2.510270220955025E-3   5.236058055662573E-4  
 2.041600000000000E10    2.529732236697905E-3   1.066856015916906E-4  
 2.041800000000000E10    2.478325026638714E-3  -3.691049556154371E-4  
 2.042000000000000E10    2.295407008972853E-3  -8.039065762679435E-4  
 2.042200000000000E10    2.046567350428211E-3  -1.133308364186284E-3  
 2.042400000000000E10    1.791152979523551E-3  -1.359513104629575E-3  
 2.042600000000000E10    1.557265120146649E-3  -1.525832141186689E-3  
 2.042800000000000E10    1.315021607446397E-3  -1.662761058447285E-3  
 2.043000000000000E10    1.125976000991742E-3  -1.787107193591566E-3  
 2.043200000000000E10    9.642584099125013E-4  -1.984518931931438E-3  
 2.043400000000000E10    7.019155647963888E-4  -2.215553322230739E-3  
 2.043600000000000E10    3.695589855627433E-4  -2.391277373328019E-3  
 2.043800000000000E10   -3.368256636859161E-5  -2.539619612685668E-3  
 2.044000000000000E10   -5.616978680257325E-4  -2.620849571819275E-3  
 2.044200000000000E10   -1.159454749607832E-3  -2.530893300033632E-3  
 2.044400000000000E10   -1.711607447515500E-3  -2.225990026913118E-3  
 2.044600000000000E10   -2.110725268047327E-3  -1.719961623198800E-3  
 2.044800000000000E10   -2.262196133697922E-3  -1.174108322329094E-3  
 2.045000000000000E10   -2.262580691837863E-3  -7.555252898644208E-4  
 2.045200000000000E10   -2.254736396444190E-3  -4.637342415830725E-4  
 2.045400000000000E10   -2.279172071540066E-3  -1.868135919619194E-4  
 2.045600000000000E10   -2.309024110030468E-3   1.179265669331768E-4  
 2.045800000000000E10   -2.348940429700109E-3   5.040229301309072E-4  
 2.046000000000000E10   -2.256391881548483E-3   9.451168910156185E-4  
 2.046200000000000E10   -2.052349309768048E-3   1.323918356044993E-3  
 2.046400000000000E10   -1.806861393362616E-3   1.638499347321579E-3  
 2.046600000000000E10   -1.489643964715422E-3   1.933426202767373E-3  
 2.046800000000000E10   -1.117371633483952E-3   2.153937317732756E-3  
 2.047000000000000E10   -7.190289780690389E-4   2.299729161330148E-3  
 2.047200000000000E10   -3.310415710695369E-4   2.325416442019318E-3  
 2.047400000000000E10    1.969254914680664E-5   2.281763074618273E-3  
 2.047600000000000E10    3.474779696589123E-4   2.235551854358584E-3  
 2.047800000000000E10    6.757633887993708E-4   2.186326481866943E-3  
 2.048000000000000E10    1.021220095356330E-3   2.102891218609628E-3  
 2.048200000000000E10    1.370862562084264E-3   1.946569003276387E-3  
 2.048400000000000E10    1.688668442627586E-3   1.685807713901636E-3  
 2.048600000000000E10    1.951948095994822E-3   1.370588708125522E-3  
 2.048800000000000E10    2.142809434625303E-3   1.004304889869920E-3  
 2.049000000000000E10    2.234056316773580E-3   6.598798022281956E-4  
 2.049200000000000E10    2.264685242146827E-3   3.705558747091225E-4  
 2.049400000000000E10    2.311267379294416E-3   7.178086729689295E-5  
 2.049600000000000E10    2.354157225164544E-3  -2.655906638999199E-4  
 2.049800000000000E10    2.402376188269517E-3  -5.879393060962209E-4  
 2.050000000000000E10    2.470421067656248E-3  -1.003637190791134E-3  
 2.050200000000000E10    2.429698228575159E-3  -1.551292037875897E-3  
 2.050400000000000E10    2.177444287856934E-3  -2.169697683596300E-3  
 2.050600000000000E10    1.636457025612494E-3  -2.765893128850121E-3  
 2.050800000000000E10    8.525349475352613E-4  -3.103868597858660E-3  
 2.051000000000000E10    7.731237513193487E-5  -3.074042028128369E-3  
 2.051200000000000E10   -5.344925327287558E-4  -2.789251021090265E-3  
 2.051400000000000E10   -9.436758103037729E-4  -2.457786781332662E-3  
 2.051600000000000E10   -1.221306301627456E-3  -2.170676181618493E-3  
 2.051800000000000E10   -1.450466980023447E-3  -1.915194880751891E-3  
 2.052000000000000E10   -1.672108393533779E-3  -1.650887173543006E-3  
 2.052200000000000E10   -1.818792948653620E-3  -1.340343892986292E-3  
 2.052400000000000E10   -1.893663621267551E-3  -1.074110418005587E-3  
 2.052600000000000E10   -1.972293141696398E-3  -8.944115036413532E-4  
 2.052800000000000E10   -2.163639537283334E-3  -7.560087150043080E-4  
 2.053000000000000E10   -2.402230837444219E-3  -4.514792457717203E-4  
 2.053200000000000E10   -2.521077363106864E-3  -1.632504817797475E-5  
 2.053400000000000E10   -2.571402506654689E-3   4.329471959388155E-4  
 2.053600000000000E10   -2.536115891293092E-3   9.415868900573934E-4  
 2.053800000000000E10   -2.348377844279476E-3   1.465279378990986E-3  
 2.054000000000000E10   -1.992308896200373E-3   1.895813496036444E-3  
 2.054200000000000E10   -1.577746252999551E-3   2.189470341527343E-3  
 2.054400000000000E10   -1.137638099692028E-3   2.409944052544957E-3  
 2.054600000000000E10   -6.570279392907918E-4   2.551557268528710E-3  
 2.054800000000000E10   -1.620494884669703E-4   2.537714443597509E-3  
 2.055000000000000E10    2.555431354702144E-4   2.327989565506835E-3  
 2.055200000000000E10    4.693402076329702E-4   2.116508331448950E-3  
 2.055400000000000E10    6.125125807253109E-4   2.068151812122727E-3  
 2.055600000000000E10    8.597351592035759E-4   2.110182266708506E-3  
