#  HZ   S   RI   R     50.00 
! Rohde & Schwarz ZVA40 4Ports - Version 3.90 - 1145.1110k42 SN: 100403
! Date: 2023-10-03 11:57:43
! Measurement: S12 
! 
 2.000000000000000E10   -2.303687821107883E-3  -2.839929682926999E-3  
 2.000200000000000E10   -2.834288765572839E-3  -2.467953556872629E-3  
 2.000400000000000E10   -3.285331798165485E-3  -1.924272514534769E-3  
 2.000600000000000E10   -3.522320736751513E-3  -1.297194183010746E-3  
 2.000800000000000E10   -3.557423422871917E-3  -7.377137059207869E-4  
 2.001000000000000E10   -3.648699002547397E-3  -2.606717621178918E-4  
 2.001200000000000E10   -3.796141284207503E-3   3.221315726275659E-4  
 2.001400000000000E10   -3.816534747818002E-3   1.027425772648443E-3  
 2.001600000000000E10   -3.579809149313305E-3   1.762255250165860E-3  
 2.001800000000000E10   -3.155955337677842E-3   2.356928057485709E-3  
 2.002000000000000E10   -2.656802733394283E-3   2.841795553211813E-3  
 2.002200000000000E10   -2.114390712921267E-3   3.281541927545159E-3  
 2.002400000000000E10   -1.540192773703624E-3   3.629483825837573E-3  
 2.002600000000000E10   -8.723602190406787E-4   3.802790168534827E-3  
 2.002800000000000E10   -1.994970121746452E-4   3.827768947101302E-3  
 2.003000000000000E10    4.892094940361050E-4   3.727472887408954E-3  
 2.003200000000000E10    1.053460433872210E-3   3.539289528917936E-3  
 2.003400000000000E10    1.544236365050354E-3   3.312688191524811E-3  
 2.003600000000000E10    1.995873370173353E-3   3.002083437793234E-3  
 2.003800000000000E10    2.392262410096549E-3   2.632037132840466E-3  
 2.004000000000000E10    2.777318211479320E-3   2.250039277391302E-3  
 2.004200000000000E10    3.154096762753196E-3   1.812554197385907E-3  
 2.004400000000000E10    3.409971577908706E-3   1.289480710747066E-3  
 2.004600000000000E10    3.525687743806177E-3   7.460684239588404E-4  
 2.004800000000000E10    3.591598925629149E-3   2.447186200663931E-4  
 2.005000000000000E10    3.697559892855309E-3  -3.152854785892285E-4  
 2.005200000000000E10    3.696976091574740E-3  -9.600081161975310E-4  
 2.005400000000000E10    3.530867208071330E-3  -1.555137978694229E-3  
 2.005600000000000E10    3.286483525126069E-3  -2.139657175306369E-3  
 2.005800000000000E10    2.897902771278664E-3  -2.774735740213483E-3  
 2.006000000000000E10    2.326482536133241E-3  -3.363782807287795E-3  
 2.006200000000000E10    1.631871542755377E-3  -3.731550864392409E-3  
 2.006400000000000E10    9.295112405972625E-4  -3.873436625495002E-3  
 2.006600000000000E10    2.586010280841341E-4  -3.915003725086098E-3  
 2.006800000000000E10   -4.288194500582500E-4  -3.879852937879387E-3  
 2.007000000000000E10   -1.100820540967915E-3  -3.769660549652246E-3  
 2.007200000000000E10   -1.757858014941492E-3  -3.491649731855702E-3  
 2.007400000000000E10   -2.266417076397274E-3  -3.049840779837084E-3  
 2.007600000000000E10   -2.669556204367567E-3  -2.568868385558879E-3  
 2.007800000000000E10   -3.020196092418499E-3  -2.018183305928553E-3  
 2.008000000000000E10   -3.222337096101709E-3  -1.521602669661796E-3  
 2.008200000000000E10   -3.375676900355353E-3  -1.112573741314312E-3  
 2.008400000000000E10   -3.585169522988576E-3  -6.612938509702132E-4  
 2.008600000000000E10   -3.741627102027889E-3   5.459685376586617E-6  
 2.008800000000000E10   -3.677787319584578E-3   7.251526177343396E-4  
 2.009000000000000E10   -3.470616604856871E-3   1.306235126254184E-3  
 2.009200000000000E10   -3.272254528753736E-3   1.793799369975373E-3  
 2.009400000000000E10   -3.051042875826911E-3   2.343199767724232E-3  
 2.009600000000000E10   -2.606457099318504E-3   3.014281348980688E-3  
 2.009800000000000E10   -1.904579853914954E-3   3.539381014114177E-3  
 2.010000000000000E10   -1.148543281791111E-3   3.787572409405753E-3  
 2.010200000000000E10   -4.187191974509646E-4   3.842882967243592E-3  
 2.010400000000000E10    2.873100726261597E-4   3.715359062577288E-3  
 2.010600000000000E10    8.666329646345091E-4   3.447833039832336E-3  
 2.010800000000000E10    1.268126048941028E-3   3.220452513131831E-3  
 2.011000000000000E10    1.666300805044119E-3   3.080400793502728E-3  
 2.011200000000000E10    2.157995925733337E-3   2.894610821924828E-3  
 2.011400000000000E10    2.679403966154766E-3   2.517217080350276E-3  
 2.011600000000000E10    3.167054641784893E-3   2.009864836172374E-3  
 2.011800000000000E10    3.552521190916499E-3   1.372314588580695E-3  
 2.012000000000000E10    3.699773155083811E-3   7.059273969692490E-4  
 2.012200000000000E10    3.695678655748015E-3   1.115234079962749E-4  
 2.012400000000000E10    3.679313533077086E-3  -4.754612088651845E-4  
 2.012600000000000E10    3.628827260669183E-3  -1.131801227866500E-3  
 2.012800000000000E10    3.429044408861686E-3  -1.836620469543118E-3  
 2.013000000000000E10    3.042433367766165E-3  -2.486838070951679E-3  
 2.013200000000000E10    2.475761127209774E-3  -2.987061704819402E-3  
 2.013400000000000E10    1.852966331945802E-3  -3.353402898129490E-3  
 2.013600000000000E10    1.188049019590296E-3  -3.630280313599441E-3  
 2.013800000000000E10    5.033440452448473E-4  -3.754453854290425E-3  
 2.014000000000000E10   -1.792861105598234E-4  -3.727215428457217E-3  
 2.014200000000000E10   -8.325092343579013E-4  -3.505399338556109E-3  
 2.014400000000000E10   -1.357854305145641E-3  -3.213614173647431E-3  
 2.014600000000000E10   -1.822659775994166E-3  -2.954397031485483E-3  
 2.014800000000000E10   -2.278253022167418E-3  -2.632883006568860E-3  
 2.015000000000000E10   -2.635836877204754E-3  -2.196414292686516E-3  
 2.015200000000000E10   -2.904420054552180E-3  -1.741430019373419E-3  
 2.015400000000000E10   -3.197920034398084E-3  -1.265256583725137E-3  
 2.015600000000000E10   -3.413081548556134E-3  -7.190451702896370E-4  
 2.015800000000000E10   -3.513230329931335E-3  -1.754664857192741E-4  
 2.016000000000000E10   -3.532684089064046E-3   4.147234032172020E-4  
 2.016200000000000E10   -3.450422694354699E-3   1.047725914287622E-3  
 2.016400000000000E10   -3.248413326218724E-3   1.725364312598551E-3  
 2.016600000000000E10   -2.884937562393370E-3   2.348681894579420E-3  
 2.016800000000000E10   -2.369451862587422E-3   2.847594096911727E-3  
 2.017000000000000E10   -1.759672291680343E-3   3.175012103316409E-3  
 2.017200000000000E10   -1.096192824964722E-3   3.385137473405512E-3  
 2.017400000000000E10   -4.475445872500402E-4   3.468237696560445E-3  
 2.017600000000000E10    1.525119867572492E-4   3.403640369436256E-3  
 2.017800000000000E10    6.181299837340636E-4   3.239134481797616E-3  
 2.018000000000000E10    1.043604134961411E-3   3.066347963694070E-3  
 2.018200000000000E10    1.479786919878313E-3   2.896615562753545E-3  
 2.018400000000000E10    1.913454142157679E-3   2.716359561654153E-3  
 2.018600000000000E10    2.384178840589744E-3   2.497977189098795E-3  
 2.018800000000000E10    2.889440989949637E-3   2.145378000999767E-3  
 2.019000000000000E10    3.364798862969986E-3   1.578481178040858E-3  
 2.019200000000000E10    3.671039197662915E-3   8.484638119288894E-4  
 2.019400000000000E10    3.779502025012066E-3   1.242337604236565E-4  
 2.019600000000000E10    3.761492160804294E-3  -5.779699055926392E-4  
 2.019800000000000E10    3.546719948105791E-3  -1.311656398077806E-3  
 2.020000000000000E10    3.137857756680913E-3  -1.984272195302226E-3  
 2.020200000000000E10    2.589281691514232E-3  -2.500130967409523E-3  
 2.020400000000000E10    2.024197877660670E-3  -2.782178051010878E-3  
 2.020600000000000E10    1.553381832006077E-3  -2.944937191420684E-3  
 2.020800000000000E10    1.046223492637553E-3  -3.066017154466223E-3  
 2.021000000000000E10    5.583568083777749E-4  -3.083964111283422E-3  
 2.021200000000000E10    2.391553802967624E-4  -3.143675314883391E-3  
 2.021400000000000E10   -1.547262515520776E-4  -3.362434795471254E-3  
 2.021600000000000E10   -7.840523785152646E-4  -3.473439555684174E-3  
 2.021800000000000E10   -1.506178217284658E-3  -3.310956630027957E-3  
 2.022000000000000E10   -2.156585782628369E-3  -2.948873227945081E-3  
 2.022200000000000E10   -2.672680774358688E-3  -2.508032394366132E-3  
 2.022400000000000E10   -3.090822551813391E-3  -2.027442937509881E-3  
 2.022600000000000E10   -3.431036378498431E-3  -1.454136787085898E-3  
 2.022800000000000E10   -3.627401112613303E-3  -7.499383495154757E-4  
 2.023000000000000E10   -3.687106573057396E-3  -5.293057323864627E-5  
 2.023200000000000E10   -3.666481339476175E-3   5.945354566426465E-4  
 2.023400000000000E10   -3.512590744153218E-3   1.270763515667231E-3  
 2.023600000000000E10   -3.148366205601229E-3   1.877035536044450E-3  
 2.023800000000000E10   -2.705278426960663E-3   2.368456278755158E-3  
 2.024000000000000E10   -2.224592121180009E-3   2.789513509789551E-3  
 2.024200000000000E10   -1.651128094332914E-3   3.088937218611440E-3  
 2.024400000000000E10   -1.109963916759524E-3   3.201306961407816E-3  
 2.024600000000000E10   -6.419187454782703E-4   3.266988451489144E-3  
 2.024800000000000E10   -9.854566747822836E-5   3.377835171435167E-3  
 2.025000000000000E10    5.156072568044895E-4   3.390233894741094E-3  
 2.025200000000000E10    1.076796665546243E-3   3.234497409451892E-3  
 2.025400000000000E10    1.534753681712405E-3   2.978416133878960E-3  
 2.025600000000000E10    1.972507599189326E-3   2.685773807267348E-3  
 2.025800000000000E10    2.429035190423882E-3   2.323008426982496E-3  
 2.026000000000000E10    2.815354460229476E-3   1.875216210329974E-3  
 2.026200000000000E10    3.078890731558204E-3   1.363407242698250E-3  
 2.026400000000000E10    3.194937965384237E-3   8.404770072687557E-4  
 2.026600000000000E10    3.254931049283456E-3   3.139510249723201E-4  
 2.026800000000000E10    3.296049277263660E-3  -2.276878006307891E-4  
 2.027000000000000E10    3.242358116915933E-3  -8.223739547517015E-4  
 2.027200000000000E10    2.990331595625591E-3  -1.348151260538510E-3  
 2.027400000000000E10    2.691709246762373E-3  -1.729685084514872E-3  
 2.027600000000000E10    2.389097525910647E-3  -2.125949805809392E-3  
 2.027800000000000E10    2.019977955906480E-3  -2.457200437439261E-3  
 2.028000000000000E10    1.670439675864246E-3  -2.748815679094858E-3  
 2.028200000000000E10    1.274569421420219E-3  -3.029749918453120E-3  
 2.028400000000000E10    7.799765444360673E-4  -3.241573865697892E-3  
 2.028600000000000E10    1.970967800675512E-4  -3.389697349457830E-3  
 2.028800000000000E10   -4.305387071023385E-4  -3.447991321553235E-3  
 2.029000000000000E10   -1.042111634483768E-3  -3.368010589232048E-3  
 2.029200000000000E10   -1.632402237090800E-3  -3.156423516985443E-3  
 2.029400000000000E10   -2.212760443971665E-3  -2.781451697012893E-3  
 2.029600000000000E10   -2.682017869557496E-3  -2.247980287022613E-3  
 2.029800000000000E10   -2.957568495292907E-3  -1.665063823262851E-3  
 2.030000000000000E10   -3.091656818503032E-3  -1.192360870643623E-3  
 2.030200000000000E10   -3.218943373886524E-3  -7.278060613855446E-4  
 2.030400000000000E10   -3.299432961891096E-3  -1.497724794414050E-4  
 2.030600000000000E10   -3.234556643292309E-3   4.557063415025672E-4  
 2.030800000000000E10   -3.060768082461976E-3   9.634235434027183E-4  
 2.031000000000000E10   -2.812382152855948E-3   1.369026256725192E-3  
 2.031200000000000E10   -2.554165665060282E-3   1.665663586377546E-3  
 2.031400000000000E10   -2.349154946083824E-3   2.000100505365818E-3  
 2.031600000000000E10   -2.096291088188688E-3   2.412505370254318E-3  
 2.031800000000000E10   -1.713329283693047E-3   2.820606334824805E-3  
 2.032000000000000E10   -1.245791355527386E-3   3.092549379087157E-3  
 2.032200000000000E10   -7.240323207548096E-4   3.279956247381591E-3  
 2.032400000000000E10   -1.362829263800652E-4   3.403305386503538E-3  
 2.032600000000000E10    4.639226956189508E-4   3.433200918758910E-3  
 2.032800000000000E10    1.089938286760891E-3   3.372999391070119E-3  
 2.033000000000000E10    1.699639428234487E-3   3.141434742482724E-3  
 2.033200000000000E10    2.253769664093852E-3   2.768956486963564E-3  
 2.033400000000000E10    2.777478010911081E-3   2.291560681812742E-3  
 2.033600000000000E10    3.009328299581454E-3   1.947381581110811E-3  
 2.033800000000000E10    3.365744526187579E-3   9.542565374566174E-4  
 2.034000000000000E10    3.313849524905284E-3   2.905398804513324E-4  
 2.034200000000000E10    3.133713164263302E-3  -2.741507060919604E-4  
 2.034400000000000E10    2.914830671485376E-3  -7.313839871332878E-4  
 2.034600000000000E10    2.688401111367125E-3  -1.068467045789240E-3  
 2.034800000000000E10    2.524140532369967E-3  -1.318344471251799E-3  
 2.035000000000000E10    2.401877522330594E-3  -1.623290440033156E-3  
 2.035200000000000E10    2.201742561603035E-3  -2.060859787484838E-3  
 2.035400000000000E10    1.834704691578669E-3  -2.484139055013657E-3  
 2.035600000000000E10    1.389910410917192E-3  -2.803723189841818E-3  
 2.035800000000000E10    9.074521410554924E-4  -3.001717703968839E-3  
 2.036000000000000E10    3.698008518700523E-4  -3.098093542373843E-3  
 2.036200000000000E10   -1.700841805561342E-4  -3.115590713504288E-3  
 2.036400000000000E10   -7.600704277003254E-4  -3.083245966721464E-3  
 2.036600000000000E10   -1.346368920402947E-3  -2.881877900411686E-3  
 2.036800000000000E10   -1.819566336322438E-3  -2.478896096969645E-3  
 2.037000000000000E10   -2.124873127926279E-3  -2.004018342294903E-3  
 2.037200000000000E10   -2.289361104852072E-3  -1.588485302851984E-3  
 2.037400000000000E10   -2.406546354500784E-3  -1.247019713951482E-3  
 2.037600000000000E10   -2.537252415937406E-3  -9.899754249663266E-4  
 2.037800000000000E10   -2.716581526867770E-3  -6.569170940632898E-4  
 2.038000000000000E10   -2.848233432612486E-3  -1.789892669842596E-4  
 2.038200000000000E10   -2.857522426724986E-3   3.341870475129259E-4  
 2.038400000000000E10   -2.793493896239886E-3   8.205638366268465E-4  
 2.038600000000000E10   -2.615249448421377E-3   1.274706757006546E-3  
 2.038800000000000E10   -2.316614138652330E-3   1.707856819309571E-3  
 2.039000000000000E10   -1.942328289496126E-3   2.044904692512420E-3  
 2.039200000000000E10   -1.558563521097380E-3   2.312175006847139E-3  
 2.039400000000000E10   -1.181046318918191E-3   2.491780341154447E-3  
 2.039600000000000E10   -8.508429789260307E-4   2.610696083003725E-3  
 2.039800000000000E10   -4.295403088218775E-4   2.743233271219113E-3  
 2.040000000000000E10    6.458262389599070E-5   2.770113801859596E-3  
 2.040200000000000E10    4.934522008557840E-4   2.727186497024916E-3  
 2.040400000000000E10    9.131428108688583E-4   2.665943966281635E-3  
 2.040600000000000E10    1.352704733748127E-3   2.515153571342429E-3  
 2.040800000000000E10    1.795283523043273E-3   2.273774697203879E-3  
 2.041000000000000E10    2.223048824816942E-3   1.905835397472537E-3  
 2.041200000000000E10    2.519770344305370E-3   1.433791713444171E-3  
 2.041400000000000E10    2.666858663023622E-3   9.740689614166818E-4  
 2.041600000000000E10    2.735369916384419E-3   5.353877764988553E-4  
 2.041800000000000E10    2.769617846718541E-3   5.736285648136226E-5  
 2.042000000000000E10    2.740465811695214E-3  -4.339691702086755E-4  
 2.042200000000000E10    2.591369561506091E-3  -9.011018684961732E-4  
 2.042400000000000E10    2.342608101941921E-3  -1.257031246226419E-3  
 2.042600000000000E10    2.081316740562519E-3  -1.527117720494668E-3  
 2.042800000000000E10    1.804564049019030E-3  -1.807614061464038E-3  
 2.043000000000000E10    1.504730472030739E-3  -2.059862190098675E-3  
 2.043200000000000E10    1.204105861553991E-3  -2.271179196045355E-3  
 2.043400000000000E10    8.601536004183195E-4  -2.407062203726835E-3  
 2.043600000000000E10    5.318583960750538E-4  -2.507175732817915E-3  
 2.043800000000000E10    1.592720040611716E-4  -2.664465595174719E-3  
 2.044000000000000E10   -3.601847565732897E-4  -2.779705924223419E-3  
 2.044200000000000E10   -9.373325242281513E-4  -2.728211771075924E-3  
 2.044400000000000E10   -1.480951732783406E-3  -2.458908241587105E-3  
 2.044600000000000E10   -1.894637912132398E-3  -1.990599066226019E-3  
 2.044800000000000E10   -2.079752575675095E-3  -1.512100156914029E-3  
 2.045000000000000E10   -2.156716978384389E-3  -1.160139994074901E-3  
 2.045200000000000E10   -2.232643810135347E-3  -9.165590292670662E-4  
 2.045400000000000E10   -2.328597983621337E-3  -6.387858711941928E-4  
 2.045600000000000E10   -2.441024795795481E-3  -3.330725810007641E-4  
 2.045800000000000E10   -2.593747193545655E-3   5.112133200142395E-5  
 2.046000000000000E10   -2.654724625042744E-3   5.793862596706109E-4  
 2.046200000000000E10   -2.506095726318934E-3   1.115016634920957E-3  
 2.046400000000000E10   -2.192393005653113E-3   1.537313995261987E-3  
 2.046600000000000E10   -1.818967948633212E-3   1.863015901849226E-3  
 2.046800000000000E10   -1.440461082556458E-3   2.089065956641678E-3  
 2.047000000000000E10   -1.093452541950952E-3   2.244200781677609E-3  
 2.047200000000000E10   -7.546983672202462E-4   2.329306099218903E-3  
 2.047400000000000E10   -4.109772562514991E-4   2.394015486869548E-3  
 2.047600000000000E10   -4.185765748035112E-5   2.452073584276218E-3  
 2.047800000000000E10    3.585522526581944E-4   2.483894720811535E-3  
 2.048000000000000E10    7.594561600988663E-4   2.445515227952490E-3  
 2.048200000000000E10    1.162199570831878E-3   2.311465925433570E-3  
 2.048400000000000E10    1.560104157154759E-3   2.063108823710570E-3  
 2.048600000000000E10    1.893908798660117E-3   1.735635343249197E-3  
 2.048800000000000E10    2.150312367895688E-3   1.370497410082155E-3  
 2.049000000000000E10    2.293257948218121E-3   1.000754000550067E-3  
 2.049200000000000E10    2.341723802533967E-3   6.595646630524210E-4  
 2.049400000000000E10    2.402958020360934E-3   3.454029911490916E-4  
 2.049600000000000E10    2.487412464149573E-3   2.051186041811619E-5  
 2.049800000000000E10    2.602946987651565E-3  -3.331466427038390E-4  
 2.050000000000000E10    2.701974853321358E-3  -7.839981505336862E-4  
 2.050200000000000E10    2.655042171547259E-3  -1.372087281197310E-3  
 2.050400000000000E10    2.387380029109341E-3  -2.018478931859136E-3  
 2.050600000000000E10    1.865037406484286E-3  -2.600931355522739E-3  
 2.050800000000000E10    1.143819467095589E-3  -2.944036869815103E-3  
 2.051000000000000E10    4.147641992420649E-4  -2.933725611203247E-3  
 2.051200000000000E10   -1.400142891388559E-4  -2.697459051247548E-3  
 2.051400000000000E10   -4.790885184236147E-4  -2.455778402724752E-3  
 2.051600000000000E10   -7.373079661866306E-4  -2.310631693237358E-3  
 2.051800000000000E10   -1.008898131894293E-3  -2.214192705987781E-3  
 2.052000000000000E10   -1.337828610471829E-3  -2.058110493062823E-3  
 2.052200000000000E10   -1.626502821670363E-3  -1.786182418948522E-3  
 2.052400000000000E10   -1.801204169169069E-3  -1.514640839391009E-3  
 2.052600000000000E10   -1.961354899254662E-3  -1.332987414638478E-3  
 2.052800000000000E10   -2.216567742396836E-3  -1.175316236050869E-3  
 2.053000000000000E10   -2.532640704885125E-3  -8.457789512316663E-4  
 2.053200000000000E10   -2.751709867475762E-3  -3.530433416556292E-4  
 2.053400000000000E10   -2.857776695034571E-3   1.835155464370338E-4  
 2.053600000000000E10   -2.865878278734508E-3   7.601309916935863E-4  
 2.053800000000000E10   -2.696718132399299E-3   1.365762053023058E-3  
 2.054000000000000E10   -2.306839770258025E-3   1.901458409890809E-3  
 2.054200000000000E10   -1.814443441280337E-3   2.257694447137140E-3  
 2.054400000000000E10   -1.336572752161711E-3   2.478413266578207E-3  
 2.054600000000000E10   -8.758000309441103E-4   2.615778801824760E-3  
 2.054800000000000E10   -3.826471694520917E-4   2.624865345380925E-3  
 2.055000000000000E10    5.363364902290481E-5   2.495329533876093E-3  
 2.055200000000000E10    3.365614501052294E-4   2.353591249427862E-3  
 2.055400000000000E10    5.751294148568478E-4   2.312723607583731E-3  
 2.055600000000000E10    8.806808532595084E-4   2.301799538717778E-3  
