#  HZ   S   RI   R     50.00 
! Rohde & Schwarz ZVA40 4Ports - Version 3.90 - 1145.1110k42 SN: 100403
! Date: 2023-10-03 11:59:15
! Measurement: S12 
! 
 2.000000000000000E10   -2.185878592999384E-3  -2.825482749407000E-3  
 2.000200000000000E10   -2.677057317837521E-3  -2.532264866402427E-3  
 2.000400000000000E10   -3.164238533112432E-3  -2.054001971190113E-3  
 2.000600000000000E10   -3.473504053605070E-3  -1.444086333288363E-3  
 2.000800000000000E10   -3.543706597384725E-3  -8.611614174408832E-4  
 2.001000000000000E10   -3.593304089113396E-3  -3.735322938559370E-4  
 2.001200000000000E10   -3.720982209108617E-3   1.587978235557063E-4  
 2.001400000000000E10   -3.801932587161844E-3   8.223895350022727E-4  
 2.001600000000000E10   -3.650037445311930E-3   1.570041080622517E-3  
 2.001800000000000E10   -3.263074370032108E-3   2.195162999485869E-3  
 2.002000000000000E10   -2.750970337946168E-3   2.709473190070303E-3  
 2.002200000000000E10   -2.151422969107765E-3   3.133773951266161E-3  
 2.002400000000000E10   -1.583860310871507E-3   3.416908878081866E-3  
 2.002600000000000E10   -1.004647345707557E-3   3.572022649670334E-3  
 2.002800000000000E10   -4.208347263818783E-4   3.646347357473747E-3  
 2.003000000000000E10    2.405937914252703E-4   3.646530012634618E-3  
 2.003200000000000E10    8.672425713114166E-4   3.548483651729279E-3  
 2.003400000000000E10    1.452005318358326E-3   3.380336449002472E-3  
 2.003600000000000E10    1.993477737354767E-3   3.062151041870685E-3  
 2.003800000000000E10    2.428940213726136E-3   2.636189538019675E-3  
 2.004000000000000E10    2.806968710082488E-3   2.202715557988412E-3  
 2.004200000000000E10    3.156207940721341E-3   1.713979976355202E-3  
 2.004400000000000E10    3.360976721830820E-3   1.165646560482466E-3  
 2.004600000000000E10    3.391320637998329E-3   6.731057479937367E-4  
 2.004800000000000E10    3.423326539542573E-3   2.641191269893156E-4  
 2.005000000000000E10    3.546516571017635E-3  -2.267111878848823E-4  
 2.005200000000000E10    3.580203153376963E-3  -8.243106261524277E-4  
 2.005400000000000E10    3.468025570597362E-3  -1.375782587124733E-3  
 2.005600000000000E10    3.288974744026309E-3  -1.929915916373946E-3  
 2.005800000000000E10    2.990905414891158E-3  -2.562474516898762E-3  
 2.006000000000000E10    2.471042127222007E-3  -3.204236129958015E-3  
 2.006200000000000E10    1.773988304433601E-3  -3.633366709904662E-3  
 2.006400000000000E10    1.051176997397954E-3  -3.788954480608673E-3  
 2.006600000000000E10    3.770357794310407E-4  -3.818294783640239E-3  
 2.006800000000000E10   -2.769060866953231E-4  -3.754024505960169E-3  
 2.007000000000000E10   -9.154464568992610E-4  -3.634124947328565E-3  
 2.007200000000000E10   -1.504807208890839E-3  -3.388968716977249E-3  
 2.007400000000000E10   -1.972027873685545E-3  -3.043625977104952E-3  
 2.007600000000000E10   -2.392991550397051E-3  -2.665892311414022E-3  
 2.007800000000000E10   -2.785901409677334E-3  -2.221948126093351E-3  
 2.008000000000000E10   -3.071944889470690E-3  -1.787929605010422E-3  
 2.008200000000000E10   -3.332279452003938E-3  -1.389949989252161E-3  
 2.008400000000000E10   -3.627789933081149E-3  -9.317047148559689E-4  
 2.008600000000000E10   -3.882836260154476E-3  -2.533303736134168E-4  
 2.008800000000000E10   -3.932940158533094E-3   5.284955846279892E-4  
 2.009000000000000E10   -3.799062658200968E-3   1.241295807803272E-3  
 2.009200000000000E10   -3.573616251824693E-3   1.854595930388374E-3  
 2.009400000000000E10   -3.281969663307623E-3   2.461438886476336E-3  
 2.009600000000000E10   -2.798715385957142E-3   3.150052491598476E-3  
 2.009800000000000E10   -2.067309441600654E-3   3.687553408597846E-3  
 2.010000000000000E10   -1.279561581097758E-3   3.922083031830720E-3  
 2.010200000000000E10   -5.386401467991097E-4   3.958766933131979E-3  
 2.010400000000000E10    1.541883440965159E-4   3.844727721801144E-3  
 2.010600000000000E10    7.546760832676244E-4   3.639807886302227E-3  
 2.010800000000000E10    1.255261689259713E-3   3.428244036756487E-3  
 2.011000000000000E10    1.705801859402209E-3   3.205712207251923E-3  
 2.011200000000000E10    2.160630240622494E-3   2.959552339810894E-3  
 2.011400000000000E10    2.659505417133556E-3   2.602788022769148E-3  
 2.011600000000000E10    3.171738592616509E-3   2.117491798636354E-3  
 2.011800000000000E10    3.596495716246190E-3   1.477339959400610E-3  
 2.012000000000000E10    3.789201625067082E-3   7.548891482184884E-4  
 2.012200000000000E10    3.784948141685853E-3   7.802141448741572E-5  
 2.012400000000000E10    3.749896332414615E-3  -5.641689544654770E-4  
 2.012600000000000E10    3.654538308856664E-3  -1.237130884862976E-3  
 2.012800000000000E10    3.416604692990214E-3  -1.928474779006999E-3  
 2.013000000000000E10    2.997741478767415E-3  -2.539602235733789E-3  
 2.013200000000000E10    2.446207209248786E-3  -3.012832247464316E-3  
 2.013400000000000E10    1.874852477124444E-3  -3.381464180034498E-3  
 2.013600000000000E10    1.231587326648519E-3  -3.701273140156404E-3  
 2.013800000000000E10    5.248332970561038E-4  -3.856593642360819E-3  
 2.014000000000000E10   -1.834295673292024E-4  -3.820425417818467E-3  
 2.014200000000000E10   -8.364316711294248E-4  -3.606183459185095E-3  
 2.014400000000000E10   -1.339920556437179E-3  -3.349251379239768E-3  
 2.014600000000000E10   -1.824634999550358E-3  -3.139310983994616E-3  
 2.014800000000000E10   -2.338101873710875E-3  -2.820646526376284E-3  
 2.015000000000000E10   -2.769528975357673E-3  -2.342539937177926E-3  
 2.015200000000000E10   -3.072812834202692E-3  -1.808056532627608E-3  
 2.015400000000000E10   -3.341987862255532E-3  -1.289226458726045E-3  
 2.015600000000000E10   -3.528919591234974E-3  -7.343718440965617E-4  
 2.015800000000000E10   -3.625215748861555E-3  -1.586024828338476E-4  
 2.016000000000000E10   -3.637293761849036E-3   4.800612382627181E-4  
 2.016200000000000E10   -3.539324569450730E-3   1.149172756203868E-3  
 2.016400000000000E10   -3.306262014019821E-3   1.833497198325402E-3  
 2.016600000000000E10   -2.908131819593993E-3   2.447960011990657E-3  
 2.016800000000000E10   -2.361319357444966E-3   2.936995987791890E-3  
 2.017000000000000E10   -1.721123545315623E-3   3.270079453625245E-3  
 2.017200000000000E10   -1.053240610604700E-3   3.483433833100485E-3  
 2.017400000000000E10   -3.865751097220238E-4   3.549774961139808E-3  
 2.017600000000000E10    2.252035830881344E-4   3.447371782206092E-3  
 2.017800000000000E10    6.990142722581535E-4   3.246934094692394E-3  
 2.018000000000000E10    1.115002919950450E-3   3.074976603151779E-3  
 2.018200000000000E10    1.512965747469523E-3   2.922492511877062E-3  
 2.018400000000000E10    1.941883634227815E-3   2.767738154150331E-3  
 2.018600000000000E10    2.427579524616401E-3   2.536197268660851E-3  
 2.018800000000000E10    2.923265935991098E-3   2.165083612464829E-3  
 2.019000000000000E10    3.396070386003320E-3   1.616971881546602E-3  
 2.019200000000000E10    3.733423559585349E-3   9.280194834051004E-4  
 2.019400000000000E10    3.880729790539347E-3   1.730815668081589E-4  
 2.019600000000000E10    3.847715571338749E-3  -6.191076485894299E-4  
 2.019800000000000E10    3.577001842214064E-3  -1.387486241493420E-3  
 2.020000000000000E10    3.147279904051512E-3  -2.045127323640841E-3  
 2.020200000000000E10    2.601906810523061E-3  -2.508316721782518E-3  
 2.020400000000000E10    2.076263367025941E-3  -2.777822333897767E-3  
 2.020600000000000E10    1.594806568114539E-3  -2.986431529040261E-3  
 2.020800000000000E10    1.044754295345442E-3  -3.164899758726298E-3  
 2.021000000000000E10    5.157219120033025E-4  -3.186562835380681E-3  
 2.021200000000000E10    1.730328849926419E-4  -3.204307722985561E-3  
 2.021400000000000E10   -2.542490336264066E-4  -3.389816026015537E-3  
 2.021600000000000E10   -9.222202495970753E-4  -3.484743289887109E-3  
 2.021800000000000E10   -1.702670338985208E-3  -3.295155151061132E-3  
 2.022000000000000E10   -2.347384534446607E-3  -2.880593243442139E-3  
 2.022200000000000E10   -2.810110979035129E-3  -2.394275700504827E-3  
 2.022400000000000E10   -3.163928158366632E-3  -1.876760104100063E-3  
 2.022600000000000E10   -3.483199305571770E-3  -1.289445526491651E-3  
 2.022800000000000E10   -3.683127305727192E-3  -5.920132609666806E-4  
 2.023000000000000E10   -3.687901830553641E-3   8.673372811641651E-5  
 2.023200000000000E10   -3.594649171862952E-3   6.867610217539649E-4  
 2.023400000000000E10   -3.423034509551930E-3   1.292113899809036E-3  
 2.023600000000000E10   -3.127771058913183E-3   1.842858589353968E-3  
 2.023800000000000E10   -2.771280156908396E-3   2.326278044715708E-3  
 2.024000000000000E10   -2.357839393992851E-3   2.783821637976011E-3  
 2.024200000000000E10   -1.822273326470467E-3   3.158542984874283E-3  
 2.024400000000000E10   -1.233353158804002E-3   3.352447095760164E-3  
 2.024600000000000E10   -6.817127352795055E-4   3.481936579715814E-3  
 2.024800000000000E10   -9.637361813007009E-5   3.597067508064671E-3  
 2.025000000000000E10    5.388806407328374E-4   3.567808972663963E-3  
 2.025200000000000E10    1.140738357866467E-3   3.362023691290323E-3  
 2.025400000000000E10    1.636215583363801E-3   3.080580354794677E-3  
 2.025600000000000E10    2.113180263772791E-3   2.773459187283377E-3  
 2.025800000000000E10    2.581068064534554E-3   2.376031547347889E-3  
 2.026000000000000E10    2.938470921053747E-3   1.898857572311421E-3  
 2.026200000000000E10    3.190208417114347E-3   1.363680852718897E-3  
 2.026400000000000E10    3.331723536744163E-3   7.975546134359861E-4  
 2.026600000000000E10    3.428454383433540E-3   2.426281070754454E-4  
 2.026800000000000E10    3.453117602700254E-3  -3.474051576661552E-4  
 2.027000000000000E10    3.316994950006651E-3  -9.806134437168701E-4  
 2.027200000000000E10    2.981169693509248E-3  -1.494943910209393E-3  
 2.027400000000000E10    2.632465231742082E-3  -1.866093763905298E-3  
 2.027600000000000E10    2.296982855256264E-3  -2.207357261076938E-3  
 2.027800000000000E10    1.960325847215062E-3  -2.492349364875276E-3  
 2.028000000000000E10    1.641529741114458E-3  -2.763037752827683E-3  
 2.028200000000000E10    1.244216646190442E-3  -3.060981286344705E-3  
 2.028400000000000E10    7.364250438809090E-4  -3.330427370467243E-3  
 2.028600000000000E10    1.466771822596168E-4  -3.499371345526704E-3  
 2.028800000000000E10   -4.971861545142140E-4  -3.511353730273898E-3  
 2.029000000000000E10   -1.106757784181815E-3  -3.401126483562614E-3  
 2.029200000000000E10   -1.725022167967702E-3  -3.191146944024804E-3  
 2.029400000000000E10   -2.359896010063865E-3  -2.795507833399952E-3  
 2.029600000000000E10   -2.843459704967500E-3  -2.197238130862882E-3  
 2.029800000000000E10   -3.062396738563240E-3  -1.554643124947516E-3  
 2.030000000000000E10   -3.118062756932629E-3  -1.057303662952266E-3  
 2.030200000000000E10   -3.223050246781712E-3  -5.952995021371440E-4  
 2.030400000000000E10   -3.292057570261659E-3  -4.451687091541654E-5  
 2.030600000000000E10   -3.205474876173975E-3   5.033050738984083E-4  
 2.030800000000000E10   -3.044227341289629E-3   9.570263925970462E-4  
 2.031000000000000E10   -2.839964672677802E-3   1.383150410800099E-3  
 2.031200000000000E10   -2.602365446648726E-3   1.769331477892896E-3  
 2.031400000000000E10   -2.343219998120158E-3   2.167821755448794E-3  
 2.031600000000000E10   -2.012795992885475E-3   2.566459228441794E-3  
 2.031800000000000E10   -1.587617848693190E-3   2.889308509313398E-3  
 2.032000000000000E10   -1.114317071537867E-3   3.124360610259537E-3  
 2.032200000000000E10   -6.087535708173037E-4   3.337153823808633E-3  
 2.032400000000000E10   -3.022184254603515E-5   3.463083327222816E-3  
 2.032600000000000E10    5.787443755282696E-4   3.470484209496053E-3  
 2.032800000000000E10    1.209654999559615E-3   3.374051983916650E-3  
 2.033000000000000E10    1.827675569898338E-3   3.089603766752983E-3  
 2.033200000000000E10    2.351206631510837E-3   2.689379525137107E-3  
 2.033400000000000E10    2.839887622023316E-3   2.243369984452004E-3  
 2.033600000000000E10    3.045096093742753E-3   1.923767027709588E-3  
 2.033800000000000E10    3.371685131073551E-3   9.219690473700412E-4  
 2.034000000000000E10    3.351334100129244E-3   2.678504303128146E-4  
 2.034200000000000E10    3.207958814086309E-3  -2.900874798512853E-4  
 2.034400000000000E10    2.973244169060095E-3  -7.554737818925623E-4  
 2.034600000000000E10    2.700224495780322E-3  -1.093482028562653E-3  
 2.034800000000000E10    2.494150188218787E-3  -1.331639287843841E-3  
 2.035000000000000E10    2.349564304514003E-3  -1.614366509997643E-3  
 2.035200000000000E10    2.162223189318009E-3  -2.008531575087351E-3  
 2.035400000000000E10    1.844353773132918E-3  -2.389860291555218E-3  
 2.035600000000000E10    1.438532796412431E-3  -2.663819772793065E-3  
 2.035800000000000E10    1.004660311404141E-3  -2.885200863190517E-3  
 2.036000000000000E10    5.119254488264185E-4  -3.049775203038391E-3  
 2.036200000000000E10   -1.220877919252196E-5  -3.117698582977732E-3  
 2.036400000000000E10   -5.822989673098865E-4  -3.117958086623270E-3  
 2.036600000000000E10   -1.174212082235503E-3  -2.955037113585714E-3  
 2.036800000000000E10   -1.691582283089436E-3  -2.601876465887322E-3  
 2.037000000000000E10   -2.051573624228868E-3  -2.162013355251632E-3  
 2.037200000000000E10   -2.285138937671489E-3  -1.751734423374474E-3  
 2.037400000000000E10   -2.419256415494063E-3  -1.380607994070177E-3  
 2.037600000000000E10   -2.557084292035412E-3  -1.064647141932184E-3  
 2.037800000000000E10   -2.748985253581049E-3  -7.080886519701822E-4  
 2.038000000000000E10   -2.891284466334025E-3  -2.365984783029767E-4  
 2.038200000000000E10   -2.914612956628694E-3   2.876172702038017E-4  
 2.038400000000000E10   -2.848540696242648E-3   7.760169783630122E-4  
 2.038600000000000E10   -2.673045609437635E-3   1.284286755888336E-3  
 2.038800000000000E10   -2.359739694468402E-3   1.764762931534017E-3  
 2.039000000000000E10   -1.961296648476963E-3   2.125908214399599E-3  
 2.039200000000000E10   -1.551322364478292E-3   2.359554496375315E-3  
 2.039400000000000E10   -1.164262363622004E-3   2.490096466822757E-3  
 2.039600000000000E10   -8.386561420454872E-4   2.639737105717569E-3  
 2.039800000000000E10   -4.210132459243722E-4   2.831338718916777E-3  
 2.040000000000000E10    1.176003204766300E-4   2.898231340349947E-3  
 2.040200000000000E10    6.173189900482052E-4   2.839122919955985E-3  
 2.040400000000000E10    1.088188627711785E-3   2.692176085617011E-3  
 2.040600000000000E10    1.536809781819214E-3   2.433360166226824E-3  
 2.040800000000000E10    1.927262020715102E-3   2.118969733784658E-3  
 2.041000000000000E10    2.283721712873981E-3   1.763479206366120E-3  
 2.041200000000000E10    2.539630383329750E-3   1.326213978372760E-3  
 2.041400000000000E10    2.699850152012866E-3   8.370331993974257E-4  
 2.041600000000000E10    2.780317227306313E-3   3.404336378558965E-4  
 2.041800000000000E10    2.749930188604037E-3  -1.966546475279472E-4  
 2.042000000000000E10    2.574750455096364E-3  -6.861603178549560E-4  
 2.042200000000000E10    2.294172564475441E-3  -1.062911678126672E-3  
 2.042400000000000E10    1.992881961105537E-3  -1.308953614211776E-3  
 2.042600000000000E10    1.748058138656672E-3  -1.496890188509085E-3  
 2.042800000000000E10    1.518885631386360E-3  -1.696209726019652E-3  
 2.043000000000000E10    1.312390960553669E-3  -1.867269284145547E-3  
 2.043200000000000E10    1.070413784001314E-3  -2.060195016233949E-3  
 2.043400000000000E10    7.507741806258299E-4  -2.241077073064054E-3  
 2.043600000000000E10    4.146148434144526E-4  -2.354008452238615E-3  
 2.043800000000000E10    3.924177852787420E-5  -2.488278237711868E-3  
 2.044000000000000E10   -4.390318924225791E-4  -2.553622487457201E-3  
 2.044200000000000E10   -9.569961303622759E-4  -2.469386502050263E-3  
 2.044400000000000E10   -1.469438243082460E-3  -2.198850331682360E-3  
 2.044600000000000E10   -1.866783295210007E-3  -1.738439726072207E-3  
 2.044800000000000E10   -1.966644151312579E-3  -1.268298895033115E-3  
 2.045000000000000E10   -1.938644476587513E-3  -9.771233272198357E-4  
 2.045200000000000E10   -1.997157518364827E-3  -7.970224857069706E-4  
 2.045400000000000E10   -2.115981395590146E-3  -5.804592170541793E-4  
 2.045600000000000E10   -2.237606902871235E-3  -3.257830951955944E-4  
 2.045800000000000E10   -2.399819373218304E-3   1.657884132017369E-6  
 2.046000000000000E10   -2.471372488035281E-3   4.389722373551180E-4  
 2.046200000000000E10   -2.391285998861731E-3   9.205396226779733E-4  
 2.046400000000000E10   -2.170406092234232E-3   1.363854522341594E-3  
 2.046600000000000E10   -1.861297336709782E-3   1.705783565908119E-3  
 2.046800000000000E10   -1.541711942871473E-3   1.929352702879550E-3  
 2.047000000000000E10   -1.208154950769994E-3   2.115800052137716E-3  
 2.047200000000000E10   -8.725626475595460E-4   2.233052613796215E-3  
 2.047400000000000E10   -5.644320643510778E-4   2.327906186289994E-3  
 2.047600000000000E10   -2.283701981435082E-4   2.459858212650681E-3  
 2.047800000000000E10    1.915135455771480E-4   2.553482145193673E-3  
 2.048000000000000E10    6.557234003373380E-4   2.513942726477674E-3  
 2.048200000000000E10    1.117487680914318E-3   2.346874564433847E-3  
 2.048400000000000E10    1.518381106544578E-3   2.077218933690171E-3  
 2.048600000000000E10    1.829614446962199E-3   1.771063337853723E-3  
 2.048800000000000E10    2.073094441359978E-3   1.393116575113877E-3  
 2.049000000000000E10    2.203249744304414E-3   1.001578797116769E-3  
 2.049200000000000E10    2.242379603378567E-3   6.969232289906240E-4  
 2.049400000000000E10    2.347787099587636E-3   4.341799818284029E-4  
 2.049600000000000E10    2.486081906966099E-3   1.316126590496918E-4  
 2.049800000000000E10    2.621482675435183E-3  -2.163361754759940E-4  
 2.050000000000000E10    2.743531441040062E-3  -6.913296203320625E-4  
 2.050200000000000E10    2.742839207750106E-3  -1.335975172672681E-3  
 2.050400000000000E10    2.500114183482013E-3  -2.038775863214071E-3  
 2.050600000000000E10    1.959542192924968E-3  -2.652837257686650E-3  
 2.050800000000000E10    1.189199935955306E-3  -3.029772026824609E-3  
 2.051000000000000E10    4.060211519082174E-4  -3.044108806538239E-3  
 2.051200000000000E10   -2.003734784153839E-4  -2.808532054792830E-3  
 2.051400000000000E10   -5.669917637259995E-4  -2.531264049150510E-3  
 2.051600000000000E10   -8.160904641052396E-4  -2.336783969866825E-3  
 2.051800000000000E10   -1.072925750938448E-3  -2.182755784089428E-3  
 2.052000000000000E10   -1.374595896762493E-3  -2.002909128006104E-3  
 2.052200000000000E10   -1.644220061354922E-3  -1.754267096668942E-3  
 2.052400000000000E10   -1.812255984927248E-3  -1.509815736179367E-3  
 2.052600000000000E10   -1.957776527966798E-3  -1.293659555618441E-3  
 2.052800000000000E10   -2.181522725456598E-3  -1.116932676376875E-3  
 2.053000000000000E10   -2.474351723797221E-3  -8.183710263666426E-4  
 2.053200000000000E10   -2.696286916633141E-3  -3.589620117151750E-4  
 2.053400000000000E10   -2.811175625418685E-3   1.247862418955422E-4  
 2.053600000000000E10   -2.845182048095536E-3   6.714241453178167E-4  
 2.053800000000000E10   -2.695056948994781E-3   1.307571280475537E-3  
 2.054000000000000E10   -2.310841040563130E-3   1.867507957113685E-3  
 2.054200000000000E10   -1.838827182331847E-3   2.219353128922145E-3  
 2.054400000000000E10   -1.334367584870216E-3   2.414579381553051E-3  
 2.054600000000000E10   -8.619842430913953E-4   2.494520571948999E-3  
 2.054800000000000E10   -4.341162777354428E-4   2.494974061846733E-3  
 2.055000000000000E10   -6.325425607211691E-5   2.415790516737496E-3  
 2.055200000000000E10    1.884813580605481E-4   2.356536206386892E-3  
 2.055400000000000E10    4.226195632188808E-4   2.380169671289470E-3  
 2.055600000000000E10    7.606353479008280E-4   2.411405031795426E-3  
