#  HZ   S   RI   R     50.00 
! Rohde & Schwarz ZVA40 4Ports - Version 3.90 - 1145.1110k42 SN: 100403
! Date: 2023-10-03 12:00:04
! Measurement: S12 
! 
 2.000000000000000E10   -1.731414313393611E-3  -3.587544338064797E-3  
 2.000200000000000E10   -2.403462075708825E-3  -3.331911695523211E-3  
 2.000400000000000E10   -3.012654184720215E-3  -2.853827864322582E-3  
 2.000600000000000E10   -3.384510451858795E-3  -2.240428071538056E-3  
 2.000800000000000E10   -3.567005524894706E-3  -1.666943572841033E-3  
 2.001000000000000E10   -3.798717075245984E-3  -1.166313948443183E-3  
 2.001200000000000E10   -4.079316357541600E-3  -5.562237103147732E-4  
 2.001400000000000E10   -4.226327833524089E-3   1.930425523487092E-4  
 2.001600000000000E10   -4.122284976880492E-3   9.860165034892201E-4  
 2.001800000000000E10   -3.845977487709420E-3   1.700619484274936E-3  
 2.002000000000000E10   -3.466781404122343E-3   2.389764801288645E-3  
 2.002200000000000E10   -2.931757341426465E-3   3.023745535217502E-3  
 2.002400000000000E10   -2.340921462387031E-3   3.458560593886141E-3  
 2.002600000000000E10   -1.679678081051895E-3   3.700756559861295E-3  
 2.002800000000000E10   -1.040151170282452E-3   3.830201210983006E-3  
 2.003000000000000E10   -3.961578796956873E-4   3.896272212358905E-3  
 2.003200000000000E10    1.846789946509411E-4   3.887684400664804E-3  
 2.003400000000000E10    7.611058377890768E-4   3.804791437025056E-3  
 2.003600000000000E10    1.319091534242034E-3   3.621033045037846E-3  
 2.003800000000000E10    1.872676276647842E-3   3.372056725906369E-3  
 2.004000000000000E10    2.445596494470482E-3   3.074560846190579E-3  
 2.004200000000000E10    2.981889515793250E-3   2.669584431490045E-3  
 2.004400000000000E10    3.394732177027582E-3   2.126695510620873E-3  
 2.004600000000000E10    3.622540560217552E-3   1.524053492445361E-3  
 2.004800000000000E10    3.762325335202026E-3   9.760955876072893E-4  
 2.005000000000000E10    3.968205009759577E-3   4.043003205026006E-4  
 2.005200000000000E10    4.079904556734328E-3  -2.547467991933917E-4  
 2.005400000000000E10    4.020277140547097E-3  -9.170522349944086E-4  
 2.005600000000000E10    3.868123499193678E-3  -1.617906323381136E-3  
 2.005800000000000E10    3.557423040569749E-3  -2.360839574931213E-3  
 2.006000000000000E10    3.094833875994808E-3  -3.051938535070714E-3  
 2.006200000000000E10    2.482379231900897E-3  -3.597765905138704E-3  
 2.006400000000000E10    1.736617294990998E-3  -3.939109848651254E-3  
 2.006600000000000E10    9.747979915298432E-4  -4.058901071088550E-3  
 2.006800000000000E10    3.056001404291710E-4  -4.075315022082241E-3  
 2.007000000000000E10   -3.276028265072792E-4  -4.094773115889159E-3  
 2.007200000000000E10   -9.896911330015204E-4  -4.003684088173840E-3  
 2.007400000000000E10   -1.634395178292453E-3  -3.743299444056588E-3  
 2.007600000000000E10   -2.257892396301031E-3  -3.357131353200035E-3  
 2.007800000000000E10   -2.772991292546561E-3  -2.853178560020931E-3  
 2.008000000000000E10   -3.104577783817127E-3  -2.388004118714620E-3  
 2.008200000000000E10   -3.402787484918480E-3  -1.984384850840326E-3  
 2.008400000000000E10   -3.751690893284517E-3  -1.512667805209388E-3  
 2.008600000000000E10   -4.089235512102828E-3  -8.460693952432019E-4  
 2.008800000000000E10   -4.252051543674352E-3  -4.753364447862152E-5  
 2.009000000000000E10   -4.218200365380374E-3   7.107047001934715E-4  
 2.009200000000000E10   -4.071335055301955E-3   1.409437662611405E-3  
 2.009400000000000E10   -3.813720052417966E-3   2.165802182445740E-3  
 2.009600000000000E10   -3.309459807811145E-3   2.981382370409039E-3  
 2.009800000000000E10   -2.547553386884156E-3   3.585599290988880E-3  
 2.010000000000000E10   -1.753333464471831E-3   3.868201871138113E-3  
 2.010200000000000E10   -1.007113543936960E-3   3.956911294939526E-3  
 2.010400000000000E10   -3.102150509266160E-4   3.890620147878374E-3  
 2.010600000000000E10    2.737314645833347E-4   3.750472139843085E-3  
 2.010800000000000E10    7.511603431833656E-4   3.632785574199610E-3  
 2.011000000000000E10    1.211800011748701E-3   3.528614131802763E-3  
 2.011200000000000E10    1.729940948145534E-3   3.360966976479064E-3  
 2.011400000000000E10    2.292254350412591E-3   3.071203324828804E-3  
 2.011600000000000E10    2.867275386197884E-3   2.669632486585114E-3  
 2.011800000000000E10    3.355727990928256E-3   2.134935522199045E-3  
 2.012000000000000E10    3.631452345691713E-3   1.512174911360130E-3  
 2.012200000000000E10    3.756672592350731E-3   9.338210615685878E-4  
 2.012400000000000E10    3.930028947645133E-3   3.423618895064947E-4  
 2.012600000000000E10    4.060842303766145E-3  -3.820715657504346E-4  
 2.012800000000000E10    3.996217887802625E-3  -1.178377992071120E-3  
 2.013000000000000E10    3.686889425425986E-3  -1.922153772924234E-3  
 2.013200000000000E10    3.208326270665836E-3  -2.529623995845517E-3  
 2.013400000000000E10    2.699802477303663E-3  -3.028933901661708E-3  
 2.013600000000000E10    2.105690409532852E-3  -3.511020870603346E-3  
 2.013800000000000E10    1.407458008565929E-3  -3.835581461496560E-3  
 2.014000000000000E10    6.463058037039491E-4  -3.940334773541969E-3  
 2.014200000000000E10   -6.955335176130184E-5  -3.833874835874196E-3  
 2.014400000000000E10   -6.263839364063317E-4  -3.678020130107066E-3  
 2.014600000000000E10   -1.171707718943556E-3  -3.609381578747690E-3  
 2.014800000000000E10   -1.800492305285585E-3  -3.426464378005929E-3  
 2.015000000000000E10   -2.392130050187310E-3  -3.009486670410376E-3  
 2.015200000000000E10   -2.836630685415901E-3  -2.492996484593109E-3  
 2.015400000000000E10   -3.203296559621339E-3  -1.985276011566138E-3  
 2.015600000000000E10   -3.510243906122115E-3  -1.444125236127020E-3  
 2.015800000000000E10   -3.701240445176761E-3  -8.611226164057485E-4  
 2.016000000000000E10   -3.789508376086569E-3  -2.251670914659001E-4  
 2.016200000000000E10   -3.780490908495806E-3   4.585016824960433E-4  
 2.016400000000000E10   -3.646778951709470E-3   1.151903990920587E-3  
 2.016600000000000E10   -3.401867165747616E-3   1.794823974278974E-3  
 2.016800000000000E10   -3.011886691559613E-3   2.366744525109728E-3  
 2.017000000000000E10   -2.501215228098042E-3   2.843842243798721E-3  
 2.017200000000000E10   -1.893609874295416E-3   3.216426333780459E-3  
 2.017400000000000E10   -1.269033434513359E-3   3.436369286781108E-3  
 2.017600000000000E10   -6.921036049643141E-4   3.487597469723336E-3  
 2.017800000000000E10   -2.564345457717593E-4   3.450338892569697E-3  
 2.018000000000000E10    1.779887113823659E-4   3.477112326863004E-3  
 2.018200000000000E10    7.112599552873477E-4   3.529969039430589E-3  
 2.018400000000000E10    1.335698470220338E-3   3.511892321209114E-3  
 2.018600000000000E10    2.008090902372827E-3   3.337220938439355E-3  
 2.018800000000000E10    2.660979174744384E-3   2.980264918418762E-3  
 2.019000000000000E10    3.266104910936621E-3   2.428705760933183E-3  
 2.019200000000000E10    3.730751953467176E-3   1.737754392426139E-3  
 2.019400000000000E10    4.028421895647491E-3   9.973345031202945E-4  
 2.019600000000000E10    4.156974546703292E-3   2.215630416618230E-4  
 2.019800000000000E10    4.070789829172470E-3  -6.128549640480843E-4  
 2.020000000000000E10    3.758937701077005E-3  -1.391782346296550E-3  
 2.020200000000000E10    3.300908481541240E-3  -1.981387705323689E-3  
 2.020400000000000E10    2.870488529564974E-3  -2.370692910281597E-3  
 2.020600000000000E10    2.472320321464429E-3  -2.725983423721276E-3  
 2.020800000000000E10    1.963700856266107E-3  -3.086431722306176E-3  
 2.021000000000000E10    1.406905037224477E-3  -3.294050722256488E-3  
 2.021200000000000E10    1.012611856833560E-3  -3.472895476461194E-3  
 2.021400000000000E10    5.515069153912964E-4  -3.801771784546199E-3  
 2.021600000000000E10   -1.802817513421753E-4  -4.020962088058393E-3  
 2.021800000000000E10   -1.037213602103293E-3  -3.916912562685249E-3  
 2.022000000000000E10   -1.739855792465402E-3  -3.600756856210439E-3  
 2.022200000000000E10   -2.325771163781116E-3  -3.257383750521659E-3  
 2.022400000000000E10   -2.870196738153880E-3  -2.856566892637883E-3  
 2.022600000000000E10   -3.402723922152763E-3  -2.299850685866895E-3  
 2.022800000000000E10   -3.788206990762258E-3  -1.556412877376985E-3  
 2.023000000000000E10   -3.978005265472113E-3  -7.943048976925145E-4  
 2.023200000000000E10   -4.046019833580948E-3  -6.989830958277542E-5  
 2.023400000000000E10   -3.962314641678040E-3   6.564397114777455E-4  
 2.023600000000000E10   -3.716332840813716E-3   1.314449318063756E-3  
 2.023800000000000E10   -3.381198918860820E-3   1.889323335669843E-3  
 2.024000000000000E10   -3.018061572938790E-3   2.428914793985494E-3  
 2.024200000000000E10   -2.547463695346206E-3   2.898854229392277E-3  
 2.024400000000000E10   -2.021049517264337E-3   3.233214984015551E-3  
 2.024600000000000E10   -1.479773095199540E-3   3.519534739884146E-3  
 2.024800000000000E10   -8.349004654317268E-4   3.785606462186502E-3  
 2.025000000000000E10   -9.576010079062722E-5   3.901038359114786E-3  
 2.025200000000000E10    5.929422245740339E-4   3.814379172974531E-3  
 2.025400000000000E10    1.186282289168441E-3   3.619747173133088E-3  
 2.025600000000000E10    1.769513659248198E-3   3.339579978520856E-3  
 2.025800000000000E10    2.310473678840532E-3   2.966569184705063E-3  
 2.026000000000000E10    2.774135606294429E-3   2.518804292596969E-3  
 2.026200000000000E10    3.111777775403527E-3   2.009509829804301E-3  
 2.026400000000000E10    3.348060857711567E-3   1.469169829592661E-3  
 2.026600000000000E10    3.543539398154359E-3   9.043610670580818E-4  
 2.026800000000000E10    3.687428057561686E-3   2.854228991009784E-4  
 2.027000000000000E10    3.705507017856027E-3  -3.861338482238352E-4  
 2.027200000000000E10    3.530647732133483E-3  -1.014040952640367E-3  
 2.027400000000000E10    3.266261094307275E-3  -1.549243038796165E-3  
 2.027600000000000E10    2.925947138947654E-3  -2.017801782737176E-3  
 2.027800000000000E10    2.560621685129993E-3  -2.400333662574858E-3  
 2.028000000000000E10    2.222055267473614E-3  -2.744420497666723E-3  
 2.028200000000000E10    1.836281886358780E-3  -3.103025179977219E-3  
 2.028400000000000E10    1.337534691965967E-3  -3.438079790039747E-3  
 2.028600000000000E10    6.995959024887854E-4  -3.703642676779886E-3  
 2.028800000000000E10   -1.827295466087597E-5  -3.819419030835968E-3  
 2.029000000000000E10   -6.900739052654877E-4  -3.764052286077246E-3  
 2.029200000000000E10   -1.346039098549497E-3  -3.606195866279765E-3  
 2.029400000000000E10   -2.003097550276621E-3  -3.282566327762641E-3  
 2.029600000000000E10   -2.548565156757832E-3  -2.766997501668003E-3  
 2.029800000000000E10   -2.875070352061296E-3  -2.205651460422410E-3  
 2.030000000000000E10   -3.075686812308836E-3  -1.762106551869232E-3  
 2.030200000000000E10   -3.321265517216590E-3  -1.318742559912304E-3  
 2.030400000000000E10   -3.527016677882201E-3  -7.257868333167777E-4  
 2.030600000000000E10   -3.568501079478014E-3  -8.242718818278433E-5  
 2.030800000000000E10   -3.493105308555160E-3   5.017320803700039E-4  
 2.031000000000000E10   -3.316804896005327E-3   1.021421425343480E-3  
 2.031200000000000E10   -3.100621916445686E-3   1.439725152320332E-3  
 2.031400000000000E10   -2.915828135209503E-3   1.871584374227642E-3  
 2.031600000000000E10   -2.672955686985343E-3   2.365692898079201E-3  
 2.031800000000000E10   -2.285695108757527E-3   2.833576933308333E-3  
 2.032000000000000E10   -1.785793196536417E-3   3.200557203618465E-3  
 2.032200000000000E10   -1.235015622777060E-3   3.471005003738367E-3  
 2.032400000000000E10   -6.382001066626408E-4   3.654456145509526E-3  
 2.032600000000000E10   -1.827982999168823E-5   3.776423520994960E-3  
 2.032800000000000E10    6.498344886450121E-4   3.791153183735815E-3  
 2.033000000000000E10    1.353247209026674E-3   3.642876048997781E-3  
 2.033200000000000E10    2.002985199430475E-3   3.350390242067753E-3  
 2.033400000000000E10    2.634707424375746E-3   2.925635002162538E-3  
 2.033600000000000E10    2.891667543645995E-3   2.591780067800924E-3  
 2.033800000000000E10    3.419114173286492E-3   1.614169013560002E-3  
 2.034000000000000E10    3.517822020422714E-3   9.463918797763778E-4  
 2.034200000000000E10    3.488787429775170E-3   3.201856633955843E-4  
 2.034400000000000E10    3.361416788035890E-3  -2.400262976916116E-4  
 2.034600000000000E10    3.177538364665744E-3  -6.657715816407201E-4  
 2.034800000000000E10    3.046338409070433E-3  -9.811294285212587E-4  
 2.035000000000000E10    2.985599631857541E-3  -1.348542065336657E-3  
 2.035200000000000E10    2.880043384653551E-3  -1.856027365041276E-3  
 2.035400000000000E10    2.602137332023294E-3  -2.394233588819151E-3  
 2.035600000000000E10    2.199965296313167E-3  -2.868753343383656E-3  
 2.035800000000000E10    1.692330594071084E-3  -3.279729967614936E-3  
 2.036000000000000E10    1.062642310079141E-3  -3.570933515826861E-3  
 2.036200000000000E10    3.650911015107722E-4  -3.719852765861118E-3  
 2.036400000000000E10   -3.740721393698528E-4  -3.743247643550053E-3  
 2.036600000000000E10   -1.079167385965034E-3  -3.538433514121506E-3  
 2.036800000000000E10   -1.654110930825549E-3  -3.158167901414413E-3  
 2.037000000000000E10   -2.061756919885492E-3  -2.738634771150020E-3  
 2.037200000000000E10   -2.371759274629532E-3  -2.333899327542311E-3  
 2.037400000000000E10   -2.620202621422065E-3  -1.957763074092384E-3  
 2.037600000000000E10   -2.875565045317751E-3  -1.619945970122461E-3  
 2.037800000000000E10   -3.153524051109950E-3  -1.214711403727164E-3  
 2.038000000000000E10   -3.402789847718345E-3  -6.636855254283199E-4  
 2.038200000000000E10   -3.489626022515658E-3  -9.091106749335184E-6  
 2.038400000000000E10   -3.429110682236008E-3   5.921391773118098E-4  
 2.038600000000000E10   -3.285132635982685E-3   1.144424601124577E-3  
 2.038800000000000E10   -3.064170367670832E-3   1.681786708901694E-3  
 2.039000000000000E10   -2.714849358861462E-3   2.188835623616606E-3  
 2.039200000000000E10   -2.278519228077782E-3   2.614380648060714E-3  
 2.039400000000000E10   -1.806460949017402E-3   2.926288871094585E-3  
 2.039600000000000E10   -1.367436658683015E-3   3.165494253927911E-3  
 2.039800000000000E10   -8.568331314664750E-4   3.409008300046863E-3  
 2.040000000000000E10   -2.147790422177310E-4   3.554725263520708E-3  
 2.040200000000000E10    4.416197146013104E-4   3.542391462596479E-3  
 2.040400000000000E10    1.065404829856606E-3   3.424945902539257E-3  
 2.040600000000000E10    1.675297544958691E-3   3.187980037182570E-3  
 2.040800000000000E10    2.211658873330848E-3   2.820103495370275E-3  
 2.041000000000000E10    2.680495263502738E-3   2.344983509155336E-3  
 2.041200000000000E10    3.034513230998943E-3   1.809123406232691E-3  
 2.041400000000000E10    3.289056829763232E-3   1.229091620728098E-3  
 2.041600000000000E10    3.432035460539255E-3   5.905857571274226E-4  
 2.041800000000000E10    3.394983395543180E-3  -9.144556949009982E-5  
 2.042000000000000E10    3.175954733986730E-3  -6.946789475882220E-4  
 2.042200000000000E10    2.864414843282214E-3  -1.165185908407525E-3  
 2.042400000000000E10    2.542884635198632E-3  -1.504087780406814E-3  
 2.042600000000000E10    2.268866184569987E-3  -1.761031268095529E-3  
 2.042800000000000E10    1.976345004628838E-3  -2.006950474884591E-3  
 2.043000000000000E10    1.681845843573504E-3  -2.227241159014312E-3  
 2.043200000000000E10    1.399829990897374E-3  -2.444438544320472E-3  
 2.043400000000000E10    1.080947782970781E-3  -2.665477962934493E-3  
 2.043600000000000E10    7.351573627085691E-4  -2.881764865445871E-3  
 2.043800000000000E10    2.564098441651390E-4  -3.136814166619270E-3  
 2.044000000000000E10   -4.095396200873326E-4  -3.268841754668105E-3  
 2.044200000000000E10   -1.145195858380585E-3  -3.162022536321555E-3  
 2.044400000000000E10   -1.824111393135455E-3  -2.819198787350346E-3  
 2.044600000000000E10   -2.314150994528592E-3  -2.254589509655848E-3  
 2.044800000000000E10   -2.523615688982386E-3  -1.639153032253186E-3  
 2.045000000000000E10   -2.565207664084471E-3  -1.170539997092644E-3  
 2.045200000000000E10   -2.600673784467358E-3  -8.152688416525907E-4  
 2.045400000000000E10   -2.646539311419115E-3  -4.827302336595079E-4  
 2.045600000000000E10   -2.703419518599540E-3  -1.461719342235787E-4  
 2.045800000000000E10   -2.786145335707216E-3   2.800739703722942E-4  
 2.046000000000000E10   -2.772205581106706E-3   8.065524901964783E-4  
 2.046200000000000E10   -2.589036161539915E-3   1.337942000432515E-3  
 2.046400000000000E10   -2.265158741746420E-3   1.788945839866812E-3  
 2.046600000000000E10   -1.847587672441646E-3   2.110231587272368E-3  
 2.046800000000000E10   -1.420773271137826E-3   2.311297425034422E-3  
 2.047000000000000E10   -1.016430325380722E-3   2.444255137011226E-3  
 2.047200000000000E10   -6.526404866707272E-4   2.498047966740014E-3  
 2.047400000000000E10   -3.247949833526093E-4   2.542912143708012E-3  
 2.047600000000000E10    3.290166142382254E-5   2.604064094707554E-3  
 2.047800000000000E10    4.598442551300482E-4   2.647512991924161E-3  
 2.048000000000000E10    9.432825357595713E-4   2.581412311827327E-3  
 2.048200000000000E10    1.400408454319853E-3   2.393357679937725E-3  
 2.048400000000000E10    1.788210118028485E-3   2.111192056794226E-3  
 2.048600000000000E10    2.112799358588678E-3   1.758304186004364E-3  
 2.048800000000000E10    2.363603688592529E-3   1.337932319276863E-3  
 2.049000000000000E10    2.476802610297814E-3   9.358279726088600E-4  
 2.049200000000000E10    2.532339853200096E-3   6.170558565681411E-4  
 2.049400000000000E10    2.638740660507738E-3   3.014841541126199E-4  
 2.049600000000000E10    2.755658637824250E-3  -1.062935325647647E-4  
 2.049800000000000E10    2.799988408101562E-3  -5.614432631301936E-4  
 2.050000000000000E10    2.801260726963297E-3  -1.065575407047607E-3  
 2.050200000000000E10    2.714121742978876E-3  -1.640204657846487E-3  
 2.050400000000000E10    2.437729451713371E-3  -2.280672241784173E-3  
 2.050600000000000E10    1.891063544956715E-3  -2.888886278127263E-3  
 2.050800000000000E10    1.100556499520202E-3  -3.282838788481407E-3  
 2.051000000000000E10    2.430251072017896E-4  -3.316641822572292E-3  
 2.051200000000000E10   -4.628971779581022E-4  -3.021771565401628E-3  
 2.051400000000000E10   -8.953394322299664E-4  -2.619336344830600E-3  
 2.051600000000000E10   -1.121794895475938E-3  -2.302460182734110E-3  
 2.051800000000000E10   -1.316005208839973E-3  -2.100578332492323E-3  
 2.052000000000000E10   -1.577031807284112E-3  -1.924772999812792E-3  
 2.052200000000000E10   -1.826809239171354E-3  -1.658774800253687E-3  
 2.052400000000000E10   -1.991142329104521E-3  -1.357113067233176E-3  
 2.052600000000000E10   -2.100821923648502E-3  -1.124915494411080E-3  
 2.052800000000000E10   -2.301386341935507E-3  -9.451374457574187E-4  
 2.053000000000000E10   -2.567619364133772E-3  -6.335656159344694E-4  
 2.053200000000000E10   -2.737794258275334E-3  -1.832439162104426E-4  
 2.053400000000000E10   -2.836969718452037E-3   3.190825606716430E-4  
 2.053600000000000E10   -2.807612867198057E-3   9.224211285465663E-4  
 2.053800000000000E10   -2.579652658307259E-3   1.545010722403265E-3  
 2.054000000000000E10   -2.132322024094102E-3   2.042693482642925E-3  
 2.054200000000000E10   -1.616274828758137E-3   2.293671058766820E-3  
 2.054400000000000E10   -1.151697621048417E-3   2.415143672008941E-3  
 2.054600000000000E10   -7.468084761596941E-4   2.498385398706168E-3  
 2.054800000000000E10   -3.425842860676234E-4   2.515069165922426E-3  
 2.055000000000000E10    1.234246497286805E-5   2.407661690894101E-3  
 2.055200000000000E10    2.456762674149632E-4   2.311012937606853E-3  
 2.055400000000000E10    4.785124098962564E-4   2.336190231604341E-3  
 2.055600000000000E10    8.520828452202734E-4   2.386543353628597E-3  
