#  HZ   S   RI   R     50.00 
! Rohde & Schwarz ZVA40 4Ports - Version 3.90 - 1145.1110k42 SN: 100403
! Date: 2023-10-03 12:01:03
! Measurement: S12 
! 
 2.000000000000000E10   -1.690511865763630E-3  -3.535946159869277E-3  
 2.000200000000000E10   -2.313384970851928E-3  -3.314590536055395E-3  
 2.000400000000000E10   -2.877004420858305E-3  -2.854816452695877E-3  
 2.000600000000000E10   -3.275594755387165E-3  -2.277118798812054E-3  
 2.000800000000000E10   -3.542289790873270E-3  -1.718427523226228E-3  
 2.001000000000000E10   -3.841977579043059E-3  -1.196716989913916E-3  
 2.001200000000000E10   -4.133522827995863E-3  -5.702220945617770E-4  
 2.001400000000000E10   -4.252582399884029E-3   1.951905943335031E-4  
 2.001600000000000E10   -4.134851037496961E-3   1.034401762870937E-3  
 2.001800000000000E10   -3.853700803588543E-3   1.767472454979522E-3  
 2.002000000000000E10   -3.475381233901890E-3   2.427169622701798E-3  
 2.002200000000000E10   -2.945908222212931E-3   2.987265537242109E-3  
 2.002400000000000E10   -2.361433602981082E-3   3.414321536854912E-3  
 2.002600000000000E10   -1.704495477907030E-3   3.715074729944304E-3  
 2.002800000000000E10   -1.034556393904223E-3   3.917544674141921E-3  
 2.003000000000000E10   -3.506344312490665E-4   3.993416878735034E-3  
 2.003200000000000E10    2.443572661538966E-4   3.943319002334174E-3  
 2.003400000000000E10    8.175650533377296E-4   3.818123256229802E-3  
 2.003600000000000E10    1.408867584871470E-3   3.633006809089396E-3  
 2.003800000000000E10    1.974101277569903E-3   3.377425309337053E-3  
 2.004000000000000E10    2.493322379039673E-3   3.091305961034372E-3  
 2.004200000000000E10    3.016907982800751E-3   2.669135976355365E-3  
 2.004400000000000E10    3.415406150994614E-3   2.083569197546287E-3  
 2.004600000000000E10    3.666824926070744E-3   1.475616700865949E-3  
 2.004800000000000E10    3.888391258103913E-3   9.312202333710933E-4  
 2.005000000000000E10    4.112151083053113E-3   3.002233101147329E-4  
 2.005200000000000E10    4.144244656353427E-3  -4.476201856473400E-4  
 2.005400000000000E10    3.992136126868751E-3  -1.151902716846180E-3  
 2.005600000000000E10    3.764221086803438E-3  -1.838875749026211E-3  
 2.005800000000000E10    3.420515530893880E-3  -2.506922635581527E-3  
 2.006000000000000E10    2.925119625198369E-3  -3.100918412696576E-3  
 2.006200000000000E10    2.295879658527083E-3  -3.550413504875703E-3  
 2.006400000000000E10    1.577063129393356E-3  -3.835186835699496E-3  
 2.006600000000000E10    8.646707222916215E-4  -3.995446324630360E-3  
 2.006800000000000E10    2.205748295881135E-4  -4.064235433631215E-3  
 2.007000000000000E10   -4.319913953231417E-4  -4.063681859027376E-3  
 2.007200000000000E10   -1.111768452990605E-3  -3.905481391977716E-3  
 2.007400000000000E10   -1.753065831023241E-3  -3.631542394939295E-3  
 2.007600000000000E10   -2.357223736114586E-3  -3.263154343152986E-3  
 2.007800000000000E10   -2.840938107576861E-3  -2.762523035390646E-3  
 2.008000000000000E10   -3.140452481311448E-3  -2.222333104695885E-3  
 2.008200000000000E10   -3.338547410919521E-3  -1.728520937045508E-3  
 2.008400000000000E10   -3.588792380898558E-3  -1.259188149652432E-3  
 2.008600000000000E10   -3.862771402450836E-3  -6.689123053356639E-4  
 2.008800000000000E10   -3.992806553924104E-3  -6.267268850097046E-6  
 2.009000000000000E10   -3.956464122449379E-3   6.580810787534801E-4  
 2.009200000000000E10   -3.829076076433179E-3   1.311180888437532E-3  
 2.009400000000000E10   -3.644259586490804E-3   2.005173016793491E-3  
 2.009600000000000E10   -3.257759713457500E-3   2.769266274362925E-3  
 2.009800000000000E10   -2.589653467650474E-3   3.357556050985705E-3  
 2.010000000000000E10   -1.849114973861154E-3   3.653269034785240E-3  
 2.010200000000000E10   -1.107708863666171E-3   3.809331549939653E-3  
 2.010400000000000E10   -4.063832401817518E-4   3.809930475417629E-3  
 2.010600000000000E10    1.714211380139320E-4   3.710223018512417E-3  
 2.010800000000000E10    6.141943699670902E-4   3.598025102601832E-3  
 2.011000000000000E10    1.077034815736660E-3   3.522464180442709E-3  
 2.011200000000000E10    1.661384593987958E-3   3.432118021306051E-3  
 2.011400000000000E10    2.316698859091023E-3   3.186050647248825E-3  
 2.011600000000000E10    2.926325400806640E-3   2.776400850013505E-3  
 2.011800000000000E10    3.412962806737712E-3   2.185308939241177E-3  
 2.012000000000000E10    3.695633707190752E-3   1.497364680433521E-3  
 2.012200000000000E10    3.835426102454975E-3   8.320247142409178E-4  
 2.012400000000000E10    3.964842245396641E-3   1.809747904427737E-4  
 2.012600000000000E10    4.017681055448892E-3  -5.260805399404098E-4  
 2.012800000000000E10    3.883026185337750E-3  -1.292993304024570E-3  
 2.013000000000000E10    3.522796581371952E-3  -2.008893058341888E-3  
 2.013200000000000E10    3.038682437884683E-3  -2.568872274480042E-3  
 2.013400000000000E10    2.577289016014557E-3  -3.035533103102220E-3  
 2.013600000000000E10    2.017265439410807E-3  -3.478287327199984E-3  
 2.013800000000000E10    1.296177911584934E-3  -3.781163411012247E-3  
 2.014000000000000E10    4.875858034715006E-4  -3.857119319126671E-3  
 2.014200000000000E10   -2.314073513730936E-4  -3.705611463958100E-3  
 2.014400000000000E10   -7.241796288278618E-4  -3.492342219162081E-3  
 2.014600000000000E10   -1.182685294782613E-3  -3.364216187835987E-3  
 2.014800000000000E10   -1.714948284242577E-3  -3.143942074817838E-3  
 2.015000000000000E10   -2.205021712936676E-3  -2.794606922638093E-3  
 2.015200000000000E10   -2.624770116157213E-3  -2.434579260344096E-3  
 2.015400000000000E10   -3.050848382074177E-3  -2.014174119062180E-3  
 2.015600000000000E10   -3.360227499115458E-3  -1.466289272237609E-3  
 2.015800000000000E10   -3.532011183059660E-3  -8.741777198505002E-4  
 2.016000000000000E10   -3.650448969908138E-3  -2.440915504125214E-4  
 2.016200000000000E10   -3.692256036769407E-3   4.061027785046022E-4  
 2.016400000000000E10   -3.602647918515388E-3   1.085478867629648E-3  
 2.016600000000000E10   -3.322383803543288E-3   1.734663381134375E-3  
 2.016800000000000E10   -2.903157514896863E-3   2.298664396171381E-3  
 2.017000000000000E10   -2.408740043624807E-3   2.765881575692563E-3  
 2.017200000000000E10   -1.836670936995740E-3   3.121495791223321E-3  
 2.017400000000000E10   -1.245969597605378E-3   3.295211114839340E-3  
 2.017600000000000E10   -6.954772145296590E-4   3.331180755815511E-3  
 2.017800000000000E10   -2.378727417384076E-4   3.309720953727149E-3  
 2.018000000000000E10    2.218706128600547E-4   3.335752480786429E-3  
 2.018200000000000E10    7.227671935999572E-4   3.356384028474940E-3  
 2.018400000000000E10    1.259370007791531E-3   3.314216996921686E-3  
 2.018600000000000E10    1.868046497586292E-3   3.146710962731653E-3  
 2.018800000000000E10    2.474041215442616E-3   2.830325032954429E-3  
 2.019000000000000E10    3.063928029616204E-3   2.368286429173226E-3  
 2.019200000000000E10    3.517328359414051E-3   1.742331328832472E-3  
 2.019400000000000E10    3.779767783146623E-3   1.043400070772672E-3  
 2.019600000000000E10    3.906184189944820E-3   3.021783410753778E-4  
 2.019800000000000E10    3.843065972768272E-3  -5.041352342731169E-4  
 2.020000000000000E10    3.596116674665377E-3  -1.200091117466227E-3  
 2.020200000000000E10    3.242512882329868E-3  -1.722586750226189E-3  
 2.020400000000000E10    2.888637442213314E-3  -2.149567049538362E-3  
 2.020600000000000E10    2.506876958616736E-3  -2.571757512135584E-3  
 2.020800000000000E10    1.999830258507699E-3  -2.956956923927790E-3  
 2.021000000000000E10    1.510646086480856E-3  -3.160650302878713E-3  
 2.021200000000000E10    1.171922755396146E-3  -3.363838198624133E-3  
 2.021400000000000E10    6.912128566691903E-4  -3.710312476048650E-3  
 2.021600000000000E10   -6.501145998651999E-5  -3.938021158112216E-3  
 2.021800000000000E10   -9.226228869454123E-4  -3.894772144672421E-3  
 2.022000000000000E10   -1.641841652734137E-3  -3.647875168310095E-3  
 2.022200000000000E10   -2.276899957808802E-3  -3.305664893485024E-3  
 2.022400000000000E10   -2.876393513811074E-3  -2.839515604433073E-3  
 2.022600000000000E10   -3.402061585722740E-3  -2.202962363474361E-3  
 2.022800000000000E10   -3.729943244811276E-3  -1.462624771230921E-3  
 2.023000000000000E10   -3.867809973941596E-3  -7.219913770233048E-4  
 2.023200000000000E10   -3.865541135347191E-3  -5.423747574828338E-5  
 2.023400000000000E10   -3.743727052810840E-3   6.150996198745254E-4  
 2.023600000000000E10   -3.517411952322178E-3   1.242212191582660E-3  
 2.023800000000000E10   -3.236034554699765E-3   1.790842721340935E-3  
 2.024000000000000E10   -2.894466158081822E-3   2.292269115303450E-3  
 2.024200000000000E10   -2.420474792488693E-3   2.712955235051793E-3  
 2.024400000000000E10   -1.925320765201580E-3   2.991809193504814E-3  
 2.024600000000000E10   -1.479740796095867E-3   3.266504325997214E-3  
 2.024800000000000E10   -9.343082682605601E-4   3.567024631805593E-3  
 2.025000000000000E10   -2.567290593757668E-4   3.715963959996259E-3  
 2.025200000000000E10    4.248177467089081E-4   3.656328227485956E-3  
 2.025400000000000E10    1.042277675363051E-3   3.453839227904672E-3  
 2.025600000000000E10    1.594110604956453E-3   3.209453307144995E-3  
 2.025800000000000E10    2.095753167107341E-3   2.913798544633407E-3  
 2.026000000000000E10    2.539878846948884E-3   2.529007814816916E-3  
 2.026200000000000E10    2.893449993276902E-3   2.038991042803744E-3  
 2.026400000000000E10    3.122234179595316E-3   1.547687594837603E-3  
 2.026600000000000E10    3.349748254205588E-3   1.068410780033839E-3  
 2.026800000000000E10    3.543240464261381E-3   5.146803215225274E-4  
 2.027000000000000E10    3.579409406032835E-3  -1.314917866748471E-4  
 2.027200000000000E10    3.407985555407497E-3  -7.234630144061118E-4  
 2.027400000000000E10    3.221432178140294E-3  -1.198769537916183E-3  
 2.027600000000000E10    3.039939595819897E-3  -1.688675538302030E-3  
 2.027800000000000E10    2.779302102307929E-3  -2.122793676140861E-3  
 2.028000000000000E10    2.495682785976517E-3  -2.553160277429064E-3  
 2.028200000000000E10    2.116578308099759E-3  -3.029265584723082E-3  
 2.028400000000000E10    1.596699533679586E-3  -3.435345550775052E-3  
 2.028600000000000E10    9.697994527504511E-4  -3.733240340180120E-3  
 2.028800000000000E10    3.007088724269767E-4  -3.885348099205094E-3  
 2.029000000000000E10   -3.816464416541979E-4  -3.904768010489830E-3  
 2.029200000000000E10   -1.125928788755905E-3  -3.820003163210867E-3  
 2.029400000000000E10   -1.899853369598390E-3  -3.539780428642463E-3  
 2.029600000000000E10   -2.541183164108172E-3  -3.039220356304501E-3  
 2.029800000000000E10   -2.927506370848930E-3  -2.432579560559644E-3  
 2.030000000000000E10   -3.171916515470594E-3  -1.921420522422965E-3  
 2.030200000000000E10   -3.456130287612976E-3  -1.431933841056982E-3  
 2.030400000000000E10   -3.690809906585118E-3  -7.881997761056408E-4  
 2.030600000000000E10   -3.703928735574762E-3  -1.172465763632766E-4  
 2.030800000000000E10   -3.574109012916835E-3   4.454342490079152E-4  
 2.031000000000000E10   -3.378013294542769E-3   9.434863227233463E-4  
 2.031200000000000E10   -3.186775588293769E-3   1.385255357381306E-3  
 2.031400000000000E10   -3.035329495951412E-3   1.855699262589431E-3  
 2.031600000000000E10   -2.793419972137912E-3   2.378203484532520E-3  
 2.031800000000000E10   -2.370794239625588E-3   2.872957997271049E-3  
 2.032000000000000E10   -1.836559466903099E-3   3.253501848452676E-3  
 2.032200000000000E10   -1.275606221972084E-3   3.541024757151428E-3  
 2.032400000000000E10   -6.815600470832675E-4   3.736047515586857E-3  
 2.032600000000000E10   -7.742845390153851E-5   3.855964837482546E-3  
 2.032800000000000E10    6.204790080789772E-4   3.876935142472687E-3  
 2.033000000000000E10    1.352909238845924E-3   3.691496934135333E-3  
 2.033200000000000E10    2.019542032106689E-3   3.390603214711000E-3  
 2.033400000000000E10    2.638942658923359E-3   2.986274199934177E-3  
 2.033600000000000E10    2.905104745491985E-3   2.658539716960036E-3  
 2.033800000000000E10    3.466192956449176E-3   1.637623668520549E-3  
 2.034000000000000E10    3.584185463687637E-3   9.089094806991854E-4  
 2.034200000000000E10    3.529826856878765E-3   2.611340649702144E-4  
 2.034400000000000E10    3.353461343305340E-3  -2.712194228888143E-4  
 2.034600000000000E10    3.128639416608178E-3  -6.640067121340197E-4  
 2.034800000000000E10    2.965462116940202E-3  -9.584752674309082E-4  
 2.035000000000000E10    2.894195877369042E-3  -1.322221080229627E-3  
 2.035200000000000E10    2.774621701318555E-3  -1.809601899554547E-3  
 2.035400000000000E10    2.503319757244885E-3  -2.272910284854482E-3  
 2.035600000000000E10    2.146701120324757E-3  -2.688655237444546E-3  
 2.035800000000000E10    1.702372253534760E-3  -3.101663662918734E-3  
 2.036000000000000E10    1.109627395462472E-3  -3.455526500797240E-3  
 2.036200000000000E10    4.340478918049592E-4  -3.654618063625622E-3  
 2.036400000000000E10   -3.031302723125427E-4  -3.665669566121721E-3  
 2.036600000000000E10   -9.848350615576627E-4  -3.437918801223464E-3  
 2.036800000000000E10   -1.530662186711663E-3  -3.072580463577882E-3  
 2.037000000000000E10   -1.923510369399302E-3  -2.684037101458866E-3  
 2.037200000000000E10   -2.206098759601385E-3  -2.340304142117133E-3  
 2.037400000000000E10   -2.452336212451505E-3  -2.021576851524608E-3  
 2.037600000000000E10   -2.749750304628193E-3  -1.711852847891049E-3  
 2.037800000000000E10   -3.089323435038343E-3  -1.285350282619455E-3  
 2.038000000000000E10   -3.341924715327261E-3  -7.177342749460527E-4  
 2.038200000000000E10   -3.422596684887420E-3  -1.179009454566934E-4  
 2.038400000000000E10   -3.386426585456881E-3   4.404603913280549E-4  
 2.038600000000000E10   -3.280345099042569E-3   1.002650608951213E-3  
 2.038800000000000E10   -3.070754910149380E-3   1.605195276716841E-3  
 2.039000000000000E10   -2.741613547744807E-3   2.142111541065428E-3  
 2.039200000000000E10   -2.284361321541256E-3   2.564279811612659E-3  
 2.039400000000000E10   -1.784296878732768E-3   2.828384497384769E-3  
 2.039600000000000E10   -1.371239583096567E-3   3.036731777003246E-3  
 2.039800000000000E10   -8.854168074594742E-4   3.293526606850589E-3  
 2.040000000000000E10   -2.915063151339377E-4   3.451725416405832E-3  
 2.040200000000000E10    2.985730768767133E-4   3.468893016132799E-3  
 2.040400000000000E10    9.006250587517289E-4   3.391885055568893E-3  
 2.040600000000000E10    1.534964904937745E-3   3.169364555132890E-3  
 2.040800000000000E10    2.104714001811254E-3   2.804032842993607E-3  
 2.041000000000000E10    2.536434323046140E-3   2.337703532524404E-3  
 2.041200000000000E10    2.852861649835007E-3   1.846314747868916E-3  
 2.041400000000000E10    3.112197165246704E-3   1.334468447541538E-3  
 2.041600000000000E10    3.312830682920577E-3   7.452529169568835E-4  
 2.041800000000000E10    3.379777566136756E-3   9.254728634872084E-5  
 2.042000000000000E10    3.260965829107879E-3  -5.355166588263919E-4  
 2.042200000000000E10    2.981813784193029E-3  -1.080797385659868E-3  
 2.042400000000000E10    2.615345055369425E-3  -1.460344572481284E-3  
 2.042600000000000E10    2.298157393338715E-3  -1.751723724662676E-3  
 2.042800000000000E10    2.012423978701990E-3  -2.018559074892089E-3  
 2.043000000000000E10    1.709919352121447E-3  -2.251337355604906E-3  
 2.043200000000000E10    1.396580640502124E-3  -2.481704106819265E-3  
 2.043400000000000E10    1.025434189093238E-3  -2.692983553467628E-3  
 2.043600000000000E10    6.525963727160387E-4  -2.873388205169030E-3  
 2.043800000000000E10    2.016466458194566E-4  -3.080639837647840E-3  
 2.044000000000000E10   -4.206165766977346E-4  -3.182399471937268E-3  
 2.044200000000000E10   -1.102944048367284E-3  -3.060750680633663E-3  
 2.044400000000000E10   -1.736342061117673E-3  -2.693338773183944E-3  
 2.044600000000000E10   -2.183745538212860E-3  -2.142405161373471E-3  
 2.044800000000000E10   -2.333356739521354E-3  -1.600386570499479E-3  
 2.045000000000000E10   -2.371031897432956E-3  -1.208883043279370E-3  
 2.045200000000000E10   -2.444981005865524E-3  -8.859692125870356E-4  
 2.045400000000000E10   -2.517806347774680E-3  -5.496049230742841E-4  
 2.045600000000000E10   -2.589183401743953E-3  -2.558760077604845E-4  
 2.045800000000000E10   -2.689081328168553E-3   9.998822851919304E-5  
 2.046000000000000E10   -2.699068741179632E-3   5.595323614746113E-4  
 2.046200000000000E10   -2.596025956666015E-3   1.033810675891553E-3  
 2.046400000000000E10   -2.373842031609354E-3   1.502415251485479E-3  
 2.046600000000000E10   -2.050931303462531E-3   1.890292852477370E-3  
 2.046800000000000E10   -1.685140130655593E-3   2.161463987462097E-3  
 2.047000000000000E10   -1.290638648494346E-3   2.374936411328440E-3  
 2.047200000000000E10   -8.944854881038706E-4   2.507471963128729E-3  
 2.047400000000000E10   -5.404404272703488E-4   2.614205746043169E-3  
 2.047600000000000E10   -1.870567345490086E-4   2.729640127456469E-3  
 2.047800000000000E10    2.611116569902949E-4   2.806051149534230E-3  
 2.048000000000000E10    7.701323243202137E-4   2.776751338274725E-3  
 2.048200000000000E10    1.301362309155617E-3   2.603301198967398E-3  
 2.048400000000000E10    1.771640935533727E-3   2.305167217436151E-3  
 2.048600000000000E10    2.132896312853560E-3   1.940856810687276E-3  
 2.048800000000000E10    2.400591275575952E-3   1.490391116115769E-3  
 2.049000000000000E10    2.533637406666447E-3   1.041712399236143E-3  
 2.049200000000000E10    2.590669651086105E-3   6.794004476072193E-4  
 2.049400000000000E10    2.702163922982431E-3   3.733977325020889E-4  
 2.049600000000000E10    2.830690377450216E-3  -5.136306873491760E-6  
 2.049800000000000E10    2.917104080459082E-3  -4.544801501494206E-4  
 2.050000000000000E10    2.918192810175841E-3  -9.830855577289857E-4  
 2.050200000000000E10    2.803748213014492E-3  -1.608489796948957E-3  
 2.050400000000000E10    2.520814394279395E-3  -2.264890060187320E-3  
 2.050600000000000E10    1.983355288585426E-3  -2.856275490236013E-3  
 2.050800000000000E10    1.207237301539557E-3  -3.250005811595099E-3  
 2.051000000000000E10    3.644855533277568E-4  -3.306149260005112E-3  
 2.051200000000000E10   -3.201931775534789E-4  -3.067092685229910E-3  
 2.051400000000000E10   -7.560289086740777E-4  -2.715806749099580E-3  
 2.051600000000000E10   -1.014399776015061E-3  -2.432115120488757E-3  
 2.051800000000000E10   -1.235015879614704E-3  -2.250190198597778E-3  
 2.052000000000000E10   -1.517750664612438E-3  -2.069517019493093E-3  
 2.052200000000000E10   -1.827049009647999E-3  -1.816389399664124E-3  
 2.052400000000000E10   -2.039212827405935E-3  -1.508208006943198E-3  
 2.052600000000000E10   -2.168493466958520E-3  -1.225014052608881E-3  
 2.052800000000000E10   -2.360990364977492E-3  -1.001036160469659E-3  
 2.053000000000000E10   -2.628705172173962E-3  -6.825422607462346E-4  
 2.053200000000000E10   -2.838359645426880E-3  -2.199973002187721E-4  
 2.053400000000000E10   -2.927827352217592E-3   3.115668680390474E-4  
 2.053600000000000E10   -2.904364430917505E-3   9.063921965840503E-4  
 2.053800000000000E10   -2.666249052673804E-3   1.511541030092474E-3  
 2.054000000000000E10   -2.242170111052641E-3   2.016697775518882E-3  
 2.054200000000000E10   -1.753449411577302E-3   2.336672879947128E-3  
 2.054400000000000E10   -1.251736302167232E-3   2.512779650540285E-3  
 2.054600000000000E10   -7.539641499448234E-4   2.576986459672799E-3  
 2.054800000000000E10   -3.193836610699963E-4   2.548022390094982E-3  
 2.055000000000000E10    3.182130591175957E-5   2.457959991788205E-3  
 2.055200000000000E10    2.791690097132845E-4   2.363012375090328E-3  
 2.055400000000000E10    5.180741562139692E-4   2.361900712566550E-3  
 2.055600000000000E10    8.547809530974925E-4   2.355109057382812E-3  
