#  HZ   S   RI   R     50.00 
! Rohde & Schwarz ZVA40 4Ports - Version 3.90 - 1145.1110k42 SN: 100403
! Date: 2023-10-03 12:02:14
! Measurement: S12 
! 
 2.000000000000000E10   -1.790943555693578E-3  -3.483636610386242E-3  
 2.000200000000000E10   -2.360524536865484E-3  -3.167261148512937E-3  
 2.000400000000000E10   -2.851029009710287E-3  -2.647875629643947E-3  
 2.000600000000000E10   -3.173712387410171E-3  -2.096755771842800E-3  
 2.000800000000000E10   -3.372727408468601E-3  -1.662801204291422E-3  
 2.001000000000000E10   -3.631289918691084E-3  -1.297947335528371E-3  
 2.001200000000000E10   -4.001154637779270E-3  -7.645071392964487E-4  
 2.001400000000000E10   -4.269636284038732E-3   1.431699042637744E-5  
 2.001600000000000E10   -4.244921527756954E-3   9.225700010669475E-4  
 2.001800000000000E10   -3.984792117765289E-3   1.688754884366442E-3  
 2.002000000000000E10   -3.592179600783051E-3   2.364021092934333E-3  
 2.002200000000000E10   -3.026882560210832E-3   2.984497660709691E-3  
 2.002400000000000E10   -2.397151399449802E-3   3.476715823622685E-3  
 2.002600000000000E10   -1.723007804590223E-3   3.814926942674998E-3  
 2.002800000000000E10   -1.064027031367474E-3   4.012148009053597E-3  
 2.003000000000000E10   -3.309847547644584E-4   4.070692949267859E-3  
 2.003200000000000E10    3.626841009915162E-4   3.957769873108721E-3  
 2.003400000000000E10    9.655761564423847E-4   3.770133388766557E-3  
 2.003600000000000E10    1.487959238262375E-3   3.531537845281090E-3  
 2.003800000000000E10    1.938261478802059E-3   3.249836637190095E-3  
 2.004000000000000E10    2.360677252688403E-3   2.959323075723890E-3  
 2.004200000000000E10    2.843089882713655E-3   2.576192460867318E-3  
 2.004400000000000E10    3.258950337933681E-3   2.080247328656283E-3  
 2.004600000000000E10    3.560870640881779E-3   1.558723361569933E-3  
 2.004800000000000E10    3.784979414450330E-3   1.044274180273517E-3  
 2.005000000000000E10    3.994333106814916E-3   4.259438739961145E-4  
 2.005200000000000E10    4.058884980542834E-3  -2.944954299163240E-4  
 2.005400000000000E10    3.995118156811338E-3  -9.779237296664769E-4  
 2.005600000000000E10    3.855839571934730E-3  -1.663928625521356E-3  
 2.005800000000000E10    3.558953528692346E-3  -2.345461168406923E-3  
 2.006000000000000E10    3.063279151372275E-3  -3.018052525440199E-3  
 2.006200000000000E10    2.382073514048517E-3  -3.563353249838957E-3  
 2.006400000000000E10    1.631715782567992E-3  -3.874403350464029E-3  
 2.006600000000000E10    9.460050061911050E-4  -3.986665600238800E-3  
 2.006800000000000E10    3.218912170268596E-4  -3.992937790454764E-3  
 2.007000000000000E10   -3.042946832234728E-4  -3.968440633732188E-3  
 2.007200000000000E10   -9.353890985030738E-4  -3.849809020642698E-3  
 2.007400000000000E10   -1.521184109311056E-3  -3.661118950809778E-3  
 2.007600000000000E10   -2.098113036202203E-3  -3.385760561104440E-3  
 2.007800000000000E10   -2.608420652118914E-3  -2.951108381683608E-3  
 2.008000000000000E10   -2.990122148013369E-3  -2.466015361533060E-3  
 2.008200000000000E10   -3.328357044535860E-3  -2.013386221441590E-3  
 2.008400000000000E10   -3.691037644444364E-3  -1.579596072407274E-3  
 2.008600000000000E10   -4.061338931848443E-3  -9.969109570318823E-4  
 2.008800000000000E10   -4.255251986433246E-3  -2.182384285231380E-4  
 2.009000000000000E10   -4.260564613218621E-3   5.785387281018000E-4  
 2.009200000000000E10   -4.151510040880027E-3   1.339113211389555E-3  
 2.009400000000000E10   -3.931498172883308E-3   2.128946662922639E-3  
 2.009600000000000E10   -3.434950128754676E-3   2.946787716920484E-3  
 2.009800000000000E10   -2.659846617506794E-3   3.518988162762038E-3  
 2.010000000000000E10   -1.847306154323397E-3   3.826944779321061E-3  
 2.010200000000000E10   -1.098295140517071E-3   3.974838700370330E-3  
 2.010400000000000E10   -4.344121041191571E-4   3.964724371769301E-3  
 2.010600000000000E10    1.525895229596418E-4   3.852079405905411E-3  
 2.010800000000000E10    6.443208528411754E-4   3.726811669460295E-3  
 2.011000000000000E10    1.153611246048025E-3   3.672027705551543E-3  
 2.011200000000000E10    1.764851425702854E-3   3.587980361512271E-3  
 2.011400000000000E10    2.425938401056968E-3   3.333116033905287E-3  
 2.011600000000000E10    3.080352378781727E-3   2.860849771446795E-3  
 2.011800000000000E10    3.614405965348208E-3   2.142999966057792E-3  
 2.012000000000000E10    3.875676840824805E-3   1.354140558967364E-3  
 2.012200000000000E10    3.949002318074020E-3   7.065241050999741E-4  
 2.012400000000000E10    4.042823342235941E-3   1.303408887567354E-4  
 2.012600000000000E10    4.085662243926109E-3  -5.810243344740542E-4  
 2.012800000000000E10    3.937083920553348E-3  -1.371409649965807E-3  
 2.013000000000000E10    3.591674565885661E-3  -2.104229862905211E-3  
 2.013200000000000E10    3.114605353779795E-3  -2.676384543632100E-3  
 2.013400000000000E10    2.615008733154815E-3  -3.123471885153051E-3  
 2.013600000000000E10    2.014869972565231E-3  -3.580954694923714E-3  
 2.013800000000000E10    1.247790156459929E-3  -3.931210421035974E-3  
 2.014000000000000E10    4.135731936480969E-4  -4.035728302016466E-3  
 2.014200000000000E10   -3.395327661519893E-4  -3.892202866717213E-3  
 2.014400000000000E10   -9.011666700710253E-4  -3.632878352580043E-3  
 2.014600000000000E10   -1.411628447580362E-3  -3.417515933362893E-3  
 2.014800000000000E10   -1.974355607626983E-3  -3.143347145680375E-3  
 2.015000000000000E10   -2.457517784329027E-3  -2.732342881673056E-3  
 2.015200000000000E10   -2.789793914217190E-3  -2.281250771319057E-3  
 2.015400000000000E10   -3.094863053922260E-3  -1.821488416364062E-3  
 2.015600000000000E10   -3.371481266606022E-3  -1.279483964335843E-3  
 2.015800000000000E10   -3.583084018671035E-3  -6.992464668094469E-4  
 2.016000000000000E10   -3.714140784698035E-3  -5.609344549750817E-5  
 2.016200000000000E10   -3.675104945767748E-3   6.123344455935082E-4  
 2.016400000000000E10   -3.476839533665912E-3   1.274503416008736E-3  
 2.016600000000000E10   -3.153202626011009E-3   1.871961066103317E-3  
 2.016800000000000E10   -2.761794336584738E-3   2.378065872998763E-3  
 2.017000000000000E10   -2.315862089924423E-3   2.812520975811696E-3  
 2.017200000000000E10   -1.732610823843368E-3   3.150895020741822E-3  
 2.017400000000000E10   -1.067845633816209E-3   3.293279686493005E-3  
 2.017600000000000E10   -4.970081182989128E-4   3.286409137492031E-3  
 2.017800000000000E10   -6.631422587970614E-5   3.271999669584494E-3  
 2.018000000000000E10    3.640431293464599E-4   3.271879573366688E-3  
 2.018200000000000E10    8.355496359914951E-4   3.219875881693675E-3  
 2.018400000000000E10    1.334721772977508E-3   3.132410236954976E-3  
 2.018600000000000E10    1.891637679932969E-3   2.966352465047677E-3  
 2.018800000000000E10    2.461965692795517E-3   2.694400123848142E-3  
 2.019000000000000E10    2.986843761922831E-3   2.256077187760530E-3  
 2.019200000000000E10    3.396914593188095E-3   1.660276754964935E-3  
 2.019400000000000E10    3.691633509801617E-3   9.691624427744444E-4  
 2.019600000000000E10    3.861851525200412E-3   2.126569536467312E-4  
 2.019800000000000E10    3.818383232456606E-3  -5.598518022831750E-4  
 2.020000000000000E10    3.554810607289725E-3  -1.277095066838283E-3  
 2.020200000000000E10    3.110305858080995E-3  -1.853351066539266E-3  
 2.020400000000000E10    2.652986253648793E-3  -2.248560706989020E-3  
 2.020600000000000E10    2.270862294376326E-3  -2.553557386220688E-3  
 2.020800000000000E10    1.855237366195988E-3  -2.839368390844335E-3  
 2.021000000000000E10    1.418824323430014E-3  -2.992557648209081E-3  
 2.021200000000000E10    1.062780629366953E-3  -3.180239390484754E-3  
 2.021400000000000E10    5.812711291275766E-4  -3.512506776288745E-3  
 2.021600000000000E10   -1.114102525445563E-4  -3.726211727490785E-3  
 2.021800000000000E10   -8.582559529824800E-4  -3.658001571740389E-3  
 2.022000000000000E10   -1.482280173411769E-3  -3.388410817706557E-3  
 2.022200000000000E10   -2.012297602923554E-3  -3.094256456317930E-3  
 2.022400000000000E10   -2.546022923354096E-3  -2.760372372134621E-3  
 2.022600000000000E10   -3.073208593598610E-3  -2.307582368425238E-3  
 2.022800000000000E10   -3.463319558343648E-3  -1.724487186226846E-3  
 2.023000000000000E10   -3.710365996968170E-3  -1.047457630627256E-3  
 2.023200000000000E10   -3.846896427781903E-3  -3.283934490288901E-4  
 2.023400000000000E10   -3.849941399076185E-3   3.909653690496694E-4  
 2.023600000000000E10   -3.688519530570639E-3   1.057444604379425E-3  
 2.023800000000000E10   -3.418109280699852E-3   1.657693026445561E-3  
 2.024000000000000E10   -3.063715067506859E-3   2.213691402129594E-3  
 2.024200000000000E10   -2.613585632657237E-3   2.706712382668004E-3  
 2.024400000000000E10   -2.118260636082525E-3   3.083644405426394E-3  
 2.024600000000000E10   -1.608522962433873E-3   3.395239379581458E-3  
 2.024800000000000E10   -9.886336636465091E-4   3.629264501926320E-3  
 2.025000000000000E10   -2.859399327161928E-4   3.710390845650938E-3  
 2.025200000000000E10    3.348838494255736E-4   3.666134327598969E-3  
 2.025400000000000E10    8.777804700344731E-4   3.608469475400526E-3  
 2.025600000000000E10    1.481186304546750E-3   3.493789622728779E-3  
 2.025800000000000E10    2.115811779264704E-3   3.187133761350225E-3  
 2.026000000000000E10    2.672106600257943E-3   2.721484336588118E-3  
 2.026200000000000E10    3.099370957639667E-3   2.188464658927628E-3  
 2.026400000000000E10    3.401210560656278E-3   1.633882142516525E-3  
 2.026600000000000E10    3.610607957153164E-3   1.044063922784334E-3  
 2.026800000000000E10    3.718669770288043E-3   3.795360158477362E-4  
 2.027000000000000E10    3.686532496688032E-3  -3.528142769438368E-4  
 2.027200000000000E10    3.463303860959141E-3  -9.812725821589166E-4  
 2.027400000000000E10    3.192250835626235E-3  -1.426694098833197E-3  
 2.027600000000000E10    2.916232849802153E-3  -1.816701563650076E-3  
 2.027800000000000E10    2.622428777166458E-3  -2.171686022965282E-3  
 2.028000000000000E10    2.336861268362984E-3  -2.555161075467252E-3  
 2.028200000000000E10    1.986100416329009E-3  -2.964784149770384E-3  
 2.028400000000000E10    1.558480357121426E-3  -3.331347399318415E-3  
 2.028600000000000E10    9.909827357658860E-4  -3.632217290171197E-3  
 2.028800000000000E10    2.865242504799644E-4  -3.802559837387219E-3  
 2.029000000000000E10   -4.198098635372537E-4  -3.844838998240863E-3  
 2.029200000000000E10   -1.134121390500340E-3  -3.798498750366629E-3  
 2.029400000000000E10   -1.889773426687317E-3  -3.534198200792607E-3  
 2.029600000000000E10   -2.530100677144524E-3  -3.002273011122242E-3  
 2.029800000000000E10   -2.888956166285158E-3  -2.385317486875649E-3  
 2.030000000000000E10   -3.141221816463726E-3  -1.905086733572012E-3  
 2.030200000000000E10   -3.429305261902931E-3  -1.436003762813456E-3  
 2.030400000000000E10   -3.634652118064433E-3  -8.220100187375857E-4  
 2.030600000000000E10   -3.611806135583767E-3  -1.572239228381503E-4  
 2.030800000000000E10   -3.504816601461692E-3   4.065500172934609E-4  
 2.031000000000000E10   -3.392327187866464E-3   9.010507343036722E-4  
 2.031200000000000E10   -3.263521373248947E-3   1.367765215458029E-3  
 2.031400000000000E10   -3.080800036734944E-3   1.868038364802328E-3  
 2.031600000000000E10   -2.789758056062383E-3   2.407472313666622E-3  
 2.031800000000000E10   -2.344863619898102E-3   2.903516293185238E-3  
 2.032000000000000E10   -1.833792481397692E-3   3.277023147538673E-3  
 2.032200000000000E10   -1.304533597035909E-3   3.572426816520112E-3  
 2.032400000000000E10   -6.765556175661606E-4   3.742019345010382E-3  
 2.032600000000000E10   -2.001418767198959E-5   3.811175444077788E-3  
 2.032800000000000E10    6.790335530629805E-4   3.828036993938730E-3  
 2.033000000000000E10    1.388569642880367E-3   3.675453495476984E-3  
 2.033200000000000E10    2.018911982484070E-3   3.370474160691042E-3  
 2.033400000000000E10    2.624898949645675E-3   2.947296993232069E-3  
 2.033600000000000E10    2.895784359910770E-3   2.624096538276196E-3  
 2.033800000000000E10    3.466737584373180E-3   1.618731428871624E-3  
 2.034000000000000E10    3.591472438545528E-3   9.337680648107834E-4  
 2.034200000000000E10    3.530873276679094E-3   3.096544263955968E-4  
 2.034400000000000E10    3.334082740988833E-3  -2.409538746850894E-4  
 2.034600000000000E10    3.138653724166899E-3  -6.629758434937387E-4  
 2.034800000000000E10    3.038870366175234E-3  -1.007875497149501E-3  
 2.035000000000000E10    2.962052310779896E-3  -1.407090564921437E-3  
 2.035200000000000E10    2.789632141952939E-3  -1.889569937016442E-3  
 2.035400000000000E10    2.481161528592738E-3  -2.372249512165397E-3  
 2.035600000000000E10    2.058867901686288E-3  -2.818447493325884E-3  
 2.035800000000000E10    1.548517444292378E-3  -3.210164335414522E-3  
 2.036000000000000E10    9.622035487567744E-4  -3.451741579345164E-3  
 2.036200000000000E10    3.441199475857182E-4  -3.547557447596220E-3  
 2.036400000000000E10   -3.319313865527383E-4  -3.544372809854105E-3  
 2.036600000000000E10   -1.011601390524043E-3  -3.405841129713160E-3  
 2.036800000000000E10   -1.579330092141423E-3  -3.085446503110465E-3  
 2.037000000000000E10   -1.983059284025587E-3  -2.685243224556493E-3  
 2.037200000000000E10   -2.291292508180025E-3  -2.293272958608505E-3  
 2.037400000000000E10   -2.550701008067148E-3  -1.922271263291255E-3  
 2.037600000000000E10   -2.841676722072444E-3  -1.565863202205912E-3  
 2.037800000000000E10   -3.136771332487894E-3  -1.123704724441780E-3  
 2.038000000000000E10   -3.311221477280490E-3  -5.616031990185973E-4  
 2.038200000000000E10   -3.312087569907002E-3   5.302684657391934E-5  
 2.038400000000000E10   -3.231186820871219E-3   6.235571355694352E-4  
 2.038600000000000E10   -3.089429919872388E-3   1.155049810780082E-3  
 2.038800000000000E10   -2.867291540300937E-3   1.636230490114208E-3  
 2.039000000000000E10   -2.550563442205247E-3   2.091358698756321E-3  
 2.039200000000000E10   -2.106449012970361E-3   2.484172881888775E-3  
 2.039400000000000E10   -1.626002424542214E-3   2.734881689048926E-3  
 2.039600000000000E10   -1.249078747277265E-3   2.931237271546153E-3  
 2.039800000000000E10   -8.050291312747319E-4   3.144765416778553E-3  
 2.040000000000000E10   -2.598510359254869E-4   3.229456894299009E-3  
 2.040200000000000E10    2.873445662145410E-4   3.230804308868220E-3  
 2.040400000000000E10    8.697307634132882E-4   3.185310816540497E-3  
 2.040600000000000E10    1.448285870224657E-3   3.001093687821789E-3  
 2.040800000000000E10    1.955621649698956E-3   2.700464792654368E-3  
 2.041000000000000E10    2.422554659579251E-3   2.305669201581403E-3  
 2.041200000000000E10    2.787486122427981E-3   1.800495036334740E-3  
 2.041400000000000E10    3.046301115925114E-3   1.267754648932204E-3  
 2.041600000000000E10    3.209878710023191E-3   7.087720705921902E-4  
 2.041800000000000E10    3.207616116442758E-3   8.036795825144468E-5  
 2.042000000000000E10    3.016961810328527E-3  -4.968461463600270E-4  
 2.042200000000000E10    2.755514304223886E-3  -9.641748783082814E-4  
 2.042400000000000E10    2.482359366241041E-3  -1.290737988397898E-3  
 2.042600000000000E10    2.246896350189063E-3  -1.544376499714542E-3  
 2.042800000000000E10    2.022076753608178E-3  -1.785488765838777E-3  
 2.043000000000000E10    1.813360396644870E-3  -2.034430635137425E-3  
 2.043200000000000E10    1.573404390812023E-3  -2.349813290538244E-3  
 2.043400000000000E10    1.224561607840743E-3  -2.681341956450064E-3  
 2.043600000000000E10    8.231182633777788E-4  -2.922606140576988E-3  
 2.043800000000000E10    3.071030770653325E-4  -3.123580967108062E-3  
 2.044000000000000E10   -3.696989161629916E-4  -3.203520510123407E-3  
 2.044200000000000E10   -1.074058031989070E-3  -3.074411069335537E-3  
 2.044400000000000E10   -1.690930262430276E-3  -2.727968253537666E-3  
 2.044600000000000E10   -2.132597285807031E-3  -2.188847228739058E-3  
 2.044800000000000E10   -2.294117238932125E-3  -1.655847349508177E-3  
 2.045000000000000E10   -2.343688336480793E-3  -1.282310223977231E-3  
 2.045200000000000E10   -2.450238984200812E-3  -9.786920871589443E-4  
 2.045400000000000E10   -2.561985681456896E-3  -6.719393592898892E-4  
 2.045600000000000E10   -2.633404183113342E-3  -3.764981835753504E-4  
 2.045800000000000E10   -2.748349790087044E-3   7.867088202527490E-6  
 2.046000000000000E10   -2.791946939740775E-3   5.357604007050140E-4  
 2.046200000000000E10   -2.672061592082408E-3   1.037984037425609E-3  
 2.046400000000000E10   -2.463364156361655E-3   1.489333371984401E-3  
 2.046600000000000E10   -2.161043164970556E-3   1.914563879437122E-3  
 2.046800000000000E10   -1.772230864880640E-3   2.265734163998270E-3  
 2.047000000000000E10   -1.314493889162836E-3   2.546323855204408E-3  
 2.047200000000000E10   -8.394500351349974E-4   2.686955517640820E-3  
 2.047400000000000E10   -4.301495019768701E-4   2.712839763402040E-3  
 2.047600000000000E10   -4.171194906583806E-5   2.696786623892716E-3  
 2.047800000000000E10    3.797127382586415E-4   2.691023082399565E-3  
 2.048000000000000E10    8.356980688005064E-4   2.629604070180381E-3  
 2.048200000000000E10    1.270052885083515E-3   2.466161130443318E-3  
 2.048400000000000E10    1.654961527758297E-3   2.198167948821364E-3  
 2.048600000000000E10    1.964977499102696E-3   1.877915310425574E-3  
 2.048800000000000E10    2.223578616414623E-3   1.515213280835730E-3  
 2.049000000000000E10    2.399818256333859E-3   1.148246730925626E-3  
 2.049200000000000E10    2.541035962123705E-3   8.561549469827329E-4  
 2.049400000000000E10    2.671435249545222E-3   5.283782897237306E-4  
 2.049600000000000E10    2.774404763628631E-3   1.263206456460916E-4  
 2.049800000000000E10    2.879337535402004E-3  -2.896582378458266E-4  
 2.050000000000000E10    2.999349864230419E-3  -7.874698964054909E-4  
 2.050200000000000E10    3.011739135378735E-3  -1.445345686453514E-3  
 2.050400000000000E10    2.756508288902470E-3  -2.197252720625068E-3  
 2.050600000000000E10    2.187748926350610E-3  -2.868288310643271E-3  
 2.050800000000000E10    1.387955330086129E-3  -3.309360939424245E-3  
 2.051000000000000E10    5.354504466672596E-4  -3.425381136470474E-3  
 2.051200000000000E10   -1.907445112808923E-4  -3.219204873040789E-3  
 2.051400000000000E10   -6.901799496429346E-4  -2.858961470213059E-3  
 2.051600000000000E10   -9.944911164535652E-4  -2.561757378075758E-3  
 2.051800000000000E10   -1.255546883163803E-3  -2.401226111374724E-3  
 2.052000000000000E10   -1.614915497188389E-3  -2.209626463023417E-3  
 2.052200000000000E10   -1.931752624700488E-3  -1.862912644652602E-3  
 2.052400000000000E10   -2.085068408433036E-3  -1.490270973640572E-3  
 2.052600000000000E10   -2.170560146274431E-3  -1.231416386158675E-3  
 2.052800000000000E10   -2.366392364768907E-3  -1.057095675082783E-3  
 2.053000000000000E10   -2.655149009193719E-3  -7.676203855420675E-4  
 2.053200000000000E10   -2.858006633659736E-3  -3.241785210768076E-4  
 2.053400000000000E10   -2.990293262567275E-3   2.160327695206317E-4  
 2.053600000000000E10   -2.993709638341751E-3   8.558968679477374E-4  
 2.053800000000000E10   -2.783123453292071E-3   1.511257936774315E-3  
 2.054000000000000E10   -2.339298561578221E-3   2.028957884426553E-3  
 2.054200000000000E10   -1.834616813341102E-3   2.325670517066338E-3  
 2.054400000000000E10   -1.380022386515664E-3   2.512997726300432E-3  
 2.054600000000000E10   -9.403291317431157E-4   2.660314222562685E-3  
 2.054800000000000E10   -4.874190545720094E-4   2.746597013215245E-3  
 2.055000000000000E10   -3.682503827102737E-5   2.680975618351900E-3  
 2.055200000000000E10    3.144567718091249E-4   2.549040371127969E-3  
 2.055400000000000E10    6.238544907226690E-4   2.488188781559631E-3  
 2.055600000000000E10    9.910967066853382E-4   2.456803109231105E-3  
