#  HZ   S   RI   R     50.00 
! Rohde & Schwarz ZVA40 4Ports - Version 3.90 - 1145.1110k42 SN: 100403
! Date: 2023-10-03 12:03:40
! Measurement: S12 
! 
 2.000000000000000E10   -1.724277817981448E-3  -3.214515751388706E-3  
 2.000200000000000E10   -2.192218971933112E-3  -2.925882023019495E-3  
 2.000400000000000E10   -2.606278043930178E-3  -2.515562202536153E-3  
 2.000600000000000E10   -2.935152044788065E-3  -2.079049498992570E-3  
 2.000800000000000E10   -3.197003754790980E-3  -1.667791284302656E-3  
 2.001000000000000E10   -3.491757305361975E-3  -1.258101218970255E-3  
 2.001200000000000E10   -3.832025357633216E-3  -7.152763631773555E-4  
 2.001400000000000E10   -4.075731338603507E-3   2.197814786614114E-5  
 2.001600000000000E10   -4.063205906561742E-3   8.766382765944727E-4  
 2.001800000000000E10   -3.796617916321436E-3   1.619721768105809E-3  
 2.002000000000000E10   -3.391739048079086E-3   2.241242246763636E-3  
 2.002200000000000E10   -2.875316806651132E-3   2.787205023660398E-3  
 2.002400000000000E10   -2.332062493059248E-3   3.236151681714711E-3  
 2.002600000000000E10   -1.707846463615757E-3   3.553592853838341E-3  
 2.002800000000000E10   -1.087458214507948E-3   3.731208160680570E-3  
 2.003000000000000E10   -4.402672457067994E-4   3.801088121915121E-3  
 2.003200000000000E10    1.481093148954324E-4   3.777788849470854E-3  
 2.003400000000000E10    7.204803000510874E-4   3.715074570358965E-3  
 2.003600000000000E10    1.265368368304162E-3   3.567280728799203E-3  
 2.003800000000000E10    1.779136718384952E-3   3.339067474199237E-3  
 2.004000000000000E10    2.281712597128725E-3   3.068160387369280E-3  
 2.004200000000000E10    2.794979652773145E-3   2.671496078387332E-3  
 2.004400000000000E10    3.215746359071798E-3   2.174165033746833E-3  
 2.004600000000000E10    3.538683944078999E-3   1.638800346526344E-3  
 2.004800000000000E10    3.795313347062028E-3   1.079023855454729E-3  
 2.005000000000000E10    4.009083340733999E-3   4.055351871659850E-4  
 2.005200000000000E10    4.038157487679044E-3  -3.414827812397892E-4  
 2.005400000000000E10    3.923068525376942E-3  -9.940757781244172E-4  
 2.005600000000000E10    3.780471263530017E-3  -1.606650959504884E-3  
 2.005800000000000E10    3.524954468126835E-3  -2.272633427501093E-3  
 2.006000000000000E10    3.062882424244053E-3  -2.950932385990159E-3  
 2.006200000000000E10    2.417319376642506E-3  -3.487903552911717E-3  
 2.006400000000000E10    1.672105072736894E-3  -3.789626746036021E-3  
 2.006600000000000E10    9.726447287042449E-4  -3.922688169213234E-3  
 2.006800000000000E10    3.203327752939146E-4  -3.937502741361414E-3  
 2.007000000000000E10   -2.933874080861142E-4  -3.898718758436388E-3  
 2.007200000000000E10   -8.970776856915237E-4  -3.807251465242403E-3  
 2.007400000000000E10   -1.467161310775351E-3  -3.639455866490188E-3  
 2.007600000000000E10   -2.047283859030486E-3  -3.393673177026673E-3  
 2.007800000000000E10   -2.593377419199351E-3  -2.974762818910213E-3  
 2.008000000000000E10   -3.001816896530091E-3  -2.488852628993461E-3  
 2.008200000000000E10   -3.318357050472511E-3  -2.016587964730498E-3  
 2.008400000000000E10   -3.656114768735114E-3  -1.558914941107019E-3  
 2.008600000000000E10   -4.005655866698842E-3  -9.368092251401167E-4  
 2.008800000000000E10   -4.178417913631035E-3  -1.391316928289718E-4  
 2.009000000000000E10   -4.126093883082701E-3   6.547920243458157E-4  
 2.009200000000000E10   -3.955720439974848E-3   1.346442322898273E-3  
 2.009400000000000E10   -3.741065076640482E-3   2.009921677510251E-3  
 2.009600000000000E10   -3.334713847771165E-3   2.769836426785393E-3  
 2.009800000000000E10   -2.640037555937414E-3   3.358237135871755E-3  
 2.010000000000000E10   -1.885951488516428E-3   3.678575796247633E-3  
 2.010200000000000E10   -1.158831904090389E-3   3.811902385741596E-3  
 2.010400000000000E10   -5.334514821304676E-4   3.787342598853411E-3  
 2.010600000000000E10   -5.506469275028170E-6   3.730433856025952E-3  
 2.010800000000000E10    4.924029417751825E-4   3.700016593414938E-3  
 2.011000000000000E10    1.057242232551147E-3   3.675638346400097E-3  
 2.011200000000000E10    1.675956341181211E-3   3.575569643435901E-3  
 2.011400000000000E10    2.337030828796297E-3   3.313774499781584E-3  
 2.011600000000000E10    3.007490629590895E-3   2.840091116964020E-3  
 2.011800000000000E10    3.513917731266822E-3   2.146616930701606E-3  
 2.012000000000000E10    3.740709243388272E-3   1.402767025865614E-3  
 2.012200000000000E10    3.794858066380454E-3   7.863856965595467E-4  
 2.012400000000000E10    3.874734590220967E-3   2.376876270576714E-4  
 2.012600000000000E10    3.944071602850478E-3  -4.190528802928197E-4  
 2.012800000000000E10    3.863131454973310E-3  -1.161536922843154E-3  
 2.013000000000000E10    3.593735462016285E-3  -1.875596710695376E-3  
 2.013200000000000E10    3.182167173918997E-3  -2.476495154079342E-3  
 2.013400000000000E10    2.715413243061415E-3  -2.995532833867604E-3  
 2.013600000000000E10    2.116502514645580E-3  -3.490466063980152E-3  
 2.013800000000000E10    1.370503744896149E-3  -3.851166104230985E-3  
 2.014000000000000E10    5.544959342321803E-4  -3.956369134892591E-3  
 2.014200000000000E10   -1.789482052924388E-4  -3.811334333585676E-3  
 2.014400000000000E10   -7.126429712269533E-4  -3.582947231146964E-3  
 2.014600000000000E10   -1.197349669128166E-3  -3.433096450619369E-3  
 2.014800000000000E10   -1.744981427339707E-3  -3.235781343017587E-3  
 2.015000000000000E10   -2.259480489088307E-3  -2.915074463374147E-3  
 2.015200000000000E10   -2.714476356505122E-3  -2.521157671923562E-3  
 2.015400000000000E10   -3.136341109365961E-3  -2.030397192364245E-3  
 2.015600000000000E10   -3.471715623942116E-3  -1.449598109161811E-3  
 2.015800000000000E10   -3.703853920286085E-3  -8.095245541997041E-4  
 2.016000000000000E10   -3.803696051247633E-3  -1.091677349081374E-4  
 2.016200000000000E10   -3.717657942286551E-3   5.968028258861891E-4  
 2.016400000000000E10   -3.498043039039452E-3   1.238190568025404E-3  
 2.016600000000000E10   -3.193145629340484E-3   1.808357488271999E-3  
 2.016800000000000E10   -2.825670602535945E-3   2.306095769038662E-3  
 2.017000000000000E10   -2.396793797451221E-3   2.733909545098374E-3  
 2.017200000000000E10   -1.845709740954601E-3   3.102030262059759E-3  
 2.017400000000000E10   -1.220684690178667E-3   3.296535137327917E-3  
 2.017600000000000E10   -6.595958137325177E-4   3.354902072606509E-3  
 2.017800000000000E10   -1.812786888019776E-4   3.356803694372009E-3  
 2.018000000000000E10    2.931058824823119E-4   3.364570122672085E-3  
 2.018200000000000E10    7.936469003282213E-4   3.335409149059973E-3  
 2.018400000000000E10    1.355967777129646E-3   3.246455206133334E-3  
 2.018600000000000E10    1.937651634024679E-3   3.027837119858575E-3  
 2.018800000000000E10    2.469541930398088E-3   2.710152276573174E-3  
 2.019000000000000E10    2.964792533589857E-3   2.281156970272339E-3  
 2.019200000000000E10    3.385565831007843E-3   1.723065208202926E-3  
 2.019400000000000E10    3.705005102058866E-3   1.052553225078701E-3  
 2.019600000000000E10    3.868754800800005E-3   3.080548683359622E-4  
 2.019800000000000E10    3.839533593038044E-3  -4.655066996174692E-4  
 2.020000000000000E10    3.601277118679061E-3  -1.184571412710067E-3  
 2.020200000000000E10    3.202444941778918E-3  -1.780972616275612E-3  
 2.020400000000000E10    2.790485181052376E-3  -2.197832988245497E-3  
 2.020600000000000E10    2.433026980785002E-3  -2.559368709416547E-3  
 2.020800000000000E10    1.985331766361011E-3  -2.927005911866824E-3  
 2.021000000000000E10    1.480205522547380E-3  -3.132990597835417E-3  
 2.021200000000000E10    1.070957646203139E-3  -3.326943294631908E-3  
 2.021400000000000E10    5.573995436307949E-4  -3.602163223243116E-3  
 2.021600000000000E10   -1.181165567132618E-4  -3.758293115668030E-3  
 2.021800000000000E10   -8.429311205816951E-4  -3.689940037673393E-3  
 2.022000000000000E10   -1.458975631138119E-3  -3.468469179085928E-3  
 2.022200000000000E10   -2.045780408805536E-3  -3.206420868037292E-3  
 2.022400000000000E10   -2.645704159398138E-3  -2.863893041065262E-3  
 2.022600000000000E10   -3.198807209216580E-3  -2.342530845285014E-3  
 2.022800000000000E10   -3.566728983411697E-3  -1.691244856872186E-3  
 2.023000000000000E10   -3.782908447516063E-3  -1.033135011903329E-3  
 2.023200000000000E10   -3.936333844338549E-3  -3.621060591753489E-4  
 2.023400000000000E10   -3.953668873358534E-3   3.878934737179935E-4  
 2.023600000000000E10   -3.788986732922648E-3   1.103470927878540E-3  
 2.023800000000000E10   -3.512447348263100E-3   1.732633108035528E-3  
 2.024000000000000E10   -3.146477665468560E-3   2.366417171931807E-3  
 2.024200000000000E10   -2.609956947274108E-3   2.904381919192311E-3  
 2.024400000000000E10   -2.013088371643007E-3   3.239351812435829E-3  
 2.024600000000000E10   -1.467572238177460E-3   3.468988524604237E-3  
 2.024800000000000E10   -8.948256322489325E-4   3.661676249639304E-3  
 2.025000000000000E10   -2.621822493915435E-4   3.752274024817680E-3  
 2.025200000000000E10    3.447393079982006E-4   3.752618028740150E-3  
 2.025400000000000E10    9.660635741404547E-4   3.699102579834469E-3  
 2.025600000000000E10    1.648241757518716E-3   3.502704866169167E-3  
 2.025800000000000E10    2.283304333763481E-3   3.090026780748319E-3  
 2.026000000000000E10    2.753036113938800E-3   2.568492773199768E-3  
 2.026200000000000E10    3.079461925490587E-3   2.059506521648402E-3  
 2.026400000000000E10    3.352177787357520E-3   1.568539439865346E-3  
 2.026600000000000E10    3.587902655802024E-3   1.026942126870677E-3  
 2.026800000000000E10    3.753897819261799E-3   3.882278534947846E-4  
 2.027000000000000E10    3.752988225630956E-3  -3.291469828106861E-4  
 2.027200000000000E10    3.530546200726136E-3  -9.589606930536254E-4  
 2.027400000000000E10    3.271860338808824E-3  -1.437528591618372E-3  
 2.027600000000000E10    2.998518039867160E-3  -1.876749077221617E-3  
 2.027800000000000E10    2.679945362555515E-3  -2.284996638864034E-3  
 2.028000000000000E10    2.368159551909309E-3  -2.692689689895744E-3  
 2.028200000000000E10    1.969574547733023E-3  -3.132312921730518E-3  
 2.028400000000000E10    1.458048787918479E-3  -3.484507772588620E-3  
 2.028600000000000E10    8.591441619650697E-4  -3.739115317378945E-3  
 2.028800000000000E10    2.026079409578988E-4  -3.884676523859241E-3  
 2.029000000000000E10   -4.675800212871652E-4  -3.931490687170515E-3  
 2.029200000000000E10   -1.212956551021663E-3  -3.883902951231832E-3  
 2.029400000000000E10   -2.001120741939011E-3  -3.593710263608477E-3  
 2.029600000000000E10   -2.660775198811980E-3  -3.034801618100256E-3  
 2.029800000000000E10   -3.054042286412032E-3  -2.367580735887336E-3  
 2.030000000000000E10   -3.268042346462608E-3  -1.828425280259225E-3  
 2.030200000000000E10   -3.497071286333810E-3  -1.330416617002875E-3  
 2.030400000000000E10   -3.695245270728453E-3  -7.297969195673650E-4  
 2.030600000000000E10   -3.708469436155180E-3  -7.632230278839927E-5  
 2.030800000000000E10   -3.607726013939445E-3   5.078151632376292E-4  
 2.031000000000000E10   -3.445371577263247E-3   1.035847055338661E-3  
 2.031200000000000E10   -3.250570245347765E-3   1.492866530531535E-3  
 2.031400000000000E10   -3.038144845768442E-3   1.983603425208985E-3  
 2.031600000000000E10   -2.716338592523962E-3   2.516631959696059E-3  
 2.031800000000000E10   -2.251904086045032E-3   2.960184440514985E-3  
 2.032000000000000E10   -1.735318260010593E-3   3.283060961613747E-3  
 2.032200000000000E10   -1.194593106653281E-3   3.524267907089596E-3  
 2.032400000000000E10   -6.127454004626063E-4   3.686443017220792E-3  
 2.032600000000000E10   -2.744772343993584E-5   3.781993449914726E-3  
 2.032800000000000E10    6.229954770739371E-4   3.828191478188637E-3  
 2.033000000000000E10    1.318185032563813E-3   3.696860058555082E-3  
 2.033200000000000E10    1.973148675850083E-3   3.420055238338410E-3  
 2.033400000000000E10    2.606524549302006E-3   3.008057494597978E-3  
 2.033600000000000E10    2.880007646586976E-3   2.692486097223658E-3  
 2.033800000000000E10    3.464628039732760E-3   1.717989993618932E-3  
 2.034000000000000E10    3.609778053882253E-3   1.043305847527452E-3  
 2.034200000000000E10    3.611513980714137E-3   3.990961510377626E-4  
 2.034400000000000E10    3.512728876921008E-3  -1.723174812509813E-4  
 2.034600000000000E10    3.365571026157573E-3  -6.383434093725934E-4  
 2.034800000000000E10    3.248484088529531E-3  -1.060097381556905E-3  
 2.035000000000000E10    3.108832702508251E-3  -1.522668476845042E-3  
 2.035200000000000E10    2.873985275986448E-3  -2.038483741720027E-3  
 2.035400000000000E10    2.507711319950383E-3  -2.522726210769374E-3  
 2.035600000000000E10    2.062784538531500E-3  -2.936045672752178E-3  
 2.035800000000000E10    1.564727923181292E-3  -3.293094908389352E-3  
 2.036000000000000E10    9.602725830641979E-4  -3.555009703040737E-3  
 2.036200000000000E10    2.658561844840539E-4  -3.702649306275963E-3  
 2.036400000000000E10   -4.802665324908502E-4  -3.678649794233680E-3  
 2.036600000000000E10   -1.162875300453432E-3  -3.426090748060817E-3  
 2.036800000000000E10   -1.667119303925170E-3  -3.024142810407981E-3  
 2.037000000000000E10   -2.004636724195884E-3  -2.625170701332851E-3  
 2.037200000000000E10   -2.293813709215618E-3  -2.272894512095447E-3  
 2.037400000000000E10   -2.562668031740765E-3  -1.926204490517516E-3  
 2.037600000000000E10   -2.833010400779577E-3  -1.592958685194637E-3  
 2.037800000000000E10   -3.125472070932880E-3  -1.174698882724768E-3  
 2.038000000000000E10   -3.359471926841226E-3  -6.186484678748060E-4  
 2.038200000000000E10   -3.439908991893562E-3   2.163072771688832E-5  
 2.038400000000000E10   -3.377598515853532E-3   6.223023138986327E-4  
 2.038600000000000E10   -3.222248729686311E-3   1.208330839469937E-3  
 2.038800000000000E10   -2.932237672960624E-3   1.768322875665754E-3  
 2.039000000000000E10   -2.495670195768584E-3   2.214218358559067E-3  
 2.039200000000000E10   -2.035124664321359E-3   2.522889264081241E-3  
 2.039400000000000E10   -1.629388494486059E-3   2.751450712597113E-3  
 2.039600000000000E10   -1.255827804513797E-3   2.997381421028342E-3  
 2.039800000000000E10   -7.379721814705206E-4   3.242874022672882E-3  
 2.040000000000000E10   -1.112783675350250E-4   3.323513268083028E-3  
 2.040200000000000E10    4.676098317538347E-4   3.256604540134961E-3  
 2.040400000000000E10    9.918480377582980E-4   3.103192352379362E-3  
 2.040600000000000E10    1.477441591413792E-3   2.886686793149070E-3  
 2.040800000000000E10    1.932507930821720E-3   2.596858532432421E-3  
 2.041000000000000E10    2.354839601105562E-3   2.219680689060639E-3  
 2.041200000000000E10    2.711131199121230E-3   1.765364645922810E-3  
 2.041400000000000E10    2.981836870197714E-3   1.251368900787837E-3  
 2.041600000000000E10    3.150069478653954E-3   6.752147151486865E-4  
 2.041800000000000E10    3.147530418326274E-3   3.631310353013437E-5  
 2.042000000000000E10    2.960024205124612E-3  -5.146960427011115E-4  
 2.042200000000000E10    2.706775866226589E-3  -9.281552813989362E-4  
 2.042400000000000E10    2.456448015990694E-3  -1.229447783584182E-3  
 2.042600000000000E10    2.246156526507174E-3  -1.504166333920825E-3  
 2.042800000000000E10    1.991530102313547E-3  -1.776228023600984E-3  
 2.043000000000000E10    1.730674138549455E-3  -2.008736125910233E-3  
 2.043200000000000E10    1.472239990990778E-3  -2.244532690862570E-3  
 2.043400000000000E10    1.182526050120163E-3  -2.487153531561909E-3  
 2.043600000000000E10    8.721028985417308E-4  -2.715911952886010E-3  
 2.043800000000000E10    4.400743548605025E-4  -2.987694229984296E-3  
 2.044000000000000E10   -1.721024475098251E-4  -3.168488413846665E-3  
 2.044200000000000E10   -8.819277722622297E-4  -3.128759603211542E-3  
 2.044400000000000E10   -1.560813099636463E-3  -2.828505058838016E-3  
 2.044600000000000E10   -2.053781278879830E-3  -2.296947716033938E-3  
 2.044800000000000E10   -2.254906689188608E-3  -1.730691001524406E-3  
 2.045000000000000E10   -2.306521668026048E-3  -1.315234144651350E-3  
 2.045200000000000E10   -2.382753049924111E-3  -1.022144785120225E-3  
 2.045400000000000E10   -2.497997996301501E-3  -7.406015388874544E-4  
 2.045600000000000E10   -2.632490843112884E-3  -4.326807605217637E-4  
 2.045800000000000E10   -2.785518117739586E-3  -1.275935508212583E-5  
 2.046000000000000E10   -2.802607907104946E-3   5.103020844722374E-4  
 2.046200000000000E10   -2.673792693028112E-3   1.011615177116323E-3  
 2.046400000000000E10   -2.449233540038697E-3   1.477681529140982E-3  
 2.046600000000000E10   -2.113939810030684E-3   1.879966032591653E-3  
 2.046800000000000E10   -1.701235830105474E-3   2.179862698540092E-3  
 2.047000000000000E10   -1.266333592170275E-3   2.375941002097579E-3  
 2.047200000000000E10   -8.844433428045103E-4   2.464881257840084E-3  
 2.047400000000000E10   -5.525063537444476E-4   2.528586159479410E-3  
 2.047600000000000E10   -2.256073507982394E-4   2.622078217895618E-3  
 2.047800000000000E10    1.898628245206041E-4   2.713849999915058E-3  
 2.048000000000000E10    6.597125877620492E-4   2.702331783656231E-3  
 2.048200000000000E10    1.151904495866057E-3   2.571688505050577E-3  
 2.048400000000000E10    1.594816594204479E-3   2.313259277117167E-3  
 2.048600000000000E10    1.952365238158179E-3   1.971103035396448E-3  
 2.048800000000000E10    2.218381662703591E-3   1.565558137851212E-3  
 2.049000000000000E10    2.365803646897215E-3   1.181086032352422E-3  
 2.049200000000000E10    2.469880581132056E-3   8.705569246262619E-4  
 2.049400000000000E10    2.623267732407331E-3   5.747592931808790E-4  
 2.049600000000000E10    2.784133551511991E-3   2.028418851224897E-4  
 2.049800000000000E10    2.929308500577823E-3  -2.366619278029189E-4  
 2.050000000000000E10    3.016986159814729E-3  -7.842596519236366E-4  
 2.050200000000000E10    2.973533715523872E-3  -1.441635506193119E-3  
 2.050400000000000E10    2.687874581634140E-3  -2.148719897317421E-3  
 2.050600000000000E10    2.130360909787471E-3  -2.776564115183160E-3  
 2.050800000000000E10    1.353820106551174E-3  -3.176253010162417E-3  
 2.051000000000000E10    5.370451790403285E-4  -3.259467637480655E-3  
 2.051200000000000E10   -1.660158652060095E-4  -3.061867905435739E-3  
 2.051400000000000E10   -6.272164129109771E-4  -2.729605507764797E-3  
 2.051600000000000E10   -8.882421778836923E-4  -2.457704720827042E-3  
 2.051800000000000E10   -1.121138101069970E-3  -2.297485027837839E-3  
 2.052000000000000E10   -1.436391841033819E-3  -2.132965273840867E-3  
 2.052200000000000E10   -1.724626502949637E-3  -1.850621536213123E-3  
 2.052400000000000E10   -1.895710189228901E-3  -1.531352144819320E-3  
 2.052600000000000E10   -1.993091383646147E-3  -1.288389925530694E-3  
 2.052800000000000E10   -2.175138827313673E-3  -1.141950779847433E-3  
 2.053000000000000E10   -2.470724199373475E-3  -8.827605516622956E-4  
 2.053200000000000E10   -2.710274375645529E-3  -4.704339930849005E-4  
 2.053400000000000E10   -2.894730448009976E-3   4.039889650894627E-6  
 2.053600000000000E10   -2.974370189792949E-3   6.015233978401073E-4  
 2.053800000000000E10   -2.820828071040382E-3   1.260134315313657E-3  
 2.054000000000000E10   -2.446850475284114E-3   1.805002957298862E-3  
 2.054200000000000E10   -2.009666698252775E-3   2.158750257255517E-3  
 2.054400000000000E10   -1.547437706874078E-3   2.419958928783919E-3  
 2.054600000000000E10   -1.073480860632940E-3   2.589430758698916E-3  
 2.054800000000000E10   -5.908046021229692E-4   2.656282400022502E-3  
 2.055000000000000E10   -1.586617203908417E-4   2.572506981415084E-3  
 2.055200000000000E10    1.310024078966046E-4   2.479018742187953E-3  
 2.055400000000000E10    3.828311309318055E-4   2.491925899590914E-3  
 2.055600000000000E10    7.292840933070784E-4   2.531786137854551E-3  
