#  HZ   S   RI   R     50.00 
! Rohde & Schwarz ZVA40 4Ports - Version 3.90 - 1145.1110k42 SN: 100403
! Date: 2023-10-03 12:05:14
! Measurement: S12 
! 
 2.000000000000000E10   -1.704774062061077E-3  -3.353562969676078E-3  
 2.000200000000000E10   -2.245710572465458E-3  -3.036465913578562E-3  
 2.000400000000000E10   -2.753870482192425E-3  -2.584530934576452E-3  
 2.000600000000000E10   -3.134242474549899E-3  -2.081103248276399E-3  
 2.000800000000000E10   -3.395826645854693E-3  -1.612971036181375E-3  
 2.001000000000000E10   -3.670431981093170E-3  -1.145616499275935E-3  
 2.001200000000000E10   -3.977133963379719E-3  -5.297763261143042E-4  
 2.001400000000000E10   -4.157862698835601E-3   2.489766252007711E-4  
 2.001600000000000E10   -4.064740425305358E-3   1.098700891988574E-3  
 2.001800000000000E10   -3.748960461498166E-3   1.805227128654688E-3  
 2.002000000000000E10   -3.338222968710181E-3   2.401200100135657E-3  
 2.002200000000000E10   -2.824049002257150E-3   2.951658920120494E-3  
 2.002400000000000E10   -2.274548467689428E-3   3.432297123856690E-3  
 2.002600000000000E10   -1.624548756958220E-3   3.788676270026975E-3  
 2.002800000000000E10   -9.267656010414624E-4   3.974876316731850E-3  
 2.003000000000000E10   -1.945706018377978E-4   3.992855301655738E-3  
 2.003200000000000E10    4.515895814493053E-4   3.881524012274581E-3  
 2.003400000000000E10    1.017768612924826E-3   3.722841182623995E-3  
 2.003600000000000E10    1.529212599359606E-3   3.522370979304851E-3  
 2.003800000000000E10    2.003001062575069E-3   3.275078296883669E-3  
 2.004000000000000E10    2.495266295923495E-3   2.980148977381581E-3  
 2.004200000000000E10    2.999183616443794E-3   2.548164097829857E-3  
 2.004400000000000E10    3.372910254301481E-3   2.037733431077666E-3  
 2.004600000000000E10    3.624492323930556E-3   1.519961431124267E-3  
 2.004800000000000E10    3.832055165704509E-3   1.032761212844601E-3  
 2.005000000000000E10    4.071450102384445E-3   4.305788194866078E-4  
 2.005200000000000E10    4.154046709982702E-3  -2.807797246072212E-4  
 2.005400000000000E10    4.121111372462762E-3  -9.362793361304383E-4  
 2.005600000000000E10    4.015083601046738E-3  -1.642389115666657E-3  
 2.005800000000000E10    3.735730194567163E-3  -2.365893913325643E-3  
 2.006000000000000E10    3.232890649970790E-3  -3.082947704918039E-3  
 2.006200000000000E10    2.554165320125995E-3  -3.643067751018477E-3  
 2.006400000000000E10    1.813480539013605E-3  -3.993653253472024E-3  
 2.006600000000000E10    1.072314853392879E-3  -4.168943306546153E-3  
 2.006800000000000E10    3.621847005398109E-4  -4.215293153813838E-3  
 2.007000000000000E10   -3.480537893459462E-4  -4.200077519863231E-3  
 2.007200000000000E10   -1.075772897229212E-3  -4.071325753574019E-3  
 2.007400000000000E10   -1.752544310875237E-3  -3.775493017639275E-3  
 2.007600000000000E10   -2.315315897978934E-3  -3.353592613903584E-3  
 2.007800000000000E10   -2.733413866862901E-3  -2.854048061747978E-3  
 2.008000000000000E10   -3.050830326361176E-3  -2.377154770280415E-3  
 2.008200000000000E10   -3.351731754747438E-3  -1.963785324444987E-3  
 2.008400000000000E10   -3.719469575487354E-3  -1.560868726039129E-3  
 2.008600000000000E10   -4.122930297191129E-3  -9.247488624880037E-4  
 2.008800000000000E10   -4.291023585730743E-3  -6.936251833798857E-5  
 2.009000000000000E10   -4.198636541549316E-3   7.479350557339996E-4  
 2.009200000000000E10   -3.986322602694050E-3   1.470742788388099E-3  
 2.009400000000000E10   -3.677889162390934E-3   2.142998156110937E-3  
 2.009600000000000E10   -3.209895489798714E-3   2.802487298915232E-3  
 2.009800000000000E10   -2.546388759381242E-3   3.305030947382497E-3  
 2.010000000000000E10   -1.847005818123497E-3   3.615192803573400E-3  
 2.010200000000000E10   -1.137008937938070E-3   3.770879381662044E-3  
 2.010400000000000E10   -4.995021824878278E-4   3.743335314347973E-3  
 2.010600000000000E10    1.864923703687368E-5   3.637194875896039E-3  
 2.010800000000000E10    4.494887255199270E-4   3.581713753802234E-3  
 2.011000000000000E10    9.365310801917482E-4   3.583849003392851E-3  
 2.011200000000000E10    1.529783359728754E-3   3.540261870886318E-3  
 2.011400000000000E10    2.194819008019358E-3   3.339198411254543E-3  
 2.011600000000000E10    2.861547661339673E-3   2.891781235903257E-3  
 2.011800000000000E10    3.373420252100615E-3   2.220314429160744E-3  
 2.012000000000000E10    3.625951246492596E-3   1.511554078030335E-3  
 2.012200000000000E10    3.711362263003802E-3   9.107380571732981E-4  
 2.012400000000000E10    3.839785933548225E-3   3.941676629958253E-4  
 2.012600000000000E10    3.959036150510297E-3  -2.505263700983546E-4  
 2.012800000000000E10    3.928413077108103E-3  -1.022508912365271E-3  
 2.013000000000000E10    3.672093326425173E-3  -1.801956922616887E-3  
 2.013200000000000E10    3.215685756033893E-3  -2.441199160077506E-3  
 2.013400000000000E10    2.694954150912080E-3  -2.919899148352965E-3  
 2.013600000000000E10    2.087047074465350E-3  -3.349351764698763E-3  
 2.013800000000000E10    1.368297557653131E-3  -3.663257104555460E-3  
 2.014000000000000E10    5.966943023734010E-4  -3.759532445397827E-3  
 2.014200000000000E10   -8.330562248023103E-5  -3.625166445295998E-3  
 2.014400000000000E10   -5.499910750788534E-4  -3.425189210561875E-3  
 2.014600000000000E10   -1.002957445805042E-3  -3.341232416883050E-3  
 2.014800000000000E10   -1.578993860578525E-3  -3.191734445683751E-3  
 2.015000000000000E10   -2.119586046079917E-3  -2.860853068124304E-3  
 2.015200000000000E10   -2.524450995265641E-3  -2.480602569287881E-3  
 2.015400000000000E10   -2.929466076141584E-3  -2.059475819622416E-3  
 2.015600000000000E10   -3.329349591668865E-3  -1.518330371980805E-3  
 2.015800000000000E10   -3.597447517377788E-3  -8.493183602755240E-4  
 2.016000000000000E10   -3.687441192850961E-3  -1.424732642287078E-4  
 2.016200000000000E10   -3.610241727964808E-3   5.059713416794170E-4  
 2.016400000000000E10   -3.439017562885528E-3   1.105017685561361E-3  
 2.016600000000000E10   -3.197680917327052E-3   1.677252608063964E-3  
 2.016800000000000E10   -2.878458844689431E-3   2.217371550430793E-3  
 2.017000000000000E10   -2.465083758220261E-3   2.713512194270092E-3  
 2.017200000000000E10   -1.891812970746815E-3   3.122561763581119E-3  
 2.017400000000000E10   -1.205863881426952E-3   3.347585103263765E-3  
 2.017600000000000E10   -5.709555056597655E-4   3.357840646364930E-3  
 2.017800000000000E10   -1.355455385270977E-4   3.306018522990401E-3  
 2.018000000000000E10    2.666292968397738E-4   3.355447630256170E-3  
 2.018200000000000E10    7.698201970101446E-4   3.383971666418967E-3  
 2.018400000000000E10    1.340285119880374E-3   3.317096975819811E-3  
 2.018600000000000E10    1.946407948034229E-3   3.120882323571317E-3  
 2.018800000000000E10    2.541802531307556E-3   2.809426146501929E-3  
 2.019000000000000E10    3.081578264058925E-3   2.347420333834833E-3  
 2.019200000000000E10    3.523879996865007E-3   1.730418330970616E-3  
 2.019400000000000E10    3.855177759932577E-3   9.841465984314008E-4  
 2.019600000000000E10    3.991707810679827E-3   1.602443951198117E-4  
 2.019800000000000E10    3.875585094692163E-3  -6.417953193670622E-4  
 2.020000000000000E10    3.585233431646732E-3  -1.303532784095670E-3  
 2.020200000000000E10    3.187497751978936E-3  -1.857902567235776E-3  
 2.020400000000000E10    2.766863008915091E-3  -2.268989379766854E-3  
 2.020600000000000E10    2.392761213819922E-3  -2.623450328162853E-3  
 2.020800000000000E10    1.944727430583856E-3  -2.959638838790389E-3  
 2.021000000000000E10    1.440661929647435E-3  -3.132271957909497E-3  
 2.021200000000000E10    1.033898837262680E-3  -3.292476396179862E-3  
 2.021400000000000E10    5.372584127455015E-4  -3.597874103359296E-3  
 2.021600000000000E10   -1.649452343922292E-4  -3.792955323578522E-3  
 2.021800000000000E10   -9.151886872671269E-4  -3.710270204884097E-3  
 2.022000000000000E10   -1.544746907558216E-3  -3.444742250405712E-3  
 2.022200000000000E10   -2.082875727603036E-3  -3.140633533911880E-3  
 2.022400000000000E10   -2.627330383768788E-3  -2.802582675161860E-3  
 2.022600000000000E10   -3.185339297892320E-3  -2.333998385004301E-3  
 2.022800000000000E10   -3.584838603573388E-3  -1.702629649674390E-3  
 2.023000000000000E10   -3.815277954831782E-3  -9.775267647571650E-4  
 2.023200000000000E10   -3.923549245920324E-3  -2.178117384375486E-4  
 2.023400000000000E10   -3.857512973678211E-3   5.508121098257571E-4  
 2.023600000000000E10   -3.621763645560164E-3   1.180388784580270E-3  
 2.023800000000000E10   -3.343914254135434E-3   1.722213795883850E-3  
 2.024000000000000E10   -2.999289237238743E-3   2.256028550588852E-3  
 2.024200000000000E10   -2.549555420936872E-3   2.747629546855458E-3  
 2.024400000000000E10   -2.042116943187245E-3   3.129047291820923E-3  
 2.024600000000000E10   -1.509670744010021E-3   3.427422542216970E-3  
 2.024800000000000E10   -8.872394493604733E-4   3.628539458998009E-3  
 2.025000000000000E10   -2.034376360406072E-4   3.693587240598207E-3  
 2.025200000000000E10    4.426114145693190E-4   3.661195731265739E-3  
 2.025400000000000E10    1.068994383243346E-3   3.570403446684833E-3  
 2.025600000000000E10    1.701369605203439E-3   3.316181967678814E-3  
 2.025800000000000E10    2.220498991041701E-3   2.869007742959900E-3  
 2.026000000000000E10    2.577631904862423E-3   2.382738666164348E-3  
 2.026200000000000E10    2.854062581565155E-3   1.957867380304438E-3  
 2.026400000000000E10    3.119556156634794E-3   1.540551285945462E-3  
 2.026600000000000E10    3.356441205804364E-3   1.070016268314986E-3  
 2.026800000000000E10    3.525301011148918E-3   5.074153372101916E-4  
 2.027000000000000E10    3.602129890135042E-3  -1.820680632523296E-4  
 2.027200000000000E10    3.467594486097863E-3  -8.373989823270484E-4  
 2.027400000000000E10    3.256343505364449E-3  -1.349513019902686E-3  
 2.027600000000000E10    2.984508311513950E-3  -1.820315816248059E-3  
 2.027800000000000E10    2.656018657517838E-3  -2.226549228500008E-3  
 2.028000000000000E10    2.319064355405516E-3  -2.635627194526203E-3  
 2.028200000000000E10    1.878020985994810E-3  -3.058693429202210E-3  
 2.028400000000000E10    1.354343372343469E-3  -3.349332186803529E-3  
 2.028600000000000E10    7.788975471094129E-4  -3.522456015188079E-3  
 2.028800000000000E10    1.539448822906946E-4  -3.605544502912051E-3  
 2.029000000000000E10   -4.615344987092771E-4  -3.613225597344002E-3  
 2.029200000000000E10   -1.094138146514158E-3  -3.567355882315111E-3  
 2.029400000000000E10   -1.759626362721892E-3  -3.342687349705172E-3  
 2.029600000000000E10   -2.330653880121103E-3  -2.883304288963416E-3  
 2.029800000000000E10   -2.689389773518031E-3  -2.359286585914684E-3  
 2.030000000000000E10   -2.965854131137577E-3  -1.933276385007572E-3  
 2.030200000000000E10   -3.279585018562376E-3  -1.490466498363564E-3  
 2.030400000000000E10   -3.513706787661822E-3  -8.978362457727088E-4  
 2.030600000000000E10   -3.541490476992396E-3  -2.400174625831131E-4  
 2.030800000000000E10   -3.446491585599849E-3   3.382038730818256E-4  
 2.031000000000000E10   -3.324395980793263E-3   8.328688875178007E-4  
 2.031200000000000E10   -3.203475779811603E-3   1.253136862912541E-3  
 2.031400000000000E10   -3.080783665770428E-3   1.711507857712024E-3  
 2.031600000000000E10   -2.866035579308990E-3   2.266312179964328E-3  
 2.031800000000000E10   -2.468896703028078E-3   2.796206019680809E-3  
 2.032000000000000E10   -1.983095235440405E-3   3.225995520888656E-3  
 2.032200000000000E10   -1.441790538345590E-3   3.568290565124572E-3  
 2.032400000000000E10   -7.910843415917838E-4   3.774797851449730E-3  
 2.032600000000000E10   -1.096926131185122E-4   3.857603605162092E-3  
 2.032800000000000E10    5.946388162017145E-4   3.892610516445137E-3  
 2.033000000000000E10    1.335060099377431E-3   3.782489094614922E-3  
 2.033200000000000E10    2.017609369768589E-3   3.484850756080492E-3  
 2.033400000000000E10    2.656724142991467E-3   3.041005841889439E-3  
 2.033600000000000E10    2.936789571449406E-3   2.699778846430558E-3  
 2.033800000000000E10    3.508674246239871E-3   1.694415595838532E-3  
 2.034000000000000E10    3.643235000072684E-3   1.014185343570088E-3  
 2.034200000000000E10    3.599368014713987E-3   3.763826580212975E-4  
 2.034400000000000E10    3.406436258252450E-3  -2.001321597238833E-4  
 2.034600000000000E10    3.216917680216180E-3  -6.253684594472219E-4  
 2.034800000000000E10    3.157382730371607E-3  -9.884040205310187E-4  
 2.035000000000000E10    3.106977729272451E-3  -1.452536995756467E-3  
 2.035200000000000E10    2.904552107853164E-3  -2.010062549631169E-3  
 2.035400000000000E10    2.527699489606384E-3  -2.506294799393710E-3  
 2.035600000000000E10    2.090952802763738E-3  -2.934267222229775E-3  
 2.035800000000000E10    1.593205337642612E-3  -3.320328863490941E-3  
 2.036000000000000E10    9.850790703078971E-4  -3.587378705410985E-3  
 2.036200000000000E10    3.082173643633724E-4  -3.689946685323623E-3  
 2.036400000000000E10   -4.353612036647375E-4  -3.665471214747417E-3  
 2.036600000000000E10   -1.160531487783471E-3  -3.441247761387517E-3  
 2.036800000000000E10   -1.703661294470047E-3  -3.029305906583069E-3  
 2.037000000000000E10   -2.015034851154366E-3  -2.600185588431457E-3  
 2.037200000000000E10   -2.270170360987569E-3  -2.260705462844713E-3  
 2.037400000000000E10   -2.556146998265030E-3  -1.942248952693839E-3  
 2.037600000000000E10   -2.889131520656340E-3  -1.608804950525088E-3  
 2.037800000000000E10   -3.205709875112883E-3  -1.167422902594041E-3  
 2.038000000000000E10   -3.394451255837280E-3  -5.910226522126609E-4  
 2.038200000000000E10   -3.428284425687030E-3   3.824544648463556E-5  
 2.038400000000000E10   -3.385952900934183E-3   6.709950525742869E-4  
 2.038600000000000E10   -3.224252237374952E-3   1.304124587851696E-3  
 2.038800000000000E10   -2.901938282060648E-3   1.854495170292418E-3  
 2.039000000000000E10   -2.444902423447297E-3   2.305369017408096E-3  
 2.039200000000000E10   -1.892445678439436E-3   2.600674922750504E-3  
 2.039400000000000E10   -1.431317575498189E-3   2.727001050770774E-3  
 2.039600000000000E10   -1.137337535514340E-3   2.868789037375294E-3  
 2.039800000000000E10   -7.604005547248043E-4   3.097464823942065E-3  
 2.040000000000000E10   -2.287253693883727E-4   3.216187564518165E-3  
 2.040200000000000E10    3.520969325775251E-4   3.232145514300883E-3  
 2.040400000000000E10    9.606076838494636E-4   3.149127154591889E-3  
 2.040600000000000E10    1.531696829507933E-3   2.914268758201612E-3  
 2.040800000000000E10    2.002511560579632E-3   2.564628856685856E-3  
 2.041000000000000E10    2.400596207391027E-3   2.134401860949680E-3  
 2.041200000000000E10    2.705462911231405E-3   1.657294837179222E-3  
 2.041400000000000E10    2.926371360212995E-3   1.172519477473289E-3  
 2.041600000000000E10    3.086754155379755E-3   6.569618568324521E-4  
 2.041800000000000E10    3.090529919145898E-3   6.322020614747758E-5  
 2.042000000000000E10    2.927899228431929E-3  -4.922284231111101E-4  
 2.042200000000000E10    2.665725288483403E-3  -9.534531919699577E-4  
 2.042400000000000E10    2.379936660513466E-3  -1.243400158946989E-3  
 2.042600000000000E10    2.163343026624694E-3  -1.465577183774224E-3  
 2.042800000000000E10    1.934885113009486E-3  -1.709404823546578E-3  
 2.043000000000000E10    1.701234709548117E-3  -1.921117672248295E-3  
 2.043200000000000E10    1.494146490645875E-3  -2.173148596720625E-3  
 2.043400000000000E10    1.219924930732222E-3  -2.463491967929060E-3  
 2.043600000000000E10    8.803190097668872E-4  -2.707488629813671E-3  
 2.043800000000000E10    4.291924987052503E-4  -2.944780372796052E-3  
 2.044000000000000E10   -1.867077746148291E-4  -3.100659474040624E-3  
 2.044200000000000E10   -8.867754657952108E-4  -3.083955563620163E-3  
 2.044400000000000E10   -1.563422486795412E-3  -2.788511829243766E-3  
 2.044600000000000E10   -2.044591004481164E-3  -2.232618874260857E-3  
 2.044800000000000E10   -2.219171042902848E-3  -1.659908630873687E-3  
 2.045000000000000E10   -2.213616656147159E-3  -1.264321468310592E-3  
 2.045200000000000E10   -2.244633713491844E-3  -1.042254287807018E-3  
 2.045400000000000E10   -2.373072295737120E-3  -8.581490260683032E-4  
 2.045600000000000E10   -2.564985963320475E-3  -6.044906886953692E-4  
 2.045800000000000E10   -2.789208130842006E-3  -1.763518237477214E-4  
 2.046000000000000E10   -2.877197103812494E-3   4.053351694742916E-4  
 2.046200000000000E10   -2.772225355422853E-3   9.655797273905591E-4  
 2.046400000000000E10   -2.523480065611533E-3   1.446525615624654E-3  
 2.046600000000000E10   -2.182112804541188E-3   1.836353641792887E-3  
 2.046800000000000E10   -1.815454290850173E-3   2.139665786207582E-3  
 2.047000000000000E10   -1.449221229169196E-3   2.386758865696597E-3  
 2.047200000000000E10   -1.071134199380660E-3   2.580261908072994E-3  
 2.047400000000000E10   -6.768797175027430E-4   2.705061669296628E-3  
 2.047600000000000E10   -2.398420640970714E-4   2.785411474597737E-3  
 2.047800000000000E10    2.428835788823151E-4   2.829117719620589E-3  
 2.048000000000000E10    7.403289085759978E-4   2.792966823235400E-3  
 2.048200000000000E10    1.224069789036679E-3   2.667890481244574E-3  
 2.048400000000000E10    1.685085619221070E-3   2.397836670816068E-3  
 2.048600000000000E10    2.055286019733904E-3   2.047161055238220E-3  
 2.048800000000000E10    2.356987467625873E-3   1.641537205109166E-3  
 2.049000000000000E10    2.552864935111117E-3   1.230686868506449E-3  
 2.049200000000000E10    2.671205651382973E-3   8.908927327102444E-4  
 2.049400000000000E10    2.813378466799120E-3   5.296242899796064E-4  
 2.049600000000000E10    2.938262756086058E-3   6.856463110331191E-5  
 2.049800000000000E10    3.028129056908589E-3  -4.296887911752694E-4  
 2.050000000000000E10    3.090843860128964E-3  -9.958570647731792E-4  
 2.050200000000000E10    2.981927525635365E-3  -1.673042221347430E-3  
 2.050400000000000E10    2.635981550309884E-3  -2.375876465850652E-3  
 2.050600000000000E10    2.024233967847663E-3  -2.991015112617747E-3  
 2.050800000000000E10    1.189751384316066E-3  -3.356381763087073E-3  
 2.051000000000000E10    3.427946085663400E-4  -3.365667739024563E-3  
 2.051200000000000E10   -3.203784141722116E-4  -3.069998725190943E-3  
 2.051400000000000E10   -7.448901365790901E-4  -2.682067678068523E-3  
 2.051600000000000E10   -9.743786740802812E-4  -2.403549506969045E-3  
 2.051800000000000E10   -1.198558830042895E-3  -2.278776904529750E-3  
 2.052000000000000E10   -1.526222166647453E-3  -2.135766701247743E-3  
 2.052200000000000E10   -1.844969048709015E-3  -1.859524693060284E-3  
 2.052400000000000E10   -2.063016405275452E-3  -1.525330614996116E-3  
 2.052600000000000E10   -2.191678749267089E-3  -1.238369653355944E-3  
 2.052800000000000E10   -2.371696282921689E-3  -1.025388144491309E-3  
 2.053000000000000E10   -2.609074957967725E-3  -7.224713879495615E-4  
 2.053200000000000E10   -2.774710519768206E-3  -2.942757746046640E-4  
 2.053400000000000E10   -2.888530721780634E-3   2.035350844679868E-4  
 2.053600000000000E10   -2.914939687966749E-3   7.956715716516654E-4  
 2.053800000000000E10   -2.752714275876866E-3   1.437484437155196E-3  
 2.054000000000000E10   -2.341315073608862E-3   1.999964692760183E-3  
 2.054200000000000E10   -1.810343672594232E-3   2.337176028884365E-3  
 2.054400000000000E10   -1.302075443919672E-3   2.506108081673461E-3  
 2.054600000000000E10   -8.562674890598091E-4   2.568586538794907E-3  
 2.054800000000000E10   -4.685056767591234E-4   2.584825067708093E-3  
 2.055000000000000E10   -9.621224182163488E-5   2.505657043683615E-3  
 2.055200000000000E10    1.960997548171822E-4   2.400623898907208E-3  
 2.055400000000000E10    4.255019057550442E-4   2.391732469346727E-3  
 2.055600000000000E10    7.393527317288192E-4   2.474145414767626E-3  
