#  HZ   S   RI   R     50.00 
! Rohde & Schwarz ZVA40 4Ports - Version 3.90 - 1145.1110k42 SN: 100403
! Date: 2023-10-03 12:05:50
! Measurement: S12 
! 
 2.000000000000000E10   -2.142686388213878E-3  -3.578006022575278E-3  
 2.000200000000000E10   -2.739705404059755E-3  -3.187170864462302E-3  
 2.000400000000000E10   -3.271485187320246E-3  -2.633568865281565E-3  
 2.000600000000000E10   -3.618478585310557E-3  -2.018846308433072E-3  
 2.000800000000000E10   -3.804677674822786E-3  -1.447521236345724E-3  
 2.001000000000000E10   -3.982305250785970E-3  -9.118607634230070E-4  
 2.001200000000000E10   -4.177207403160908E-3  -2.808442707949629E-4  
 2.001400000000000E10   -4.293890066306901E-3   4.392730393360749E-4  
 2.001600000000000E10   -4.242911124257027E-3   1.252984623769643E-3  
 2.001800000000000E10   -3.947035357769993E-3   2.011236708818211E-3  
 2.002000000000000E10   -3.484081864977877E-3   2.668656391540060E-3  
 2.002200000000000E10   -2.891837291557480E-3   3.268770761442958E-3  
 2.002400000000000E10   -2.295638960613697E-3   3.756993303627328E-3  
 2.002600000000000E10   -1.582254991970129E-3   4.105546701423548E-3  
 2.002800000000000E10   -8.187234979467814E-4   4.263411776197178E-3  
 2.003000000000000E10   -2.886516880675185E-5   4.238778828746743E-3  
 2.003200000000000E10    6.548479195097807E-4   4.076092331497758E-3  
 2.003400000000000E10    1.249457709491253E-3   3.887396728343986E-3  
 2.003600000000000E10    1.802800606970710E-3   3.631784416804160E-3  
 2.003800000000000E10    2.306409102554123E-3   3.284042028503286E-3  
 2.004000000000000E10    2.795638102624152E-3   2.862896951329377E-3  
 2.004200000000000E10    3.232667438202986E-3   2.365291498049542E-3  
 2.004400000000000E10    3.562676478867178E-3   1.833994562427203E-3  
 2.004600000000000E10    3.770681106726881E-3   1.283108347302510E-3  
 2.004800000000000E10    3.927680456803905E-3   7.537588093395312E-4  
 2.005000000000000E10    4.094375245687035E-3   1.236634445915654E-4  
 2.005200000000000E10    4.142523346537794E-3  -5.953705015902718E-4  
 2.005400000000000E10    4.043827212795064E-3  -1.274363288690371E-3  
 2.005600000000000E10    3.844728339808408E-3  -1.954537488658119E-3  
 2.005800000000000E10    3.493525743208550E-3  -2.646577553133722E-3  
 2.006000000000000E10    2.960097303407060E-3  -3.339038687516695E-3  
 2.006200000000000E10    2.233703344784402E-3  -3.853079431724769E-3  
 2.006400000000000E10    1.465488376130385E-3  -4.089861659816018E-3  
 2.006600000000000E10    7.689181279770480E-4  -4.166617661852529E-3  
 2.006800000000000E10    1.129839006521420E-4  -4.174281256618324E-3  
 2.007000000000000E10   -5.509406673135581E-4  -4.159463414301476E-3  
 2.007200000000000E10   -1.252620649110112E-3  -4.032722743297065E-3  
 2.007400000000000E10   -1.860820554645249E-3  -3.765011318372908E-3  
 2.007600000000000E10   -2.436409704387188E-3  -3.412459830374078E-3  
 2.007800000000000E10   -2.988294931128622E-3  -2.922919440876555E-3  
 2.008000000000000E10   -3.395925362214998E-3  -2.390307158714643E-3  
 2.008200000000000E10   -3.716390623055675E-3  -1.877715944795421E-3  
 2.008400000000000E10   -4.057342565997884E-3  -1.379850462803410E-3  
 2.008600000000000E10   -4.394629883959339E-3  -6.523954820025850E-4  
 2.008800000000000E10   -4.491652396542055E-3   2.526512673486852E-4  
 2.009000000000000E10   -4.358177918388889E-3   1.100000420895716E-3  
 2.009200000000000E10   -4.094959598862464E-3   1.819786740708407E-3  
 2.009400000000000E10   -3.775872669562146E-3   2.515518115143533E-3  
 2.009600000000000E10   -3.203680807793582E-3   3.277298235506924E-3  
 2.009800000000000E10   -2.385767599291824E-3   3.824237932416577E-3  
 2.010000000000000E10   -1.567250734229607E-3   4.056321284561246E-3  
 2.010200000000000E10   -8.200697743126916E-4   4.105012398213148E-3  
 2.010400000000000E10   -1.661406341655594E-4   4.029273952322978E-3  
 2.010600000000000E10    4.206117634937443E-4   3.892583237891948E-3  
 2.010800000000000E10    9.298194415384423E-4   3.772342387862780E-3  
 2.011000000000000E10    1.452028199478432E-3   3.678057549728288E-3  
 2.011200000000000E10    2.014524579324105E-3   3.526692097592685E-3  
 2.011400000000000E10    2.654900748489632E-3   3.219166373903002E-3  
 2.011600000000000E10    3.323079975045942E-3   2.688954886118020E-3  
 2.011800000000000E10    3.825655465738641E-3   1.946146073923619E-3  
 2.012000000000000E10    4.019373389719813E-3   1.172919386859846E-3  
 2.012200000000000E10    4.021761542255128E-3   5.171816921103057E-4  
 2.012400000000000E10    4.019290001855956E-3  -5.335273831237660E-5  
 2.012600000000000E10    4.066390226836559E-3  -6.791947353458792E-4  
 2.012800000000000E10    4.012558402286636E-3  -1.446353862303551E-3  
 2.013000000000000E10    3.724746371584911E-3  -2.222888128556036E-3  
 2.013200000000000E10    3.224235148755489E-3  -2.868529823091296E-3  
 2.013400000000000E10    2.615897166025308E-3  -3.383095117492809E-3  
 2.013600000000000E10    1.932362698156525E-3  -3.825121904136958E-3  
 2.013800000000000E10    1.156279959508942E-3  -4.125660647534663E-3  
 2.014000000000000E10    3.392529335407609E-4  -4.181203242667296E-3  
 2.014200000000000E10   -3.968256566656271E-4  -3.977237027828341E-3  
 2.014400000000000E10   -9.277259922344928E-4  -3.720542027925452E-3  
 2.014600000000000E10   -1.429514808545786E-3  -3.587311409689762E-3  
 2.014800000000000E10   -2.013559660149945E-3  -3.387892782619154E-3  
 2.015000000000000E10   -2.553919244005725E-3  -3.038287067923834E-3  
 2.015200000000000E10   -3.019737795478216E-3  -2.579279554386934E-3  
 2.015400000000000E10   -3.482522322209898E-3  -2.067104111322098E-3  
 2.015600000000000E10   -3.893986775505323E-3  -1.437888239268904E-3  
 2.015800000000000E10   -4.166429172511455E-3  -7.022541400079651E-4  
 2.016000000000000E10   -4.230865863738238E-3   1.375909457608402E-4  
 2.016200000000000E10   -4.041230564730035E-3   9.163665257532290E-4  
 2.016400000000000E10   -3.755975980311633E-3   1.611225833012550E-3  
 2.016600000000000E10   -3.405507783302003E-3   2.222667750040139E-3  
 2.016800000000000E10   -2.977425560217213E-3   2.772367136828878E-3  
 2.017000000000000E10   -2.435859499706163E-3   3.227681413085925E-3  
 2.017200000000000E10   -1.769310091967108E-3   3.609715305544712E-3  
 2.017400000000000E10   -1.024796267436748E-3   3.829010615677194E-3  
 2.017600000000000E10   -3.230425279104600E-4   3.826047975087056E-3  
 2.017800000000000E10    2.250133768905437E-4   3.715489068310018E-3  
 2.018000000000000E10    7.326102931983769E-4   3.600043951775189E-3  
 2.018200000000000E10    1.264671014656348E-3   3.439970987124576E-3  
 2.018400000000000E10    1.778114073978807E-3   3.248704545613793E-3  
 2.018600000000000E10    2.290239669727507E-3   2.996810875764048E-3  
 2.018800000000000E10    2.795782871544361E-3   2.667288011353877E-3  
 2.019000000000000E10    3.296734049433360E-3   2.181432261649106E-3  
 2.019200000000000E10    3.728604021792611E-3   1.548832053905008E-3  
 2.019400000000000E10    4.019206113837384E-3   8.388940348393389E-4  
 2.019600000000000E10    4.173547840090814E-3   5.775088060612756E-5  
 2.019800000000000E10    4.082345886638871E-3  -7.811237592250111E-4  
 2.020000000000000E10    3.759352542046044E-3  -1.547678528974454E-3  
 2.020200000000000E10    3.289401634699769E-3  -2.154359205936392E-3  
 2.020400000000000E10    2.784840926458991E-3  -2.558420558839485E-3  
 2.020600000000000E10    2.347991379253843E-3  -2.853917233921864E-3  
 2.020800000000000E10    1.869369600037182E-3  -3.109706496750868E-3  
 2.021000000000000E10    1.390705838006128E-3  -3.282156255510119E-3  
 2.021200000000000E10    1.017504449312886E-3  -3.499667600004210E-3  
 2.021400000000000E10    5.201776878459863E-4  -3.846387835909371E-3  
 2.021600000000000E10   -2.146194228434642E-4  -4.052656116308990E-3  
 2.021800000000000E10   -9.987101377056983E-4  -3.967075901864856E-3  
 2.022000000000000E10   -1.707671499052258E-3  -3.730846706915786E-3  
 2.022200000000000E10   -2.360387800123405E-3  -3.449225091133957E-3  
 2.022400000000000E10   -3.008761150003584E-3  -3.057439449346728E-3  
 2.022600000000000E10   -3.593553719973123E-3  -2.443483702976395E-3  
 2.022800000000000E10   -3.967094028161632E-3  -1.677496768361717E-3  
 2.023000000000000E10   -4.182253515830747E-3  -9.203437086263742E-4  
 2.023200000000000E10   -4.308851056352810E-3  -1.752216116141494E-4  
 2.023400000000000E10   -4.305457316890912E-3   6.148371677328316E-4  
 2.023600000000000E10   -4.118332604843158E-3   1.393688428733084E-3  
 2.023800000000000E10   -3.779535914805753E-3   2.134404369388466E-3  
 2.024000000000000E10   -3.304858786847305E-3   2.808763300655065E-3  
 2.024200000000000E10   -2.687731300722118E-3   3.340866606406592E-3  
 2.024400000000000E10   -2.021218667289725E-3   3.667431719670142E-3  
 2.024600000000000E10   -1.380816524572395E-3   3.869814505041750E-3  
 2.024800000000000E10   -6.871713083927279E-4   4.046666970545496E-3  
 2.025000000000000E10    4.754920064442560E-5   4.103066986081778E-3  
 2.025200000000000E10    7.316489246915337E-4   4.001518659707573E-3  
 2.025400000000000E10    1.358889521927469E-3   3.798311610740644E-3  
 2.025600000000000E10    1.977929224570593E-3   3.488206744400992E-3  
 2.025800000000000E10    2.545564392305635E-3   3.044849356498432E-3  
 2.026000000000000E10    2.956839416314055E-3   2.559584513720539E-3  
 2.026200000000000E10    3.267356392892975E-3   2.100527760814186E-3  
 2.026400000000000E10    3.550265734601353E-3   1.614715593556563E-3  
 2.026600000000000E10    3.830996005692417E-3   1.032253240097176E-3  
 2.026800000000000E10    4.032166898940449E-3   3.458662109484000E-4  
 2.027000000000000E10    4.056186070320784E-3  -4.333822914675154E-4  
 2.027200000000000E10    3.846097979004737E-3  -1.128950940996961E-3  
 2.027400000000000E10    3.557010536530504E-3  -1.663855660741252E-3  
 2.027600000000000E10    3.246108889234839E-3  -2.197053792231061E-3  
 2.027800000000000E10    2.888669889351284E-3  -2.682265334038271E-3  
 2.028000000000000E10    2.524589334994003E-3  -3.160248027631531E-3  
 2.028200000000000E10    2.005114996184906E-3  -3.641484969261069E-3  
 2.028400000000000E10    1.313474404418634E-3  -3.986521003146967E-3  
 2.028600000000000E10    5.397772582472061E-4  -4.170613811799774E-3  
 2.028800000000000E10   -2.129689986489851E-4  -4.176035075000039E-3  
 2.029000000000000E10   -8.938190682480733E-4  -4.103133937826863E-3  
 2.029200000000000E10   -1.611197470790810E-3  -3.944462346326974E-3  
 2.029400000000000E10   -2.340374816278065E-3  -3.580205185614803E-3  
 2.029600000000000E10   -2.960859280493525E-3  -3.020232724439767E-3  
 2.029800000000000E10   -3.369671456446803E-3  -2.399972096706430E-3  
 2.030000000000000E10   -3.645119188284433E-3  -1.836278518937804E-3  
 2.030200000000000E10   -3.884259930432395E-3  -1.248175985421296E-3  
 2.030400000000000E10   -4.035291123997283E-3  -5.350898179501571E-4  
 2.030600000000000E10   -4.010736235175972E-3   1.798646413522807E-4  
 2.030800000000000E10   -3.871928055391268E-3   8.065214497037232E-4  
 2.031000000000000E10   -3.668839387871601E-3   1.372634786767540E-3  
 2.031200000000000E10   -3.414596482697461E-3   1.871329193279423E-3  
 2.031400000000000E10   -3.129633859282843E-3   2.413437805242009E-3  
 2.031600000000000E10   -2.742392718102093E-3   2.969070605036838E-3  
 2.031800000000000E10   -2.204433963116673E-3   3.436763563917744E-3  
 2.032000000000000E10   -1.584579370467475E-3   3.724315462427007E-3  
 2.032200000000000E10   -9.590704123386081E-4   3.912276303809551E-3  
 2.032400000000000E10   -3.072048345563451E-4   4.028458372448330E-3  
 2.032600000000000E10    3.356825543084631E-4   4.084694044043621E-3  
 2.032800000000000E10    1.049896684923658E-3   4.065304408194843E-3  
 2.033000000000000E10    1.799930163003781E-3   3.846468076247861E-3  
 2.033200000000000E10    2.484538066373380E-3   3.444150090217591E-3  
 2.033400000000000E10    3.101280588587677E-3   2.944199808148874E-3  
 2.033600000000000E10    3.372331658654192E-3   2.607523472289796E-3  
 2.033800000000000E10    3.905701933911554E-3   1.526745519152394E-3  
 2.034000000000000E10    4.020859521848184E-3   7.637160381785147E-4  
 2.034200000000000E10    3.969291328556009E-3  -1.670232671181607E-6  
 2.034400000000000E10    3.751571178091346E-3  -6.555818728412743E-4  
 2.034600000000000E10    3.464114990223338E-3  -1.136265824445420E-3  
 2.034800000000000E10    3.255206453441470E-3  -1.505201622084887E-3  
 2.035000000000000E10    3.097992054083282E-3  -1.946087685172205E-3  
 2.035200000000000E10    2.815711441346341E-3  -2.505163713875745E-3  
 2.035400000000000E10    2.377072357814069E-3  -3.002019150665513E-3  
 2.035600000000000E10    1.847056637483615E-3  -3.408711300128037E-3  
 2.035800000000000E10    1.229645507582636E-3  -3.699191078474677E-3  
 2.036000000000000E10    5.144131891601893E-4  -3.868173747495921E-3  
 2.036200000000000E10   -2.018418815202528E-4  -3.866002360289848E-3  
 2.036400000000000E10   -8.981732944785447E-4  -3.751034020549722E-3  
 2.036600000000000E10   -1.528301353876790E-3  -3.483032738720930E-3  
 2.036800000000000E10   -2.050093745950748E-3  -3.090202756639984E-3  
 2.037000000000000E10   -2.464860255174615E-3  -2.648198261374125E-3  
 2.037200000000000E10   -2.820810165118288E-3  -2.207370285220721E-3  
 2.037400000000000E10   -3.090308746322990E-3  -1.742027881037858E-3  
 2.037600000000000E10   -3.293221230032268E-3  -1.298179845670583E-3  
 2.037800000000000E10   -3.513080999255181E-3  -7.924135726945546E-4  
 2.038000000000000E10   -3.675962608583548E-3  -1.563791593071073E-4  
 2.038200000000000E10   -3.673910128849525E-3   5.442001576604392E-4  
 2.038400000000000E10   -3.524730930587760E-3   1.203378020026894E-3  
 2.038600000000000E10   -3.230937920441782E-3   1.813338565019270E-3  
 2.038800000000000E10   -2.783414467962252E-3   2.356098421538870E-3  
 2.039000000000000E10   -2.265632549231803E-3   2.759197571625312E-3  
 2.039200000000000E10   -1.733102180339672E-3   3.023423883994973E-3  
 2.039400000000000E10   -1.251869826336150E-3   3.169122583198327E-3  
 2.039600000000000E10   -8.224837990753629E-4   3.303537033153354E-3  
 2.039800000000000E10   -2.629929130543369E-4   3.466341653148886E-3  
 2.040000000000000E10    4.111070959846041E-4   3.468637354671955E-3  
 2.040200000000000E10    1.014203285901911E-3   3.319381192947428E-3  
 2.040400000000000E10    1.563632352001689E-3   3.074406982503004E-3  
 2.040600000000000E10    2.045669636033752E-3   2.718815761100915E-3  
 2.040800000000000E10    2.452998240995739E-3   2.310933450374890E-3  
 2.041000000000000E10    2.811141950250776E-3   1.850770596690752E-3  
 2.041200000000000E10    3.078756733211103E-3   1.323650672997314E-3  
 2.041400000000000E10    3.214436281403458E-3   7.842589273220964E-4  
 2.041600000000000E10    3.260302124544979E-3   2.071215343743528E-4  
 2.041800000000000E10    3.190733983905780E-3  -3.860717934677033E-4  
 2.042000000000000E10    3.005889218507542E-3  -9.294679125391501E-4  
 2.042200000000000E10    2.723607631331241E-3  -1.402038490158264E-3  
 2.042400000000000E10    2.368368656822929E-3  -1.738564796849258E-3  
 2.042600000000000E10    2.020872223915326E-3  -1.986617166376501E-3  
 2.042800000000000E10    1.680987986253092E-3  -2.217140859337869E-3  
 2.043000000000000E10    1.357815068870507E-3  -2.378984949448043E-3  
 2.043200000000000E10    1.098550321465289E-3  -2.541745728295711E-3  
 2.043400000000000E10    7.723140017198469E-4  -2.743498930983522E-3  
 2.043600000000000E10    3.590919239084340E-4  -2.932787959084467E-3  
 2.043800000000000E10   -1.481006577335022E-4  -3.086990504353135E-3  
 2.044000000000000E10   -8.020834648050368E-4  -3.129322487102063E-3  
 2.044200000000000E10   -1.513628112324686E-3  -2.941873183266984E-3  
 2.044400000000000E10   -2.127358155256069E-3  -2.463783637655002E-3  
 2.044600000000000E10   -2.494537771713955E-3  -1.810769140892835E-3  
 2.044800000000000E10   -2.570093911210145E-3  -1.191107172484475E-3  
 2.045000000000000E10   -2.495063089386181E-3  -7.872128669448475E-4  
 2.045200000000000E10   -2.453541512497597E-3  -5.204193294048309E-4  
 2.045400000000000E10   -2.477134991851118E-3  -2.426834414816565E-4  
 2.045600000000000E10   -2.528412974681015E-3   5.840153473265538E-5  
 2.045800000000000E10   -2.583307878079790E-3   4.241134544524055E-4  
 2.046000000000000E10   -2.561710542067885E-3   8.917470458308581E-4  
 2.046200000000000E10   -2.399883552074985E-3   1.352509259487744E-3  
 2.046400000000000E10   -2.125698176247103E-3   1.786396644699077E-3  
 2.046600000000000E10   -1.720396038662229E-3   2.171850375210246E-3  
 2.046800000000000E10   -1.264216141188862E-3   2.405075916882467E-3  
 2.047000000000000E10   -8.090788205326709E-4   2.520485091264601E-3  
 2.047200000000000E10   -3.671800950542092E-4   2.516339895211988E-3  
 2.047400000000000E10   -1.501645965618082E-5   2.450466181875931E-3  
 2.047600000000000E10    2.891019038442109E-4   2.419124986907399E-3  
 2.047800000000000E10    6.438196007231321E-4   2.387791570207036E-3  
 2.048000000000000E10    1.019809231231058E-3   2.299252630176920E-3  
 2.048200000000000E10    1.403312530816981E-3   2.121911677359431E-3  
 2.048400000000000E10    1.758797637497386E-3   1.819985694493409E-3  
 2.048600000000000E10    2.012908243125788E-3   1.474884588754288E-3  
 2.048800000000000E10    2.165708164856942E-3   1.128625771444705E-3  
 2.049000000000000E10    2.236719010397792E-3   8.221632430191946E-4  
 2.049200000000000E10    2.326855893005376E-3   5.670534791769805E-4  
 2.049400000000000E10    2.473632089310774E-3   2.735862594649748E-4  
 2.049600000000000E10    2.588167821091635E-3  -9.974846950542460E-5  
 2.049800000000000E10    2.683678840252537E-3  -5.090998882358826E-4  
 2.050000000000000E10    2.729946342124432E-3  -1.023281857164370E-3  
 2.050200000000000E10    2.608930364389111E-3  -1.657477795594821E-3  
 2.050400000000000E10    2.252035662186919E-3  -2.291757406459915E-3  
 2.050600000000000E10    1.687243934375821E-3  -2.817963836369692E-3  
 2.050800000000000E10    9.396868171515290E-4  -3.097836445603107E-3  
 2.051000000000000E10    1.742682771119117E-4  -3.068940239717012E-3  
 2.051200000000000E10   -4.394075065782226E-4  -2.812386059236748E-3  
 2.051400000000000E10   -8.180086043904778E-4  -2.458514076554113E-3  
 2.051600000000000E10   -1.014444567435594E-3  -2.202449004269309E-3  
 2.051800000000000E10   -1.215450336328811E-3  -2.069574711775339E-3  
 2.052000000000000E10   -1.522398424438305E-3  -1.903579104691744E-3  
 2.052200000000000E10   -1.813303278241721E-3  -1.593424119400206E-3  
 2.052400000000000E10   -1.951215823215467E-3  -1.261601185736557E-3  
 2.052600000000000E10   -1.995596448304477E-3  -1.038276715445574E-3  
 2.052800000000000E10   -2.125839642421515E-3  -9.131168308495372E-4  
 2.053000000000000E10   -2.399303872759144E-3  -6.677600710342329E-4  
 2.053200000000000E10   -2.639378110567729E-3  -2.695602144942516E-4  
 2.053400000000000E10   -2.796383005463415E-3   2.365779407598355E-4  
 2.053600000000000E10   -2.835912216040824E-3   8.357933364567106E-4  
 2.053800000000000E10   -2.642194438656723E-3   1.483368557981319E-3  
 2.054000000000000E10   -2.214427209562726E-3   2.045747910246805E-3  
 2.054200000000000E10   -1.676041900214774E-3   2.397693219353204E-3  
 2.054400000000000E10   -1.133036178847154E-3   2.570074698370365E-3  
 2.054600000000000E10   -6.367607770867095E-4   2.598936264230698E-3  
 2.054800000000000E10   -1.749194774742204E-4   2.528837778502041E-3  
 2.055000000000000E10    1.843708434737184E-4   2.354204792667318E-3  
 2.055200000000000E10    3.861021703212626E-4   2.216286413992445E-3  
 2.055400000000000E10    5.832735138634841E-4   2.221351282464134E-3  
 2.055600000000000E10    9.009606114381718E-4   2.230720680758909E-3  
