#  HZ   S   RI   R     50.00 
! Rohde & Schwarz ZVA40 4Ports - Version 3.90 - 1145.1110k42 SN: 100403
! Date: 2023-10-03 12:09:00
! Measurement: S12 
! 
 2.000000000000000E10    2.091308960829068E-3  -2.553716961604854E-4  
 2.000200000000000E10    2.105433476605901E-3  -5.519399182284596E-4  
 2.000400000000000E10    2.060379781242874E-3  -8.700806000787352E-4  
 2.000600000000000E10    1.991261391797000E-3  -1.192174136155734E-3  
 2.000800000000000E10    1.934568596038002E-3  -1.569848188578531E-3  
 2.001000000000000E10    1.730027561144973E-3  -2.101250061834301E-3  
 2.001200000000000E10    1.233235794912886E-3  -2.573284389520134E-3  
 2.001400000000000E10    5.863568340255707E-4  -2.776730339974165E-3  
 2.001600000000000E10    9.545252261752329E-6  -2.758822964366388E-3  
 2.001800000000000E10   -4.750796576478968E-4  -2.665637233467014E-3  
 2.002000000000000E10   -9.085752147560319E-4  -2.522583766322997E-3  
 2.002200000000000E10   -1.342421626085761E-3  -2.309795037877781E-3  
 2.002400000000000E10   -1.716420692564161E-3  -2.046558367847293E-3  
 2.002600000000000E10   -2.040276191783725E-3  -1.731629043610560E-3  
 2.002800000000000E10   -2.321481282167413E-3  -1.384016557562131E-3  
 2.003000000000000E10   -2.564618881377909E-3  -9.708172529590904E-4  
 2.003200000000000E10   -2.745309853236433E-3  -5.051634226994659E-4  
 2.003400000000000E10   -2.814590723978149E-3   4.087488451255519E-5  
 2.003600000000000E10   -2.726216472823311E-3   5.719095783273656E-4  
 2.003800000000000E10   -2.557176898268086E-3   1.044715306273213E-3  
 2.004000000000000E10   -2.296208593718432E-3   1.479708443016366E-3  
 2.004200000000000E10   -1.948551136862349E-3   1.823280002335432E-3  
 2.004400000000000E10   -1.575229400596409E-3   2.060491621873721E-3  
 2.004600000000000E10   -1.242264027327851E-3   2.214486391663000E-3  
 2.004800000000000E10   -9.487241644550253E-4   2.406189114683204E-3  
 2.005000000000000E10   -5.357244431420610E-4   2.597555000748900E-3  
 2.005200000000000E10   -6.277526241589199E-5   2.675681590551028E-3  
 2.005400000000000E10    4.247676740676441E-4   2.671663002628420E-3  
 2.005600000000000E10    9.278675618891916E-4   2.537599859621238E-3  
 2.005800000000000E10    1.355340299024074E-3   2.292142654941590E-3  
 2.006000000000000E10    1.717023715307867E-3   1.968003990542558E-3  
 2.006200000000000E10    1.987275865825791E-3   1.615583862143534E-3  
 2.006400000000000E10    2.187166742428586E-3   1.207602503537028E-3  
 2.006600000000000E10    2.254114848458105E-3   7.874504857075713E-4  
 2.006800000000000E10    2.230532734689338E-3   4.517662412211024E-4  
 2.007000000000000E10    2.217663279562085E-3   1.617790365815853E-4  
 2.007200000000000E10    2.173935459857738E-3  -1.039362169750449E-4  
 2.007400000000000E10    2.139938417477189E-3  -3.309959149057115E-4  
 2.007600000000000E10    2.127728692290408E-3  -5.461444444436994E-4  
 2.007800000000000E10    2.171393785694684E-3  -7.993090117384715E-4  
 2.008000000000000E10    2.228185008452447E-3  -1.174127795147123E-3  
 2.008200000000000E10    2.156478930609646E-3  -1.713771213501416E-3  
 2.008400000000000E10    1.797449205898576E-3  -2.281276569529265E-3  
 2.008600000000000E10    1.213307578668550E-3  -2.607067848590237E-3  
 2.008800000000000E10    6.924817248040604E-4  -2.682868287795120E-3  
 2.009000000000000E10    2.764056833391940E-4  -2.720416859827108E-3  
 2.009200000000000E10   -1.770992525120232E-4  -2.752964238256768E-3  
 2.009400000000000E10   -6.364180784051617E-4  -2.682847419270763E-3  
 2.009600000000000E10   -1.057764222086580E-3  -2.522466937080026E-3  
 2.009800000000000E10   -1.417000377033320E-3  -2.341859956720361E-3  
 2.010000000000000E10   -1.770530995498929E-3  -2.160202867041032E-3  
 2.010200000000000E10   -2.177371928054426E-3  -1.914409325561590E-3  
 2.010400000000000E10   -2.584326124094703E-3  -1.560759174430536E-3  
 2.010600000000000E10   -2.954973692626314E-3  -1.058732965719645E-3  
 2.010800000000000E10   -3.183513095050499E-3  -3.723790319377764E-4  
 2.011000000000000E10   -3.147699137183804E-3   3.730854163963900E-4  
 2.011200000000000E10   -2.866079453033982E-3   1.026230226098388E-3  
 2.011400000000000E10   -2.409656713199285E-3   1.503188339820891E-3  
 2.011600000000000E10   -1.888871869865667E-3   1.715476167629715E-3  
 2.011800000000000E10   -1.554323299960406E-3   1.694355750697907E-3  
 2.012000000000000E10   -1.477474851223330E-3   1.731733291375417E-3  
 2.012200000000000E10   -1.395035552343837E-3   2.039492302746685E-3  
 2.012400000000000E10   -1.028437035899885E-3   2.414773847838795E-3  
 2.012600000000000E10   -5.119561629490583E-4   2.561097128178787E-3  
 2.012800000000000E10   -5.443338792516713E-5   2.553937775600288E-3  
 2.013000000000000E10    3.671714663074387E-4   2.514212780321638E-3  
 2.013200000000000E10    8.078027857226079E-4   2.383901711760296E-3  
 2.013400000000000E10    1.224248803703597E-3   2.117389054210098E-3  
 2.013600000000000E10    1.484182270899139E-3   1.728271000535676E-3  
 2.013800000000000E10    1.539667606940148E-3   1.363745411961443E-3  
 2.014000000000000E10    1.469810812354640E-3   1.186555475686436E-3  
 2.014200000000000E10    1.522220576319982E-3   1.223838543174444E-3  
 2.014400000000000E10    1.869431731325609E-3   1.201763210162797E-3  
 2.014600000000000E10    2.234348639224967E-3   8.715714103783724E-4  
 2.014800000000000E10    2.387649819461836E-3   4.169292450468574E-4  
 2.015000000000000E10    2.391951676044200E-3   4.193103608553496E-5  
 2.015200000000000E10    2.420485459475054E-3  -2.862299583352137E-4  
 2.015400000000000E10    2.434893873416715E-3  -7.049021401649548E-4  
 2.015600000000000E10    2.318162738380057E-3  -1.154087699466834E-3  
 2.015800000000000E10    2.084407394889880E-3  -1.532608449148635E-3  
 2.016000000000000E10    1.824673571347915E-3  -1.842714660732007E-3  
 2.016200000000000E10    1.574166959875988E-3  -2.148378700776785E-3  
 2.016400000000000E10    1.199868300722705E-3  -2.475128836791825E-3  
 2.016600000000000E10    7.176800950050907E-4  -2.667700268190216E-3  
 2.016800000000000E10    2.817547755074446E-4  -2.735184160647569E-3  
 2.017000000000000E10   -1.325381828657421E-4  -2.794251992815623E-3  
 2.017200000000000E10   -6.032555894408789E-4  -2.820881851086463E-3  
 2.017400000000000E10   -1.145326084008923E-3  -2.761940773645485E-3  
 2.017600000000000E10   -1.691611177563944E-3  -2.561487930102481E-3  
 2.017800000000000E10   -2.216143706054600E-3  -2.241923835956388E-3  
 2.018000000000000E10   -2.694423439809018E-3  -1.753823443626364E-3  
 2.018200000000000E10   -3.035562914899654E-3  -1.139915919069339E-3  
 2.018400000000000E10   -3.190148018162560E-3  -4.268769946604692E-4  
 2.018600000000000E10   -3.104827116691956E-3   3.023904562858796E-4  
 2.018800000000000E10   -2.819674995003475E-3   9.003847522695585E-4  
 2.019000000000000E10   -2.421285379333077E-3   1.353465999407625E-3  
 2.019200000000000E10   -1.983904892026826E-3   1.626641166189479E-3  
 2.019400000000000E10   -1.611574419291207E-3   1.770935978533493E-3  
 2.019600000000000E10   -1.278832679855879E-3   1.866274784939985E-3  
 2.019800000000000E10   -9.938141253466408E-4   1.891440172955670E-3  
 2.020000000000000E10   -7.951025402656310E-4   1.916539566418915E-3  
 2.020200000000000E10   -6.255076861836845E-4   2.007712523832366E-3  
 2.020400000000000E10   -3.824747572825463E-4   2.149791241175047E-3  
 2.020600000000000E10   -6.927653359727831E-5   2.272364036697481E-3  
 2.020800000000000E10    3.221507622920736E-4   2.332474587968102E-3  
 2.021000000000000E10    7.442883215844631E-4   2.301614205525430E-3  
 2.021200000000000E10    1.221346401574987E-3   2.152897736609534E-3  
 2.021400000000000E10    1.616055779676471E-3   1.797608789746409E-3  
 2.021600000000000E10    1.791392901429424E-3   1.390074465975718E-3  
 2.021800000000000E10    1.821408091388919E-3   1.097112376656797E-3  
 2.022000000000000E10    1.896863673917122E-3   9.511991369503517E-4  
 2.022200000000000E10    2.133324449123056E-3   7.923827485043418E-4  
 2.022400000000000E10    2.422997322692364E-3   4.332750524756396E-4  
 2.022600000000000E10    2.546529794387796E-3  -1.061559337863906E-4  
 2.022800000000000E10    2.466190201057881E-3  -6.107743462996075E-4  
 2.023000000000000E10    2.306644520204929E-3  -1.066807351351060E-3  
 2.023200000000000E10    2.044596243649721E-3  -1.513347171971368E-3  
 2.023400000000000E10    1.644587058022067E-3  -1.831534396236142E-3  
 2.023600000000000E10    1.241513614163355E-3  -2.019666212921341E-3  
 2.023800000000000E10    8.273369684401486E-4  -2.104401545323156E-3  
 2.024000000000000E10    5.056595858790119E-4  -2.040588236586364E-3  
 2.024200000000000E10    3.478411958052743E-4  -2.048933524983349E-3  
 2.024400000000000E10    1.110784923420633E-4  -2.221694267872307E-3  
 2.024600000000000E10   -3.264349339857560E-4  -2.326980077972015E-3  
 2.024800000000000E10   -7.972232329107271E-4  -2.234895575653624E-3  
 2.025000000000000E10   -1.189813138572154E-3  -2.029182613585835E-3  
 2.025200000000000E10   -1.502369651225982E-3  -1.769805240824267E-3  
 2.025400000000000E10   -1.754157296899292E-3  -1.491032001838364E-3  
 2.025600000000000E10   -1.981143404177770E-3  -1.194286237781247E-3  
 2.025800000000000E10   -2.188006174509173E-3  -8.584517442310851E-4  
 2.026000000000000E10   -2.337839463035818E-3  -4.305430252484426E-4  
 2.026200000000000E10   -2.355941131504046E-3   3.296079241273995E-5  
 2.026400000000000E10   -2.254129887593014E-3   4.706725680821196E-4  
 2.026600000000000E10   -2.058899193933165E-3   8.185163627516619E-4  
 2.026800000000000E10   -1.878603766844781E-3   1.084031330214607E-3  
 2.027000000000000E10   -1.687133486417157E-3   1.362072381501397E-3  
 2.027200000000000E10   -1.454980625702000E-3   1.620491500943899E-3  
 2.027400000000000E10   -1.143036280862159E-3   1.875113527704445E-3  
 2.027600000000000E10   -7.509826208223348E-4   2.000253845903057E-3  
 2.027800000000000E10   -3.966221130987699E-4   2.022221632715729E-3  
 2.028000000000000E10   -1.034773308169356E-4   1.972789858916292E-3  
 2.028200000000000E10    9.682073538931070E-5   1.938058524737480E-3  
 2.028400000000000E10    2.980085156633760E-4   2.007335135540753E-3  
 2.028600000000000E10    6.556907513489326E-4   2.085711884622773E-3  
 2.028800000000000E10    1.116684387886414E-3   2.016923769756600E-3  
 2.029000000000000E10    1.548995940808069E-3   1.779184305902433E-3  
 2.029200000000000E10    1.876703648896957E-3   1.415638800675946E-3  
 2.029400000000000E10    2.053279645258078E-3   9.931623612323571E-4  
 2.029600000000000E10    2.117975149303675E-3   6.603042064752016E-4  
 2.029800000000000E10    2.223081240016554E-3   3.735560145556789E-4  
 2.030000000000000E10    2.356450987496862E-3  -2.062961397718432E-5  
 2.030200000000000E10    2.356169176184469E-3  -5.200138408259524E-4  
 2.030400000000000E10    2.159120730572829E-3  -9.924922336789746E-4  
 2.030600000000000E10    1.873204092219196E-3  -1.315835031197855E-3  
 2.030800000000000E10    1.611389827707576E-3  -1.538758838756217E-3  
 2.031000000000000E10    1.380507894619196E-3  -1.753891326694025E-3  
 2.031200000000000E10    1.104349848227921E-3  -2.002928190416208E-3  
 2.031400000000000E10    7.139536987610714E-4  -2.190888980058609E-3  
 2.031600000000000E10    3.260457424740135E-4  -2.243907052885603E-3  
 2.031800000000000E10    8.568308085496362E-6  -2.243483232127296E-3  
 2.032000000000000E10   -3.090271590432773E-4  -2.273932668483920E-3  
 2.032200000000000E10   -6.858038034772984E-4  -2.280436964981534E-3  
 2.032400000000000E10   -1.107813411012844E-3  -2.220424952813321E-3  
 2.032600000000000E10   -1.581584055977012E-3  -2.060069676695599E-3  
 2.032800000000000E10   -2.051251474767923E-3  -1.741490201783125E-3  
 2.033000000000000E10   -2.423135969028981E-3  -1.246663849559371E-3  
 2.033200000000000E10   -2.601361678292354E-3  -6.440781225036416E-4  
 2.033400000000000E10   -2.550934208557010E-3  -7.571251841943228E-5  
 2.033600000000000E10   -2.392475760576350E-3   1.320822662415190E-4  
 2.033800000000000E10   -2.181831669683258E-3   6.913758374543654E-4  
 2.034000000000000E10   -1.994880649295670E-3   9.534749228300322E-4  
 2.034200000000000E10   -1.835087409105014E-3   1.174141234649276E-3  
 2.034400000000000E10   -1.707841844849841E-3   1.405685428633458E-3  
 2.034600000000000E10   -1.561175604971747E-3   1.724319174644296E-3  
 2.034800000000000E10   -1.274315079812099E-3   2.084245629332684E-3  
 2.035000000000000E10   -8.152814612171994E-4   2.370955206936708E-3  
 2.035200000000000E10   -2.629744639206264E-4   2.463743702887937E-3  
 2.035400000000000E10    2.351782125144922E-4   2.379225291035794E-3  
 2.035600000000000E10    6.593047162621387E-4   2.193923686044636E-3  
 2.035800000000000E10    1.001130356194659E-3   1.911550156634163E-3  
 2.036000000000000E10    1.199574537437272E-3   1.565464039298672E-3  
 2.036200000000000E10    1.225903380179295E-3   1.270069089649176E-3  
 2.036400000000000E10    1.168232406834486E-3   1.131009676976612E-3  
 2.036600000000000E10    1.168496893822319E-3   1.160361829938160E-3  
 2.036800000000000E10    1.361358164878631E-3   1.263674408956259E-3  
 2.037000000000000E10    1.771132306506237E-3   1.238623823694609E-3  
 2.037200000000000E10    2.203057468351391E-3   9.489855772160270E-4  
 2.037400000000000E10    2.498441487895670E-3   4.815870499307360E-4  
 2.037600000000000E10    2.635847104506360E-3  -5.332802835187909E-5  
 2.037800000000000E10    2.616040003313511E-3  -6.031688104418142E-4  
 2.038000000000000E10    2.446800660066031E-3  -1.112405866108559E-3  
 2.038200000000000E10    2.184356916350899E-3  -1.522906297058971E-3  
 2.038400000000000E10    1.918323687277734E-3  -1.860868573809664E-3  
 2.038600000000000E10    1.626737894386881E-3  -2.168015128484479E-3  
 2.038800000000000E10    1.289459962949709E-3  -2.466047001588676E-3  
 2.039000000000000E10    9.002897853928585E-4  -2.763349209325733E-3  
 2.039200000000000E10    3.702455023476095E-4  -3.031665312678174E-3  
 2.039400000000000E10   -2.978435050290837E-4  -3.162627177381958E-3  
 2.039600000000000E10   -1.019519523079335E-3  -3.073252314977625E-3  
 2.039800000000000E10   -1.661592115717078E-3  -2.750306838640461E-3  
 2.040000000000000E10   -2.174571027151413E-3  -2.313697072504848E-3  
 2.040200000000000E10   -2.595325681829342E-3  -1.782862758436413E-3  
 2.040400000000000E10   -2.844338865812730E-3  -1.140743239644777E-3  
 2.040600000000000E10   -2.886373506582998E-3  -4.857175733411202E-4  
 2.040800000000000E10   -2.756381269406390E-3   9.724220348693459E-5  
 2.041000000000000E10   -2.486208289930666E-3   5.469407338683529E-4  
 2.041200000000000E10   -2.198611981131964E-3   8.085229524618223E-4  
 2.041400000000000E10   -2.023847135542720E-3   1.005106040759495E-3  
 2.041600000000000E10   -1.827446855949583E-3   1.249885018397537E-3  
 2.041800000000000E10   -1.578688388690353E-3   1.418783864075387E-3  
 2.042000000000000E10   -1.408161263464502E-3   1.496335090551940E-3  
 2.042200000000000E10   -1.350792280087868E-3   1.650532457494626E-3  
 2.042400000000000E10   -1.229510996145783E-3   1.971337254400607E-3  
 2.042600000000000E10   -8.966682685746087E-4   2.323447597316570E-3  
 2.042800000000000E10   -4.032063578186488E-4   2.516036689350451E-3  
 2.043000000000000E10    7.662443412873135E-5   2.528539462084020E-3  
 2.043200000000000E10    5.037888746570659E-4   2.494832043777462E-3  
 2.043400000000000E10    9.706289102150887E-4   2.398964517784340E-3  
 2.043600000000000E10    1.451897111514377E-3   2.159687949137555E-3  
 2.043800000000000E10    1.829263301462763E-3   1.729275505230935E-3  
 2.044000000000000E10    1.949597529515072E-3   1.238565771254125E-3  
 2.044200000000000E10    1.894486115176093E-3   8.822585956228001E-4  
 2.044400000000000E10    1.788987773815515E-3   7.208092806481378E-4  
 2.044600000000000E10    1.837669893305887E-3   7.474153664790923E-4  
 2.044800000000000E10    2.166034429575558E-3   6.868318413142806E-4  
 2.045000000000000E10    2.550313697644958E-3   3.151386389853778E-4  
 2.045200000000000E10    2.724232936829881E-3  -2.534859366413137E-4  
 2.045400000000000E10    2.683748085810631E-3  -8.418419790730157E-4  
 2.045600000000000E10    2.510041136432577E-3  -1.373995599957804E-3  
 2.045800000000000E10    2.212251053640136E-3  -1.853551047302231E-3  
 2.046000000000000E10    1.815158477122033E-3  -2.240015926805360E-3  
 2.046200000000000E10    1.375360483372653E-3  -2.507040578940953E-3  
 2.046400000000000E10    9.567299555918134E-4  -2.703009423351398E-3  
 2.046600000000000E10    4.775687552022714E-4  -2.883407468390134E-3  
 2.046800000000000E10   -7.886385423329625E-5  -2.952800287554662E-3  
 2.047000000000000E10   -6.143012993831050E-4  -2.895203436276427E-3  
 2.047200000000000E10   -1.140725600567681E-3  -2.769674484928449E-3  
 2.047400000000000E10   -1.692028957660552E-3  -2.515016735910818E-3  
 2.047600000000000E10   -2.147159703006899E-3  -2.073192261849289E-3  
 2.047800000000000E10   -2.434443699678889E-3  -1.561780611087603E-3  
 2.048000000000000E10   -2.571225511255088E-3  -1.052771168933423E-3  
 2.048200000000000E10   -2.587427186814172E-3  -5.869431597939521E-4  
 2.048400000000000E10   -2.538017299095238E-3  -2.192426548356674E-4  
 2.048600000000000E10   -2.523937400568415E-3   7.085063569118372E-5  
 2.048800000000000E10   -2.566906183751093E-3   4.128601134720224E-4  
 2.049000000000000E10   -2.579567169218704E-3   8.536082761431183E-4  
 2.049200000000000E10   -2.470994626896249E-3   1.369548741624587E-3  
 2.049400000000000E10   -2.177164588054573E-3   1.874456173498874E-3  
 2.049600000000000E10   -1.753877158518191E-3   2.287022476256998E-3  
 2.049800000000000E10   -1.254320411977393E-3   2.607519531415569E-3  
 2.050000000000000E10   -6.313126435054950E-4   2.794217292426361E-3  
 2.050200000000000E10    5.087040045947544E-5   2.738664685576051E-3  
 2.050400000000000E10    6.037592517074061E-4   2.409821057140276E-3  
 2.050600000000000E10    8.760821634765578E-4   1.982036322631218E-3  
 2.050800000000000E10    9.084333669980644E-4   1.641844282858074E-3  
 2.051000000000000E10    8.378838344166677E-4   1.544069334933604E-3  
 2.051200000000000E10    9.394744562019630E-4   1.640981498726264E-3  
 2.051400000000000E10    1.267758085978804E-3   1.654788739634333E-3  
 2.051600000000000E10    1.625274657271802E-3   1.476800177004879E-3  
 2.051800000000000E10    1.874898254215994E-3   1.184830959472392E-3  
 2.052000000000000E10    2.026092295569403E-3   8.899626835180379E-4  
 2.052200000000000E10    2.186954219791073E-3   6.123309528144698E-4  
 2.052400000000000E10    2.348445330022110E-3   2.867799194063991E-4  
 2.052600000000000E10    2.474227514876812E-3  -1.306413730533139E-4  
 2.052800000000000E10    2.476080596722939E-3  -6.616939100678322E-4  
 2.053000000000000E10    2.250578564902147E-3  -1.154302640956033E-3  
 2.053200000000000E10    1.926199088942398E-3  -1.478123521708228E-3  
 2.053400000000000E10    1.638182352676436E-3  -1.684929412375722E-3  
 2.053600000000000E10    1.411187673780929E-3  -1.837513017192207E-3  
 2.053800000000000E10    1.246064026081176E-3  -2.047315998761743E-3  
 2.054000000000000E10    1.001893309876323E-3  -2.387013389832444E-3  
 2.054200000000000E10    5.251457289516651E-4  -2.710929856187216E-3  
 2.054400000000000E10   -9.563913199936335E-5  -2.789260345269685E-3  
 2.054600000000000E10   -6.212769873888681E-4  -2.661105693766365E-3  
 2.054800000000000E10   -1.030491673629041E-3  -2.519139899285856E-3  
 2.055000000000000E10   -1.472717073435585E-3  -2.364494630859958E-3  
 2.055200000000000E10   -1.930250393882118E-3  -2.076795488526976E-3  
 2.055400000000000E10   -2.320183027121756E-3  -1.689809663393707E-3  
 2.055600000000000E10   -2.620209232662563E-3  -1.191602373081777E-3  
