#  HZ   S   RI   R     50.00 
! Rohde & Schwarz ZVA40 4Ports - Version 3.90 - 1145.1110k42 SN: 100403
! Date: 2023-10-04 10:11:20
! Measurement: S12 
! 
 2.200000000000000E10   -1.308256294578314E-2  -7.806390989571810E-3  
 2.202000000000000E10   -5.657201167196035E-3   1.334647834300995E-2  
 2.204000000000000E10    1.289879437536001E-2   4.488147329539061E-3  
 2.206000000000000E10    2.604555804282427E-3  -1.320424675941467E-2  
 2.208000000000000E10   -1.163801830261946E-2  -7.553942123195157E-5  
 2.210000000000000E10    1.307855593040586E-3   1.114630326628685E-2  
 2.212000000000000E10    1.162835210561752E-2  -3.430647775530815E-3  
 2.214000000000000E10   -6.243128795176745E-3  -1.093646418303251E-2  
 2.216000000000000E10   -1.148271001875401E-2   8.719509467482567E-3  
 2.218000000000000E10    1.150616537779570E-2   1.159839332103729E-2  
 2.220000000000000E10    1.084923371672630E-2  -1.226866059005261E-2  
 2.222000000000000E10   -1.270379032939673E-2  -9.361883625388145E-3  
 2.224000000000000E10   -9.112840518355370E-3   1.308624353259802E-2  
 2.226000000000000E10    1.294900197535753E-2   7.624419871717691E-3  
 2.228000000000000E10    6.060413550585508E-3  -1.281662378460169E-2  
 2.230000000000000E10   -1.293918397277594E-2  -4.468638449907303E-3  
 2.232000000000000E10   -1.413493882864714E-3   1.244276016950607E-2  
 2.234000000000000E10    1.322332862764597E-2  -1.392818288877606E-3  
 2.236000000000000E10   -3.576147137209773E-3  -1.320916973054409E-2  
 2.238000000000000E10   -1.242051739245653E-2   5.049959756433964E-3  
 2.240000000000000E10    6.857732776552439E-3   1.340223196893930E-2  
 2.242000000000000E10    1.302567869424820E-2  -8.049095980823040E-3  
 2.244000000000000E10   -9.022152051329613E-3  -1.166935544461012E-2  
 2.246000000000000E10   -1.086806133389473E-2   9.713683277368546E-3  
 2.248000000000000E10    1.028607599437237E-2   9.717554785311222E-3  
 2.250000000000000E10    8.051072247326374E-3  -1.139131188392639E-2  
 2.252000000000000E10   -1.336227636784315E-2  -6.590284872800112E-3  
 2.254000000000000E10   -4.231391008943319E-3   1.390601135790348E-2  
 2.256000000000000E10    1.478406600654125E-2   2.863765694200993E-3  
 2.258000000000000E10    1.246775267645717E-3  -1.566821336746216E-2  
 2.260000000000000E10   -1.577998325228691E-2  -3.359219990670681E-4  
 2.262000000000000E10    9.842811850830913E-4   1.513385772705078E-2  
 2.264000000000000E10    1.408582832664251E-2  -1.539089367724955E-3  
 2.266000000000000E10   -2.894529374316335E-3  -1.415969990193844E-2  
 2.268000000000000E10   -1.280419155955315E-2   5.345247685909271E-3  
 2.270000000000000E10    7.079060189425945E-3   1.179613545536995E-2  
 2.272000000000000E10    1.130844373255968E-2  -9.002598933875561E-3  
 2.274000000000000E10   -1.134446822106838E-2  -9.502569213509560E-3  
 2.276000000000000E10   -8.164612576365471E-3   1.270713564008474E-2  
 2.278000000000000E10    1.410256046801806E-2   7.933882996439934E-3  
 2.280000000000000E10    6.866946350783110E-3  -1.435648370534182E-2  
 2.282000000000000E10   -8.035092614591122E-3  -1.293005421757698E-2  
 2.284000000000000E10   -4.750236868858337E-3   1.435301825404167E-2  
 2.286000000000000E10    1.501794159412384E-2   2.614099998027086E-3  
 2.288000000000000E10   -4.047808179166168E-4  -1.480442658066750E-2  
 2.290000000000000E10   -1.370963081717491E-2   3.283321857452393E-3  
 2.292000000000000E10    5.639614537358284E-3   1.286269351840019E-2  
 2.294000000000000E10    1.334309298545122E-2  -7.965521886944771E-3  
 2.296000000000000E10   -9.546184912323952E-3  -1.319741178303957E-2  
 2.298000000000000E10   -1.294856611639261E-2   1.041640341281891E-2  
 2.300000000000000E10    1.141840871423483E-2   1.291863340884447E-2  
 2.302000000000000E10    1.192167587578297E-2  -1.231065392494202E-2  
 2.304000000000000E10   -1.314790360629559E-2  -1.033554505556822E-2  
 2.306000000000000E10   -8.090355433523655E-3   1.312877330929041E-2  
 2.308000000000000E10    1.289572473615408E-2   5.168562754988670E-3  
 2.310000000000000E10    2.680769190192223E-3  -1.358193904161453E-2  
 2.312000000000000E10   -1.374381128698587E-2   3.842554870061576E-4  
 2.314000000000000E10    1.679953304119408E-3   1.457502692937851E-2  
 2.316000000000000E10    1.563256233930588E-2  -4.324473440647125E-3  
 2.318000000000000E10   -6.809975951910019E-3  -1.570188440382481E-2  
 2.320000000000000E10   -1.549055054783821E-2   9.019689634442329E-3  
 2.322000000000000E10    9.177239611744881E-3   1.464951410889626E-2  
 2.324000000000000E10    1.315135508775711E-2  -1.046901009976864E-2  
 2.326000000000000E10   -1.104936189949513E-2  -1.135256979614496E-2  
 2.328000000000000E10   -9.528356604278088E-3   1.206327602267265E-2  
 2.330000000000000E10    1.343382894992828E-2   7.901906035840511E-3  
 2.332000000000000E10    6.318210624158382E-3  -1.413272414356470E-2  
 2.334000000000000E10   -1.496548485010862E-2  -4.080549813807011E-3  
 2.336000000000000E10   -2.881786087527871E-3   1.708836480975151E-2  
 2.338000000000000E10    1.814460009336472E-2   9.584044455550611E-4  
 2.340000000000000E10   -1.743646687828004E-3  -1.627748459577560E-2  
 2.342000000000000E10   -1.547228544950485E-2   3.691912628710270E-3  
 2.344000000000000E10    5.504275206476450E-3   1.466478686779738E-2  
 2.346000000000000E10    1.297971606254578E-2  -8.111989125609398E-3  
 2.348000000000000E10   -9.654313325881958E-3  -1.094174943864346E-2  
 2.350000000000000E10   -1.002735365182161E-2   1.139081921428442E-2  
 2.352000000000000E10    1.512655336409807E-2   9.540415368974209E-3  
 2.354000000000000E10    8.625987917184830E-3  -1.648173108696938E-2  
 2.356000000000000E10   -1.764463447034359E-2  -7.762230001389980E-3  
 2.358000000000000E10   -5.391906015574932E-3   1.861233636736870E-2  
 2.360000000000000E10    1.698066107928753E-2   4.115619696676731E-3  
 2.362000000000000E10    3.213666845113039E-3  -1.696575619280338E-2  
 2.364000000000000E10   -1.573866233229637E-2  -1.871673739515245E-3  
 2.366000000000000E10    8.218236034736037E-4   1.480498630553484E-2  
 2.368000000000000E10    1.380114816129208E-2  -4.547571763396263E-3  
 2.370000000000000E10   -7.651830092072487E-3  -1.298144925385714E-2  
 2.372000000000000E10   -1.211623009294272E-2   1.026547141373158E-2  
 2.374000000000000E10    1.347818877547979E-2   1.126660779118538E-2  
 2.376000000000000E10    9.601773694157600E-3  -1.463630143553019E-2  
 2.378000000000000E10   -1.577714271843433E-2  -8.868858218193054E-3  
 2.380000000000000E10   -8.742794394493103E-3   1.662365533411503E-2  
 2.382000000000000E10    1.656433008611202E-2   7.337738759815693E-3  
 2.384000000000000E10    4.425169900059700E-3  -1.652193255722523E-2  
 2.386000000000000E10   -1.675590686500073E-2  -3.218096448108554E-3  
 2.388000000000000E10   -5.763150402344763E-4   1.692279614508152E-2  
 2.390000000000000E10    1.667660288512707E-2  -2.785257296636701E-3  
 2.392000000000000E10   -4.634842276573181E-3  -1.511910185217857E-2  
 2.394000000000000E10   -1.503720600157976E-2   7.063775788992643E-3  
 2.396000000000000E10    9.165199473500252E-3   1.449406333267689E-2  
 2.398000000000000E10    1.272774208337069E-2  -9.706099517643452E-3  
 2.400000000000000E10   -1.172804459929466E-2  -1.166116166859865E-2  
 2.402000000000000E10   -7.691578473895788E-3   1.398464292287827E-2  
 2.404000000000000E10    1.431425288319588E-2   5.812350660562515E-3  
 2.406000000000000E10    2.537448657676578E-3  -1.617026701569557E-2  
 2.408000000000000E10   -1.572102308273315E-2  -1.162393135018647E-3  
 2.410000000000000E10    1.137109706178308E-3   1.641385443508625E-2  
 2.412000000000000E10    1.668452471494675E-2  -2.227629069238901E-3  
 2.414000000000000E10   -2.346309833228588E-3  -1.706677116453648E-2  
 2.416000000000000E10   -1.709371060132980E-2   3.630412975326181E-3  
 2.418000000000000E10    4.466171376407147E-3   1.667635515332222E-2  
 2.420000000000000E10    1.509456150233746E-2  -5.395969841629267E-3  
 2.422000000000000E10   -6.701816804707050E-3  -1.300098747014999E-2  
 2.424000000000000E10   -1.139642298221588E-2   8.121758699417114E-3  
 2.426000000000000E10    1.040285080671310E-2   8.504764176905155E-3  
 2.428000000000000E10    6.028902716934681E-3  -1.249563321471214E-2  
 2.430000000000000E10   -1.382298488169909E-2  -4.393609706312418E-3  
 2.432000000000000E10   -3.040949348360300E-3   1.608145609498024E-2  
 2.434000000000000E10    1.754667237401009E-2   1.867862185463309E-3  
 2.436000000000000E10    7.174418424256146E-4  -1.807982474565506E-2  
 2.438000000000000E10   -1.719881035387516E-2   1.655923842918128E-4  
 2.440000000000000E10    1.505324471509084E-4   1.728093624114990E-2  
 2.442000000000000E10    1.624827086925507E-2  -1.808970235288143E-3  
 2.444000000000000E10   -3.696074709296227E-3  -1.361401099711657E-2  
 2.446000000000000E10   -1.217829529196024E-2   4.636919125914574E-3  
 2.448000000000000E10    6.181614007800818E-3   1.132595259696245E-2  
 2.450000000000000E10    1.026655454188585E-2  -7.215440738946199E-3  
 2.452000000000000E10   -1.025696285068989E-2  -9.248339571058750E-3  
 2.454000000000000E10   -7.965920493006706E-3   1.176810730248690E-2  
 2.456000000000000E10    1.180272735655308E-2   7.090877275913954E-3  
 2.458000000000000E10    5.684509407728910E-3  -1.345960423350334E-2  
 2.460000000000000E10   -1.402742415666580E-2  -3.996100742369890E-3  
 2.462000000000000E10   -1.997236162424088E-3   1.340681314468384E-2  
 2.464000000000000E10    1.373572554439306E-2   1.634651125641540E-4  
 2.466000000000000E10   -3.556578012648970E-4  -1.385545730590820E-2  
 2.468000000000000E10   -1.441258471459150E-2   1.873455708846450E-3  
 2.470000000000000E10    3.432692959904671E-3   1.457081362605095E-2  
 2.472000000000000E10    1.421311404556036E-2  -3.864880185574293E-3  
 2.474000000000000E10   -5.857005249708891E-3  -1.374173350632191E-2  
 2.476000000000000E10   -1.325813401490450E-2   5.812772549688816E-3  
 2.478000000000000E10    6.260556634515524E-3   1.157596893608570E-2  
 2.480000000000000E10    8.852072060108185E-3  -7.773811928927898E-3  
 2.482000000000000E10   -8.726773783564568E-3  -7.239406928420067E-3  
 2.484000000000000E10   -5.828245542943478E-3   9.398068301379681E-3  
 2.486000000000000E10    1.141907647252083E-2   3.066968871280551E-3  
 2.488000000000000E10    7.951302104629576E-4  -1.289574708789587E-2  
 2.490000000000000E10   -1.340619847178459E-2   6.779507966712117E-4  
 2.492000000000000E10    1.440076739527285E-3   1.457548514008522E-2  
 2.494000000000000E10    1.517749950289726E-2  -1.182809355668724E-3  
 2.496000000000000E10   -2.556707477197051E-3  -1.520982850342989E-2  
 2.498000000000000E10   -1.433102693408728E-2   2.660164842382073E-3  
 2.500000000000000E10    2.259508240967989E-3   1.353530772030354E-2  
 2.502000000000000E10    1.253390777856112E-2  -3.580712713301182E-3  
 2.504000000000000E10   -5.303465295583010E-3  -1.051044557243586E-2  
 2.506000000000000E10   -9.160298854112625E-3   6.027877330780029E-3  
 2.508000000000000E10    7.977161556482315E-3   7.942028343677521E-3  
 2.510000000000000E10    6.636176723986864E-3  -9.534048847854137E-3  
 2.512000000000000E10   -1.106408890336752E-2  -5.800782237201929E-3  
 2.514000000000000E10   -3.630628110840917E-3   1.193719264119864E-2  
 2.516000000000000E10    1.249184366315603E-2   3.269478678703308E-3  
 2.518000000000000E10    2.550941193476319E-3  -1.318711042404175E-2  
 2.520000000000000E10   -1.353179011493921E-2  -9.600965422578156E-4  
 2.522000000000000E10    8.267406956292689E-4   1.381047908216715E-2  
 2.524000000000000E10    1.364021748304367E-2  -2.003889763727784E-3  
 2.526000000000000E10   -3.660053480416536E-3  -1.383039914071560E-2  
 2.528000000000000E10   -1.313650608062744E-2   5.056518130004406E-3  
 2.530000000000000E10    6.395674310624600E-3   1.235127635300160E-2  
 2.532000000000000E10    1.225006114691496E-2  -7.569298613816500E-3  
 2.534000000000000E10   -8.029559627175331E-3  -1.114671491086483E-2  
 2.536000000000000E10   -9.289022535085678E-3   8.314681239426136E-3  
 2.538000000000000E10    9.922862052917481E-3   7.772607728838921E-3  
 2.540000000000000E10    5.295992363244295E-3  -1.064177416265011E-2  
 2.542000000000000E10   -1.097055897116661E-2  -2.998336218297482E-3  
 2.544000000000000E10   -8.056320366449654E-4   1.173260342329741E-2  
 2.546000000000000E10    1.277572475373745E-2  -7.719101267866790E-4  
 2.548000000000000E10   -2.999376971274614E-3  -1.413198560476303E-2  
 2.550000000000000E10   -1.363864354789257E-2   4.163947422057390E-3  
 2.552000000000000E10    5.249766632914543E-3   1.444460824131966E-2  
 2.554000000000000E10    1.388888247311115E-2  -5.998325534164906E-3  
 2.556000000000000E10   -5.833968054503202E-3  -1.304200384765863E-2  
 2.558000000000000E10   -1.210082322359085E-2   7.037086877971888E-3  
 2.560000000000000E10    7.983380928635597E-3   1.079842168837786E-2  
 2.562000000000000E10    8.374251425266266E-3  -8.673411794006825E-3  
 2.564000000000000E10   -9.579868987202644E-3  -6.433113478124142E-3  
 2.566000000000000E10   -4.658446647226811E-3   1.100878510624170E-2  
 2.568000000000000E10    1.295654755085707E-2   2.390235662460327E-3  
 2.570000000000000E10   -1.723929453874007E-4  -1.358101796358824E-2  
 2.572000000000000E10   -1.316794659942389E-2   1.997692510485649E-3  
 2.574000000000000E10    3.059859620407224E-3   1.362264063209295E-2  
 2.576000000000000E10    1.442873105406761E-2  -4.343587439507246E-3  
 2.578000000000000E10   -6.102686282247305E-3  -1.285418681800365E-2  
 2.580000000000000E10   -1.215770561248064E-2   7.251702249050140E-3  
 2.582000000000000E10    7.780129089951515E-3   1.129243709146977E-2  
 2.584000000000000E10    1.015069894492626E-2  -9.277158416807652E-3  
 2.586000000000000E10   -1.130542811006308E-2  -9.423882700502873E-3  
 2.588000000000000E10   -8.039062842726708E-3   1.131418533623219E-2  
 2.590000000000000E10    1.164188887923956E-2   6.164616439491510E-3  
 2.592000000000000E10    5.081281531602144E-3  -1.266972161829472E-2  
 2.594000000000000E10   -1.192939188331366E-2  -3.354989457875490E-3  
 2.596000000000000E10   -1.684166607446969E-3   1.247711852192879E-2  
 2.598000000000000E10    1.205269619822502E-2  -3.198124759364873E-4  
 2.600000000000000E10   -2.851057564839721E-3  -1.139854080975056E-2  
 2.602000000000000E10   -1.213845610618591E-2   4.913168493658304E-3  
 2.604000000000000E10    6.767405197024345E-3   1.231925375759602E-2  
 2.606000000000000E10    1.103604026138783E-2  -8.501526899635792E-3  
 2.608000000000000E10   -9.259769693017006E-3  -1.135520078241825E-2  
 2.610000000000000E10   -1.155732665210962E-2   9.833625517785549E-3  
 2.612000000000000E10    1.023055054247379E-2   1.114443223923445E-2  
 2.614000000000000E10    9.860116057097912E-3  -1.100998558104038E-2  
 2.616000000000000E10   -1.058011315762997E-2  -8.051744662225246E-3  
 2.618000000000000E10   -6.635895464569330E-3   1.118546444922686E-2  
 2.620000000000000E10    1.109364908188582E-2   3.529937705025077E-3  
 2.622000000000000E10    1.198413781821728E-3  -1.097791455686092E-2  
 2.624000000000000E10   -1.124404836446047E-2   2.369149879086763E-4  
 2.626000000000000E10    2.436090027913451E-3   1.151836756616831E-2  
 2.628000000000000E10    1.194394752383232E-2  -4.266181495040655E-3  
 2.630000000000000E10   -4.986369516700506E-3  -1.226715557277203E-2  
 2.632000000000000E10   -1.177246496081352E-2   6.645461078733206E-3  
 2.634000000000000E10    7.832959294319153E-3   1.090147905051708E-2  
 2.636000000000000E10    9.903553873300552E-3  -8.104813285171986E-3  
 2.638000000000000E10   -9.052117355167866E-3  -8.841108530759811E-3  
 2.640000000000000E10   -7.289577741175890E-3   9.846974164247513E-3  
 2.642000000000000E10    1.014983467757702E-2   5.619197152554989E-3  
 2.644000000000000E10    4.269672092050314E-3  -1.038799993693829E-2  
 2.646000000000000E10   -1.095331646502018E-2  -3.699789755046368E-3  
 2.648000000000000E10   -1.756898011080921E-3   1.141083519905806E-2  
 2.650000000000000E10    1.056385692209005E-2   5.515147349797189E-4  
 2.652000000000000E10   -3.292604524176568E-4  -1.090429816395044E-2  
 2.654000000000000E10   -1.075469423085451E-2   2.413297304883599E-3  
 2.656000000000000E10    4.394196905195713E-3   9.434776380658150E-3  
 2.658000000000000E10    8.625323884189129E-3  -5.802703090012074E-3  
 2.660000000000000E10   -7.315119262784720E-3  -7.985671982169151E-3  
 2.662000000000000E10   -7.129564881324768E-3   8.942493237555027E-3  
 2.664000000000000E10    1.000699400901794E-2   6.623910274356604E-3  
 2.666000000000000E10    5.981913302093744E-3  -1.040224917232990E-2  
 2.668000000000000E10   -1.069772057235241E-2  -5.599129945039749E-3  
 2.670000000000000E10   -4.689903464168310E-3   1.043880730867386E-2  
 2.672000000000000E10    9.798552840948105E-3   3.880623728036881E-3  
 2.674000000000000E10    2.570112003013492E-3  -9.047951549291611E-3  
 2.676000000000000E10   -7.947039790451527E-3  -7.811335381120443E-4  
 2.678000000000000E10    4.262053698766977E-4   7.698535919189453E-3  
 2.680000000000000E10    7.073601242154837E-3  -1.859401003457606E-3  
 2.682000000000000E10   -3.458120627328754E-3  -7.782331667840481E-3  
 2.684000000000000E10   -7.666032761335373E-3   5.253228824585676E-3  
 2.686000000000000E10    6.580416113138199E-3   7.875373587012291E-3  
 2.688000000000000E10    7.428600452840328E-3  -7.714276667684317E-3  
 2.690000000000000E10   -7.818392477929592E-3  -7.029540836811066E-3  
 2.692000000000000E10   -6.832190323621035E-3   8.170645684003830E-3  
 2.694000000000000E10    7.980627939105034E-3   5.523740779608488E-3  
 2.696000000000000E10    4.464589525014162E-3  -7.935636676847935E-3  
 2.698000000000000E10   -7.785064168274403E-3  -3.555679693818092E-3  
 2.700000000000000E10   -2.161948010325432E-3   8.184038102626801E-3  
 2.702000000000000E10    7.983569987118244E-3   7.712467922829092E-4  
 2.704000000000000E10   -5.838590441271663E-4  -7.110776845365763E-3  
 2.706000000000000E10   -7.408003322780132E-3   1.116085448302329E-3  
 2.708000000000000E10    2.073106588795781E-3   7.421400398015976E-3  
 2.710000000000000E10    6.829951889812946E-3  -2.515172585844994E-3  
 2.712000000000000E10   -3.532858332619071E-3  -6.836005486547947E-3  
 2.714000000000000E10   -6.210978142917156E-3   4.370255395770073E-3  
 2.716000000000000E10    5.630030762404203E-3   5.229988601058722E-3  
 2.718000000000000E10    4.264856223016977E-3  -6.527475547045469E-3  
 2.720000000000000E10   -6.928325165063143E-3  -3.496827324852347E-3  
 2.722000000000000E10   -3.424867987632752E-3   7.166979368776083E-3  
 2.724000000000000E10    7.743573281913996E-3   2.517389366403222E-3  
 2.726000000000000E10    2.882212866097689E-3  -7.794139906764031E-3  
 2.728000000000000E10   -8.060778491199017E-3  -3.030476160347462E-3  
 2.730000000000000E10   -2.147900639101863E-3   7.418576162308455E-3  
 2.732000000000000E10    7.418334018439055E-3   1.405036309733987E-3  
 2.734000000000000E10   -2.241328766103834E-4  -5.693991668522358E-3  
 2.736000000000000E10   -4.963123239576817E-3   4.642748099286109E-4  
 2.738000000000000E10    1.581077813170850E-3   5.372513085603714E-3  
 2.740000000000000E10    4.765928257256746E-3  -3.640642855316401E-3  
 2.742000000000000E10   -4.612040705978870E-3  -4.179879091680050E-3  
 2.744000000000000E10   -4.217391833662987E-3   5.700758192688227E-3  
 2.746000000000000E10    6.355430465191603E-3   3.482860513031483E-3  
 2.748000000000000E10    3.284318605437875E-3  -6.550281774252653E-3  
 2.750000000000000E10   -6.307329516857863E-3  -3.192329080775380E-3  
 2.752000000000000E10   -2.602916909381747E-3   5.775950383394957E-3  
 2.754000000000000E10    6.053341086953878E-3   2.267434494569898E-3  
 2.756000000000000E10    2.112054731696844E-3  -5.084833130240440E-3  
