#  HZ   S   RI   R     50.00 
! Rohde & Schwarz ZVA40 4Ports - Version 3.90 - 1145.1110k42 SN: 100403
! Date: 2023-10-04 10:17:10
! Measurement: S12 
! 
 2.200000000000000E10   -5.784501321613789E-3  -9.383715689182282E-3  
 2.202000000000000E10   -7.014474831521511E-3   7.560477592051029E-3  
 2.204000000000000E10    8.564355783164501E-3   5.629555787891150E-3  
 2.206000000000000E10    4.841237794607878E-3  -1.102063152939081E-2  
 2.208000000000000E10   -1.279008761048317E-2  -3.124255686998367E-3  
 2.210000000000000E10   -1.247325795702636E-3   1.266113296151161E-2  
 2.212000000000000E10    1.299057062715292E-2   3.071467217523605E-4  
 2.214000000000000E10    4.066760593559593E-4  -1.289956178516150E-2  
 2.216000000000000E10   -1.249783858656883E-2   3.363181021995843E-4  
 2.218000000000000E10    1.152567565441132E-3   1.202402357012034E-2  
 2.220000000000000E10    1.039565913379192E-2  -2.982378471642733E-3  
 2.222000000000000E10   -3.886577906087041E-3  -9.051442146301270E-3  
 2.224000000000000E10   -8.526644669473171E-3   5.509895272552967E-3  
 2.226000000000000E10    6.813729647547007E-3   6.937714293599129E-3  
 2.228000000000000E10    6.172065157443285E-3  -9.173956699669361E-3  
 2.230000000000000E10   -1.008543185889721E-2  -5.860516801476479E-3  
 2.232000000000000E10   -4.128198139369488E-3   1.176302134990692E-2  
 2.234000000000000E10    1.192450243979693E-2   2.617636695504189E-3  
 2.236000000000000E10    2.956368960440159E-3  -1.135988999158144E-2  
 2.238000000000000E10   -1.164127141237259E-2  -1.679875655099750E-3  
 2.240000000000000E10   -2.532411963329651E-5   1.215969119220972E-2  
 2.242000000000000E10    1.073804777115583E-2  -1.222958089783788E-3  
 2.244000000000000E10   -3.026425605639815E-3  -1.083595026284456E-2  
 2.246000000000000E10   -1.085010170936585E-2   3.652452724054456E-3  
 2.248000000000000E10    5.491568706929684E-3   1.035239268094301E-2  
 2.250000000000000E10    1.027477718889713E-2  -6.380973383784294E-3  
 2.252000000000000E10   -7.452992256730795E-3  -9.551644325256348E-3  
 2.254000000000000E10   -8.583454415202141E-3   8.168825879693031E-3  
 2.256000000000000E10    8.804182521998882E-3   7.439681794494391E-3  
 2.258000000000000E10    6.159703712910414E-3  -9.099747054278851E-3  
 2.260000000000000E10   -1.028515212237835E-2  -4.698363132774830E-3  
 2.262000000000000E10   -2.102505415678024E-3   1.059760153293610E-2  
 2.264000000000000E10    1.075027510523796E-2   1.318056019954383E-3  
 2.266000000000000E10   -6.500001763924956E-4  -1.274331007152796E-2  
 2.268000000000000E10   -1.305791269987822E-2   2.419033320620656E-3  
 2.270000000000000E10    2.330309478566051E-3   1.285429205745459E-2  
 2.272000000000000E10    1.336761191487312E-2  -2.776536857709289E-3  
 2.274000000000000E10   -3.665891941636801E-3  -1.280145812779665E-2  
 2.276000000000000E10   -1.165029499679804E-2   3.537712385877967E-3  
 2.278000000000000E10    5.126945208758116E-3   1.059277076274157E-2  
 2.280000000000000E10    8.044128306210041E-3  -6.121734157204628E-3  
 2.282000000000000E10   -1.827450701966882E-3  -9.022403508424759E-3  
 2.284000000000000E10   -4.444799385964871E-3   9.108112193644047E-3  
 2.286000000000000E10    1.047014724463224E-2   3.280429402366281E-3  
 2.288000000000000E10    2.531275618821383E-3  -1.206170488148928E-2  
 2.290000000000000E10   -1.369761396199465E-2  -6.193316075950861E-4  
 2.292000000000000E10   -1.886887621367350E-4   1.451938785612583E-2  
 2.294000000000000E10    1.516310684382916E-2  -1.381720649078488E-3  
 2.296000000000000E10   -1.507320674136281E-3  -1.429673749953508E-2  
 2.298000000000000E10   -1.283002924174070E-2   1.758018508553505E-3  
 2.300000000000000E10    3.324889577925205E-3   1.163098867982626E-2  
 2.302000000000000E10    1.121315360069275E-2  -4.728513304144144E-3  
 2.304000000000000E10   -5.438415333628655E-3  -9.620700962841511E-3  
 2.306000000000000E10   -7.978192530572414E-3   6.922205444425345E-3  
 2.308000000000000E10    8.929121308028698E-3   7.089873310178518E-3  
 2.310000000000000E10    5.869314074516296E-3  -1.040801592171192E-2  
 2.312000000000000E10   -1.081926282495260E-2  -4.830187652260065E-3  
 2.314000000000000E10   -3.465875750407577E-3   1.177199184894562E-2  
 2.316000000000000E10    1.241602562367916E-2   1.613146741874516E-3  
 2.318000000000000E10   -1.762409083312377E-4  -1.246518921107054E-2  
 2.320000000000000E10   -1.160418428480625E-2   1.975146122276783E-3  
 2.322000000000000E10    3.168643917888403E-3   1.179166510701180E-2  
 2.324000000000000E10    1.238263584673405E-2  -5.560053046792746E-3  
 2.326000000000000E10   -7.027224637567997E-3  -1.279478520154953E-2  
 2.328000000000000E10   -1.274372171610594E-2   8.225839585065842E-3  
 2.330000000000000E10    9.571475908160210E-3   1.120425947010517E-2  
 2.332000000000000E10    9.979780763387680E-3  -1.003673486411572E-2  
 2.334000000000000E10   -8.702535182237625E-3  -9.609806351363659E-3  
 2.336000000000000E10   -8.257891051471233E-3   9.238696657121182E-3  
 2.338000000000000E10    9.432354941964150E-3   5.677478853613138E-3  
 2.340000000000000E10    3.405204508453608E-3  -8.972645737230778E-3  
 2.342000000000000E10   -1.003542076796293E-2  -6.125141517259181E-4  
 2.344000000000000E10    1.884781406261027E-3   1.152695436030626E-2  
 2.346000000000000E10    1.138490624725819E-2  -4.785485565662384E-3  
 2.348000000000000E10   -7.576946634799242E-3  -1.124869193881750E-2  
 2.350000000000000E10   -1.239199470728636E-2   8.297955617308617E-3  
 2.352000000000000E10    9.700194932520390E-3   1.274600159376860E-2  
 2.354000000000000E10    1.178658846765757E-2  -1.060262043029070E-2  
 2.356000000000000E10   -1.044052932411432E-2  -1.095705945044756E-2  
 2.358000000000000E10   -9.233295917510986E-3   1.087214332073927E-2  
 2.360000000000000E10    1.108183618634939E-2   7.043501827865839E-3  
 2.362000000000000E10    5.464748479425907E-3  -1.027019042521715E-2  
 2.364000000000000E10   -1.052599027752876E-2  -2.697235206142068E-3  
 2.366000000000000E10   -1.078602144843899E-4   1.130112074315548E-2  
 2.368000000000000E10    1.136881671845913E-2  -8.199178846552968E-4  
 2.370000000000000E10   -2.366745145991445E-3  -1.059388834983110E-2  
 2.372000000000000E10   -1.099624671041966E-2   4.085146822035313E-3  
 2.374000000000000E10    6.203623488545418E-3   1.178312674164772E-2  
 2.376000000000000E10    1.116031408309937E-2  -8.023243397474289E-3  
 2.378000000000000E10   -9.090339764952660E-3  -9.488397277891636E-3  
 2.380000000000000E10   -7.768422830849886E-3   1.031719706952572E-2  
 2.382000000000000E10    1.202974934130907E-2   6.060601212084293E-3  
 2.384000000000000E10    5.988969001919031E-3  -1.326164044439793E-2  
 2.386000000000000E10   -1.349814329296351E-2  -4.058456514030695E-3  
 2.388000000000000E10   -2.451454987749457E-3   1.393046230077744E-2  
 2.390000000000000E10    1.412871200591326E-2   1.710613491013646E-3  
 2.392000000000000E10    1.240229234099388E-3  -1.357729826122522E-2  
 2.394000000000000E10   -1.276283152401447E-2   2.636002900544554E-4  
 2.396000000000000E10    1.413887599483132E-3   1.082136202603579E-2  
 2.398000000000000E10    9.750911965966225E-3  -3.091333433985710E-3  
 2.400000000000000E10   -5.442797672003508E-3  -8.504478260874748E-3  
 2.402000000000000E10   -6.147119216620922E-3   8.514288812875748E-3  
 2.404000000000000E10    1.041808724403381E-2   4.683083388954401E-3  
 2.406000000000000E10    3.752372227609158E-3  -1.217255182564259E-2  
 2.408000000000000E10   -1.353066880255938E-2  -2.942845690995455E-3  
 2.410000000000000E10   -2.411180175840855E-3   1.429432258009911E-2  
 2.412000000000000E10    1.435534842312336E-2   2.506270306184888E-3  
 2.414000000000000E10    1.357557368464768E-3  -1.407619658857584E-2  
 2.416000000000000E10   -1.308753155171871E-2  -5.714182625524700E-4  
 2.418000000000000E10    1.440599589841440E-4   1.161499880254269E-2  
 2.420000000000000E10    1.069707144051790E-2  -1.405711518600583E-3  
 2.422000000000000E10   -2.862732624635100E-3  -9.823048487305641E-3  
 2.424000000000000E10   -8.769633248448372E-3   5.255174823105335E-3  
 2.426000000000000E10    6.640136241912842E-3   8.032013662159443E-3  
 2.428000000000000E10    7.795246317982674E-3  -8.256271481513977E-3  
 2.430000000000000E10   -9.864431805908680E-3  -6.973103620111942E-3  
 2.432000000000000E10   -6.286415271461010E-3   1.110152620822191E-2  
 2.434000000000000E10    1.111201103776693E-2   5.487734451889992E-3  
 2.436000000000000E10    3.873971989378333E-3  -1.121784094721079E-2  
 2.438000000000000E10   -1.168912090361118E-2  -2.617388730868697E-3  
 2.440000000000000E10   -1.619970775209367E-3   1.109512709081173E-2  
 2.442000000000000E10    1.126713771373034E-2  -3.238787758164108E-4  
 2.444000000000000E10   -2.098537748679519E-3  -1.086339261382818E-2  
 2.446000000000000E10   -1.054783072322607E-2   2.664661267772317E-3  
 2.448000000000000E10    3.500658087432385E-3   1.052879169583321E-2  
 2.450000000000000E10    1.001375541090965E-2  -4.277460277080536E-3  
 2.452000000000000E10   -5.004432983696461E-3  -9.242563508450985E-3  
 2.454000000000000E10   -8.889291435480118E-3   5.532192531973124E-3  
 2.456000000000000E10    5.655126646161079E-3   7.594200316816568E-3  
 2.458000000000000E10    6.817134562879801E-3  -6.487628445029259E-3  
 2.460000000000000E10   -8.932262659072876E-3  -4.599366337060928E-3  
 2.462000000000000E10   -3.213696414604783E-3   9.540093131363392E-3  
 2.464000000000000E10    1.028401963412762E-2   1.793463947251439E-3  
 2.466000000000000E10    1.516901189461350E-3  -1.145036704838276E-2  
 2.468000000000000E10   -1.310001313686371E-2  -4.682901781052351E-4  
 2.470000000000000E10    9.535521967336536E-4   1.268372591584921E-2  
 2.472000000000000E10    1.224468834698200E-2  -9.638333576731384E-4  
 2.474000000000000E10   -1.096214517019689E-3  -1.133666932582855E-2  
 2.476000000000000E10   -1.086362916976214E-2   1.312858425080776E-3  
 2.478000000000000E10    2.645582193508744E-3   9.241862222552300E-3  
 2.480000000000000E10    8.016684092581272E-3  -3.749949857592583E-3  
 2.482000000000000E10   -5.683828610926867E-3  -6.920618936419487E-3  
 2.484000000000000E10   -5.623769015073776E-3   7.077148184180260E-3  
 2.486000000000000E10    8.940259926021099E-3   4.734509624540806E-3  
 2.488000000000000E10    3.329372731968761E-3  -1.044427044689655E-2  
 2.490000000000000E10   -1.068100705742836E-2  -2.977691357955337E-3  
 2.492000000000000E10   -2.444398356601596E-3   1.064474601298571E-2  
 2.494000000000000E10    1.116910856217146E-2   2.093036659061909E-3  
 2.496000000000000E10    1.085846801288426E-3  -1.209295168519020E-2  
 2.498000000000000E10   -1.093011721968651E-2   6.149366381578147E-4  
 2.500000000000000E10    1.677170628681779E-3   9.451766498386860E-3  
 2.502000000000000E10    9.181343950331211E-3  -2.917565405368805E-3  
 2.504000000000000E10   -4.451629705727100E-3  -8.799482136964798E-3  
 2.506000000000000E10   -8.046623319387436E-3   4.445536527782679E-3  
 2.508000000000000E10    5.323745310306549E-3   8.105387911200523E-3  
 2.510000000000000E10    7.809724658727646E-3  -6.684293039143086E-3  
 2.512000000000000E10   -7.228046655654907E-3  -7.621906232088804E-3  
 2.514000000000000E10   -6.662278436124325E-3   7.761041168123484E-3  
 2.516000000000000E10    8.871600963175297E-3   5.797335412353277E-3  
 2.518000000000000E10    4.204053431749344E-3  -9.263975545763969E-3  
 2.520000000000000E10   -9.864646010100842E-3  -2.688818611204624E-3  
 2.522000000000000E10   -4.754029214382172E-4   1.092546992003918E-2  
 2.524000000000000E10    1.041436474770308E-2  -5.577878328040242E-4  
 2.526000000000000E10   -1.643131370656192E-3  -1.099608186632395E-2  
 2.528000000000000E10   -1.155862677842379E-2   2.903046086430550E-3  
 2.530000000000000E10    3.881003009155393E-3   1.170852221548557E-2  
 2.532000000000000E10    1.133524533361197E-2  -3.944908734411001E-3  
 2.534000000000000E10   -4.495074506849051E-3  -1.045610383152962E-2  
 2.536000000000000E10   -8.980221115052700E-3   5.734778475016356E-3  
 2.538000000000000E10    6.333059631288052E-3   6.983402185142040E-3  
 2.540000000000000E10    6.340803112834692E-3  -6.819669157266617E-3  
 2.542000000000000E10   -7.892290130257607E-3  -4.918179474771023E-3  
 2.544000000000000E10   -3.070765640586615E-3   9.397103451192379E-3  
 2.546000000000000E10    1.127495244145393E-2   2.472574589774013E-3  
 2.548000000000000E10    1.379692112095654E-3  -1.230605598539114E-2  
 2.550000000000000E10   -1.287428755313158E-2   1.612387713976204E-4  
 2.552000000000000E10    2.210334409028292E-3   1.241086609661579E-2  
 2.554000000000000E10    1.149304956197739E-2  -2.700241049751639E-3  
 2.556000000000000E10   -2.560000168159604E-3  -1.101535093039274E-2  
 2.558000000000000E10   -1.015205495059490E-2   4.028923809528351E-3  
 2.560000000000000E10    4.974650219082832E-3   9.068349376320839E-3  
 2.562000000000000E10    8.465541526675224E-3  -6.061292719095945E-3  
 2.564000000000000E10   -7.790871430188417E-3  -7.638657931238413E-3  
 2.566000000000000E10   -6.767111364752054E-3   9.703804738819599E-3  
 2.568000000000000E10    1.129985228180885E-2   4.810072481632233E-3  
 2.570000000000000E10    2.890438539907336E-3  -1.194577850401402E-2  
 2.572000000000000E10   -1.217555440962315E-2  -2.167603233829141E-3  
 2.574000000000000E10   -1.220069942064583E-3   1.248031202703714E-2  
 2.576000000000000E10    1.217706967145205E-2  -5.469546886160970E-4  
 2.578000000000000E10   -2.667859662324190E-3  -1.201234105974436E-2  
 2.580000000000000E10   -1.175895240157843E-2   4.643167834728956E-3  
 2.582000000000000E10    6.023671943694353E-3   1.096405461430550E-2  
 2.584000000000000E10    9.625556878745556E-3  -7.214643992483616E-3  
 2.586000000000000E10   -8.726426400244236E-3  -9.152935817837715E-3  
 2.588000000000000E10   -8.784667588770390E-3   9.695616550743580E-3  
 2.590000000000000E10    8.897830732166767E-3   7.510369643568993E-3  
 2.592000000000000E10    7.631269749253988E-3  -9.397753514349461E-3  
 2.594000000000000E10   -1.086414139717817E-2  -6.593814585357904E-3  
 2.596000000000000E10   -4.335320554673672E-3   1.116538234055042E-2  
 2.598000000000000E10    1.122908946126699E-2   2.671864349395037E-3  
 2.600000000000000E10    9.644520469009876E-4  -1.171556487679482E-2  
 2.602000000000000E10   -1.223303750157356E-2   1.710528158582747E-3  
 2.604000000000000E10    4.294713493436575E-3   1.196999661624432E-2  
 2.606000000000000E10    1.156606432050467E-2  -5.172991193830967E-3  
 2.608000000000000E10   -6.024545524269342E-3  -1.199438609182835E-2  
 2.610000000000000E10   -1.176293846219778E-2   6.855222396552563E-3  
 2.612000000000000E10    7.758214138448238E-3   1.080032717436552E-2  
 2.614000000000000E10    1.100840233266354E-2  -8.570752106606960E-3  
 2.616000000000000E10   -8.887162432074547E-3  -9.783832356333733E-3  
 2.618000000000000E10   -7.513575721532106E-3   9.037748910486698E-3  
 2.620000000000000E10    1.056601013988257E-2   5.733265541493893E-3  
 2.622000000000000E10    4.482914227992296E-3  -1.127136405557394E-2  
 2.624000000000000E10   -1.155608333647251E-2  -2.895850688219070E-3  
 2.626000000000000E10   -1.406527822837234E-3   1.213333383202553E-2  
 2.628000000000000E10    1.285758148878813E-2   1.578465016791597E-4  
 2.630000000000000E10   -2.029119757935405E-3  -1.375428959727287E-2  
 2.632000000000000E10   -1.278898864984512E-2   3.238182980567217E-3  
 2.634000000000000E10    4.408243577927351E-3   1.133255753666163E-2  
 2.636000000000000E10    1.062916964292526E-2  -5.697025451809168E-3  
 2.638000000000000E10   -6.931863725185394E-3  -9.725486859679222E-3  
 2.640000000000000E10   -7.721828296780586E-3   7.325503975152969E-3  
 2.642000000000000E10    8.661763742566109E-3   8.166722953319550E-3  
 2.644000000000000E10    7.365270983427763E-3  -1.055857632309198E-2  
 2.646000000000000E10   -1.151830609887838E-2  -5.405874457210302E-3  
 2.648000000000000E10   -5.111287813633680E-3   1.264811214059591E-2  
 2.650000000000000E10    1.270257402211428E-2   4.240581765770912E-3  
 2.652000000000000E10    2.135863061994314E-3  -1.281303726136684E-2  
 2.654000000000000E10   -1.246753334999085E-2  -5.463591078296304E-4  
 2.656000000000000E10    4.461483622435480E-4   1.155707240104675E-2  
 2.658000000000000E10    1.145770400762558E-2  -2.597551792860031E-3  
 2.660000000000000E10   -4.640206228941679E-3  -1.019492559134960E-2  
 2.662000000000000E10   -9.087554179131985E-3   6.380767095834017E-3  
 2.664000000000000E10    7.806276436895132E-3   8.984135463833809E-3  
 2.666000000000000E10    7.638827431946993E-3  -9.058209136128426E-3  
 2.668000000000000E10   -9.601297788321972E-3  -6.202531978487968E-3  
 2.670000000000000E10   -5.823115352541208E-3   9.875520132482052E-3  
 2.672000000000000E10    9.855000302195549E-3   5.515160970389843E-3  
 2.674000000000000E10    4.298282787203789E-3  -1.053993124514818E-2  
 2.676000000000000E10   -1.020393613725901E-2  -2.552064834162593E-3  
 2.678000000000000E10   -2.311152406036854E-3   1.088831014931202E-2  
 2.680000000000000E10    1.086466293781996E-2   5.150640208739787E-5  
 2.682000000000000E10   -1.697675092145801E-3  -1.064209360629320E-2  
 2.684000000000000E10   -1.061149686574936E-2   2.546160249039531E-3  
 2.686000000000000E10    3.727743169292808E-3   1.066073961555958E-2  
 2.688000000000000E10    1.027764007449150E-2  -5.308642052114010E-3  
 2.690000000000000E10   -5.190737545490265E-3  -9.089051745831966E-3  
 2.692000000000000E10   -8.542696945369244E-3   6.259423214942217E-3  
 2.694000000000000E10    6.749599240720272E-3   7.473565638065338E-3  
 2.696000000000000E10    5.766993854194880E-3  -7.353468332439661E-3  
 2.698000000000000E10   -7.195672485977411E-3  -4.099904559552670E-3  
 2.700000000000000E10   -3.225366584956646E-3   8.099243976175785E-3  
 2.702000000000000E10    9.560253471136093E-3   1.880207681097090E-3  
 2.704000000000000E10    3.333985659992322E-5  -9.612074121832848E-3  
 2.706000000000000E10   -9.839823469519615E-3   2.405230770818889E-4  
 2.708000000000000E10    4.597888619173318E-4   1.005855109542608E-2  
 2.710000000000000E10    1.046312134712935E-2  -1.548022381030023E-3  
 2.712000000000000E10   -2.090937690809369E-3  -1.038070674985647E-2  
 2.714000000000000E10   -9.615607559680939E-3   2.177124144509435E-3  
 2.716000000000000E10    3.034770721569657E-3   8.616943843662739E-3  
 2.718000000000000E10    7.668782025575638E-3  -4.005979280918837E-3  
 2.720000000000000E10   -4.401705693453550E-3  -6.528452038764954E-3  
 2.722000000000000E10   -5.910586100071669E-3   5.007809959352016E-3  
 2.724000000000000E10    6.034321151673794E-3   4.532475024461746E-3  
 2.726000000000000E10    4.627193324267864E-3  -6.899513304233551E-3  
 2.728000000000000E10   -7.981858216226101E-3  -3.767329035326839E-3  
 2.730000000000000E10   -3.110096789896488E-3   7.965075783431530E-3  
 2.732000000000000E10    8.500160649418831E-3   1.987711060792208E-3  
 2.734000000000000E10    1.225159736350179E-3  -8.335186168551445E-3  
 2.736000000000000E10   -8.215131238102913E-3  -4.420517652761191E-4  
 2.738000000000000E10    2.765536773949862E-4   8.414596319198608E-3  
 2.740000000000000E10    8.263294585049152E-3  -1.854237518273294E-3  
 2.742000000000000E10   -3.036665264517069E-3  -8.292328566312790E-3  
 2.744000000000000E10   -7.680159062147141E-3   3.753886092454195E-3  
 2.746000000000000E10    4.343423061072826E-3   7.265809923410416E-3  
 2.748000000000000E10    7.037908770143986E-3  -5.299309734255076E-3  
 2.750000000000000E10   -5.334653891623020E-3  -6.275099236518145E-3  
 2.752000000000000E10   -5.697948392480612E-3   4.895318299531937E-3  
 2.754000000000000E10    5.091774277389050E-3   5.364447832107544E-3  
 2.756000000000000E10    4.619796760380268E-3  -5.222314968705177E-3  
