#  HZ   S   RI   R     50.00 
! Rohde & Schwarz ZVA40 4Ports - Version 3.90 - 1145.1110k42 SN: 100403
! Date: 2023-10-04 10:18:58
! Measurement: S12 
! 
 2.200000000000000E10   -6.233200896531344E-3  -9.165391325950623E-3  
 2.202000000000000E10   -7.921427488327026E-3   7.289443630725145E-3  
 2.204000000000000E10    8.142433129251003E-3   6.217185407876968E-3  
 2.206000000000000E10    5.100519396364689E-3  -9.411792270839214E-3  
 2.208000000000000E10   -9.853972122073174E-3  -3.321212483569980E-3  
 2.210000000000000E10   -8.980211568996310E-4   1.019852235913277E-2  
 2.212000000000000E10    1.055810041725636E-2  -3.202629741281271E-4  
 2.214000000000000E10   -4.624044813681394E-4  -1.003812998533249E-2  
 2.216000000000000E10   -1.021917164325714E-2   2.445750171318650E-3  
 2.218000000000000E10    3.518485929816961E-3   9.328387677669525E-3  
 2.220000000000000E10    8.907581679522991E-3  -4.131644964218140E-3  
 2.222000000000000E10   -5.533160176128149E-3  -8.934119716286659E-3  
 2.224000000000000E10   -8.431398309767246E-3   6.259075365960598E-3  
 2.226000000000000E10    7.547399960458279E-3   7.452791556715965E-3  
 2.228000000000000E10    7.059906143695116E-3  -9.340383112430573E-3  
 2.230000000000000E10   -9.302644990384579E-3  -6.722360383719206E-3  
 2.232000000000000E10   -5.468870047479868E-3   9.254049509763718E-3  
 2.234000000000000E10    1.003474369645119E-2   4.392236005514860E-3  
 2.236000000000000E10    3.548435168340802E-3  -9.391364641487598E-3  
 2.238000000000000E10   -8.861485868692398E-3  -1.668124226853252E-3  
 2.240000000000000E10   -2.321269676031079E-5   8.736769668757916E-3  
 2.242000000000000E10    8.091551251709461E-3  -1.789603265933693E-3  
 2.244000000000000E10   -4.098893608897924E-3  -8.269842714071274E-3  
 2.246000000000000E10   -8.917372673749924E-3   4.727057181298733E-3  
 2.248000000000000E10    6.703800056129694E-3   8.734426461160183E-3  
 2.250000000000000E10    8.950596675276756E-3  -7.641937583684921E-3  
 2.252000000000000E10   -8.489186875522137E-3  -9.152228944003582E-3  
 2.254000000000000E10   -9.104076772928238E-3   8.639630861580372E-3  
 2.256000000000000E10    8.008033968508244E-3   8.438370190560818E-3  
 2.258000000000000E10    7.280206773430109E-3  -8.852118626236916E-3  
 2.260000000000000E10   -8.212890475988388E-3  -5.893753375858069E-3  
 2.262000000000000E10   -3.859917167574167E-3   8.480662479996681E-3  
 2.264000000000000E10    8.912368677556515E-3   1.844304613769054E-3  
 2.266000000000000E10   -1.135044949478470E-4  -9.381187148392201E-3  
 2.268000000000000E10   -1.010542362928391E-2   1.589086721651256E-3  
 2.270000000000000E10    3.934604115784168E-3   1.065100263804197E-2  
 2.272000000000000E10    1.034073065966368E-2  -4.250553436577320E-3  
 2.274000000000000E10   -4.845517687499523E-3  -1.081721764057875E-2  
 2.276000000000000E10   -1.094070449471474E-2   6.034939549863339E-3  
 2.278000000000000E10    6.692172959446907E-3   9.973226115107536E-3  
 2.280000000000000E10    8.370113559067249E-3  -7.222915999591351E-3  
 2.282000000000000E10   -1.371218590065837E-3  -1.071604993194342E-2  
 2.284000000000000E10   -6.933428347110748E-3   9.155567735433579E-3  
 2.286000000000000E10    9.304816834628582E-3   5.253080744296312E-3  
 2.288000000000000E10    4.624839872121811E-3  -1.025045849382877E-2  
 2.290000000000000E10   -1.111137773841620E-2  -3.024005796760321E-3  
 2.292000000000000E10   -2.196960151195526E-3   1.140119973570108E-2  
 2.294000000000000E10    1.156221050769091E-2   1.732388918753713E-4  
 2.296000000000000E10   -1.082158763892949E-3  -1.045168749988079E-2  
 2.298000000000000E10   -9.652855806052685E-3   2.348977373912931E-3  
 2.300000000000000E10    5.092999897897244E-3   8.640872314572334E-3  
 2.302000000000000E10    8.164877071976662E-3  -5.901984870433807E-3  
 2.304000000000000E10   -7.595855742692947E-3  -6.953646894544363E-3  
 2.306000000000000E10   -6.482558790594339E-3   9.376183152198792E-3  
 2.308000000000000E10    1.089488621801138E-2   6.840911228209734E-3  
 2.310000000000000E10    7.017553783953190E-3  -1.191840600222349E-2  
 2.312000000000000E10   -1.228287722915411E-2  -6.890757009387016E-3  
 2.314000000000000E10   -5.993536207824945E-3   1.263222470879555E-2  
 2.316000000000000E10    1.203943137079477E-2   4.435155075043440E-3  
 2.318000000000000E10    3.443663939833641E-3  -1.168312318623066E-2  
 2.320000000000000E10   -1.001594029366970E-2  -1.129874028265476E-3  
 2.322000000000000E10    9.625758975744247E-4   8.205194957554340E-3  
 2.324000000000000E10    8.867887780070305E-3  -2.782599302008748E-3  
 2.326000000000000E10   -5.356673151254654E-3  -8.160859346389771E-3  
 2.328000000000000E10   -7.729164790362120E-3   8.252367377281189E-3  
 2.330000000000000E10    1.031738333404064E-2   6.501059979200363E-3  
 2.332000000000000E10    6.353448145091534E-3  -1.116855163127184E-2  
 2.334000000000000E10   -1.097861304879189E-2  -7.066368591040373E-3  
 2.336000000000000E10   -6.299021653831005E-3   1.197729259729385E-2  
 2.338000000000000E10    1.233779918402433E-2   5.011479835957289E-3  
 2.340000000000000E10    4.123573191463947E-3  -1.172565110027790E-2  
 2.342000000000000E10   -1.183010917156935E-2  -2.885473193600774E-3  
 2.344000000000000E10   -8.462866535410285E-4   1.178830303251743E-2  
 2.346000000000000E10    1.123214792460203E-2  -1.610884908586741E-3  
 2.348000000000000E10   -3.627843922004104E-3  -1.038149558007717E-2  
 2.350000000000000E10   -1.064664870500565E-2   4.778217524290085E-3  
 2.352000000000000E10    6.149008404463530E-3   9.573643095791340E-3  
 2.354000000000000E10    8.578026667237282E-3  -7.281038910150528E-3  
 2.356000000000000E10   -8.962820284068584E-3  -8.139489218592644E-3  
 2.358000000000000E10   -6.257775705307722E-3   9.823731146752834E-3  
 2.360000000000000E10    1.030134409666061E-2   4.959496203809977E-3  
 2.362000000000000E10    3.170853015035391E-3  -1.102698035538197E-2  
 2.364000000000000E10   -1.212096307426691E-2  -5.942450370639563E-4  
 2.366000000000000E10    8.097054087556899E-4   1.340992096811533E-2  
 2.368000000000000E10    1.282720267772675E-2  -8.715855656191707E-4  
 2.370000000000000E10   -1.786743872798979E-3  -1.295610703527927E-2  
 2.372000000000000E10   -1.391129475086927E-2   2.639411017298698E-3  
 2.374000000000000E10    3.201246028766036E-3   1.379436533898115E-2  
 2.376000000000000E10    1.318562682718039E-2  -4.505665972828865E-3  
 2.378000000000000E10   -5.144207738339901E-3  -1.056129671633244E-2  
 2.380000000000000E10   -7.996191270649433E-3   6.757386028766632E-3  
 2.382000000000000E10    8.088835515081883E-3   6.267361342906952E-3  
 2.384000000000000E10    4.099542740732431E-3  -9.112483821809292E-3  
 2.386000000000000E10   -1.027713064104319E-2  -1.775117474608123E-3  
 2.388000000000000E10    5.957646062597632E-4   1.224895846098661E-2  
 2.390000000000000E10    1.330041792243719E-2  -9.298970107920468E-4  
 2.392000000000000E10   -2.485702512785792E-3  -1.386528369039297E-2  
 2.394000000000000E10   -1.360335946083069E-2   3.057376481592655E-3  
 2.396000000000000E10    3.177867038175464E-3   1.311892736703157E-2  
 2.398000000000000E10    1.249503996223211E-2  -4.387915600091219E-3  
 2.400000000000000E10   -4.881746135652065E-3  -1.134880911558867E-2  
 2.402000000000000E10   -9.092255495488644E-3   6.654132157564163E-3  
 2.404000000000000E10    7.974518463015556E-3   7.533515337854624E-3  
 2.406000000000000E10    5.822068545967341E-3  -8.853111416101456E-3  
 2.408000000000000E10   -1.018725521862507E-2  -4.293681122362614E-3  
 2.410000000000000E10   -3.001733217388392E-3   1.106480881571770E-2  
 2.412000000000000E10    1.118877343833447E-2   1.598008326254785E-3  
 2.414000000000000E10   -2.927137211372610E-5  -1.127052307128906E-2  
 2.416000000000000E10   -1.112814806401730E-2   1.013096189126372E-3  
 2.418000000000000E10    1.861497061327100E-3   1.051136851310730E-2  
 2.420000000000000E10    9.651053696870804E-3  -3.171636490151286E-3  
 2.422000000000000E10   -4.408713895827532E-3  -9.431287646293640E-3  
 2.424000000000000E10   -8.993232622742653E-3   6.056725978851318E-3  
 2.426000000000000E10    7.334036752581596E-3   9.095373563468456E-3  
 2.428000000000000E10    8.522177115082741E-3  -7.880356162786484E-3  
 2.430000000000000E10   -9.210188873112202E-3  -7.983545772731304E-3  
 2.432000000000000E10   -7.323656696826220E-3   1.016176864504814E-2  
 2.434000000000000E10    9.909691289067268E-3   6.675065960735083E-3  
 2.436000000000000E10    4.735091701149941E-3  -1.008259598165751E-2  
 2.438000000000000E10   -9.706462733447552E-3  -3.280502976849675E-3  
 2.440000000000000E10   -1.791900605894625E-3   8.973850868642330E-3  
 2.442000000000000E10    8.929544128477573E-3  -5.035809590481222E-4  
 2.444000000000000E10   -2.272074110805988E-3  -8.973374031484127E-3  
 2.446000000000000E10   -8.556177839636803E-3   4.223661962896586E-3  
 2.448000000000000E10    5.075525026768446E-3   9.093172848224640E-3  
 2.450000000000000E10    9.073239751160145E-3  -6.230353377759457E-3  
 2.452000000000000E10   -7.115056738257408E-3  -9.174900129437447E-3  
 2.454000000000000E10   -9.034781716763973E-3   6.962275132536888E-3  
 2.456000000000000E10    6.825085263699293E-3   8.375347591936588E-3  
 2.458000000000000E10    7.809017319232225E-3  -6.945481523871422E-3  
 2.460000000000000E10   -8.036506362259388E-3  -6.499636918306351E-3  
 2.462000000000000E10   -4.562074318528175E-3   7.696792483329773E-3  
 2.464000000000000E10    8.275908417999744E-3   3.122934140264988E-3  
 2.466000000000000E10    1.302503864280880E-3  -9.060736745595932E-3  
 2.468000000000000E10   -9.876438416540623E-3  -4.867912866757251E-5  
 2.470000000000000E10    1.880925381556153E-3   1.078424695879221E-2  
 2.472000000000000E10    9.902587160468102E-3  -2.612338168546557E-3  
 2.474000000000000E10   -2.912302967160940E-3  -9.972418658435345E-3  
 2.476000000000000E10   -9.791757911443710E-3   3.555694827809930E-3  
 2.478000000000000E10    3.890288760885596E-3   9.325400926172733E-3  
 2.480000000000000E10    8.251065388321877E-3  -5.170160904526711E-3  
 2.482000000000000E10   -6.192893721163273E-3  -7.537700235843658E-3  
 2.484000000000000E10   -6.573991850018501E-3   7.046108599752188E-3  
 2.486000000000000E10    8.802996017038822E-3   4.690922331064940E-3  
 2.488000000000000E10    3.491073148325086E-3  -9.756700135767460E-3  
 2.490000000000000E10   -9.625217877328396E-3  -2.739674411714077E-3  
 2.492000000000000E10   -2.142868470400572E-3   9.616205468773842E-3  
 2.494000000000000E10    1.056855171918869E-2   1.486688153818250E-3  
 2.496000000000000E10    9.159193141385913E-4  -1.043556444346905E-2  
 2.498000000000000E10   -9.735024534165859E-3   1.149701769463718E-3  
 2.500000000000000E10    2.231372054666281E-3   8.772569708526135E-3  
 2.502000000000000E10    7.554698735475540E-3  -3.198070917278528E-3  
 2.504000000000000E10   -4.729032516479492E-3  -6.974654737859964E-3  
 2.506000000000000E10   -6.775574292987585E-3   5.422149784862995E-3  
 2.508000000000000E10    5.701234564185143E-3   6.065795198082924E-3  
 2.510000000000000E10    6.891918834298849E-3  -7.056736852973700E-3  
 2.512000000000000E10   -7.864932529628277E-3  -6.977486424148083E-3  
 2.514000000000000E10   -6.156408693641424E-3   8.317789994180203E-3  
 2.516000000000000E10    8.731668815016747E-3   5.623741541057825E-3  
 2.518000000000000E10    5.130688194185495E-3  -9.168082848191261E-3  
 2.520000000000000E10   -9.438299573957920E-3  -2.197502413764596E-3  
 2.522000000000000E10   -6.812074570916593E-4   8.577458560466766E-3  
 2.524000000000000E10    8.615212514996529E-3   3.364914664416574E-5  
 2.526000000000000E10   -2.214235020801425E-3  -9.015886113047600E-3  
 2.528000000000000E10   -9.125027805566788E-3   3.997415769845247E-3  
 2.530000000000000E10    4.445361904799938E-3   9.467588737607002E-3  
 2.532000000000000E10    9.680741466581821E-3  -5.756068974733353E-3  
 2.534000000000000E10   -6.739231757819653E-3  -8.847947232425213E-3  
 2.536000000000000E10   -8.076802827417851E-3   7.180857472121716E-3  
 2.538000000000000E10    6.980844307690859E-3   7.285418454557657E-3  
 2.540000000000000E10    6.513523869216442E-3  -6.816883571445942E-3  
 2.542000000000000E10   -7.501862943172455E-3  -4.495009314268827E-3  
 2.544000000000000E10   -3.322334028780460E-3   8.211953565478325E-3  
 2.546000000000000E10    9.130770340561867E-3   2.590151736512780E-3  
 2.548000000000000E10    4.510745347943157E-4  -9.789506904780865E-3  
 2.550000000000000E10   -1.018687523901463E-2   1.946010161191225E-3  
 2.552000000000000E10    3.147264476865530E-3   1.004851609468460E-2  
 2.554000000000000E10    9.719531051814556E-3  -3.423442132771015E-3  
 2.556000000000000E10   -4.572592210024595E-3  -9.233214892446995E-3  
 2.558000000000000E10   -8.625939488410950E-3   4.437577910721302E-3  
 2.560000000000000E10    5.432555917650461E-3   8.057472296059132E-3  
 2.562000000000000E10    7.778049446642399E-3  -6.673668511211872E-3  
 2.564000000000000E10   -7.544056046754122E-3  -6.451915018260479E-3  
 2.566000000000000E10   -5.318374373018742E-3   9.143014438450337E-3  
 2.568000000000000E10    1.043845899403095E-2   4.096996970474720E-3  
 2.570000000000000E10    2.502796705812216E-3  -1.067045237869024E-2  
 2.572000000000000E10   -1.069377921521664E-2  -1.615851302631199E-3  
 2.574000000000000E10   -1.562361605465412E-3   1.090145669877529E-2  
 2.576000000000000E10    1.094835530966520E-2   1.816892909118906E-4  
 2.578000000000000E10   -2.618000842630863E-3  -1.102622877806425E-2  
 2.580000000000000E10   -9.688164107501507E-3   3.550021210685372E-3  
 2.582000000000000E10    4.537915345281363E-3   8.450468070805073E-3  
 2.584000000000000E10    7.626914884895086E-3  -6.546214688569307E-3  
 2.586000000000000E10   -8.169174194335938E-3  -6.331876851618290E-3  
 2.588000000000000E10   -6.188632454723120E-3   8.199129253625870E-3  
 2.590000000000000E10    8.600798435509205E-3   5.908357445150614E-3  
 2.592000000000000E10    5.973450373858213E-3  -9.894119575619698E-3  
 2.594000000000000E10   -1.081252563744783E-2  -5.656410939991474E-3  
 2.596000000000000E10   -4.817099310457707E-3   1.164650730788708E-2  
 2.598000000000000E10    1.215251535177231E-2   3.490651492029429E-3  
 2.600000000000000E10    1.575135509483516E-3  -1.160167157649994E-2  
 2.602000000000000E10   -1.051332894712687E-2  -1.081924128811806E-4  
 2.604000000000000E10    1.761904801242054E-3   1.078799553215504E-2  
 2.606000000000000E10    1.002053730189800E-2  -3.624541219323874E-3  
 2.608000000000000E10   -4.815944470465183E-3  -9.025167673826218E-3  
 2.610000000000000E10   -9.242432191967964E-3   5.495635326951742E-3  
 2.612000000000000E10    7.688408717513084E-3   9.503433480858803E-3  
 2.614000000000000E10    8.563236333429813E-3  -8.630989119410515E-3  
 2.616000000000000E10   -8.640511892735958E-3  -8.308573625981808E-3  
 2.618000000000000E10   -6.767136044800282E-3   9.103043936192989E-3  
 2.620000000000000E10    1.045504119247198E-2   5.112816113978624E-3  
 2.622000000000000E10    4.120683297514916E-3  -1.023050583899021E-2  
 2.624000000000000E10   -9.959784336388111E-3  -3.512241644784808E-3  
 2.626000000000000E10   -2.039094455540180E-3   1.133818179368973E-2  
 2.628000000000000E10    1.230556517839432E-2  -2.300484629813582E-4  
 2.630000000000000E10   -1.860313117504120E-3  -1.274300366640091E-2  
 2.632000000000000E10   -1.220124494284391E-2   2.985793165862560E-3  
 2.634000000000000E10    4.384317435324192E-3   1.130924653261900E-2  
 2.636000000000000E10    1.051595993340015E-2  -5.921145901083946E-3  
 2.638000000000000E10   -4.919722676277161E-3  -9.201110340654850E-3  
 2.640000000000000E10   -9.016870521008968E-3   6.252760067582130E-3  
 2.642000000000000E10    7.443266920745373E-3   7.200524210929871E-3  
 2.644000000000000E10    6.268146447837353E-3  -7.718063425272703E-3  
 2.646000000000000E10   -9.815505705773830E-3  -5.793553777039051E-3  
 2.648000000000000E10   -4.388337954878807E-3   1.140203606337309E-2  
 2.650000000000000E10    1.184538938105106E-2   2.307860646396875E-3  
 2.652000000000000E10    1.131250290200114E-3  -1.253291126340628E-2  
 2.654000000000000E10   -1.271262392401695E-2  -9.165087831206620E-4  
 2.656000000000000E10    9.873462840914726E-4   1.281998306512833E-2  
 2.658000000000000E10    1.203367114067078E-2  -2.359643112868071E-3  
 2.660000000000000E10   -3.587542800232768E-3  -1.069800090044737E-2  
 2.662000000000000E10   -9.794862009584904E-3   5.803541745990515E-3  
 2.664000000000000E10    7.353976834565401E-3   8.748487569391727E-3  
 2.666000000000000E10    6.754374597221613E-3  -7.819998078048229E-3  
 2.668000000000000E10   -8.469000458717346E-3  -6.244419142603874E-3  
 2.670000000000000E10   -6.381873041391373E-3   9.291230700910091E-3  
 2.672000000000000E10    9.471163153648377E-3   5.344151053577662E-3  
 2.674000000000000E10    4.836288280785084E-3  -9.586809203028679E-3  
 2.676000000000000E10   -1.053807139396668E-2  -4.610743839293718E-3  
 2.678000000000000E10   -3.074159380048513E-3   1.081447675824165E-2  
 2.680000000000000E10    1.046543195843697E-2   1.377936103381217E-3  
 2.682000000000000E10   -2.729366242419928E-4  -9.887198917567730E-3  
 2.684000000000000E10   -1.040421985089779E-2   2.383159240707755E-3  
 2.686000000000000E10    4.522819072008133E-3   9.537834674119949E-3  
 2.688000000000000E10    8.765478618443012E-3  -5.274823401123285E-3  
 2.690000000000000E10   -6.962883751839399E-3  -8.983113802969456E-3  
 2.692000000000000E10   -8.774034678936005E-3   8.094836957752705E-3  
 2.694000000000000E10    8.842559531331062E-3   8.123937994241715E-3  
 2.696000000000000E10    7.331141270697117E-3  -8.598706685006619E-3  
 2.698000000000000E10   -8.804753422737122E-3  -6.927899550646544E-3  
 2.700000000000000E10   -6.023556459695101E-3   9.728449396789074E-3  
 2.702000000000000E10    9.635713882744312E-3   4.260449670255184E-3  
 2.704000000000000E10    3.113219048827887E-3  -9.331192821264267E-3  
 2.706000000000000E10   -9.335936978459358E-3  -1.584841636940837E-3  
 2.708000000000000E10   -1.518956705695018E-4   9.705328382551670E-3  
 2.710000000000000E10    1.036593969911337E-2  -1.439845422282815E-3  
 2.712000000000000E10   -2.288834890350699E-3  -1.011400669813156E-2  
 2.714000000000000E10   -9.358630515635014E-3   4.099271725863218E-3  
 2.716000000000000E10    4.830280784517527E-3   8.854350075125694E-3  
 2.718000000000000E10    8.414195850491524E-3  -5.362478084862232E-3  
 2.720000000000000E10   -6.032602861523628E-3  -7.587311323732138E-3  
 2.722000000000000E10   -6.269684992730618E-3   7.071773987263441E-3  
 2.724000000000000E10    7.704623974859715E-3   5.687573458999395E-3  
 2.726000000000000E10    5.584338214248419E-3  -8.682211861014366E-3  
 2.728000000000000E10   -9.366748854517937E-3  -4.878697916865349E-3  
 2.730000000000000E10   -4.325203131884337E-3   1.043606083840132E-2  
 2.732000000000000E10    1.093355566263199E-2   3.365001175552607E-3  
 2.734000000000000E10    2.327800262719393E-3  -1.109635643661022E-2  
 2.736000000000000E10   -1.012610830366612E-2  -1.954117557033896E-3  
 2.738000000000000E10   -5.220291204750538E-4   1.005197595804930E-2  
 2.740000000000000E10    9.601759724318981E-3  -1.370409037917852E-3  
 2.742000000000000E10   -2.367042237892747E-3  -8.205527439713478E-3  
 2.744000000000000E10   -7.058505434542894E-3   3.897923044860363E-3  
 2.746000000000000E10    5.385212134569883E-3   5.800906103104353E-3  
 2.748000000000000E10    5.720692686736584E-3  -6.644741632044315E-3  
 2.750000000000000E10   -7.325709797441959E-3  -5.163005553185940E-3  
 2.752000000000000E10   -5.154090467840433E-3   7.777877617627382E-3  
 2.754000000000000E10    8.658248931169510E-3   5.341133568435907E-3  
 2.756000000000000E10    4.672402516007423E-3  -9.070027619600296E-3  
