#  HZ   S   RI   R     50.00 
! Rohde & Schwarz ZVA40 4Ports - Version 3.90 - 1145.1110k42 SN: 100403
! Date: 2023-10-04 10:19:21
! Measurement: S12 
! 
 2.200000000000000E10   -9.039548225700855E-3  -6.196258123964071E-3  
 2.202000000000000E10   -4.321875981986523E-3   1.012464892119169E-2  
 2.204000000000000E10    1.010004896670580E-2   3.254806390032172E-3  
 2.206000000000000E10    2.476646564900875E-3  -1.114181242883205E-2  
 2.208000000000000E10   -1.158097852021456E-2  -4.194394277874380E-4  
 2.210000000000000E10    1.003943500109017E-3   1.221689768135548E-2  
 2.212000000000000E10    1.285575330257416E-2  -1.630988437682390E-3  
 2.214000000000000E10   -2.189174760133028E-3  -1.172498334199190E-2  
 2.216000000000000E10   -1.063308864831924E-2   2.904276130720973E-3  
 2.218000000000000E10    3.369390498846769E-3   1.027894020080566E-2  
 2.220000000000000E10    9.714095853269100E-3  -3.300943644717336E-3  
 2.222000000000000E10   -3.682999871671200E-3  -8.522036485373974E-3  
 2.224000000000000E10   -6.475179921835661E-3   5.108916200697422E-3  
 2.226000000000000E10    6.935631856322289E-3   4.848736338317394E-3  
 2.228000000000000E10    3.756264690309763E-3  -8.379818871617317E-3  
 2.230000000000000E10   -9.191104210913181E-3  -2.896890742704272E-3  
 2.232000000000000E10   -8.401084924116731E-4   1.101049873977900E-2  
 2.234000000000000E10    1.148722786456347E-2  -9.020134893944487E-5  
 2.236000000000000E10   -6.178180337883532E-4  -1.179541181772947E-2  
 2.238000000000000E10   -1.183129474520683E-2   3.824392915703356E-4  
 2.240000000000000E10    9.017249685712159E-4   1.218543760478497E-2  
 2.242000000000000E10    1.154313795268536E-2  -1.672730664722621E-3  
 2.244000000000000E10   -3.045543329790235E-3  -1.037890929728746E-2  
 2.246000000000000E10   -9.228619746863842E-3   3.385969204828143E-3  
 2.248000000000000E10    4.558491520583630E-3   7.264083251357079E-3  
 2.250000000000000E10    7.374892476946116E-3  -6.409830413758755E-3  
 2.252000000000000E10   -7.775303907692432E-3  -6.576288957148790E-3  
 2.254000000000000E10   -5.464928224682808E-3   8.525988087058067E-3  
 2.256000000000000E10    9.347563609480858E-3   4.508802667260170E-3  
 2.258000000000000E10    4.104641731828451E-3  -1.065765693783760E-2  
 2.260000000000000E10   -1.111311372369528E-2  -3.174509154632688E-3  
 2.262000000000000E10   -1.185340690426529E-3   1.032249629497528E-2  
 2.264000000000000E10    1.001483108848333E-2   5.386849516071379E-4  
 2.266000000000000E10   -1.259929733350873E-3  -1.077042054384947E-2  
 2.268000000000000E10   -1.036862935870886E-2   2.665054518729448E-3  
 2.270000000000000E10    3.175098216161132E-3   9.946708567440510E-3  
 2.272000000000000E10    1.039432827383280E-2  -4.695906303822994E-3  
 2.274000000000000E10   -5.732858087867498E-3  -1.074286550283432E-2  
 2.276000000000000E10   -1.044729538261890E-2   6.472335662692785E-3  
 2.278000000000000E10    7.801386062055826E-3   9.102556854486466E-3  
 2.280000000000000E10    7.642275653779507E-3  -7.829653099179268E-3  
 2.282000000000000E10   -3.110110992565751E-3  -9.730857796967030E-3  
 2.284000000000000E10   -4.192876629531384E-3   8.821638301014900E-3  
 2.286000000000000E10    8.567272685468197E-3   2.850813092663884E-3  
 2.288000000000000E10    8.311955607496202E-4  -9.234862402081490E-3  
 2.290000000000000E10   -1.084118615835905E-2   4.636958474293351E-4  
 2.292000000000000E10    1.768276793882251E-3   1.186029985547066E-2  
 2.294000000000000E10    1.225531101226807E-2  -3.267943160608411E-3  
 2.296000000000000E10   -4.308066330850124E-3  -1.249102875590324E-2  
 2.298000000000000E10   -1.193742081522942E-2   4.792049527168274E-3  
 2.300000000000000E10    5.447796080261469E-3   1.112776529043913E-2  
 2.302000000000000E10    1.060950290411711E-2  -5.028824787586927E-3  
 2.304000000000000E10   -5.888009443879128E-3  -8.439720608294010E-3  
 2.306000000000000E10   -6.416857242584229E-3   7.224238943308592E-3  
 2.308000000000000E10    7.922489196062088E-3   5.093807354569435E-3  
 2.310000000000000E10    3.120966954156756E-3  -8.732273243367672E-3  
 2.312000000000000E10   -1.002722792327404E-2  -1.147655537351966E-3  
 2.314000000000000E10    6.331367767415941E-4   1.118764653801918E-2  
 2.316000000000000E10    1.156591530889273E-2  -1.927148899994791E-3  
 2.318000000000000E10   -2.172472653910518E-3  -1.117026712745428E-2  
 2.320000000000000E10   -1.077234465628862E-2   2.241015899926424E-3  
 2.322000000000000E10    3.553326241672039E-3   1.082069054245949E-2  
 2.324000000000000E10    1.053345948457718E-2  -3.879530122503638E-3  
 2.326000000000000E10   -5.290246102958918E-3  -9.790780954062939E-3  
 2.328000000000000E10   -8.122164756059647E-3   7.152969948947430E-3  
 2.330000000000000E10    8.183517493307591E-3   6.379654165357351E-3  
 2.332000000000000E10    5.188031122088432E-3  -8.471559733152390E-3  
 2.334000000000000E10   -9.120286442339420E-3  -4.309611860662699E-3  
 2.336000000000000E10   -3.098079934716225E-3   9.897724725306034E-3  
 2.338000000000000E10    1.009274367243052E-2   2.358104800805450E-3  
 2.340000000000000E10    1.402788679115474E-3  -1.007913425564766E-2  
 2.342000000000000E10   -1.010026037693024E-2  -4.826477088499814E-4  
 2.344000000000000E10    1.851785345934331E-3   9.709103032946587E-3  
 2.346000000000000E10    9.006857872009277E-3  -3.290113992989063E-3  
 2.348000000000000E10   -5.287459120154381E-3  -8.279687725007534E-3  
 2.350000000000000E10   -7.760620675981045E-3   6.169104017317295E-3  
 2.352000000000000E10    7.407981436699629E-3   7.435369305312634E-3  
 2.354000000000000E10    7.358395494520664E-3  -9.278408251702786E-3  
 2.356000000000000E10   -9.809703566133976E-3  -7.523955777287483E-3  
 2.358000000000000E10   -6.950454320758581E-3   1.013334747403860E-2  
 2.360000000000000E10    9.853324852883816E-3   6.078299134969711E-3  
 2.362000000000000E10    4.686692263931036E-3  -9.552649222314358E-3  
 2.364000000000000E10   -9.777028113603592E-3  -2.434433903545141E-3  
 2.366000000000000E10   -1.058837049640715E-3   8.427357301115990E-3  
 2.368000000000000E10    7.181989494711161E-3  -5.621340242214501E-4  
 2.370000000000000E10   -3.007799154147506E-3  -7.357414346188307E-3  
 2.372000000000000E10   -7.910608313977718E-3   4.120867233723402E-3  
 2.374000000000000E10    5.968565121293068E-3   8.368612267076969E-3  
 2.376000000000000E10    8.575039915740490E-3  -8.000846020877361E-3  
 2.378000000000000E10   -9.134702384471893E-3  -7.904866710305214E-3  
 2.380000000000000E10   -7.272592745721340E-3   9.997668676078320E-3  
 2.382000000000000E10    1.035433914512396E-2   6.986316759139299E-3  
 2.384000000000000E10    5.320557393133640E-3  -9.402900934219360E-3  
 2.386000000000000E10   -9.353479370474815E-3  -3.145207185298204E-3  
 2.388000000000000E10   -2.311079064384103E-3   9.969781152904034E-3  
 2.390000000000000E10    9.450638666749001E-3   6.545924698002636E-4  
 2.392000000000000E10   -1.064730691723526E-3  -9.660777635872364E-3  
 2.394000000000000E10   -9.547640569508076E-3   2.846899908035994E-3  
 2.396000000000000E10    4.366030916571617E-3   8.966785855591297E-3  
 2.398000000000000E10    8.764185011386871E-3  -5.272332578897476E-3  
 2.400000000000000E10   -4.804806783795357E-3  -8.571575395762920E-3  
 2.402000000000000E10   -6.077391561120749E-3   7.069364190101624E-3  
 2.404000000000000E10    7.688202429562807E-3   5.337313748896122E-3  
 2.406000000000000E10    4.454127512872219E-3  -7.257753517478705E-3  
 2.408000000000000E10   -8.638147264719009E-3  -2.837227657437325E-3  
 2.410000000000000E10   -1.402694149874151E-3   9.204567410051823E-3  
 2.412000000000000E10    9.629786945879459E-3   5.500118131749332E-4  
 2.414000000000000E10   -9.454839746467769E-4  -9.926134720444679E-3  
 2.416000000000000E10   -1.040158607065678E-2   1.154944649897516E-3  
 2.418000000000000E10    1.642951276153326E-3   1.033467520028353E-2  
 2.420000000000000E10    9.129735641181469E-3  -2.268589334562421E-3  
 2.422000000000000E10   -1.691893674433231E-3  -9.332168847322464E-3  
 2.424000000000000E10   -7.960382848978043E-3   2.842000219970942E-3  
 2.426000000000000E10    3.301219549030066E-3   6.991833914071322E-3  
 2.428000000000000E10    5.719113629311323E-3  -4.627334885299206E-3  
 2.430000000000000E10   -5.867637228220701E-3  -4.704087972640991E-3  
 2.432000000000000E10   -4.101362079381943E-3   7.632437627762556E-3  
 2.434000000000000E10    8.702103048563004E-3   2.404943574219942E-3  
 2.436000000000000E10    1.707564457319677E-3  -9.737599641084671E-3  
 2.438000000000000E10   -1.022688765078783E-2  -1.231036498211324E-3  
 2.440000000000000E10   -1.020152587443590E-3   9.936030954122543E-3  
 2.442000000000000E10    1.012617815285921E-2   2.499382535461336E-4  
 2.444000000000000E10   -3.865048056468368E-4  -8.968057110905647E-3  
 2.446000000000000E10   -8.408312685787678E-3   8.301154593937099E-4  
 2.448000000000000E10    2.254908671602607E-3   7.553394418209791E-3  
 2.450000000000000E10    6.193567067384720E-3  -3.254653885960579E-3  
 2.452000000000000E10   -4.319628234952688E-3  -6.455537863075733E-3  
 2.454000000000000E10   -5.879729054868221E-3   5.530300550162792E-3  
 2.456000000000000E10    5.780564621090889E-3   5.869054235517979E-3  
 2.458000000000000E10    5.864500068128109E-3  -7.455269806087017E-3  
 2.460000000000000E10   -7.611889857798815E-3  -5.670702550560236E-3  
 2.462000000000000E10   -5.089448764920235E-3   8.174833841621876E-3  
 2.464000000000000E10    8.001942187547684E-3   3.762925742194057E-3  
 2.466000000000000E10    2.908277092501521E-3  -8.134976960718632E-3  
 2.468000000000000E10   -8.282491937279701E-3  -1.210561022162437E-3  
 2.470000000000000E10    7.813937263563275E-4   7.583771366626024E-3  
 2.472000000000000E10    7.212517783045769E-3  -2.256788779050112E-3  
 2.474000000000000E10   -3.021951066330075E-3  -7.490110117942095E-3  
 2.476000000000000E10   -8.126329630613327E-3   4.035666119307280E-3  
 2.478000000000000E10    4.995970055460930E-3   7.802872918546200E-3  
 2.480000000000000E10    8.057732135057449E-3  -5.467315670102835E-3  
 2.482000000000000E10   -6.255315616726875E-3  -7.493881043046713E-3  
 2.484000000000000E10   -6.704845465719700E-3   6.413569208234549E-3  
 2.486000000000000E10    7.146570831537247E-3   6.088887806981802E-3  
 2.488000000000000E10    3.654045984148979E-3  -7.389711681753397E-3  
 2.490000000000000E10   -7.143252529203892E-3  -2.877289894968271E-3  
 2.492000000000000E10   -1.519758603535593E-3   7.789317518472672E-3  
 2.494000000000000E10    8.554983884096146E-3   4.636741650756449E-4  
 2.496000000000000E10   -9.145305957645178E-4  -9.652810171246529E-3  
 2.498000000000000E10   -8.779366500675678E-3   2.364344196394086E-3  
 2.500000000000000E10    2.570021431893110E-3   7.907366380095482E-3  
 2.502000000000000E10    8.072470314800739E-3  -3.101536771282554E-3  
 2.504000000000000E10   -3.436491126194596E-3  -7.180410437285900E-3  
 2.506000000000000E10   -5.568047054111958E-3   3.124284092336893E-3  
 2.508000000000000E10    3.735811216756702E-3   5.550710950046778E-3  
 2.510000000000000E10    5.287884734570980E-3  -5.090275313705206E-3  
 2.512000000000000E10   -6.380499340593815E-3  -4.857488442212343E-3  
 2.514000000000000E10   -4.271552897989750E-3   7.234898395836353E-3  
 2.516000000000000E10    9.436035528779030E-3   3.628754522651434E-3  
 2.518000000000000E10    1.905500423163176E-3  -1.007637102156878E-2  
 2.520000000000000E10   -9.766491129994392E-3  -1.940022106282413E-3  
 2.522000000000000E10   -1.620067050680518E-3   9.673800319433212E-3  
 2.524000000000000E10    9.476696141064167E-3   1.018521958030760E-3  
 2.526000000000000E10   -9.429542114958167E-5  -8.746245875954628E-3  
 2.528000000000000E10   -8.069310337305069E-3   1.209940295666456E-3  
 2.530000000000000E10    2.362474333494902E-3   7.254820782691240E-3  
 2.532000000000000E10    6.119561381638050E-3  -3.921600058674812E-3  
 2.534000000000000E10   -5.388387478888035E-3  -5.652524996548891E-3  
 2.536000000000000E10   -5.641774274408817E-3   6.360513623803854E-3  
 2.538000000000000E10    7.260536774992943E-3   4.971669055521488E-3  
 2.540000000000000E10    4.764061886817217E-3  -8.013759739696980E-3  
 2.542000000000000E10   -9.207210503518581E-3  -4.529337864369154E-3  
 2.544000000000000E10   -4.032697528600693E-3   9.665373712778091E-3  
 2.546000000000000E10    1.095243915915489E-2   3.032313426956534E-3  
 2.548000000000000E10    7.232316420413554E-4  -1.027011405676603E-2  
 2.550000000000000E10   -9.894215501844883E-3   1.065617776475847E-3  
 2.552000000000000E10    2.405482111498714E-3   9.725498966872692E-3  
 2.554000000000000E10    8.281455375254154E-3  -3.872619476169348E-3  
 2.556000000000000E10   -4.448735620826483E-3  -7.822887040674686E-3  
 2.558000000000000E10   -8.289946243166924E-3   4.918823018670082E-3  
 2.560000000000000E10    5.760402418673039E-3   7.468485739082098E-3  
 2.562000000000000E10    6.985332351177931E-3  -7.040209136903286E-3  
 2.564000000000000E10   -7.232610601931810E-3  -6.180203985422850E-3  
 2.566000000000000E10   -5.113725550472736E-3   8.332884870469570E-3  
 2.568000000000000E10    9.168680757284164E-3   3.082701936364174E-3  
 2.570000000000000E10    1.187485642731190E-3  -9.284447878599167E-3  
 2.572000000000000E10   -9.374079294502735E-3   4.421413177624345E-5  
 2.574000000000000E10    8.504763245582581E-4   1.034056488424540E-2  
 2.576000000000000E10    1.154932752251625E-2  -3.348733065649867E-3  
 2.578000000000000E10   -5.340931005775929E-3  -1.100143138319254E-2  
 2.580000000000000E10   -1.051774993538857E-2   5.384440999478102E-3  
 2.582000000000000E10    6.499988492578268E-3   9.607354179024696E-3  
 2.584000000000000E10    8.029447868466377E-3  -7.111573126167059E-3  
 2.586000000000000E10   -6.117272190749645E-3  -7.833363488316536E-3  
 2.588000000000000E10   -6.845354568213224E-3   6.302180234342814E-3  
 2.590000000000000E10    6.866547279059887E-3   4.735101945698261E-3  
 2.592000000000000E10    4.095587413758040E-3  -8.099345490336418E-3  
 2.594000000000000E10   -9.529765695333481E-3  -3.301523625850678E-3  
 2.596000000000000E10   -1.560075092129409E-3   1.086377166211605E-2  
 2.598000000000000E10    1.168038323521614E-2  -1.154153957031667E-3  
 2.600000000000000E10   -1.994362333789468E-3  -1.182812359184027E-2  
 2.602000000000000E10   -1.248587761074305E-2   3.002750221639872E-3  
 2.604000000000000E10    4.543211311101914E-3   1.133036334067583E-2  
 2.606000000000000E10    9.896465577185154E-3  -4.918289370834827E-3  
 2.608000000000000E10   -4.956226330250502E-3  -9.693475440144539E-3  
 2.610000000000000E10   -9.161276742815971E-3   6.338346283882856E-3  
 2.612000000000000E10    7.635240908712149E-3   7.441387046128511E-3  
 2.614000000000000E10    6.445873994380236E-3  -8.097877725958824E-3  
 2.616000000000000E10   -8.387129753828049E-3  -5.629383958876133E-3  
 2.618000000000000E10   -4.190896172076464E-3   9.747027419507504E-3  
 2.620000000000000E10    1.055261678993702E-2   3.432501805946231E-3  
 2.622000000000000E10    3.361830487847328E-3  -9.934795089066029E-3  
 2.624000000000000E10   -1.080293953418732E-2  -2.392954425886273E-3  
 2.626000000000000E10   -9.306842694059014E-4   1.178221497684717E-2  
 2.628000000000000E10    1.168189849704504E-2  -1.125036389566958E-3  
 2.630000000000000E10   -3.099611261859536E-3  -1.125949155539274E-2  
 2.632000000000000E10   -1.006755698472261E-2   5.273724440485239E-3  
 2.634000000000000E10    6.984284147620201E-3   8.706770837306976E-3  
 2.636000000000000E10    9.024430997669697E-3  -6.982700433582068E-3  
 2.638000000000000E10   -7.702744565904141E-3  -8.770640939474106E-3  
 2.640000000000000E10   -7.653595414012671E-3   8.726847358047962E-3  
 2.642000000000000E10    9.223594330251217E-3   7.135728839784861E-3  
 2.644000000000000E10    6.543254014104605E-3  -9.626219980418682E-3  
 2.646000000000000E10   -1.007099635899067E-2  -5.143649410456419E-3  
 2.648000000000000E10   -3.269370645284653E-3   1.012408081442118E-2  
 2.650000000000000E10    1.045123115181923E-2   1.663412200286984E-3  
 2.652000000000000E10    1.606699370313436E-4  -1.118459831923246E-2  
 2.654000000000000E10   -1.159472949802876E-2   1.833706279285252E-3  
 2.656000000000000E10    4.469279665499926E-3   1.152344793081284E-2  
 2.658000000000000E10    1.091555319726467E-2  -5.793081130832434E-3  
 2.660000000000000E10   -7.277821656316519E-3  -1.105911657214165E-2  
 2.662000000000000E10   -1.047289371490479E-2   8.786355145275593E-3  
 2.664000000000000E10    8.338027633726597E-3   8.521548472344875E-3  
 2.666000000000000E10    7.383527699857950E-3  -8.363359607756138E-3  
 2.668000000000000E10   -9.225307963788509E-3  -6.472610402852297E-3  
 2.670000000000000E10   -5.035907030105591E-3   8.988214656710625E-3  
 2.672000000000000E10    9.023936465382576E-3   3.783072810620070E-3  
 2.674000000000000E10    2.806951990351081E-3  -1.017815899103880E-2  
 2.676000000000000E10   -1.079181302338839E-2  -1.459571416489780E-3  
 2.678000000000000E10    7.131490274332464E-4   1.186715811491013E-2  
 2.680000000000000E10    1.123208273202181E-2  -1.658428227528930E-3  
 2.682000000000000E10   -2.831404795870185E-3  -1.176775526255369E-2  
 2.684000000000000E10   -1.167904958128929E-2   4.702691920101643E-3  
 2.686000000000000E10    4.720561206340790E-3   1.103135757148266E-2  
 2.688000000000000E10    9.684078395366669E-3  -5.866186693310738E-3  
 2.690000000000000E10   -7.185348775237799E-3  -9.099543094635010E-3  
 2.692000000000000E10   -7.630088366568089E-3   8.198177441954613E-3  
 2.694000000000000E10    8.361975662410259E-3   6.201336160302162E-3  
 2.696000000000000E10    5.028566345572472E-3  -9.567968547344208E-3  
 2.698000000000000E10   -1.048396341502667E-2  -4.108637571334839E-3  
 2.700000000000000E10   -3.166768467053771E-3   1.096871867775917E-2  
 2.702000000000000E10    1.139723323285580E-2   2.649091649800539E-3  
 2.704000000000000E10    1.180578954517841E-3  -1.165512390434742E-2  
 2.706000000000000E10   -1.145300548523665E-2   9.042217861860991E-4  
 2.708000000000000E10    2.055778400972486E-3   1.113336812704802E-2  
 2.710000000000000E10    1.082729361951351E-2  -2.795581007376313E-3  
 2.712000000000000E10   -5.289167165756226E-3  -9.987089782953262E-3  
 2.714000000000000E10   -8.959584869444370E-3   6.735822651535273E-3  
 2.716000000000000E10    7.691072765737772E-3   8.485510013997555E-3  
 2.718000000000000E10    8.241076953709126E-3  -8.246270939707756E-3  
 2.720000000000000E10   -8.738047443330288E-3  -7.457918487489224E-3  
 2.722000000000000E10   -7.072056643664837E-3   9.620558470487595E-3  
 2.724000000000000E10    1.007988117635250E-2   6.403312552720308E-3  
 2.726000000000000E10    6.066144444048405E-3  -9.424012154340744E-3  
 2.728000000000000E10   -9.960752911865711E-3  -3.917510621249676E-3  
 2.730000000000000E10   -2.605764893814921E-3   1.010480150580406E-2  
 2.732000000000000E10    1.045723631978035E-2   9.181217174045742E-4  
 2.734000000000000E10   -1.268831780180335E-3  -1.008964050561190E-2  
 2.736000000000000E10   -1.021567918360233E-2   3.362173913046718E-3  
 2.738000000000000E10    5.005104932934046E-3   1.022222079336643E-2  
 2.740000000000000E10    1.019656378775835E-2  -6.677417084574699E-3  
 2.742000000000000E10   -7.676924113184214E-3  -9.298437274992466E-3  
 2.744000000000000E10   -8.431618101894856E-3   8.209621533751488E-3  
 2.746000000000000E10    8.571411482989788E-3   8.196796290576458E-3  
 2.748000000000000E10    7.373889442533255E-3  -8.822478353977203E-3  
 2.750000000000000E10   -8.471305482089520E-3  -6.180619820952416E-3  
 2.752000000000000E10   -5.672018975019455E-3   9.037329815328121E-3  
 2.754000000000000E10    9.201162494719029E-3   4.239042755216360E-3  
 2.756000000000000E10    3.398926462978125E-3  -9.416419081389904E-3  
