#  HZ   S   RI   R     50.00 
! Rohde & Schwarz ZVA40 4Ports - Version 3.90 - 1145.1110k42 SN: 100403
! Date: 2023-10-04 10:20:07
! Measurement: S12 
! 
 2.200000000000000E10   -1.248958986252546E-2  -9.956300258636475E-3  
 2.202000000000000E10   -7.463803049176931E-3   1.360108517110348E-2  
 2.204000000000000E10    1.343638822436333E-2   6.485821679234505E-3  
 2.206000000000000E10    5.406766664236784E-3  -1.405867841094732E-2  
 2.208000000000000E10   -1.471029780805111E-2  -3.407774725928903E-3  
 2.210000000000000E10   -2.166329883038998E-3   1.366841141134501E-2  
 2.212000000000000E10    1.337095722556114E-2   1.053888699971139E-3  
 2.214000000000000E10   -1.360984751954675E-3  -1.420466322451830E-2  
 2.216000000000000E10   -1.329356245696545E-2   1.723564579151571E-3  
 2.218000000000000E10    3.299868665635586E-3   1.226673554629087E-2  
 2.220000000000000E10    1.146544143557549E-2  -4.538607783615589E-3  
 2.222000000000000E10   -4.775793757289648E-3  -1.069970987737179E-2  
 2.224000000000000E10   -9.290217421948910E-3   5.943389609456062E-3  
 2.226000000000000E10    6.808005739003420E-3   9.030678309500217E-3  
 2.228000000000000E10    7.224026136100292E-3  -8.827333338558674E-3  
 2.230000000000000E10   -1.057953946292400E-2  -4.829630721360445E-3  
 2.232000000000000E10   -4.733212757855654E-3   1.179358828812838E-2  
 2.234000000000000E10    1.279393676668406E-2   2.833616221323609E-3  
 2.236000000000000E10    1.463563414290547E-3  -1.296098344027996E-2  
 2.238000000000000E10   -1.323395688086748E-2  -1.822602935135365E-3  
 2.240000000000000E10   -1.528752618469298E-3   1.425428502261639E-2  
 2.242000000000000E10    1.497281529009342E-2   9.231512085534632E-4  
 2.244000000000000E10   -1.210993286804296E-4  -1.353625021874905E-2  
 2.246000000000000E10   -1.260669901967049E-2   1.185666420497000E-3  
 2.248000000000000E10    2.466832054778934E-3   1.230243127793074E-2  
 2.250000000000000E10    1.099190395325422E-2  -4.625738598406315E-3  
 2.252000000000000E10   -5.915007553994656E-3  -9.197626262903214E-3  
 2.254000000000000E10   -8.463426493108273E-3   7.156522013247013E-3  
 2.256000000000000E10    9.200507774949074E-3   7.470905315130949E-3  
 2.258000000000000E10    7.383273448795080E-3  -1.029885001480579E-2  
 2.260000000000000E10   -1.041855383664370E-2  -7.544981315732002E-3  
 2.262000000000000E10   -5.559138022363186E-3   1.203758828341961E-2  
 2.264000000000000E10    1.290109753608704E-2   5.035317968577147E-3  
 2.266000000000000E10    4.282217938452959E-3  -1.306945551186800E-2  
 2.268000000000000E10   -1.255634520202875E-2  -1.720005646348000E-3  
 2.270000000000000E10   -2.888774033635855E-4   1.181152276694775E-2  
 2.272000000000000E10    1.191593147814274E-2  -7.316098199225962E-4  
 2.274000000000000E10   -1.307438593357801E-3  -1.279964391142130E-2  
 2.276000000000000E10   -1.306183449923992E-2   3.641390940174460E-3  
 2.278000000000000E10    5.881522316485643E-3   1.192670594900847E-2  
 2.280000000000000E10    1.237444952130318E-2  -7.400807924568653E-3  
 2.282000000000000E10   -4.700753779616207E-4  -1.455540861934423E-2  
 2.284000000000000E10   -9.370773099362850E-3   8.727906271815300E-3  
 2.286000000000000E10    8.830466307699680E-3   8.391953073441982E-3  
 2.288000000000000E10    7.189833093434572E-3  -9.404065087437630E-3  
 2.290000000000000E10   -9.523222222924233E-3  -6.011255085468292E-3  
 2.292000000000000E10   -4.456818103790283E-3   1.011855900287628E-2  
 2.294000000000000E10    1.166155189275742E-2   2.791218925267458E-3  
 2.296000000000000E10    9.600111516192555E-4  -1.296998281031847E-2  
 2.298000000000000E10   -1.323847193270922E-2   7.670860504731536E-4  
 2.300000000000000E10    2.195391338318586E-3   1.347802858799696E-2  
 2.302000000000000E10    1.319316495209932E-2  -3.773868782445788E-3  
 2.304000000000000E10   -4.631210584193468E-3  -1.245994027704001E-2  
 2.306000000000000E10   -1.184141263365746E-2   4.619739018380642E-3  
 2.308000000000000E10    5.462871398776770E-3   1.135315652936697E-2  
 2.310000000000000E10    9.913734160363674E-3  -6.594667211174965E-3  
 2.312000000000000E10   -8.560175076127052E-3  -8.279460482299328E-3  
 2.314000000000000E10   -6.760595366358757E-3   9.885505773127079E-3  
 2.316000000000000E10    1.132803410291672E-2   4.363214131444693E-3  
 2.318000000000000E10    2.225477015599608E-3  -1.202856376767159E-2  
 2.320000000000000E10   -1.198910921812058E-2  -1.681602792814374E-3  
 2.322000000000000E10   -1.604985445737839E-3   1.260770764201880E-2  
 2.324000000000000E10    1.301800366491079E-2   7.668586913496256E-4  
 2.326000000000000E10   -2.390023437328637E-4  -1.340538449585438E-2  
 2.328000000000000E10   -1.316601876169443E-2   1.320944982580841E-3  
 2.330000000000000E10    3.164133289828897E-3   1.246885582804680E-2  
 2.332000000000000E10    1.029872708022595E-2  -4.780829884111881E-3  
 2.334000000000000E10   -6.348880939185619E-3  -8.521091192960739E-3  
 2.336000000000000E10   -7.487088441848755E-3   7.750058081001043E-3  
 2.338000000000000E10    8.597934618592262E-3   6.922058295458555E-3  
 2.340000000000000E10    5.857459269464016E-3  -1.017205789685249E-2  
 2.342000000000000E10   -1.134699489921331E-2  -5.219279322773218E-3  
 2.344000000000000E10   -5.046009551733732E-3   1.212729886174202E-2  
 2.346000000000000E10    1.298858039081097E-2   3.496468067169190E-3  
 2.348000000000000E10    1.908331760205329E-3  -1.234404556453228E-2  
 2.350000000000000E10   -1.125123351812363E-2  -1.314201741479337E-3  
 2.352000000000000E10    3.260938683524728E-4   1.142814569175243E-2  
 2.354000000000000E10    1.066192891448736E-2  -1.517384662292898E-3  
 2.356000000000000E10   -3.270754357799888E-3  -9.662301279604435E-3  
 2.358000000000000E10   -9.348372928798199E-3   5.010349210351706E-3  
 2.360000000000000E10    6.331945303827524E-3   9.634913876652718E-3  
 2.362000000000000E10    8.761898614466190E-3  -8.604284375905991E-3  
 2.364000000000000E10   -9.705181233584881E-3  -7.231914903968573E-3  
 2.366000000000000E10   -6.678624078631401E-3   9.228641167283058E-3  
 2.368000000000000E10    9.637744165956974E-3   5.436048842966557E-3  
 2.370000000000000E10    4.656520672142506E-3  -1.013628207147121E-2  
 2.372000000000000E10   -9.673613123595715E-3  -3.608779748901725E-3  
 2.374000000000000E10   -2.145755803212524E-3   9.954054839909077E-3  
 2.376000000000000E10    1.057595573365688E-2   6.350487819872797E-4  
 2.378000000000000E10   -2.048403257504106E-3  -1.050206832587719E-2  
 2.380000000000000E10   -1.066722534596920E-2   4.130551591515541E-3  
 2.382000000000000E10    5.470192059874535E-3   1.082123536616564E-2  
 2.384000000000000E10    9.987288154661655E-3  -6.558134686201811E-3  
 2.386000000000000E10   -6.684211082756519E-3  -8.773034438490868E-3  
 2.388000000000000E10   -9.063365869224072E-3   7.306498475372791E-3  
 2.390000000000000E10    7.603608537465334E-3   7.784626912325621E-3  
 2.392000000000000E10    6.826421711593866E-3  -8.113856427371502E-3  
 2.394000000000000E10   -8.739682845771313E-3  -4.844665061682463E-3  
 2.396000000000000E10   -3.134106285870075E-3   9.335101582109928E-3  
 2.398000000000000E10    9.581959806382656E-3   1.648242352530360E-3  
 2.400000000000000E10   -2.893830242101103E-4  -1.003001537173986E-2  
 2.402000000000000E10   -1.021346263587475E-2   3.319540992379189E-3  
 2.404000000000000E10    4.023391753435135E-3   9.769124910235405E-3  
 2.406000000000000E10    1.010120473802090E-2  -4.043606575578451E-3  
 2.408000000000000E10   -5.214588716626167E-3  -1.052622590214014E-2  
 2.410000000000000E10   -9.104577824473381E-3   5.381858441978693E-3  
 2.412000000000000E10    6.115871015936136E-3   8.307891897857189E-3  
 2.414000000000000E10    7.158388849347830E-3  -6.569435819983482E-3  
 2.416000000000000E10   -6.935103796422482E-3  -5.496883764863014E-3  
 2.418000000000000E10   -4.097621887922287E-3   7.908619940280914E-3  
 2.420000000000000E10    7.932483218610287E-3   2.726573962718248E-3  
 2.422000000000000E10    2.100484445691109E-3  -8.562004193663597E-3  
 2.424000000000000E10   -1.017192751169205E-2  -1.483646803535521E-3  
 2.426000000000000E10   -1.128198578953743E-3   1.081482041627169E-2  
 2.428000000000000E10    1.089169550687075E-2  -1.686814794084057E-4  
 2.430000000000000E10   -6.000868161208928E-4  -1.102659385651350E-2  
 2.432000000000000E10   -1.048287376761437E-2   1.817668788135052E-3  
 2.434000000000000E10    3.297964576631784E-3   9.236427024006844E-3  
 2.436000000000000E10    8.387546986341476E-3  -4.018850624561310E-3  
 2.438000000000000E10   -5.137560423463583E-3  -7.194251753389835E-3  
 2.440000000000000E10   -5.943235009908676E-3   6.272336933761835E-3  
 2.442000000000000E10    7.587037980556488E-3   4.883140325546265E-3  
 2.444000000000000E10    3.900012699887157E-3  -8.094573393464088E-3  
 2.446000000000000E10   -8.527942933142185E-3  -4.000378772616386E-3  
 2.448000000000000E10   -3.072594990953803E-3   8.916185237467289E-3  
 2.450000000000000E10    8.593996986746788E-3   2.399232005700469E-3  
 2.452000000000000E10    2.407246036455035E-3  -9.044612757861614E-3  
 2.454000000000000E10   -8.261472918093205E-3  -1.035495195537806E-3  
 2.456000000000000E10   -1.170782998087816E-4   7.806652691215277E-3  
 2.458000000000000E10    7.757325656712055E-3  -9.077471913769841E-4  
 2.460000000000000E10   -2.308485331013799E-3  -7.914572022855282E-3  
 2.462000000000000E10   -7.798654027283192E-3   3.709645709022880E-3  
 2.464000000000000E10    4.816466476768255E-3   7.431302219629288E-3  
 2.466000000000000E10    7.339372299611569E-3  -5.615658592432737E-3  
 2.468000000000000E10   -6.938026286661625E-3  -7.346229627728462E-3  
 2.470000000000000E10   -6.306897383183241E-3   6.808284204453230E-3  
 2.472000000000000E10    6.335543468594551E-3   5.164738278836012E-3  
 2.474000000000000E10    4.395229741930962E-3  -6.347570102661848E-3  
 2.476000000000000E10   -6.220240611582995E-3  -3.756848862394691E-3  
 2.478000000000000E10   -3.067401237785816E-3   6.207973696291447E-3  
 2.480000000000000E10    6.991026923060417E-3   1.178854960016906E-3  
 2.482000000000000E10   -3.840190183836967E-4  -7.632363587617874E-3  
 2.484000000000000E10   -8.422182872891426E-3   1.894812681712210E-3  
 2.486000000000000E10    3.503025742247701E-3   9.047448635101318E-3  
 2.488000000000000E10    8.372887037694454E-3  -4.386845510452986E-3  
 2.490000000000000E10   -4.421420395374298E-3  -8.191723376512528E-3  
 2.492000000000000E10   -8.584066294133663E-3   4.716830328106880E-3  
 2.494000000000000E10    5.137199070304632E-3   7.729459088295698E-3  
 2.496000000000000E10    6.900656502693892E-3  -5.638507194817066E-3  
 2.498000000000000E10   -5.798301659524441E-3  -5.381644703447819E-3  
 2.500000000000000E10   -3.460618900135160E-3   5.957673769444227E-3  
 2.502000000000000E10    6.611695978790522E-3   2.410793211311102E-3  
 2.504000000000000E10    1.167976530268788E-3  -6.614146754145622E-3  
 2.506000000000000E10   -6.760977208614349E-3  -7.845466461731121E-5  
 2.508000000000000E10    5.273276838124730E-5   7.865121588110924E-3  
 2.510000000000000E10    8.130371570587158E-3  -7.663274300284684E-4  
 2.512000000000000E10   -1.787736546248198E-3  -9.031353518366814E-3  
 2.514000000000000E10   -8.962376974523068E-3   2.108763204887509E-3  
 2.516000000000000E10    3.361562732607126E-3   7.937816902995110E-3  
 2.518000000000000E10    8.124459534883499E-3  -4.322398919612169E-3  
 2.520000000000000E10   -4.795896355062723E-3  -7.243781350553036E-3  
 2.522000000000000E10   -5.254729185253382E-3   5.738344509154558E-3  
 2.524000000000000E10    6.308918353170157E-3   4.835999570786953E-3  
 2.526000000000000E10    4.418276716023684E-3  -7.034325972199440E-3  
 2.528000000000000E10   -7.660536095499992E-3  -3.932044841349125E-3  
 2.530000000000000E10   -2.981851575896144E-3   7.947666570544243E-3  
 2.532000000000000E10    7.780787069350481E-3   2.218896523118019E-3  
 2.534000000000000E10    1.429489348083735E-3  -8.751942776143551E-3  
 2.536000000000000E10   -8.176883682608604E-3  -2.119759737979621E-4  
 2.538000000000000E10    8.135839016176760E-4   6.754829548299313E-3  
 2.540000000000000E10    7.008707150816917E-3  -1.986369956284761E-3  
 2.542000000000000E10   -3.640366951003671E-3  -6.723182275891304E-3  
 2.544000000000000E10   -6.635320372879505E-3   5.095405504107475E-3  
 2.546000000000000E10    6.565582938492298E-3   6.696319673210383E-3  
 2.548000000000000E10    5.975089967250824E-3  -8.757839910686016E-3  
 2.550000000000000E10   -9.843731299042702E-3  -4.849266726523638E-3  
 2.552000000000000E10   -4.030389711260796E-3   9.406956844031811E-3  
 2.554000000000000E10    8.994940668344498E-3   3.525951411575079E-3  
 2.556000000000000E10    3.187640802934766E-3  -8.243118412792683E-3  
 2.558000000000000E10   -7.315840572118759E-3  -1.812852686271071E-3  
 2.560000000000000E10   -1.041910494677723E-3   7.251191884279251E-3  
 2.562000000000000E10    7.337124552577734E-3   2.139587886631489E-4  
 2.564000000000000E10   -1.220321282744408E-3  -6.664359942078590E-3  
 2.566000000000000E10   -6.393502466380596E-3   3.652893006801605E-3  
 2.568000000000000E10    5.037893541157246E-3   6.533141247928143E-3  
 2.570000000000000E10    6.243029143661261E-3  -6.844383198767901E-3  
 2.572000000000000E10   -7.503836881369352E-3  -5.068910308182240E-3  
 2.574000000000000E10   -5.292057059705257E-3   7.891694083809853E-3  
 2.576000000000000E10    9.608102962374687E-3   5.404856987297535E-3  
 2.578000000000000E10    3.931739833205938E-3  -1.003093272447586E-2  
 2.580000000000000E10   -9.569347836077213E-3  -1.942526316270232E-3  
 2.582000000000000E10   -1.166286179795861E-3   9.757326915860176E-3  
 2.584000000000000E10    9.538818150758743E-3  -2.119272248819470E-4  
 2.586000000000000E10   -1.017777482047677E-3  -8.817637339234352E-3  
 2.588000000000000E10   -8.035622537136078E-3   1.910218503326178E-3  
 2.590000000000000E10    2.309025730937719E-3   8.448317646980286E-3  
 2.592000000000000E10    9.040360338985920E-3  -3.001301549375057E-3  
 2.594000000000000E10   -3.910892643034458E-3  -8.183513768017292E-3  
 2.596000000000000E10   -8.073338307440281E-3   5.490557290613651E-3  
 2.598000000000000E10    7.168578449636698E-3   7.141384296119213E-3  
 2.600000000000000E10    4.874404054135084E-3  -8.071084506809712E-3  
 2.602000000000000E10   -8.763833902776241E-3  -2.964223967865109E-3  
 2.604000000000000E10   -1.998898573219776E-3   9.360484778881073E-3  
 2.606000000000000E10    1.041570212692022E-2   4.120163794141263E-4  
 2.608000000000000E10   -9.722741378936917E-5  -1.033190824091435E-2  
 2.610000000000000E10   -1.147378608584404E-2   2.127466577803716E-4  
 2.612000000000000E10    1.320791314356029E-3   1.200385112315416E-2  
 2.614000000000000E10    1.217676792293787E-2  -2.057364210486412E-3  
 2.616000000000000E10   -3.233956638723612E-3  -1.060657016932964E-2  
 2.618000000000000E10   -1.050254236906767E-2   3.013333771377802E-3  
 2.620000000000000E10    4.218818154186010E-3   9.181267581880093E-3  
 2.622000000000000E10    7.138871587812901E-3  -4.858897067606449E-3  
 2.624000000000000E10   -5.378913134336472E-3  -6.731096189469099E-3  
 2.626000000000000E10   -6.080881226807833E-3   7.671268656849861E-3  
 2.628000000000000E10    9.290955029428005E-3   4.586061928421259E-3  
 2.630000000000000E10    2.441456541419029E-3  -1.076911389827728E-2  
 2.632000000000000E10   -1.111075375229120E-2  -6.170641863718629E-4  
 2.634000000000000E10    1.617054294911213E-5   1.133227348327637E-2  
 2.636000000000000E10    1.120693702250719E-2  -6.921291933394969E-4  
 2.638000000000000E10   -1.678977510891855E-3  -1.053376868367195E-2  
 2.640000000000000E10   -1.049094740301371E-2   1.980499131605029E-3  
 2.642000000000000E10    2.456687856465578E-3   1.050961017608643E-2  
 2.644000000000000E10    9.909990243613720E-3  -4.470109008252621E-3  
 2.646000000000000E10   -5.569641478359699E-3  -9.618395939469338E-3  
 2.648000000000000E10   -8.909315802156925E-3   7.369583006948233E-3  
 2.650000000000000E10    8.833901956677437E-3   7.752435281872749E-3  
 2.652000000000000E10    6.386741530150175E-3  -9.765345603227615E-3  
 2.654000000000000E10   -1.043325942009687E-2  -5.215918645262718E-3  
 2.656000000000000E10   -4.436197225004435E-3   1.097564119845629E-2  
 2.658000000000000E10    1.174070779234171E-2   2.556129358708859E-3  
 2.660000000000000E10    3.149201802443713E-4  -1.137923169881105E-2  
 2.662000000000000E10   -1.096454355865717E-2   1.035635941661894E-3  
 2.664000000000000E10    3.517211414873600E-3   1.100504957139492E-2  
 2.666000000000000E10    9.895549155771732E-3  -5.207827780395746E-3  
 2.668000000000000E10   -5.911270622164011E-3  -9.347747080028057E-3  
 2.670000000000000E10   -9.433979168534279E-3   7.216340396553278E-3  
 2.672000000000000E10    7.840499281883240E-3   9.193577803671360E-3  
 2.674000000000000E10    8.966578170657158E-3  -8.595050312578678E-3  
 2.676000000000000E10   -9.174173697829247E-3  -8.812131360173225E-3  
 2.678000000000000E10   -7.700355257838965E-3   1.023461297154427E-2  
 2.680000000000000E10    1.080844551324844E-2   5.743371322751045E-3  
 2.682000000000000E10    4.571204073727131E-3  -1.044221781194210E-2  
 2.684000000000000E10   -1.050275377929211E-2  -2.499237190932035E-3  
 2.686000000000000E10   -2.180235169362277E-4   1.113256998360157E-2  
 2.688000000000000E10    1.136951334774494E-2  -1.640995847992599E-3  
 2.690000000000000E10   -2.957360586151481E-3  -1.069479156285524E-2  
 2.692000000000000E10   -1.163245737552643E-2   4.754837136715651E-3  
 2.694000000000000E10    6.298418622463942E-3   1.161014288663864E-2  
 2.696000000000000E10    1.065753865987063E-2  -7.333767134696245E-3  
 2.698000000000000E10   -7.802827749401331E-3  -1.003054715692997E-2  
 2.700000000000000E10   -9.350905194878578E-3   8.417371660470963E-3  
 2.702000000000000E10    9.680797345936298E-3   8.159636519849300E-3  
 2.704000000000000E10    6.194188725203276E-3  -9.913029149174690E-3  
 2.706000000000000E10   -1.042768545448780E-2  -5.255079362541437E-3  
 2.708000000000000E10   -2.920079510658979E-3   1.146008726209402E-2  
 2.710000000000000E10    1.149484142661095E-2   1.595778856426477E-3  
 2.712000000000000E10   -4.491436266107485E-5  -1.255575660616159E-2  
 2.714000000000000E10   -1.227330509573221E-2   2.096078125759959E-3  
 2.716000000000000E10    2.942778170108795E-3   1.176567655056715E-2  
 2.718000000000000E10    1.158608682453632E-2  -4.045862704515457E-3  
 2.720000000000000E10   -5.245551932603121E-3  -1.092123799026012E-2  
 2.722000000000000E10   -1.052398700267077E-2   5.856501404196024E-3  
 2.724000000000000E10    6.894444581121206E-3   9.097184054553509E-3  
 2.726000000000000E10    8.414849638938904E-3  -7.989913225173950E-3  
 2.728000000000000E10   -9.775727987289429E-3  -7.597577292472124E-3  
 2.730000000000000E10   -5.653342697769404E-3   1.022451464086771E-2  
 2.732000000000000E10    1.162851694971323E-2   4.945319611579180E-3  
 2.734000000000000E10    3.627291880548000E-3  -1.260994933545589E-2  
 2.736000000000000E10   -1.300821639597416E-2  -2.390819368883967E-3  
 2.738000000000000E10   -6.852333317510784E-4   1.355784013867378E-2  
 2.740000000000000E10    1.259519159793854E-2  -1.098797307349742E-3  
 2.742000000000000E10   -2.486629411578178E-3  -1.192560698837042E-2  
 2.744000000000000E10   -1.116529386490583E-2   3.520780010148883E-3  
 2.746000000000000E10    4.741157405078411E-3   9.516751393675804E-3  
 2.748000000000000E10    9.096528403460980E-3  -6.109493784606457E-3  
 2.750000000000000E10   -7.159187458455563E-3  -8.572332561016083E-3  
 2.752000000000000E10   -8.314220234751701E-3   7.963290438055992E-3  
 2.754000000000000E10    9.534196928143501E-3   7.460503838956356E-3  
 2.756000000000000E10    6.785173900425434E-3  -1.024923194199801E-2  
