#  HZ   S   RI   R     50.00 
! Rohde & Schwarz ZVA40 4Ports - Version 3.90 - 1145.1110k42 SN: 100403
! Date: 2023-10-04 10:20:29
! Measurement: S12 
! 
 2.200000000000000E10   -1.266658771783114E-2  -1.010437775403261E-2  
 2.202000000000000E10   -8.743564598262310E-3   1.345989294350147E-2  
 2.204000000000000E10    1.401528809219599E-2   6.352501921355724E-3  
 2.206000000000000E10    3.509521717205644E-3  -1.369507052004337E-2  
 2.208000000000000E10   -1.324657071381807E-2  -1.626857207156718E-3  
 2.210000000000000E10    9.349525789730251E-4   1.326890941709280E-2  
 2.212000000000000E10    1.379242911934853E-2  -3.761290106922388E-3  
 2.214000000000000E10   -4.225033335387707E-3  -1.352458260953426E-2  
 2.216000000000000E10   -1.371389348059893E-2   5.573840811848640E-3  
 2.218000000000000E10    7.796122692525387E-3   1.379616092890501E-2  
 2.220000000000000E10    1.281896047294140E-2  -7.525109685957432E-3  
 2.222000000000000E10   -6.866861600428820E-3  -1.314996462315321E-2  
 2.224000000000000E10   -1.380672771483660E-2   8.072986267507076E-3  
 2.226000000000000E10    9.251027368009090E-3   1.199734117835760E-2  
 2.228000000000000E10    1.001772750169039E-2  -1.053045410662890E-2  
 2.230000000000000E10   -1.109032239764929E-2  -8.350134827196598E-3  
 2.232000000000000E10   -6.773620378226042E-3   1.181966904550791E-2  
 2.234000000000000E10    1.276701968163252E-2   3.877206938341260E-3  
 2.236000000000000E10    2.194050000980496E-3  -1.265876088291407E-2  
 2.238000000000000E10   -1.267464831471443E-2  -1.505410764366388E-3  
 2.240000000000000E10   -2.983390586450696E-4   1.393836922943592E-2  
 2.242000000000000E10    1.383167691528797E-2  -1.108824741095305E-3  
 2.244000000000000E10   -2.682071877643466E-3  -1.375487633049488E-2  
 2.246000000000000E10   -1.324476860463619E-2   3.610365092754364E-3  
 2.248000000000000E10    4.659248981624842E-3   1.328644715249538E-2  
 2.250000000000000E10    1.289651356637478E-2  -6.970180664211512E-3  
 2.252000000000000E10   -8.906270377337933E-3  -1.132565271109343E-2  
 2.254000000000000E10   -1.012067403644323E-2   9.964208118617535E-3  
 2.256000000000000E10    1.077040657401085E-2   9.979579597711563E-3  
 2.258000000000000E10    9.018366225063801E-3  -1.183911971747875E-2  
 2.260000000000000E10   -1.235112268477678E-2  -8.390755392611027E-3  
 2.262000000000000E10   -7.376582827419043E-3   1.380349323153496E-2  
 2.264000000000000E10    1.343405060470104E-2   7.061443757265806E-3  
 2.266000000000000E10    4.673821385949850E-3  -1.424116361886263E-2  
 2.268000000000000E10   -1.374325621873140E-2  -1.970560755580664E-3  
 2.270000000000000E10   -1.300227944739163E-3   1.266532484441996E-2  
 2.272000000000000E10    1.279798243194819E-2  -2.459700335748494E-4  
 2.274000000000000E10   -2.370768692344427E-3  -1.248868368566036E-2  
 2.276000000000000E10   -1.248996332287788E-2   5.341604817658663E-3  
 2.278000000000000E10    7.336942944675684E-3   1.326422020792961E-2  
 2.280000000000000E10    1.266747992485762E-2  -8.772003464400768E-3  
 2.282000000000000E10   -1.575147267431021E-3  -1.514844223856926E-2  
 2.284000000000000E10   -1.068400498479605E-2   1.137223001569510E-2  
 2.286000000000000E10    1.138195488601923E-2   9.923473931849003E-3  
 2.288000000000000E10    9.215765632688999E-3  -1.141061354428530E-2  
 2.290000000000000E10   -1.174060348421335E-2  -6.744369864463806E-3  
 2.292000000000000E10   -6.174578797072172E-3   1.218900084495544E-2  
 2.294000000000000E10    1.375325303524733E-2   4.659808706492186E-3  
 2.296000000000000E10    1.379794441163540E-3  -1.406429894268513E-2  
 2.298000000000000E10   -1.302313059568405E-2   8.985126623883843E-4  
 2.300000000000000E10    2.316747093573213E-3   1.452211104333401E-2  
 2.302000000000000E10    1.529922615736723E-2  -4.366887267678976E-3  
 2.304000000000000E10   -5.690772552043200E-3  -1.361807342618704E-2  
 2.306000000000000E10   -1.257797610014677E-2   6.240147165954113E-3  
 2.308000000000000E10    6.354420911520720E-3   1.269679609686136E-2  
 2.310000000000000E10    1.242208853363991E-2  -8.264381438493729E-3  
 2.312000000000000E10   -1.019550487399101E-2  -9.968657977879047E-3  
 2.314000000000000E10   -8.027344942092896E-3   1.072677969932556E-2  
 2.316000000000000E10    1.195203606039286E-2   5.416739266365767E-3  
 2.318000000000000E10    3.649874590337277E-3  -1.319193746894598E-2  
 2.320000000000000E10   -1.328329741954804E-2  -2.181481337174773E-3  
 2.322000000000000E10   -1.474901335313916E-3   1.292020082473755E-2  
 2.324000000000000E10    1.468265708535910E-2   1.021551201120019E-3  
 2.326000000000000E10   -6.692766910418868E-4  -1.500537246465683E-2  
 2.328000000000000E10   -1.553757674992085E-2   1.861781347543001E-3  
 2.330000000000000E10    3.545935032889247E-3   1.506553310900927E-2  
 2.332000000000000E10    1.270005945116282E-2  -5.840600933879614E-3  
 2.334000000000000E10   -6.912594661116600E-3  -1.088117249310017E-2  
 2.336000000000000E10   -9.512828662991524E-3   7.408209610730410E-3  
 2.338000000000000E10    8.374078199267387E-3   7.867526262998581E-3  
 2.340000000000000E10    6.992468610405922E-3  -9.603369981050491E-3  
 2.342000000000000E10   -1.068111322820187E-2  -6.481800694018602E-3  
 2.344000000000000E10   -5.842563696205616E-3   1.282657403498888E-2  
 2.346000000000000E10    1.406676974147558E-2   4.320139065384865E-3  
 2.348000000000000E10    2.235758351162076E-3  -1.312444359064102E-2  
 2.350000000000000E10   -1.369279157370329E-2  -8.101823041215539E-4  
 2.352000000000000E10    6.136671872809529E-4   1.346988882869482E-2  
 2.354000000000000E10    1.117007620632649E-2  -2.102483995258808E-3  
 2.356000000000000E10   -3.153187921270728E-3  -1.145238056778908E-2  
 2.358000000000000E10   -1.138413045555353E-2   4.740400239825249E-3  
 2.360000000000000E10    7.260811515152454E-3   1.052580587565899E-2  
 2.362000000000000E10    9.953519329428673E-3  -9.542932733893395E-3  
 2.364000000000000E10   -1.064558327198029E-2  -9.072797372937203E-3  
 2.366000000000000E10   -7.614905014634132E-3   1.151442993432283E-2  
 2.368000000000000E10    1.125374902039766E-2   6.609727162867785E-3  
 2.370000000000000E10    6.317765917629004E-3  -1.053699851036072E-2  
 2.372000000000000E10   -1.122523471713066E-2  -5.427011754363775E-3  
 2.374000000000000E10   -4.262466914951801E-3   1.180219836533070E-2  
 2.376000000000000E10    1.127911265939474E-2   2.422712510451675E-3  
 2.378000000000000E10   -3.511563409119844E-4  -1.183077692985535E-2  
 2.380000000000000E10   -1.258612237870693E-2   2.765323035418987E-3  
 2.382000000000000E10    5.498422309756279E-3   1.096860505640507E-2  
 2.384000000000000E10    9.996843524277210E-3  -7.211830466985703E-3  
 2.386000000000000E10   -7.759853266179562E-3  -1.049525104463100E-2  
 2.388000000000000E10   -9.671178646385670E-3   8.913195692002773E-3  
 2.390000000000000E10    9.438977576792240E-3   9.594706818461418E-3  
 2.392000000000000E10    8.424739353358746E-3  -9.473641403019428E-3  
 2.394000000000000E10   -1.018886454403400E-2  -7.208327297121286E-3  
 2.396000000000000E10   -6.203601136803627E-3   1.056462433189154E-2  
 2.398000000000000E10    1.019686460494995E-2   4.473869688808918E-3  
 2.400000000000000E10    1.480828388594091E-3  -1.075307745486498E-2  
 2.402000000000000E10   -1.080477144569159E-2   1.142264693044126E-3  
 2.404000000000000E10    2.142475452274084E-3   1.038654893636704E-2  
 2.406000000000000E10    1.109644118696451E-2  -3.556193318217993E-3  
 2.408000000000000E10   -5.209781695157290E-3  -1.066990382969379E-2  
 2.410000000000000E10   -1.121069025248289E-2   6.357223261147738E-3  
 2.412000000000000E10    7.371499203145504E-3   1.024270243942738E-2  
 2.414000000000000E10    9.116862900555134E-3  -7.605907041579485E-3  
 2.416000000000000E10   -8.340470492839813E-3  -7.682207506150007E-3  
 2.418000000000000E10   -6.401899270713329E-3   8.708190172910690E-3  
 2.420000000000000E10    8.678591810166836E-3   4.717987030744553E-3  
 2.422000000000000E10    4.116234835237265E-3  -9.395768865942955E-3  
 2.424000000000000E10   -9.744348004460335E-3  -3.407516749575734E-3  
 2.426000000000000E10   -1.818798948079348E-3   1.087724138051271E-2  
 2.428000000000000E10    1.151328906416893E-2   1.280816504731774E-3  
 2.430000000000000E10   -7.592398560518632E-6  -1.174069475382567E-2  
 2.432000000000000E10   -1.173478364944458E-2   9.902737801894546E-4  
 2.434000000000000E10    2.122766105458140E-3   1.122568547725678E-2  
 2.436000000000000E10    9.776213206350803E-3  -3.704693168401718E-3  
 2.438000000000000E10   -4.050812218338251E-3  -8.708403445780277E-3  
 2.440000000000000E10   -7.427210453897715E-3   5.387341603636742E-3  
 2.442000000000000E10    6.601049564778805E-3   5.937756970524788E-3  
 2.444000000000000E10    5.568193737417460E-3  -7.954211905598640E-3  
 2.446000000000000E10   -8.765895850956440E-3  -4.193399101495743E-3  
 2.448000000000000E10   -3.910576924681664E-3   9.704259224236012E-3  
 2.450000000000000E10    1.028131041675806E-2   3.546019084751606E-3  
 2.452000000000000E10    3.110401099547744E-3  -1.008116081357002E-2  
 2.454000000000000E10   -9.902019985020161E-3  -2.370304195210338E-3  
 2.456000000000000E10   -1.485061366111040E-3   9.132964536547661E-3  
 2.458000000000000E10    8.904102258384228E-3   2.058417769148946E-3  
 2.460000000000000E10    2.226022625109181E-4  -8.426318876445293E-3  
 2.462000000000000E10   -7.364199962466955E-3   1.491290517151356E-3  
 2.464000000000000E10    2.760184928774834E-3   7.801336701959372E-3  
 2.466000000000000E10    7.168967742472887E-3  -4.571250639855862E-3  
 2.468000000000000E10   -5.823099054396153E-3  -7.071135099977255E-3  
 2.470000000000000E10   -6.210568360984325E-3   7.263073232024908E-3  
 2.472000000000000E10    7.766174152493477E-3   5.355346482247114E-3  
 2.474000000000000E10    6.291096564382315E-3  -7.992416620254517E-3  
 2.476000000000000E10   -7.319435011595488E-3  -5.519028753042221E-3  
 2.478000000000000E10   -5.261568818241358E-3   7.674555294215679E-3  
 2.480000000000000E10    8.821297436952591E-3   4.658223129808903E-3  
 2.482000000000000E10    3.090725978836417E-3  -8.668614551424980E-3  
 2.484000000000000E10   -8.443613536655903E-3  -1.304313889704645E-3  
 2.486000000000000E10    1.090649093384855E-4   8.513294160366058E-3  
 2.488000000000000E10    8.137435652315617E-3  -2.099571283906698E-3  
 2.490000000000000E10   -3.063591197133064E-3  -8.429636247456074E-3  
 2.492000000000000E10   -7.717888802289963E-3   3.710797056555748E-3  
 2.494000000000000E10    4.382032901048660E-3   7.836158387362957E-3  
 2.496000000000000E10    8.297651074826717E-3  -5.953426472842693E-3  
 2.498000000000000E10   -6.364339496940374E-3  -6.603991147130728E-3  
 2.500000000000000E10   -5.263955798000097E-3   6.644540000706911E-3  
 2.502000000000000E10    6.855444982647896E-3   4.474457819014788E-3  
 2.504000000000000E10    3.016871400177479E-3  -7.617040071636438E-3  
 2.506000000000000E10   -7.514879573136568E-3  -2.153727225959301E-3  
 2.508000000000000E10   -1.689507858827710E-3   7.459439337253571E-3  
 2.510000000000000E10    8.501444011926651E-3   1.690884702838957E-3  
 2.512000000000000E10    6.408118060790002E-4  -9.368254803121090E-3  
 2.514000000000000E10   -9.741867892444134E-3   5.974109517410398E-4  
 2.516000000000000E10    8.177128620445728E-4   9.729950688779354E-3  
 2.518000000000000E10    9.157946333289146E-3  -1.361085684038699E-3  
 2.520000000000000E10   -3.462643362581730E-3  -7.746138609945774E-3  
 2.522000000000000E10   -6.375347729772329E-3   4.239812027662993E-3  
 2.524000000000000E10    3.853209316730499E-3   5.538345314562321E-3  
 2.526000000000000E10    4.329808522015810E-3  -5.535239819437265E-3  
 2.528000000000000E10   -6.576082669198513E-3  -3.148155985400081E-3  
 2.530000000000000E10   -2.337323501706123E-3   7.401207927614451E-3  
 2.532000000000000E10    9.233660064637661E-3   2.614693017676473E-3  
 2.534000000000000E10    2.155099064111710E-3  -9.657411836087704E-3  
 2.536000000000000E10   -9.833634831011295E-3  -7.156393257901073E-4  
 2.538000000000000E10   -2.981986326631159E-4   9.890087880194187E-3  
 2.540000000000000E10    9.879932738840580E-3   8.962695137597621E-4  
 2.542000000000000E10   -2.952970680780709E-4  -9.291470982134342E-3  
 2.544000000000000E10   -8.457683958113194E-3   1.057854853570461E-3  
 2.546000000000000E10    2.244723262265325E-3   8.618100546300411E-3  
 2.548000000000000E10    7.502399850636721E-3  -4.837673623114824E-3  
 2.550000000000000E10   -5.889146123081446E-3  -5.872173234820366E-3  
 2.552000000000000E10   -4.052599892020226E-3   7.048181258141995E-3  
 2.554000000000000E10    7.492975331842899E-3   3.137573832646012E-3  
 2.556000000000000E10    2.806976903229952E-3  -7.849542424082756E-3  
 2.558000000000000E10   -8.337290026247501E-3  -1.973135164007545E-3  
 2.560000000000000E10   -2.014688681811094E-3   8.753412403166294E-3  
 2.562000000000000E10    9.079893119633198E-3   1.439222018234432E-3  
 2.564000000000000E10   -2.613656106404960E-4  -9.539503604173660E-3  
 2.566000000000000E10   -9.912027977406979E-3   1.410389202646911E-3  
 2.568000000000000E10    3.407228505238891E-3   9.706182405352593E-3  
 2.570000000000000E10    8.200285024940968E-3  -5.271217785775662E-3  
 2.572000000000000E10   -5.634677596390247E-3  -7.352949585765600E-3  
 2.574000000000000E10   -7.989240810275078E-3   6.674401462078095E-3  
 2.576000000000000E10    7.174544967710972E-3   7.876742631196976E-3  
 2.578000000000000E10    6.218408234417439E-3  -8.156664669513702E-3  
 2.580000000000000E10   -8.349726907908917E-3  -4.608320537954569E-3  
 2.582000000000000E10   -3.447453491389751E-3   9.172367863357067E-3  
 2.584000000000000E10    8.686583489179611E-3   1.676911371760070E-3  
 2.586000000000000E10   -6.104841013439000E-4  -7.638387847691774E-3  
 2.588000000000000E10   -7.677894551306963E-3   1.952358172275126E-3  
 2.590000000000000E10    2.449810039252043E-3   8.240155875682831E-3  
 2.592000000000000E10    8.561355993151665E-3  -3.344957251101732E-3  
 2.594000000000000E10   -4.845662042498589E-3  -9.181735105812550E-3  
 2.596000000000000E10   -1.036616042256355E-2   6.246550474315882E-3  
 2.598000000000000E10    8.211191743612289E-3   9.875107556581497E-3  
 2.600000000000000E10    8.914858102798462E-3  -8.844121359288693E-3  
 2.602000000000000E10   -8.760560303926468E-3  -8.138780482113361E-3  
 2.604000000000000E10   -6.170592736452818E-3   9.048508480191231E-3  
 2.606000000000000E10    8.946262300014496E-3   4.935082979500294E-3  
 2.608000000000000E10    3.605195321142674E-3  -8.190146647393704E-3  
 2.610000000000000E10   -8.871177211403847E-3  -2.036681864410639E-3  
 2.612000000000000E10   -6.240717484615743E-4   9.686294943094254E-3  
 2.614000000000000E10    1.006558910012245E-2  -1.826242310926318E-3  
 2.616000000000000E10   -3.289087908342481E-3  -1.027477439492941E-2  
 2.618000000000000E10   -9.871390648186207E-3   3.992209210991859E-3  
 2.620000000000000E10    5.739192012697458E-3   9.635873138904572E-3  
 2.622000000000000E10    9.085355326533318E-3  -6.880409084260464E-3  
 2.624000000000000E10   -6.399117410182953E-3  -8.575106970965862E-3  
 2.626000000000000E10   -8.722163736820221E-3   8.198506198823452E-3  
 2.628000000000000E10    9.460153058171272E-3   7.373925298452377E-3  
 2.630000000000000E10    5.585529841482639E-3  -1.073282305151224E-2  
 2.632000000000000E10   -1.155403908342123E-2  -3.640204202383757E-3  
 2.634000000000000E10   -2.439743373543024E-3   1.120812911540270E-2  
 2.636000000000000E10    1.168307010084391E-2   1.262638485059142E-3  
 2.638000000000000E10   -6.285332492552698E-4  -1.147542614489794E-2  
 2.640000000000000E10   -1.027624122798443E-2   3.389976336620748E-4  
 2.642000000000000E10    1.927163684740663E-3   1.035686396062374E-2  
 2.644000000000000E10    9.572887793183327E-3  -3.192997304722667E-3  
 2.646000000000000E10   -3.834791947156191E-3  -9.067771025002003E-3  
 2.648000000000000E10   -8.306393399834633E-3   6.547775585204363E-3  
 2.650000000000000E10    8.407429791986942E-3   6.923062726855278E-3  
 2.652000000000000E10    5.782356020063162E-3  -9.693944826722145E-3  
 2.654000000000000E10   -1.108202990144491E-2  -4.960767459124327E-3  
 2.656000000000000E10   -4.050678573548794E-3   1.224840991199017E-2  
 2.658000000000000E10    1.335629262030125E-2   2.685363870114088E-3  
 2.660000000000000E10    1.796375261619687E-3  -1.385005284100771E-2  
 2.662000000000000E10   -1.391144562512636E-2  -7.341486052609980E-4  
 2.664000000000000E10    9.067103383131325E-4   1.302143279463053E-2  
 2.666000000000000E10    1.137513481080532E-2  -2.136077033355832E-3  
 2.668000000000000E10   -3.525824053213000E-3  -1.045096199959517E-2  
 2.670000000000000E10   -9.273526258766651E-3   4.894890356808901E-3  
 2.672000000000000E10    5.847685970366001E-3   8.335825055837631E-3  
 2.674000000000000E10    7.283319719135761E-3  -7.068874780088663E-3  
 2.676000000000000E10   -9.374590590596199E-3  -6.949576083570719E-3  
 2.678000000000000E10   -5.581308156251907E-3   1.089243032038212E-2  
 2.680000000000000E10    1.096415426582098E-2   4.363749176263809E-3  
 2.682000000000000E10    3.459324594587088E-3  -1.177989877760410E-2  
 2.684000000000000E10   -1.264564320445061E-2  -2.204060787335038E-3  
 2.686000000000000E10   -1.316052279435098E-3   1.246450282633305E-2  
 2.688000000000000E10    1.170106604695320E-2  -2.834452607203275E-4  
 2.690000000000000E10   -1.757798250764608E-3  -1.173186767846346E-2  
 2.692000000000000E10   -1.191079057753086E-2   3.662555944174528E-3  
 2.694000000000000E10    5.486140958964825E-3   1.118674222379923E-2  
 2.696000000000000E10    1.056493259966373E-2  -6.654462311416864E-3  
 2.698000000000000E10   -8.261222392320633E-3  -9.905451908707619E-3  
 2.700000000000000E10   -8.830925449728966E-3   8.848967030644417E-3  
 2.702000000000000E10    9.710206650197506E-3   7.951560430228710E-3  
 2.704000000000000E10    6.471971515566111E-3  -1.014867704361677E-2  
 2.706000000000000E10   -1.044343225657940E-2  -5.248113069683313E-3  
 2.708000000000000E10   -3.851004410535097E-3   1.052726805210114E-2  
 2.710000000000000E10    1.084266230463982E-2   2.204402117058635E-3  
 2.712000000000000E10   -2.072048664558679E-4  -1.135772094130516E-2  
 2.714000000000000E10   -1.150500308722258E-2   2.128423424437642E-3  
 2.716000000000000E10    2.866031369194388E-3   1.101517491042614E-2  
 2.718000000000000E10    1.133602485060692E-2  -4.964602179825306E-3  
 2.720000000000000E10   -6.197305861860514E-3  -1.132093928754330E-2  
 2.722000000000000E10   -1.133054774254561E-2   6.790045648813248E-3  
 2.724000000000000E10    7.980783469974995E-3   1.034225337207317E-2  
 2.726000000000000E10    9.440084919333458E-3  -8.520439267158508E-3  
 2.728000000000000E10   -9.029304608702660E-3  -8.730987086892128E-3  
 2.730000000000000E10   -7.197744213044643E-3   1.001092605292797E-2  
 2.732000000000000E10    1.068802643567324E-2   5.284393671900034E-3  
 2.734000000000000E10    3.645514603704214E-3  -1.126410439610481E-2  
 2.736000000000000E10   -1.230687182396650E-2  -1.819040742702782E-3  
 2.738000000000000E10   -1.450320851290599E-4   1.267553027719259E-2  
 2.740000000000000E10    1.267084665596485E-2  -2.011135686188936E-3  
 2.742000000000000E10   -3.217691788449884E-3  -1.209645066410303E-2  
 2.744000000000000E10   -1.152677834033966E-2   4.049711860716343E-3  
 2.746000000000000E10    5.759817082434893E-3   1.154085155576468E-2  
 2.748000000000000E10    1.027517486363649E-2  -6.208400707691908E-3  
 2.750000000000000E10   -6.863780785351992E-3  -8.731626905500889E-3  
 2.752000000000000E10   -8.298628032207489E-3   8.731371723115444E-3  
 2.754000000000000E10    9.541622363030911E-3   6.928175687789917E-3  
 2.756000000000000E10    5.538572557270527E-3  -1.034704409539700E-2  
