#  HZ   S   RI   R     50.00 
! Rohde & Schwarz ZVA40 4Ports - Version 3.90 - 1145.1110k42 SN: 100403
! Date: 2023-10-04 10:22:44
! Measurement: S12 
! 
 2.200000000000000E10   -2.221825718879700E-2  -5.756622995249927E-4  
 2.202000000000000E10    1.622045761905611E-3   2.105501294136047E-2  
 2.204000000000000E10    2.026553824543953E-2  -4.622037522494793E-3  
 2.206000000000000E10   -8.053502999246121E-3  -1.900676079094410E-2  
 2.208000000000000E10   -1.670677214860916E-2   1.009821426123381E-2  
 2.210000000000000E10    1.315013691782951E-2   1.628048531711102E-2  
 2.212000000000000E10    1.555294916033745E-2  -1.488194521516562E-2  
 2.214000000000000E10   -1.502595655620098E-2  -1.267271582037211E-2  
 2.216000000000000E10   -1.151592843234539E-2   1.659524254500866E-2  
 2.218000000000000E10    1.703574694693089E-2   1.106984913349152E-2  
 2.220000000000000E10    9.802822954952717E-3  -1.582093723118305E-2  
 2.222000000000000E10   -1.607173681259155E-2  -9.396006353199482E-3  
 2.224000000000000E10   -7.725500036031008E-3   1.667468249797821E-2  
 2.226000000000000E10    1.780103892087936E-2   5.363306961953640E-3  
 2.228000000000000E10    3.703608177602291E-3  -1.838646829128265E-2  
 2.230000000000000E10   -1.690703630447388E-2  -6.480318261310458E-4  
 2.232000000000000E10    2.287738025188446E-3   1.765738986432552E-2  
 2.234000000000000E10    1.756260357797146E-2  -4.707351326942444E-3  
 2.236000000000000E10   -6.291289813816547E-3  -1.676392182707787E-2  
 2.238000000000000E10   -1.550394203513861E-2   7.539222948253155E-3  
 2.240000000000000E10    8.369636721909046E-3   1.552496384829283E-2  
 2.242000000000000E10    1.506147440522909E-2  -1.069393102079630E-2  
 2.244000000000000E10   -1.219684910029173E-2  -1.404767204076052E-2  
 2.246000000000000E10   -1.243558153510094E-2   1.236524246633053E-2  
 2.248000000000000E10    1.400993391871452E-2   1.018585264682770E-2  
 2.250000000000000E10    9.334232658147812E-3  -1.587975025177002E-2  
 2.252000000000000E10   -1.680806651711464E-2  -7.592349313199520E-3  
 2.254000000000000E10   -5.908320657908917E-3   1.696897670626640E-2  
 2.256000000000000E10    1.782239414751530E-2   4.992105066776276E-3  
 2.258000000000000E10    3.162295091897249E-3  -1.941332221031189E-2  
 2.260000000000000E10   -2.025180496275425E-2  -2.645031083375216E-3  
 2.262000000000000E10    5.755163729190826E-4   1.949202641844750E-2  
 2.264000000000000E10    1.828351430594921E-2  -2.074392978101969E-3  
 2.266000000000000E10   -4.319607280194759E-3  -1.787296496331692E-2  
 2.268000000000000E10   -1.629123650491238E-2   6.517009343951941E-3  
 2.270000000000000E10    6.941937375813723E-3   1.478170603513718E-2  
 2.272000000000000E10    1.338922604918480E-2  -9.060594253242016E-3  
 2.274000000000000E10   -1.139628142118454E-2  -1.332482695579529E-2  
 2.276000000000000E10   -1.273814309388399E-2   1.391782425343990E-2  
 2.278000000000000E10    1.550681982189417E-2   1.081629376858473E-2  
 2.280000000000000E10    9.003991261124611E-3  -1.686776988208294E-2  
 2.282000000000000E10   -1.029016729444265E-2  -1.684563234448433E-2  
 2.284000000000000E10   -6.620357744395733E-3   1.842416636645794E-2  
 2.286000000000000E10    1.774952001869679E-2   5.021024495363236E-3  
 2.288000000000000E10    3.400656627491117E-3  -1.739774085581303E-2  
 2.290000000000000E10   -1.812635175883770E-2  -1.157050137408078E-3  
 2.292000000000000E10    2.793922321870923E-4   1.822451129555702E-2  
 2.294000000000000E10    1.749623566865921E-2  -3.147819079458714E-3  
 2.296000000000000E10   -6.890062242746353E-3  -1.661124825477600E-2  
 2.298000000000000E10   -1.583010144531727E-2   8.527294732630253E-3  
 2.300000000000000E10    1.090114377439022E-2   1.528811547905207E-2  
 2.302000000000000E10    1.336066424846649E-2  -1.188253704458475E-2  
 2.304000000000000E10   -1.219533942639828E-2  -1.241113431751728E-2  
 2.306000000000000E10   -1.175344828516245E-2   1.397977489978075E-2  
 2.308000000000000E10    1.468560751527548E-2   1.085678022354841E-2  
 2.310000000000000E10    9.053459390997887E-3  -1.503685116767883E-2  
 2.312000000000000E10   -1.652665622532368E-2  -6.104821804910898E-3  
 2.314000000000000E10   -3.478839993476868E-3   1.771435886621475E-2  
 2.316000000000000E10    1.694959029555321E-2  -1.638284738874063E-4  
 2.318000000000000E10   -2.323230262845755E-3  -1.614106446504593E-2  
 2.320000000000000E10   -1.626019552350044E-2   3.997378516942263E-3  
 2.322000000000000E10    5.447691306471825E-3   1.609170995652676E-2  
 2.324000000000000E10    1.726595498621464E-2  -6.169773172587156E-3  
 2.326000000000000E10   -7.972666993737221E-3  -1.773765683174133E-2  
 2.328000000000000E10   -1.623756065964699E-2   1.074520498514175E-2  
 2.330000000000000E10    1.283863000571728E-2   1.359794754534960E-2  
 2.332000000000000E10    1.137650478631258E-2  -1.297910511493683E-2  
 2.334000000000000E10   -1.248168107122183E-2  -9.199527092278004E-3  
 2.336000000000000E10   -7.218289189040661E-3   1.275309268385172E-2  
 2.338000000000000E10    1.419376209378243E-2   5.731953307986260E-3  
 2.340000000000000E10    4.230096936225891E-3  -1.528335828334093E-2  
 2.342000000000000E10   -1.582013629376888E-2  -2.551399869844317E-3  
 2.344000000000000E10    2.446084727125708E-5   1.742206327617168E-2  
 2.346000000000000E10    1.758308894932270E-2  -2.539106411859393E-3  
 2.348000000000000E10   -4.273531958460808E-3  -1.586757041513920E-2  
 2.350000000000000E10   -1.551529020071030E-2   4.888428840786219E-3  
 2.352000000000000E10    6.083030253648758E-3   1.469244062900543E-2  
 2.354000000000000E10    1.311838719993830E-2  -8.108282461762428E-3  
 2.356000000000000E10   -9.439792484045029E-3  -1.241375133395195E-2  
 2.358000000000000E10   -1.119306311011314E-2   1.059864833950996E-2  
 2.360000000000000E10    1.379565615206957E-2   9.410652332007885E-3  
 2.362000000000000E10    7.240320555865765E-3  -1.453223917633295E-2  
 2.364000000000000E10   -1.567900553345680E-2  -5.505168810486794E-3  
 2.366000000000000E10   -3.812061157077551E-3   1.578350551426411E-2  
 2.368000000000000E10    1.492411177605391E-2   3.411283949390054E-3  
 2.370000000000000E10    2.134886104613543E-3  -1.508924085646868E-2  
 2.372000000000000E10   -1.522437017410994E-2  -2.116468036547303E-3  
 2.374000000000000E10   -8.360593928955495E-4   1.546394638717175E-2  
 2.376000000000000E10    1.582982577383518E-2  -2.287507988512516E-3  
 2.378000000000000E10   -4.344278015196323E-3  -1.447263825684786E-2  
 2.380000000000000E10   -1.289608795195818E-2   6.934429053217173E-3  
 2.382000000000000E10    1.016155816614628E-2   1.184405200183392E-2  
 2.384000000000000E10    1.028511952608824E-2  -1.114500034600496E-2  
 2.386000000000000E10   -1.241469010710716E-2  -8.540835231542587E-3  
 2.388000000000000E10   -8.444372564554215E-3   1.381598133593798E-2  
 2.390000000000000E10    1.504046935588121E-2   7.837449200451374E-3  
 2.392000000000000E10    5.991046316921711E-3  -1.595520786941052E-2  
 2.394000000000000E10   -1.573455892503262E-2  -5.062554962933064E-3  
 2.396000000000000E10   -2.961088670417666E-3   1.478734705597162E-2  
 2.398000000000000E10    1.515218988060951E-2   3.714760532602668E-4  
 2.400000000000000E10   -1.116406056098640E-3  -1.396346371620894E-2  
 2.402000000000000E10   -1.232905127108097E-2   3.761647967621684E-3  
 2.404000000000000E10    5.732088349759579E-3   1.175756100565195E-2  
 2.406000000000000E10    1.168002467602491E-2  -7.645245175808668E-3  
 2.408000000000000E10   -9.477238170802593E-3  -1.093793381005526E-2  
 2.410000000000000E10   -1.039925031363964E-2   1.071468275040388E-2  
 2.412000000000000E10    1.198600418865681E-2   9.013065136969090E-3  
 2.414000000000000E10    6.852217949926853E-3  -1.305887848138809E-2  
 2.416000000000000E10   -1.317042205482721E-2  -6.176397204399109E-3  
 2.418000000000000E10   -4.573750309646130E-3   1.256242115050554E-2  
 2.420000000000000E10    1.231884770095348E-2   2.809008350595832E-3  
 2.422000000000000E10    2.327307593077421E-3  -1.220991834998131E-2  
 2.424000000000000E10   -1.298084016889334E-2  -5.659969174303114E-4  
 2.426000000000000E10    6.603450747206807E-4   1.318750623613596E-2  
 2.428000000000000E10    1.403394434601069E-2  -1.988754607737064E-3  
 2.430000000000000E10   -3.895566565915942E-3  -1.377680618315935E-2  
 2.432000000000000E10   -1.389750652015209E-2   5.588555708527565E-3  
 2.434000000000000E10    6.882314570248127E-3   1.335109025239945E-2  
 2.436000000000000E10    1.100776903331280E-2  -7.663182914257050E-3  
 2.438000000000000E10   -7.714260369539261E-3  -1.019699405878782E-2  
 2.440000000000000E10   -8.796224370598793E-3   8.402426727116108E-3  
 2.442000000000000E10    9.529798291623592E-3   7.478130050003529E-3  
 2.444000000000000E10    5.420709960162640E-3  -1.068172045052052E-2  
 2.446000000000000E10   -1.128796953707933E-2  -3.213460091501474E-3  
 2.448000000000000E10   -2.160561503842473E-3   1.201497949659824E-2  
 2.450000000000000E10    1.221427321434021E-2   8.534095250070095E-4  
 2.452000000000000E10    1.127985960920341E-4  -1.245506852865219E-2  
 2.454000000000000E10   -1.286874618381262E-2   3.043210890609771E-4  
 2.456000000000000E10    8.628052310086787E-4   1.253690570592880E-2  
 2.458000000000000E10    1.245033275336027E-2  -1.049168873578310E-3  
 2.460000000000000E10   -2.494882093742490E-3  -1.204735226929188E-2  
 2.462000000000000E10   -1.129870396107435E-2   3.850533859804273E-3  
 2.464000000000000E10    4.982914775609970E-3   9.951227344572544E-3  
 2.466000000000000E10    8.862971328198910E-3  -6.063881795853376E-3  
 2.468000000000000E10   -8.258949033915997E-3  -7.746913935989142E-3  
 2.470000000000000E10   -5.612701177597046E-3   9.798254817724228E-3  
 2.472000000000000E10    9.808309376239777E-3   4.573407117277384E-3  
 2.474000000000000E10    4.382974933832884E-3  -1.050986070185900E-2  
 2.476000000000000E10   -1.159629877656698E-2  -3.416340565308929E-3  
 2.478000000000000E10   -2.949578687548637E-3   1.202452834695578E-2  
 2.480000000000000E10    1.158541440963745E-2   2.498201327398419E-3  
 2.482000000000000E10    1.215930213220418E-3  -1.117676869034767E-2  
 2.484000000000000E10   -1.107920892536640E-2   3.083632327616215E-4  
 2.486000000000000E10    2.117423573508859E-3   1.051538158208132E-2  
 2.488000000000000E10    9.805911220610142E-3  -3.186124842613936E-3  
 2.490000000000000E10   -3.825470106676221E-3  -9.001704864203930E-3  
 2.492000000000000E10   -8.108673617243767E-3   5.634221713989973E-3  
 2.494000000000000E10    7.453371770679951E-3   8.820161223411560E-3  
 2.496000000000000E10    8.848781697452068E-3  -8.534267544746399E-3  
 2.498000000000000E10   -9.664299897849560E-3  -6.883828900754452E-3  
 2.500000000000000E10   -5.564203951507807E-3   9.380077943205833E-3  
 2.502000000000000E10    9.839242324233055E-3   4.468698985874653E-3  
 2.504000000000000E10    2.952325856313109E-3  -1.003293693065643E-2  
 2.506000000000000E10   -8.250330574810505E-3  -2.189729828387499E-3  
 2.508000000000000E10   -1.051552593708038E-3   8.241978473961353E-3  
 2.510000000000000E10    9.958368726074696E-3  -1.002236895146780E-4  
 2.512000000000000E10   -9.769975440576673E-4  -9.524051100015640E-3  
 2.514000000000000E10   -9.979599155485630E-3   2.242983551695943E-3  
 2.516000000000000E10    4.237801767885685E-3   1.052324380725622E-2  
 2.518000000000000E10    9.821330197155476E-3  -5.205969326198101E-3  
 2.520000000000000E10   -6.006264127790928E-3  -1.001388300210238E-2  
 2.522000000000000E10   -9.028418920934200E-3   5.838434211909771E-3  
 2.524000000000000E10    6.110848858952522E-3   7.473479956388474E-3  
 2.526000000000000E10    7.061465177685022E-3  -7.036171387881041E-3  
 2.528000000000000E10   -7.671115454286337E-3  -6.323195993900299E-3  
 2.530000000000000E10   -4.553052131086588E-3   8.528843522071838E-3  
 2.532000000000000E10    9.297545067965984E-3   2.221559407189488E-3  
 2.534000000000000E10    7.272211369127035E-4  -9.518546983599663E-3  
 2.536000000000000E10   -1.044405158609152E-2   9.047306375578046E-4  
 2.538000000000000E10    1.347323413938284E-3   1.007284503430128E-2  
 2.540000000000000E10    9.953297674655914E-3  -1.626406097784638E-3  
 2.542000000000000E10   -2.378626028075814E-3  -1.037586666643620E-2  
 2.544000000000000E10   -1.069227326661348E-2   3.762061474844813E-3  
 2.546000000000000E10    4.165141377598047E-3   1.097734365612268E-2  
 2.548000000000000E10    9.531226009130478E-3  -5.196576938033104E-3  
 2.550000000000000E10   -6.941574160009623E-3  -7.501196581870318E-3  
 2.552000000000000E10   -5.764899309724569E-3   8.767475374042988E-3  
 2.554000000000000E10    8.729024790227413E-3   3.664749208837748E-3  
 2.556000000000000E10    3.162694163620472E-3  -9.170806966722012E-3  
 2.558000000000000E10   -9.942666627466679E-3  -1.278499490581453E-3  
 2.560000000000000E10    9.905270417220891E-5   1.011788658797741E-2  
 2.562000000000000E10    1.134131383150816E-2  -5.698463646695018E-4  
 2.564000000000000E10   -9.656851179897785E-4  -1.163551490753889E-2  
 2.566000000000000E10   -1.082766521722078E-2   3.276688745245338E-3  
 2.568000000000000E10    4.856398794800043E-3   1.050012465566397E-2  
 2.570000000000000E10    9.466446936130524E-3  -6.351036950945854E-3  
 2.572000000000000E10   -6.564534734934568E-3  -8.247208781540394E-3  
 2.574000000000000E10   -7.203012239187956E-3   7.406729739159346E-3  
 2.576000000000000E10    8.851878345012665E-3   5.922625306993723E-3  
 2.578000000000000E10    5.261715501546860E-3  -1.062296330928803E-2  
 2.580000000000000E10   -1.138557866215706E-2  -3.872272092849016E-3  
 2.582000000000000E10   -1.705258735455573E-3   1.104000676423311E-2  
 2.584000000000000E10    1.090798713266850E-2   5.985160100863141E-7  
 2.586000000000000E10   -9.835782693699002E-4  -1.141103263944387E-2  
 2.588000000000000E10   -9.960888884961605E-3   2.078200923278928E-3  
 2.590000000000000E10    2.435939619317651E-3   8.438960649073124E-3  
 2.592000000000000E10    8.514432236552239E-3  -3.961020149290562E-3  
 2.594000000000000E10   -5.603202618658543E-3  -8.907050825655460E-3  
 2.596000000000000E10   -8.326130919158459E-3   7.061033509671688E-3  
 2.598000000000000E10    8.448780514299870E-3   7.304564118385315E-3  
 2.600000000000000E10    6.537576671689749E-3  -9.655109606683254E-3  
 2.602000000000000E10   -1.166231464594603E-2  -5.864179227501154E-3  
 2.604000000000000E10   -5.065050907433033E-3   1.198830083012581E-2  
 2.606000000000000E10    1.033452898263931E-2   4.377325531095266E-3  
 2.608000000000000E10    3.112435573711991E-3  -1.111270673573017E-2  
 2.610000000000000E10   -1.140037924051285E-2  -2.178864087909460E-3  
 2.612000000000000E10   -8.074100478552282E-4   1.130847632884979E-2  
 2.614000000000000E10    1.080865785479546E-2  -1.866979408077896E-3  
 2.616000000000000E10   -3.364969044923782E-3  -9.499738924205303E-3  
 2.618000000000000E10   -8.985448628664017E-3   6.255575455725193E-3  
 2.620000000000000E10    7.697159424424171E-3   8.297364227473736E-3  
 2.622000000000000E10    7.245344575494528E-3  -7.471773773431778E-3  
 2.624000000000000E10   -9.095864370465279E-3  -6.721798796206713E-3  
 2.626000000000000E10   -6.612161640077829E-3   1.067810039967299E-2  
 2.628000000000000E10    1.098194532096386E-2   5.876414477825165E-3  
 2.630000000000000E10    4.725586622953415E-3  -1.172880083322525E-2  
 2.632000000000000E10   -1.173853874206543E-2  -2.587737748399377E-3  
 2.634000000000000E10   -1.933758321683854E-4   1.216691639274359E-2  
 2.636000000000000E10    1.191502809524536E-2  -8.863325929269195E-4  
 2.638000000000000E10   -2.204301301389933E-3  -1.113748736679554E-2  
 2.640000000000000E10   -1.021094247698784E-2   4.236720036715269E-3  
 2.642000000000000E10    5.401431117206812E-3   1.035151816904545E-2  
 2.644000000000000E10    9.826119057834148E-3  -6.433752365410328E-3  
 2.646000000000000E10   -7.732658181339502E-3  -9.343792684376240E-3  
 2.648000000000000E10   -7.764899171888828E-3   8.588190190494061E-3  
 2.650000000000000E10    9.440635330975056E-3   5.886387545615435E-3  
 2.652000000000000E10    4.653211217373610E-3  -1.048920955508947E-2  
 2.654000000000000E10   -1.012475602328777E-2  -2.769542159512639E-3  
 2.656000000000000E10   -2.197942376369610E-4   1.130243483930826E-2  
 2.658000000000000E10    1.147982850670815E-2  -1.985077513381839E-3  
 2.660000000000000E10   -3.130423370748758E-3  -1.177035924047232E-2  
 2.662000000000000E10   -1.191473659127951E-2   5.167542956769466E-3  
 2.664000000000000E10    6.265198811888695E-3   1.139939203858376E-2  
 2.666000000000000E10    1.064740028232336E-2  -8.068073540925980E-3  
 2.668000000000000E10   -8.269711397588253E-3  -1.022006385028362E-2  
 2.670000000000000E10   -9.070786647498608E-3   8.079464547336102E-3  
 2.672000000000000E10    9.147455915808678E-3   7.267101667821407E-3  
 2.674000000000000E10    5.847627762705088E-3  -9.502226486802101E-3  
 2.676000000000000E10   -9.949164465069771E-3  -4.827525466680527E-3  
 2.678000000000000E10   -2.208353253081441E-3   1.044286321848631E-2  
 2.680000000000000E10    1.000344939529896E-2   1.885625533759594E-4  
 2.682000000000000E10   -1.356999971903861E-3  -1.095298957079649E-2  
 2.684000000000000E10   -1.108535006642342E-2   2.404934493824840E-3  
 2.686000000000000E10    3.888634033501148E-3   1.122085284441710E-2  
 2.688000000000000E10    1.054432522505522E-2  -6.003828719258308E-3  
 2.690000000000000E10   -6.798453163355589E-3  -1.057124882936478E-2  
 2.692000000000000E10   -9.872938506305218E-3   6.988333072513342E-3  
 2.694000000000000E10    9.034606628119946E-3   8.349336683750153E-3  
 2.696000000000000E10    6.439634598791599E-3  -9.979898110032082E-3  
 2.698000000000000E10   -9.794634766876698E-3  -5.546783097088337E-3  
 2.700000000000000E10   -4.004749935120344E-3   1.090573146939278E-2  
 2.702000000000000E10    1.148673612624407E-2   2.432789886370301E-3  
 2.704000000000000E10    1.210455782711506E-3  -1.177888270467520E-2  
 2.706000000000000E10   -1.171727385371923E-2   8.145191532094032E-5  
 2.708000000000000E10    1.414476544596255E-3   1.146805472671986E-2  
 2.710000000000000E10    1.117918640375137E-2  -2.556019462645054E-3  
 2.712000000000000E10   -3.385559888556600E-3  -1.110111363232136E-2  
 2.714000000000000E10   -9.725028648972511E-3   4.802378360182047E-3  
 2.716000000000000E10    5.759809166193008E-3   8.063355460762978E-3  
 2.718000000000000E10    7.721598260104656E-3  -7.081193849444389E-3  
 2.720000000000000E10   -8.308972232043743E-3  -6.613387260586023E-3  
 2.722000000000000E10   -5.101745482534170E-3   9.449434466660023E-3  
 2.724000000000000E10    1.068371068686247E-2   4.797786008566618E-3  
 2.726000000000000E10    4.067440517246723E-3  -1.190963201224804E-2  
 2.728000000000000E10   -1.321800332516432E-2  -2.313382457941771E-3  
 2.730000000000000E10   -1.177317812107503E-3   1.330462004989386E-2  
 2.732000000000000E10    1.269355136901140E-2  -2.214167125202948E-6  
 2.734000000000000E10   -9.014949901029468E-4  -1.294833980500698E-2  
 2.736000000000000E10   -1.192346774041653E-2   2.629023510962725E-3  
 2.738000000000000E10    3.898290451616049E-3   1.058028731495142E-2  
 2.740000000000000E10    1.002378202974796E-2  -5.147853866219521E-3  
 2.742000000000000E10   -6.536797620356083E-3  -8.127486333251000E-3  
 2.744000000000000E10   -7.094229571521282E-3   7.799040526151657E-3  
 2.746000000000000E10    8.639681152999401E-3   6.637294311076403E-3  
 2.748000000000000E10    5.391307175159454E-3  -9.701451286673546E-3  
 2.750000000000000E10   -1.093666255474091E-2  -4.465797916054726E-3  
 2.752000000000000E10   -3.521196544170380E-3   1.135610230267048E-2  
 2.754000000000000E10    1.148380339145660E-2   1.613223808817565E-3  
 2.756000000000000E10    5.074873915873468E-4  -1.184025127440691E-2  
