#  HZ   S   RI   R     50.00 
! Rohde & Schwarz ZVA40 4Ports - Version 3.90 - 1145.1110k42 SN: 100403
! Date: 2023-10-04 10:23:28
! Measurement: S12 
! 
 2.200000000000000E10   -2.651923149824143E-2  -3.794638440012932E-3  
 2.202000000000000E10   -1.175606623291969E-3   2.592356875538826E-2  
 2.204000000000000E10    2.479562908411026E-2  -1.969371223822236E-3  
 2.206000000000000E10   -3.968607634305954E-3  -2.342070080339909E-2  
 2.208000000000000E10   -2.254719473421574E-2   7.596220355480909E-3  
 2.210000000000000E10    1.079133898019791E-2   2.108486928045750E-2  
 2.212000000000000E10    1.840503513813019E-2  -1.138208527117968E-2  
 2.214000000000000E10   -1.374731492251158E-2  -1.614946313202381E-2  
 2.216000000000000E10   -1.531812548637390E-2   1.660140417516232E-2  
 2.218000000000000E10    1.621026918292046E-2   1.305984705686569E-2  
 2.220000000000000E10    1.078547537326813E-2  -1.604675501585007E-2  
 2.222000000000000E10   -1.704762317240238E-2  -9.704544208943844E-3  
 2.224000000000000E10   -7.772667799144983E-3   1.849603839218617E-2  
 2.226000000000000E10    1.921756938099861E-2   6.267156917601824E-3  
 2.228000000000000E10    4.352714866399765E-3  -1.893711835145950E-2  
 2.230000000000000E10   -1.966246776282787E-2  -1.052797888405621E-3  
 2.232000000000000E10    1.228192006237805E-3   2.207650616765022E-2  
 2.234000000000000E10    2.078917436301708E-2  -3.367147408425808E-3  
 2.236000000000000E10   -4.594817291945219E-3  -1.919259689748287E-2  
 2.238000000000000E10   -1.978570967912674E-2   5.616855341941118E-3  
 2.240000000000000E10    7.414498832076788E-3   1.981419697403908E-2  
 2.242000000000000E10    1.947310194373131E-2  -9.258379228413105E-3  
 2.244000000000000E10   -1.056668628007174E-2  -1.755874417722225E-2  
 2.246000000000000E10   -1.489366497844458E-2   1.181704178452492E-2  
 2.248000000000000E10    1.355739776045084E-2   1.381136197596788E-2  
 2.250000000000000E10    1.185103878378868E-2  -1.464365050196648E-2  
 2.252000000000000E10   -1.526631880551577E-2  -8.891418576240540E-3  
 2.254000000000000E10   -7.360359188169241E-3   1.674154214560986E-2  
 2.256000000000000E10    1.798193529248238E-2   5.584100261330605E-3  
 2.258000000000000E10    4.235741682350636E-3  -1.933330669999123E-2  
 2.260000000000000E10   -1.987134478986263E-2  -3.996790852397680E-3  
 2.262000000000000E10   -1.183163723908365E-3   1.997112296521664E-2  
 2.264000000000000E10    2.100472152233124E-2  -7.002248312346637E-4  
 2.266000000000000E10   -2.094471128657460E-3  -2.143649384379387E-2  
 2.268000000000000E10   -2.021290548145771E-2   4.362147767096758E-3  
 2.270000000000000E10    6.849396973848343E-3   1.843924075365067E-2  
 2.272000000000000E10    1.690939068794251E-2  -8.016425184905529E-3  
 2.274000000000000E10   -9.314646013081074E-3  -1.687372289597988E-2  
 2.276000000000000E10   -1.628795452415943E-2   1.171620283275843E-2  
 2.278000000000000E10    1.458191219717264E-2   1.426206808537245E-2  
 2.280000000000000E10    1.215687021613121E-2  -1.628597080707550E-2  
 2.282000000000000E10   -7.396606728434563E-3  -1.924593560397625E-2  
 2.284000000000000E10   -9.209366515278816E-3   1.773196272552013E-2  
 2.286000000000000E10    1.731942966580391E-2   7.057403679937124E-3  
 2.288000000000000E10    5.403884686529636E-3  -1.752494834363461E-2  
 2.290000000000000E10   -1.832233741879463E-2  -4.469694569706917E-3  
 2.292000000000000E10   -2.821150701493025E-3   1.899875700473785E-2  
 2.294000000000000E10    1.939703151583672E-2  -1.377149717882276E-3  
 2.296000000000000E10   -4.515449982136488E-3  -1.926796510815620E-2  
 2.298000000000000E10   -1.914131641387940E-2   7.056497037410736E-3  
 2.300000000000000E10    9.809971787035465E-3   1.777976937592030E-2  
 2.302000000000000E10    1.597931981086731E-2  -1.146889291703701E-2  
 2.304000000000000E10   -1.267046015709639E-2  -1.516552735120058E-2  
 2.306000000000000E10   -1.503394078463316E-2   1.393163483589888E-2  
 2.308000000000000E10    1.414558198302984E-2   1.387619785964489E-2  
 2.310000000000000E10    1.206260360777378E-2  -1.549386791884899E-2  
 2.312000000000000E10   -1.757900044322014E-2  -9.429267607629299E-3  
 2.314000000000000E10   -7.113689091056585E-3   1.798764243721962E-2  
 2.316000000000000E10    1.737928390502930E-2   3.830203786492348E-3  
 2.318000000000000E10    1.423421781510115E-3  -1.762365549802780E-2  
 2.320000000000000E10   -1.752730831503868E-2   7.281788857653737E-4  
 2.322000000000000E10    2.252703299745917E-3   1.804846897721291E-2  
 2.324000000000000E10    1.840068027377129E-2  -3.158049890771508E-3  
 2.326000000000000E10   -5.309103988111019E-3  -1.861073449254036E-2  
 2.328000000000000E10   -1.847730018198490E-2   8.777426555752754E-3  
 2.330000000000000E10    1.089890208095312E-2   1.704536192119122E-2  
 2.332000000000000E10    1.420078333467245E-2  -1.187418773770332E-2  
 2.334000000000000E10   -1.275225263088942E-2  -1.164981909096241E-2  
 2.336000000000000E10   -1.010243222117424E-2   1.368319801986218E-2  
 2.338000000000000E10    1.456977427005768E-2   8.825642056763172E-3  
 2.340000000000000E10    6.937423255294561E-3  -1.492214296013117E-2  
 2.342000000000000E10   -1.671521738171578E-2  -5.498182959854603E-3  
 2.344000000000000E10   -3.442995948716998E-3   1.893552765250206E-2  
 2.346000000000000E10    1.913085952401161E-2   1.507565262727439E-3  
 2.348000000000000E10   -7.240351405926049E-4  -1.907427795231342E-2  
 2.350000000000000E10   -1.879041455686092E-2   2.459892770275474E-3  
 2.352000000000000E10    4.262227565050125E-3   1.764734089374542E-2  
 2.354000000000000E10    1.633870229125023E-2  -5.982319358736277E-3  
 2.356000000000000E10   -6.260599475353956E-3  -1.515161525458098E-2  
 2.358000000000000E10   -1.366038341075182E-2   8.554534986615181E-3  
 2.360000000000000E10    1.087974384427071E-2   1.206179894506931E-2  
 2.362000000000000E10    1.038523204624653E-2  -1.303414069116116E-2  
 2.364000000000000E10   -1.484654657542706E-2  -7.554591167718172E-3  
 2.366000000000000E10   -6.192075088620186E-3   1.536459382623434E-2  
 2.368000000000000E10    1.557267829775810E-2   4.748710431158543E-3  
 2.370000000000000E10    3.857918316498399E-3  -1.630767062306404E-2  
 2.372000000000000E10   -1.736961863934994E-2  -3.769791917875409E-3  
 2.374000000000000E10   -2.197447465732694E-3   1.695590652525425E-2  
 2.376000000000000E10    1.809792593121529E-2   6.250853184610605E-4  
 2.378000000000000E10   -1.847411273047328E-3  -1.746881753206253E-2  
 2.380000000000000E10   -1.663946732878685E-2   4.751970060169697E-3  
 2.382000000000000E10    6.903265137225390E-3   1.590510457754135E-2  
 2.384000000000000E10    1.363692805171013E-2  -9.411060251295567E-3  
 2.386000000000000E10   -1.131500583142042E-2  -1.229575090110302E-2  
 2.388000000000000E10   -1.162537839263678E-2   1.275448314845562E-2  
 2.390000000000000E10    1.321816723793745E-2   1.003360562026501E-2  
 2.392000000000000E10    8.959440514445305E-3  -1.508485898375511E-2  
 2.394000000000000E10   -1.495928876101971E-2  -7.364088669419289E-3  
 2.396000000000000E10   -5.386291071772575E-3   1.552015822380781E-2  
 2.398000000000000E10    1.646071486175060E-2   3.425443544983864E-3  
 2.400000000000000E10    1.739710336551070E-3  -1.523628272116184E-2  
 2.402000000000000E10   -1.465828903019428E-2   3.235881449654698E-3  
 2.404000000000000E10    5.267185624688864E-3   1.455471664667130E-2  
 2.406000000000000E10    1.366783399134874E-2  -6.225327961146832E-3  
 2.408000000000000E10   -8.714879862964153E-3  -1.423613447695971E-2  
 2.410000000000000E10   -1.290950924158096E-2   1.036046352237463E-2  
 2.412000000000000E10    1.162206567823887E-2   1.212350931018591E-2  
 2.414000000000000E10    1.132393069565296E-2  -1.310524065047503E-2  
 2.416000000000000E10   -1.274393498897553E-2  -9.660863317549229E-3  
 2.418000000000000E10   -8.016739040613174E-3   1.247602421790361E-2  
 2.420000000000000E10    1.238465029746294E-2   6.354545243084431E-3  
 2.422000000000000E10    5.195959936827421E-3  -1.160938944667578E-2  
 2.424000000000000E10   -1.187279261648655E-2  -4.095444455742836E-3  
 2.426000000000000E10   -2.400928409770131E-3   1.246569491922855E-2  
 2.428000000000000E10    1.286792848259211E-2  -6.448326894314960E-5  
 2.430000000000000E10   -1.959687098860741E-3  -1.431003026664257E-2  
 2.432000000000000E10   -1.436986029148102E-2   4.095321521162987E-3  
 2.434000000000000E10    5.851394496858120E-3   1.424270030111074E-2  
 2.436000000000000E10    1.383773051202297E-2  -7.678089663386345E-3  
 2.438000000000000E10   -7.550947368144989E-3  -1.257009990513325E-2  
 2.440000000000000E10   -1.199365872889757E-2   8.185864426195622E-3  
 2.442000000000000E10    8.742005564272404E-3   1.127862185239792E-2  
 2.444000000000000E10    8.910890668630600E-3  -9.750101715326309E-3  
 2.446000000000000E10   -1.056684274226427E-2  -7.473310921341181E-3  
 2.448000000000000E10   -5.877918098121882E-3   1.049999706447125E-2  
 2.450000000000000E10    1.126188039779663E-2   4.321972373872995E-3  
 2.452000000000000E10    3.192581934854388E-3  -1.273523923009634E-2  
 2.454000000000000E10   -1.214725337922573E-2  -1.475834404118359E-3  
 2.456000000000000E10   -7.287025218829513E-4   1.227383594959974E-2  
 2.458000000000000E10    1.310506369918585E-2   1.780454767867923E-4  
 2.460000000000000E10   -1.076234271749854E-3  -1.315001677721739E-2  
 2.462000000000000E10   -1.290590688586235E-2   2.079954836517572E-3  
 2.464000000000000E10    3.358430229127407E-3   1.212417054921389E-2  
 2.466000000000000E10    1.122333761304617E-2  -4.705503117293119E-3  
 2.468000000000000E10   -6.598654203116894E-3  -1.052612718194723E-2  
 2.470000000000000E10   -9.137037210166454E-3   8.361845277249813E-3  
 2.472000000000000E10    8.916109800338745E-3   6.674156989902258E-3  
 2.474000000000000E10    5.915194284170866E-3  -9.851252660155296E-3  
 2.476000000000000E10   -1.048427820205689E-2  -6.108185742050409E-3  
 2.478000000000000E10   -6.006472744047642E-3   1.142102014273405E-2  
 2.480000000000000E10    1.167814899235964E-2   4.685449879616499E-3  
 2.482000000000000E10    4.192218650132418E-3  -1.199099980294704E-2  
 2.484000000000000E10   -1.202991325408220E-2  -2.738813636824489E-3  
 2.486000000000000E10   -7.840286125428975E-4   1.233359519392252E-2  
 2.488000000000000E10    1.073980610817671E-2  -4.425587248988450E-4  
 2.490000000000000E10   -2.093592658638954E-3  -9.468365460634232E-3  
 2.492000000000000E10   -9.990170598030090E-3   3.624847624450922E-3  
 2.494000000000000E10    4.812602419406176E-3   1.009922754019499E-2  
 2.496000000000000E10    8.963624015450478E-3  -6.740038748830557E-3  
 2.498000000000000E10   -8.336312137544155E-3  -8.493209257721901E-3  
 2.500000000000000E10   -7.772787474095821E-3   8.978964760899544E-3  
 2.502000000000000E10    1.009406894445419E-2   7.222936954349279E-3  
 2.504000000000000E10    6.096122320741415E-3  -9.633637033402920E-3  
 2.506000000000000E10   -8.761872537434101E-3  -4.548479802906513E-3  
 2.508000000000000E10   -4.009462893009186E-3   9.153759106993675E-3  
 2.510000000000000E10    8.701292797923088E-3   4.309121519327164E-3  
 2.512000000000000E10    2.666112268343568E-3  -8.873023092746735E-3  
 2.514000000000000E10   -1.000622007995844E-2  -8.295348379760981E-4  
 2.516000000000000E10    1.345428754575551E-3   1.019467413425446E-2  
 2.518000000000000E10    1.065016351640225E-2  -2.511446131393313E-3  
 2.520000000000000E10   -3.964255563914776E-3  -1.089647877961397E-2  
 2.522000000000000E10   -9.346405975520611E-3   4.937653895467520E-3  
 2.524000000000000E10    6.231143139302731E-3   9.719001129269600E-3  
 2.526000000000000E10    9.380511939525604E-3  -6.245612166821957E-3  
 2.528000000000000E10   -6.614474114030600E-3  -8.493209257721901E-3  
 2.530000000000000E10   -7.601083256304264E-3   7.777843624353409E-3  
 2.532000000000000E10    8.546128869056702E-3   6.171438843011856E-3  
 2.534000000000000E10    4.477075301110745E-3  -9.241702966392040E-3  
 2.536000000000000E10   -1.013182941824198E-2  -2.936061704531312E-3  
 2.538000000000000E10   -1.263602054677904E-3   9.784218855202198E-3  
 2.540000000000000E10    9.812563657760620E-3   5.967766628600657E-4  
 2.542000000000000E10   -2.997583651449531E-4  -1.084372960031033E-2  
 2.544000000000000E10   -1.148173492401838E-2   1.271910499781370E-3  
 2.546000000000000E10    2.099388511851430E-3   1.161915622651577E-2  
 2.548000000000000E10    1.107413135468960E-2  -3.660700749605894E-3  
 2.550000000000000E10   -6.150847300887108E-3  -1.048505399376154E-2  
 2.552000000000000E10   -9.382979013025761E-3   7.250209338963032E-3  
 2.554000000000000E10    7.932375185191631E-3   7.206846494227648E-3  
 2.556000000000000E10    5.451566539704800E-3  -8.527032099664211E-3  
 2.558000000000000E10   -9.730966761708260E-3  -4.150176886469126E-3  
 2.560000000000000E10   -2.864272333681583E-3   1.017304416745901E-2  
 2.562000000000000E10    1.051936484873295E-2   2.728831721469760E-3  
 2.564000000000000E10    1.535854768007994E-3  -1.112678926438093E-2  
 2.566000000000000E10   -1.224839780479670E-2   2.383551036473364E-4  
 2.568000000000000E10    1.638159621506929E-3   1.253875344991684E-2  
 2.570000000000000E10    1.112907938659191E-2  -3.254444338381290E-3  
 2.572000000000000E10   -4.096596036106348E-3  -9.946133941411972E-3  
 2.574000000000000E10   -9.201564826071262E-3   5.474508274346590E-3  
 2.576000000000000E10    7.309777196496725E-3   8.400509133934975E-3  
 2.578000000000000E10    7.489874493330717E-3  -8.266030810773373E-3  
 2.580000000000000E10   -9.928521700203419E-3  -5.512800998985767E-3  
 2.582000000000000E10   -3.773614764213562E-3   1.105117145925760E-2  
 2.584000000000000E10    1.223292108625174E-2   2.929946174845099E-3  
 2.586000000000000E10    1.863036071881652E-3  -1.244251430034638E-2  
 2.588000000000000E10   -1.189242303371429E-2  -8.616755949333310E-4  
 2.590000000000000E10    6.000834400765598E-4   1.099456660449505E-2  
 2.592000000000000E10    1.119747012853622E-2  -7.508057751692832E-4  
 2.594000000000000E10   -1.506808795966208E-3  -1.088008843362331E-2  
 2.596000000000000E10   -9.431696496903896E-3   2.637726254761219E-3  
 2.598000000000000E10    4.471076186746359E-3   9.122611023485661E-3  
 2.600000000000000E10    8.609669283032417E-3  -6.056766491383314E-3  
 2.602000000000000E10   -8.463233709335327E-3  -8.170730434358120E-3  
 2.604000000000000E10   -6.343430839478970E-3   8.762480691075325E-3  
 2.606000000000000E10    9.732623584568501E-3   4.895676858723164E-3  
 2.608000000000000E10    4.661044105887413E-3  -1.108537241816521E-2  
 2.610000000000000E10   -1.159008778631687E-2  -4.493626765906811E-3  
 2.612000000000000E10   -2.791447797790170E-3   1.146662048995495E-2  
 2.614000000000000E10    1.178079098463059E-2   1.055676839314401E-3  
 2.616000000000000E10   -3.341897099744529E-4  -1.211360841989517E-2  
 2.618000000000000E10   -1.242611091583967E-2   2.011125208809972E-3  
 2.620000000000000E10    3.484241198748350E-3   1.112018153071404E-2  
 2.622000000000000E10    9.754418395459652E-3  -5.547607317566872E-3  
 2.624000000000000E10   -7.196798454970121E-3  -9.689059108495712E-3  
 2.626000000000000E10   -9.570059366524220E-3   7.707854267209768E-3  
 2.628000000000000E10    8.560691028833389E-3   8.978377096354961E-3  
 2.630000000000000E10    6.930710747838020E-3  -1.034307107329369E-2  
 2.632000000000000E10   -1.075425930321217E-2  -5.647074431180954E-3  
 2.634000000000000E10   -4.273058846592903E-3   1.081157382577658E-2  
 2.636000000000000E10    1.055378373712301E-2   2.894877688959241E-3  
 2.638000000000000E10    2.964608138427138E-4  -9.988723322749138E-3  
 2.640000000000000E10   -1.045819278806448E-2   2.184794284403324E-3  
 2.642000000000000E10    2.814866602420807E-3   9.962456300854683E-3  
 2.644000000000000E10    9.834713302552700E-3  -4.504554904997349E-3  
 2.646000000000000E10   -6.558327469974756E-3  -9.946709498763084E-3  
 2.648000000000000E10   -1.006882544606924E-2   7.898051291704178E-3  
 2.650000000000000E10    9.434266947209835E-3   9.340859018266201E-3  
 2.652000000000000E10    8.800749666988850E-3  -1.027460955083370E-2  
 2.654000000000000E10   -1.105630211532116E-2  -6.885270122438669E-3  
 2.656000000000000E10   -5.184929352253676E-3   1.149565167725086E-2  
 2.658000000000000E10    1.091834343969822E-2   3.212758805602789E-3  
 2.660000000000000E10    2.065038075670600E-3  -1.076590921729803E-2  
 2.662000000000000E10   -1.065067760646343E-2   2.960320853162557E-4  
 2.664000000000000E10    2.543570240959525E-3   1.027255132794380E-2  
 2.666000000000000E10    1.031303592026234E-2  -3.844824386760593E-3  
 2.668000000000000E10   -5.438250489532948E-3  -9.593737311661243E-3  
 2.670000000000000E10   -8.916025049984455E-3   6.765516009181738E-3  
 2.672000000000000E10    7.531913463026285E-3   7.931377738714218E-3  
 2.674000000000000E10    7.842346094548702E-3  -8.457991294562817E-3  
 2.676000000000000E10   -9.093718603253365E-3  -6.468708161264658E-3  
 2.678000000000000E10   -4.849716555327177E-3   9.481776505708695E-3  
 2.680000000000000E10    1.054896693676710E-2   3.405181923881173E-3  
 2.682000000000000E10    2.500914968550205E-3  -1.079396717250347E-2  
 2.684000000000000E10   -1.082390453666449E-2  -4.026162496302277E-4  
 2.686000000000000E10    1.383968628942967E-3   1.154278032481670E-2  
 2.688000000000000E10    1.225758623331785E-2  -2.521609887480736E-3  
 2.690000000000000E10   -3.417784348130226E-3  -1.136702112853527E-2  
 2.692000000000000E10   -1.149506773799658E-2   4.660992417484522E-3  
 2.694000000000000E10    6.349659990519285E-3   1.057152636349201E-2  
 2.696000000000000E10    9.747572243213654E-3  -6.478863302618265E-3  
 2.698000000000000E10   -6.900805514305830E-3  -8.055590093135834E-3  
 2.700000000000000E10   -6.425801198929548E-3   7.699397392570972E-3  
 2.702000000000000E10    8.880393579602242E-3   5.325399804860354E-3  
 2.704000000000000E10    3.362219315022230E-3  -9.628255851566792E-3  
 2.706000000000000E10   -9.793453849852085E-3  -1.246563042514026E-3  
 2.708000000000000E10   -2.505930979168625E-6   1.064703147858381E-2  
 2.710000000000000E10    1.159788854420185E-2  -1.420102547854185E-3  
 2.712000000000000E10   -2.405537059530616E-3  -1.152003277093172E-2  
 2.714000000000000E10   -1.124807912856340E-2   4.094382748007774E-3  
 2.716000000000000E10    5.122332368046045E-3   1.132597774267197E-2  
 2.718000000000000E10    1.019150577485561E-2  -5.279973614960909E-3  
 2.720000000000000E10   -6.015454884618521E-3  -9.764545597136021E-3  
 2.722000000000000E10   -8.807260543107987E-3   7.335030008107424E-3  
 2.724000000000000E10    8.014912717044354E-3   7.718984037637711E-3  
 2.726000000000000E10    6.146931089460850E-3  -8.674139156937599E-3  
 2.728000000000000E10   -9.652675129473209E-3  -5.579188000410795E-3  
 2.730000000000000E10   -3.660887712612748E-3   1.051987614482641E-2  
 2.732000000000000E10    1.130974665284157E-2   2.301293192431331E-3  
 2.734000000000000E10    1.207093242555857E-3  -1.156488899141550E-2  
 2.736000000000000E10   -1.162720099091530E-2   5.436125211417675E-4  
 2.738000000000000E10    1.818402088247240E-3   1.191220991313458E-2  
 2.740000000000000E10    1.065143104642630E-2  -3.766144858673215E-3  
 2.742000000000000E10   -5.420858971774578E-3  -9.797948412597179E-3  
 2.744000000000000E10   -9.074440225958824E-3   6.179150193929672E-3  
 2.746000000000000E10    7.247633300721645E-3   7.395552005618811E-3  
 2.748000000000000E10    6.651593837887049E-3  -8.768361993134022E-3  
 2.750000000000000E10   -9.458648040890694E-3  -6.364736706018448E-3  
 2.752000000000000E10   -5.255143623799086E-3   1.029200199991465E-2  
 2.754000000000000E10    1.082834042608738E-2   4.639170598238707E-3  
 2.756000000000000E10    3.932538907974958E-3  -1.161273289471865E-2  
