#  HZ   S   RI   R     50.00 
! Rohde & Schwarz ZVA40 4Ports - Version 3.90 - 1145.1110k42 SN: 100403
! Date: 2023-10-04 10:25:33
! Measurement: S12 
! 
 2.200000000000000E10   -3.137129917740822E-2   8.674622513353825E-3  
 2.202000000000000E10    1.139149256050587E-2   3.031247109174728E-2  
 2.204000000000000E10    2.683279477059841E-2  -1.411955896764994E-2  
 2.206000000000000E10   -1.779720559716225E-2  -2.455416508018971E-2  
 2.208000000000000E10   -2.164749987423420E-2   1.993821002542973E-2  
 2.210000000000000E10    2.199896425008774E-2   1.747105643153191E-2  
 2.212000000000000E10    1.492921542376280E-2  -2.303932234644890E-2  
 2.214000000000000E10   -2.306712046265602E-2  -1.251736469566822E-2  
 2.216000000000000E10   -8.660309948027134E-3   2.537676505744457E-2  
 2.218000000000000E10    2.659115381538868E-2   6.754361558705568E-3  
 2.220000000000000E10    5.289397202432156E-3  -2.585100196301937E-2  
 2.222000000000000E10   -2.601692825555801E-2  -2.875513629987836E-3  
 2.224000000000000E10   -2.897773811127991E-4   2.720522694289684E-2  
 2.226000000000000E10    2.657431177794933E-2  -1.929379068315029E-3  
 2.228000000000000E10   -3.931490238755941E-3  -2.667756192386150E-2  
 2.230000000000000E10   -2.550076134502888E-2   5.017776042222977E-3  
 2.232000000000000E10    8.793138898909092E-3   2.352915704250336E-2  
 2.234000000000000E10    2.211306244134903E-2  -1.182474568486214E-2  
 2.236000000000000E10   -1.262471638619900E-2  -2.000743150711060E-2  
 2.238000000000000E10   -1.754141971468926E-2   1.369337644428015E-2  
 2.240000000000000E10    1.705923117697239E-2   1.572963036596775E-2  
 2.242000000000000E10    1.415667962282896E-2  -1.900448091328144E-2  
 2.244000000000000E10   -2.042155526578426E-2  -1.297220960259438E-2  
 2.246000000000000E10   -1.064430829137564E-2   2.134507521986961E-2  
 2.248000000000000E10    2.221038378775120E-2   8.828748017549515E-3  
 2.250000000000000E10    6.876897532492876E-3  -2.481353841722012E-2  
 2.252000000000000E10   -2.548949420452118E-2  -4.783038515597582E-3  
 2.254000000000000E10   -2.748404163867235E-3   2.408747188746929E-2  
 2.256000000000000E10    2.444241382181644E-2  -1.825028739403933E-4  
 2.258000000000000E10   -2.269910881295800E-3  -2.478229813277721E-2  
 2.260000000000000E10   -2.476698532700539E-2   2.949732122942805E-3  
 2.262000000000000E10    7.202286738902330E-3   2.315320260822773E-2  
 2.264000000000000E10    2.227547764778137E-2  -9.679450653493404E-3  
 2.266000000000000E10   -1.308943144977093E-2  -2.242971211671829E-2  
 2.268000000000000E10   -2.018026262521744E-2   1.533367298543453E-2  
 2.270000000000000E10    1.564634963870049E-2   1.770541444420815E-2  
 2.272000000000000E10    1.587447151541710E-2  -1.670702919363976E-2  
 2.274000000000000E10   -1.868548430502415E-2  -1.540368236601353E-2  
 2.276000000000000E10   -1.408090535551310E-2   2.017572522163391E-2  
 2.278000000000000E10    2.099201083183289E-2   1.020709052681923E-2  
 2.280000000000000E10    7.278403732925654E-3  -2.224216610193253E-2  
 2.282000000000000E10   -1.678162626922131E-2  -1.746197417378426E-2  
 2.284000000000000E10   -1.130657969042659E-3   2.331336773931980E-2  
 2.286000000000000E10    2.302114479243755E-2  -1.243579783476889E-3  
 2.288000000000000E10   -3.803845262154937E-3  -2.335581369698048E-2  
 2.290000000000000E10   -2.405330725014210E-2   6.120521575212479E-3  
 2.292000000000000E10    7.826379500329495E-3   2.430238388478756E-2  
 2.294000000000000E10    2.267421409487724E-2  -1.022399030625820E-2  
 2.296000000000000E10   -1.361063029617071E-2  -2.197535708546639E-2  
 2.298000000000000E10   -2.030390314757824E-2   1.536920014768839E-2  
 2.300000000000000E10    1.552002131938934E-2   1.791022345423698E-2  
 2.302000000000000E10    1.496065873652697E-2  -1.766595803201199E-2  
 2.304000000000000E10   -1.867998018860817E-2  -1.197469886392355E-2  
 2.306000000000000E10   -9.598378092050552E-3   2.022416144609451E-2  
 2.308000000000000E10    2.185466326773167E-2   7.731730118393898E-3  
 2.310000000000000E10    4.609555471688509E-3  -2.235382981598377E-2  
 2.312000000000000E10   -2.379270270466805E-2  -5.630956729874015E-4  
 2.314000000000000E10    1.428795629180968E-3   2.464210614562035E-2  
 2.316000000000000E10    2.321950532495976E-2  -4.243842326104641E-3  
 2.318000000000000E10   -6.571622099727392E-3  -2.244182676076889E-2  
 2.320000000000000E10   -2.094368636608124E-2   8.024977520108223E-3  
 2.322000000000000E10    1.021500118076801E-2   2.014558389782906E-2  
 2.324000000000000E10    1.895084232091904E-2  -1.164814643561840E-2  
 2.326000000000000E10   -1.348982937633991E-2  -1.748991571366787E-2  
 2.328000000000000E10   -1.498714834451675E-2   1.691891625523567E-2  
 2.330000000000000E10    1.878220215439796E-2   1.212826464325190E-2  
 2.332000000000000E10    9.570564143359661E-3  -1.930669136345387E-2  
 2.334000000000000E10   -1.977161131799221E-2  -7.419634144753218E-3  
 2.336000000000000E10   -5.274523980915546E-3   2.128286287188530E-2  
 2.338000000000000E10    2.227336540818214E-2   2.798028755933046E-3  
 2.340000000000000E10    2.157542854547501E-3  -2.207613550126553E-2  
 2.342000000000000E10   -2.162019349634647E-2   8.045511785894632E-4  
 2.344000000000000E10    4.029709845781326E-3   2.168328315019608E-2  
 2.346000000000000E10    2.034265920519829E-2  -5.601805169135332E-3  
 2.348000000000000E10   -7.837611250579357E-3  -1.796663925051689E-2  
 2.350000000000000E10   -1.665631309151650E-2   1.094713527709246E-2  
 2.352000000000000E10    1.289155427366495E-2   1.521291490644217E-2  
 2.354000000000000E10    1.344344392418861E-2  -1.505084987729788E-2  
 2.356000000000000E10   -1.655831187963486E-2  -1.229921169579029E-2  
 2.358000000000000E10   -9.724281728267670E-3   1.754668541252613E-2  
 2.360000000000000E10    1.957136206328869E-2   8.151113986968994E-3  
 2.362000000000000E10    6.884503643959761E-3  -2.053172141313553E-2  
 2.364000000000000E10   -2.018669620156288E-2  -4.164693877100945E-3  
 2.366000000000000E10   -1.356621389277279E-3   1.960625685751438E-2  
 2.368000000000000E10    1.875460520386696E-2   1.753963442752138E-4  
 2.370000000000000E10   -1.377883017994463E-3  -1.827595382928848E-2  
 2.372000000000000E10   -1.834590733051300E-2   3.751151729375124E-3  
 2.374000000000000E10    6.123239174485207E-3   1.719342730939388E-2  
 2.376000000000000E10    1.642613671720028E-2  -9.186925366520882E-3  
 2.378000000000000E10   -1.114023476839066E-2  -1.588898152112961E-2  
 2.380000000000000E10   -1.472447533160448E-2   1.285672094672918E-2  
 2.382000000000000E10    1.451270747929812E-2   1.280699949711561E-2  
 2.384000000000000E10    1.149427611380816E-2  -1.635270006954670E-2  
 2.386000000000000E10   -1.741665229201317E-2  -9.691808372735977E-3  
 2.388000000000000E10   -7.706182077527046E-3   1.663956977427006E-2  
 2.390000000000000E10    1.714073494076729E-2   5.528192967176437E-3  
 2.392000000000000E10    2.659839112311602E-3  -1.746465265750885E-2  
 2.394000000000000E10   -1.752352714538574E-2  -7.697887485846877E-4  
 2.396000000000000E10    1.494717551395297E-3   1.714644208550453E-2  
 2.398000000000000E10    1.615447551012039E-2  -4.246804397553206E-3  
 2.400000000000000E10   -7.127180695533752E-3  -1.595362648367882E-2  
 2.402000000000000E10   -1.423341780900955E-2   9.816413745284081E-3  
 2.404000000000000E10    1.109823305159807E-2   1.306056044995785E-2  
 2.406000000000000E10    1.228555664420128E-2  -1.231972780078650E-2  
 2.408000000000000E10   -1.380360685288906E-2  -1.207219902426004E-2  
 2.410000000000000E10   -1.024585776031017E-2   1.354842353612185E-2  
 2.412000000000000E10    1.394489407539368E-2   8.186328224837780E-3  
 2.414000000000000E10    6.993935443460941E-3  -1.392799150198698E-2  
 2.416000000000000E10   -1.454004738479853E-2  -5.005243699997664E-3  
 2.418000000000000E10   -2.645618515089154E-3   1.431643776595593E-2  
 2.420000000000000E10    1.429848000407219E-2   5.134023376740515E-4  
 2.422000000000000E10   -9.411051869392395E-4  -1.430956646800041E-2  
 2.424000000000000E10   -1.460475940257311E-2   2.050062874332070E-3  
 2.426000000000000E10    3.554034745320678E-3   1.492267381399870E-2  
 2.428000000000000E10    1.475885231047869E-2  -4.673844669014216E-3  
 2.430000000000000E10   -6.639094091951847E-3  -1.472838595509529E-2  
 2.432000000000000E10   -1.390461064875126E-2   7.977112196385860E-3  
 2.434000000000000E10    9.103455580770969E-3   1.206849608570337E-2  
 2.436000000000000E10    1.038595847785473E-2  -1.009712554514408E-2  
 2.438000000000000E10   -1.008394453674555E-2  -9.222520515322685E-3  
 2.440000000000000E10   -7.710933219641447E-3   1.073865406215191E-2  
 2.442000000000000E10    1.128374878317118E-2   6.310486700385809E-3  
 2.444000000000000E10    4.534889943897724E-3  -1.226647011935711E-2  
 2.446000000000000E10   -1.307403016835451E-2  -3.035502275452018E-3  
 2.448000000000000E10   -2.780327107757330E-3   1.297591440379620E-2  
 2.450000000000000E10    1.334403641521931E-2   1.405419898219407E-3  
 2.452000000000000E10    9.216478065354750E-5  -1.427246257662773E-2  
 2.454000000000000E10   -1.332792360335589E-2   5.187146598473191E-4  
 2.456000000000000E10    1.241887686774135E-3   1.249756664037705E-2  
 2.458000000000000E10    1.290027517825365E-2  -1.475131022743881E-3  
 2.460000000000000E10   -4.562997724860907E-3  -1.159289572387934E-2  
 2.462000000000000E10   -1.066411007195711E-2   5.994359496980906E-3  
 2.464000000000000E10    6.125957705080509E-3   9.714079089462757E-3  
 2.466000000000000E10    8.612103760242462E-3  -8.308159187436104E-3  
 2.468000000000000E10   -1.065606903284788E-2  -7.733728270977736E-3  
 2.470000000000000E10   -6.736192852258682E-3   1.105589326471090E-2  
 2.472000000000000E10    1.162607595324516E-2   5.318742245435715E-3  
 2.474000000000000E10    5.701847374439240E-3  -1.167790312319994E-2  
 2.476000000000000E10   -1.164894551038742E-2  -4.042057320475578E-3  
 2.478000000000000E10   -3.593091620132327E-3   1.325901597738266E-2  
 2.480000000000000E10    1.285332813858986E-2   3.403516253456473E-3  
 2.482000000000000E10    1.347388839349151E-3  -1.158513035625219E-2  
 2.484000000000000E10   -1.212185434997082E-2   3.081421891693026E-5  
 2.486000000000000E10    1.974106766283512E-3   1.161418948322535E-2  
 2.488000000000000E10    1.082714181393385E-2  -4.234594758599997E-3  
 2.490000000000000E10   -5.329313687980175E-3  -9.821387007832527E-3  
 2.492000000000000E10   -8.848890662193298E-3   6.559634115546942E-3  
 2.494000000000000E10    8.484407328069210E-3   8.728671818971634E-3  
 2.496000000000000E10    8.567204698920250E-3  -8.978827856481075E-3  
 2.498000000000000E10   -9.386043064296246E-3  -6.575206294655800E-3  
 2.500000000000000E10   -6.221181713044643E-3   9.541155770421028E-3  
 2.502000000000000E10    1.040728762745857E-2   5.921666044741869E-3  
 2.504000000000000E10    3.766246838495135E-3  -1.038696430623531E-2  
 2.506000000000000E10   -9.091516025364399E-3  -3.407726064324379E-3  
 2.508000000000000E10   -1.934829400852323E-3   9.486242197453976E-3  
 2.510000000000000E10    1.094560325145721E-2   1.051751314662397E-3  
 2.512000000000000E10    1.580515527166426E-4  -1.146728266030550E-2  
 2.514000000000000E10   -1.103835366666317E-2   1.975658349692822E-3  
 2.516000000000000E10    3.539896802976728E-3   1.118669472634792E-2  
 2.518000000000000E10    1.177159138023853E-2  -4.779044538736343E-3  
 2.520000000000000E10   -5.606016609817743E-3  -1.150570716708899E-2  
 2.522000000000000E10   -1.029352936893702E-2   5.710232071578503E-3  
 2.524000000000000E10    7.609248626977205E-3   8.653873577713966E-3  
 2.526000000000000E10    8.391558192670345E-3  -8.165086619555950E-3  
 2.528000000000000E10   -7.436577230691910E-3  -7.022764999419451E-3  
 2.530000000000000E10   -4.789462313055992E-3   8.298522792756558E-3  
 2.532000000000000E10    9.538183920085430E-3   3.792131086811423E-3  
 2.534000000000000E10    2.146259415894747E-3  -1.015347056090832E-2  
 2.536000000000000E10   -1.106727495789528E-2  -4.416021401993930E-4  
 2.538000000000000E10    8.388512069359422E-4   1.107853092253208E-2  
 2.540000000000000E10    1.153183635324240E-2  -2.719913609325886E-3  
 2.542000000000000E10   -3.048945683985949E-3  -1.203423831611872E-2  
 2.544000000000000E10   -1.150914467871189E-2   4.265203140676022E-3  
 2.546000000000000E10    4.995950963348150E-3   1.067357230931521E-2  
 2.548000000000000E10    1.077064871788025E-2  -6.032426841557026E-3  
 2.550000000000000E10   -7.543905172497034E-3  -8.683193475008011E-3  
 2.552000000000000E10   -7.268271408975124E-3   8.456710726022720E-3  
 2.554000000000000E10    8.928500115871429E-3   5.464321468025446E-3  
 2.556000000000000E10    3.222704399377108E-3  -9.487969800829887E-3  
 2.558000000000000E10   -9.703626856207848E-3  -2.340308856219053E-3  
 2.560000000000000E10   -9.225446265190840E-4   9.492836892604828E-3  
 2.562000000000000E10    1.014470495283604E-2  -5.874639464309439E-5  
 2.564000000000000E10   -2.460516407154501E-4  -1.051567308604717E-2  
 2.566000000000000E10   -1.095947902649641E-2   1.702702837064862E-3  
 2.568000000000000E10    3.253246657550335E-3   1.109283231198788E-2  
 2.570000000000000E10    9.927899576723576E-3  -5.090070888400078E-3  
 2.572000000000000E10   -6.167663726955652E-3  -8.782547898590565E-3  
 2.574000000000000E10   -8.221881464123726E-3   6.658195052295923E-3  
 2.576000000000000E10    8.383766748011112E-3   6.552924402058125E-3  
 2.578000000000000E10    4.683268256485462E-3  -1.040003821253777E-2  
 2.580000000000000E10   -1.027668546885252E-2  -3.915880341082811E-3  
 2.582000000000000E10   -2.711431123316288E-3   1.115970406681299E-2  
 2.584000000000000E10    1.191012468189001E-2   1.210410380735993E-3  
 2.586000000000000E10   -5.058001261204481E-4  -1.160512678325176E-2  
 2.588000000000000E10   -1.142658106982708E-2   5.646118661388755E-4  
 2.590000000000000E10    1.278969924896956E-3   1.029263250529766E-2  
 2.592000000000000E10    9.964411146938801E-3  -2.199563663452864E-3  
 2.594000000000000E10   -3.613427514210343E-3  -9.740935638546944E-3  
 2.596000000000000E10   -8.451079018414021E-3   4.058058373630047E-3  
 2.598000000000000E10    5.970653146505356E-3   7.570025045424700E-3  
 2.600000000000000E10    6.852083373814821E-3  -7.165619172155857E-3  
 2.602000000000000E10   -8.804629556834698E-3  -5.405170843005180E-3  
 2.604000000000000E10   -4.452306311577559E-3   1.045897696167231E-2  
 2.606000000000000E10    1.094694528728724E-2   3.084788331761956E-3  
 2.608000000000000E10    1.635958557017148E-3  -1.093961670994759E-2  
 2.610000000000000E10   -1.159892417490482E-2  -8.266590302810073E-4  
 2.612000000000000E10    1.569060405017808E-4   1.087239198386669E-2  
 2.614000000000000E10    1.063668914139271E-2  -9.902578312903643E-4  
 2.616000000000000E10   -1.701386296190321E-3  -9.833633899688721E-3  
 2.618000000000000E10   -8.940787054598332E-3   3.485450055450201E-3  
 2.620000000000000E10    4.956556484103203E-3   8.701571263372898E-3  
 2.622000000000000E10    7.639413233846426E-3  -5.453924182802439E-3  
 2.624000000000000E10   -6.853485945612192E-3  -6.550083402544260E-3  
 2.626000000000000E10   -6.442570127546787E-3   8.093019947409630E-3  
 2.628000000000000E10    8.490380831062794E-3   5.738157313317061E-3  
 2.630000000000000E10    4.975778982043266E-3  -9.889163076877594E-3  
 2.632000000000000E10   -1.013932935893536E-2  -3.525518346577883E-3  
 2.634000000000000E10   -2.633883384987712E-3   9.911762550473213E-3  
 2.636000000000000E10    1.092344615608454E-2   1.410864759236574E-3  
 2.638000000000000E10   -4.053261072840542E-4  -9.869165718555450E-3  
 2.640000000000000E10   -8.770552463829517E-3   2.580973785370588E-3  
 2.642000000000000E10    3.939128480851650E-3   8.863205090165138E-3  
 2.644000000000000E10    8.228511549532414E-3  -5.174377933144569E-3  
 2.646000000000000E10   -6.098290439695120E-3  -6.857774686068296E-3  
 2.648000000000000E10   -6.748557090759277E-3   7.727257907390595E-3  
 2.650000000000000E10    8.821643888950348E-3   6.635441444814205E-3  
 2.652000000000000E10    5.848435219377279E-3  -9.463671594858170E-3  
 2.654000000000000E10   -9.791701100766659E-3  -3.987255040556192E-3  
 2.656000000000000E10   -3.126655239611864E-3   1.038736570626497E-2  
 2.658000000000000E10    1.086196675896645E-2   1.569828018546104E-3  
 2.660000000000000E10   -1.739116669341456E-5  -9.807347320020199E-3  
 2.662000000000000E10   -9.113936685025692E-3   1.995427068322897E-3  
 2.664000000000000E10    4.236128646880388E-3   8.865350857377052E-3  
 2.666000000000000E10    8.560525253415108E-3  -5.448926705867052E-3  
 2.668000000000000E10   -6.067578680813313E-3  -7.603753358125687E-3  
 2.670000000000000E10   -6.235436536371708E-3   7.379314396530390E-3  
 2.672000000000000E10    8.078678511083126E-3   6.121785845607519E-3  
 2.674000000000000E10    5.193844903260469E-3  -9.233002550899983E-3  
 2.676000000000000E10   -8.905995637178421E-3  -4.402406513690949E-3  
 2.678000000000000E10   -3.403365379199386E-3   8.919510059058666E-3  
 2.680000000000000E10    9.235942736268044E-3   1.749955117702484E-3  
 2.682000000000000E10    1.023508957587183E-3  -9.629068896174431E-3  
 2.684000000000000E10   -9.072195738554001E-3   6.506475037895143E-4  
 2.686000000000000E10    2.255531027913094E-3   8.833640255033970E-3  
 2.688000000000000E10    9.162552654743195E-3  -4.259885288774967E-3  
 2.690000000000000E10   -5.455319769680500E-3  -8.693352341651917E-3  
 2.692000000000000E10   -8.891982026398182E-3   6.104680243879557E-3  
 2.694000000000000E10    8.122735656797886E-3   7.873966358602047E-3  
 2.696000000000000E10    6.728670559823513E-3  -8.773433975875378E-3  
 2.698000000000000E10   -9.140114299952984E-3  -6.133798975497484E-3  
 2.700000000000000E10   -5.030915141105652E-3   9.210067801177502E-3  
 2.702000000000000E10    9.270573966205120E-3   3.626259742304683E-3  
 2.704000000000000E10    1.493135117925704E-3  -9.251977317035198E-3  
 2.706000000000000E10   -9.156363084912300E-3  -2.033405908150598E-4  
 2.708000000000000E10    1.068915706127882E-3   9.004205465316773E-3  
 2.710000000000000E10    8.993095718324184E-3  -2.878128550946713E-3  
 2.712000000000000E10   -4.789318889379501E-3  -9.210980497300625E-3  
 2.714000000000000E10   -8.702611550688744E-3   5.509107373654842E-3  
 2.716000000000000E10    7.226112298667431E-3   8.301905356347561E-3  
 2.718000000000000E10    8.320611901581287E-3  -8.314435370266438E-3  
 2.720000000000000E10   -8.744351565837860E-3  -7.181484717875719E-3  
 2.722000000000000E10   -5.965973716229200E-3   9.570709429681301E-3  
 2.724000000000000E10    9.379772469401360E-3   4.748086445033550E-3  
 2.726000000000000E10    2.912866650149226E-3  -9.528359398245812E-3  
 2.728000000000000E10   -1.066876202821732E-2  -2.060877392068505E-3  
 2.730000000000000E10   -5.800147773697972E-4   1.002737600356340E-2  
 2.732000000000000E10    1.012421865016222E-2  -1.143161789514124E-3  
 2.734000000000000E10   -2.662855898961425E-3  -1.107470039278269E-2  
 2.736000000000000E10   -1.016686577349901E-2   3.942996263504028E-3  
 2.738000000000000E10    6.021783687174320E-3   1.017832383513451E-2  
 2.740000000000000E10    9.109011851251125E-3  -6.235818844288588E-3  
 2.742000000000000E10   -7.354191970080137E-3  -7.534055039286614E-3  
 2.744000000000000E10   -7.171785924583674E-3   8.404537104070187E-3  
 2.746000000000000E10    8.348453789949417E-3   5.874088034033775E-3  
 2.748000000000000E10    3.859910182654858E-3  -9.149689227342606E-3  
 2.750000000000000E10   -1.020148769021034E-2  -3.011257154867053E-3  
 2.752000000000000E10   -1.705037197098136E-3   1.028073579072952E-2  
 2.754000000000000E10    1.057908497750759E-2  -1.161215259344317E-4  
 2.756000000000000E10   -1.139124622568488E-3  -1.119415741413832E-2  
