#  HZ   S   RI   R     50.00 
! Rohde & Schwarz ZVA40 4Ports - Version 3.90 - 1145.1110k42 SN: 100403
! Date: 2023-10-04 10:26:26
! Measurement: S12 
! 
 2.200000000000000E10   -3.255962207913399E-2  -2.381895901635289E-3  
 2.202000000000000E10    3.652178915217519E-3   3.185086324810982E-2  
 2.204000000000000E10    3.167520090937614E-2  -7.192712277173996E-3  
 2.206000000000000E10   -1.036409009248018E-2  -2.928530983626843E-2  
 2.208000000000000E10   -2.663291431963444E-2   1.379094272851944E-2  
 2.210000000000000E10    1.579155959188938E-2   2.405542694032192E-2  
 2.212000000000000E10    2.045342884957790E-2  -1.769274845719338E-2  
 2.214000000000000E10   -1.915017142891884E-2  -1.907051727175713E-2  
 2.216000000000000E10   -1.627863198518753E-2   2.015122957527638E-2  
 2.218000000000000E10    2.070664428174496E-2   1.169390976428986E-2  
 2.220000000000000E10    1.045373454689980E-2  -2.190292999148369E-2  
 2.222000000000000E10   -2.364508993923664E-2  -9.235034696757793E-3  
 2.224000000000000E10   -6.651991046965122E-3   2.436846680939198E-2  
 2.226000000000000E10    2.495858818292618E-2   4.246216733008623E-3  
 2.228000000000000E10    1.155816367827356E-3  -2.577527984976769E-2  
 2.230000000000000E10   -2.678702771663666E-2   1.533119066152722E-4  
 2.232000000000000E10    1.639851368963718E-3   2.682138979434967E-2  
 2.234000000000000E10    2.515825629234314E-2  -5.154912360012531E-3  
 2.236000000000000E10   -7.979749701917172E-3  -2.358666434884071E-2  
 2.238000000000000E10   -2.300912700593472E-2   9.088098071515560E-3  
 2.240000000000000E10    1.032016240060329E-2   2.131893113255501E-2  
 2.242000000000000E10    1.862054876983166E-2  -1.267846766859293E-2  
 2.244000000000000E10   -1.480548735707998E-2  -1.597730629146099E-2  
 2.246000000000000E10   -1.499876659363508E-2   1.669510081410408E-2  
 2.248000000000000E10    1.765575446188450E-2   1.398191321641207E-2  
 2.250000000000000E10    1.185156498104334E-2  -1.885258778929710E-2  
 2.252000000000000E10   -2.177570387721062E-2  -8.783252909779549E-3  
 2.254000000000000E10   -7.602658588439226E-3   2.308202162384987E-2  
 2.256000000000000E10    2.319352142512798E-2   6.977655459195375E-3  
 2.258000000000000E10    3.780850209295750E-3  -2.428909018635750E-2  
 2.260000000000000E10   -2.446711622178555E-2  -2.102369209751487E-3  
 2.262000000000000E10    1.243106788024306E-3   2.464350871741772E-2  
 2.264000000000000E10    2.414530329406261E-2  -2.319080289453268E-3  
 2.266000000000000E10   -5.319491494446993E-3  -2.376721799373627E-2  
 2.268000000000000E10   -2.210013009607792E-2   9.244124405086041E-3  
 2.270000000000000E10    1.078317128121853E-2   2.072562277317047E-2  
 2.272000000000000E10    2.077798731625080E-2  -1.172558777034283E-2  
 2.274000000000000E10   -1.383371558040381E-2  -1.844567060470581E-2  
 2.276000000000000E10   -1.712837815284729E-2   1.633598282933235E-2  
 2.278000000000000E10    1.821621134877205E-2   1.635701581835747E-2  
 2.280000000000000E10    1.340702176094055E-2  -1.886508427560329E-2  
 2.282000000000000E10   -9.300655685365200E-3  -1.998041570186615E-2  
 2.284000000000000E10   -8.570116944611073E-3   2.030880935490131E-2  
 2.286000000000000E10    2.101225964725018E-2   6.440442986786366E-3  
 2.288000000000000E10    3.859906224533916E-3  -2.160368487238884E-2  
 2.290000000000000E10   -2.127238735556603E-2  -1.131202909164131E-3  
 2.292000000000000E10    2.684096340090036E-3   2.313653938472271E-2  
 2.294000000000000E10    2.327773161232472E-2  -5.776035133749247E-3  
 2.296000000000000E10   -7.812243420630693E-3  -2.157926745712757E-2  
 2.298000000000000E10   -2.109606750309467E-2   1.060799229890108E-2  
 2.300000000000000E10    1.266138534992933E-2   2.017326094210148E-2  
 2.302000000000000E10    1.883366145193577E-2  -1.411163154989481E-2  
 2.304000000000000E10   -1.503228861838579E-2  -1.759215630590916E-2  
 2.306000000000000E10   -1.558616105467081E-2   1.613926701247692E-2  
 2.308000000000000E10    1.704173348844051E-2   1.338600646704435E-2  
 2.310000000000000E10    1.196383684873581E-2  -1.928321830928326E-2  
 2.312000000000000E10   -2.025348134338856E-2  -8.820135146379471E-3  
 2.314000000000000E10   -4.452582914382219E-3   1.968785561621189E-2  
 2.316000000000000E10    2.066678181290627E-2   1.941745867952704E-3  
 2.318000000000000E10   -5.829581641592085E-4  -2.186964638531208E-2  
 2.320000000000000E10   -2.085037901997566E-2   3.331045387312770E-3  
 2.322000000000000E10    4.776540212333202E-3   1.999802514910698E-2  
 2.324000000000000E10    2.061858400702477E-2  -7.354760542511940E-3  
 2.326000000000000E10   -1.012720912694931E-2  -2.027724310755730E-2  
 2.328000000000000E10   -1.855476200580597E-2   1.144296955317259E-2  
 2.330000000000000E10    1.298769284039736E-2   1.600044220685959E-2  
 2.332000000000000E10    1.374520082026720E-2  -1.451315637677908E-2  
 2.334000000000000E10   -1.538851112127304E-2  -1.244909316301346E-2  
 2.336000000000000E10   -1.036910898983479E-2   1.567949354648590E-2  
 2.338000000000000E10    1.750921271741390E-2   8.521309122443199E-3  
 2.340000000000000E10    6.154878996312618E-3  -1.917513273656368E-2  
 2.342000000000000E10   -2.035760693252087E-2  -3.980721812695265E-3  
 2.344000000000000E10   -1.466657384298742E-3   2.040715515613556E-2  
 2.346000000000000E10    2.030201256275177E-2  -1.456546247936785E-3  
 2.348000000000000E10   -3.607944352552295E-3  -2.006793208420277E-2  
 2.350000000000000E10   -1.944645307958126E-2   4.423790145665407E-3  
 2.352000000000000E10    6.679565645754337E-3   1.820530556142330E-2  
 2.354000000000000E10    1.653416641056538E-2  -8.677105419337750E-3  
 2.356000000000000E10   -1.032498758286238E-2  -1.477391086518765E-2  
 2.358000000000000E10   -1.306212786585093E-2   1.193781383335590E-2  
 2.360000000000000E10    1.316989772021771E-2   1.102797966450453E-2  
 2.362000000000000E10    8.896857500076294E-3  -1.465555932372809E-2  
 2.364000000000000E10   -1.670218072831631E-2  -6.108043249696493E-3  
 2.366000000000000E10   -5.695216357707977E-3   1.668110489845276E-2  
 2.368000000000000E10    1.724592782557011E-2   4.129698034375906E-3  
 2.370000000000000E10    2.246874384582043E-3  -1.792957633733749E-2  
 2.372000000000000E10   -1.828461326658726E-2  -9.867806220427156E-4  
 2.374000000000000E10    5.454989732243121E-4   1.848573051393032E-2  
 2.376000000000000E10    1.846467889845371E-2  -2.723500598222017E-3  
 2.378000000000000E10   -4.570764023810625E-3  -1.622282713651657E-2  
 2.380000000000000E10   -1.524495892226696E-2   6.924159824848175E-3  
 2.382000000000000E10    8.382606320083141E-3   1.428087800741196E-2  
 2.384000000000000E10    1.184935867786408E-2  -9.847473353147507E-3  
 2.386000000000000E10   -1.183374784886837E-2  -1.050949841737747E-2  
 2.388000000000000E10   -9.287231601774693E-3   1.284090522676706E-2  
 2.390000000000000E10    1.376237720251083E-2   7.883022539317608E-3  
 2.392000000000000E10    6.621519569307566E-3  -1.580876484513283E-2  
 2.394000000000000E10   -1.529801730066538E-2  -5.149569828063250E-3  
 2.396000000000000E10   -3.878947347402573E-3   1.677592098712921E-2  
 2.398000000000000E10    1.657713390886784E-2   2.432252978906035E-3  
 2.400000000000000E10   -2.086235472233966E-4  -1.599044352769852E-2  
 2.402000000000000E10   -1.498893741518259E-2   4.087548702955246E-3  
 2.404000000000000E10    4.526907578110695E-3   1.354470103979111E-2  
 2.406000000000000E10    1.261631492525339E-2  -6.873446516692638E-3  
 2.408000000000000E10   -8.613692596554756E-3  -1.136885955929756E-2  
 2.410000000000000E10   -1.022118050605059E-2   9.773574769496918E-3  
 2.412000000000000E10    1.090236846357584E-2   9.464404545724392E-3  
 2.414000000000000E10    8.260918781161308E-3  -1.140746660530567E-2  
 2.416000000000000E10   -1.284701563417912E-2  -7.296469528228045E-3  
 2.418000000000000E10   -6.709326524287462E-3   1.275854744017124E-2  
 2.420000000000000E10    1.211218535900116E-2   5.868670064955950E-3  
 2.422000000000000E10    4.842984490096569E-3  -1.261430792510510E-2  
 2.424000000000000E10   -1.200794056057930E-2  -4.263966809958220E-3  
 2.426000000000000E10   -1.961624482646585E-3   1.234710868448019E-2  
 2.428000000000000E10    1.315893605351448E-2   4.224701842758805E-4  
 2.430000000000000E10   -1.629311707802117E-3  -1.230061426758766E-2  
 2.432000000000000E10   -1.187703851610422E-2   3.787735011428595E-3  
 2.434000000000000E10    5.634790752083063E-3   1.186907570809126E-2  
 2.436000000000000E10    1.089273393154144E-2  -7.455072831362486E-3  
 2.438000000000000E10   -8.170086890459061E-3  -1.031487900763750E-2  
 2.440000000000000E10   -9.258086793124676E-3   8.213728666305542E-3  
 2.442000000000000E10    9.105130098760128E-3   8.484789170324802E-3  
 2.444000000000000E10    8.323042653501034E-3  -9.034626185894013E-3  
 2.446000000000000E10   -8.900784887373447E-3  -6.870140321552753E-3  
 2.448000000000000E10   -6.349081173539162E-3   9.145747870206833E-3  
 2.450000000000000E10    9.085848927497864E-3   5.502891726791859E-3  
 2.452000000000000E10    3.224090673029423E-3  -9.489431977272034E-3  
 2.454000000000000E10   -1.025257818400860E-2  -2.185966353863478E-3  
 2.456000000000000E10   -1.038190093822777E-3   1.048685237765312E-2  
 2.458000000000000E10    1.141894236207008E-2   1.724438625387847E-4  
 2.460000000000000E10   -1.023137127049267E-3  -1.203665602952242E-2  
 2.462000000000000E10   -1.118836738169193E-2   2.982648788020015E-3  
 2.464000000000000E10    3.891763510182500E-3   1.134353410452604E-2  
 2.466000000000000E10    1.151670888066292E-2  -3.563535399734974E-3  
 2.468000000000000E10   -4.296049010008574E-3  -9.481769986450672E-3  
 2.470000000000000E10   -8.643679320812225E-3   6.061482708901167E-3  
 2.472000000000000E10    6.139398552477360E-3   7.351220119744539E-3  
 2.474000000000000E10    6.706044543534517E-3  -6.273606792092323E-3  
 2.476000000000000E10   -6.710452027618885E-3  -5.864197388291359E-3  
 2.478000000000000E10   -4.142770543694496E-3   7.734557613730431E-3  
 2.480000000000000E10    9.767791256308556E-3   3.508993657305837E-3  
 2.482000000000000E10    3.411546582356095E-3  -1.005283929407597E-2  
 2.484000000000000E10   -1.081126369535923E-2  -1.920706476084888E-3  
 2.486000000000000E10   -3.505571385176154E-6   1.170323044061661E-2  
 2.488000000000000E10    1.167855411767960E-2  -9.351690532639623E-4  
 2.490000000000000E10   -9.587701642885804E-4  -1.157615333795548E-2  
 2.492000000000000E10   -1.035479828715324E-2   1.392405130900443E-3  
 2.494000000000000E10    2.838160842657089E-3   9.384512901306152E-3  
 2.496000000000000E10    8.835581131279469E-3  -4.201015457510948E-3  
 2.498000000000000E10   -4.586897324770689E-3  -7.789694704115391E-3  
 2.500000000000000E10   -6.170609034597874E-3   5.083352793008089E-3  
 2.502000000000000E10    6.225907709449530E-3   5.336214322596788E-3  
 2.504000000000000E10    4.516253247857094E-3  -7.354214321821928E-3  
 2.506000000000000E10   -7.657324429601431E-3  -3.770762355998159E-3  
 2.508000000000000E10   -4.935605451464653E-3   7.133487146347761E-3  
 2.510000000000000E10    8.662208914756775E-3   3.808691399171948E-3  
 2.512000000000000E10    3.165018511936069E-3  -9.902673773467541E-3  
 2.514000000000000E10   -1.012907736003399E-2  -2.425607061013579E-3  
 2.516000000000000E10   -1.150849158875644E-3   9.762644767761231E-3  
 2.518000000000000E10    9.375485591590405E-3   1.060584763763472E-4  
 2.520000000000000E10   -1.877385308034718E-3  -9.064488112926483E-3  
 2.522000000000000E10   -9.104913100600243E-3   2.545321127399802E-3  
 2.524000000000000E10    2.759649651125073E-3   8.211192674934864E-3  
 2.526000000000000E10    6.833133287727833E-3  -4.546579904854298E-3  
 2.528000000000000E10   -6.416633725166321E-3  -7.624352816492319E-3  
 2.530000000000000E10   -7.395600900053978E-3   6.876442581415176E-3  
 2.532000000000000E10    7.658930961042643E-3   6.727793719619513E-3  
 2.534000000000000E10    5.947533529251814E-3  -8.135554380714893E-3  
 2.536000000000000E10   -8.589895442128182E-3  -4.781800322234631E-3  
 2.538000000000000E10   -4.427962936460972E-3   9.170370176434517E-3  
 2.540000000000000E10    8.657439611852169E-3   3.554795403033495E-3  
 2.542000000000000E10    1.249614520929754E-3  -8.170794695615768E-3  
 2.544000000000000E10   -8.542312309145927E-3   2.524988958612084E-4  
 2.546000000000000E10    1.595800742506981E-3   8.467805571854115E-3  
 2.548000000000000E10    8.288687095046043E-3  -3.463278524577618E-3  
 2.550000000000000E10   -5.030796397477388E-3  -7.428649812936783E-3  
 2.552000000000000E10   -6.625451613217592E-3   6.303369067609310E-3  
 2.554000000000000E10    7.414355874061585E-3   6.826432421803474E-3  
 2.556000000000000E10    6.006047595292330E-3  -6.763864308595657E-3  
 2.558000000000000E10   -7.738129235804081E-3  -5.207803100347519E-3  
 2.560000000000000E10   -4.676803480833769E-3   8.180580101907253E-3  
 2.562000000000000E10    7.614419329911470E-3   4.072540439665318E-3  
 2.564000000000000E10    3.197521902620792E-3  -8.032961748540402E-3  
 2.566000000000000E10   -8.050767704844475E-3  -2.730787266045809E-3  
 2.568000000000000E10   -6.612318684346974E-4   8.364939130842686E-3  
 2.570000000000000E10    8.621927350759506E-3  -1.414041151292622E-3  
 2.572000000000000E10   -2.111133653670549E-3  -7.570688147097826E-3  
 2.574000000000000E10   -7.509364746510983E-3   3.759695449844003E-3  
 2.576000000000000E10    4.995162598788738E-3   8.022699505090714E-3  
 2.578000000000000E10    6.437973584979773E-3  -5.908223800361157E-3  
 2.580000000000000E10   -7.023775018751621E-3  -5.911237560212612E-3  
 2.582000000000000E10   -5.764060653746128E-3   7.218892220407724E-3  
 2.584000000000000E10    7.266778964549303E-3   4.095330368727446E-3  
 2.586000000000000E10    2.712799469009042E-3  -8.351210504770279E-3  
 2.588000000000000E10   -7.660178933292627E-3  -1.183892833068967E-3  
 2.590000000000000E10   -6.895150872878730E-4   7.831144146621227E-3  
 2.592000000000000E10    7.795648183673620E-3   3.271937894169241E-4  
 2.594000000000000E10   -1.462793559767306E-3  -7.280039135366678E-3  
 2.596000000000000E10   -8.795087225735188E-3   2.560853259637952E-3  
 2.598000000000000E10    2.916705561801791E-3   8.958107791841030E-3  
 2.600000000000000E10    7.909841835498810E-3  -4.244615789502859E-3  
 2.602000000000000E10   -5.667884368449450E-3  -8.151356130838394E-3  
 2.604000000000000E10   -6.771220359951258E-3   6.033737678080797E-3  
 2.606000000000000E10    6.276981439441443E-3   6.159081589430571E-3  
 2.608000000000000E10    5.105372052639723E-3  -6.222799886018038E-3  
 2.610000000000000E10   -6.326629314571619E-3  -2.879138803109527E-3  
 2.612000000000000E10   -2.554632956162095E-3   7.145313546061516E-3  
 2.614000000000000E10    7.258011959493160E-3   1.041887560859323E-3  
 2.616000000000000E10   -6.233614403754473E-4  -7.026187144219875E-3  
 2.618000000000000E10   -7.728954311460257E-3   1.224988140165806E-3  
 2.620000000000000E10    2.702948171645403E-3   7.979320362210274E-3  
 2.622000000000000E10    7.976922206580639E-3  -3.641320392489433E-3  
 2.624000000000000E10   -2.964880317449570E-3  -7.744866888970137E-3  
 2.626000000000000E10   -7.138079497963190E-3   4.676063545048237E-3  
 2.628000000000000E10    5.670333746820688E-3   7.422541733831167E-3  
 2.630000000000000E10    6.089728791266680E-3  -5.893815774470568E-3  
 2.632000000000000E10   -6.318447180092335E-3  -4.333426710218191E-3  
 2.634000000000000E10   -3.139764303341508E-3   6.744935177266598E-3  
 2.636000000000000E10    7.201475091278553E-3   1.803177408874035E-3  
 2.638000000000000E10    7.651521009393036E-4  -7.882304489612579E-3  
 2.640000000000000E10   -7.121249102056027E-3  -2.145332546206191E-4  
 2.642000000000000E10    1.484683132730424E-3   7.488685194402933E-3  
 2.644000000000000E10    8.323361165821552E-3  -2.436781767755747E-3  
 2.646000000000000E10   -2.361603314056993E-3  -8.102916181087494E-3  
 2.648000000000000E10   -7.509037386626005E-3   3.025375772267580E-3  
 2.650000000000000E10    4.708399064838886E-3   6.680563092231751E-3  
 2.652000000000000E10    6.085687316954136E-3  -5.294275004416704E-3  
 2.654000000000000E10   -5.925757810473442E-3  -5.336551927030087E-3  
 2.656000000000000E10   -3.929276950657368E-3   6.647610105574131E-3  
 2.658000000000000E10    7.708363700658083E-3   2.114283153787255E-3  
 2.660000000000000E10    1.244921237230301E-3  -8.350742049515247E-3  
 2.662000000000000E10   -8.528616279363632E-3  -4.514034080784768E-4  
 2.664000000000000E10    1.430787611752749E-3   8.962279185652733E-3  
 2.666000000000000E10    8.398368023335934E-3  -2.781270071864128E-3  
 2.668000000000000E10   -3.637418383732438E-3  -8.596356026828289E-3  
 2.670000000000000E10   -8.321595378220081E-3   3.982887137681246E-3  
 2.672000000000000E10    4.198282957077026E-3   6.660638377070427E-3  
 2.674000000000000E10    5.703064613044262E-3  -5.281396210193634E-3  
 2.676000000000000E10   -5.866694729775190E-3  -5.393470637500286E-3  
 2.678000000000000E10   -3.742127679288387E-3   6.107149645686150E-3  
 2.680000000000000E10    6.602335721254349E-3   2.545202150940895E-3  
 2.682000000000000E10    1.676207990385592E-3  -7.302231155335903E-3  
 2.684000000000000E10   -8.683198131620884E-3  -6.722081452608109E-4  
 2.686000000000000E10    3.020561998710036E-4   8.733530528843403E-3  
 2.688000000000000E10    8.760194294154644E-3  -1.259155455045402E-3  
 2.690000000000000E10   -2.801614347845316E-3  -9.661801159381867E-3  
 2.692000000000000E10   -8.875272236764431E-3   3.358428599312902E-3  
 2.694000000000000E10    3.723545698449016E-3   8.371689356863499E-3  
 2.696000000000000E10    6.808861624449492E-3  -4.818326327949762E-3  
 2.698000000000000E10   -5.879641510546207E-3  -5.794382654130459E-3  
 2.700000000000000E10   -5.528157576918602E-3   6.216031033545733E-3  
 2.702000000000000E10    7.101027760654688E-3   3.422160400077701E-3  
 2.704000000000000E10    2.296966966241598E-3  -8.128897286951542E-3  
 2.706000000000000E10   -8.281957358121872E-3  -1.302605029195547E-3  
 2.708000000000000E10   -6.982811028137803E-4   8.965288288891316E-3  
 2.710000000000000E10    9.608681313693523E-3  -2.877238730434328E-4  
 2.712000000000000E10   -1.616361318156123E-3  -9.004641324281693E-3  
 2.714000000000000E10   -9.279199875891209E-3   2.549123950302601E-3  
 2.716000000000000E10    2.544947899878025E-3   9.046639315783978E-3  
 2.718000000000000E10    7.385812699794769E-3  -3.360456787049770E-3  
 2.720000000000000E10   -4.856095183640719E-3  -7.723371498286724E-3  
 2.722000000000000E10   -7.158819120377302E-3   5.423619877547026E-3  
 2.724000000000000E10    6.201375741511583E-3   5.740178283303976E-3  
 2.726000000000000E10    5.115833133459091E-3  -7.736110594123602E-3  
 2.728000000000000E10   -8.717147633433342E-3  -3.012945642694831E-3  
 2.730000000000000E10   -2.265058690682054E-3   1.004628930240870E-2  
 2.732000000000000E10    1.008475571870804E-2   1.709011383354664E-3  
 2.734000000000000E10   -3.857363481074572E-4  -9.726823307573795E-3  
 2.736000000000000E10   -1.104436628520489E-2   1.345177064649761E-3  
 2.738000000000000E10    1.257291878573597E-3   1.062362641096115E-2  
 2.740000000000000E10    9.308708831667900E-3  -2.962491707876325E-3  
 2.742000000000000E10   -3.816684475168586E-3  -8.847223594784737E-3  
 2.744000000000000E10   -8.183809928596020E-3   4.489415790885687E-3  
 2.746000000000000E10    6.260573863983154E-3   7.243243977427483E-3  
 2.748000000000000E10    6.908418145030737E-3  -6.464699748903513E-3  
 2.750000000000000E10   -7.631067186594009E-3  -5.150383338332176E-3  
 2.752000000000000E10   -4.442077595740557E-3   9.110632352530956E-3  
 2.754000000000000E10    9.700176306068897E-3   3.818443976342678E-3  
 2.756000000000000E10    2.379440935328603E-3  -9.845588356256485E-3  
