#  HZ   S   RI   R     50.00 
! Rohde & Schwarz ZVA40 4Ports - Version 3.90 - 1145.1110k42 SN: 100403
! Date: 2023-10-04 10:29:05
! Measurement: S12 
! 
 2.200000000000000E10   -1.170956157147884E-2  -1.064311526715756E-2  
 2.202000000000000E10   -8.701546117663384E-3   1.291160471737385E-2  
 2.204000000000000E10    1.359062455594540E-2   7.123832125216723E-3  
 2.206000000000000E10    4.313299432396889E-3  -1.468304079025984E-2  
 2.208000000000000E10   -1.475071813911200E-2  -2.887501614168286E-3  
 2.210000000000000E10   -9.579288307577372E-4   1.397013477981091E-2  
 2.212000000000000E10    1.359202619642019E-2  -1.109789358451963E-3  
 2.214000000000000E10   -2.202818635851145E-3  -1.315284520387650E-2  
 2.216000000000000E10   -1.264149229973555E-2   3.377916757017374E-3  
 2.218000000000000E10    4.586567636579275E-3   1.100269891321659E-2  
 2.220000000000000E10    9.823745116591454E-3  -5.373652558773756E-3  
 2.222000000000000E10   -7.291744928807020E-3  -9.116256609559059E-3  
 2.224000000000000E10   -8.072976022958756E-3   8.026634342968464E-3  
 2.226000000000000E10    7.923825643956661E-3   6.899230647832155E-3  
 2.228000000000000E10    6.072442978620529E-3  -8.227261714637280E-3  
 2.230000000000000E10   -9.074037894606590E-3  -5.278220400214195E-3  
 2.232000000000000E10   -4.858526866883040E-3   9.606257081031799E-3  
 2.234000000000000E10    9.723605588078499E-3   4.395565949380398E-3  
 2.236000000000000E10    2.691405126824975E-3  -8.672781288623810E-3  
 2.238000000000000E10   -8.338637650012970E-3  -2.137030940502882E-3  
 2.240000000000000E10   -2.030648058280349E-3   9.767387062311173E-3  
 2.242000000000000E10    8.461551740765572E-3   6.946403882466257E-4  
 2.244000000000000E10    5.831653252243996E-4  -7.243107073009014E-3  
 2.246000000000000E10   -8.279688656330109E-3   7.478370098397136E-4  
 2.248000000000000E10    2.426436403766275E-3   8.879834786057472E-3  
 2.250000000000000E10    8.523600175976753E-3  -2.404651837423444E-3  
 2.252000000000000E10   -3.501548431813717E-3  -7.868784479796886E-3  
 2.254000000000000E10   -7.736901752650738E-3   6.192562170326710E-3  
 2.256000000000000E10    6.706593092530966E-3   8.583221584558487E-3  
 2.258000000000000E10    7.431111764162779E-3  -6.809941492974758E-3  
 2.260000000000000E10   -6.599956657737494E-3  -6.063710432499647E-3  
 2.262000000000000E10   -5.673950538039208E-3   7.536945398896933E-3  
 2.264000000000000E10    7.979215122759342E-3   5.478289909660816E-3  
 2.266000000000000E10    5.139584187418222E-3  -8.110922761261463E-3  
 2.268000000000000E10   -7.446797098964453E-3  -3.338583745062351E-3  
 2.270000000000000E10   -2.167428843677044E-3   7.908641360700131E-3  
 2.272000000000000E10    9.143910370767117E-3   1.457028090953827E-3  
 2.274000000000000E10    1.148757641203702E-3  -8.762760087847710E-3  
 2.276000000000000E10   -8.697034791111946E-3   2.602284366730601E-4  
 2.278000000000000E10    1.947812852449715E-3   9.113589301705360E-3  
 2.280000000000000E10    8.849771693348885E-3  -2.766604069620371E-3  
 2.282000000000000E10    2.789567690342665E-3  -9.392033331096172E-3  
 2.284000000000000E10   -8.231937885284424E-3   3.865461563691497E-3  
 2.286000000000000E10    5.499463528394699E-3   7.525851950049400E-3  
 2.288000000000000E10    6.914645899087191E-3  -5.947309546172619E-3  
 2.290000000000000E10   -5.747017450630665E-3  -5.631639156490564E-3  
 2.292000000000000E10   -4.236013162881136E-3   5.975491832941771E-3  
 2.294000000000000E10    7.000595796853304E-3   3.385037416592240E-3  
 2.296000000000000E10    2.482039155438542E-3  -7.394087500870228E-3  
 2.298000000000000E10   -7.338113151490688E-3  -1.763461972586811E-3  
 2.300000000000000E10   -1.020258176140487E-3   7.585915736854076E-3  
 2.302000000000000E10    8.725467137992382E-3   3.551592817530036E-5  
 2.304000000000000E10   -9.896585252135992E-4  -9.193963371217251E-3  
 2.306000000000000E10   -8.544587530195713E-3   1.089952769689262E-3  
 2.308000000000000E10    2.080209786072373E-3   8.271409198641777E-3  
 2.310000000000000E10    7.704219315201044E-3  -2.855487866327167E-3  
 2.312000000000000E10   -3.413451835513115E-3  -8.237776346504688E-3  
 2.314000000000000E10   -7.187786977738142E-3   3.427090356126428E-3  
 2.316000000000000E10    4.433477763086557E-3   5.384523421525955E-3  
 2.318000000000000E10    4.062411375343800E-3  -5.566279869526625E-3  
 2.320000000000000E10   -5.685657262802124E-3  -3.164576832205057E-3  
 2.322000000000000E10   -2.680429723113775E-3   6.026629358530045E-3  
 2.324000000000000E10    6.763395387679339E-3   5.758406477980316E-4  
 2.326000000000000E10   -1.780779566615820E-4  -6.862123496830463E-3  
 2.328000000000000E10   -7.752452977001667E-3  -4.648628873837879E-6  
 2.330000000000000E10    4.787215439137071E-4   7.539545185863972E-3  
 2.332000000000000E10    6.866873241961002E-3  -1.078657340258360E-3  
 2.334000000000000E10   -1.828911947086453E-3  -7.272894494235516E-3  
 2.336000000000000E10   -7.041156757622957E-3   1.774797681719065E-3  
 2.338000000000000E10    2.254577819257975E-3   6.200393196195364E-3  
 2.340000000000000E10    4.419619683176279E-3  -2.993228146806359E-3  
 2.342000000000000E10   -3.132464131340385E-3  -4.422374535351992E-3  
 2.344000000000000E10   -4.122364800423384E-3   3.887131577357650E-3  
 2.346000000000000E10    4.339596256613731E-3   2.887709299102426E-3  
 2.348000000000000E10    1.656201318837702E-3  -4.352931864559650E-3  
 2.350000000000000E10   -5.336706992238760E-3  -1.744197215884924E-3  
 2.352000000000000E10   -1.194388372823596E-3   6.981703452765942E-3  
 2.354000000000000E10    6.251995917409658E-3  -7.290720532182604E-5  
 2.356000000000000E10   -8.522672578692436E-4  -5.473244935274124E-3  
 2.358000000000000E10   -5.507005844265223E-3   5.216537392698228E-4  
 2.360000000000000E10    5.469060852192342E-4   5.119815468788147E-3  
 2.362000000000000E10    4.919980186969042E-3  -1.300362055189908E-3  
 2.364000000000000E10   -1.475267810747027E-3  -4.189792554825544E-3  
 2.366000000000000E10   -3.706968855112791E-3   1.871070009656251E-3  
 2.368000000000000E10    2.472199499607086E-3   3.230168949812651E-3  
 2.370000000000000E10    2.822293899953365E-3  -3.000555094331503E-3  
 2.372000000000000E10   -4.196118563413620E-3  -1.830072025768459E-3  
 2.374000000000000E10   -1.796469907276332E-3   4.429948981851339E-3  
 2.376000000000000E10    4.393659532070160E-3   1.808911794796586E-3  
 2.378000000000000E10    1.262413221411407E-3  -4.927507136017084E-3  
 2.380000000000000E10   -5.326244514435530E-3  -1.204708009026945E-3  
 2.382000000000000E10   -9.749350138008595E-4   5.332704633474350E-3  
 2.384000000000000E10    4.495074041187763E-3   7.996625499799848E-4  
 2.386000000000000E10    7.462064968422055E-4  -3.856702242046595E-3  
 2.388000000000000E10   -4.126937128603458E-3  -3.286952269263566E-4  
 2.390000000000000E10    8.394753094762564E-4   3.502182196825743E-3  
 2.392000000000000E10    2.429923275485635E-3  -1.284704427234829E-3  
 2.394000000000000E10   -1.188762951642275E-3  -2.216128865256906E-3  
 2.396000000000000E10   -1.445831032469869E-3   2.564430469647050E-3  
 2.398000000000000E10    3.038781927898526E-3   1.599595416337252E-3  
 2.400000000000000E10    1.252997666597366E-3  -3.725853282958269E-3  
 2.402000000000000E10   -3.612201195210218E-3  -3.315150388516486E-4  
 2.404000000000000E10   -5.631542881019414E-4   3.807118628174067E-3  
 2.406000000000000E10    3.603680990636349E-3   7.452110876329243E-4  
 2.408000000000000E10    1.048206933774054E-3  -3.468323964625597E-3  
 2.410000000000000E10   -3.126446157693863E-3  -7.873621070757508E-4  
 2.412000000000000E10   -7.931299624033272E-4   2.411095891147852E-3  
 2.414000000000000E10    2.148244529962540E-3   4.169240128248930E-4  
 2.416000000000000E10    7.815863500582054E-5  -1.273103291168809E-3  
 2.418000000000000E10   -1.638398040086031E-3   3.425918985158205E-4  
 2.420000000000000E10    1.095125218853355E-3   1.590900355949998E-3  
 2.422000000000000E10    7.706963224336505E-4  -1.360075781121850E-3  
 2.424000000000000E10   -1.620266120880842E-3  -7.393605192191899E-4  
 2.426000000000000E10   -1.329407095909119E-3   1.940725720487535E-3  
 2.428000000000000E10    1.553763053379953E-3   1.372761209495366E-3  
 2.430000000000000E10    2.002122811973095E-3  -1.540100085549057E-3  
 2.432000000000000E10   -1.450791489332914E-3  -1.873357221484184E-3  
 2.434000000000000E10   -1.797726610675454E-3   1.270800945349038E-3  
 2.436000000000000E10    1.324639539234340E-3   1.714824582450092E-3  
 2.438000000000000E10    1.116964966058731E-3  -4.168811719864607E-4  
 2.440000000000000E10   -6.423261947929859E-4  -7.746139890514314E-4  
 2.442000000000000E10   -4.307130584493280E-4   5.336260655894876E-4  
 2.444000000000000E10    1.631430932320654E-4   5.632854299619794E-4  
 2.446000000000000E10    1.594216591911390E-4  -1.178723643533886E-3  
 2.448000000000000E10   -1.116591389290988E-3   5.613134708255529E-4  
 2.450000000000000E10    9.040759759955108E-4   1.622008509002626E-3  
 2.452000000000000E10    2.006550086662173E-3  -7.172746700234711E-4  
 2.454000000000000E10   -1.047498881234787E-4  -2.209066180512309E-3  
 2.456000000000000E10   -3.087303601205349E-3   8.716700249351561E-4  
 2.458000000000000E10    5.520689883269370E-4   2.750162035226822E-3  
 2.460000000000000E10    2.188206883147359E-3   1.180358158308081E-4  
 2.462000000000000E10    2.173828688682988E-4  -2.358812140300870E-3  
 2.464000000000000E10   -1.489706803113222E-3  -6.242399103939533E-4  
 2.466000000000000E10   -7.982347597135231E-5   1.075988169759512E-3  
 2.468000000000000E10    1.072378945536912E-3   1.194325959659182E-4  
 2.470000000000000E10    8.986457833088934E-4  -2.561320143286139E-4  
 2.472000000000000E10   -1.759907900122926E-4   7.171779288910329E-4  
 2.474000000000000E10    8.981743594631553E-4   1.013683868222870E-5  
 2.476000000000000E10   -8.825882832752541E-5  -1.106512616388500E-3  
 2.478000000000000E10   -1.371883088722825E-3  -2.729605184867978E-4  
 2.480000000000000E10   -4.608237650245428E-4   1.688091782853007E-3  
 2.482000000000000E10    2.715018112212420E-3   7.538222416769713E-5  
 2.484000000000000E10    8.334042504429817E-4  -2.573840552940965E-3  
 2.486000000000000E10   -1.686373143456876E-3  -1.343173091299832E-3  
 2.488000000000000E10   -4.860649933107197E-4   2.001315355300903E-3  
 2.490000000000000E10    1.788465073332191E-3   9.209658601321280E-4  
 2.492000000000000E10    1.006803824566305E-3  -1.592208631336689E-3  
 2.494000000000000E10   -1.339440234005451E-3  -9.061146556632593E-5  
 2.496000000000000E10    1.441755739506334E-4   5.673728301189840E-4  
 2.498000000000000E10    4.213517822790891E-4  -9.881578152999282E-4  
 2.500000000000000E10   -6.660592625848949E-4  -1.229379093274474E-3  
 2.502000000000000E10   -9.779909159988165E-4   7.881807396188378E-4  
 2.504000000000000E10    1.711796736344695E-3   1.180773950181902E-3  
 2.506000000000000E10    1.390691264532507E-3  -1.679206732660532E-3  
 2.508000000000000E10   -1.841781428083777E-3  -2.151896012946963E-3  
 2.510000000000000E10   -2.225843723863363E-3   1.703429035842419E-3  
 2.512000000000000E10    1.341252704150975E-3   1.342808478511870E-3  
 2.514000000000000E10    9.292045724578202E-4  -1.993047306314111E-3  
 2.516000000000000E10   -1.450929092243314E-3  -1.518480479717255E-3  
 2.518000000000000E10   -9.384033037349582E-4   6.874455139040947E-4  
 2.520000000000000E10    1.157108927145600E-3  -2.465719881001860E-4  
 2.522000000000000E10   -9.167845128104091E-4  -1.115158665925264E-3  
 2.524000000000000E10   -1.466103014536202E-3   1.396980253048241E-3  
 2.526000000000000E10    3.551359986886382E-4   1.286437734961510E-3  
 2.528000000000000E10    2.847874711733311E-4  -1.671917736530304E-3  
 2.530000000000000E10   -2.167989499866962E-3  -2.061447128653526E-3  
 2.532000000000000E10   -2.698757452890277E-3   9.354836656711996E-4  
 2.534000000000000E10    5.232280818745494E-4   1.928575453348458E-3  
 2.536000000000000E10    2.007014816626906E-3  -1.327996025793254E-3  
 2.538000000000000E10   -8.513264474458993E-4  -1.579020870849490E-3  
 2.540000000000000E10   -1.859375159256160E-3   1.044842996634543E-3  
 2.542000000000000E10    1.251498702913523E-3   1.805261941626668E-3  
 2.544000000000000E10    3.461840606178157E-5  -6.489237421192229E-4  
 2.546000000000000E10   -1.477992627769709E-3   4.074314783792943E-4  
 2.548000000000000E10   -4.843308706767857E-4   1.512300572358072E-3  
 2.550000000000000E10    1.208116882480681E-3  -3.008212370332331E-4  
 2.552000000000000E10   -1.198337529785931E-3  -1.778975361958146E-3  
 2.554000000000000E10   -1.577157294377685E-3   1.564947306178510E-3  
 2.556000000000000E10    1.616345602087677E-3   2.517531858757138E-3  
 2.558000000000000E10    2.510468708351255E-3  -9.089465602301061E-4  
 2.560000000000000E10   -9.855421958491206E-4  -1.341258874163032E-3  
 2.562000000000000E10   -1.483220024965704E-3   1.383452443405986E-3  
 2.564000000000000E10    7.193221827037633E-4   2.039070939645171E-3  
 2.566000000000000E10    1.002235338091850E-3  -7.515048491768539E-4  
 2.568000000000000E10   -9.911366505548358E-4  -6.928199436515570E-4  
 2.570000000000000E10    3.194213204551488E-4   1.362898387014866E-3  
 2.572000000000000E10    1.815347233787179E-3  -5.767220281995833E-4  
 2.574000000000000E10   -1.036370958900079E-4  -1.858748611994088E-3  
 2.576000000000000E10   -1.351161627098918E-3   2.017559949308634E-3  
 2.578000000000000E10    1.887290272861719E-3   2.172024920582771E-3  
 2.580000000000000E10    2.145160222426057E-3  -8.524000295437872E-4  
 2.582000000000000E10   -1.465948531404138E-3  -2.187377074733377E-3  
 2.584000000000000E10   -1.763541600666940E-3   1.406084978953004E-3  
 2.586000000000000E10    1.108874217607081E-3   1.091970829293132E-3  
 2.588000000000000E10    9.727318538352847E-4  -1.009429455734789E-3  
 2.590000000000000E10    8.560063179174904E-6  -4.708309425041080E-4  
 2.592000000000000E10    1.140682608820498E-3   5.817823112010956E-4  
 2.594000000000000E10    6.094650598242879E-4  -5.337415495887399E-4  
 2.596000000000000E10   -2.871652832254767E-4  -4.545752017293125E-4  
 2.598000000000000E10   -8.042780100367963E-4   1.346471719443798E-3  
 2.600000000000000E10    5.270518595352769E-4   1.337563153356314E-3  
 2.602000000000000E10    1.799187157303095E-3  -1.204834901727736E-3  
 2.604000000000000E10   -1.134972553700209E-3  -2.188122132793069E-3  
 2.606000000000000E10   -1.459452323615551E-3   4.106640408281237E-4  
 2.608000000000000E10    9.742887341417372E-4   1.434314879588783E-3  
 2.610000000000000E10    1.633050502277911E-3  -4.833874700125307E-4  
 2.612000000000000E10   -3.517754958011210E-4  -1.229630783200264E-3  
 2.614000000000000E10   -6.341413973132148E-5   8.206731872633100E-4  
 2.616000000000000E10    4.483641241677105E-4   3.255002666264772E-4  
 2.618000000000000E10   -5.553701776079834E-4  -7.187618757598102E-4  
 2.620000000000000E10   -1.458722166717053E-3   9.299823432229459E-4  
 2.622000000000000E10    1.077303313650191E-3   1.118264161050320E-3  
 2.624000000000000E10    1.053232350386679E-3  -1.488781068474054E-3  
 2.626000000000000E10   -1.288011437281966E-3  -1.709371805191040E-3  
 2.628000000000000E10   -1.660821842961013E-3   1.090394216589630E-3  
 2.630000000000000E10    1.338327769190073E-3   1.081381808035076E-3  
 2.632000000000000E10    9.894381510093808E-4  -5.719042965210974E-4  
 2.634000000000000E10   -1.173817552626133E-3  -4.452603461686522E-4  
 2.636000000000000E10    1.127895011450164E-4   9.780414402484894E-4  
 2.638000000000000E10    7.705905591137707E-4  -6.112515111453831E-4  
 2.640000000000000E10   -1.312233391217887E-3  -1.200197497382760E-3  
 2.642000000000000E10   -1.163556473329663E-3   1.379308057948947E-3  
 2.644000000000000E10    1.611284096725285E-3   1.158188446424902E-3  
 2.646000000000000E10    1.415806589648128E-3  -2.051774645224214E-3  
 2.648000000000000E10   -1.972903264686465E-3  -1.670880010351539E-3  
 2.650000000000000E10   -1.157536054961383E-3   1.862260629422963E-3  
 2.652000000000000E10    2.155933063477278E-3   7.160638924688101E-4  
 2.654000000000000E10    7.773189572617412E-4  -1.914282911457121E-3  
 2.656000000000000E10   -1.025507575832307E-3  -3.110316174570471E-4  
 2.658000000000000E10    2.929948095697910E-4   8.693314739502966E-4  
 2.660000000000000E10    1.162666245363653E-3  -1.394291641190648E-3  
 2.662000000000000E10   -2.023022621870041E-3  -6.218857597559691E-4  
 2.664000000000000E10   -5.288384272716939E-4   1.875959918834269E-3  
 2.666000000000000E10    2.744120080024004E-3   6.463215104304254E-4  
 2.668000000000000E10    7.731830119155347E-4  -3.240181831642985E-3  
 2.670000000000000E10   -2.576139057055116E-3  -1.256245654076338E-3  
 2.672000000000000E10   -9.619449265301228E-4   2.071554772555828E-3  
 2.674000000000000E10    2.751072635874152E-3   7.758584106341004E-4  
 2.676000000000000E10    8.493788191117346E-4  -2.435822505503893E-3  
 2.678000000000000E10   -1.832126872614026E-3  -7.291272049769759E-4  
 2.680000000000000E10    5.898105519008823E-5   1.945352531038225E-3  
 2.682000000000000E10    1.531167305074632E-3  -7.577421492896974E-4  
 2.684000000000000E10   -1.384153962135315E-3  -1.932137412950397E-3  
 2.686000000000000E10   -1.687567681074143E-3   1.645269105210900E-3  
 2.688000000000000E10    1.986005110666156E-3   1.463957480154932E-3  
 2.690000000000000E10    2.023624489083886E-3  -3.622944932430983E-3  
 2.692000000000000E10   -3.151914570480585E-3  -1.458418788388372E-3  
 2.694000000000000E10   -1.602462609298527E-3   3.353536827489734E-3  
 2.696000000000000E10    3.757771803066135E-3   1.536738825961947E-3  
 2.698000000000000E10    7.690415950492024E-4  -3.453017910942435E-3  
 2.700000000000000E10   -3.792131319642067E-3  -5.075752269476652E-4  
 2.702000000000000E10   -3.255767223890871E-4   2.826438285410404E-3  
 2.704000000000000E10    2.706068335101008E-3  -1.920391659950838E-4  
 2.706000000000000E10   -1.661897753365338E-3  -2.978972159326077E-3  
 2.708000000000000E10   -2.715813461691141E-3   1.649248646572232E-3  
 2.710000000000000E10    2.273055026307702E-3   2.694257767871022E-3  
 2.712000000000000E10    2.464743796736002E-3  -3.551464527845383E-3  
 2.714000000000000E10   -3.894575173035264E-3  -1.967280637472868E-3  
 2.716000000000000E10   -2.447414211928845E-3   4.328451119363308E-3  
 2.718000000000000E10    4.082621540874243E-3   2.127060201019049E-3  
 2.720000000000000E10    1.261798548512161E-3  -4.196978639811277E-3  
 2.722000000000000E10   -4.718748386949301E-3  -1.252593589015305E-3  
 2.724000000000000E10   -8.281469345092773E-4   3.803628729656339E-3  
 2.726000000000000E10    3.691759426146746E-3   7.839798854547553E-7  
 2.728000000000000E10   -6.566696683876216E-4  -3.671779064461589E-3  
 2.730000000000000E10   -3.454205347225070E-3   1.723405672237277E-3  
 2.732000000000000E10    2.218272536993027E-3   3.505433676764369E-3  
 2.734000000000000E10    2.848407486453652E-3  -2.647414570674300E-3  
 2.736000000000000E10   -3.772877389565110E-3  -2.968742279335856E-3  
 2.738000000000000E10   -3.256320487707853E-3   4.228429868817329E-3  
 2.740000000000000E10    4.078235477209091E-3   2.800700021907687E-3  
 2.742000000000000E10    2.744308207184076E-3  -4.694373812526465E-3  
 2.744000000000000E10   -4.779276903718710E-3  -2.303550718352199E-3  
 2.746000000000000E10   -1.425590133294463E-3   4.592746496200562E-3  
 2.748000000000000E10    4.333832766860724E-3   1.670958241447806E-3  
 2.750000000000000E10    8.533648797310889E-4  -3.900461364537478E-3  
 2.752000000000000E10   -3.977590706199408E-3   1.400064647896215E-4  
 2.754000000000000E10    5.399129004217684E-4   4.359342623502016E-3  
 2.756000000000000E10    3.970974590629339E-3  -1.440666150301695E-3  
