#  HZ   S   RI   R     50.00 
! Rohde & Schwarz ZVA40 4Ports - Version 3.90 - 1145.1110k42 SN: 100403
! Date: 2023-10-04 10:29:22
! Measurement: S12 
! 
 2.200000000000000E10   -7.786478847265244E-3  -7.820564322173595E-3  
 2.202000000000000E10   -6.180654745548964E-3   8.681835606694222E-3  
 2.204000000000000E10    1.003261096775532E-2   5.029335152357817E-3  
 2.206000000000000E10    3.724409267306328E-3  -1.080292370170355E-2  
 2.208000000000000E10   -1.051118783652782E-2  -1.345519325695932E-3  
 2.210000000000000E10   -1.490873255534098E-4   1.070822309702635E-2  
 2.212000000000000E10    1.010998431593180E-2  -6.604773225262761E-4  
 2.214000000000000E10   -1.237863209098578E-3  -9.352430701255798E-3  
 2.216000000000000E10   -8.756431750953198E-3   2.474874258041382E-3  
 2.218000000000000E10    2.994675654917955E-3   6.767444778233767E-3  
 2.220000000000000E10    6.263652816414833E-3  -3.877598093822599E-3  
 2.222000000000000E10   -3.775292076170445E-3  -5.630530416965485E-3  
 2.224000000000000E10   -3.347750520333648E-3   2.810696139931679E-3  
 2.226000000000000E10    4.205107223242521E-3   3.767382586374879E-3  
 2.228000000000000E10    2.892903285101056E-3  -4.913055337965488E-3  
 2.230000000000000E10   -3.925428260117769E-3  -2.674656687304378E-3  
 2.232000000000000E10   -2.911894582211971E-3   4.356140736490488E-3  
 2.234000000000000E10    4.390781279653311E-3   1.270294073037803E-3  
 2.236000000000000E10    1.035061897709966E-3  -5.030345171689987E-3  
 2.238000000000000E10   -4.839363973587751E-3  -2.513498999178410E-3  
 2.240000000000000E10   -1.639894326217473E-3   3.408338408917189E-3  
 2.242000000000000E10    3.840874880552292E-3   3.881426528096199E-4  
 2.244000000000000E10    3.080315364059061E-4  -3.873004112392664E-3  
 2.246000000000000E10   -3.527771681547165E-3  -8.633207762613893E-4  
 2.248000000000000E10   -4.471041611395776E-4   3.845775034278631E-3  
 2.250000000000000E10    3.590147709473968E-3   7.148338045226410E-5  
 2.252000000000000E10   -1.009229919873178E-3  -4.566308576613665E-3  
 2.254000000000000E10   -5.342512391507626E-3   1.584646175615490E-3  
 2.256000000000000E10    1.508970628492534E-3   4.791098646819592E-3  
 2.258000000000000E10    4.545106086879969E-3  -3.319513052701950E-3  
 2.260000000000000E10   -2.983477432280779E-3  -4.392012953758240E-3  
 2.262000000000000E10   -4.384875297546387E-3   2.469191793352366E-3  
 2.264000000000000E10    2.832841128110886E-3   4.419798031449318E-3  
 2.266000000000000E10    3.862244077026844E-3  -2.199221868067980E-3  
 2.268000000000000E10   -3.284941893070936E-3  -3.829204011708498E-3  
 2.270000000000000E10   -2.716686110943556E-3   3.380588488653302E-3  
 2.272000000000000E10    2.936446806415916E-3   2.469354774802923E-3  
 2.274000000000000E10    1.265541883185506E-3  -2.949328394606710E-3  
 2.276000000000000E10   -4.060684237629175E-3  -6.268653669394553E-4  
 2.278000000000000E10    1.266903564101085E-4   4.350312519818544E-3  
 2.280000000000000E10    3.979303874075413E-3   1.409171272825915E-5  
 2.282000000000000E10    1.798318582586944E-3  -4.133530892431736E-3  
 2.284000000000000E10   -4.513266496360302E-3   1.813362236134708E-3  
 2.286000000000000E10    1.507783657871187E-3   4.808452446013689E-3  
 2.288000000000000E10    4.448509309440851E-3  -1.283690566197038E-3  
 2.290000000000000E10   -1.527698477730155E-3  -3.798973746597767E-3  
 2.292000000000000E10   -4.130157176405191E-3   2.126743085682392E-3  
 2.294000000000000E10    2.027454320341349E-3   3.692317986860871E-3  
 2.296000000000000E10    2.568601863458753E-3  -1.802776823751628E-3  
 2.298000000000000E10   -2.515032654628158E-3  -2.530564786866307E-3  
 2.300000000000000E10   -1.711761578917503E-3   2.905177883803845E-3  
 2.302000000000000E10    3.544235834851861E-3   1.351220649667084E-3  
 2.304000000000000E10    1.360587892122567E-3  -3.914439585059881E-3  
 2.306000000000000E10   -4.183249548077583E-3   1.558931544423103E-4  
 2.308000000000000E10    2.811700396705419E-4   4.721340257674456E-3  
 2.310000000000000E10    4.597499500960112E-3   2.916221856139600E-4  
 2.312000000000000E10   -1.213576979353093E-5  -4.468610975891352E-3  
 2.314000000000000E10   -4.612418357282877E-3   1.577221322804689E-3  
 2.316000000000000E10    1.423412002623081E-3   3.555258968845010E-3  
 2.318000000000000E10    3.620331874117255E-3  -1.442949287593365E-3  
 2.320000000000000E10   -1.282737241126597E-3  -2.648304216563702E-3  
 2.322000000000000E10   -1.347917015664280E-3   1.854835078120232E-3  
 2.324000000000000E10    2.468622755259275E-3   1.332100830040872E-3  
 2.326000000000000E10    1.150247873738408E-3  -2.226019045338035E-3  
 2.328000000000000E10   -2.322032349184156E-3  -1.047702622599900E-3  
 2.330000000000000E10   -1.362612965749577E-4   3.185468958690763E-3  
 2.332000000000000E10    3.732433775439858E-3   2.539133711252362E-4  
 2.334000000000000E10    6.702666287310422E-4  -3.859074786305428E-3  
 2.336000000000000E10   -3.151540644466877E-3  -4.411566187627614E-4  
 2.338000000000000E10    4.277525877114385E-4   3.558591706678271E-3  
 2.340000000000000E10    3.525852458551526E-3   1.840449840528891E-4  
 2.342000000000000E10    2.182856114814058E-4  -2.234659623354673E-3  
 2.344000000000000E10   -1.637350185774267E-3   2.482784329913557E-4  
 2.346000000000000E10    6.527694058604538E-4   1.430283184163272E-3  
 2.348000000000000E10    5.616516573354602E-4  -5.881270626559854E-4  
 2.350000000000000E10   -8.625267073512077E-4  -7.895362796261907E-4  
 2.352000000000000E10    1.530748559162021E-4   1.210213056765497E-3  
 2.354000000000000E10    1.740887644700706E-3   4.957983765052632E-5  
 2.356000000000000E10    6.781611591577530E-4  -2.241803100332618E-3  
 2.358000000000000E10   -1.636826782487333E-3  -6.053353426977992E-4  
 2.360000000000000E10   -1.027612946927548E-3   2.471135929226875E-3  
 2.362000000000000E10    2.752981381490827E-3   1.345803844742477E-3  
 2.364000000000000E10    1.193040749058127E-3  -2.312650904059410E-3  
 2.366000000000000E10   -2.408633939921856E-3  -1.188452239148319E-3  
 2.368000000000000E10   -7.380130118690431E-4   1.890144310891628E-3  
 2.370000000000000E10    1.302449731156230E-3   4.594302445184439E-4  
 2.372000000000000E10    5.828418070450425E-4  -1.227221917361021E-3  
 2.374000000000000E10   -5.991169018670917E-4  -8.917302329791710E-5  
 2.376000000000000E10    7.232360658235848E-4   1.284379977732897E-4  
 2.378000000000000E10    5.450053140521050E-4  -5.951346247456968E-4  
 2.380000000000000E10   -8.269282989203930E-4  -8.305840310640633E-4  
 2.382000000000000E10   -7.573805050924420E-4   1.105626346543431E-3  
 2.384000000000000E10    1.245025079697371E-3   6.694487528875470E-4  
 2.386000000000000E10    1.510961563326418E-3  -1.158593571744859E-3  
 2.388000000000000E10   -1.360387192107737E-3  -1.912030624225736E-3  
 2.390000000000000E10   -1.653842860832810E-3   9.521829779259861E-4  
 2.392000000000000E10    6.734025082550943E-4   1.399677479639649E-3  
 2.394000000000000E10    1.313526532612741E-3  -4.519119393080473E-4  
 2.396000000000000E10   -7.218490936793387E-4  -1.149379299022257E-3  
 2.398000000000000E10   -1.673449994996190E-3   3.331742482259870E-4  
 2.400000000000000E10    3.645751567091793E-4   1.748503418639302E-4  
 2.402000000000000E10   -1.567158324178308E-4  -4.712130175903440E-4  
 2.404000000000000E10   -8.454762864857912E-4   3.780131519306451E-4  
 2.406000000000000E10    6.901820888742805E-4   5.950888153165579E-4  
 2.408000000000000E10    1.217848388478160E-3  -1.997136714635417E-4  
 2.410000000000000E10   -6.044638575986028E-4  -1.349518075585365E-3  
 2.412000000000000E10   -1.533751492388547E-3   5.324014928191900E-4  
 2.414000000000000E10   -7.377160945907235E-4   2.121953759342432E-3  
 2.416000000000000E10    1.534286420792341E-3   1.678211992839351E-4  
 2.418000000000000E10    5.987117183394730E-4  -2.202358795329928E-3  
 2.420000000000000E10   -2.536321990191937E-3  -1.265431987121701E-3  
 2.422000000000000E10   -1.235544565133750E-3   1.672334386967123E-3  
 2.424000000000000E10    1.996964681893587E-3   5.782057996839285E-4  
 2.426000000000000E10    5.186784546822310E-4  -1.514698378741741E-3  
 2.428000000000000E10   -1.043171621859074E-3  -4.354999982751906E-4  
 2.430000000000000E10    4.244747397024185E-4   9.727000724524260E-4  
 2.432000000000000E10    7.464015652658418E-5  -5.585760227404535E-4  
 2.434000000000000E10   -1.214278512634337E-3  -8.794912719167769E-4  
 2.436000000000000E10   -6.979129393585026E-4   2.215767744928598E-3  
 2.438000000000000E10    2.323183231055737E-3   5.916804657317698E-4  
 2.440000000000000E10    1.668651006184518E-3  -2.879646839573979E-3  
 2.442000000000000E10   -2.578407060354948E-3  -1.341298222541809E-3  
 2.444000000000000E10   -1.573364716023207E-3   2.740361960604787E-3  
 2.446000000000000E10    2.648640191182494E-3   1.016060006804764E-3  
 2.448000000000000E10    1.126812188886106E-3  -2.007307484745979E-3  
 2.450000000000000E10   -2.352159004658461E-3  -1.116842962801457E-3  
 2.452000000000000E10   -4.891840508207679E-4   1.813162351027131E-3  
 2.454000000000000E10    1.605198951438069E-3   3.289242158643901E-4  
 2.456000000000000E10   -4.566182615235448E-4  -2.217389410361648E-3  
 2.458000000000000E10   -2.084824023768306E-3   9.006849140860140E-4  
 2.460000000000000E10    1.487880828790367E-3   1.881954493001103E-3  
 2.462000000000000E10    2.300111809745431E-3  -1.942297443747520E-3  
 2.464000000000000E10   -2.432348206639290E-3  -1.795116229914129E-3  
 2.466000000000000E10   -2.441145479679108E-3   2.332801697775722E-3  
 2.468000000000000E10    1.892809523269534E-3   2.391198417171836E-3  
 2.470000000000000E10    1.852690824307501E-3  -2.055795164778829E-3  
 2.472000000000000E10   -2.289762720465660E-3  -2.315026707947254E-3  
 2.474000000000000E10   -1.828110311180353E-3   1.533659989945591E-3  
 2.476000000000000E10    1.509533845819533E-3   1.258670585229993E-3  
 2.478000000000000E10    4.086632688995451E-4  -1.693263417109847E-3  
 2.480000000000000E10   -1.970293931663036E-3   2.956097887363285E-4  
 2.482000000000000E10    1.348598016193137E-4   2.490509068593383E-3  
 2.484000000000000E10    2.096306765452027E-3  -8.211882668547332E-4  
 2.486000000000000E10   -1.911051920615137E-3  -2.196634188294411E-3  
 2.488000000000000E10   -3.478121245279908E-3   2.033521654084325E-3  
 2.490000000000000E10    1.510343048721552E-3   3.249507397413254E-3  
 2.492000000000000E10    3.105196636170149E-3  -1.940514426678419E-3  
 2.494000000000000E10   -1.936395885422826E-3  -3.241525962948799E-3  
 2.496000000000000E10   -3.042948897928000E-3   1.975287683308125E-3  
 2.498000000000000E10    2.254721242934465E-3   2.950448542833328E-3  
 2.500000000000000E10    2.122664125636220E-3  -1.601331401616335E-3  
 2.502000000000000E10   -2.221554750576615E-3  -8.136508404277265E-4  
 2.504000000000000E10   -6.481069722212851E-4   2.252757316455245E-3  
 2.506000000000000E10    2.264849841594696E-3   2.266032533952966E-4  
 2.508000000000000E10   -6.551425904035568E-4  -2.319057704880834E-3  
 2.510000000000000E10   -2.817226108163595E-3   1.291730673983693E-3  
 2.512000000000000E10    2.062194515019655E-3   3.343215212225914E-3  
 2.514000000000000E10    3.649124177172780E-3  -1.465936074964702E-3  
 2.516000000000000E10   -6.607288960367441E-4  -2.867157571017742E-3  
 2.518000000000000E10   -2.722183940932155E-3   2.166479825973511E-3  
 2.520000000000000E10    1.745146932080388E-3   3.680487861856818E-3  
 2.522000000000000E10    3.377973102033138E-3  -1.281839446164668E-3  
 2.524000000000000E10   -1.244497369043529E-3  -2.252387581393123E-3  
 2.526000000000000E10   -1.519880141131580E-3   1.216282602399588E-3  
 2.528000000000000E10    2.793384017422795E-3   1.127358642406762E-3  
 2.530000000000000E10    1.614045118913055E-3  -2.042872365564108E-3  
 2.532000000000000E10   -1.752710901200771E-3  -3.327289596199989E-5  
 2.534000000000000E10    9.897561976686120E-4   2.698101801797748E-3  
 2.536000000000000E10    4.070605151355267E-3  -4.453699220903218E-4  
 2.538000000000000E10   -8.126958855427802E-4  -3.430727170780301E-3  
 2.540000000000000E10   -3.035284578800201E-3   1.089974190108478E-3  
 2.542000000000000E10    1.348610036075115E-3   3.332497086375952E-3  
 2.544000000000000E10    3.469068324193358E-3  -1.716552884317935E-3  
 2.546000000000000E10   -8.911291952244937E-4  -2.989279804751277E-3  
 2.548000000000000E10   -2.179158153012395E-3   5.947060999460518E-4  
 2.550000000000000E10    1.808600733056665E-3   1.764029730111361E-3  
 2.552000000000000E10    1.830108230933547E-3  -2.095097908750176E-3  
 2.554000000000000E10   -2.177146729081869E-3  -1.271768822334707E-3  
 2.556000000000000E10   -4.530820879153907E-4   2.174619818106294E-3  
 2.558000000000000E10    2.602012362331152E-3  -4.455534872249700E-5  
 2.560000000000000E10   -7.105281110852957E-4  -3.577855182811618E-3  
 2.562000000000000E10   -3.858138807117939E-3   1.361422619083896E-4  
 2.564000000000000E10    2.702650672290474E-4   3.146854927763343E-3  
 2.566000000000000E10    3.652238054201007E-3  -1.155848964117467E-3  
 2.568000000000000E10   -1.465827343054116E-3  -3.811193862929940E-3  
 2.570000000000000E10   -3.502624807879329E-3   1.231064554303885E-3  
 2.572000000000000E10    1.155037200078368E-3   3.004552330821753E-3  
 2.574000000000000E10    1.747295144014061E-3  -1.761747291311622E-3  
 2.576000000000000E10   -2.844705013558269E-3  -1.251360168680549E-3  
 2.578000000000000E10   -8.497947710566223E-4   1.720392494462431E-3  
 2.580000000000000E10    2.108584856614471E-3  -5.471027543535456E-5  
 2.582000000000000E10   -8.826394332572818E-4  -3.159060375764966E-3  
 2.584000000000000E10   -3.124111564829946E-3   5.350714200176299E-4  
 2.586000000000000E10    1.101905945688486E-3   3.244932508096099E-3  
 2.588000000000000E10    2.786975353956223E-3  -1.067349570803344E-3  
 2.590000000000000E10   -1.362744136713445E-3  -2.562678419053555E-3  
 2.592000000000000E10   -3.074454376474023E-3   1.310164923779666E-3  
 2.594000000000000E10    7.801699684932828E-4   2.589958021417260E-3  
 2.596000000000000E10    1.881381846033037E-3  -9.242244996130467E-4  
 2.598000000000000E10   -1.195340999402106E-3  -2.024280838668346E-3  
 2.600000000000000E10   -1.144713256508112E-3   1.527540851384401E-3  
 2.602000000000000E10    2.095197094604373E-3   8.435873314738274E-4  
 2.604000000000000E10    2.361521364946384E-5  -1.881407573819161E-3  
 2.606000000000000E10   -2.260612556710839E-3   3.443929599598050E-4  
 2.608000000000000E10    4.057874903082848E-4   2.419232390820980E-3  
 2.610000000000000E10    2.218218753114343E-3  -1.816944422898814E-4  
 2.612000000000000E10   -2.177397545892745E-4  -3.037373302504420E-3  
 2.614000000000000E10   -2.940446371212602E-3   2.803029492497444E-4  
 2.616000000000000E10   -1.363489864161238E-4   2.218853216618300E-3  
 2.618000000000000E10    2.530956640839577E-3  -4.169018939137459E-4  
 2.620000000000000E10   -6.434603710658848E-4  -1.980142435058951E-3  
 2.622000000000000E10   -9.077113354578614E-4   5.235166172496975E-4  
 2.624000000000000E10    9.204134694300592E-4   1.093055587261915E-3  
 2.626000000000000E10    1.723262248560786E-4  -1.168990973383188E-3  
 2.628000000000000E10   -1.609047758392990E-3  -1.600496907485649E-4  
 2.630000000000000E10    4.279309359844774E-4   2.198668196797371E-3  
 2.632000000000000E10    2.091813366860151E-3  -7.364841294474900E-4  
 2.634000000000000E10   -7.170104654505849E-4  -2.801715396344662E-3  
 2.636000000000000E10   -2.348946407437325E-3   9.330051252618432E-4  
 2.638000000000000E10    4.661363200284541E-4   2.674102317541838E-3  
 2.640000000000000E10    2.002129796892405E-3  -7.502100779674947E-4  
 2.642000000000000E10   -8.173683891072869E-4  -1.005086931400001E-3  
 2.644000000000000E10   -9.789229370653629E-4   1.065847580321133E-3  
 2.646000000000000E10    9.746940340846777E-4   2.975560200866312E-4  
 2.648000000000000E10   -3.558949683792889E-4  -4.910381394438446E-4  
 2.650000000000000E10   -1.182280946522951E-3   7.391399703919888E-4  
 2.652000000000000E10    8.959397091530263E-4   1.119709573686123E-3  
 2.654000000000000E10    8.995477110147476E-4  -5.948162870481610E-4  
 2.656000000000000E10   -1.513105235062540E-3  -1.509831985458732E-3  
 2.658000000000000E10   -1.541598117910326E-3   1.288714585825801E-3  
 2.660000000000000E10    7.778627332299948E-4   1.853297580964863E-3  
 2.662000000000000E10    1.464467495679855E-3  -8.772810106165707E-4  
 2.664000000000000E10   -1.326568308286369E-3  -7.079217466525734E-4  
 2.666000000000000E10   -1.008072169497609E-3   9.119894821196795E-4  
 2.668000000000000E10    6.651801522821188E-4   4.195588699076325E-4  
 2.670000000000000E10   -7.552418392151594E-4  -3.232328745070845E-4  
 2.672000000000000E10   -6.223957752808929E-4   1.284778118133545E-3  
 2.674000000000000E10    1.178036094643176E-3   1.331713516265154E-3  
 2.676000000000000E10    7.411447586491704E-4  -1.213136129081249E-3  
 2.678000000000000E10   -1.546577783301473E-3  -6.130761466920376E-4  
 2.680000000000000E10   -1.353671541437507E-3   1.725702430121601E-3  
 2.682000000000000E10    1.675587496720254E-3   1.762777217663825E-3  
 2.684000000000000E10    1.067318022251129E-3  -1.051113824360073E-3  
 2.686000000000000E10   -1.107194693759084E-3  -7.975194603204727E-4  
 2.688000000000000E10   -5.559416604228318E-4   1.656309235841036E-3  
 2.690000000000000E10    1.076955115422607E-3   1.591239124536514E-4  
 2.692000000000000E10   -3.400412388145924E-4  -8.412462775595486E-4  
 2.694000000000000E10   -1.121623441576958E-3   9.144406067207456E-4  
 2.696000000000000E10    1.587359234690666E-3   1.589759602211416E-3  
 2.698000000000000E10    1.639563357457519E-3  -2.147701801732183E-3  
 2.700000000000000E10   -2.118492731824517E-3  -1.841938123106957E-3  
 2.702000000000000E10   -1.159737235866487E-3   3.051490522921085E-3  
 2.704000000000000E10    3.132331185042858E-3   1.407388248480856E-3  
 2.706000000000000E10    1.288474421016872E-3  -2.632026793435216E-3  
 2.708000000000000E10   -2.409430686384440E-3  -7.471269927918911E-4  
 2.710000000000000E10   -6.224883254617453E-4   2.141514793038368E-3  
 2.712000000000000E10    2.342385705560446E-3  -2.746492100413889E-5  
 2.714000000000000E10   -3.125730727333576E-4  -1.768917776644230E-3  
 2.716000000000000E10   -1.380977104417980E-3   6.120452890172601E-4  
 2.718000000000000E10    2.178923459723592E-3   1.519380020909011E-3  
 2.720000000000000E10    1.632055151276290E-3  -2.315267687663436E-3  
 2.722000000000000E10   -2.480820054188371E-3  -1.639389432966709E-3  
 2.724000000000000E10   -1.104278257116675E-3   3.657778492197394E-3  
 2.726000000000000E10    2.815794898197055E-3   1.518206554464996E-3  
 2.728000000000000E10    1.135974191129208E-3  -3.462495282292366E-3  
 2.730000000000000E10   -3.205153159797192E-3  -1.063026371411979E-3  
 2.732000000000000E10   -1.116450643166900E-3   2.757633337751031E-3  
 2.734000000000000E10    2.883570268750191E-3  -2.486639132257551E-4  
 2.736000000000000E10    2.788089041132480E-4  -3.039332106709480E-3  
 2.738000000000000E10   -2.354128984734416E-3   2.749664126895368E-4  
 2.740000000000000E10    1.772169256582856E-3   2.427438972517848E-3  
 2.742000000000000E10    2.574145561084151E-3  -1.884807134047151E-3  
 2.744000000000000E10   -2.876469632610679E-3  -2.232024213299155E-3  
 2.746000000000000E10   -2.018516883254051E-3   3.341616597026587E-3  
 2.748000000000000E10    2.747778315097094E-3   1.997692510485649E-3  
 2.750000000000000E10    1.435720128938556E-3  -3.579742275178433E-3  
 2.752000000000000E10   -3.569586435332894E-3  -2.225724281743169E-3  
 2.754000000000000E10   -1.577296992763877E-3   3.164295107126236E-3  
 2.756000000000000E10    3.196656703948975E-3   9.555206052027643E-4  
