#  HZ   S   RI   R     50.00 
! Rohde & Schwarz ZVA40 4Ports - Version 3.90 - 1145.1110k42 SN: 100403
! Date: 2023-10-04 10:29:46
! Measurement: S12 
! 
 2.200000000000000E10   -5.967799108475447E-3  -5.048628430813551E-3  
 2.202000000000000E10   -3.880525007843971E-3   7.211498450487852E-3  
 2.204000000000000E10    7.559501565992832E-3   2.929188078269362E-3  
 2.206000000000000E10    1.884904340840876E-3  -7.617761846631765E-3  
 2.208000000000000E10   -7.959578186273575E-3  -4.153487388975918E-4  
 2.210000000000000E10    1.744892651913688E-4   7.291462738066912E-3  
 2.212000000000000E10    6.573224440217018E-3  -1.283052726648748E-3  
 2.214000000000000E10   -2.824111143127084E-3  -5.980730056762695E-3  
 2.216000000000000E10   -4.656649660319090E-3   3.257310017943382E-3  
 2.218000000000000E10    4.207545891404152E-3   3.813315415754914E-3  
 2.220000000000000E10    2.498968504369259E-3  -3.536662552505732E-3  
 2.222000000000000E10   -3.843507030978799E-3  -5.134913953952491E-4  
 2.224000000000000E10   -4.556985513772816E-4   4.470183048397303E-3  
 2.226000000000000E10    3.987922333180904E-3   4.831856058444828E-4  
 2.228000000000000E10   -9.827625035541132E-5  -3.071308601647615E-3  
 2.230000000000000E10   -3.446627873927355E-3   2.094100782414898E-4  
 2.232000000000000E10    2.245968789793551E-4   3.332827240228653E-3  
 2.234000000000000E10    3.043985925614834E-3  -9.129080572165549E-4  
 2.236000000000000E10   -2.805894764605910E-4  -1.697843195870519E-3  
 2.238000000000000E10   -9.284995030611754E-4   3.484369663055986E-4  
 2.240000000000000E10    1.185665139928460E-3   9.942045435309410E-4  
 2.242000000000000E10    6.422941805794835E-4   3.272832836955786E-4  
 2.244000000000000E10    2.941238344646990E-4  -2.364000647503417E-5  
 2.246000000000000E10    5.379237700253725E-4  -1.279897842323408E-4  
 2.248000000000000E10   -3.798762045335025E-4   5.488375900313258E-4  
 2.250000000000000E10    1.061081537045538E-3  -3.104463976342231E-4  
 2.252000000000000E10    3.220608341507614E-4  -1.291835331358016E-3  
 2.254000000000000E10   -1.539081102237105E-3  -1.945198891917244E-4  
 2.256000000000000E10    8.812360465526581E-4   1.392281264998019E-3  
 2.258000000000000E10    1.997379353269935E-3  -7.138347136788070E-4  
 2.260000000000000E10   -5.965389937045984E-5  -1.847238047048450E-3  
 2.262000000000000E10   -1.055914210155606E-3   3.460130246821791E-4  
 2.264000000000000E10    3.167102695442736E-4   1.033556531183422E-3  
 2.266000000000000E10    1.615422545000911E-3  -9.175497689284384E-5  
 2.268000000000000E10   -5.305586964823306E-4  -1.536703435704112E-3  
 2.270000000000000E10   -9.653065353631973E-4   6.182477227412164E-4  
 2.272000000000000E10    6.671138180536218E-6  -6.829330231994391E-5  
 2.274000000000000E10    4.539930087048560E-4  -9.037567651830614E-4  
 2.276000000000000E10   -1.186244422569871E-3  -8.932798518799245E-4  
 2.278000000000000E10   -2.502012357581407E-4   1.443168497644365E-3  
 2.280000000000000E10    1.359086250886321E-3   1.592517510289326E-4  
 2.282000000000000E10    2.027815207839012E-3  -1.481781597249210E-3  
 2.284000000000000E10   -2.661955077201128E-3  -8.554003579774872E-5  
 2.286000000000000E10   -1.655353553360328E-4   2.421655459329486E-3  
 2.288000000000000E10    1.779798069037497E-3   3.543892817106098E-4  
 2.290000000000000E10   -7.102117524482310E-5  -1.430489821359515E-3  
 2.292000000000000E10   -1.776013523340225E-3  -1.146072056144476E-3  
 2.294000000000000E10   -7.916906033642590E-4   5.306499660946429E-4  
 2.296000000000000E10    5.711718695238233E-4   1.119743319577538E-4  
 2.298000000000000E10    3.270838351454586E-4  -8.909589378163219E-4  
 2.300000000000000E10   -2.004115376621485E-4   8.292709389934316E-5  
 2.302000000000000E10    2.191707026213408E-4   5.653327680192888E-4  
 2.304000000000000E10    6.707687280140817E-4  -7.870691479183734E-4  
 2.306000000000000E10   -1.698892912827432E-3  -3.839183191303164E-4  
 2.308000000000000E10   -1.383653609082103E-3   1.183539046905935E-3  
 2.310000000000000E10    7.910435670055449E-4   1.209011534228921E-3  
 2.312000000000000E10    6.028591305948794E-4  -2.290288219228387E-3  
 2.314000000000000E10   -1.631620805710554E-3  -1.040168805047870E-3  
 2.316000000000000E10   -8.594201644882560E-4   3.548376844264567E-4  
 2.318000000000000E10    1.049592741765082E-3   1.145765651017427E-3  
 2.320000000000000E10    9.682669769972563E-4  -8.406993583776057E-4  
 2.322000000000000E10   -4.637958772946149E-4  -4.591947654262185E-4  
 2.324000000000000E10   -9.025670588016510E-4   7.490104762837291E-4  
 2.326000000000000E10   -2.070715563604608E-4   2.186045312555507E-4  
 2.328000000000000E10   -6.619207852054387E-5  -4.221631970722228E-4  
 2.330000000000000E10   -9.099007584154606E-4   4.107775166630745E-4  
 2.332000000000000E10    5.924857687205076E-4   8.498465758748353E-4  
 2.334000000000000E10    1.316672773100436E-3  -5.264176288619638E-4  
 2.336000000000000E10   -5.371726583689451E-4  -1.178917009383440E-3  
 2.338000000000000E10   -1.462963060475886E-3   4.413686110638082E-4  
 2.340000000000000E10    3.658666973933578E-4   2.471620915457606E-3  
 2.342000000000000E10    1.501777325756848E-3   1.412728452123702E-4  
 2.344000000000000E10    2.120279095834121E-4  -1.251501962542534E-3  
 2.346000000000000E10   -2.107477514073253E-3   1.510647416580468E-4  
 2.348000000000000E10   -1.318910217378289E-4   1.392699312418699E-3  
 2.350000000000000E10    7.932479493319988E-4  -5.576279945671558E-4  
 2.352000000000000E10   -2.267441459480324E-6  -2.103631413774565E-4  
 2.354000000000000E10   -6.533561099786311E-5   2.928407047875226E-4  
 2.356000000000000E10    5.630508530884981E-4   2.790367580018938E-4  
 2.358000000000000E10    1.816983713069931E-4  -5.585926119238138E-4  
 2.360000000000000E10   -1.861685654148459E-3   1.179572500404902E-4  
 2.362000000000000E10   -4.486462567001581E-4   2.137558767572045E-3  
 2.364000000000000E10    1.897529698908329E-3   2.913541393354535E-4  
 2.366000000000000E10    4.681442514993250E-4  -2.571266144514084E-3  
 2.368000000000000E10   -2.049938775599003E-3  -8.724180515855551E-4  
 2.370000000000000E10   -1.186200301162899E-3   1.871544751338661E-3  
 2.372000000000000E10    1.930563827045262E-3   6.078083533793688E-4  
 2.374000000000000E10    1.261023222468793E-3  -1.657200627960265E-3  
 2.376000000000000E10   -1.739131170324981E-3  -1.031541032716632E-3  
 2.378000000000000E10   -4.477866241359152E-5   1.446837093681097E-3  
 2.380000000000000E10    6.344068096950650E-4  -5.361473886296153E-4  
 2.382000000000000E10   -6.526315119117498E-4  -9.079637820832431E-4  
 2.384000000000000E10   -1.387195312418044E-3   1.034015789628029E-3  
 2.386000000000000E10    2.133893780410290E-3   1.295390538871288E-3  
 2.388000000000000E10    1.396082458086312E-3  -2.822358626872301E-3  
 2.390000000000000E10   -2.531402744352818E-3  -9.665982797741890E-4  
 2.392000000000000E10   -1.394311781041324E-3   3.355607157573104E-3  
 2.394000000000000E10    3.319092094898224E-3   1.697586500085890E-3  
 2.396000000000000E10    1.477171550504863E-3  -2.932663774117827E-3  
 2.398000000000000E10   -2.622988075017929E-3  -1.372455037198961E-3  
 2.400000000000000E10   -8.829587604850531E-4   2.679102122783661E-3  
 2.402000000000000E10    2.535067033022642E-3   3.509729285724461E-4  
 2.404000000000000E10    3.903776523657143E-4  -2.058402402326465E-3  
 2.406000000000000E10   -1.420810469426215E-3   6.803568103350699E-4  
 2.408000000000000E10    1.549655571579933E-3   1.913823187351227E-3  
 2.410000000000000E10    1.447871560230851E-3  -1.525887637399137E-3  
 2.412000000000000E10   -1.559697207994759E-3  -1.965183764696121E-3  
 2.414000000000000E10   -2.463900949805975E-3   2.459381939843297E-3  
 2.416000000000000E10    3.384005278348923E-3   1.597004360519350E-3  
 2.418000000000000E10    2.338657621294260E-3  -3.223089268431068E-3  
 2.420000000000000E10   -2.689093118533492E-3  -2.510125515982509E-3  
 2.422000000000000E10   -1.729586860165000E-3   2.818246139213443E-3  
 2.424000000000000E10    2.983899321407080E-3   2.165424404665828E-3  
 2.426000000000000E10    1.250005327165127E-3  -2.917603356763721E-3  
 2.428000000000000E10   -2.385111758485436E-3  -6.366439047269523E-4  
 2.430000000000000E10   -1.001802866085200E-5   3.126660594716668E-3  
 2.432000000000000E10    2.527354983612895E-3  -1.346762990579009E-3  
 2.434000000000000E10   -1.281457953155041E-3  -3.182178596034646E-3  
 2.436000000000000E10   -3.301576944068074E-3   2.451793290674686E-3  
 2.438000000000000E10    2.653771778568626E-3   3.405565628781915E-3  
 2.440000000000000E10    4.116671159863472E-3  -2.606271998956800E-3  
 2.442000000000000E10   -3.519475460052490E-3  -3.735573496669531E-3  
 2.444000000000000E10   -3.384881885722280E-3   3.716368461027741E-3  
 2.446000000000000E10    3.395517822355032E-3   3.261315869167447E-3  
 2.448000000000000E10    2.439591102302074E-3  -2.912948839366436E-3  
 2.450000000000000E10   -2.741048811003566E-3  -2.716654213145375E-3  
 2.452000000000000E10   -1.389785204082727E-3   3.099455730989575E-3  
 2.454000000000000E10    2.779856789857149E-3   6.786597659811378E-4  
 2.456000000000000E10    2.195917622884736E-4  -2.589968033134937E-3  
 2.458000000000000E10   -2.711493987590075E-3   1.162343425676227E-3  
 2.460000000000000E10    1.633204403333366E-3   3.236579475924373E-3  
 2.462000000000000E10    4.024031106382608E-3  -1.772458199411631E-3  
 2.464000000000000E10   -2.532676793634892E-3  -3.763711312785745E-3  
 2.466000000000000E10   -4.068681038916111E-3   2.105767605826259E-3  
 2.468000000000000E10    3.170743351802230E-3   4.132840316742659E-3  
 2.470000000000000E10    4.262119997292757E-3  -3.121926216408610E-3  
 2.472000000000000E10   -2.552527934312820E-3  -3.847431624308229E-3  
 2.474000000000000E10   -2.504850504919887E-3   2.375402953475714E-3  
 2.476000000000000E10    2.698433818295598E-3   2.832952886819840E-3  
 2.478000000000000E10    2.100285841152072E-3  -3.154137870296836E-3  
 2.480000000000000E10   -3.197477897629142E-3  -1.402510679326952E-3  
 2.482000000000000E10   -5.784393288195133E-4   3.060296876356006E-3  
 2.484000000000000E10    3.813028102740645E-3  -7.114061736501753E-4  
 2.486000000000000E10   -1.073658932000399E-3  -4.601193126291037E-3  
 2.488000000000000E10   -4.254913423210383E-3   6.686075357720256E-4  
 2.490000000000000E10    1.855183276347816E-3   4.050215240567923E-3  
 2.492000000000000E10    4.891605582088232E-3  -2.353477757424116E-3  
 2.494000000000000E10   -2.170756692066789E-3  -4.711601417511702E-3  
 2.496000000000000E10   -4.432975780218840E-3   2.156111178919673E-3  
 2.498000000000000E10    2.506244229152799E-3   3.240748308598995E-3  
 2.500000000000000E10    2.482576761394739E-3  -2.762122545391321E-3  
 2.502000000000000E10   -3.193461569026113E-3  -2.775240456685424E-3  
 2.504000000000000E10   -1.854465808719397E-3   2.973703434690833E-3  
 2.506000000000000E10    3.122953698039055E-3   5.073731299489737E-4  
 2.508000000000000E10    2.251375008199830E-5  -4.095484502613545E-3  
 2.510000000000000E10   -4.702947568148375E-3  -1.044578493747395E-5  
 2.512000000000000E10    3.023747703991830E-4   4.898477811366320E-3  
 2.514000000000000E10    4.226192831993103E-3  -1.036206609569490E-3  
 2.516000000000000E10   -2.074102405458689E-3  -4.786995705217123E-3  
 2.518000000000000E10   -5.632771179080010E-3   1.725906506180763E-3  
 2.520000000000000E10    1.173553755506873E-3   4.273238591849804E-3  
 2.522000000000000E10    3.500137478113174E-3  -1.675105537287891E-3  
 2.524000000000000E10   -2.371433423832059E-3  -2.887686016038060E-3  
 2.526000000000000E10   -3.071837360039353E-3   2.389487577602267E-3  
 2.528000000000000E10    1.937774010002613E-3   2.726942766457796E-3  
 2.530000000000000E10    8.439642260782421E-4  -1.788091147318482E-3  
 2.532000000000000E10   -4.005884751677513E-3  -3.175016026943922E-4  
 2.534000000000000E10   -9.618979529477656E-4   4.601220600306988E-3  
 2.536000000000000E10    3.911346197128296E-3   4.434931906871498E-4  
 2.538000000000000E10   -1.227070926688612E-3  -4.065884277224541E-3  
 2.540000000000000E10   -4.743045195937157E-3   1.416146056726575E-3  
 2.542000000000000E10    9.325458086095750E-4   4.699097480624914E-3  
 2.544000000000000E10    4.236622713506222E-3  -6.088982918299735E-4  
 2.546000000000000E10   -9.562441846355796E-4  -3.133779857307673E-3  
 2.548000000000000E10   -3.639177186414599E-3   1.751368283294141E-3  
 2.550000000000000E10    2.113798866048455E-3   3.887644736096263E-3  
 2.552000000000000E10    3.078355453908444E-3  -1.967504154890776E-3  
 2.554000000000000E10   -2.855898579582572E-3  -1.741024781949818E-3  
 2.556000000000000E10   -8.206878555938602E-4   3.074650419875979E-3  
 2.558000000000000E10    3.979900851845741E-3   8.050816832110286E-4  
 2.560000000000000E10    3.420954162720591E-4  -4.184089135378599E-3  
 2.562000000000000E10   -3.499225946143270E-3   5.946987657807767E-4  
 2.564000000000000E10    4.301705048419535E-4   4.319378174841404E-3  
 2.566000000000000E10    5.466897040605545E-3  -6.841674912720919E-4  
 2.568000000000000E10   -7.544410182163119E-4  -4.716997500509024E-3  
 2.570000000000000E10   -4.102599807083607E-3   1.130768330767751E-3  
 2.572000000000000E10    1.789250061847270E-3   3.448471659794450E-3  
 2.574000000000000E10    3.567978506907821E-3  -2.686114050447941E-3  
 2.576000000000000E10   -2.237912267446518E-3  -3.350627142935991E-3  
 2.578000000000000E10   -1.800894155167043E-3   2.516398904845119E-3  
 2.580000000000000E10    3.596130292862654E-3   9.266744600608945E-4  
 2.582000000000000E10    9.213128942064941E-4  -4.176687914878130E-3  
 2.584000000000000E10   -4.327770788222551E-3   1.262610749108717E-4  
 2.586000000000000E10    3.139944747090340E-4   4.270873498171568E-3  
 2.588000000000000E10    4.535193089395762E-3  -1.194922486320138E-3  
 2.590000000000000E10   -1.274122274480760E-3  -4.477903712540865E-3  
 2.592000000000000E10   -4.303281195461750E-3   1.073665451258421E-3  
 2.594000000000000E10    1.308710663579404E-3   3.354691900312901E-3  
 2.596000000000000E10    3.392492420971394E-3  -9.693574393168092E-4  
 2.598000000000000E10   -1.163341104984283E-3  -3.099004272371531E-3  
 2.600000000000000E10   -2.439646748825908E-3   1.486468128859997E-3  
 2.602000000000000E10    1.969101373106241E-3   1.988605130463839E-3  
 2.604000000000000E10    1.349589205347002E-3  -2.464108867570758E-3  
 2.606000000000000E10   -2.548561664298177E-3  -7.754011312499642E-4  
 2.608000000000000E10   -3.457446582615376E-4   3.652128390967846E-3  
 2.610000000000000E10    3.732441691681743E-3   2.738678304012865E-4  
 2.612000000000000E10    2.892369811888784E-4  -3.627839498221874E-3  
 2.614000000000000E10   -3.933765459805727E-3   3.908168873749673E-4  
 2.616000000000000E10    6.472600507549942E-4   4.055717960000038E-3  
 2.618000000000000E10    3.964088391512632E-3  -9.777308150660247E-6  
 2.620000000000000E10   -7.914162124507129E-4  -3.788392757996917E-3  
 2.622000000000000E10   -2.983592683449388E-3   1.333307474851608E-3  
 2.624000000000000E10    1.471918192692101E-3   2.461394527927041E-3  
 2.626000000000000E10    1.873848843388259E-3  -2.004975220188499E-3  
 2.628000000000000E10   -2.061062958091497E-3  -1.600854680873454E-3  
 2.630000000000000E10   -7.692771032452583E-4   3.319359850138426E-3  
 2.632000000000000E10    3.443619469180703E-3   7.963729149196297E-5  
 2.634000000000000E10    6.490369560196996E-5  -3.038496943190694E-3  
 2.636000000000000E10   -3.975350875407457E-3   1.619437825866044E-4  
 2.638000000000000E10    5.671050166711211E-4   3.343341173604131E-3  
 2.640000000000000E10    2.733380999416113E-3  -1.492922310717404E-4  
 2.642000000000000E10   -6.164444494061172E-4  -3.309637773782015E-3  
 2.644000000000000E10   -2.622502623125911E-3   8.899844251573086E-4  
 2.646000000000000E10    9.485188056714833E-4   1.668124226853252E-3  
 2.648000000000000E10    1.584800542332232E-3  -1.378886168822646E-3  
 2.650000000000000E10   -1.754929660819471E-3  -1.072805607691407E-3  
 2.652000000000000E10   -9.099491580855101E-5   2.008920069783926E-3  
 2.654000000000000E10    2.335013356059790E-3  -3.793640062212944E-4  
 2.656000000000000E10   -4.861818451900035E-4  -2.897582016885281E-3  
 2.658000000000000E10   -2.748059341683984E-3   7.833977579139173E-4  
 2.660000000000000E10    6.456695264205337E-4   2.485308796167374E-3  
 2.662000000000000E10    2.976266201585531E-3  -1.203724183142185E-3  
 2.664000000000000E10   -1.578089431859553E-4  -3.078986424952745E-3  
 2.666000000000000E10   -2.438007155433297E-3   2.558763371780515E-4  
 2.668000000000000E10    9.914500406011939E-4   1.424387446604669E-3  
 2.670000000000000E10    1.191186835058034E-3  -8.434630581177771E-4  
 2.672000000000000E10   -7.987470598891377E-4  -7.131929742172360E-4  
 2.674000000000000E10   -2.929898328147829E-4   8.322854992002249E-4  
 2.676000000000000E10    1.141061657108367E-3  -5.537389079108834E-4  
 2.678000000000000E10   -3.724418056663126E-4  -1.855847542174161E-3  
 2.680000000000000E10   -2.039005048573017E-3   2.477850939612836E-4  
 2.682000000000000E10    5.464116111397743E-4   1.797438482753933E-3  
 2.684000000000000E10    2.487853402271867E-3  -1.111404853872955E-3  
 2.686000000000000E10   -9.437877452000976E-4  -2.900648862123489E-3  
 2.688000000000000E10   -2.272899961099029E-3   8.908789604902268E-4  
 2.690000000000000E10    8.182770689018071E-4   1.689008902758360E-3  
 2.692000000000000E10    1.473650336265564E-3  -1.302769756875932E-3  
 2.694000000000000E10   -1.060402835719287E-3  -1.110053621232510E-3  
 2.696000000000000E10   -5.352706648409367E-4   1.132493722252548E-3  
 2.698000000000000E10    1.424662070348859E-3  -6.458525313064456E-4  
 2.700000000000000E10   -9.642413351684809E-4  -1.417986699379981E-3  
 2.702000000000000E10   -2.077035838738084E-3   1.493079587817192E-3  
 2.704000000000000E10    1.617750036530197E-3   1.811554073356092E-3  
 2.706000000000000E10    1.926612108945847E-3  -1.510010333731771E-3  
 2.708000000000000E10   -2.225260483101010E-3  -2.434216672554612E-3  
 2.710000000000000E10   -1.894074957817793E-3   1.730506657622755E-3  
 2.712000000000000E10    1.520151738077402E-3   2.233962062746286E-3  
 2.714000000000000E10    1.205695094540715E-3  -1.626465818844736E-3  
 2.716000000000000E10   -1.428710878826678E-3  -4.099193320143968E-4  
 2.718000000000000E10   -7.696553366258740E-4   1.473536482080817E-3  
 2.720000000000000E10    1.346109434962273E-3  -7.928591367090121E-5  
 2.722000000000000E10   -9.980143513530493E-4  -1.351510058157146E-3  
 2.724000000000000E10   -2.007012953981757E-3   1.323551405221224E-3  
 2.726000000000000E10    1.361001166515052E-3   1.576776383444667E-3  
 2.728000000000000E10    1.998079707846046E-3  -1.495400210842490E-3  
 2.730000000000000E10   -2.281556837260723E-3  -2.011949894949794E-3  
 2.732000000000000E10   -1.451480668038130E-3   2.098114928230643E-3  
 2.734000000000000E10    2.179146278649569E-3   2.313352422788739E-3  
 2.736000000000000E10    1.369212521240115E-3  -1.946342177689076E-3  
 2.738000000000000E10   -2.085496904328466E-3  -2.257802989333868E-4  
 2.740000000000000E10   -1.013130415230990E-3   2.158750779926777E-3  
 2.742000000000000E10    1.505843247286975E-3   8.460594108328223E-5  
 2.744000000000000E10   -2.930430346168578E-4  -1.638479763641954E-3  
 2.746000000000000E10   -1.772667979821563E-3   1.113192643970251E-3  
 2.748000000000000E10    1.482885912992060E-3   1.564528443850577E-3  
 2.750000000000000E10    2.757446607574821E-3  -1.886690850369632E-3  
 2.752000000000000E10   -2.025929745286703E-3  -1.684008282609284E-3  
 2.754000000000000E10   -1.891846419312060E-3   2.544987946748734E-3  
 2.756000000000000E10    2.566994400694966E-3   2.368438756093383E-3  
