#  HZ   S   RI   R     50.00 
! Rohde & Schwarz ZVA40 4Ports - Version 3.90 - 1145.1110k42 SN: 100403
! Date: 2023-10-04 10:30:36
! Measurement: S12 
! 
 2.200000000000000E10   -1.643487950786948E-3   6.480740848928690E-4  
 2.202000000000000E10    7.654083892703056E-4   1.384902163408697E-3  
 2.204000000000000E10    8.445090497843921E-4  -1.168356393463910E-3  
 2.206000000000000E10   -2.573388395830989E-3  -6.646696710959077E-4  
 2.208000000000000E10   -3.244291001465172E-4   2.723364159464836E-3  
 2.210000000000000E10    3.195368684828281E-3   1.964863040484488E-4  
 2.212000000000000E10   -1.607668586075306E-3  -3.924052696675062E-3  
 2.214000000000000E10   -4.054418765008450E-3   2.327509224414825E-3  
 2.216000000000000E10    3.170202020555735E-3   4.475322552025318E-3  
 2.218000000000000E10    3.983343951404095E-3  -4.035755060613155E-3  
 2.220000000000000E10   -4.835805855691433E-3  -2.854936290532351E-3  
 2.222000000000000E10   -2.177023794502020E-3   6.046519149094820E-3  
 2.224000000000000E10    6.134791299700737E-3   1.256426214240491E-3  
 2.226000000000000E10   -5.916169611737132E-4  -5.739342886954546E-3  
 2.228000000000000E10   -6.131620146334171E-3   2.696048235520721E-3  
 2.230000000000000E10    3.368910634890199E-3   5.711741279810667E-3  
 2.232000000000000E10    5.235034041106701E-3  -3.835584735497832E-3  
 2.234000000000000E10   -6.066103931516409E-3  -4.277649335563183E-3  
 2.236000000000000E10   -3.398694563657045E-3   6.106177344918251E-3  
 2.238000000000000E10    6.621601991355419E-3   3.672715509310365E-3  
 2.240000000000000E10    2.394206356257200E-3  -6.967219524085522E-3  
 2.242000000000000E10   -6.838885601609945E-3  -1.935382140800357E-3  
 2.244000000000000E10   -3.722961992025375E-4   7.554258685559034E-3  
 2.246000000000000E10    6.881728768348694E-3  -5.802986561320722E-4  
 2.248000000000000E10   -9.280131780542433E-4  -6.840957328677177E-3  
 2.250000000000000E10   -6.165993865579367E-3   3.161533735692501E-3  
 2.252000000000000E10    4.529354162514210E-3   5.178546998649836E-3  
 2.254000000000000E10    5.822340026497841E-3  -4.255167674273253E-3  
 2.256000000000000E10   -5.654453299939632E-3  -5.028273444622755E-3  
 2.258000000000000E10   -3.570178756490350E-3   6.282792892307043E-3  
 2.260000000000000E10    7.382290437817574E-3   3.592620370909572E-3  
 2.262000000000000E10    3.169297706335783E-3  -7.472426630556583E-3  
 2.264000000000000E10   -7.076507899910212E-3  -2.477836096659303E-3  
 2.266000000000000E10   -8.234364213421941E-4   7.137998938560486E-3  
 2.268000000000000E10    7.742663845419884E-3   5.119490670040250E-4  
 2.270000000000000E10   -8.435276686213911E-5  -7.102720439434052E-3  
 2.272000000000000E10   -6.137836258858442E-3   7.269361522048712E-4  
 2.274000000000000E10    2.302089706063271E-3   5.771313328295946E-3  
 2.276000000000000E10    6.189459003508091E-3  -3.678141627460718E-3  
 2.278000000000000E10   -3.891089698299766E-3  -5.721849855035543E-3  
 2.280000000000000E10   -4.647406283766031E-3   5.040983203798533E-3  
 2.282000000000000E10    2.850989345461130E-3   6.780472584068775E-3  
 2.284000000000000E10    4.227844066917896E-3  -6.800183095037937E-3  
 2.286000000000000E10   -7.000111509114504E-3  -3.772262716665864E-3  
 2.288000000000000E10   -3.276462201029062E-3   7.144372444599867E-3  
 2.290000000000000E10    7.429156452417374E-3   2.446687314659357E-3  
 2.292000000000000E10    2.240857109427452E-3  -7.291719783097506E-3  
 2.294000000000000E10   -7.537932135164738E-3  -1.247866661287844E-3  
 2.296000000000000E10    2.420411037746817E-4   6.642843596637249E-3  
 2.298000000000000E10    7.146866060793400E-3  -7.980119553394616E-4  
 2.300000000000000E10   -1.930956961587071E-3  -6.864008959382772E-3  
 2.302000000000000E10   -6.280214991420507E-3   3.755398327484727E-3  
 2.304000000000000E10    4.440456628799439E-3   5.837481934577227E-3  
 2.306000000000000E10    4.759877454489470E-3  -5.495849065482616E-3  
 2.308000000000000E10   -6.011771969497204E-3  -4.983037244528532E-3  
 2.310000000000000E10   -4.929536022245884E-3   6.509836297482252E-3  
 2.312000000000000E10    7.351868785917759E-3   3.662868868559599E-3  
 2.314000000000000E10    3.601956414058805E-3  -7.637751288712025E-3  
 2.316000000000000E10   -7.215654477477074E-3  -2.564711961895227E-3  
 2.318000000000000E10   -1.500221434980631E-3   7.409851066768169E-3  
 2.320000000000000E10    7.428885903209448E-3   9.977309964597225E-4  
 2.322000000000000E10   -3.699331427924335E-4  -6.649076938629150E-3  
 2.324000000000000E10   -7.128871977329254E-3   1.648174715228379E-3  
 2.326000000000000E10    2.085086656734347E-3   6.829820573329926E-3  
 2.328000000000000E10    6.487339269369841E-3  -4.176680464297533E-3  
 2.330000000000000E10   -5.599499680101872E-3  -6.461420096457005E-3  
 2.332000000000000E10   -5.702867172658444E-3   6.036930251866579E-3  
 2.334000000000000E10    6.601781584322453E-3   5.306717474013567E-3  
 2.336000000000000E10    5.068473983556032E-3  -7.245391141623259E-3  
 2.338000000000000E10   -7.709172088652849E-3  -3.769137198105454E-3  
 2.340000000000000E10   -3.715303260833025E-3   8.045438677072525E-3  
 2.342000000000000E10    7.575914729386568E-3   2.937654033303261E-3  
 2.344000000000000E10    1.155704841949046E-3  -7.214121520519257E-3  
 2.346000000000000E10   -7.827882654964924E-3  -1.155706821009517E-3  
 2.348000000000000E10    4.083397507201880E-4   6.862538401037455E-3  
 2.350000000000000E10    6.045110989362001E-3  -1.743427594192326E-3  
 2.352000000000000E10   -3.093831939622760E-3  -6.309751886874437E-3  
 2.354000000000000E10   -5.726832430809736E-3   3.849747125059366E-3  
 2.356000000000000E10    4.428347572684288E-3   5.860363598912954E-3  
 2.358000000000000E10    5.940305069088936E-3  -5.505816545337439E-3  
 2.360000000000000E10   -6.799198221415281E-3  -4.973393399268389E-3  
 2.362000000000000E10   -5.182438530027866E-3   7.848708890378475E-3  
 2.364000000000000E10    7.454229984432459E-3   4.537852015346289E-3  
 2.366000000000000E10    2.900318708270788E-3  -7.435136474668980E-3  
 2.368000000000000E10   -7.761023938655853E-3  -2.771145431324840E-3  
 2.370000000000000E10   -1.883254037238658E-3   7.555862423032522E-3  
 2.372000000000000E10    6.867332383990288E-3   7.506120600737631E-4  
 2.374000000000000E10   -2.047504494839814E-5  -7.147799246013165E-3  
 2.376000000000000E10   -6.725933402776718E-3   1.339836744591594E-3  
 2.378000000000000E10    2.408060478046536E-3   6.544895004481077E-3  
 2.380000000000000E10    6.438769400119782E-3  -3.747465554624796E-3  
 2.382000000000000E10   -4.682043101638556E-3  -6.152474321424961E-3  
 2.384000000000000E10   -6.661341991275549E-3   5.624417215585709E-3  
 2.386000000000000E10    6.591594312340021E-3   6.246379576623440E-3  
 2.388000000000000E10    5.318839102983475E-3  -7.148309610784054E-3  
 2.390000000000000E10   -8.038869127631187E-3  -5.159351509064436E-3  
 2.392000000000000E10   -4.366746637970209E-3   8.105169050395489E-3  
 2.394000000000000E10    7.862555794417858E-3   3.101997077465057E-3  
 2.396000000000000E10    2.163662808015943E-3  -8.415852673351765E-3  
 2.398000000000000E10   -8.102416060864925E-3  -3.913233231287450E-4  
 2.400000000000000E10    6.833931547589600E-4   7.907353341579437E-3  
 2.402000000000000E10    7.324974052608013E-3  -2.727467333897948E-3  
 2.404000000000000E10   -4.044984932988882E-3  -5.895543377846479E-3  
 2.406000000000000E10   -6.031363271176815E-3   5.227554123848677E-3  
 2.408000000000000E10    5.939187947660685E-3   6.272618658840656E-3  
 2.410000000000000E10    4.816832952201366E-3  -6.106609478592873E-3  
 2.412000000000000E10   -6.952335592359304E-3  -5.034621339291334E-3  
 2.414000000000000E10   -5.332509055733681E-3   7.516798097640276E-3  
 2.416000000000000E10    8.013414219021797E-3   4.224848002195358E-3  
 2.418000000000000E10    3.762817243114114E-3  -8.063106797635555E-3  
 2.420000000000000E10   -7.529517635703087E-3  -2.071494469419122E-3  
 2.422000000000000E10   -1.783868181519210E-3   7.669395301491022E-3  
 2.424000000000000E10    7.677086628973484E-3   1.117535401135683E-3  
 2.426000000000000E10   -5.239309393800795E-4  -6.837404798716307E-3  
 2.428000000000000E10   -7.875754497945309E-3   1.366577227599919E-3  
 2.430000000000000E10    2.984098857268691E-3   7.642609998583794E-3  
 2.432000000000000E10    6.960608065128326E-3  -3.579257754608989E-3  
 2.434000000000000E10   -5.336687900125980E-3  -7.211785297840834E-3  
 2.436000000000000E10   -6.198451388627291E-3   6.102178245782852E-3  
 2.438000000000000E10    5.817312747240067E-3   6.273664999753237E-3  
 2.440000000000000E10    6.155447568744421E-3  -6.882025860249996E-3  
 2.442000000000000E10   -6.662390194833279E-3  -5.418976768851280E-3  
 2.444000000000000E10   -4.751826636493206E-3   7.358402013778687E-3  
 2.446000000000000E10    7.282283622771502E-3   3.272161819040775E-3  
 2.448000000000000E10    2.587871858850122E-3  -6.668507587164640E-3  
 2.450000000000000E10   -7.349564228206873E-3  -1.309416140429676E-3  
 2.452000000000000E10   -2.076327364193276E-4   6.976045202463865E-3  
 2.454000000000000E10    7.366300560534000E-3  -6.850517238490284E-4  
 2.456000000000000E10   -2.153049688786268E-3  -7.326674647629261E-3  
 2.458000000000000E10   -7.376035675406456E-3   3.194831777364016E-3  
 2.460000000000000E10    4.096672404557467E-3   7.670586928725243E-3  
 2.462000000000000E10    7.363320328295231E-3  -5.068047437816858E-3  
 2.464000000000000E10   -5.055758170783520E-3  -6.921839900314808E-3  
 2.466000000000000E10   -6.718828808516264E-3   6.255324929952622E-3  
 2.468000000000000E10    6.946191191673279E-3   6.606467999517918E-3  
 2.470000000000000E10    6.190950982272625E-3  -6.668083835393190E-3  
 2.472000000000000E10   -6.918283179402351E-3  -3.821864491328597E-3  
 2.474000000000000E10   -2.853072481229901E-3   6.581509951502085E-3  
 2.476000000000000E10    7.021825760602951E-3   1.894039683975279E-3  
 2.478000000000000E10    7.498161867260933E-4  -7.109382655471563E-3  
 2.480000000000000E10   -6.510835606604815E-3   2.764282980933785E-4  
 2.482000000000000E10    1.852727960795164E-3   6.994562689214945E-3  
 2.484000000000000E10    8.070707321166992E-3  -2.927481429651380E-3  
 2.486000000000000E10   -3.245412372052670E-3  -8.008255623281002E-3  
 2.488000000000000E10   -6.445581559091806E-3   4.693644586950541E-3  
 2.490000000000000E10    5.493990611284971E-3   6.742164958268404E-3  
 2.492000000000000E10    6.776766385883093E-3  -5.429871845990419E-3  
 2.494000000000000E10   -5.432601086795330E-3  -6.477882154285908E-3  
 2.496000000000000E10   -5.292977206408978E-3   6.181053817272186E-3  
 2.498000000000000E10    6.511617917567492E-3   4.369258880615234E-3  
 2.500000000000000E10    4.125449340790510E-3  -7.167764473706484E-3  
 2.502000000000000E10   -7.033769972622395E-3  -2.655609045177698E-3  
 2.504000000000000E10   -7.990509038791060E-4   7.218488026410341E-3  
 2.506000000000000E10    6.882263347506523E-3  -5.019978270865977E-4  
 2.508000000000000E10   -6.611077697016299E-4  -7.542584091424942E-3  
 2.510000000000000E10   -8.033321239054203E-3   1.332537736743689E-3  
 2.512000000000000E10    2.306196372956038E-3   7.284700870513916E-3  
 2.514000000000000E10    7.927139289677143E-3  -3.609957173466682E-3  
 2.516000000000000E10   -4.148930776864290E-3  -8.782165125012398E-3  
 2.518000000000000E10   -7.632691878825426E-3   3.891683416441083E-3  
 2.520000000000000E10    5.136221647262573E-3   6.361148785799742E-3  
 2.522000000000000E10    6.023790221661329E-3  -6.168148946017027E-3  
 2.524000000000000E10   -6.109044887125492E-3  -5.306573119014502E-3  
 2.526000000000000E10   -4.399167839437723E-3   6.545576732605696E-3  
 2.528000000000000E10    6.428860127925873E-3   2.185777993872762E-3  
 2.530000000000000E10    1.054296968504787E-3  -7.781872991472483E-3  
 2.532000000000000E10   -9.010055102407932E-3  -1.846587401814759E-4  
 2.534000000000000E10    4.726959450636059E-4   7.753279991447926E-3  
 2.536000000000000E10    7.869559340178967E-3  -2.746610902249813E-3  
 2.538000000000000E10   -3.899827133864164E-3  -8.444220758974552E-3  
 2.540000000000000E10   -8.368816226720810E-3   3.673259634524584E-3  
 2.542000000000000E10    3.960906993597746E-3   7.865481078624725E-3  
 2.544000000000000E10    6.229524035006762E-3  -5.060045048594475E-3  
 2.546000000000000E10   -5.778412334620953E-3  -6.493919063359499E-3  
 2.548000000000000E10   -6.335047073662281E-3   6.013036705553532E-3  
 2.550000000000000E10    5.406723823398352E-3   4.692756570875645E-3  
 2.552000000000000E10    3.134719096124172E-3  -6.971112918108702E-3  
 2.554000000000000E10   -7.743670139461756E-3  -1.795298885554075E-3  
 2.556000000000000E10   -9.704091935418546E-4   7.559324149042368E-3  
 2.558000000000000E10    7.352223154157400E-3  -2.242035843664780E-4  
 2.560000000000000E10   -1.779268612153828E-3  -7.199292536824942E-3  
 2.562000000000000E10   -7.966417819261551E-3   2.876102691516280E-3  
 2.564000000000000E10    2.831875346601009E-3   8.624730631709099E-3  
 2.566000000000000E10    8.128786459565163E-3  -4.010439384728670E-3  
 2.568000000000000E10   -5.202889908105135E-3  -7.734334561973810E-3  
 2.570000000000000E10   -6.190490443259478E-3   6.597260944545269E-3  
 2.572000000000000E10    6.762451492249966E-3   5.778131540864706E-3  
 2.574000000000000E10    5.483593791723251E-3  -6.566389929503202E-3  
 2.576000000000000E10   -7.066181395202875E-3  -3.160985186696053E-3  
 2.578000000000000E10   -1.426119357347488E-3   7.797001861035824E-3  
 2.580000000000000E10    7.812868803739548E-3   1.023788354359567E-3  
 2.582000000000000E10   -3.256362688262016E-4  -8.042207919061184E-3  
 2.584000000000000E10   -8.272109553217888E-3   1.640034024603665E-3  
 2.586000000000000E10    3.441095119342208E-3   8.234278298914433E-3  
 2.588000000000000E10    8.066052570939064E-3  -4.334393888711929E-3  
 2.590000000000000E10   -3.752033691853285E-3  -7.541364524513483E-3  
 2.592000000000000E10   -6.474726833403111E-3   4.889015574008226E-3  
 2.594000000000000E10    5.881532095372677E-3   6.655723787844181E-3  
 2.596000000000000E10    6.476931739598513E-3  -5.103809759020805E-3  
 2.598000000000000E10   -5.588965024799109E-3  -5.200779065489769E-3  
 2.600000000000000E10   -4.539784975349903E-3   6.311699748039246E-3  
 2.602000000000000E10    7.135489955544472E-3   3.391246078535914E-3  
 2.604000000000000E10    1.802195096388459E-3  -7.597463205456734E-3  
 2.606000000000000E10   -7.711183745414019E-3  -9.564977372065187E-4  
 2.608000000000000E10    1.104592229239643E-3   7.574261166155338E-3  
 2.610000000000000E10    8.234482258558273E-3  -1.691896817646921E-3  
 2.612000000000000E10   -1.932727172970772E-3  -8.497173897922039E-3  
 2.614000000000000E10   -8.363384753465653E-3   3.353922395035625E-3  
 2.616000000000000E10    4.021441098302603E-3   8.155213668942452E-3  
 2.618000000000000E10    7.947204634547234E-3  -4.779116250574589E-3  
 2.620000000000000E10   -6.308759562671185E-3  -7.225308567285538E-3  
 2.622000000000000E10   -5.881836637854576E-3   5.573870614171028E-3  
 2.624000000000000E10    5.931442603468895E-3   4.649662412703037E-3  
 2.626000000000000E10    3.958202898502350E-3  -6.529963575303555E-3  
 2.628000000000000E10   -6.730616558343172E-3  -3.161200089380145E-3  
 2.630000000000000E10   -1.855024485848844E-3   7.476618047803640E-3  
 2.632000000000000E10    7.615894544869661E-3   6.049966905266047E-4  
 2.634000000000000E10   -1.029424718581140E-3  -8.211554028093815E-3  
 2.636000000000000E10   -8.299360051751137E-3   1.928200479596853E-3  
 2.638000000000000E10    2.194980159401894E-3   8.061917498707771E-3  
 2.640000000000000E10    7.754624821245670E-3  -3.172893077135086E-3  
 2.642000000000000E10   -3.682372393086553E-3  -7.694294676184654E-3  
 2.644000000000000E10   -7.391908671706915E-3   4.367395769804716E-3  
 2.646000000000000E10    5.161517765372992E-3   6.700548343360424E-3  
 2.648000000000000E10    6.243964191526175E-3  -5.140979308634996E-3  
 2.650000000000000E10   -6.374310702085495E-3  -4.600759129971266E-3  
 2.652000000000000E10   -3.386416239663959E-3   7.083324715495110E-3  
 2.654000000000000E10    7.425860501825810E-3   2.024394925683737E-3  
 2.656000000000000E10    3.203646338079125E-4  -7.513459306210280E-3  
 2.658000000000000E10   -7.384891621768475E-3   1.306573278270662E-3  
 2.660000000000000E10    1.872122636996210E-3   7.826946675777435E-3  
 2.662000000000000E10    8.068840950727463E-3  -2.597253769636154E-3  
 2.664000000000000E10   -3.479277249425650E-3  -7.595388218760490E-3  
 2.666000000000000E10   -7.102770265191793E-3   4.688879940658808E-3  
 2.668000000000000E10    5.016623530536890E-3   7.037892471998930E-3  
 2.670000000000000E10    6.348439957946539E-3  -4.856000188738108E-3  
 2.672000000000000E10   -5.010396707803011E-3  -5.104697775095701E-3  
 2.674000000000000E10   -3.938583657145500E-3   5.732260644435883E-3  
 2.676000000000000E10    6.185435689985752E-3   3.502967068925500E-3  
 2.678000000000000E10    2.669282257556915E-3  -6.090173963457346E-3  
 2.680000000000000E10   -6.093077361583710E-3  -1.362592913210392E-3  
 2.682000000000000E10    1.202212006319314E-4   6.527186371386051E-3  
 2.684000000000000E10    7.273819763213396E-3  -6.443983293138444E-4  
 2.686000000000000E10   -1.803637365810573E-3  -6.983136292546988E-3  
 2.688000000000000E10   -6.454328540712595E-3   2.629695460200310E-3  
 2.690000000000000E10    3.183880588039756E-3   7.145849987864494E-3  
 2.692000000000000E10    6.765858270227909E-3  -3.620004514232278E-3  
 2.694000000000000E10   -3.864420345053077E-3  -6.246790289878845E-3  
 2.696000000000000E10   -5.261780694127083E-3   4.595995415002108E-3  
 2.698000000000000E10    4.346372559666634E-3   4.812445957213640E-3  
 2.700000000000000E10    3.918575588613749E-3  -5.179237108677626E-3  
 2.702000000000000E10   -5.357007961720228E-3  -3.001972567290068E-3  
 2.704000000000000E10   -1.897100126370788E-3   5.395002663135529E-3  
 2.706000000000000E10    5.773633718490601E-3   2.273926802445203E-4  
 2.708000000000000E10   -6.910509546287358E-5  -5.926619749516249E-3  
 2.710000000000000E10   -6.101389415562153E-3   3.274240007158369E-4  
 2.712000000000000E10    1.852085464634001E-3   6.390507798641920E-3  
 2.714000000000000E10    6.314788945019245E-3  -2.090501831844449E-3  
 2.716000000000000E10   -2.794422209262848E-3  -6.737436167895794E-3  
 2.718000000000000E10   -6.459773518145084E-3   2.819108776748180E-3  
 2.720000000000000E10    2.828611759468913E-3   5.821575876325369E-3  
 2.722000000000000E10    5.335790105164051E-3  -4.385900683701038E-3  
 2.724000000000000E10   -4.282888490706682E-3  -5.355964414775372E-3  
 2.726000000000000E10   -4.088718909770250E-3   4.451184999197722E-3  
 2.728000000000000E10    5.754099227488041E-3   2.369507215917110E-3  
 2.730000000000000E10    1.949065364897251E-3  -5.725616123527288E-3  
 2.732000000000000E10   -6.372765637934208E-3  -8.145668543875217E-4  
 2.734000000000000E10    2.872866170946509E-4   5.968688521534205E-3  
 2.736000000000000E10    6.298361346125603E-3  -1.276924274861813E-3  
 2.738000000000000E10   -2.083245664834976E-3  -6.958033889532089E-3  
 2.740000000000000E10   -6.268231663852930E-3   2.303817309439182E-3  
 2.742000000000000E10    2.817372325807810E-3   5.716701969504356E-3  
 2.744000000000000E10    5.648313090205193E-3  -3.686487907543778E-3  
 2.746000000000000E10   -3.207179019227624E-3  -5.396686028689146E-3  
 2.748000000000000E10   -4.430024418979883E-3   3.749582916498184E-3  
 2.750000000000000E10    3.544208826497197E-3   3.390299389138818E-3  
 2.752000000000000E10    3.226114204153419E-3  -3.709364216774702E-3  
 2.754000000000000E10   -5.025124177336693E-3  -2.364679938182235E-3  
 2.756000000000000E10   -2.143752295523882E-3   4.602334927767515E-3  
