#  HZ   S   RI   R     50.00 
! Rohde & Schwarz ZVA40 4Ports - Version 3.90 - 1145.1110k42 SN: 100403
! Date: 2023-10-04 10:32:16
! Measurement: S12 
! 
 2.200000000000000E10    1.382167218253017E-3   2.208366757258773E-3  
 2.202000000000000E10    3.089899430051446E-3  -1.014947192743421E-3  
 2.204000000000000E10   -1.781428116373718E-3  -3.070394508540630E-3  
 2.206000000000000E10   -2.020055195316672E-3   1.572125125676394E-3  
 2.208000000000000E10    2.843450056388974E-3   2.920315368101001E-3  
 2.210000000000000E10    2.738467184826732E-3  -4.020012915134430E-3  
 2.212000000000000E10   -4.148923791944981E-3  -3.050245577469468E-3  
 2.214000000000000E10   -2.209621947258711E-3   5.423252005130053E-3  
 2.216000000000000E10    7.057249546051025E-3   6.851399666629732E-4  
 2.218000000000000E10    1.051277358783409E-4  -7.850936613976955E-3  
 2.220000000000000E10   -7.868084125220776E-3   7.212244672700763E-4  
 2.222000000000000E10    1.926717930473387E-3   7.190462667495012E-3  
 2.224000000000000E10    7.840271107852459E-3  -3.708599833771586E-3  
 2.226000000000000E10   -5.222202744334936E-3  -7.095899432897568E-3  
 2.228000000000000E10   -6.385711487382650E-3   5.428574513643980E-3  
 2.230000000000000E10    7.094966247677803E-3   4.698551725596190E-3  
 2.232000000000000E10    3.068208228796721E-3  -8.408445864915848E-3  
 2.234000000000000E10   -8.950831368565559E-3  -2.916122786700726E-3  
 2.236000000000000E10   -9.101578034460545E-4   9.265627712011337E-3  
 2.238000000000000E10    8.989186026155949E-3  -4.070326394867152E-5  
 2.240000000000000E10   -1.382158021442592E-3  -1.064642705023289E-2  
 2.242000000000000E10   -1.020297501236200E-2   2.854222664609551E-3  
 2.244000000000000E10    3.121395129710436E-3   9.864818304777145E-3  
 2.246000000000000E10    8.880086243152618E-3  -4.892999771982431E-3  
 2.248000000000000E10   -6.516502704471350E-3  -8.071080781519413E-3  
 2.250000000000000E10   -7.629272527992725E-3   7.422732189297676E-3  
 2.252000000000000E10    7.433359045535326E-3   5.552632734179497E-3  
 2.254000000000000E10    4.013841971755028E-3  -7.730002515017986E-3  
 2.256000000000000E10   -9.963860735297203E-3  -3.008841304108501E-3  
 2.258000000000000E10   -1.737115671858192E-3   9.462033398449421E-3  
 2.260000000000000E10    8.925756439566612E-3   1.565385609865189E-3  
 2.262000000000000E10   -1.347040059044957E-3  -9.972560219466686E-3  
 2.264000000000000E10   -1.015119627118111E-2   1.983208814635873E-3  
 2.266000000000000E10    2.254040213301778E-3   1.080888416618109E-2  
 2.268000000000000E10    9.525092318654060E-3  -3.537598531693220E-3  
 2.270000000000000E10   -4.554096609354019E-3  -8.737186901271343E-3  
 2.272000000000000E10   -8.720593526959419E-3   5.883210338652134E-3  
 2.274000000000000E10    5.815925076603890E-3   8.428909815847874E-3  
 2.276000000000000E10    6.990416441112757E-3  -6.372279953211546E-3  
 2.278000000000000E10   -7.936001755297184E-3  -5.631245207041502E-3  
 2.280000000000000E10   -4.738584626466036E-3   9.008874185383320E-3  
 2.282000000000000E10    5.309056024998426E-3   7.804876193404198E-3  
 2.284000000000000E10    2.206795150414109E-3  -9.811991825699806E-3  
 2.286000000000000E10   -1.023359782993794E-2  -3.769688191823661E-4  
 2.288000000000000E10    3.360026166774333E-4   1.053826138377190E-2  
 2.290000000000000E10    1.097144000232220E-2  -1.188731053844094E-3  
 2.292000000000000E10   -2.241110196337104E-3  -9.981491602957249E-3  
 2.294000000000000E10   -1.013155374675989E-2   3.929507452994585E-3  
 2.296000000000000E10    4.371801391243935E-3   9.723688475787640E-3  
 2.298000000000000E10    8.628757670521736E-3  -4.956506192684174E-3  
 2.300000000000000E10   -6.257376633584499E-3  -7.664438802748919E-3  
 2.302000000000000E10   -6.698383018374443E-3   7.377103902399540E-3  
 2.304000000000000E10    8.340808562934399E-3   4.735791590064764E-3  
 2.306000000000000E10    4.350842908024788E-3  -8.452637121081352E-3  
 2.308000000000000E10   -8.683006279170513E-3  -3.479557344689965E-3  
 2.310000000000000E10   -1.419147360138595E-3   1.011807657778263E-2  
 2.312000000000000E10    1.126954890787602E-2   3.695601189974695E-4  
 2.314000000000000E10   -6.366504239849746E-4  -1.091811247169972E-2  
 2.316000000000000E10   -1.089491043239832E-2   1.781469443812966E-3  
 2.318000000000000E10    3.450259333476424E-3   1.089466921985149E-2  
 2.320000000000000E10    9.841524995863438E-3  -3.753516590222716E-3  
 2.322000000000000E10   -4.149681888520718E-3  -1.023357640951872E-2  
 2.324000000000000E10   -8.859315887093544E-3   5.063320975750685E-3  
 2.326000000000000E10    6.146964151412249E-3   8.017712272703648E-3  
 2.328000000000000E10    7.872556336224079E-3  -8.205343969166279E-3  
 2.330000000000000E10   -8.253048174083233E-3  -5.339019931852818E-3  
 2.332000000000000E10   -3.362311748787761E-3   8.973528631031513E-3  
 2.334000000000000E10    9.908707812428474E-3   2.092170761898160E-3  
 2.336000000000000E10    1.249784603714943E-3  -9.851560927927494E-3  
 2.338000000000000E10   -1.043590530753136E-2  -2.494506188668311E-4  
 2.340000000000000E10    1.380076981149614E-3   1.071493607014418E-2  
 2.342000000000000E10    1.101736631244421E-2  -2.284593880176544E-3  
 2.344000000000000E10   -3.428659634664655E-3  -1.141322031617165E-2  
 2.346000000000000E10   -1.013250835239887E-2   4.341592546552420E-3  
 2.348000000000000E10    5.317716393619776E-3   9.358590468764305E-3  
 2.350000000000000E10    8.600908331573010E-3  -6.594304461032152E-3  
 2.352000000000000E10   -6.745720747858286E-3  -7.606357801705599E-3  
 2.354000000000000E10   -6.101207807660103E-3   7.609931752085686E-3  
 2.356000000000000E10    7.919909432530403E-3   4.687338601797819E-3  
 2.358000000000000E10    4.313987679779530E-3  -9.158463217318058E-3  
 2.360000000000000E10   -9.938663803040981E-3  -2.382265171036124E-3  
 2.362000000000000E10   -6.659706123173237E-4   1.006685290485621E-2  
 2.364000000000000E10    1.056926790624857E-2  -7.060904172249138E-4  
 2.366000000000000E10   -2.064710017293692E-3  -1.113660354167223E-2  
 2.368000000000000E10   -9.705704636871815E-3   2.960665151476860E-3  
 2.370000000000000E10    4.034138284623623E-3   9.839491918683052E-3  
 2.372000000000000E10    9.682411327958107E-3  -4.751262255012989E-3  
 2.374000000000000E10   -4.752133972942829E-3  -9.097105823457241E-3  
 2.376000000000000E10   -8.381665684282780E-3   5.821643862873316E-3  
 2.378000000000000E10    7.065910380333662E-3   7.443308364599943E-3  
 2.380000000000000E10    6.387170404195786E-3  -7.635401096194983E-3  
 2.382000000000000E10   -8.739606477320194E-3  -4.801460076123476E-3  
 2.384000000000000E10   -3.556538606062532E-3   9.441622532904148E-3  
 2.386000000000000E10    9.798686951398850E-3   2.081824932247400E-3  
 2.388000000000000E10    1.005091704428196E-3  -1.064605358988047E-2  
 2.390000000000000E10   -1.140163280069828E-2   5.347747355699539E-4  
 2.392000000000000E10    2.167007653042674E-3   1.128444075584412E-2  
 2.394000000000000E10    1.160458475351334E-2  -2.811166225001216E-3  
 2.396000000000000E10   -3.749115625396371E-3  -1.098320726305246E-2  
 2.398000000000000E10   -1.060697529464960E-2   5.168078467249870E-3  
 2.400000000000000E10    5.845768842846155E-3   9.290669113397598E-3  
 2.402000000000000E10    7.693574763834477E-3  -7.349102757871151E-3  
 2.404000000000000E10   -7.895708084106445E-3  -6.500488147139549E-3  
 2.406000000000000E10   -5.597754847258329E-3   8.376582525670528E-3  
 2.408000000000000E10    9.482175111770630E-3   3.671962302178145E-3  
 2.410000000000000E10    2.118635922670364E-3  -9.704635478556156E-3  
 2.412000000000000E10   -1.022434141486883E-2  -1.217938493937254E-3  
 2.414000000000000E10    3.463093598838896E-4   1.079312711954117E-2  
 2.416000000000000E10    1.082175504416227E-2  -1.572166336700320E-3  
 2.418000000000000E10   -2.306987531483173E-3  -1.108574587851763E-2  
 2.420000000000000E10   -1.091089379042387E-2   3.562355414032936E-3  
 2.422000000000000E10    4.273082595318556E-3   1.032108347862959E-2  
 2.424000000000000E10    1.065536774694920E-2  -4.780652001500130E-3  
 2.426000000000000E10   -5.465121008455753E-3  -9.596813470125198E-3  
 2.428000000000000E10   -8.207361213862896E-3   5.941342096775770E-3  
 2.430000000000000E10    7.089375052601099E-3   7.856996729969978E-3  
 2.432000000000000E10    5.853999871760607E-3  -7.955759763717651E-3  
 2.434000000000000E10   -8.799342438578606E-3  -5.275306757539511E-3  
 2.436000000000000E10   -3.070516744628549E-3   9.231205098330975E-3  
 2.438000000000000E10    9.644843637943268E-3   1.135611208155751E-3  
 2.440000000000000E10    1.079109380953014E-3  -1.060188375413418E-2  
 2.442000000000000E10   -1.098397374153137E-2   2.698648604564369E-4  
 2.444000000000000E10    1.720967818982899E-3   1.067532785236836E-2  
 2.446000000000000E10    1.098668295890093E-2  -2.486156066879630E-3  
 2.448000000000000E10   -3.531234804540873E-3  -1.050570420920849E-2  
 2.450000000000000E10   -1.020016148686409E-2   3.397426102310419E-3  
 2.452000000000000E10    4.836312495172024E-3   9.776653721928597E-3  
 2.454000000000000E10    8.466760627925396E-3  -5.822650156915188E-3  
 2.456000000000000E10   -5.611755885183811E-3  -8.157652802765369E-3  
 2.458000000000000E10   -7.029718719422817E-3   6.585775874555111E-3  
 2.460000000000000E10    7.849118672311306E-3   5.406922195106745E-3  
 2.462000000000000E10    4.911254160106182E-3  -8.990119211375713E-3  
 2.464000000000000E10   -9.530691429972649E-3  -3.001091536134481E-3  
 2.466000000000000E10   -3.001436591148377E-3   1.011344138532877E-2  
 2.468000000000000E10    1.132285501807928E-2   1.069311867468059E-3  
 2.470000000000000E10   -9.911743691191077E-4  -1.162965875118971E-2  
 2.472000000000000E10   -1.170770172029734E-2   1.557027571834624E-3  
 2.474000000000000E10    2.352776005864143E-3   1.071257609874010E-2  
 2.476000000000000E10    1.009993348270655E-2  -3.366500837728381E-3  
 2.478000000000000E10   -4.406623076647520E-3  -9.647463448345661E-3  
 2.480000000000000E10   -9.028690867125988E-3   5.156630184501410E-3  
 2.482000000000000E10    5.423394963145256E-3   8.102204650640488E-3  
 2.484000000000000E10    6.649263668805361E-3  -6.653686519712210E-3  
 2.486000000000000E10   -8.748662658035755E-3  -5.343183875083923E-3  
 2.488000000000000E10   -4.364464432001114E-3   8.616658858954907E-3  
 2.490000000000000E10    8.324746042490006E-3   2.719405107200146E-3  
 2.492000000000000E10    1.558987423777580E-3  -9.822642430663109E-3  
 2.494000000000000E10   -1.052903570234776E-2  -1.387244556099176E-3  
 2.496000000000000E10   -2.680021862033755E-4   1.096780877560377E-2  
 2.498000000000000E10    1.038629096001387E-2  -6.649919669143856E-4  
 2.500000000000000E10   -1.685026916675270E-3  -1.012613624334335E-2  
 2.502000000000000E10   -1.114875823259354E-2   2.924742642790079E-3  
 2.504000000000000E10    3.098895307630301E-3   9.832354262471199E-3  
 2.506000000000000E10    7.881293073296547E-3  -3.675588639453054E-3  
 2.508000000000000E10   -4.623277112841606E-3  -7.669954560697079E-3  
 2.510000000000000E10   -7.593946531414986E-3   5.574379116296768E-3  
 2.512000000000000E10    6.750327069312334E-3   6.774913053959608E-3  
 2.514000000000000E10    5.117423366755247E-3  -7.255638483911753E-3  
 2.516000000000000E10   -8.752064779400826E-3  -3.801616374403238E-3  
 2.518000000000000E10   -3.364680800586939E-3   1.118578668683767E-2  
 2.520000000000000E10    1.052608899772167E-2   2.476033288985491E-3  
 2.522000000000000E10    8.240659371949732E-4  -1.034696213901043E-2  
 2.524000000000000E10   -1.142621412873268E-2   4.827874072361738E-4  
 2.526000000000000E10    8.481640834361315E-4   1.132007502019405E-2  
 2.528000000000000E10    1.144013274461031E-2  -1.195418066345155E-3  
 2.530000000000000E10   -2.168237697333098E-3  -1.015201490372419E-2  
 2.532000000000000E10   -9.198104962706566E-3   4.652848932892084E-3  
 2.534000000000000E10    6.209786981344223E-3   9.605233557522297E-3  
 2.536000000000000E10    7.997208274900913E-3  -5.831385962665081E-3  
 2.538000000000000E10   -7.129072677344084E-3  -5.496689118444920E-3  
 2.540000000000000E10   -4.771487321704626E-3   8.823900483548641E-3  
 2.542000000000000E10    9.585010819137096E-3   4.153151996433735E-3  
 2.544000000000000E10    3.795124590396881E-3  -9.774228557944298E-3  
 2.546000000000000E10   -9.995426982641220E-3  -2.398027339950204E-3  
 2.548000000000000E10   -4.109834553673863E-4   1.147989463061094E-2  
 2.550000000000000E10    1.312161516398192E-2  -3.483959881123155E-4  
 2.552000000000000E10   -7.721468573436141E-4  -1.120765879750252E-2  
 2.554000000000000E10   -1.018038950860500E-2   3.497204044833779E-3  
 2.556000000000000E10    4.620684310793877E-3   1.001106109470129E-2  
 2.558000000000000E10    9.460142813622952E-3  -4.451604560017586E-3  
 2.560000000000000E10   -5.713109392672777E-3  -8.020262233912945E-3  
 2.562000000000000E10   -6.654331460595131E-3   6.456586532294750E-3  
 2.564000000000000E10    8.124016225337982E-3   5.383359268307686E-3  
 2.566000000000000E10    5.281378980726004E-3  -1.031653489917517E-2  
 2.568000000000000E10   -1.045094616711140E-2  -3.422846319153905E-3  
 2.570000000000000E10   -8.657873841002584E-4   1.083470787853003E-2  
 2.572000000000000E10    1.097057480365038E-2   1.070649159373716E-4  
 2.574000000000000E10   -4.429290129337460E-4  -1.159527990967035E-2  
 2.576000000000000E10   -1.188062876462936E-2   1.132879289798439E-3  
 2.578000000000000E10    2.495327964425087E-3   1.086264662444592E-2  
 2.580000000000000E10    1.030528731644154E-2  -4.101880826056004E-3  
 2.582000000000000E10   -5.087465979158878E-3  -1.072603557258844E-2  
 2.584000000000000E10   -9.420839138329029E-3   5.367695353925228E-3  
 2.586000000000000E10    6.852315273135901E-3   7.483141962438822E-3  
 2.588000000000000E10    5.497124511748552E-3  -8.346440270543098E-3  
 2.590000000000000E10   -8.698655292391777E-3  -5.309277214109898E-3  
 2.592000000000000E10   -4.616863094270229E-3   8.781902492046356E-3  
 2.594000000000000E10    9.699924848973751E-3   2.881941618397832E-3  
 2.596000000000000E10    1.703759771771729E-3  -1.122533623129129E-2  
 2.598000000000000E10   -1.189246028661728E-2  -1.009196159429848E-3  
 2.600000000000000E10   -2.392891619820148E-4   1.182874664664269E-2  
 2.602000000000000E10    1.199803315103054E-2  -1.846540137194097E-3  
 2.604000000000000E10   -3.502603387460113E-3  -1.129321381449699E-2  
 2.606000000000000E10   -1.060430239886046E-2   4.305772483348846E-3  
 2.608000000000000E10    4.100897815078497E-3   9.436171501874924E-3  
 2.610000000000000E10    8.603387512266636E-3  -5.246218293905258E-3  
 2.612000000000000E10   -7.051540538668633E-3  -8.346957154572010E-3  
 2.614000000000000E10   -7.062327582389116E-3   7.767278701066971E-3  
 2.616000000000000E10    8.791830390691757E-3   5.856886971741915E-3  
 2.618000000000000E10    4.501999821513891E-3  -9.877097792923451E-3  
 2.620000000000000E10   -1.072637923061848E-2  -3.122149966657162E-3  
 2.622000000000000E10   -1.825609942898154E-3   1.108081266283989E-2  
 2.624000000000000E10    1.092657633125782E-2   1.847108826041222E-3  
 2.626000000000000E10    8.067861781455576E-4  -1.127830613404512E-2  
 2.628000000000000E10   -1.156167127192020E-2   4.539811052381992E-4  
 2.630000000000000E10    1.341990311630070E-3   1.188750844448805E-2  
 2.632000000000000E10    1.132876146584749E-2  -3.089388832449913E-3  
 2.634000000000000E10   -4.029606934636831E-3  -1.007342524826527E-2  
 2.636000000000000E10   -8.989531546831131E-3   5.600205622613430E-3  
 2.638000000000000E10    7.067720405757427E-3   7.475581485778093E-3  
 2.640000000000000E10    6.973427254706621E-3  -7.176977116614580E-3  
 2.642000000000000E10   -8.540969341993332E-3  -5.950457882136107E-3  
 2.644000000000000E10   -4.522790201008320E-3   9.617625735700131E-3  
 2.646000000000000E10    1.066825725138187E-2   3.327334532514215E-3  
 2.648000000000000E10    2.113070571795106E-3  -1.185759156942368E-2  
 2.650000000000000E10   -1.183666195720434E-2  -9.970617247745395E-4  
 2.652000000000000E10    6.466575432568789E-4   1.222612801939249E-2  
 2.654000000000000E10    1.181874983012676E-2  -2.044912194833159E-3  
 2.656000000000000E10   -3.103326307609677E-3  -1.120879407972097E-2  
 2.658000000000000E10   -1.024354714900255E-2   4.312816541641951E-3  
 2.660000000000000E10    4.858874715864658E-3   8.926951326429844E-3  
 2.662000000000000E10    7.927278988063335E-3  -6.791457533836365E-3  
 2.664000000000000E10   -7.831263355910778E-3  -7.030372507870197E-3  
 2.666000000000000E10   -5.453347694128752E-3   8.195689879357815E-3  
 2.668000000000000E10    9.090828709304333E-3   3.435844555497170E-3  
 2.670000000000000E10    2.651515416800976E-3  -9.877468459308147E-3  
 2.672000000000000E10   -9.980708360671997E-3  -2.142241224646568E-3  
 2.674000000000000E10   -1.208490575663745E-3   1.056928746402264E-2  
 2.676000000000000E10    1.076002605259419E-2  -5.132679871167056E-5  
 2.678000000000000E10   -1.334302825853229E-3  -1.066687051206827E-2  
 2.680000000000000E10   -1.070491969585419E-2   1.581424381583929E-3  
 2.682000000000000E10    2.811107551679015E-3   9.786377660930157E-3  
 2.684000000000000E10    8.732263930141926E-3  -4.469387233257294E-3  
 2.686000000000000E10   -5.090603139251471E-3  -8.161251433193684E-3  
 2.688000000000000E10   -7.094765547662973E-3   6.033973302692175E-3  
 2.690000000000000E10    6.388041190803051E-3   5.563054233789444E-3  
 2.692000000000000E10    5.081555340439081E-3  -7.590738590806723E-3  
 2.694000000000000E10   -8.400890976190567E-3  -3.660164540633559E-3  
 2.696000000000000E10   -2.477686619386077E-3   8.970658294856548E-3  
 2.698000000000000E10    9.448831900954247E-3   1.908814185298979E-3  
 2.700000000000000E10    7.137165521271527E-4  -9.799444116652012E-3  
 2.702000000000000E10   -1.017290353775024E-2   2.874140045605600E-4  
 2.704000000000000E10    9.809421608224511E-4   1.017516385763884E-2  
 2.706000000000000E10    9.316894225776196E-3  -1.293138251639903E-3  
 2.708000000000000E10   -2.485156524926424E-3  -8.720293641090393E-3  
 2.710000000000000E10   -8.745421655476093E-3   3.248560708016157E-3  
 2.712000000000000E10    4.364746622741222E-3   7.878508418798447E-3  
 2.714000000000000E10    6.332044489681721E-3  -4.755573812872171E-3  
 2.716000000000000E10   -5.327505525201559E-3  -5.310031585395336E-3  
 2.718000000000000E10   -4.741631913930178E-3   7.044817321002483E-3  
 2.720000000000000E10    7.308411877602339E-3   4.152044653892517E-3  
 2.722000000000000E10    3.163762157782912E-3  -7.296427618712187E-3  
 2.724000000000000E10   -8.723233826458454E-3  -1.804324332624674E-3  
 2.726000000000000E10   -1.527944812551141E-3   9.355233050882816E-3  
 2.728000000000000E10    9.314968250691891E-3   1.135078142397106E-3  
 2.730000000000000E10   -5.706397932954133E-4  -9.121626615524292E-3  
 2.732000000000000E10   -8.871475234627724E-3   8.582844748161733E-4  
 2.734000000000000E10    1.862143632024527E-3   9.267695248126984E-3  
 2.736000000000000E10    8.061247877776623E-3  -2.392828930169344E-3  
 2.738000000000000E10   -3.250038018450141E-3  -6.712258327752352E-3  
 2.740000000000000E10   -6.531311664730310E-3   5.140065215528011E-3  
 2.742000000000000E10    5.534495227038860E-3   5.329673644155264E-3  
 2.744000000000000E10    4.574018530547619E-3  -5.802469793707132E-3  
 2.746000000000000E10   -7.099063135683537E-3  -3.489355556666851E-3  
 2.748000000000000E10   -2.948491834104061E-3   7.092791609466076E-3  
 2.750000000000000E10    8.333881385624409E-3   2.252265810966492E-3  
 2.752000000000000E10    1.108964905142784E-3  -8.112402632832527E-3  
 2.754000000000000E10   -8.116854354739189E-3  -8.023718255572021E-4  
 2.756000000000000E10    3.678747452795506E-4   8.954272605478764E-3  
