#  HZ   S   RI   R     50.00 
! Rohde & Schwarz ZVA40 4Ports - Version 3.90 - 1145.1110k42 SN: 100403
! Date: 2023-10-04 10:33:34
! Measurement: S12 
! 
 2.200000000000000E10    3.962086979299784E-3  -1.302792574279010E-3  
 2.202000000000000E10   -1.451442018151283E-3  -4.174055531620979E-3  
 2.204000000000000E10   -4.278029315173626E-3   1.702293287962675E-3  
 2.206000000000000E10    1.738050486892462E-3   5.065605510026217E-3  
 2.208000000000000E10    5.350334104150534E-3  -1.870281761512160E-3  
 2.210000000000000E10   -1.849319436587393E-3  -5.432055797427893E-3  
 2.212000000000000E10   -6.365605629980564E-3   2.666413784027100E-3  
 2.214000000000000E10    4.327156115323305E-3   6.588933058083057E-3  
 2.216000000000000E10    6.345578469336033E-3  -4.600555635988712E-3  
 2.218000000000000E10   -6.180464290082455E-3  -5.676946137100458E-3  
 2.220000000000000E10   -4.868590272963047E-3   7.988248951733112E-3  
 2.222000000000000E10    9.138418361544609E-3   4.114895127713680E-3  
 2.224000000000000E10    3.202218562364578E-3  -1.037400402128696E-2  
 2.226000000000000E10   -1.060521509498358E-2  -7.633985951542854E-4  
 2.228000000000000E10    1.607810729183257E-3   1.205053180456162E-2  
 2.230000000000000E10    1.252045389264822E-2  -3.512836061418057E-3  
 2.232000000000000E10   -4.451831802725792E-3  -1.200437173247337E-2  
 2.234000000000000E10   -1.086280308663845E-2   6.953308358788490E-3  
 2.236000000000000E10    8.093472570180893E-3   9.224879555404186E-3  
 2.238000000000000E10    9.493058547377586E-3  -8.928043767809868E-3  
 2.240000000000000E10   -9.610710665583611E-3  -8.207681588828564E-3  
 2.242000000000000E10   -6.343854591250420E-3   1.069697551429272E-2  
 2.244000000000000E10    1.278892904520035E-2   3.972241654992104E-3  
 2.246000000000000E10    2.059530466794968E-3  -1.258057076483965E-2  
 2.248000000000000E10   -1.228277850896120E-2  -5.216515273787081E-4  
 2.250000000000000E10    1.954161562025547E-3   1.290177647024393E-2  
 2.252000000000000E10    1.238565798848867E-2  -3.803340485319495E-3  
 2.254000000000000E10   -4.291018005460501E-3  -1.197840925306082E-2  
 2.256000000000000E10   -1.233043242245913E-2   5.973380524665117E-3  
 2.258000000000000E10    7.733190432190895E-3   1.145325880497694E-2  
 2.260000000000000E10    1.117908023297787E-2  -8.695460855960846E-3  
 2.262000000000000E10   -1.017413474619389E-2  -9.619460441172123E-3  
 2.264000000000000E10   -8.437350392341614E-3   1.016538310796022E-2  
 2.266000000000000E10    1.161782629787922E-2   6.756881717592478E-3  
 2.268000000000000E10    5.093825981020927E-3  -1.204510126262903E-2  
 2.270000000000000E10   -1.243533659726381E-2  -3.869371023029089E-3  
 2.272000000000000E10   -2.583873923867941E-3   1.259816810488701E-2  
 2.274000000000000E10    1.316145062446594E-2   5.157491541467607E-4  
 2.276000000000000E10   -1.699247397482395E-3  -1.399127114564180E-2  
 2.278000000000000E10   -1.408307813107967E-2   3.243491286411881E-3  
 2.280000000000000E10    5.006029270589352E-3   1.334187202155590E-2  
 2.282000000000000E10    1.408840157091618E-2   1.155559788458049E-3  
 2.284000000000000E10   -8.678254671394825E-3  -1.171988714486361E-2  
 2.286000000000000E10   -1.079504750669003E-2   9.242997504770756E-3  
 2.288000000000000E10    1.013345364481211E-2   9.644315578043461E-3  
 2.290000000000000E10    8.285407908260822E-3  -1.098002027720213E-2  
 2.292000000000000E10   -1.202531717717648E-2  -6.440933793783188E-3  
 2.294000000000000E10   -5.392791703343391E-3   1.310050766915083E-2  
 2.296000000000000E10    1.217122003436089E-2   2.633891534060240E-3  
 2.298000000000000E10    8.936604717746377E-4  -1.341559551656246E-2  
 2.300000000000000E10   -1.385504473000765E-2   2.850692835636437E-4  
 2.302000000000000E10    2.302259206771851E-3   1.327128801494837E-2  
 2.304000000000000E10    1.311871688812971E-2  -4.533988889306784E-3  
 2.306000000000000E10   -5.631127394735813E-3  -1.294375490397215E-2  
 2.308000000000000E10   -1.313571259379387E-2   7.081553805619478E-3  
 2.310000000000000E10    8.208300918340683E-3   1.313918270170689E-2  
 2.312000000000000E10    1.159997005015612E-2  -1.029496733099222E-2  
 2.314000000000000E10   -1.202664710581303E-2  -9.170776233077049E-3  
 2.316000000000000E10   -8.762536570429802E-3   1.233609672635794E-2  
 2.318000000000000E10    1.258953381329775E-2   6.613436155021191E-3  
 2.320000000000000E10    4.222017247229815E-3  -1.363568753004074E-2  
 2.322000000000000E10   -1.302280277013779E-2  -2.827628049999476E-3  
 2.324000000000000E10   -1.201817533001304E-3   1.415411382913590E-2  
 2.326000000000000E10    1.428619306534529E-2  -9.452618542127311E-4  
 2.328000000000000E10   -3.677190747112036E-3  -1.416669227182865E-2  
 2.330000000000000E10   -1.318732835352421E-2   7.113296538591385E-3  
 2.332000000000000E10    7.262522354722023E-3   1.257521659135819E-2  
 2.334000000000000E10    1.161198783665896E-2  -8.436307311058044E-3  
 2.336000000000000E10   -1.016982179135084E-2  -1.112064905464649E-2  
 2.338000000000000E10   -1.040861010551453E-2   1.079507078975439E-2  
 2.340000000000000E10    1.245243940502405E-2   9.742908179759979E-3  
 2.342000000000000E10    8.168131113052368E-3  -1.310585811734200E-2  
 2.344000000000000E10   -1.377815194427967E-2  -5.193847231566906E-3  
 2.346000000000000E10   -3.651479957625270E-3   1.406377553939819E-2  
 2.348000000000000E10    1.401283591985703E-2   1.957727828994393E-3  
 2.350000000000000E10   -1.600891664566007E-5  -1.341139525175095E-2  
 2.352000000000000E10   -1.409407425671816E-2   2.037290250882506E-3  
 2.354000000000000E10    3.723556874319911E-3   1.439189258962870E-2  
 2.356000000000000E10    1.403048448264599E-2  -6.074715871363878E-3  
 2.358000000000000E10   -8.682526648044586E-3  -1.410738565027714E-2  
 2.360000000000000E10   -1.231593731790781E-2   1.068117655813694E-2  
 2.362000000000000E10    1.269027683883905E-2   1.076080463826656E-2  
 2.364000000000000E10    9.543159045279026E-3  -1.344740390777588E-2  
 2.366000000000000E10   -1.295113749802113E-2  -7.812737487256527E-3  
 2.368000000000000E10   -6.346839945763350E-3   1.383661385625601E-2  
 2.370000000000000E10    1.447161287069321E-2   4.737237468361855E-3  
 2.372000000000000E10    3.239919664338231E-3  -1.409347914159298E-2  
 2.374000000000000E10   -1.462922152131796E-2  -1.085570314899087E-3  
 2.376000000000000E10    1.325447228737176E-3   1.426678523421288E-2  
 2.378000000000000E10    1.404791884124279E-2  -3.653391264379025E-3  
 2.380000000000000E10   -5.292771849781275E-3  -1.368882134556770E-2  
 2.382000000000000E10   -1.259002275764942E-2   7.695101667195559E-3  
 2.384000000000000E10    9.248887188732624E-3   1.183487940579653E-2  
 2.386000000000000E10    1.153690554201603E-2  -1.101773511618376E-2  
 2.388000000000000E10   -1.260638330131769E-2  -1.051480416208506E-2  
 2.390000000000000E10   -8.773187175393105E-3   1.391895022243261E-2  
 2.392000000000000E10    1.500207930803299E-2   6.878553889691830E-3  
 2.394000000000000E10    5.595153197646141E-3  -1.423396728932858E-2  
 2.396000000000000E10   -1.530410256236792E-2  -3.718137508258224E-3  
 2.398000000000000E10   -1.457627047784627E-3   1.481293234974146E-2  
 2.400000000000000E10    1.438199356198311E-2  -2.548635529819876E-4  
 2.402000000000000E10   -3.329912899062038E-3  -1.356069836765528E-2  
 2.404000000000000E10   -1.286332122981548E-2   5.022339057177305E-3  
 2.406000000000000E10    7.001591846346855E-3   1.233527623116970E-2  
 2.408000000000000E10    1.215313188731670E-2  -8.291278965771198E-3  
 2.410000000000000E10   -1.003949716687203E-2  -1.116901077330113E-2  
 2.412000000000000E10   -9.999737143516541E-3   1.166336890310049E-2  
 2.414000000000000E10    1.250290684401989E-2   9.309633634984493E-3  
 2.416000000000000E10    8.371289819478989E-3  -1.384905073791742E-2  
 2.418000000000000E10   -1.467309426516295E-2  -6.787046790122986E-3  
 2.420000000000000E10   -5.270958412438631E-3   1.441243849694729E-2  
 2.422000000000000E10    1.489339303225279E-2   4.140411503612995E-3  
 2.424000000000000E10    2.569065662100911E-3  -1.473973598331213E-2  
 2.426000000000000E10   -1.503361109644175E-2  -1.797057775547728E-4  
 2.428000000000000E10    1.794104813598096E-3   1.445989683270454E-2  
 2.430000000000000E10    1.402121130377054E-2  -3.339817747473717E-3  
 2.432000000000000E10   -5.902513395994902E-3  -1.322975754737854E-2  
 2.434000000000000E10   -1.345341186970472E-2   8.513173088431358E-3  
 2.436000000000000E10    9.860636666417122E-3   1.152840163558722E-2  
 2.438000000000000E10    1.070840377360582E-2  -1.098999287933111E-2  
 2.440000000000000E10   -1.257968228310347E-2  -1.003796607255936E-2  
 2.442000000000000E10   -8.880203589797020E-3   1.398668065667152E-2  
 2.444000000000000E10    1.437117718160152E-2   7.210133131593466E-3  
 2.446000000000000E10    5.888307001441717E-3  -1.424721442162991E-2  
 2.448000000000000E10   -1.456791814416647E-2  -4.444327205419540E-3  
 2.450000000000000E10   -3.591829212382436E-3   1.511413790285587E-2  
 2.452000000000000E10    1.473755575716496E-2   1.592240761965513E-3  
 2.454000000000000E10   -3.273045003879815E-4  -1.418205816298723E-2  
 2.456000000000000E10   -1.396389119327068E-2   2.009516116231680E-3  
 2.458000000000000E10    3.844577353447676E-3   1.423525810241699E-2  
 2.460000000000000E10    1.359625905752182E-2  -5.909096449613571E-3  
 2.462000000000000E10   -8.175675757229328E-3  -1.267033535987139E-2  
 2.464000000000000E10   -1.163851376622915E-2   1.019550208002329E-2  
 2.466000000000000E10    1.125935837626457E-2   1.140866335481405E-2  
 2.468000000000000E10    1.034903805702925E-2  -1.292172446846962E-2  
 2.470000000000000E10   -1.364031992852688E-2  -8.258428424596787E-3  
 2.472000000000000E10   -6.294841412454844E-3   1.414861623197794E-2  
 2.474000000000000E10    1.440211385488510E-2   5.086430348455906E-3  
 2.476000000000000E10    4.113798495382071E-3  -1.447750441730022E-2  
 2.478000000000000E10   -1.417110301554203E-2  -2.000391483306885E-3  
 2.480000000000000E10   -2.619410224724561E-4   1.432966627180576E-2  
 2.482000000000000E10    1.431231945753098E-2  -1.574852154590190E-3  
 2.484000000000000E10   -3.138699801638722E-3  -1.414538174867630E-2  
 2.486000000000000E10   -1.354664005339146E-2   5.397631786763668E-3  
 2.488000000000000E10    8.254877291619778E-3   1.199528388679028E-2  
 2.490000000000000E10    1.234027929604054E-2  -9.344692341983318E-3  
 2.492000000000000E10   -1.009379420429468E-2  -1.136778295040131E-2  
 2.494000000000000E10   -1.051417272537947E-2   1.200578082352877E-2  
 2.496000000000000E10    1.399643812328577E-2   9.019418619573116E-3  
 2.498000000000000E10    6.990128662437201E-3  -1.437021512538195E-2  
 2.500000000000000E10   -1.397146657109261E-2  -6.224231794476509E-3  
 2.502000000000000E10   -4.220815375447273E-3   1.445031072944403E-2  
 2.504000000000000E10    1.470917370170355E-2   1.221101731061935E-3  
 2.506000000000000E10    1.066984143108130E-3  -1.365899667143822E-2  
 2.508000000000000E10   -1.291947811841965E-2   1.257843996427255E-5  
 2.510000000000000E10    2.679964527487755E-3   1.288190018385649E-2  
 2.512000000000000E10    1.360082067549229E-2  -4.424239974468947E-3  
 2.514000000000000E10   -6.367238238453865E-3  -1.254733372479677E-2  
 2.516000000000000E10   -1.221410837024450E-2   7.738160435110331E-3  
 2.518000000000000E10    9.498842991888523E-3   1.098324824124575E-2  
 2.520000000000000E10    9.971536695957184E-3  -1.166911702603102E-2  
 2.522000000000000E10   -1.213553361594677E-2  -1.010201312601566E-2  
 2.524000000000000E10   -8.777584880590439E-3   1.201316062361002E-2  
 2.526000000000000E10    1.353679038584232E-2   6.754199042916298E-3  
 2.528000000000000E10    6.128950975835323E-3  -1.411500945687294E-2  
 2.530000000000000E10   -1.432759594172239E-2  -4.533766303211451E-3  
 2.532000000000000E10   -2.563441405072808E-3   1.424129679799080E-2  
 2.534000000000000E10    1.379416137933731E-2   2.850965247489512E-4  
 2.536000000000000E10   -1.963114133104682E-3  -1.417391467839479E-2  
 2.538000000000000E10   -1.412493549287319E-2   3.320874413475394E-3  
 2.540000000000000E10    4.827094729989767E-3   1.307593751698732E-2  
 2.542000000000000E10    1.262714155018330E-2  -7.769189774990082E-3  
 2.544000000000000E10   -1.019831839948893E-2  -1.250822003930807E-2  
 2.546000000000000E10   -1.152893155813217E-2   1.181919313967228E-2  
 2.548000000000000E10    1.276274118572474E-2   1.025500893592835E-2  
 2.550000000000000E10    7.663370575755835E-3  -1.459260843694210E-2  
 2.552000000000000E10   -1.560354512184858E-2  -6.133454386144877E-3  
 2.554000000000000E10   -4.774683620780706E-3   1.538246124982834E-2  
 2.556000000000000E10    1.440504752099514E-2   2.899928716942668E-3  
 2.558000000000000E10    3.082382318098098E-4  -1.451366487890482E-2  
 2.560000000000000E10   -1.417460385710001E-2   1.630728365853429E-3  
 2.562000000000000E10    2.744686789810658E-3   1.351599581539631E-2  
 2.564000000000000E10    1.345831435173750E-2  -3.709290875121951E-3  
 2.566000000000000E10   -7.410452701151371E-3  -1.279338821768761E-2  
 2.568000000000000E10   -1.280785072594881E-2   9.813761338591576E-3  
 2.570000000000000E10    1.142209768295288E-2   1.130560971796513E-2  
 2.572000000000000E10    9.498503059148789E-3  -1.247601956129074E-2  
 2.574000000000000E10   -1.416459959000349E-2  -8.670924231410027E-3  
 2.576000000000000E10   -7.111053913831711E-3   1.574899256229401E-2  
 2.578000000000000E10    1.674509048461914E-2   5.540621001273394E-3  
 2.580000000000000E10    3.526024986058474E-3  -1.614736020565033E-2  
 2.582000000000000E10   -1.592963561415672E-2  -1.370344427414239E-3  
 2.584000000000000E10    2.770718710962683E-4   1.670812256634235E-2  
 2.586000000000000E10    1.578044705092907E-2  -2.685088431462646E-3  
 2.588000000000000E10   -4.926922265440226E-3  -1.430600788444281E-2  
 2.590000000000000E10   -1.341750565916300E-2   6.516715977340937E-3  
 2.592000000000000E10    8.324447087943554E-3   1.276609953492880E-2  
 2.594000000000000E10    1.281194016337395E-2  -9.797995910048485E-3  
 2.596000000000000E10   -1.129246316850185E-2  -1.089209411293268E-2  
 2.598000000000000E10   -9.430581703782082E-3   1.312192622572184E-2  
 2.600000000000000E10    1.492529921233654E-2   9.444260038435459E-3  
 2.602000000000000E10    7.080045063048601E-3  -1.552755944430828E-2  
 2.604000000000000E10   -1.618611253798008E-2  -4.797511734068394E-3  
 2.606000000000000E10   -3.337828908115625E-3   1.627254672348499E-2  
 2.608000000000000E10    1.608498021960259E-2   1.774252159520984E-3  
 2.610000000000000E10    7.226446759887040E-4  -1.629454828798771E-2  
 2.612000000000000E10   -1.526128593832254E-2   1.469053677283227E-3  
 2.614000000000000E10    3.853226313367486E-3   1.478389091789722E-2  
 2.616000000000000E10    1.513717509806156E-2  -5.357108078896999E-3  
 2.618000000000000E10   -7.387501187622547E-3  -1.363546773791313E-2  
 2.620000000000000E10   -1.334785390645266E-2   9.913795627653599E-3  
 2.622000000000000E10    1.151612959802151E-2   1.192695554345846E-2  
 2.624000000000000E10    1.031617913395166E-2  -1.238612830638886E-2  
 2.626000000000000E10   -1.454466674476862E-2  -1.019239891320467E-2  
 2.628000000000000E10   -8.232776075601578E-3   1.509135030210018E-2  
 2.630000000000000E10    1.634690351784229E-2   6.225998979061842E-3  
 2.632000000000000E10    3.882012097164989E-3  -1.674595288932324E-2  
 2.634000000000000E10   -1.638825424015522E-2  -1.728991046547890E-3  
 2.636000000000000E10   -2.071582421194762E-4   1.635840162634850E-2  
 2.638000000000000E10    1.493939477950335E-2  -1.447226153686643E-3  
 2.640000000000000E10   -4.164281766861677E-3  -1.428366266191006E-2  
 2.642000000000000E10   -1.351574808359146E-2   5.290807224810123E-3  
 2.644000000000000E10    6.613075733184815E-3   1.253289263695478E-2  
 2.646000000000000E10    1.188002433627844E-2  -9.052460081875324E-3  
 2.648000000000000E10   -1.128224749118090E-2  -1.123501639813185E-2  
 2.650000000000000E10   -1.016232557594776E-2   1.250193268060684E-2  
 2.652000000000000E10    1.415015012025833E-2   9.123707190155983E-3  
 2.654000000000000E10    7.108162622898817E-3  -1.533918175846338E-2  
 2.656000000000000E10   -1.645225472748280E-2  -5.181263200938702E-3  
 2.658000000000000E10   -3.460041247308254E-3   1.643595844507217E-2  
 2.660000000000000E10    1.611431129276753E-2   1.647999510169029E-3  
 2.662000000000000E10   -5.133323138579726E-4  -1.597831957042217E-2  
 2.664000000000000E10   -1.518072094768286E-2   2.494615502655506E-3  
 2.666000000000000E10    4.751835018396378E-3   1.449525263160467E-2  
 2.668000000000000E10    1.330233365297318E-2  -6.030311342328787E-3  
 2.670000000000000E10   -7.577554322779179E-3  -1.213516294956207E-2  
 2.672000000000000E10   -1.049859076738358E-2   9.669188410043716E-3  
 2.674000000000000E10    1.070831343531609E-2   9.881493635475636E-3  
 2.676000000000000E10    9.211304597556591E-3  -1.204147748649120E-2  
 2.678000000000000E10   -1.314469892531633E-2  -7.292734459042549E-3  
 2.680000000000000E10   -5.859740544110537E-3   1.435633003711700E-2  
 2.682000000000000E10    1.534958835691214E-2   4.762745928019285E-3  
 2.684000000000000E10    3.282363992184401E-3  -1.519190147519112E-2  
 2.686000000000000E10   -1.499571464955807E-2  -1.238535507582128E-3  
 2.688000000000000E10    1.333298976533115E-3   1.536328252404928E-2  
 2.690000000000000E10    1.403138227760792E-2  -2.036572434008122E-3  
 2.692000000000000E10   -3.633936168625951E-3  -1.364729739725590E-2  
 2.694000000000000E10   -1.203059405088425E-2   6.402319297194481E-3  
 2.696000000000000E10    7.951410487294197E-3   1.148299034684897E-2  
 2.698000000000000E10    1.073978375643492E-2  -8.987423963844776E-3  
 2.700000000000000E10   -1.009014528244734E-2  -9.418255649507046E-3  
 2.702000000000000E10   -8.029063232243061E-3   1.210804097354412E-2  
 2.704000000000000E10    1.309229712933302E-2   6.626300048083067E-3  
 2.706000000000000E10    5.460252519696951E-3  -1.338383369147778E-2  
 2.708000000000000E10   -1.354864239692688E-2  -4.717256408184767E-3  
 2.710000000000000E10   -2.640644088387489E-3   1.433894783258438E-2  
 2.712000000000000E10    1.406564097851515E-2   9.938576258718967E-4  
 2.714000000000000E10    8.047889423323795E-5  -1.399338338524103E-2  
 2.716000000000000E10   -1.275356765836477E-2   1.661151880398393E-3  
 2.718000000000000E10    3.248180262744427E-3   1.187215000391007E-2  
 2.720000000000000E10    1.102447882294655E-2  -4.835349507629871E-3  
 2.722000000000000E10   -5.889854859560728E-3  -1.028830651193857E-2  
 2.724000000000000E10   -9.459015913307667E-3   7.212393451482058E-3  
 2.726000000000000E10    8.436045609414578E-3   7.750100921839476E-3  
 2.728000000000000E10    7.795193698257208E-3  -1.002795156091452E-2  
 2.730000000000000E10   -1.125717908143997E-2  -7.156327832490206E-3  
 2.732000000000000E10   -5.830529145896435E-3   1.114346086978912E-2  
 2.734000000000000E10    1.239532791078091E-2   4.423459060490131E-3  
 2.736000000000000E10    3.471561241894960E-3  -1.298488117754459E-2  
 2.738000000000000E10   -1.341851241886616E-2  -2.619368722662330E-3  
 2.740000000000000E10   -5.826773121953011E-4   1.268254872411490E-2  
 2.742000000000000E10    1.163752749562264E-2  -1.358318375423551E-3  
 2.744000000000000E10   -2.307183574885130E-3  -1.199167687445879E-2  
 2.746000000000000E10   -1.110127381980419E-2   3.743445035070181E-3  
 2.748000000000000E10    4.946835339069367E-3   9.164722636342049E-3  
 2.750000000000000E10    8.464479818940163E-3  -6.730133201926947E-3  
 2.752000000000000E10   -7.487441878765822E-3  -7.643349003046751E-3  
 2.754000000000000E10   -7.372710853815079E-3   8.352448232471943E-3  
 2.756000000000000E10    8.989695459604263E-3   5.939968395978212E-3  
