#  HZ   S   RI   R     50.00 
! Rohde & Schwarz ZVA40 4Ports - Version 3.90 - 1145.1110k42 SN: 100403
! Date: 2023-10-04 10:33:56
! Measurement: S12 
! 
 2.200000000000000E10    2.478295471519232E-3  -3.413344034925103E-3  
 2.202000000000000E10   -3.200395731255412E-3  -2.041221363469958E-3  
 2.204000000000000E10   -2.342242281883955E-3   3.484847489744425E-3  
 2.206000000000000E10    4.303052555769682E-3   1.398155814968050E-3  
 2.208000000000000E10    2.587697468698025E-3  -4.722250625491142E-3  
 2.210000000000000E10   -5.351575091481209E-3  -2.930797869339585E-3  
 2.212000000000000E10   -1.966263167560101E-3   5.405311938375235E-3  
 2.214000000000000E10    7.774489000439644E-3   2.145325066521764E-3  
 2.216000000000000E10    1.881481381133199E-3  -8.864981122314930E-3  
 2.218000000000000E10   -8.879217319190502E-3  -8.762309444136918E-4  
 2.220000000000000E10    5.073481588624418E-5   1.032181363552809E-2  
 2.222000000000000E10    1.049123052507639E-2  -1.950805657543242E-3  
 2.224000000000000E10   -3.525471780449152E-3  -1.104741822928190E-2  
 2.226000000000000E10   -1.094920653849840E-2   5.352341104298830E-3  
 2.228000000000000E10    7.202036678791046E-3   9.320210665464401E-3  
 2.230000000000000E10    8.271905593574047E-3  -9.778266772627831E-3  
 2.232000000000000E10   -1.174566149711609E-2  -6.902249064296484E-3  
 2.234000000000000E10   -4.745437763631344E-3   1.201977208256722E-2  
 2.236000000000000E10    1.222244929522276E-2   2.919339807704091E-3  
 2.238000000000000E10    1.866210019215941E-3  -1.308315340429544E-2  
 2.240000000000000E10   -1.454766932874918E-2  -3.247854183427990E-4  
 2.242000000000000E10    1.654644263908267E-3   1.445404533296824E-2  
 2.244000000000000E10    1.325085386633873E-2  -4.102334380149841E-3  
 2.246000000000000E10   -6.165118888020515E-3  -1.299398206174374E-2  
 2.248000000000000E10   -1.214697957038879E-2   7.444649003446102E-3  
 2.250000000000000E10    8.855206891894341E-3   1.098539214581251E-2  
 2.252000000000000E10    9.360229596495628E-3  -1.043346337974072E-2  
 2.254000000000000E10   -1.160561759024859E-2  -7.810631301254034E-3  
 2.256000000000000E10   -6.482341792434454E-3   1.302723493427038E-2  
 2.258000000000000E10    1.428391318768263E-2   4.457241389900446E-3  
 2.260000000000000E10    3.123051719740033E-3  -1.359222736209631E-2  
 2.262000000000000E10   -1.485683955252171E-2  -4.733421956188977E-4  
 2.264000000000000E10    7.976223132573068E-4   1.502597425132990E-2  
 2.266000000000000E10    1.432626973837614E-2  -1.261909608729184E-3  
 2.268000000000000E10   -3.376285079866648E-3  -1.437391992658377E-2  
 2.270000000000000E10   -1.401671301573515E-2   4.782615229487419E-3  
 2.272000000000000E10    6.049037445336580E-3   1.381198596209288E-2  
 2.274000000000000E10    1.287508942186832E-2  -7.924821227788925E-3  
 2.276000000000000E10   -1.001644786447287E-2  -1.089406386017799E-2  
 2.278000000000000E10   -8.956215344369412E-3   1.168770343065262E-2  
 2.280000000000000E10    1.253817602992058E-2   7.530535571277142E-3  
 2.282000000000000E10    1.181565504521132E-2  -6.964086554944515E-3  
 2.284000000000000E10   -1.413669437170029E-2  -3.959351684898138E-3  
 2.286000000000000E10   -2.519824774935842E-3   1.496407669037581E-2  
 2.288000000000000E10    1.493765320628882E-2   5.505360895767808E-4  
 2.290000000000000E10   -1.054072519764304E-3  -1.551181171089411E-2  
 2.292000000000000E10   -1.576893962919712E-2   3.109588986262679E-3  
 2.294000000000000E10    5.178648978471756E-3   1.460490096360445E-2  
 2.296000000000000E10    1.371438428759575E-2  -5.614942405372858E-3  
 2.298000000000000E10   -6.554317660629749E-3  -1.306486316025257E-2  
 2.300000000000000E10   -1.250230614095926E-2   8.688940666615963E-3  
 2.302000000000000E10    9.939167648553848E-3   1.161268353462219E-2  
 2.304000000000000E10    9.555085562169552E-3  -1.116508524864912E-2  
 2.306000000000000E10   -1.251170411705971E-2  -7.840375415980816E-3  
 2.308000000000000E10   -6.714304443448782E-3   1.353696733713150E-2  
 2.310000000000000E10    1.507858280092478E-2   4.164862446486950E-3  
 2.312000000000000E10    2.517658751457930E-3  -1.589592359960079E-2  
 2.314000000000000E10   -1.599282026290894E-2   5.582152516581118E-5  
 2.316000000000000E10    2.732017310336232E-3   1.652714982628822E-2  
 2.318000000000000E10    1.637099683284760E-2  -3.938501235097647E-3  
 2.320000000000000E10   -5.816974211484194E-3  -1.490716543048620E-2  
 2.322000000000000E10   -1.443732809275389E-2   7.660809904336929E-3  
 2.324000000000000E10    8.416428230702877E-3   1.367702521383762E-2  
 2.326000000000000E10    1.284824125468731E-2  -1.038931030780077E-2  
 2.328000000000000E10   -1.186428964138031E-2  -1.110607758164406E-2  
 2.330000000000000E10   -8.641192689538002E-3   1.274445466697216E-2  
 2.332000000000000E10    1.411406323313713E-2   5.944941192865372E-3  
 2.334000000000000E10    5.417661741375923E-3  -1.408658456057310E-2  
 2.336000000000000E10   -1.459860987961292E-2  -3.005070611834526E-3  
 2.338000000000000E10   -4.878677136730403E-4   1.570118404924870E-2  
 2.340000000000000E10    1.602359674870968E-2  -5.770378629676998E-4  
 2.342000000000000E10   -3.222007537260652E-3  -1.664543896913528E-2  
 2.344000000000000E10   -1.636164449155331E-2   5.598012823611498E-3  
 2.346000000000000E10    7.167474832385778E-3   1.528058666735888E-2  
 2.348000000000000E10    1.433964073657990E-2  -8.901390247046948E-3  
 2.350000000000000E10   -9.865422733128071E-3  -1.412326842546463E-2  
 2.352000000000000E10   -1.207521278411150E-2   1.150545850396156E-2  
 2.354000000000000E10    1.293305959552527E-2   1.081022061407566E-2  
 2.356000000000000E10    9.391674771904945E-3  -1.409274060279131E-2  
 2.358000000000000E10   -1.473593153059483E-2  -6.638716906309128E-3  
 2.360000000000000E10   -3.703302936628461E-3   1.589484699070454E-2  
 2.362000000000000E10    1.605848595499992E-2   1.120083150453866E-3  
 2.364000000000000E10   -1.022539217956364E-3  -1.568355783820152E-2  
 2.366000000000000E10   -1.593407616019249E-2   2.246703952550888E-3  
 2.368000000000000E10    4.497206769883633E-3   1.567165739834309E-2  
 2.370000000000000E10    1.573853753507137E-2  -6.445071659982204E-3  
 2.372000000000000E10   -8.072220720350742E-3  -1.572923921048641E-2  
 2.374000000000000E10   -1.477681845426559E-2   1.026404928416014E-2  
 2.376000000000000E10    1.188636384904385E-2   1.303775236010552E-2  
 2.378000000000000E10    1.160755008459091E-2  -1.316829957067967E-2  
 2.380000000000000E10   -1.389170251786709E-2  -9.737560525536537E-3  
 2.382000000000000E10   -8.272164501249790E-3   1.474264357239008E-2  
 2.384000000000000E10    1.542960852384567E-2   5.786931142210960E-3  
 2.386000000000000E10    3.672900376841426E-3  -1.636158674955368E-2  
 2.388000000000000E10   -1.707559265196323E-2  -8.067119051702321E-4  
 2.390000000000000E10    1.915822736918926E-3   1.688806712627411E-2  
 2.392000000000000E10    1.627190969884396E-2  -4.782652482390404E-3  
 2.394000000000000E10   -6.515705958008766E-3  -1.546645723283291E-2  
 2.396000000000000E10   -1.536707393825054E-2   7.608626037836075E-3  
 2.398000000000000E10    9.897861629724503E-3   1.446043420583010E-2  
 2.400000000000000E10    1.343576982617378E-2  -1.095416210591793E-2  
 2.402000000000000E10   -1.387264579534531E-2  -1.098951417952776E-2  
 2.404000000000000E10   -9.293562732636929E-3   1.445817947387695E-2  
 2.406000000000000E10    1.464218087494373E-2   8.039385080337524E-3  
 2.408000000000000E10    5.787421017885208E-3  -1.595330797135830E-2  
 2.410000000000000E10   -1.549137197434902E-2  -3.444079076871276E-3  
 2.412000000000000E10   -2.218797802925110E-3   1.576451212167740E-2  
 2.414000000000000E10    1.568161137402058E-2  -2.759502967819572E-4  
 2.416000000000000E10   -2.308400114998221E-3  -1.574208773672581E-2  
 2.418000000000000E10   -1.547414623200893E-2   4.630514886230230E-3  
 2.420000000000000E10    6.730180233716965E-3   1.464553084224463E-2  
 2.422000000000000E10    1.454958040267229E-2  -7.514902856200934E-3  
 2.424000000000000E10   -9.441844187676907E-3  -1.434837654232979E-2  
 2.426000000000000E10   -1.357942447066307E-2   1.105215772986412E-2  
 2.428000000000000E10    1.234265696257353E-2   1.222164835780859E-2  
 2.430000000000000E10    1.141927111893892E-2  -1.377658173441887E-2  
 2.432000000000000E10   -1.418405398726463E-2  -9.548360481858254E-3  
 2.434000000000000E10   -7.537860888987780E-3   1.587921939790249E-2  
 2.436000000000000E10    1.610645838081837E-2   5.240082740783691E-3  
 2.438000000000000E10    3.782522166147828E-3  -1.556751597672701E-2  
 2.440000000000000E10   -1.621886715292931E-2  -1.229078159667552E-3  
 2.442000000000000E10    8.379493956454098E-4   1.672334596514702E-2  
 2.444000000000000E10    1.609143801033497E-2  -3.071113256737590E-3  
 2.446000000000000E10   -5.254366435110569E-3  -1.533560082316399E-2  
 2.448000000000000E10   -1.528725028038025E-2   6.615275517106056E-3  
 2.450000000000000E10    8.391795679926872E-3   1.473587565124035E-2  
 2.452000000000000E10    1.463151816278696E-2  -1.015567965805531E-2  
 2.454000000000000E10   -1.147271785885096E-2  -1.335183717310429E-2  
 2.456000000000000E10   -1.224329695105553E-2   1.241991668939591E-2  
 2.458000000000000E10    1.375721674412489E-2   1.133506838232279E-2  
 2.460000000000000E10    8.933960460126400E-3  -1.533962227404118E-2  
 2.462000000000000E10   -1.548832003027201E-2  -6.888166069984436E-3  
 2.464000000000000E10   -4.967194050550461E-3   1.534513849765062E-2  
 2.466000000000000E10    1.564879156649113E-2   2.571225631982088E-3  
 2.468000000000000E10    8.050418691709638E-4  -1.631024479866028E-2  
 2.470000000000000E10   -1.652108319103718E-2   2.570048673078418E-3  
 2.472000000000000E10    4.579360596835613E-3   1.492035482078791E-2  
 2.474000000000000E10    1.490749046206474E-2  -6.255829241126776E-3  
 2.476000000000000E10   -7.830110378563404E-3  -1.445638574659824E-2  
 2.478000000000000E10   -1.386415306478739E-2   9.026648476719856E-3  
 2.480000000000000E10    1.060550659894943E-2   1.324034389108419E-2  
 2.482000000000000E10    1.274615619331598E-2  -1.208986341953278E-2  
 2.484000000000000E10   -1.363212708383799E-2  -1.228196825832129E-2  
 2.486000000000000E10   -1.044137123972178E-2   1.476585678756237E-2  
 2.488000000000000E10    1.490320917218924E-2   7.432811427861452E-3  
 2.490000000000000E10    5.454364698380232E-3  -1.571310311555862E-2  
 2.492000000000000E10   -1.616018079221249E-2  -4.009581170976162E-3  
 2.494000000000000E10   -2.226267941296101E-3   1.629764959216118E-2  
 2.496000000000000E10    1.602405495941639E-2  -1.294769230298698E-3  
 2.498000000000000E10   -3.804373554885387E-3  -1.545723155140877E-2  
 2.500000000000000E10   -1.550400443375111E-2   5.392620805650950E-3  
 2.502000000000000E10    7.243551313877106E-3   1.472591795027256E-2  
 2.504000000000000E10    1.289632823318243E-2  -9.812612086534500E-3  
 2.506000000000000E10   -1.078969240188599E-2  -1.219613943248987E-2  
 2.508000000000000E10   -1.204755622893572E-2   1.085564773529768E-2  
 2.510000000000000E10    1.172006409615278E-2   1.123984344303608E-2  
 2.512000000000000E10    9.830544702708721E-3  -1.336560118943453E-2  
 2.514000000000000E10   -1.446605753153563E-2  -8.646808564662933E-3  
 2.516000000000000E10   -7.648396305739880E-3   1.496658474206924E-2  
 2.518000000000000E10    1.497973408550024E-2   5.394884850829840E-3  
 2.520000000000000E10    2.391962334513664E-3  -1.602669805288315E-2  
 2.522000000000000E10   -1.662184484302998E-2   1.558499934617430E-4  
 2.524000000000000E10    1.822280115447938E-3   1.557511277496815E-2  
 2.526000000000000E10    1.492155715823174E-2  -3.742697648704052E-3  
 2.528000000000000E10   -6.042750086635351E-3  -1.477782707661390E-2  
 2.530000000000000E10   -1.466589886695147E-2   8.208424784243107E-3  
 2.532000000000000E10    9.658085182309151E-3   1.462071668356657E-2  
 2.534000000000000E10    1.340028736740351E-2  -1.103354804217815E-2  
 2.536000000000000E10   -1.285098306834698E-2  -1.139722764492035E-2  
 2.538000000000000E10   -1.054661534726620E-2   1.444267202168703E-2  
 2.540000000000000E10    1.466134376823902E-2   9.066132828593254E-3  
 2.542000000000000E10    7.276874035596848E-3  -1.504283864051104E-2  
 2.544000000000000E10   -1.573531329631805E-2  -4.609293770045042E-3  
 2.546000000000000E10   -2.447056584060192E-3   1.613046042621136E-2  
 2.548000000000000E10    1.690237969160080E-2   7.165023707784712E-4  
 2.550000000000000E10   -2.033405937254429E-3  -1.624849066138268E-2  
 2.552000000000000E10   -1.504584960639477E-2   5.782829131931067E-3  
 2.554000000000000E10    8.019540458917618E-3   1.458608545362949E-2  
 2.556000000000000E10    1.354571618139744E-2  -8.450452238321304E-3  
 2.558000000000000E10   -1.041886396706104E-2  -1.209946349263191E-2  
 2.560000000000000E10   -1.089897286146879E-2   1.165748201310635E-2  
 2.562000000000000E10    1.300276629626751E-2   1.071398425847292E-2  
 2.564000000000000E10    1.052515953779221E-2  -1.408380549401045E-2  
 2.566000000000000E10   -1.536389626562595E-2  -8.927022106945515E-3  
 2.568000000000000E10   -5.532116629183292E-3   1.745944283902645E-2  
 2.570000000000000E10    1.813919097185135E-2   3.466684604063630E-3  
 2.572000000000000E10    1.119822612963617E-3  -1.729510538280010E-2  
 2.574000000000000E10   -1.720821671187878E-2   1.425417722202838E-3  
 2.576000000000000E10    3.908107988536358E-3   1.752635650336742E-2  
 2.578000000000000E10    1.588666439056397E-2  -7.430647499859333E-3  
 2.580000000000000E10   -9.117988869547844E-3  -1.544985827058554E-2  
 2.582000000000000E10   -1.386125106364489E-2   1.110329851508141E-2  
 2.584000000000000E10    1.344042364507914E-2   1.243204250931740E-2  
 2.586000000000000E10    1.080704294145107E-2  -1.506911404430866E-2  
 2.588000000000000E10   -1.574688218533993E-2  -8.595043793320656E-3  
 2.590000000000000E10   -7.303566671907902E-3   1.536225248128176E-2  
 2.592000000000000E10    1.596277579665184E-2   6.752224173396826E-3  
 2.594000000000000E10    5.030794534832239E-3  -1.707798242568970E-2  
 2.596000000000000E10   -1.759146898984909E-2  -3.893648972734809E-3  
 2.598000000000000E10   -1.142476219683886E-3   1.744536869227886E-2  
 2.600000000000000E10    1.735321432352066E-2  -1.751359086483717E-3  
 2.602000000000000E10   -3.936267457902432E-3  -1.766356080770493E-2  
 2.604000000000000E10   -1.606082729995251E-2   7.034053094685078E-3  
 2.606000000000000E10    8.920792490243912E-3   1.426868885755539E-2  
 2.608000000000000E10    1.336879748851061E-2  -1.048820279538631E-2  
 2.610000000000000E10   -1.211062259972096E-2  -1.213230192661285E-2  
 2.612000000000000E10   -1.212876755744219E-2   1.302351988852024E-2  
 2.614000000000000E10    1.501326169818640E-2   1.070831343531609E-2  
 2.616000000000000E10    9.267439134418964E-3  -1.594321802258492E-2  
 2.618000000000000E10   -1.800928264856339E-2  -8.359475992619991E-3  
 2.620000000000000E10   -5.390741396695375E-3   1.844466291368008E-2  
 2.622000000000000E10    1.746200583875179E-2   2.844565780833364E-3  
 2.624000000000000E10    1.460778876207769E-3  -1.750119403004646E-2  
 2.626000000000000E10   -1.742845214903355E-2   6.092560943216085E-4  
 2.628000000000000E10    3.059302456676960E-3   1.725380308926106E-2  
 2.630000000000000E10    1.633322425186634E-2  -5.829741246998310E-3  
 2.632000000000000E10   -8.148772642016411E-3  -1.484134420752525E-2  
 2.634000000000000E10   -1.393310260027647E-2   1.003856956958771E-2  
 2.636000000000000E10    1.239527948200703E-2   1.263696793466806E-2  
 2.638000000000000E10    1.072379201650620E-2  -1.337950397282839E-2  
 2.640000000000000E10   -1.405771076679230E-2  -9.136368520557880E-3  
 2.642000000000000E10   -7.577919866889715E-3   1.480000186711550E-2  
 2.644000000000000E10    1.537573058158159E-2   6.961807608604431E-3  
 2.646000000000000E10    5.700813606381416E-3  -1.631521061062813E-2  
 2.648000000000000E10   -1.704766787588596E-2  -3.855057992041111E-3  
 2.650000000000000E10   -1.181208412162960E-3   1.780478470027447E-2  
 2.652000000000000E10    1.755410619080067E-2  -9.886458283290267E-4  
 2.654000000000000E10   -3.821156919002533E-3  -1.699093542993069E-2  
 2.656000000000000E10   -1.559649966657162E-2   6.837934721261263E-3  
 2.658000000000000E10    8.829375728964806E-3   1.451266650110483E-2  
 2.660000000000000E10    1.307016797363758E-2  -1.076792366802692E-2  
 2.662000000000000E10   -1.246012467890978E-2  -1.143140997737646E-2  
 2.664000000000000E10   -9.545302018523216E-3   1.394034642726183E-2  
 2.666000000000000E10    1.525551453232765E-2   8.237559348344803E-3  
 2.668000000000000E10    6.078281905502081E-3  -1.598050072789192E-2  
 2.670000000000000E10   -1.550827547907829E-2  -4.879102110862732E-3  
 2.672000000000000E10   -3.573147812858224E-3   1.538963895291090E-2  
 2.674000000000000E10    1.605579257011414E-2   2.019860316067934E-3  
 2.676000000000000E10    5.430941237136722E-4  -1.571980491280556E-2  
 2.678000000000000E10   -1.539757102727890E-2   9.608871769160032E-4  
 2.680000000000000E10    3.335643792524934E-3   1.470635458827019E-2  
 2.682000000000000E10    1.408286206424236E-2  -5.963413510471582E-3  
 2.684000000000000E10   -7.415142375975847E-3  -1.345101371407509E-2  
 2.686000000000000E10   -1.214532088488340E-2   9.254846721887589E-3  
 2.688000000000000E10    1.096103806048632E-2   9.994053281843662E-3  
 2.690000000000000E10    9.101989679038525E-3  -1.247577741742134E-2  
 2.692000000000000E10   -1.335223019123077E-2  -8.684023283421993E-3  
 2.694000000000000E10   -6.881708744913340E-3   1.394176762551069E-2  
 2.696000000000000E10    1.552551239728928E-2   4.805159755051136E-3  
 2.698000000000000E10    3.892554435878992E-3  -1.560235675424337E-2  
 2.700000000000000E10   -1.513651199638844E-2  -2.889127703383565E-3  
 2.702000000000000E10   -7.299683056771755E-4   1.523222215473652E-2  
 2.704000000000000E10    1.474300585687161E-2  -1.623950782231987E-3  
 2.706000000000000E10   -2.923653926700354E-3  -1.413894817233086E-2  
 2.708000000000000E10   -1.334957592189312E-2   4.176704678684473E-3  
 2.710000000000000E10    5.648763850331307E-3   1.208543032407761E-2  
 2.712000000000000E10    1.129254698753357E-2  -8.759873919188976E-3  
 2.714000000000000E10   -9.444700554013252E-3  -1.006537955254316E-2  
 2.716000000000000E10   -8.619106374680996E-3   1.041033025830984E-2  
 2.718000000000000E10    1.219761837273836E-2   7.023787125945091E-3  
 2.720000000000000E10    5.628324113786221E-3  -1.272279024124146E-2  
 2.722000000000000E10   -1.312329620122910E-2  -4.642147105187178E-3  
 2.724000000000000E10   -3.574664238840342E-3   1.371162105351687E-2  
 2.726000000000000E10    1.343548577278853E-2   3.015863010659814E-3  
 2.728000000000000E10    6.056278944015503E-4  -1.423551514744759E-2  
 2.730000000000000E10   -1.366503629833460E-2   6.013853708282113E-4  
 2.732000000000000E10    1.756229903548956E-3   1.317184045910835E-2  
 2.734000000000000E10    1.221452467143536E-2  -3.785487962886691E-3  
 2.736000000000000E10   -5.260733421891928E-3  -1.162393298000097E-2  
 2.738000000000000E10   -1.086089666932821E-2   7.240937557071447E-3  
 2.740000000000000E10    8.025883696973324E-3   9.674546308815479E-3  
 2.742000000000000E10    8.037444204092026E-3  -9.531701914966106E-3  
 2.744000000000000E10   -1.109112892299891E-2  -6.575123406946659E-3  
 2.746000000000000E10   -6.047226954251528E-3   1.132135000079870E-2  
 2.748000000000000E10    1.169134117662907E-2   4.671704024076462E-3  
 2.750000000000000E10    3.147423034533858E-3  -1.166030205786228E-2  
 2.752000000000000E10   -1.237105764448643E-2  -2.541564870625734E-3  
 2.754000000000000E10   -1.622249837964773E-3   1.239064335823059E-2  
 2.756000000000000E10    1.174919959157705E-2   8.832893799990416E-4  
