#  HZ   S   RI   R     50.00 
! Rohde & Schwarz ZVA40 4Ports - Version 3.90 - 1145.1110k42 SN: 100403
! Date: 2023-10-04 10:34:31
! Measurement: S12 
! 
 2.200000000000000E10   -3.888217033818364E-4  -4.466528538614512E-3  
 2.202000000000000E10   -5.136419553309679E-3   2.011687465710565E-4  
 2.204000000000000E10   -1.396409697917989E-5   4.524227231740952E-3  
 2.206000000000000E10    4.872372839599848E-3   6.463043391704559E-4  
 2.208000000000000E10    5.757911712862551E-4  -4.873679485172033E-3  
 2.210000000000000E10   -5.767552182078362E-3  -1.072340877726674E-3  
 2.212000000000000E10   -2.365809777984396E-4   7.470349315553904E-3  
 2.214000000000000E10    7.227656897157431E-3   8.927657036110759E-4  
 2.216000000000000E10   -1.980091910809279E-4  -8.726792410016060E-3  
 2.218000000000000E10   -8.938008919358254E-3   2.481918781995773E-3  
 2.220000000000000E10    3.258115611970425E-3   9.085200726985931E-3  
 2.222000000000000E10    9.444743394851685E-3  -4.773694556206465E-3  
 2.224000000000000E10   -7.190396543592215E-3  -8.254874497652054E-3  
 2.226000000000000E10   -7.169219199568033E-3   9.281856939196587E-3  
 2.228000000000000E10    1.151976268738508E-2   5.903971381485462E-3  
 2.230000000000000E10    4.311862867325544E-3  -1.248166803270578E-2  
 2.232000000000000E10   -1.322196051478386E-2  -2.177677582949400E-3  
 2.234000000000000E10    4.574338090606034E-4   1.367560960352421E-2  
 2.236000000000000E10    1.351065468043089E-2  -1.875092741101980E-3  
 2.238000000000000E10   -2.383005339652300E-3  -1.337461639195681E-2  
 2.240000000000000E10   -1.337830722332001E-2   4.582888912409544E-3  
 2.242000000000000E10    7.097005378454924E-3   1.243949495255947E-2  
 2.244000000000000E10    1.158044114708901E-2  -8.831090293824673E-3  
 2.246000000000000E10   -9.977569803595543E-3  -1.015396974980831E-2  
 2.248000000000000E10   -8.490329608321190E-3   1.177970971912146E-2  
 2.250000000000000E10    1.364069990813732E-2   6.591871380805969E-3  
 2.252000000000000E10    4.909818060696125E-3  -1.404004450887442E-2  
 2.254000000000000E10   -1.518316473811865E-2  -3.865795210003853E-3  
 2.256000000000000E10   -1.504446612671018E-3   1.553270500153303E-2  
 2.258000000000000E10    1.593275554478169E-2  -6.489114603027701E-4  
 2.260000000000000E10   -2.001043409109116E-3  -1.581079326570034E-2  
 2.262000000000000E10   -1.517992094159126E-2   4.017068073153496E-3  
 2.264000000000000E10    5.342652555555105E-3   1.424262207001448E-2  
 2.266000000000000E10    1.335925608873367E-2  -7.068087346851826E-3  
 2.268000000000000E10   -8.928915485739708E-3  -1.290887501090765E-2  
 2.270000000000000E10   -1.120878662914038E-2   1.014264393597841E-2  
 2.272000000000000E10    1.146378181874752E-2   9.581827558577061E-3  
 2.274000000000000E10    8.208969607949257E-3  -1.305877137929201E-2  
 2.276000000000000E10   -1.461833436042070E-2  -6.747913546860218E-3  
 2.278000000000000E10   -4.499927628785372E-3   1.514539774507284E-2  
 2.280000000000000E10    1.549976971000433E-2   2.043775515630841E-3  
 2.282000000000000E10    9.286405518651009E-3  -1.271997392177582E-2  
 2.284000000000000E10   -1.648306101560593E-2   4.089033755008131E-4  
 2.286000000000000E10    2.855604514479637E-3   1.578860543668270E-2  
 2.288000000000000E10    1.567273773252964E-2  -4.930560942739248E-3  
 2.290000000000000E10   -6.308954209089279E-3  -1.541964709758759E-2  
 2.292000000000000E10   -1.438736822456121E-2   8.188656531274319E-3  
 2.294000000000000E10    9.703001938760281E-3   1.280381903052330E-2  
 2.296000000000000E10    1.061632856726646E-2  -1.036862935870886E-2  
 2.298000000000000E10   -1.216770987957716E-2  -9.602717123925686E-3  
 2.300000000000000E10   -8.571072481572628E-3   1.316149625927210E-2  
 2.302000000000000E10    1.424069702625275E-2   5.638576112687588E-3  
 2.304000000000000E10    3.697822801768780E-3  -1.540183462202549E-2  
 2.306000000000000E10   -1.562967151403427E-2  -2.286430448293686E-3  
 2.308000000000000E10   -6.424824096029624E-5   1.610782742500305E-2  
 2.310000000000000E10    1.704740151762962E-2  -2.116050105541945E-3  
 2.312000000000000E10   -4.411702975630760E-3  -1.636298745870590E-2  
 2.314000000000000E10   -1.620743982493877E-2   5.870860069990158E-3  
 2.316000000000000E10    7.394246291369200E-3   1.615442521870136E-2  
 2.318000000000000E10    1.394319254904985E-2  -9.449508041143417E-3  
 2.320000000000000E10   -1.098758727312088E-2  -1.306098513305187E-2  
 2.322000000000000E10   -1.253203675150871E-2   1.207181159406900E-2  
 2.324000000000000E10    1.311236992478371E-2   9.931032545864582E-3  
 2.326000000000000E10    8.208840154111385E-3  -1.441517379134893E-2  
 2.328000000000000E10   -1.583535410463810E-2  -5.984141491353512E-3  
 2.330000000000000E10   -2.186597557738423E-3   1.665875129401684E-2  
 2.332000000000000E10    1.631791517138481E-2   6.120453472249210E-4  
 2.334000000000000E10   -1.610302948392928E-3  -1.575457304716110E-2  
 2.336000000000000E10   -1.674877479672432E-2   3.497529542073607E-3  
 2.338000000000000E10    5.504658445715904E-3   1.678902469575405E-2  
 2.340000000000000E10    1.580282114446163E-2  -7.585974875837565E-3  
 2.342000000000000E10   -8.990764617919922E-3  -1.575437188148499E-2  
 2.344000000000000E10   -1.449890900403261E-2   1.138186827301979E-2  
 2.346000000000000E10    1.258698664605618E-2   1.266952976584435E-2  
 2.348000000000000E10    1.075674314051867E-2  -1.301274076104164E-2  
 2.350000000000000E10   -1.379735581576824E-2  -9.375877678394318E-3  
 2.352000000000000E10   -7.190151140093803E-3   1.579188928008080E-2  
 2.354000000000000E10    1.596764661371708E-2   5.375907290726900E-3  
 2.356000000000000E10    2.589853713288903E-3  -1.626541651785374E-2  
 2.358000000000000E10   -1.772588118910790E-2   5.012465408071876E-4  
 2.360000000000000E10    2.772495383396745E-3   1.768023893237114E-2  
 2.362000000000000E10    1.705170981585980E-2  -5.163072608411312E-3  
 2.364000000000000E10   -7.591184228658676E-3  -1.623956114053726E-2  
 2.366000000000000E10   -1.551493350416422E-2   9.445909410715103E-3  
 2.368000000000000E10    1.091551221907139E-2   1.498616300523281E-2  
 2.370000000000000E10    1.365274284034967E-2  -1.233790535479784E-2  
 2.372000000000000E10   -1.381376013159752E-2  -1.224688626825810E-2  
 2.374000000000000E10   -1.047735195606947E-2   1.511634700000286E-2  
 2.376000000000000E10    1.569967344403267E-2   8.951575495302677E-3  
 2.378000000000000E10    6.294913124293089E-3  -1.643946766853333E-2  
 2.380000000000000E10   -1.721196994185448E-2  -3.373235231265426E-3  
 2.382000000000000E10   -1.291161286644638E-3   1.737531088292599E-2  
 2.384000000000000E10    1.715109124779701E-2  -1.009854837320745E-3  
 2.386000000000000E10   -3.951495978981257E-3  -1.736834831535816E-2  
 2.388000000000000E10   -1.667659915983677E-2   6.439537741243839E-3  
 2.390000000000000E10    8.744566701352596E-3   1.635097898542881E-2  
 2.392000000000000E10    1.490380149334669E-2  -1.058900542557240E-2  
 2.394000000000000E10   -1.214495114982128E-2  -1.358105149120092E-2  
 2.396000000000000E10   -1.278227102011442E-2   1.321819331496954E-2  
 2.398000000000000E10    1.469158474355936E-2   1.147602126002312E-2  
 2.400000000000000E10    9.196209721267223E-3  -1.570144295692444E-2  
 2.402000000000000E10   -1.713174954056740E-2  -5.184699315577745E-3  
 2.404000000000000E10   -2.975723473355174E-3   1.715174317359924E-2  
 2.406000000000000E10    1.723311468958855E-2   1.060933340340853E-3  
 2.408000000000000E10   -1.181584433652461E-3  -1.737339422106743E-2  
 2.410000000000000E10   -1.602271571755409E-2   4.154721740633249E-3  
 2.412000000000000E10    5.457829218357801E-3   1.542954798787832E-2  
 2.414000000000000E10    1.579772680997849E-2  -7.538690697401762E-3  
 2.416000000000000E10   -9.777328930795193E-3  -1.403224840760231E-2  
 2.418000000000000E10   -1.340423617511988E-2   1.086992584168911E-2  
 2.420000000000000E10    1.248733419924974E-2   1.257494743913412E-2  
 2.422000000000000E10    1.152059715241194E-2  -1.321675442159176E-2  
 2.424000000000000E10   -1.446818467229605E-2  -1.152580976486206E-2  
 2.426000000000000E10   -8.925789967179298E-3   1.551952771842480E-2  
 2.428000000000000E10    1.587567478418350E-2   8.012539707124233E-3  
 2.430000000000000E10    6.192324217408896E-3  -1.748891733586788E-2  
 2.432000000000000E10   -1.708233542740345E-2  -3.766227746382356E-3  
 2.434000000000000E10   -1.960602356120944E-3   1.737096719443798E-2  
 2.436000000000000E10    1.729666814208031E-2  -1.269134809263051E-3  
 2.438000000000000E10   -3.457040060311556E-3  -1.630261726677418E-2  
 2.440000000000000E10   -1.656607352197170E-2   5.467758979648352E-3  
 2.442000000000000E10    7.744922768324614E-3   1.536889374256134E-2  
 2.444000000000000E10    1.415847614407539E-2  -1.008164323866367E-2  
 2.446000000000000E10   -1.183180324733257E-2  -1.371360104531050E-2  
 2.448000000000000E10   -1.216479763388634E-2   1.247475389391184E-2  
 2.450000000000000E10    1.400684658437967E-2   1.206883043050766E-2  
 2.452000000000000E10    1.044090464711189E-2  -1.545708719640970E-2  
 2.454000000000000E10   -1.587338373064995E-2  -8.873039856553078E-3  
 2.456000000000000E10   -6.912147160619497E-3   1.608905382454395E-2  
 2.458000000000000E10    1.719432137906551E-2   5.374091677367687E-3  
 2.460000000000000E10    3.350054612383246E-3  -1.738864183425903E-2  
 2.462000000000000E10   -1.732715591788292E-2  -2.122957375831902E-4  
 2.464000000000000E10    1.764532527886331E-3   1.663163304328919E-2  
 2.466000000000000E10    1.686922088265419E-2  -3.464855486527085E-3  
 2.468000000000000E10   -6.282328628003597E-3  -1.633108593523502E-2  
 2.470000000000000E10   -1.521360129117966E-2   9.112666361033917E-3  
 2.472000000000000E10    1.145181711763144E-2   1.372412778437138E-2  
 2.474000000000000E10    1.307431329041719E-2  -1.145808678120375E-2  
 2.476000000000000E10   -1.278028823435307E-2  -1.193469017744064E-2  
 2.478000000000000E10   -1.055286359041929E-2   1.433286257088184E-2  
 2.480000000000000E10    1.510507985949516E-2   9.889901615679264E-3  
 2.482000000000000E10    8.391915820538998E-3  -1.591478660702705E-2  
 2.484000000000000E10   -1.645964384078980E-2  -6.487414240837097E-3  
 2.486000000000000E10   -3.316225251182914E-3   1.766723580658436E-2  
 2.488000000000000E10    1.738526299595833E-2   6.527382065542042E-4  
 2.490000000000000E10   -7.612353656440973E-4  -1.651620119810104E-2  
 2.492000000000000E10   -1.577826589345932E-2   3.014387795701623E-3  
 2.494000000000000E10    6.156830117106438E-3   1.565806753933430E-2  
 2.496000000000000E10    1.558034121990204E-2  -8.405406959354878E-3  
 2.498000000000000E10   -1.008426956832409E-2  -1.413760054856539E-2  
 2.500000000000000E10   -1.280316151678562E-2   1.117772515863180E-2  
 2.502000000000000E10    1.378730498254299E-2   1.207005418837071E-2  
 2.504000000000000E10    1.025323104113340E-2  -1.480647455900908E-2  
 2.506000000000000E10   -1.372259669005871E-2  -8.984504267573357E-3  
 2.508000000000000E10   -7.884005084633827E-3   1.453881151974201E-2  
 2.510000000000000E10    1.572633534669876E-2   7.155276369303465E-3  
 2.512000000000000E10    5.249449983239174E-3  -1.653878018260002E-2  
 2.514000000000000E10   -1.679858937859535E-2  -3.713268786668778E-3  
 2.516000000000000E10   -9.478190331719816E-4   1.636206917464733E-2  
 2.518000000000000E10    1.718221418559551E-2  -2.389272209256887E-3  
 2.520000000000000E10   -4.165414255112410E-3  -1.671152189373970E-2  
 2.522000000000000E10   -1.490302197635174E-2   6.384259089827538E-3  
 2.524000000000000E10    9.063084609806538E-3   1.398424431681633E-2  
 2.526000000000000E10    1.344395335763693E-2  -1.038490142673254E-2  
 2.528000000000000E10   -1.158008445054293E-2  -1.300415396690369E-2  
 2.530000000000000E10   -1.211019791662693E-2   1.377652026712894E-2  
 2.532000000000000E10    1.494352146983147E-2   9.826806373894215E-3  
 2.534000000000000E10    8.196090348064899E-3  -1.651874743402004E-2  
 2.536000000000000E10   -1.695378869771957E-2  -7.136701140552759E-3  
 2.538000000000000E10   -4.721933044493198E-3   1.658017374575138E-2  
 2.540000000000000E10    1.675123721361160E-2   2.047157846391201E-3  
 2.542000000000000E10    5.078663234598935E-4  -1.743245497345924E-2  
 2.544000000000000E10   -1.679977960884571E-2   1.503965351730585E-3  
 2.546000000000000E10    3.888973267748952E-3   1.625612936913967E-2  
 2.548000000000000E10    1.509823463857174E-2  -6.773047149181366E-3  
 2.550000000000000E10   -9.908352978527546E-3  -1.455359905958176E-2  
 2.552000000000000E10   -1.378986705094576E-2   1.180734019726515E-2  
 2.554000000000000E10    1.294474117457867E-2   1.093517988920212E-2  
 2.556000000000000E10    8.717725984752178E-3  -1.405700668692589E-2  
 2.558000000000000E10   -1.560652814805508E-2  -8.386450819671154E-3  
 2.560000000000000E10   -6.936102174222469E-3   1.576980017125607E-2  
 2.562000000000000E10    1.593444868922234E-2   6.021252833306789E-3  
 2.564000000000000E10    4.313532263040543E-3  -1.712648943066597E-2  
 2.566000000000000E10   -1.911167427897453E-2  -2.125253202393651E-3  
 2.568000000000000E10    3.473158285487443E-4   1.917769573628902E-2  
 2.570000000000000E10    1.732420176267624E-2  -3.938386216759682E-3  
 2.572000000000000E10   -6.471885833889246E-3  -1.639500260353088E-2  
 2.574000000000000E10   -1.593734696507454E-2   8.153628557920456E-3  
 2.576000000000000E10    1.080286037176848E-2   1.436353474855423E-2  
 2.578000000000000E10    1.253073103725910E-2  -1.300438027828932E-2  
 2.580000000000000E10   -1.457318570464850E-2  -1.063098851591349E-2  
 2.582000000000000E10   -9.444673545658588E-3   1.650095731019974E-2  
 2.584000000000000E10    1.800369657576084E-2   7.190415635704994E-3  
 2.586000000000000E10    4.627636168152094E-3  -1.805461570620537E-2  
 2.588000000000000E10   -1.771208085119724E-2  -2.525421790778637E-3  
 2.590000000000000E10   -1.180613646283746E-3   1.704486459493637E-2  
 2.592000000000000E10    1.748838089406490E-2   5.187526112422347E-4  
 2.594000000000000E10   -1.404224196448922E-3  -1.780316419899464E-2  
 2.596000000000000E10   -1.700128428637981E-2   3.597499104216695E-3  
 2.598000000000000E10    6.289435550570488E-3   1.742121390998364E-2  
 2.600000000000000E10    1.579803973436356E-2  -8.461125195026398E-3  
 2.602000000000000E10   -1.104123238474131E-2  -1.455246936529875E-2  
 2.604000000000000E10   -1.280576270073652E-2   1.369947381317616E-2  
 2.606000000000000E10    1.463062781840563E-2   1.052237302064896E-2  
 2.608000000000000E10    9.797172620892525E-3  -1.509173866361380E-2  
 2.610000000000000E10   -1.642799563705921E-2  -8.530326187610626E-3  
 2.612000000000000E10   -6.787614896893501E-3   1.776616647839546E-2  
 2.614000000000000E10    1.902383193373680E-2   5.624569021165371E-3  
 2.616000000000000E10    3.299650968983769E-3  -1.912478916347027E-2  
 2.618000000000000E10   -1.912088878452778E-2  -1.226433902047575E-3  
 2.620000000000000E10    1.343779033049941E-3   1.917961239814758E-2  
 2.622000000000000E10    1.764533668756485E-2  -3.771647578105331E-3  
 2.624000000000000E10   -5.016727373003960E-3  -1.680124737322331E-2  
 2.626000000000000E10   -1.605755276978016E-2   6.963997613638640E-3  
 2.628000000000000E10    9.857722558081150E-3   1.508903224021196E-2  
 2.630000000000000E10    1.354438159614801E-2  -1.266660448163748E-2  
 2.632000000000000E10   -1.458057202398777E-2  -1.102697476744652E-2  
 2.634000000000000E10   -9.196252562105656E-3   1.585168018937111E-2  
 2.636000000000000E10    1.713268645107746E-2   7.767315488308668E-3  
 2.638000000000000E10    5.032042507082224E-3  -1.740225404500961E-2  
 2.640000000000000E10   -1.752181164920330E-2  -3.514646086841822E-3  
 2.642000000000000E10   -2.680983161553741E-3   1.716159284114838E-2  
 2.644000000000000E10    1.731313578784466E-2   1.282351091504097E-3  
 2.646000000000000E10   -8.676482248120010E-4  -1.812684908509255E-2  
 2.648000000000000E10   -1.763074100017548E-2   2.867827890440822E-3  
 2.650000000000000E10    5.523767322301865E-3   1.718498393893242E-2  
 2.652000000000000E10    1.596957258880138E-2  -8.047673851251602E-3  
 2.654000000000000E10   -1.058499608188868E-2  -1.401980500668287E-2  
 2.656000000000000E10   -1.240126602351666E-2   1.228837016969919E-2  
 2.658000000000000E10    1.410087756812573E-2   1.025925390422344E-2  
 2.660000000000000E10    7.867833599448204E-3  -1.558983325958252E-2  
 2.662000000000000E10   -1.703298650681973E-2  -6.030515301972628E-3  
 2.664000000000000E10   -4.029926378279924E-3   1.724223420023918E-2  
 2.666000000000000E10    1.773980818688870E-2   2.055141143500805E-3  
 2.668000000000000E10   -1.049910642905161E-4  -1.747790724039078E-2  
 2.670000000000000E10   -1.622665859758854E-2   1.533215050585568E-3  
 2.672000000000000E10    2.703713951632381E-3   1.596194878220558E-2  
 2.674000000000000E10    1.566240377724171E-2  -4.123680293560028E-3  
 2.676000000000000E10   -5.717618856579065E-3  -1.467799115926027E-2  
 2.678000000000000E10   -1.365939714014530E-2   7.721225265413523E-3  
 2.680000000000000E10    8.839924819767475E-3   1.271630451083183E-2  
 2.682000000000000E10    1.113096065819264E-2  -1.059627626091242E-2  
 2.684000000000000E10   -1.239063870161772E-2  -9.598157368600369E-3  
 2.686000000000000E10   -7.610060274600983E-3   1.371593214571476E-2  
 2.688000000000000E10    1.464488450437784E-2   5.867769941687584E-3  
 2.690000000000000E10    4.701131489127874E-3  -1.548644248396158E-2  
 2.692000000000000E10   -1.584246195852757E-2  -2.353836083784699E-3  
 2.694000000000000E10   -1.058643101714551E-3   1.639670319855213E-2  
 2.696000000000000E10    1.651912555098534E-2  -2.589063369669020E-4  
 2.698000000000000E10   -2.227548044174910E-3  -1.524313259869814E-2  
 2.700000000000000E10   -1.495886314660311E-2   4.008857533335686E-3  
 2.702000000000000E10    5.029620137065649E-3   1.420712471008301E-2  
 2.704000000000000E10    1.295220758765936E-2  -6.979904137551785E-3  
 2.706000000000000E10   -7.880296558141708E-3  -1.097895205020905E-2  
 2.708000000000000E10   -1.004445087164640E-2   9.188217110931873E-3  
 2.710000000000000E10    1.115363370627165E-2   8.993516676127911E-3  
 2.712000000000000E10    7.545427419245243E-3  -1.200892217457295E-2  
 2.714000000000000E10   -1.303010899573565E-2  -4.937873687595129E-3  
 2.716000000000000E10   -3.342091804370284E-3   1.399512402713299E-2  
 2.718000000000000E10    1.391084399074316E-2   2.592013450339437E-3  
 2.720000000000000E10    7.639444665983319E-4  -1.452033687382937E-2  
 2.722000000000000E10   -1.443882472813129E-2   5.005151615478098E-4  
 2.724000000000000E10    1.206356333568692E-3   1.391611434519291E-2  
 2.726000000000000E10    1.399298571050167E-2  -2.986645093187690E-3  
 2.728000000000000E10   -3.893629647791386E-3  -1.356129255145788E-2  
 2.730000000000000E10   -1.192630734294653E-2   5.581434350460768E-3  
 2.732000000000000E10    6.999180186539888E-3   1.114229951053858E-2  
 2.734000000000000E10    1.028974726796150E-2  -7.526983041316271E-3  
 2.736000000000000E10   -9.129175916314125E-3  -8.834704756736755E-3  
 2.738000000000000E10   -7.065674290060997E-3   1.067803148180246E-2  
 2.740000000000000E10    1.116451621055603E-2   5.494895391166210E-3  
 2.742000000000000E10    4.199156071990728E-3  -1.239621732383966E-2  
 2.744000000000000E10   -1.264973543584347E-2  -2.330529969185591E-3  
 2.746000000000000E10   -6.988531677052379E-4   1.208865735679865E-2  
 2.748000000000000E10    1.242433395236731E-2  -1.365117059322074E-4  
 2.750000000000000E10   -1.063736854121089E-3  -1.234826818108559E-2  
 2.752000000000000E10   -1.143658626824617E-2   2.032580319792032E-3  
 2.754000000000000E10    3.026972291991115E-3   1.128173526376486E-2  
 2.756000000000000E10    1.111903507262468E-2  -4.172303713858128E-3  
