#  HZ   S   RI   R     50.00 
! Rohde & Schwarz ZVA40 4Ports - Version 3.90 - 1145.1110k42 SN: 100403
! Date: 2023-10-04 10:35:12
! Measurement: S12 
! 
 2.200000000000000E10   -4.615611396729946E-3  -2.241303678601980E-3  
 2.202000000000000E10   -1.953002298250794E-3   4.429189953953028E-3  
 2.204000000000000E10    4.138376098126173E-3   2.040750812739134E-3  
 2.206000000000000E10    1.935059437528253E-3  -4.348552320152521E-3  
 2.208000000000000E10   -4.524822812527418E-3  -2.352154813706875E-3  
 2.210000000000000E10   -3.576989751309156E-3   5.391533486545086E-3  
 2.212000000000000E10    5.446468945592642E-3   3.487773705273867E-3  
 2.214000000000000E10    3.324863035231829E-3  -6.542726885527372E-3  
 2.216000000000000E10   -8.039985783398151E-3  -3.123411443084478E-3  
 2.218000000000000E10   -2.870881231501699E-3   8.862457238137722E-3  
 2.220000000000000E10    9.795382618904114E-3   2.007325179874897E-3  
 2.222000000000000E10    4.238832334522158E-4  -1.109704747796059E-2  
 2.224000000000000E10   -1.121464464813471E-2   1.171422656625509E-3  
 2.226000000000000E10    3.112744307145476E-3   1.209036726504564E-2  
 2.228000000000000E10    1.176173891872168E-2  -5.465240683406591E-3  
 2.230000000000000E10   -7.840178906917572E-3  -1.072779577225447E-2  
 2.232000000000000E10   -1.009988598525524E-2   1.025586016476154E-2  
 2.234000000000000E10    1.235343515872955E-2   7.889032363891602E-3  
 2.236000000000000E10    6.397710647433996E-3  -1.328088436275721E-2  
 2.238000000000000E10   -1.400935277342796E-2  -5.220824852585793E-3  
 2.240000000000000E10   -2.420991193503141E-3   1.517059840261936E-2  
 2.242000000000000E10    1.655492186546326E-2   1.147622824646533E-3  
 2.244000000000000E10   -1.216656644828618E-3  -1.579784415662289E-2  
 2.246000000000000E10   -1.488493755459786E-2   3.196667181327939E-3  
 2.248000000000000E10    4.818647634238005E-3   1.510349288582802E-2  
 2.250000000000000E10    1.431556232273579E-2  -7.690804079174995E-3  
 2.252000000000000E10   -9.214418008923531E-3  -1.288977637887001E-2  
 2.254000000000000E10   -1.110129989683628E-2   1.050641108304262E-2  
 2.256000000000000E10    1.252904068678618E-2   9.544976986944675E-3  
 2.258000000000000E10    9.042194113135338E-3  -1.433095335960388E-2  
 2.260000000000000E10   -1.478035002946854E-2  -7.271642331033945E-3  
 2.262000000000000E10   -4.861014895141125E-3   1.550380885601044E-2  
 2.264000000000000E10    1.684206165373325E-2   3.095027990639210E-3  
 2.266000000000000E10    1.852701883763075E-3  -1.803828589618206E-2  
 2.268000000000000E10   -1.803284697234631E-2   7.950049475766718E-4  
 2.270000000000000E10    3.167395014315844E-3   1.652414351701737E-2  
 2.272000000000000E10    1.674290932714939E-2  -4.596005193889141E-3  
 2.274000000000000E10   -6.770777516067028E-3  -1.655324734747410E-2  
 2.276000000000000E10   -1.502783875912428E-2   9.009286761283875E-3  
 2.278000000000000E10    1.041967980563641E-2   1.320326421409845E-2  
 2.280000000000000E10    1.128189917653799E-2  -1.249184552580118E-2  
 2.282000000000000E10   -5.756855010986328E-3  -1.617386378347874E-2  
 2.284000000000000E10   -8.023996837437153E-3   1.497659552842379E-2  
 2.286000000000000E10    1.563152484595776E-2   5.775005090981722E-3  
 2.288000000000000E10    4.103253595530987E-3  -1.715555973351002E-2  
 2.290000000000000E10   -1.810788363218308E-2  -2.375144511461258E-3  
 2.292000000000000E10    4.154063572059386E-5   1.764949969947338E-2  
 2.294000000000000E10    1.768400520086289E-2  -2.381303114816546E-3  
 2.296000000000000E10   -4.244495648890734E-3  -1.771110296249390E-2  
 2.298000000000000E10   -1.693032681941986E-2   5.995946004986763E-3  
 2.300000000000000E10    7.250978145748377E-3   1.593919657170773E-2  
 2.302000000000000E10    1.464499719440937E-2  -9.716852568089962E-3  
 2.304000000000000E10   -1.152394153177738E-2  -1.295660994946957E-2  
 2.306000000000000E10   -1.114920526742935E-2   1.276908908039331E-2  
 2.308000000000000E10    1.392728649079800E-2   9.567927569150925E-3  
 2.310000000000000E10    7.496466394513845E-3  -1.526926364749670E-2  
 2.312000000000000E10   -1.746481657028198E-2  -4.867625422775745E-3  
 2.314000000000000E10   -2.841458190232515E-3   1.730936579406261E-2  
 2.316000000000000E10    1.753809116780758E-2   4.938883939757943E-4  
 2.318000000000000E10   -1.671584672294557E-3  -1.809440553188324E-2  
 2.320000000000000E10   -1.747437752783299E-2   3.570189466699958E-3  
 2.322000000000000E10    5.331920459866524E-3   1.683016866445541E-2  
 2.324000000000000E10    1.690979860723019E-2  -6.077690515667200E-3  
 2.326000000000000E10   -8.584828115999699E-3  -1.662370935082436E-2  
 2.328000000000000E10   -1.502161286771298E-2   1.127496361732483E-2  
 2.330000000000000E10    1.236370112746954E-2   1.304753683507443E-2  
 2.332000000000000E10    1.126558147370815E-2  -1.364005357027054E-2  
 2.334000000000000E10   -1.459100749343634E-2  -9.405597113072872E-3  
 2.336000000000000E10   -7.385015953332186E-3   1.563707552850246E-2  
 2.338000000000000E10    1.681471057236195E-2   5.051041953265667E-3  
 2.340000000000000E10    3.170172451063991E-3  -1.789932884275913E-2  
 2.342000000000000E10   -1.902118511497974E-2  -4.760641604661942E-4  
 2.344000000000000E10    2.623582258820534E-3   1.880849525332451E-2  
 2.346000000000000E10    1.893253996968269E-2  -4.355762153863907E-3  
 2.348000000000000E10   -7.813341915607452E-3  -1.767484471201897E-2  
 2.350000000000000E10   -1.727416366338730E-2   9.239081293344498E-3  
 2.352000000000000E10    1.123651955276728E-2   1.590494811534882E-2  
 2.354000000000000E10    1.399902161210775E-2  -1.310966163873673E-2  
 2.356000000000000E10   -1.415288634598255E-2  -1.262248959392309E-2  
 2.358000000000000E10   -1.060861349105835E-2   1.563706435263157E-2  
 2.360000000000000E10    1.657972671091557E-2   8.278914727270603E-3  
 2.362000000000000E10    5.592893809080124E-3  -1.729482784867287E-2  
 2.364000000000000E10   -1.773459836840630E-2  -2.383899874985218E-3  
 2.366000000000000E10   -4.374283598735929E-4   1.715665869414806E-2  
 2.368000000000000E10    1.711178943514824E-2  -1.531678019091487E-3  
 2.370000000000000E10   -3.911051433533430E-3  -1.757522672414780E-2  
 2.372000000000000E10   -1.776897720992565E-2   5.656126420944929E-3  
 2.374000000000000E10    8.236059918999672E-3   1.754706539213657E-2  
 2.376000000000000E10    1.676943153142929E-2  -1.025242265313864E-2  
 2.378000000000000E10   -1.254954747855663E-2  -1.545147597789764E-2  
 2.380000000000000E10   -1.408329512923956E-2   1.438129972666502E-2  
 2.382000000000000E10    1.535731833428145E-2   1.168839540332556E-2  
 2.384000000000000E10    8.952210657298565E-3  -1.619328185915947E-2  
 2.386000000000000E10   -1.714159362018108E-2  -7.314276415854693E-3  
 2.388000000000000E10   -5.560405552387238E-3   1.720985025167465E-2  
 2.390000000000000E10    1.826556771993637E-2   2.415617927908897E-3  
 2.392000000000000E10   -5.550038767978549E-4  -1.736309565603733E-2  
 2.394000000000000E10   -1.741213910281658E-2   2.764166565611959E-3  
 2.396000000000000E10    5.434293765574694E-3   1.787739247083664E-2  
 2.398000000000000E10    1.716825924813747E-2  -7.505134679377079E-3  
 2.400000000000000E10   -1.042389217764139E-2  -1.591785252094269E-2  
 2.402000000000000E10   -1.383706182241440E-2   1.334817055612803E-2  
 2.404000000000000E10    1.470373105257750E-2   1.234991010278463E-2  
 2.406000000000000E10    1.134677976369858E-2  -1.598684862256050E-2  
 2.408000000000000E10   -1.746154949069023E-2  -9.400057606399059E-3  
 2.410000000000000E10   -7.076085545122623E-3   1.757646352052689E-2  
 2.412000000000000E10    1.799750328063965E-2   4.949988797307015E-3  
 2.414000000000000E10    2.963871927931905E-3  -1.777360402047634E-2  
 2.416000000000000E10   -1.730447635054588E-2  -7.962487288750708E-4  
 2.418000000000000E10    9.902536403387785E-4   1.736068911850452E-2  
 2.420000000000000E10    1.599038951098919E-2  -3.488644259050489E-3  
 2.422000000000000E10   -4.745537415146828E-3  -1.585013046860695E-2  
 2.424000000000000E10   -1.616320013999939E-2   6.953157484531403E-3  
 2.426000000000000E10    9.795780293643475E-3   1.513601467013359E-2  
 2.428000000000000E10    1.442937366664410E-2  -1.161022204905748E-2  
 2.430000000000000E10   -1.352285128086805E-2  -1.309681683778763E-2  
 2.432000000000000E10   -1.197926420718432E-2   1.498789340257645E-2  
 2.434000000000000E10    1.672396250069141E-2   1.046429015696049E-2  
 2.436000000000000E10    7.860635407269001E-3  -1.754253171384335E-2  
 2.438000000000000E10   -1.754767075181007E-2  -5.779302679002285E-3  
 2.440000000000000E10   -4.556069150567055E-3   1.771300099790096E-2  
 2.442000000000000E10    1.759767532348633E-2   1.892770640552044E-3  
 2.444000000000000E10   -2.274928556289524E-5  -1.792967319488525E-2  
 2.446000000000000E10   -1.675568893551827E-2   1.904135686345398E-3  
 2.448000000000000E10    3.573138499632478E-3   1.577563397586346E-2  
 2.450000000000000E10    1.591810584068298E-2  -5.629612132906914E-3  
 2.452000000000000E10   -7.807301357388496E-3  -1.475462131202221E-2  
 2.454000000000000E10   -1.409840304404497E-2   9.559084661304951E-3  
 2.456000000000000E10    1.064893975853920E-2   1.355670485645533E-2  
 2.458000000000000E10    1.312407478690147E-2  -1.295410282909870E-2  
 2.460000000000000E10   -1.503289677202702E-2  -1.204061880707741E-2  
 2.462000000000000E10   -1.037748996168375E-2   1.554186269640923E-2  
 2.464000000000000E10    1.656986400485039E-2   8.117070421576500E-3  
 2.466000000000000E10    6.579889915883541E-3  -1.767009869217873E-2  
 2.468000000000000E10   -1.793969981372356E-2  -4.500883631408215E-3  
 2.470000000000000E10   -1.503279781900346E-3   1.843800209462643E-2  
 2.472000000000000E10    1.673449017107487E-2  -4.013787838630378E-4  
 2.474000000000000E10   -2.212052932009101E-3  -1.643439941108227E-2  
 2.476000000000000E10   -1.658771000802517E-2   4.763826262205839E-3  
 2.478000000000000E10    6.356299389153719E-3   1.555227953940630E-2  
 2.480000000000000E10    1.474614534527063E-2  -9.263412095606327E-3  
 2.482000000000000E10   -1.138581242412329E-2  -1.374970749020577E-2  
 2.484000000000000E10   -1.286120805889368E-2   1.322470791637898E-2  
 2.486000000000000E10    1.547558605670929E-2   1.115368772298098E-2  
 2.488000000000000E10    8.940004743635654E-3  -1.587776467204094E-2  
 2.490000000000000E10   -1.656831800937653E-2  -7.551340851932764E-3  
 2.492000000000000E10   -6.476619746536017E-3   1.718527264893055E-2  
 2.494000000000000E10    1.746970787644386E-2   5.400439258664846E-3  
 2.496000000000000E10    2.029022667557001E-3  -1.843674294650555E-2  
 2.498000000000000E10   -1.754314079880714E-2   6.958404555916786E-4  
 2.500000000000000E10    1.738297985866666E-3   1.618022657930851E-2  
 2.502000000000000E10    1.598121598362923E-2  -3.885225625708699E-3  
 2.504000000000000E10   -6.224450655281544E-3  -1.449254620820284E-2  
 2.506000000000000E10   -1.267180219292641E-2   7.361790630966425E-3  
 2.508000000000000E10    8.581167086958885E-3   1.347784511744976E-2  
 2.510000000000000E10    1.321717631071806E-2  -1.006162445992231E-2  
 2.512000000000000E10   -1.304942835122347E-2  -1.183035317808390E-2  
 2.514000000000000E10   -1.018534973263741E-2   1.533619686961174E-2  
 2.516000000000000E10    1.602084748446941E-2   9.074925445020199E-3  
 2.518000000000000E10    7.569484412670136E-3  -1.753839850425720E-2  
 2.520000000000000E10   -1.730425842106342E-2  -4.632765892893076E-3  
 2.522000000000000E10   -2.598776482045651E-3   1.780868321657181E-2  
 2.524000000000000E10    1.802739128470421E-2   1.326973782852292E-3  
 2.526000000000000E10   -1.321799645666033E-4  -1.692146994173527E-2  
 2.528000000000000E10   -1.678515784442425E-2   3.147283568978310E-3  
 2.530000000000000E10    5.268547218292952E-3   1.616437733173370E-2  
 2.532000000000000E10    1.539814379066229E-2  -6.929039955139160E-3  
 2.534000000000000E10   -9.038375690579414E-3  -1.401728764176369E-2  
 2.536000000000000E10   -1.181005872786045E-2   1.081131305545569E-2  
 2.538000000000000E10    1.275429781526327E-2   1.121771708130837E-2  
 2.540000000000000E10    1.046394370496273E-2  -1.397301629185677E-2  
 2.542000000000000E10   -1.564598456025124E-2  -8.689018897712231E-3  
 2.544000000000000E10   -6.711837835609913E-3   1.751800253987312E-2  
 2.546000000000000E10    1.812244206666946E-2   5.322968121618033E-3  
 2.548000000000000E10    2.627707784995437E-3  -1.877547800540924E-2  
 2.550000000000000E10   -1.901850476861000E-2  -4.918919876217842E-5  
 2.552000000000000E10    2.862825524061918E-3   1.746166311204433E-2  
 2.554000000000000E10    1.670148037374020E-2  -5.473942030221224E-3  
 2.556000000000000E10   -6.243275478482246E-3  -1.551583129912615E-2  
 2.558000000000000E10   -1.382003445178270E-2   8.077101781964302E-3  
 2.560000000000000E10    1.018474251031876E-2   1.302493456751108E-2  
 2.562000000000000E10    1.162643358111382E-2  -1.128451898694038E-2  
 2.564000000000000E10   -1.371485553681850E-2  -1.022780500352383E-2  
 2.566000000000000E10   -9.024958126246929E-3   1.547452621161938E-2  
 2.568000000000000E10    1.719385758042336E-2   5.818625912070274E-3  
 2.570000000000000E10    3.139015519991517E-3  -1.836828887462616E-2  
 2.572000000000000E10   -1.810794323682785E-2  -1.962904119864106E-3  
 2.574000000000000E10   -8.464309939881787E-5   1.791866309940815E-2  
 2.576000000000000E10    1.931591145694256E-2  -2.298561390489340E-3  
 2.578000000000000E10   -5.107145756483078E-3  -1.828423887491226E-2  
 2.580000000000000E10   -1.686970703303814E-2   7.132751401513815E-3  
 2.582000000000000E10    8.048787713050842E-3   1.546136848628521E-2  
 2.584000000000000E10    1.367432996630669E-2  -1.003965921700001E-2  
 2.586000000000000E10   -1.240417361259460E-2  -1.225650683045387E-2  
 2.588000000000000E10   -1.040539611130953E-2   1.256636809557676E-2  
 2.590000000000000E10    1.350711286067963E-2   8.660860359668732E-3  
 2.592000000000000E10    7.819229736924171E-3  -1.547651924192905E-2  
 2.594000000000000E10   -1.697531342506409E-2  -5.616446491330862E-3  
 2.596000000000000E10   -3.601318923756480E-3   1.794609427452087E-2  
 2.598000000000000E10    1.896280236542225E-2   2.030758652836084E-3  
 2.600000000000000E10   -7.771488744765520E-4  -1.894317567348480E-2  
 2.602000000000000E10   -1.955385878682137E-2   3.148268209770322E-3  
 2.604000000000000E10    4.967646207660437E-3   1.812573522329330E-2  
 2.606000000000000E10    1.642012968659401E-2  -6.464819889515638E-3  
 2.608000000000000E10   -7.618597242981195E-3  -1.576501689851284E-2  
 2.610000000000000E10   -1.433097478002310E-2   9.070948697626591E-3  
 2.612000000000000E10    1.102990377694368E-2   1.292120851576328E-2  
 2.614000000000000E10    1.141143124550581E-2  -1.227941736578941E-2  
 2.616000000000000E10   -1.340835355222225E-2  -9.091678075492382E-3  
 2.618000000000000E10   -7.288153748959303E-3   1.488137990236282E-2  
 2.620000000000000E10    1.612110808491707E-2   5.506963003426790E-3  
 2.622000000000000E10    2.958429045975208E-3  -1.643077842891216E-2  
 2.624000000000000E10   -1.691379584372044E-2  -1.706002862192690E-3  
 2.626000000000000E10    1.940911606652662E-4   1.771430484950542E-2  
 2.628000000000000E10    1.839859224855900E-2  -1.706010894849896E-3  
 2.630000000000000E10   -3.851441899314523E-3  -1.803421974182129E-2  
 2.632000000000000E10   -1.686635427176952E-2   6.586988456547260E-3  
 2.634000000000000E10    8.127165026962757E-3   1.555368863046169E-2  
 2.636000000000000E10    1.479464769363403E-2  -9.640825912356377E-3  
 2.638000000000000E10   -1.061980891972780E-2  -1.258509699255228E-2  
 2.640000000000000E10   -1.069940160959959E-2   1.095988973975182E-2  
 2.642000000000000E10    1.255408301949501E-2   9.177494794130325E-3  
 2.644000000000000E10    7.479483727365732E-3  -1.365806628018618E-2  
 2.646000000000000E10   -1.439762208610773E-2  -5.997329484671354E-3  
 2.648000000000000E10   -3.377432469278574E-3   1.522105652838945E-2  
 2.650000000000000E10    1.639884896576405E-2   1.230663387104869E-3  
 2.652000000000000E10   -8.513688226230443E-4  -1.665954105556011E-2  
 2.654000000000000E10   -1.678406260907650E-2   2.984084188938141E-3  
 2.656000000000000E10    5.160841159522533E-3   1.581729948520660E-2  
 2.658000000000000E10    1.557331066578627E-2  -7.048639468848705E-3  
 2.660000000000000E10   -8.577846921980381E-3  -1.435312721878290E-2  
 2.662000000000000E10   -1.311204954981804E-2   9.805196896195412E-3  
 2.664000000000000E10    1.110105868428946E-2   1.107606571167707E-2  
 2.666000000000000E10    9.525276720523834E-3  -1.239589694887400E-2  
 2.668000000000000E10   -1.286021806299686E-2  -7.671189028769732E-3  
 2.670000000000000E10   -5.956606939435005E-3   1.263679284602404E-2  
 2.672000000000000E10    1.348959002643824E-2   3.888660809025168E-3  
 2.674000000000000E10    2.584093250334263E-3  -1.411327719688416E-2  
 2.676000000000000E10   -1.424078550189734E-2  -5.630499217659235E-4  
 2.678000000000000E10    1.255212118849158E-3   1.460725069046021E-2  
 2.680000000000000E10    1.441390905529261E-2  -2.877504099160433E-3  
 2.682000000000000E10   -4.979169461876154E-3  -1.428520865738392E-2  
 2.684000000000000E10   -1.413669250905514E-2   6.092421710491180E-3  
 2.686000000000000E10    7.351348642259836E-3   1.304989214986563E-2  
 2.688000000000000E10    1.173566002398729E-2  -8.949680253863335E-3  
 2.690000000000000E10   -9.252638556063175E-3  -1.028952281922102E-2  
 2.692000000000000E10   -9.201706387102604E-3   1.036910247057676E-2  
 2.694000000000000E10    1.126365922391415E-2   7.735528051853180E-3  
 2.696000000000000E10    5.626909900456667E-3  -1.138309482485056E-2  
 2.698000000000000E10   -1.198161859065294E-2  -3.592994762584567E-3  
 2.700000000000000E10   -3.015489783138037E-3   1.223121210932732E-2  
 2.702000000000000E10    1.252151466906071E-2   6.579329492524266E-4  
 2.704000000000000E10   -1.783865271136165E-3  -1.225262787193060E-2  
 2.706000000000000E10   -1.182854920625687E-2   2.506776014342904E-3  
 2.708000000000000E10    3.604920580983162E-3   1.230072695761919E-2  
 2.710000000000000E10    1.181281730532646E-2  -5.126974079757929E-3  
 2.712000000000000E10   -6.370954681187868E-3  -1.144277397543192E-2  
 2.714000000000000E10   -1.080119702965021E-2   7.602671626955271E-3  
 2.716000000000000E10    7.624209392815828E-3   1.009510084986687E-2  
 2.718000000000000E10    8.875760249793530E-3  -8.554687723517418E-3  
 2.720000000000000E10   -9.510811418294907E-3  -7.262986619025469E-3  
 2.722000000000000E10   -6.957233883440495E-3   9.704827331006527E-3  
 2.724000000000000E10    1.076038088649511E-2   5.113241728395224E-3  
 2.726000000000000E10    3.462559776380658E-3  -1.096379198133946E-2  
 2.728000000000000E10   -1.106443908065558E-2  -1.855285721831024E-3  
 2.730000000000000E10    1.053518353728578E-4   1.137985382229090E-2  
 2.732000000000000E10    1.100732013583183E-2  -1.149751129560173E-3  
 2.734000000000000E10   -2.788029611110687E-3  -1.107697188854218E-2  
 2.736000000000000E10   -1.050933264195919E-2   3.864671569317579E-3  
 2.738000000000000E10    4.730381537228823E-3   1.094013452529907E-2  
 2.740000000000000E10    1.000561006367207E-2  -6.567253731191158E-3  
 2.742000000000000E10   -7.477796636521816E-3  -8.849117904901505E-3  
 2.744000000000000E10   -8.274537511169910E-3   7.929168641567230E-3  
 2.746000000000000E10    8.759712800383568E-3   7.177679333835840E-3  
 2.748000000000000E10    5.416563246399164E-3  -9.010870940983295E-3  
 2.750000000000000E10   -9.089883416891098E-3  -4.095222335308790E-3  
 2.752000000000000E10   -3.541644429787993E-3   8.902745321393013E-3  
 2.754000000000000E10    9.862765669822693E-3   2.236035419628024E-3  
 2.756000000000000E10    3.677325439639390E-4  -9.454261511564255E-3  
