#  HZ   S   RI   R     50.00 
! Rohde & Schwarz ZVA40 4Ports - Version 3.90 - 1145.1110k42 SN: 100403
! Date: 2023-10-04 10:35:32
! Measurement: S12 
! 
 2.200000000000000E10   -4.270944278687239E-3  -3.024945734068751E-3  
 2.202000000000000E10   -2.393753966316581E-3   4.607799928635359E-3  
 2.204000000000000E10    4.406521562486887E-3   2.865008777007461E-3  
 2.206000000000000E10    3.151220735162497E-3  -3.990112338215113E-3  
 2.208000000000000E10   -4.160446114838123E-3  -3.565212246030569E-3  
 2.210000000000000E10   -4.259873181581497E-3   3.856559516862035E-3  
 2.212000000000000E10    4.791463725268841E-3   4.389794077724218E-3  
 2.214000000000000E10    5.424574483186007E-3  -5.962026771157980E-3  
 2.216000000000000E10   -6.988363340497017E-3  -5.425600335001946E-3  
 2.218000000000000E10   -3.891349537298083E-3   8.367286995053291E-3  
 2.220000000000000E10    9.511093609035015E-3   3.721207845956087E-3  
 2.222000000000000E10    2.134612994268537E-3  -1.101190410554409E-2  
 2.224000000000000E10   -1.161948684602976E-2   9.444393799640238E-5  
 2.226000000000000E10    1.950243720784783E-3   1.200142502784729E-2  
 2.228000000000000E10    1.264221593737602E-2  -4.179215524345636E-3  
 2.230000000000000E10   -6.875553634017706E-3  -1.211383752524853E-2  
 2.232000000000000E10   -1.154711470007896E-2   8.105931803584099E-3  
 2.234000000000000E10    1.069017592817545E-2   1.077646389603615E-2  
 2.236000000000000E10    8.893522433936596E-3  -1.175254303961992E-2  
 2.238000000000000E10   -1.288299541920424E-2  -7.741073146462441E-3  
 2.240000000000000E10   -6.603278685361147E-3   1.461949013173580E-2  
 2.242000000000000E10    1.464984845370054E-2   4.097317345440388E-3  
 2.244000000000000E10    1.469770795665681E-3  -1.565013825893402E-2  
 2.246000000000000E10   -1.604617014527321E-2   7.662001880817115E-4  
 2.248000000000000E10    2.222964540123940E-3   1.560946926474571E-2  
 2.250000000000000E10    1.535939518362284E-2  -4.756786860525608E-3  
 2.252000000000000E10   -7.504452485591173E-3  -1.440079975873232E-2  
 2.254000000000000E10   -1.393869239836931E-2   8.886912837624550E-3  
 2.256000000000000E10    1.073714811354876E-2   1.286630891263485E-2  
 2.258000000000000E10    1.186773087829351E-2  -1.244601793587208E-2  
 2.260000000000000E10   -1.344449911266565E-2  -1.039877813309431E-2  
 2.262000000000000E10   -8.539841510355473E-3   1.522253826260567E-2  
 2.264000000000000E10    1.583017967641354E-2   7.424294482916594E-3  
 2.266000000000000E10    5.525722634047270E-3  -1.683844812214375E-2  
 2.268000000000000E10   -1.725578866899014E-2  -1.913568703457713E-3  
 2.270000000000000E10    9.458413842367008E-5   1.684932224452496E-2  
 2.272000000000000E10    1.627379655838013E-2  -1.542578334920108E-3  
 2.274000000000000E10   -3.213986055925489E-3  -1.638118550181389E-2  
 2.276000000000000E10   -1.589205674827099E-2   6.335937883704901E-3  
 2.278000000000000E10    8.812353946268559E-3   1.484926138073206E-2  
 2.280000000000000E10    1.412553247064352E-2  -1.048809941858053E-2  
 2.282000000000000E10   -2.481204923242331E-3  -1.684150844812393E-2  
 2.284000000000000E10   -1.085430569946766E-2   1.407327596098185E-2  
 2.286000000000000E10    1.562099158763886E-2   9.541678242385387E-3  
 2.288000000000000E10    8.241768926382065E-3  -1.566906832158566E-2  
 2.290000000000000E10   -1.681462489068508E-2  -6.422926206141710E-3  
 2.292000000000000E10   -4.265489522367716E-3   1.764456555247307E-2  
 2.294000000000000E10    1.820971444249153E-2   2.237134380266070E-3  
 2.296000000000000E10    7.083372474880889E-5  -1.819474063813686E-2  
 2.298000000000000E10   -1.738871447741985E-2   2.334046177566052E-3  
 2.300000000000000E10    5.311537533998489E-3   1.648839563131332E-2  
 2.302000000000000E10    1.590216159820557E-2  -7.391851861029863E-3  
 2.304000000000000E10   -9.254586882889271E-3  -1.424067374318838E-2  
 2.306000000000000E10   -1.277860905975103E-2   1.081934291869402E-2  
 2.308000000000000E10    1.244086306542158E-2   1.172621455043554E-2  
 2.310000000000000E10    1.007590722292662E-2  -1.478932984173298E-2  
 2.312000000000000E10   -1.612628437578678E-2  -8.886332623660564E-3  
 2.314000000000000E10   -6.412643939256668E-3   1.684715971350670E-2  
 2.316000000000000E10    1.783568598330021E-2   4.275803919881582E-3  
 2.318000000000000E10    2.560278400778770E-3  -1.806237362325192E-2  
 2.320000000000000E10   -1.806032657623291E-2  -4.510324506554753E-4  
 2.322000000000000E10    6.303904228843749E-4   1.777973026037216E-2  
 2.324000000000000E10    1.747590862214565E-2  -3.049059305340052E-3  
 2.326000000000000E10   -5.139213055372238E-3  -1.741652935743332E-2  
 2.328000000000000E10   -1.632081158459187E-2   7.689542602747679E-3  
 2.330000000000000E10    9.903052821755409E-3   1.404188852757216E-2  
 2.332000000000000E10    1.255109906196594E-2  -1.162239722907543E-2  
 2.334000000000000E10   -1.277187187224627E-2  -1.110500749200583E-2  
 2.336000000000000E10   -9.495688602328301E-3   1.421403605490923E-2  
 2.338000000000000E10    1.597771048545837E-2   7.940838113427162E-3  
 2.340000000000000E10    5.495917052030563E-3  -1.712683402001858E-2  
 2.342000000000000E10   -1.871713437139988E-2  -4.373725969344378E-3  
 2.344000000000000E10   -1.662683906033635E-3   2.012029476463795E-2  
 2.346000000000000E10    1.941972784698010E-2  -1.124982023611665E-3  
 2.348000000000000E10   -2.640995196998119E-3  -1.903663389384747E-2  
 2.350000000000000E10   -1.835648342967033E-2   5.080755334347487E-3  
 2.352000000000000E10    7.418899331241846E-3   1.741572469472885E-2  
 2.354000000000000E10    1.633404009044170E-2  -9.048319421708584E-3  
 2.356000000000000E10   -1.106887310743332E-2  -1.441745739430189E-2  
 2.358000000000000E10   -1.288458053022623E-2   1.313038822263479E-2  
 2.360000000000000E10    1.458930224180222E-2   1.070919539779425E-2  
 2.362000000000000E10    8.252580650150776E-3  -1.591362431645393E-2  
 2.364000000000000E10   -1.711559295654297E-2  -5.695284809917212E-3  
 2.366000000000000E10   -3.021643962711096E-3   1.698098331689835E-2  
 2.368000000000000E10    1.770027540624142E-2   2.007439034059644E-3  
 2.370000000000000E10   -1.997621293412522E-4  -1.853988319635391E-2  
 2.372000000000000E10   -1.867436990141869E-2   2.429608954116702E-3  
 2.374000000000000E10    4.229897167533636E-3   1.924621686339378E-2  
 2.376000000000000E10    1.844296976923943E-2  -6.495575420558453E-3  
 2.378000000000000E10   -8.781759068369865E-3  -1.731462404131889E-2  
 2.380000000000000E10   -1.617719419300556E-2   1.105663273483515E-2  
 2.382000000000000E10    1.293761003762484E-2   1.359884999692440E-2  
 2.384000000000000E10    1.172712817788124E-2  -1.387012936174870E-2  
 2.386000000000000E10   -1.493721641600132E-2  -9.499472565948963E-3  
 2.388000000000000E10   -6.925105117261410E-3   1.621551252901554E-2  
 2.390000000000000E10    1.754038222134113E-2   5.376392509788275E-3  
 2.392000000000000E10    2.669223118573427E-3  -1.779604516923428E-2  
 2.394000000000000E10   -1.817039214074612E-2  -8.849670412018895E-4  
 2.396000000000000E10    1.462998450733721E-3   1.887737028300762E-2  
 2.398000000000000E10    1.875046826899052E-2  -3.896544454619288E-3  
 2.400000000000000E10   -6.035604048520327E-3  -1.822669617831707E-2  
 2.402000000000000E10   -1.576766930520535E-2   1.024284493178129E-2  
 2.404000000000000E10    1.140889432281256E-2   1.471222192049027E-2  
 2.406000000000000E10    1.410444732755423E-2  -1.275442168116570E-2  
 2.408000000000000E10   -1.383451465517283E-2  -1.192135270684958E-2  
 2.410000000000000E10   -9.704761207103729E-3   1.501500979065895E-2  
 2.412000000000000E10    1.565860398113728E-2   7.759985979646444E-3  
 2.414000000000000E10    6.012696772813797E-3  -1.645924896001816E-2  
 2.416000000000000E10   -1.683221198618412E-2  -3.391165053471923E-3  
 2.418000000000000E10   -7.337906281463802E-4   1.681737229228020E-2  
 2.420000000000000E10    1.707687228918076E-2  -1.006823149509728E-3  
 2.422000000000000E10   -2.310177078470588E-3  -1.702667027711868E-2  
 2.424000000000000E10   -1.741826534271240E-2   3.999618813395500E-3  
 2.426000000000000E10    6.446354091167450E-3   1.738948188722134E-2  
 2.428000000000000E10    1.670567505061626E-2  -8.598034270107746E-3  
 2.430000000000000E10   -9.781398810446262E-3  -1.648011803627014E-2  
 2.432000000000000E10   -1.481258589774370E-2   1.156827807426453E-2  
 2.434000000000000E10    1.316422596573830E-2   1.347320713102818E-2  
 2.436000000000000E10    1.177251432090998E-2  -1.480140630155802E-2  
 2.438000000000000E10   -1.434261631220579E-2  -9.062354452908039E-3  
 2.440000000000000E10   -7.093064021319151E-3   1.499966159462929E-2  
 2.442000000000000E10    1.604319363832474E-2   5.310882814228535E-3  
 2.444000000000000E10    2.861254848539829E-3  -1.606433093547821E-2  
 2.446000000000000E10   -1.600976474583149E-2  -7.658987306058407E-4  
 2.448000000000000E10    1.222724444232881E-3   1.619183458387852E-2  
 2.450000000000000E10    1.660083420574665E-2  -2.874524332582951E-3  
 2.452000000000000E10   -5.276006180793047E-3  -1.667993515729904E-2  
 2.454000000000000E10   -1.545065920799971E-2   7.095962297171354E-3  
 2.456000000000000E10    8.476785384118557E-3   1.547869667410851E-2  
 2.458000000000000E10    1.578675583004952E-2  -1.003757119178772E-2  
 2.460000000000000E10   -1.169849932193756E-2  -1.389169134199619E-2  
 2.462000000000000E10   -1.249585207551718E-2   1.328635960817337E-2  
 2.464000000000000E10    1.406355947256088E-2   1.127268653362989E-2  
 2.466000000000000E10    9.691203013062477E-3  -1.455124560743570E-2  
 2.468000000000000E10   -1.557270530611277E-2  -7.473891600966454E-3  
 2.470000000000000E10   -4.690476227551699E-3   1.648026704788208E-2  
 2.472000000000000E10    1.620292663574219E-2   2.440401120111346E-3  
 2.474000000000000E10    6.807242170907557E-4  -1.613158918917179E-2  
 2.476000000000000E10   -1.617249660193920E-2   9.469332871958613E-4  
 2.478000000000000E10    3.691134508699179E-3   1.620140299201012E-2  
 2.480000000000000E10    1.665990427136421E-2  -6.217453628778458E-3  
 2.482000000000000E10   -7.952448911964893E-3  -1.594895869493485E-2  
 2.484000000000000E10   -1.543906517326832E-2   9.882830083370209E-3  
 2.486000000000000E10    1.248552463948727E-2   1.384793221950531E-2  
 2.488000000000000E10    1.172890793532133E-2  -1.366921607404947E-2  
 2.490000000000000E10   -1.378919929265976E-2  -1.066677831113339E-2  
 2.492000000000000E10   -9.247175417840481E-3   1.431016158312559E-2  
 2.494000000000000E10    1.573698036372662E-2   7.179925683885813E-3  
 2.496000000000000E10    4.924961831420660E-3  -1.682088337838650E-2  
 2.498000000000000E10   -1.574083231389523E-2  -2.445325721055269E-3  
 2.500000000000000E10   -3.901835298165679E-4   1.522243116050959E-2  
 2.502000000000000E10    1.576761342585087E-2  -1.532538793981075E-3  
 2.504000000000000E10   -4.066647496074438E-3  -1.524060219526291E-2  
 2.506000000000000E10   -1.396490074694157E-2   4.550279118120670E-3  
 2.508000000000000E10    5.429309327155352E-3   1.426206436008215E-2  
 2.510000000000000E10    1.447345595806837E-2  -8.254555054008961E-3  
 2.512000000000000E10   -9.829855524003506E-3  -1.468302030116320E-2  
 2.514000000000000E10   -1.363692525774241E-2   1.154219545423985E-2  
 2.516000000000000E10    1.280053518712521E-2   1.160986348986626E-2  
 2.518000000000000E10    1.058056484907866E-2  -1.461041066795588E-2  
 2.520000000000000E10   -1.566154882311821E-2  -8.666405454277992E-3  
 2.522000000000000E10   -6.864081602543593E-3   1.499181706458330E-2  
 2.524000000000000E10    1.522515155375004E-2   4.539736080914736E-3  
 2.526000000000000E10    2.187414560467005E-3  -1.582050696015358E-2  
 2.528000000000000E10   -1.613504625856876E-2  -1.495094504207373E-3  
 2.530000000000000E10    1.882383599877358E-3   1.613985933363438E-2  
 2.532000000000000E10    1.527731679379940E-2  -4.404237028211355E-3  
 2.534000000000000E10   -6.245793309062719E-3  -1.525732502341270E-2  
 2.536000000000000E10   -1.441386155784130E-2   8.453866466879845E-3  
 2.538000000000000E10    9.803914465010166E-3   1.307085901498795E-2  
 2.540000000000000E10    1.222096569836140E-2  -1.175183430314064E-2  
 2.542000000000000E10   -1.368129253387451E-2  -1.155887916684151E-2  
 2.544000000000000E10   -1.048510987311602E-2   1.450417842715979E-2  
 2.546000000000000E10    1.584435999393463E-2   8.011247962713242E-3  
 2.548000000000000E10    6.367492955178022E-3  -1.663291081786156E-2  
 2.550000000000000E10   -1.759827136993408E-2  -3.645961405709386E-3  
 2.552000000000000E10   -9.157332824543119E-4   1.709769479930401E-2  
 2.554000000000000E10    1.568228378891945E-2  -1.154401339590550E-3  
 2.556000000000000E10   -3.147924784570932E-3  -1.488289050757885E-2  
 2.558000000000000E10   -1.511562801897526E-2   4.750484600663185E-3  
 2.560000000000000E10    7.111630402505398E-3   1.397429872304201E-2  
 2.562000000000000E10    1.313084084540606E-2  -8.699060417711735E-3  
 2.564000000000000E10   -1.106236036866903E-2  -1.260122004896402E-2  
 2.566000000000000E10   -1.138074230402708E-2   1.383329927921295E-2  
 2.568000000000000E10    1.589527539908886E-2   9.776152670383453E-3  
 2.570000000000000E10    7.220877334475517E-3  -1.623070426285267E-2  
 2.572000000000000E10   -1.705559529364109E-2  -5.342655815184116E-3  
 2.574000000000000E10   -4.638646263629198E-3   1.782054081559181E-2  
 2.576000000000000E10    1.779994554817677E-2   2.118125790730119E-3  
 2.578000000000000E10   -1.007146085612476E-3  -1.790758967399597E-2  
 2.580000000000000E10   -1.682915911078453E-2   3.038809867575765E-3  
 2.582000000000000E10    5.185976624488831E-3   1.594527438282967E-2  
 2.584000000000000E10    1.524559222161770E-2  -6.647810805588961E-3  
 2.586000000000000E10   -8.721003308892250E-3  -1.326557062566280E-2  
 2.588000000000000E10   -1.137953065335751E-2   1.065282523632050E-2  
 2.590000000000000E10    1.111872028559446E-2   1.089770067483187E-2  
 2.592000000000000E10    9.601077996194363E-3  -1.222726237028837E-2  
 2.594000000000000E10   -1.432373747229576E-2  -8.670957759022713E-3  
 2.596000000000000E10   -7.047722116112709E-3   1.538018230348826E-2  
 2.598000000000000E10    1.688373647630215E-2   5.196898244321346E-3  
 2.600000000000000E10    3.989871591329575E-3  -1.790395192801952E-2  
 2.602000000000000E10   -1.801240630447865E-2  -1.567819272167981E-3  
 2.604000000000000E10    1.265930244699121E-3   1.789381727576256E-2  
 2.606000000000000E10    1.684778742492199E-2  -2.740446245297790E-3  
 2.608000000000000E10   -4.211732652038336E-3  -1.564226858317852E-2  
 2.610000000000000E10   -1.524017006158829E-2   5.853882990777493E-3  
 2.612000000000000E10    7.534528616815805E-3   1.431318372488022E-2  
 2.614000000000000E10    1.290815323591232E-2  -9.707991033792496E-3  
 2.616000000000000E10   -1.105247344821692E-2  -1.200661715120077E-2  
 2.618000000000000E10   -1.036578509956598E-2   1.236468739807606E-2  
 2.620000000000000E10    1.480152457952499E-2   8.547282777726650E-3  
 2.622000000000000E10    6.553866900503635E-3  -1.519418042153120E-2  
 2.624000000000000E10   -1.557652372866869E-2  -5.328172352164984E-3  
 2.626000000000000E10   -4.300210624933243E-3   1.636522077023983E-2  
 2.628000000000000E10    1.710227876901627E-2   2.470905659720302E-3  
 2.630000000000000E10   -3.881410157191567E-5  -1.702210679650307E-2  
 2.632000000000000E10   -1.675989292562008E-2   1.893637352623045E-3  
 2.634000000000000E10    4.023773595690727E-3   1.571663096547127E-2  
 2.636000000000000E10    1.452060136944056E-2  -5.803408101201057E-3  
 2.638000000000000E10   -7.346019148826599E-3  -1.280430983752012E-2  
 2.640000000000000E10   -1.138537656515837E-2   8.468817919492722E-3  
 2.642000000000000E10    9.616491384804249E-3   1.062181591987610E-2  
 2.644000000000000E10    8.892216719686985E-3  -1.116199139505625E-2  
 2.646000000000000E10   -1.305214874446392E-2  -6.993400398641825E-3  
 2.648000000000000E10   -6.132490932941437E-3   1.443022396415472E-2  
 2.650000000000000E10    1.507867872714996E-2   4.357222467660904E-3  
 2.652000000000000E10    1.936945482157171E-3  -1.606858335435391E-2  
 2.654000000000000E10   -1.649231649935246E-2   3.158540639560670E-4  
 2.656000000000000E10    1.557110692374408E-3   1.615048199892044E-2  
 2.658000000000000E10    1.579845882952213E-2  -2.884821500629187E-3  
 2.660000000000000E10   -5.078391637653112E-3  -1.475731283426285E-2  
 2.662000000000000E10   -1.356149185448885E-2   6.297259125858545E-3  
 2.664000000000000E10    7.637274451553822E-3   1.279817707836628E-2  
 2.666000000000000E10    1.080481801182032E-2  -8.648465387523174E-3  
 2.668000000000000E10   -9.844797663390636E-3  -8.771168999373913E-3  
 2.670000000000000E10   -7.094865199178457E-3   1.059519592672586E-2  
 2.672000000000000E10    1.086412742733955E-2   6.318883970379829E-3  
 2.674000000000000E10    4.666885826736689E-3  -1.228621043264866E-2  
 2.676000000000000E10   -1.288209855556488E-2  -3.198811784386635E-3  
 2.678000000000000E10   -1.496055512689054E-3   1.300607156008482E-2  
 2.680000000000000E10    1.385281421244144E-2   3.472281241556630E-5  
 2.682000000000000E10   -1.569870859384537E-3  -1.343453861773014E-2  
 2.684000000000000E10   -1.355561427772045E-2   2.873769961297512E-3  
 2.686000000000000E10    4.460471682250500E-3   1.287144701927900E-2  
 2.688000000000000E10    1.249570213258266E-2  -5.278856027871370E-3  
 2.690000000000000E10   -6.924208253622055E-3  -1.145251281559467E-2  
 2.692000000000000E10   -9.932519868016243E-3   7.582479622215033E-3  
 2.694000000000000E10    8.402582257986069E-3   9.080146439373493E-3  
 2.696000000000000E10    7.525511551648378E-3  -9.934509173035622E-3  
 2.698000000000000E10   -9.910327382385731E-3  -6.016001105308533E-3  
 2.700000000000000E10   -3.821233287453651E-3   1.063362509012222E-2  
 2.702000000000000E10    1.154950261116028E-2   2.590829739347100E-3  
 2.704000000000000E10    1.099466113373637E-3  -1.165393367409706E-2  
 2.706000000000000E10   -1.102392934262753E-2   8.299812325276434E-4  
 2.708000000000000E10    7.707652403041720E-4   1.124381087720394E-2  
 2.710000000000000E10    1.167611498385668E-2  -1.958072651177645E-3  
 2.712000000000000E10   -3.591070650145412E-3  -1.148145180195570E-2  
 2.714000000000000E10   -1.068927720189095E-2   4.175154026597738E-3  
 2.716000000000000E10    5.297158844769001E-3   9.973736479878426E-3  
 2.718000000000000E10    9.305161423981190E-3  -6.254253908991814E-3  
 2.720000000000000E10   -6.596440915018320E-3  -8.630173280835152E-3  
 2.722000000000000E10   -6.647721864283085E-3   7.851802743971348E-3  
 2.724000000000000E10    7.736508734524250E-3   5.923442076891661E-3  
 2.726000000000000E10    5.017758347094059E-3  -9.092406369745731E-3  
 2.728000000000000E10   -9.468603879213333E-3  -2.500919857993722E-3  
 2.730000000000000E10   -1.966548385098577E-3   9.604462422430515E-3  
 2.732000000000000E10    9.829081594944000E-3   7.920977659523487E-4  
 2.734000000000000E10   -4.652292118407786E-4  -1.041226740926504E-2  
 2.736000000000000E10   -1.075852662324905E-2   1.677738735452294E-3  
 2.738000000000000E10    2.875155536457896E-3   1.037404499948025E-2  
 2.740000000000000E10    1.032833755016327E-2  -3.565262071788311E-3  
 2.742000000000000E10   -4.818757995963097E-3  -9.458568878471851E-3  
 2.744000000000000E10   -8.357000537216663E-3   5.679029040038586E-3  
 2.746000000000000E10    5.507861264050007E-3   7.581435609608889E-3  
 2.748000000000000E10    6.803743541240692E-3  -6.043721921741962E-3  
 2.750000000000000E10   -6.796318572014570E-3  -5.690906196832657E-3  
 2.752000000000000E10   -4.645709414035082E-3   7.272862363606691E-3  
 2.754000000000000E10    7.608937565237284E-3   3.673638217151165E-3  
 2.756000000000000E10    2.253361977636814E-3  -8.307138457894325E-3  
