#  HZ   S   RI   R     50.00 
! Rohde & Schwarz ZVA40 4Ports - Version 3.90 - 1145.1110k42 SN: 100403
! Date: 2023-10-04 10:36:58
! Measurement: S12 
! 
 2.200000000000000E10   -3.732903394848108E-3  -4.981835838407278E-3  
 2.202000000000000E10   -4.347865469753742E-3   3.638986730948091E-3  
 2.204000000000000E10    3.423914778977633E-3   3.766960697248578E-3  
 2.206000000000000E10    4.296048078685999E-3  -3.242915263399482E-3  
 2.208000000000000E10   -3.179208142682910E-3  -4.856570158153772E-3  
 2.210000000000000E10   -5.485121160745621E-3   3.546538529917598E-3  
 2.212000000000000E10    3.767575137317181E-3   6.466928403824568E-3  
 2.214000000000000E10    5.987619049847126E-3  -4.844187758862972E-3  
 2.216000000000000E10   -6.401604972779751E-3  -6.511889398097992E-3  
 2.218000000000000E10   -6.335153244435787E-3   6.847789511084557E-3  
 2.220000000000000E10    8.219866082072258E-3   5.743654444813728E-3  
 2.222000000000000E10    4.991676192730665E-3  -9.800099767744541E-3  
 2.224000000000000E10   -1.122549735009670E-2  -3.497539320960641E-3  
 2.226000000000000E10   -1.640622038394213E-3   1.201873831450939E-2  
 2.228000000000000E10    1.308130286633968E-2  -4.042570071760565E-5  
 2.230000000000000E10   -2.583662979304791E-3  -1.304861158132553E-2  
 2.232000000000000E10   -1.430596131831408E-2   5.095153581351042E-3  
 2.234000000000000E10    7.187671493738890E-3   1.317427866160870E-2  
 2.236000000000000E10    1.161378063261509E-2  -9.066714905202389E-3  
 2.238000000000000E10   -1.025871559977531E-2  -1.108844112604857E-2  
 2.240000000000000E10   -9.816836565732956E-3   1.221257261931896E-2  
 2.242000000000000E10    1.450377516448498E-2   8.163419552147389E-3  
 2.244000000000000E10    6.448276340961456E-3  -1.452008727937937E-2  
 2.246000000000000E10   -1.493023708462715E-2  -4.034209996461868E-3  
 2.248000000000000E10   -1.634784741327167E-3   1.638998091220856E-2  
 2.250000000000000E10    1.649145781993866E-2  -3.685019037220627E-4  
 2.252000000000000E10   -2.985361730679870E-3  -1.576298475265503E-2  
 2.254000000000000E10   -1.506188139319420E-2   5.554327275604010E-3  
 2.256000000000000E10    7.369219325482845E-3   1.463413704186678E-2  
 2.258000000000000E10    1.399204693734646E-2  -9.598585776984692E-3  
 2.260000000000000E10   -9.833783842623234E-3  -1.301659271121025E-2  
 2.262000000000000E10   -1.127768401056528E-2   1.177291665226221E-2  
 2.264000000000000E10    1.354426238685846E-2   1.035509724169970E-2  
 2.266000000000000E10    9.101926349103451E-3  -1.471091993153095E-2  
 2.268000000000000E10   -1.553012710064650E-2  -7.042209617793560E-3  
 2.270000000000000E10   -4.772670567035675E-3   1.596793532371521E-2  
 2.272000000000000E10    1.641220971941948E-2   3.752725664526224E-3  
 2.274000000000000E10    1.617845147848129E-3  -1.692435517907143E-2  
 2.276000000000000E10   -1.728707365691662E-2   1.066369703039527E-3  
 2.278000000000000E10    3.983417060226202E-3   1.672333292663097E-2  
 2.280000000000000E10    1.580127514898777E-2  -6.126387044787407E-3  
 2.282000000000000E10    1.973833423107863E-3  -1.701715216040611E-2  
 2.284000000000000E10   -1.406315714120865E-2   9.981710463762283E-3  
 2.286000000000000E10    1.183963567018509E-2   1.257413439452648E-2  
 2.288000000000000E10    1.129038445651531E-2  -1.320720836520195E-2  
 2.290000000000000E10   -1.400847081094980E-2  -1.056029088795185E-2  
 2.292000000000000E10   -9.170423261821270E-3   1.573590189218521E-2  
 2.294000000000000E10    1.691959798336029E-2   6.353054661303759E-3  
 2.296000000000000E10    3.794103162363172E-3  -1.695421710610390E-2  
 2.298000000000000E10   -1.696711406111717E-2  -2.552356803789735E-3  
 2.300000000000000E10   -7.495089666917920E-4   1.665294356644154E-2  
 2.302000000000000E10    1.656316779553890E-2  -2.363920444622636E-3  
 2.304000000000000E10   -4.036217927932739E-3  -1.597631722688675E-2  
 2.306000000000000E10   -1.533302105963230E-2   5.817664787173271E-3  
 2.308000000000000E10    7.936642505228519E-3   1.448142807930708E-2  
 2.310000000000000E10    1.364502962678671E-2  -1.049920264631510E-2  
 2.312000000000000E10   -1.285014953464270E-2  -1.241014339029789E-2  
 2.314000000000000E10   -1.130853034555912E-2   1.410567574203014E-2  
 2.316000000000000E10    1.587869785726070E-2   8.918558247387409E-3  
 2.318000000000000E10    6.510584149509668E-3  -1.697335205972195E-2  
 2.320000000000000E10   -1.707652769982815E-2  -4.706664942204952E-3  
 2.322000000000000E10   -3.425833303481340E-3   1.751849055290222E-2  
 2.324000000000000E10    1.793659292161465E-2   1.779458951205015E-3  
 2.326000000000000E10   -7.764269830659032E-4  -1.782628521323204E-2  
 2.328000000000000E10   -1.762188598513603E-2   2.923843450844288E-3  
 2.330000000000000E10    5.060138646513224E-3   1.660096272826195E-2  
 2.332000000000000E10    1.526356860995293E-2  -7.467315532267094E-3  
 2.334000000000000E10   -9.112875908613205E-3  -1.376116182655096E-2  
 2.336000000000000E10   -1.245866809040308E-2   1.017166394740343E-2  
 2.338000000000000E10    1.205834932625294E-2   1.130820158869028E-2  
 2.340000000000000E10    9.974168613553047E-3  -1.378451380878687E-2  
 2.342000000000000E10   -1.515253819525242E-2  -8.190038613975048E-3  
 2.344000000000000E10   -6.606523878872395E-3   1.703225262463093E-2  
 2.346000000000000E10    1.775992102921009E-2   4.278324544429779E-3  
 2.348000000000000E10    2.110201865434647E-3  -1.803416572511196E-2  
 2.350000000000000E10   -1.863579824566841E-2  -3.763588319998235E-4  
 2.352000000000000E10    2.406326122581959E-3   1.851698756217957E-2  
 2.354000000000000E10    1.784030720591545E-2  -4.042487125843763E-3  
 2.356000000000000E10   -5.944763775914908E-3  -1.727159880101681E-2  
 2.358000000000000E10   -1.551405899226666E-2   8.025028742849827E-3  
 2.360000000000000E10    1.019745599478483E-2   1.457324065268040E-2  
 2.362000000000000E10    1.266767736524344E-2  -1.242394931614399E-2  
 2.364000000000000E10   -1.356049254536629E-2  -9.834435768425465E-3  
 2.366000000000000E10   -7.662438787519932E-3   1.438303850591183E-2  
 2.368000000000000E10    1.567160151898861E-2   5.747191142290831E-3  
 2.370000000000000E10    4.695138894021511E-3  -1.672826148569584E-2  
 2.372000000000000E10   -1.739806123077869E-2  -2.649718197062612E-3  
 2.374000000000000E10   -5.140628782100976E-4   1.829559914767742E-2  
 2.376000000000000E10    1.875630952417851E-2  -1.260074903257191E-3  
 2.378000000000000E10   -3.738495521247387E-3  -1.874494738876820E-2  
 2.380000000000000E10   -1.825398765504360E-2   5.658087320625782E-3  
 2.382000000000000E10    8.039988577365875E-3   1.703597418963909E-2  
 2.384000000000000E10    1.516524795442820E-2  -9.929490275681019E-3  
 2.386000000000000E10   -1.109718158841133E-2  -1.423826999962330E-2  
 2.388000000000000E10   -1.205520611256361E-2   1.211977750062943E-2  
 2.390000000000000E10    1.379852835088968E-2   1.006064191460609E-2  
 2.392000000000000E10    8.273771964013577E-3  -1.538560912013054E-2  
 2.394000000000000E10   -1.596992835402489E-2  -5.407346878200769E-3  
 2.396000000000000E10   -3.840031567960978E-3   1.663043349981308E-2  
 2.398000000000000E10    1.740223169326782E-2   9.865734027698636E-4  
 2.400000000000000E10   -1.250529778189957E-3  -1.808314211666584E-2  
 2.402000000000000E10   -1.742172613739967E-2   5.366219207644463E-3  
 2.404000000000000E10    6.993634626269341E-3   1.581427268683910E-2  
 2.406000000000000E10    1.607812196016312E-2  -8.224926888942719E-3  
 2.408000000000000E10   -1.085655018687248E-2  -1.541342213749886E-2  
 2.410000000000000E10   -1.310339383780956E-2   1.162568014115095E-2  
 2.412000000000000E10    1.282524596899748E-2   1.246073748916388E-2  
 2.414000000000000E10    1.017429120838642E-2  -1.377841550856829E-2  
 2.416000000000000E10   -1.482713967561722E-2  -8.825968950986862E-3  
 2.418000000000000E10   -6.287580821663141E-3   1.543780136853457E-2  
 2.420000000000000E10    1.473583094775677E-2   4.325958900153637E-3  
 2.422000000000000E10    3.158960258588195E-3  -1.562472060322762E-2  
 2.424000000000000E10   -1.661165431141853E-2  -1.337303430773318E-3  
 2.426000000000000E10    8.783102384768426E-4   1.631896011531353E-2  
 2.428000000000000E10    1.702637225389481E-2  -2.921334002166987E-3  
 2.430000000000000E10   -5.153454374521971E-3  -1.685152761638165E-2  
 2.432000000000000E10   -1.642463728785515E-2   6.816792301833630E-3  
 2.434000000000000E10    9.391959756612778E-3   1.584393717348576E-2  
 2.436000000000000E10    1.392267085611820E-2  -1.060782931745052E-2  
 2.438000000000000E10   -1.174825709313154E-2  -1.291752792894840E-2  
 2.440000000000000E10   -1.144206151366234E-2   1.276330929249525E-2  
 2.442000000000000E10    1.339266914874315E-2   9.900089353322983E-3  
 2.444000000000000E10    7.728430908173323E-3  -1.437188871204853E-2  
 2.446000000000000E10   -1.471615117043257E-2  -5.989664699882269E-3  
 2.448000000000000E10   -4.280940163880587E-3   1.473989244550467E-2  
 2.450000000000000E10    1.566145010292530E-2   1.486716093495488E-3  
 2.452000000000000E10    1.284878671867773E-4  -1.579406857490540E-2  
 2.454000000000000E10   -1.550743915140629E-2   2.129846252501011E-3  
 2.456000000000000E10    3.545022802427411E-3   1.549681462347508E-2  
 2.458000000000000E10    1.583348959684372E-2  -5.130208097398281E-3  
 2.460000000000000E10   -7.341039367020130E-3  -1.579537428915501E-2  
 2.462000000000000E10   -1.501082163304091E-2   9.037277661263943E-3  
 2.464000000000000E10    9.904460981488228E-3   1.353919040411711E-2  
 2.466000000000000E10    1.298648957163096E-2  -1.177651528269053E-2  
 2.468000000000000E10   -1.303057465702295E-2  -1.171408034861088E-2  
 2.470000000000000E10   -9.500463493168354E-3   1.370698492974043E-2  
 2.472000000000000E10    1.409807987511158E-2   7.048332598060370E-3  
 2.474000000000000E10    6.018243730068207E-3  -1.383858174085617E-2  
 2.476000000000000E10   -1.448103226721287E-2  -3.756590420380235E-3  
 2.478000000000000E10   -2.020807703956962E-3   1.502657309174538E-2  
 2.480000000000000E10    1.482811197638512E-2  -2.405380801064894E-4  
 2.482000000000000E10   -2.275253878906369E-3  -1.538076158612967E-2  
 2.484000000000000E10   -1.609623618423939E-2   4.508534446358681E-3  
 2.486000000000000E10    7.488197647035122E-3   1.522398274391890E-2  
 2.488000000000000E10    1.345944590866566E-2  -9.718124754726887E-3  
 2.490000000000000E10   -1.030293386429548E-2  -1.291560381650925E-2  
 2.492000000000000E10   -1.224128250032663E-2   1.168420910835266E-2  
 2.494000000000000E10    1.288003288209438E-2   1.138882152736187E-2  
 2.496000000000000E10    9.216967038810253E-3  -1.460060290992260E-2  
 2.498000000000000E10   -1.500487513840199E-2  -7.262459024786949E-3  
 2.500000000000000E10   -6.060909479856491E-3   1.483857259154320E-2  
 2.502000000000000E10    1.449643541127443E-2   3.779750084504485E-3  
 2.504000000000000E10    8.915211656130850E-4  -1.437730435281992E-2  
 2.506000000000000E10   -1.361289247870445E-2   1.528161519672722E-4  
 2.508000000000000E10    5.439253873191774E-4   1.320998650044203E-2  
 2.510000000000000E10    1.359779667109251E-2  -2.350955270230770E-3  
 2.512000000000000E10   -4.796986468136311E-3  -1.355543639510870E-2  
 2.514000000000000E10   -1.372847054153681E-2   6.380199920386076E-3  
 2.516000000000000E10    8.413344621658325E-3   1.357169542461634E-2  
 2.518000000000000E10    1.165803428739309E-2  -1.020496059209108E-2  
 2.520000000000000E10   -1.169778872281313E-2  -1.087681669741869E-2  
 2.522000000000000E10   -9.852363727986813E-3   1.314116828143597E-2  
 2.524000000000000E10    1.296832133084536E-2   8.209725841879845E-3  
 2.526000000000000E10    6.676996592432261E-3  -1.372398622334003E-2  
 2.528000000000000E10   -1.477951928973198E-2  -5.576968193054199E-3  
 2.530000000000000E10   -4.463639575988054E-3   1.510922145098448E-2  
 2.532000000000000E10    1.538547687232494E-2   1.138835796155036E-3  
 2.534000000000000E10   -4.581575631164014E-4  -1.412755809724331E-2  
 2.536000000000000E10   -1.434113830327988E-2   2.837634412571788E-3  
 2.538000000000000E10    4.698517732322216E-3   1.395255420356989E-2  
 2.540000000000000E10    1.257256139069796E-2  -5.904349032789469E-3  
 2.542000000000000E10   -8.150354959070683E-3  -1.228256151080132E-2  
 2.544000000000000E10   -1.205104682594538E-2   9.973015636205673E-3  
 2.546000000000000E10    1.126639358699322E-2   1.078835222870112E-2  
 2.548000000000000E10    8.950346149504185E-3  -1.357622165232897E-2  
 2.550000000000000E10   -1.433215104043484E-2  -7.832500152289867E-3  
 2.552000000000000E10   -5.905608180910349E-3   1.538595091551542E-2  
 2.554000000000000E10    1.516362372785807E-2   3.743384033441544E-3  
 2.556000000000000E10    2.137943170964718E-3  -1.427544932812452E-2  
 2.558000000000000E10   -1.502129342406988E-2  -4.026370297651738E-4  
 2.560000000000000E10    1.265767496079207E-3   1.475539896637201E-2  
 2.562000000000000E10    1.348352339118719E-2  -3.107051830738783E-3  
 2.564000000000000E10   -4.976812284439802E-3  -1.359201967716217E-2  
 2.566000000000000E10   -1.342621445655823E-2   7.429899647831917E-3  
 2.568000000000000E10    9.967435151338577E-3   1.197688840329647E-2  
 2.570000000000000E10    1.038449723273516E-2  -1.190272439271212E-2  
 2.572000000000000E10   -1.233875937759876E-2  -8.715861476957798E-3  
 2.574000000000000E10   -7.389221806079149E-3   1.417119242250919E-2  
 2.576000000000000E10    1.591584645211697E-2   6.082999985665083E-3  
 2.578000000000000E10    3.836968448013067E-3  -1.586570031940937E-2  
 2.580000000000000E10   -1.625319011509419E-2  -2.144022379070520E-3  
 2.582000000000000E10   -5.031128530390561E-4   1.607435569167137E-2  
 2.584000000000000E10    1.588406041264534E-2  -1.593935652635992E-3  
 2.586000000000000E10   -3.427318995818496E-3  -1.510402280837297E-2  
 2.588000000000000E10   -1.335644442588091E-2   4.963017534464598E-3  
 2.590000000000000E10    6.393033079802990E-3   1.227347273379564E-2  
 2.592000000000000E10    1.188953779637814E-2  -7.237217854708433E-3  
 2.594000000000000E10   -8.872121572494507E-3  -1.054233498871326E-2  
 2.596000000000000E10   -9.954283945262432E-3   1.049104984849691E-2  
 2.598000000000000E10    1.226007472723723E-2   8.504201658070087E-3  
 2.600000000000000E10    7.190418429672718E-3  -1.387142483144999E-2  
 2.602000000000000E10   -1.561241224408150E-2  -5.350387655198574E-3  
 2.604000000000000E10   -2.990696346387267E-3   1.528561394661665E-2  
 2.606000000000000E10    1.589695736765862E-2   1.442315406166017E-3  
 2.608000000000000E10    5.129253258928657E-4  -1.522669661790133E-2  
 2.610000000000000E10   -1.558516174554825E-2   6.664595566689968E-4  
 2.612000000000000E10    2.090348396450281E-3   1.545556075870991E-2  
 2.614000000000000E10    1.469227112829685E-2  -3.675655927509069E-3  
 2.616000000000000E10   -5.601077340543270E-3  -1.361945271492004E-2  
 2.618000000000000E10   -1.281838025897741E-2   7.039593998342753E-3  
 2.620000000000000E10    8.755872957408428E-3   1.123508904129267E-2  
 2.622000000000000E10    9.708329103887081E-3  -9.830285795032978E-3  
 2.624000000000000E10   -1.091050822287798E-2  -8.282724767923355E-3  
 2.626000000000000E10   -6.928010378032923E-3   1.201155222952366E-2  
 2.628000000000000E10    1.314519066363573E-2   5.695658735930920E-3  
 2.630000000000000E10    3.569840453565121E-3  -1.475350186228752E-2  
 2.632000000000000E10   -1.493183895945549E-2  -1.412073732353747E-3  
 2.634000000000000E10    1.990145829040557E-4   1.473403442651033E-2  
 2.636000000000000E10    1.476254686713219E-2  -1.898954855278134E-3  
 2.638000000000000E10   -3.287116065621376E-3  -1.389711257070303E-2  
 2.640000000000000E10   -1.304586324840784E-2   4.295223858207464E-3  
 2.642000000000000E10    5.407453514635563E-3   1.193157024681568E-2  
 2.644000000000000E10    1.158290077000856E-2  -6.666517816483975E-3  
 2.646000000000000E10   -8.041211403906345E-3  -9.997246786952019E-3  
 2.648000000000000E10   -8.408277295529842E-3   9.189765900373459E-3  
 2.650000000000000E10    1.036754436790943E-2   7.746827788650990E-3  
 2.652000000000000E10    6.204633507877588E-3  -1.163090858608484E-2  
 2.654000000000000E10   -1.260042097419500E-2  -4.101921338587999E-3  
 2.656000000000000E10   -2.021192107349634E-3   1.294349879026413E-2  
 2.658000000000000E10    1.342721469700337E-2   7.582950056530535E-4  
 2.660000000000000E10   -9.747087024152279E-4  -1.331609301269054E-2  
 2.662000000000000E10   -1.318823546171188E-2   2.730661537498236E-3  
 2.664000000000000E10    3.716120962053537E-3   1.250806730240583E-2  
 2.666000000000000E10    1.217370666563511E-2  -4.845235496759415E-3  
 2.668000000000000E10   -5.416729953140020E-3  -1.086570415645838E-2  
 2.670000000000000E10   -9.669239632785320E-3   6.611275486648083E-3  
 2.672000000000000E10    7.198113948106766E-3   8.220165036618710E-3  
 2.674000000000000E10    7.577376905828714E-3  -7.543607149273157E-3  
 2.676000000000000E10   -8.750982582569122E-3  -6.290687713772059E-3  
 2.678000000000000E10   -4.711422137916088E-3   9.182584472000599E-3  
 2.680000000000000E10    9.802317246794701E-3   3.644682466983795E-3  
 2.682000000000000E10    2.347462344914675E-3  -1.061668619513512E-2  
 2.684000000000000E10   -1.115104742348194E-2  -7.143639377318323E-4  
 2.686000000000000E10    1.168077695183456E-3   1.145447231829166E-2  
 2.688000000000000E10    1.152615156024694E-2  -2.203185809776187E-3  
 2.690000000000000E10   -2.651476766914129E-3  -1.122471783310175E-2  
 2.692000000000000E10   -1.125048659741879E-2   4.842857830226421E-3  
 2.694000000000000E10    5.566620733588934E-3   9.836910292506218E-3  
 2.696000000000000E10    9.266205132007599E-3  -6.000439636409283E-3  
 2.698000000000000E10   -6.719233933836222E-3  -8.786700665950775E-3  
 2.700000000000000E10   -7.327034138143063E-3   6.861285306513310E-3  
 2.702000000000000E10    7.788314949721098E-3   5.471182055771351E-3  
 2.704000000000000E10    4.486177116632462E-3  -8.433419279754162E-3  
 2.706000000000000E10   -7.944159209728241E-3  -3.524709492921829E-3  
 2.708000000000000E10   -2.125541679561138E-3   8.345115929841995E-3  
 2.710000000000000E10    8.526761084794998E-3   9.188003023155034E-4  
 2.712000000000000E10    9.851836512098089E-5  -9.229481220245361E-3  
 2.714000000000000E10   -9.327957406640053E-3   1.875558635219932E-3  
 2.716000000000000E10    3.012344939634204E-3   8.829771541059017E-3  
 2.718000000000000E10    8.831128478050232E-3  -3.795153694227338E-3  
 2.720000000000000E10   -4.446256905794144E-3  -8.674798533320427E-3  
 2.722000000000000E10   -8.348446339368820E-3   5.161539651453495E-3  
 2.724000000000000E10    5.830598063766956E-3   7.292449008673430E-3  
 2.726000000000000E10    6.578144151717424E-3  -5.778837949037552E-3  
 2.728000000000000E10   -6.640340667217970E-3  -6.440217141062021E-3  
 2.730000000000000E10   -4.484490491449833E-3   6.870929151773453E-3  
 2.732000000000000E10    6.961550097912550E-3   3.673998871818185E-3  
 2.734000000000000E10    2.666403306648135E-3  -7.148760370910168E-3  
 2.736000000000000E10   -7.373068947345018E-3  -1.859916490502656E-3  
 2.738000000000000E10   -4.857998574152589E-4   7.634565699845552E-3  
 2.740000000000000E10    7.426281459629536E-3  -6.664114771410823E-4  
 2.742000000000000E10   -1.701921457424760E-3  -7.583352271467447E-3  
 2.744000000000000E10   -8.060702122747898E-3   2.681864425539970E-3  
 2.746000000000000E10    3.933540545403957E-3   7.066652178764343E-3  
 2.748000000000000E10    6.760010495781899E-3  -4.232738167047501E-3  
 2.750000000000000E10   -4.661892075091600E-3  -6.741100922226906E-3  
 2.752000000000000E10   -6.169565487653017E-3   5.100700538605452E-3  
 2.754000000000000E10    5.750839132815599E-3   5.421713460236788E-3  
 2.756000000000000E10    4.741294309496880E-3  -5.563102662563324E-3  
