#  HZ   S   RI   R     50.00 
! Rohde & Schwarz ZVA40 4Ports - Version 3.90 - 1145.1110k42 SN: 100403
! Date: 2023-10-04 10:39:38
! Measurement: S12 
! 
 2.200000000000000E10    3.610766434576362E-4  -5.038850475102663E-3  
 2.202000000000000E10   -5.102959927171469E-3  -9.156363084912300E-4  
 2.204000000000000E10   -6.242353119887412E-4   5.333950743079186E-3  
 2.206000000000000E10    5.226057488471270E-3   6.463251193054020E-4  
 2.208000000000000E10    6.160438642837107E-4  -6.457299925386906E-3  
 2.210000000000000E10   -7.113076746463776E-3  -1.429920848750044E-5  
 2.212000000000000E10    1.982667890843004E-5   7.668779231607914E-3  
 2.214000000000000E10    8.422994054853916E-3  -6.290143937803805E-4  
 2.216000000000000E10   -2.109152963384986E-3  -8.697122335433960E-3  
 2.218000000000000E10   -9.059600532054901E-3   3.440024098381400E-3  
 2.220000000000000E10    4.250863101333380E-3   8.735307492315769E-3  
 2.222000000000000E10    8.463301695883274E-3  -5.666066892445087E-3  
 2.224000000000000E10   -7.830503396689892E-3  -7.559277117252350E-3  
 2.226000000000000E10   -6.373865995556116E-3   9.183703921735287E-3  
 2.228000000000000E10    9.958770126104355E-3   5.508289672434330E-3  
 2.230000000000000E10    3.576850518584251E-3  -1.119803078472614E-2  
 2.232000000000000E10   -1.227383688092232E-2  -9.925919584929943E-4  
 2.234000000000000E10    2.299760089954361E-4   1.259258110076189E-2  
 2.236000000000000E10    1.228981465101242E-2  -2.046779263764620E-3  
 2.238000000000000E10   -3.560874378308654E-3  -1.223560422658920E-2  
 2.240000000000000E10   -1.203925069421530E-2   5.638908594846726E-3  
 2.242000000000000E10    7.380608003586531E-3   1.119972858577967E-2  
 2.244000000000000E10    1.029311399906874E-2  -7.978687994182110E-3  
 2.246000000000000E10   -9.429939091205597E-3  -8.950346149504185E-3  
 2.248000000000000E10   -7.414279971271753E-3   1.080749370157719E-2  
 2.250000000000000E10    1.154338847845793E-2   6.334567908197641E-3  
 2.252000000000000E10    4.300113301724196E-3  -1.244084816426039E-2  
 2.254000000000000E10   -1.257354300469160E-2  -2.631089882925153E-3  
 2.256000000000000E10   -4.521766677498817E-4   1.237168349325657E-2  
 2.258000000000000E10    1.263585221022368E-2  -1.295843161642551E-3  
 2.260000000000000E10   -1.757806632667780E-3  -1.239025685936213E-2  
 2.262000000000000E10   -1.159557234495878E-2   4.041723906993866E-3  
 2.264000000000000E10    5.215408280491829E-3   1.123893633484840E-2  
 2.266000000000000E10    1.138792280107737E-2  -5.953870248049498E-3  
 2.268000000000000E10   -8.243488147854805E-3  -1.024622935801745E-2  
 2.270000000000000E10   -8.862948045134544E-3   8.705777116119862E-3  
 2.272000000000000E10    9.465875104069710E-3   8.007069118320942E-3  
 2.274000000000000E10    6.722338963299990E-3  -1.053161453455687E-2  
 2.276000000000000E10   -1.099169626832008E-2  -5.661122966557741E-3  
 2.278000000000000E10   -3.746263915672898E-3   1.132586318999529E-2  
 2.280000000000000E10    1.168776862323284E-2   2.139437012374401E-3  
 2.282000000000000E10    7.431427948176861E-3  -9.164221584796906E-3  
 2.284000000000000E10   -1.200545206665993E-2   9.191698045469821E-4  
 2.286000000000000E10    3.099902067333460E-3   1.077282987535000E-2  
 2.288000000000000E10    1.041744370013475E-2  -4.345132037997246E-3  
 2.290000000000000E10   -5.517139565199614E-3  -1.020979508757591E-2  
 2.292000000000000E10   -9.235684759914875E-3   6.201467476785183E-3  
 2.294000000000000E10    7.786884903907776E-3   8.291486650705338E-3  
 2.296000000000000E10    7.574725430458784E-3  -8.408074267208576E-3  
 2.298000000000000E10   -9.030011482536793E-3  -6.916058249771595E-3  
 2.300000000000000E10   -6.099934224039316E-3   1.004941295832396E-2  
 2.302000000000000E10    1.051641907542944E-2   4.676232580095530E-3  
 2.304000000000000E10    2.756401197984815E-3  -1.126372814178467E-2  
 2.306000000000000E10   -1.077591627836227E-2  -2.130278386175633E-3  
 2.308000000000000E10   -8.747950778342784E-4   1.052931603044272E-2  
 2.310000000000000E10    1.024957280606031E-2  -7.813651463948190E-4  
 2.312000000000000E10   -1.872645574621856E-3  -1.015176530927420E-2  
 2.314000000000000E10   -9.740735404193401E-3   2.999664982780814E-3  
 2.316000000000000E10    4.376838915050030E-3   8.781020529568195E-3  
 2.318000000000000E10    7.641556672751904E-3  -5.988102406263351E-3  
 2.320000000000000E10   -7.014795672148466E-3  -6.762840785086155E-3  
 2.322000000000000E10   -6.637396290898323E-3   7.408425677567720E-3  
 2.324000000000000E10    7.901571691036224E-3   5.518287420272827E-3  
 2.326000000000000E10    4.927042406052351E-3  -8.832037448883057E-3  
 2.328000000000000E10   -9.683220647275448E-3  -4.504137206822634E-3  
 2.330000000000000E10   -3.190098796039820E-3   9.797622449696064E-3  
 2.332000000000000E10    1.007336191833019E-2   2.434598747640848E-3  
 2.334000000000000E10    1.153365126810968E-3  -9.902681224048138E-3  
 2.336000000000000E10   -9.999134577810764E-3  -4.477813781704754E-4  
 2.338000000000000E10    1.144906389527023E-3   1.010738778859377E-2  
 2.340000000000000E10    8.894368074834347E-3  -2.610443159937859E-3  
 2.342000000000000E10   -3.313429187983275E-3  -8.359224535524845E-3  
 2.344000000000000E10   -7.909322157502174E-3   4.756078589707613E-3  
 2.346000000000000E10    5.939051043242216E-3   7.181274238973856E-3  
 2.348000000000000E10    5.918053910136223E-3  -6.608234718441963E-3  
 2.350000000000000E10   -7.812058087438345E-3  -5.180520936846733E-3  
 2.352000000000000E10   -4.377875477075577E-3   8.566788397729397E-3  
 2.354000000000000E10    9.387915953993797E-3   3.600794356316328E-3  
 2.356000000000000E10    2.047069603577256E-3  -1.001902949064970E-2  
 2.358000000000000E10   -9.732408449053764E-3  -8.676311699673533E-4  
 2.360000000000000E10    1.136383143602870E-4   1.058950554579496E-2  
 2.362000000000000E10    1.078313309699297E-2  -1.355451298877597E-3  
 2.364000000000000E10   -2.211918588727713E-3  -9.437859989702702E-3  
 2.366000000000000E10   -9.322996251285076E-3   3.033327870070934E-3  
 2.368000000000000E10    4.349303897470236E-3   8.661394938826561E-3  
 2.370000000000000E10    7.705951575189829E-3  -5.041133146733046E-3  
 2.372000000000000E10   -5.075177177786827E-3  -6.692810915410519E-3  
 2.374000000000000E10   -5.805175751447678E-3   6.383118219673634E-3  
 2.376000000000000E10    6.825577002018690E-3   4.681532736867666E-3  
 2.378000000000000E10    3.703518537804484E-3  -7.534852717071772E-3  
 2.380000000000000E10   -7.979955524206162E-3  -2.388043096289039E-3  
 2.382000000000000E10   -1.190050272271037E-3   8.495290763676167E-3  
 2.384000000000000E10    8.998272009193897E-3  -1.672218058956787E-4  
 2.386000000000000E10   -1.377941574901342E-3  -9.022401645779610E-3  
 2.388000000000000E10   -8.502408862113953E-3   2.278815489262343E-3  
 2.390000000000000E10    3.175128251314163E-3   8.846848271787167E-3  
 2.392000000000000E10    8.537124842405319E-3  -3.869597800076008E-3  
 2.394000000000000E10   -4.297325387597084E-3  -7.862648926675320E-3  
 2.396000000000000E10   -7.693584542721510E-3   4.804754629731178E-3  
 2.398000000000000E10    5.576518829911947E-3   6.759285461157560E-3  
 2.400000000000000E10    5.876244977116585E-3  -5.748612340539694E-3  
 2.402000000000000E10   -6.433492060750723E-3  -4.016682505607605E-3  
 2.404000000000000E10   -2.982933539897203E-3   6.277769338339567E-3  
 2.406000000000000E10    6.691813468933106E-3   1.806682208552957E-3  
 2.408000000000000E10    1.024393714033067E-3  -6.672894582152367E-3  
 2.410000000000000E10   -6.901806220412254E-3   2.113361406372860E-4  
 2.412000000000000E10    1.275260932743549E-3   6.444521714001894E-3  
 2.414000000000000E10    6.658128462731838E-3  -2.013325924053788E-3  
 2.416000000000000E10   -3.168663242831826E-3  -6.378966383635998E-3  
 2.418000000000000E10   -6.148295942693949E-3   3.768507158383727E-3  
 2.420000000000000E10    4.635415039956570E-3   6.003647577017546E-3  
 2.422000000000000E10    5.897820927202702E-3  -4.740516189485788E-3  
 2.424000000000000E10   -5.680723581463099E-3  -5.455944221466780E-3  
 2.426000000000000E10   -5.077031906694174E-3   5.878859199583530E-3  
 2.428000000000000E10    5.906152073293924E-3   4.564075730741024E-3  
 2.430000000000000E10    3.822174388915300E-3  -6.521449424326420E-3  
 2.432000000000000E10   -6.614126730710268E-3  -2.912524389103055E-3  
 2.434000000000000E10   -1.911449478939176E-3   6.844752468168736E-3  
 2.436000000000000E10    6.617257837206125E-3   5.103945150040090E-4  
 2.438000000000000E10   -1.567497383803129E-4  -6.501203868538141E-3  
 2.440000000000000E10   -5.950968712568283E-3   1.282147248275578E-3  
 2.442000000000000E10    2.206442179158330E-3   5.491850897669792E-3  
 2.444000000000000E10    5.309946369379759E-3  -2.696156967431307E-3  
 2.446000000000000E10   -3.605891251936555E-3  -5.236249417066574E-3  
 2.448000000000000E10   -4.667348228394985E-3   4.015428479760885E-3  
 2.450000000000000E10    4.481561481952667E-3   4.822511225938797E-3  
 2.452000000000000E10    4.233949352055788E-3  -5.089809186756611E-3  
 2.454000000000000E10   -5.316815804690123E-3  -3.632138483226299E-3  
 2.456000000000000E10   -3.535529598593712E-3   5.402767565101385E-3  
 2.458000000000000E10    5.434891674667597E-3   3.004243597388268E-3  
 2.460000000000000E10    2.055165590718389E-3  -6.059214938431978E-3  
 2.462000000000000E10   -5.360258743166924E-3  -8.992255316115916E-4  
 2.464000000000000E10   -9.018154814839363E-4   5.384890362620354E-3  
 2.466000000000000E10    4.623458255082369E-3   1.016548631014302E-4  
 2.468000000000000E10   -1.281501492485404E-3  -4.512920975685120E-3  
 2.470000000000000E10   -4.373734816908836E-3   1.773881376720965E-3  
 2.472000000000000E10    2.222764538601041E-3   4.055508412420750E-3  
 2.474000000000000E10    3.342248033732176E-3  -2.852986333891749E-3  
 2.476000000000000E10   -3.686394775286317E-3  -3.137231105938554E-3  
 2.478000000000000E10   -2.729970263317227E-3   4.751750733703375E-3  
 2.480000000000000E10    4.869412165135145E-3   2.842905465513468E-3  
 2.482000000000000E10    2.389367902651429E-3  -4.870356991887093E-3  
 2.484000000000000E10   -5.350651685148478E-3  -1.967767719179392E-3  
 2.486000000000000E10   -1.711029442958534E-3   5.922849290072918E-3  
 2.488000000000000E10    5.334090907126665E-3   1.286659040488303E-3  
 2.490000000000000E10    9.123166091740131E-4  -5.120614077895880E-3  
 2.492000000000000E10   -4.721468780189753E-3  -1.132830802816898E-4  
 2.494000000000000E10    2.146540791727603E-4   4.670915193855763E-3  
 2.496000000000000E10    4.441199358552694E-3  -2.527280885260552E-4  
 2.498000000000000E10   -1.107924967072904E-3  -3.405469469726086E-3  
 2.500000000000000E10   -2.996688010171056E-3   1.760292332619429E-3  
 2.502000000000000E10    2.281663008034229E-3   3.075237153097987E-3  
 2.504000000000000E10    2.175258239731193E-3  -2.164408564567566E-3  
 2.506000000000000E10   -2.765475772321224E-3  -1.834098016843200E-3  
 2.508000000000000E10   -1.445734989829361E-3   3.241907572373748E-3  
 2.510000000000000E10    3.844267921522260E-3   1.431039883755148E-3  
 2.512000000000000E10    1.306778052821755E-3  -4.280164837837219E-3  
 2.514000000000000E10   -4.110228270292282E-3  -6.818381370976567E-4  
 2.516000000000000E10   -7.574825576739386E-5   4.691835027188063E-3  
 2.518000000000000E10    4.824726842343807E-3  -1.557642099214718E-4  
 2.520000000000000E10   -2.175186673412100E-4  -4.237489309161902E-3  
 2.522000000000000E10   -3.994563128799200E-3   6.459512514993548E-4  
 2.524000000000000E10    8.987255860120058E-4   3.495793789625168E-3  
 2.526000000000000E10    3.327610669657588E-3  -7.532246527262032E-4  
 2.528000000000000E10   -1.393927028402686E-3  -2.759351395070553E-3  
 2.530000000000000E10   -2.110024215653539E-3   1.408905955031514E-3  
 2.532000000000000E10    2.005453919991851E-3   1.495130825787783E-3  
 2.534000000000000E10    1.475894940085709E-3  -1.945638796314597E-3  
 2.536000000000000E10   -2.146476181223989E-3  -1.015598070807755E-3  
 2.538000000000000E10   -7.701391587033868E-4   3.031852655112743E-3  
 2.540000000000000E10    3.353455802425742E-3   2.195731649408117E-4  
 2.542000000000000E10    2.107765176333487E-4  -3.694135230034590E-3  
 2.544000000000000E10   -3.594246227294207E-3   3.213484887965024E-4  
 2.546000000000000E10    7.733848760835826E-4   3.632107516750693E-3  
 2.548000000000000E10    3.916182555258274E-3  -1.516495598480105E-3  
 2.550000000000000E10   -1.144471461884677E-3  -3.540650242939591E-3  
 2.552000000000000E10   -2.638006350025535E-3   1.227601431310177E-3  
 2.554000000000000E10    1.420066691935062E-3   2.731773070991039E-3  
 2.556000000000000E10    2.454098314046860E-3  -1.344242366030812E-3  
 2.558000000000000E10   -1.271582208573818E-3  -2.099206903949380E-3  
 2.560000000000000E10   -1.828494947403669E-3   1.357119996100664E-3  
 2.562000000000000E10    1.620436902157962E-3   1.163867302238941E-3  
 2.564000000000000E10    1.091951271519065E-3  -2.083440776914358E-3  
 2.566000000000000E10   -2.120908349752426E-3  -4.542121896520257E-4  
 2.568000000000000E10    3.469816583674401E-4   2.578207524493337E-3  
 2.570000000000000E10    2.757098758593202E-3  -8.361930376850069E-4  
 2.572000000000000E10   -1.413806341588497E-3  -3.080298891291022E-3  
 2.574000000000000E10   -2.539927605539560E-3   1.446187612600625E-3  
 2.576000000000000E10    1.672432525083423E-3   2.661057980731130E-3  
 2.578000000000000E10    2.581995446234942E-3  -2.583038527518511E-3  
 2.580000000000000E10   -1.830833964049816E-3  -2.239529276266694E-3  
 2.582000000000000E10   -1.909999991767108E-3   1.565676881000400E-3  
 2.584000000000000E10    2.021652646362782E-3   1.625485834665597E-3  
 2.586000000000000E10    1.393562066368759E-3  -2.373581519350410E-3  
 2.588000000000000E10   -1.600435818545520E-3  -9.667201666161418E-4  
 2.590000000000000E10   -4.702121950685978E-4   1.348155084997416E-3  
 2.592000000000000E10    1.552513451315463E-3   3.817877222900279E-5  
 2.594000000000000E10   -3.085726348217577E-4  -1.826849533244968E-3  
 2.596000000000000E10   -9.301156969740987E-4   5.726459785364568E-4  
 2.598000000000000E10    1.061484799720347E-3   1.247811946086586E-3  
 2.600000000000000E10    1.756045036017895E-3  -1.823212602175772E-3  
 2.602000000000000E10   -1.769613358192146E-3  -8.765331585891545E-4  
 2.604000000000000E10   -1.024574041366577E-3   1.717812148854137E-3  
 2.606000000000000E10    2.029702998697758E-3   1.296445028856397E-3  
 2.608000000000000E10    8.235787972807884E-4  -1.835004542954266E-3  
 2.610000000000000E10   -1.528404420241714E-3  -1.286187442019582E-3  
 2.612000000000000E10   -1.138175255618990E-3   1.148030161857605E-3  
 2.614000000000000E10    1.078078523278236E-3   1.404356095008552E-3  
 2.616000000000000E10    1.342219533398747E-3  -1.150579308159649E-3  
 2.618000000000000E10   -1.623355055926368E-4  -1.060434617102146E-3  
 2.620000000000000E10   -1.642948365770280E-3   4.058045742567629E-4  
 2.622000000000000E10    7.598066003993154E-4   1.028301310725510E-3  
 2.624000000000000E10    2.375423646299169E-4  -5.962590221315622E-4  
 2.626000000000000E10   -3.390124475117773E-4  -2.619670704007149E-5  
 2.628000000000000E10    5.105673917569220E-4   3.646313271019608E-4  
 2.630000000000000E10    4.946379340253770E-4  -1.057495363056660E-3  
 2.632000000000000E10   -1.127640018239617E-3  -5.881512188352644E-4  
 2.634000000000000E10   -3.333587956149131E-4   9.751535253599286E-4  
 2.636000000000000E10    1.732570002786815E-3   6.628858391195536E-4  
 2.638000000000000E10    4.985443083569408E-4  -1.944948104210198E-3  
 2.640000000000000E10   -1.695639686658979E-3  -7.535908371210098E-4  
 2.642000000000000E10   -8.485753787681460E-4   1.481043174862862E-3  
 2.644000000000000E10    1.774922711774707E-3   9.791053598746657E-4  
 2.646000000000000E10    7.002155180089176E-4  -1.571311964653432E-3  
 2.648000000000000E10   -1.005539321340621E-3  -5.586439510807395E-4  
 2.650000000000000E10   -6.012129597365856E-4   4.239084664732218E-4  
 2.652000000000000E10    4.997068899683654E-4   7.390865357592702E-4  
 2.654000000000000E10    4.457162285689265E-4  -6.789537146687508E-4  
 2.656000000000000E10    1.888223050627857E-5  -4.664792504627258E-4  
 2.658000000000000E10   -9.811706695472822E-5   1.291972148464993E-4  
 2.660000000000000E10   -1.818247073970269E-5  -2.535276871640235E-4  
 2.662000000000000E10   -3.858487762045115E-4   1.933964231284335E-4  
 2.664000000000000E10    1.757724676281214E-4   4.210062033962458E-4  
 2.666000000000000E10    7.524340180680156E-4   3.119579341728240E-4  
 2.668000000000000E10    5.336295362212695E-5  -5.728179821744561E-4  
 2.670000000000000E10   -8.635536069050431E-4  -2.520573907531798E-4  
 2.672000000000000E10   -3.637589106801897E-4   5.411182646639645E-4  
 2.674000000000000E10    8.605854818597436E-4   6.843948503956199E-4  
 2.676000000000000E10    7.093238527886570E-4  -1.066792174242437E-3  
 2.678000000000000E10   -5.419033695943654E-4  -6.358625832945108E-4  
 2.680000000000000E10   -6.166004459373653E-4   3.184553934261203E-4  
 2.682000000000000E10    2.276546583743766E-4   7.182817207649350E-4  
 2.684000000000000E10    3.729705058503896E-4  -2.027132577495650E-4  
 2.686000000000000E10    6.128866225481033E-4  -4.962836974300444E-4  
 2.688000000000000E10   -2.567605988588184E-4  -1.333454274572432E-4  
 2.690000000000000E10   -2.224512572865933E-4   2.253065758850426E-5  
 2.692000000000000E10   -2.655564167071134E-4   1.893224689410999E-4  
 2.694000000000000E10    3.984655195381492E-4   3.797579847741872E-4  
 2.696000000000000E10    6.240856018848717E-4  -1.580091920914128E-4  
 2.698000000000000E10    1.669627636147197E-5  -8.157652337104082E-4  
 2.700000000000000E10   -8.450467721559107E-4  -2.776595938485116E-4  
 2.702000000000000E10   -4.214811197016388E-4   6.116724107414484E-4  
 2.704000000000000E10    8.350613061338663E-4   9.764711139723659E-4  
 2.706000000000000E10    9.221257641911507E-4  -7.141753449104726E-4  
 2.708000000000000E10   -2.346922847209498E-4  -1.210337039083242E-3  
 2.710000000000000E10   -1.026656362228096E-3   6.928637158125639E-4  
 2.712000000000000E10    1.168333892564988E-5   1.347538549453020E-3  
 2.714000000000000E10    1.545597217045724E-3  -1.223402650794014E-4  
 2.716000000000000E10    2.172966778744012E-4  -1.374121056869626E-3  
 2.718000000000000E10   -1.323621137998998E-3  -4.904475063085556E-4  
 2.720000000000000E10   -8.471768524032086E-5   1.035863650031388E-3  
 2.722000000000000E10    7.157249492593110E-4   3.890260704793036E-4  
 2.724000000000000E10    6.004850729368627E-4  -6.863615126349032E-4  
 2.726000000000000E10    1.879401825135574E-4  -2.934493531938642E-4  
 2.728000000000000E10   -1.240679739566986E-5  -1.407499657943845E-4  
 2.730000000000000E10   -5.033459747210145E-4   3.637221816461533E-4  
 2.732000000000000E10   -3.648377241916023E-5   6.525233038701117E-4  
 2.734000000000000E10    5.119796260260046E-4   3.909998631570488E-4  
 2.736000000000000E10    5.754862795583904E-4  -1.171024399809539E-3  
 2.738000000000000E10   -9.467842755839229E-4  -9.493904071860015E-4  
 2.740000000000000E10   -1.323124743066728E-3   7.042820798233151E-4  
 2.742000000000000E10    7.755290134809911E-4   9.110401151701808E-4  
 2.744000000000000E10    1.743956818245351E-3  -5.626676720567048E-4  
 2.746000000000000E10   -5.063205026090145E-4  -1.206612447276712E-3  
 2.748000000000000E10   -1.368389814160764E-3  -4.266052565071732E-5  
 2.750000000000000E10    1.263630547327921E-4   1.585279125720263E-3  
 2.752000000000000E10    1.096265274100006E-3  -3.647692210506648E-5  
 2.754000000000000E10    7.571291644126177E-5  -1.261419500224292E-3  
 2.756000000000000E10   -8.970243507064879E-4  -1.540934608783573E-4  
