#  HZ   S   RI   R     50.00 
! Rohde & Schwarz ZVA40 4Ports - Version 3.90 - 1145.1110k42 SN: 100403
! Date: 2023-10-04 10:40:46
! Measurement: S12 
! 
 2.200000000000000E10    3.339935326948762E-3  -3.948272671550512E-3  
 2.202000000000000E10   -4.137597512453795E-3  -3.095069667324424E-3  
 2.204000000000000E10   -2.717246767133474E-3   4.185105673968792E-3  
 2.206000000000000E10    4.671105183660984E-3   2.784150419756770E-3  
 2.208000000000000E10    3.299012081697583E-3  -5.611681379377842E-3  
 2.210000000000000E10   -5.901963450014591E-3  -3.337661968544126E-3  
 2.212000000000000E10   -2.436919137835503E-3   6.384974811226130E-3  
 2.214000000000000E10    7.552887778729200E-3   2.148274797946215E-3  
 2.216000000000000E10    1.137605868279934E-3  -8.823263458907604E-3  
 2.218000000000000E10   -9.042599238455296E-3   5.474826903082430E-4  
 2.220000000000000E10    1.521103898994625E-3   8.848467841744423E-3  
 2.222000000000000E10    9.053945541381836E-3  -3.414914477616549E-3  
 2.224000000000000E10   -5.070838145911694E-3  -9.589146822690964E-3  
 2.226000000000000E10   -8.812750689685345E-3   6.693898700177670E-3  
 2.228000000000000E10    7.758318912237883E-3   7.173809688538313E-3  
 2.230000000000000E10    6.266359705477953E-3  -9.525738656520844E-3  
 2.232000000000000E10   -1.060177292674780E-2  -5.167048890143633E-3  
 2.234000000000000E10   -3.294690512120724E-3   1.085006073117256E-2  
 2.236000000000000E10    1.105563528835774E-2   1.522795180790126E-3  
 2.238000000000000E10    6.224583485163748E-4  -1.151292677968741E-2  
 2.240000000000000E10   -1.195669639855623E-2   8.711708942428231E-4  
 2.242000000000000E10    2.491076709702611E-3   1.109731756150723E-2  
 2.244000000000000E10    9.970470331609249E-3  -4.024612251669169E-3  
 2.246000000000000E10   -5.529706832021475E-3  -9.802429005503655E-3  
 2.248000000000000E10   -8.802633732557297E-3   6.508335005491972E-3  
 2.250000000000000E10    7.651279680430889E-3   7.695632521063089E-3  
 2.252000000000000E10    6.544258445501328E-3  -8.920713327825069E-3  
 2.254000000000000E10   -9.916467592120171E-3  -5.093109793961048E-3  
 2.256000000000000E10   -3.726052818819881E-3   1.059851609170437E-2  
 2.258000000000000E10    1.077811606228352E-2   1.985625596717000E-3  
 2.260000000000000E10    1.357013592496514E-3  -1.081447117030621E-2  
 2.262000000000000E10   -1.075250376015902E-2   4.192058986518532E-4  
 2.264000000000000E10    7.113257306627929E-4   1.102056168019772E-2  
 2.266000000000000E10    1.109527423977852E-2  -2.134839538484812E-3  
 2.268000000000000E10   -3.874956863000989E-3  -1.004748512059450E-2  
 2.270000000000000E10   -9.529601782560349E-3   4.507808014750481E-3  
 2.272000000000000E10    5.307745188474655E-3   9.115109220147133E-3  
 2.274000000000000E10    8.009904064238071E-3  -5.821023136377335E-3  
 2.276000000000000E10   -7.008633576333523E-3  -6.728525739163160E-3  
 2.278000000000000E10   -5.465579684823751E-3   8.097306825220585E-3  
 2.280000000000000E10    7.805162109434605E-3   4.740154370665550E-3  
 2.282000000000000E10    7.508784066885710E-3  -4.979538265615702E-3  
 2.284000000000000E10   -8.701585233211517E-3  -1.302876626141369E-3  
 2.286000000000000E10   -3.627452824730426E-4   8.700034581124783E-3  
 2.288000000000000E10    8.808916434645653E-3  -4.230101185385138E-4  
 2.290000000000000E10   -1.232126844115555E-3  -8.470728062093258E-3  
 2.292000000000000E10   -7.958800531923771E-3   2.743252553045750E-3  
 2.294000000000000E10    3.228079294785857E-3   8.124772459268570E-3  
 2.296000000000000E10    7.988084107637405E-3  -3.430960234254599E-3  
 2.298000000000000E10   -4.403101280331612E-3  -6.841330323368311E-3  
 2.300000000000000E10   -6.996873300522566E-3   4.791837185621262E-3  
 2.302000000000000E10    5.583567079156637E-3   7.069670129567385E-3  
 2.304000000000000E10    5.340848118066788E-3  -6.893058307468891E-3  
 2.306000000000000E10   -6.776387337595224E-3  -4.361043218523264E-3  
 2.308000000000000E10   -3.080198541283608E-3   6.804447155445814E-3  
 2.310000000000000E10    6.946234498172998E-3   2.124988241121173E-3  
 2.312000000000000E10    1.584818935953081E-3  -7.295886520296335E-3  
 2.314000000000000E10   -7.170090451836586E-3   3.233402676414698E-4  
 2.316000000000000E10    1.473900279961526E-3   6.745557766407728E-3  
 2.318000000000000E10    6.791008170694113E-3  -1.743614906445146E-3  
 2.320000000000000E10   -3.165024099871516E-3  -6.741022691130638E-3  
 2.322000000000000E10   -5.781439132988453E-3   3.590309061110020E-3  
 2.324000000000000E10    4.143630620092154E-3   5.901137832552195E-3  
 2.326000000000000E10    5.744672380387783E-3  -5.000739358365536E-3  
 2.328000000000000E10   -5.200936459004879E-3  -5.432123783975840E-3  
 2.330000000000000E10   -4.501993302255869E-3   5.540917627513409E-3  
 2.332000000000000E10    6.156759802252054E-3   3.964192233979702E-3  
 2.334000000000000E10    3.496407065540552E-3  -5.895711015909910E-3  
 2.336000000000000E10   -5.957672372460365E-3  -2.774161519482732E-3  
 2.338000000000000E10   -1.521756290458143E-3   5.826352629810572E-3  
 2.340000000000000E10    5.951267667114735E-3   1.277633942663670E-3  
 2.342000000000000E10    3.578515315894038E-4  -6.248032208532095E-3  
 2.344000000000000E10   -5.741841625422239E-3   1.617783273104578E-4  
 2.346000000000000E10    1.465006498619914E-3   5.493689328432083E-3  
 2.348000000000000E10    5.280709825456142E-3  -2.376668853685260E-3  
 2.350000000000000E10   -2.985999453812838E-3  -5.252822302281857E-3  
 2.352000000000000E10   -4.825128708034754E-3   3.797195618972182E-3  
 2.354000000000000E10    4.837791435420513E-3   4.173560533672571E-3  
 2.356000000000000E10    4.159624688327313E-3  -5.390797741711140E-3  
 2.358000000000000E10   -5.899314768612385E-3  -3.242706181481481E-3  
 2.360000000000000E10   -2.638337900862098E-3   6.287530064582825E-3  
 2.362000000000000E10    6.065048743039370E-3   2.139568794518709E-3  
 2.364000000000000E10    1.589635969139636E-3  -6.428114604204893E-3  
 2.366000000000000E10   -6.143725011497736E-3  -9.809780167415738E-4  
 2.368000000000000E10   -2.629478112794459E-4   5.617901217192411E-3  
 2.370000000000000E10    5.512042902410030E-3  -3.012774395756424E-4  
 2.372000000000000E10   -1.073454157449305E-3  -5.177866201847792E-3  
 2.374000000000000E10   -5.076942499727011E-3   1.894743880257011E-3  
 2.376000000000000E10    1.902048243209720E-3   4.240889567881823E-3  
 2.378000000000000E10    3.797122044488788E-3  -2.829511649906635E-3  
 2.380000000000000E10   -4.039707593619824E-3  -3.323534037917852E-3  
 2.382000000000000E10   -2.942790975794196E-3   4.205215256661177E-3  
 2.384000000000000E10    4.528885707259178E-3   2.276720711961389E-3  
 2.386000000000000E10    2.019094536080957E-3  -5.294485017657280E-3  
 2.388000000000000E10   -5.551506765186787E-3  -1.429426367394626E-3  
 2.390000000000000E10   -1.120520872063935E-3   5.916396155953407E-3  
 2.392000000000000E10    5.952692124992609E-3   4.661566053982824E-4  
 2.394000000000000E10   -1.539560325909406E-4  -5.934992339462042E-3  
 2.396000000000000E10   -6.137718912214041E-3   3.649532154668123E-4  
 2.398000000000000E10    1.003301818855107E-3   5.678114946931601E-3  
 2.400000000000000E10    5.150468554347754E-3  -1.658706576563418E-3  
 2.402000000000000E10   -2.675965894013643E-3  -4.108280409127474E-3  
 2.404000000000000E10   -3.215734846889973E-3   3.164356807246804E-3  
 2.406000000000000E10    3.218266414478421E-3   3.122424008324742E-3  
 2.408000000000000E10    1.806898275390267E-3  -3.326329635456204E-3  
 2.410000000000000E10   -3.846855601295829E-3  -1.528961351141334E-3  
 2.412000000000000E10   -1.384509727358818E-3   4.154475405812264E-3  
 2.414000000000000E10    4.110352601855993E-3   4.072769079357386E-4  
 2.416000000000000E10    2.162286691600457E-4  -4.542169626802206E-3  
 2.418000000000000E10   -4.722097888588905E-3   5.426963325589895E-4  
 2.420000000000000E10    1.201998325996101E-3   4.668402019888163E-3  
 2.422000000000000E10    4.764069337397814E-3  -1.155234291218221E-3  
 2.424000000000000E10   -1.505164895206690E-3  -4.253718070685864E-3  
 2.426000000000000E10   -4.213546402752399E-3   1.261667232029140E-3  
 2.428000000000000E10    1.966078532859683E-3   4.287499468773603E-3  
 2.430000000000000E10    4.218545276671648E-3  -2.156577538698912E-3  
 2.432000000000000E10   -1.781497267074883E-3  -3.741751192137599E-3  
 2.434000000000000E10   -2.857616404071450E-3   2.615289762616158E-3  
 2.436000000000000E10    3.328770631924272E-3   2.053319476544857E-3  
 2.438000000000000E10    1.985586946830154E-3  -2.830678829923272E-3  
 2.440000000000000E10   -2.918676938861609E-3  -3.491672687232494E-4  
 2.442000000000000E10    1.194390206364915E-4   2.810150617733598E-3  
 2.444000000000000E10    3.245336003601551E-3  -2.780735667329282E-4  
 2.446000000000000E10   -1.731868833303452E-3  -3.248657099902630E-3  
 2.448000000000000E10   -3.154236124828458E-3   1.248913817107678E-3  
 2.450000000000000E10    1.635057386010885E-3   3.470111172646284E-3  
 2.452000000000000E10    3.133483929559588E-3  -2.378761535510421E-3  
 2.454000000000000E10   -1.886056968942285E-3  -3.404436632990837E-3  
 2.456000000000000E10   -2.973750466480851E-3   2.159880241379142E-3  
 2.458000000000000E10    2.151817083358765E-3   2.961517311632633E-3  
 2.460000000000000E10    2.684183185920119E-3  -2.470655832439661E-3  
 2.462000000000000E10   -1.891353982500732E-3  -2.239561406895518E-3  
 2.464000000000000E10   -2.444714307785034E-3   1.368047669529915E-3  
 2.466000000000000E10    2.022719476372004E-3   1.657274318858981E-3  
 2.468000000000000E10    1.004546531476080E-3  -1.977008301764727E-3  
 2.470000000000000E10   -1.327616977505386E-3  -1.230600406415761E-3  
 2.472000000000000E10   -2.243807102786377E-4   1.207838649861515E-3  
 2.474000000000000E10    1.617380417883396E-3  -1.466377871111035E-4  
 2.476000000000000E10   -4.484978562686592E-4  -1.806162297725678E-3  
 2.478000000000000E10   -1.276835799217224E-3   1.050240243785083E-3  
 2.480000000000000E10    1.013823784887791E-3   1.488318666815758E-3  
 2.482000000000000E10    1.447202754206955E-3  -1.807718770578504E-3  
 2.484000000000000E10   -2.145194914191961E-3  -1.747088506817818E-3  
 2.486000000000000E10   -1.688358606770635E-3   1.703153597190976E-3  
 2.488000000000000E10    2.047802321612835E-3   1.491468050517142E-3  
 2.490000000000000E10    1.660903333686292E-3  -2.366021974012256E-3  
 2.492000000000000E10   -2.093904186040163E-3  -1.408456126227975E-3  
 2.494000000000000E10   -1.318841357715428E-3   1.547100720927119E-3  
 2.496000000000000E10    1.687335548922420E-3   1.170719740912318E-3  
 2.498000000000000E10    6.938481819815934E-4  -1.573785091750324E-3  
 2.500000000000000E10   -1.101724337786436E-3  -9.176540188491345E-4  
 2.502000000000000E10   -1.107303309254348E-3   9.255898767150939E-4  
 2.504000000000000E10    6.787979509681463E-4   1.124103800975718E-4  
 2.506000000000000E10   -1.390021352563053E-4  -9.328450541943312E-4  
 2.508000000000000E10   -6.341299740597606E-4   1.527081476524472E-4  
 2.510000000000000E10    2.051046030828729E-4   6.970284739509225E-4  
 2.512000000000000E10    7.987916469573975E-4  -8.359854109585285E-4  
 2.514000000000000E10   -1.251618610695005E-3  -9.790688054636121E-4  
 2.516000000000000E10   -1.357525237835944E-3   1.295166672207415E-3  
 2.518000000000000E10    1.574016991071403E-3   1.069497666321695E-3  
 2.520000000000000E10    7.494916208088398E-4  -1.530785346403718E-3  
 2.522000000000000E10   -1.802737708203495E-3  -1.417901599779725E-3  
 2.524000000000000E10   -1.428850227966905E-3   1.421009539626539E-3  
 2.526000000000000E10    1.342197647318244E-3   1.159200328402221E-3  
 2.528000000000000E10    6.548546953126788E-4  -1.254903501830995E-3  
 2.530000000000000E10   -9.844967862591147E-4  -7.805093191564083E-4  
 2.532000000000000E10   -1.257169060409069E-3   8.060262771323323E-4  
 2.534000000000000E10    1.747493952279910E-4   4.351111419964582E-4  
 2.536000000000000E10    3.086405340582132E-4  -3.744190034922212E-4  
 2.538000000000000E10   -6.900102016516030E-4  -1.298927381867543E-4  
 2.540000000000000E10   -7.108466525096446E-5   1.677143154665828E-5  
 2.542000000000000E10    1.876834867289290E-4  -4.251277132425457E-4  
 2.544000000000000E10   -7.517182384617627E-4  -1.521781377959997E-4  
 2.546000000000000E10   -4.794127889908850E-4   9.148659883067012E-4  
 2.548000000000000E10    8.402662351727486E-4   1.606675796210766E-4  
 2.550000000000000E10   -4.195045330561698E-4  -8.157190168276429E-4  
 2.552000000000000E10   -1.081728842109442E-3  -2.757516631390899E-4  
 2.554000000000000E10   -4.384872154332697E-4   9.369660401716828E-4  
 2.556000000000000E10    1.005644007818773E-4   6.702775717712939E-4  
 2.558000000000000E10    9.836833924055100E-4  -4.167548613622785E-4  
 2.560000000000000E10   -8.589021163061261E-4  -1.223705359734595E-3  
 2.562000000000000E10   -1.255666255019605E-3   9.474892867729068E-4  
 2.564000000000000E10    2.780201903078705E-4   1.357309985905886E-3  
 2.566000000000000E10    9.438429260626435E-4  -1.241183636011556E-4  
 2.568000000000000E10   -6.332441116683185E-4  -6.760646356269717E-4  
 2.570000000000000E10   -8.926845621317625E-4   4.038205079268664E-4  
 2.572000000000000E10    3.003945166710764E-4   4.710423818323761E-4  
 2.574000000000000E10    4.445647573447786E-5  -6.402722792699933E-4  
 2.576000000000000E10   -2.938955731224269E-4   7.250991766341031E-4  
 2.578000000000000E10    5.063495482318103E-4  -2.511178172426298E-5  
 2.580000000000000E10    6.429685745388269E-4  -1.831395638873801E-4  
 2.582000000000000E10   -1.057245302945375E-3  -5.831981543451548E-4  
 2.584000000000000E10   -7.556107011623681E-4   1.552162226289511E-3  
 2.586000000000000E10    1.248751650564373E-3   1.078996458090842E-3  
 2.588000000000000E10    1.267343992367387E-3  -1.321433228440583E-3  
 2.590000000000000E10   -1.736382022500038E-3  -7.268599583767355E-4  
 2.592000000000000E10   -1.119612134061754E-3   9.465605835430324E-4  
 2.594000000000000E10    1.184973167255521E-3   1.488868030719459E-3  
 2.596000000000000E10    1.704963273368776E-3  -8.881370886228979E-4  
 2.598000000000000E10   -8.989720954559743E-4  -1.059438218362629E-3  
 2.600000000000000E10   -1.323323580436409E-3   6.331808399409056E-4  
 2.602000000000000E10    6.861300207674503E-4   1.371153863146901E-3  
 2.604000000000000E10    4.711822257377207E-4  -4.032418073620647E-4  
 2.606000000000000E10    1.087746131815948E-4  -4.055922618135810E-4  
 2.608000000000000E10   -5.300941411405802E-4   5.297267343848944E-4  
 2.610000000000000E10    3.190850839018822E-4   2.007699804380536E-4  
 2.612000000000000E10   -2.077023236779496E-4  -5.906122169108130E-5  
 2.614000000000000E10   -6.261451635509729E-4   3.163643123116344E-4  
 2.616000000000000E10    9.995971340686083E-4   8.693969575688243E-4  
 2.618000000000000E10    1.132122240960598E-3  -9.320797398686409E-4  
 2.620000000000000E10   -1.644507516175509E-3  -7.077648770064116E-4  
 2.622000000000000E10   -9.378554532304406E-4   1.478788442909718E-3  
 2.624000000000000E10    1.114408252760768E-3   1.512026530690491E-3  
 2.626000000000000E10    1.188541064038873E-3  -1.718467683531344E-3  
 2.628000000000000E10   -1.731498748995364E-3  -1.268945168703795E-3  
 2.630000000000000E10   -1.393928774632514E-3   1.900600269436836E-3  
 2.632000000000000E10    1.686200383119285E-3   1.070085098035634E-3  
 2.634000000000000E10    7.156266365200281E-4  -1.460144994780421E-3  
 2.636000000000000E10   -1.368959667161107E-3  -7.042739307507873E-4  
 2.638000000000000E10   -5.007430445402861E-4   1.026489539071918E-3  
 2.640000000000000E10    1.477795070968568E-3  -3.296849899925292E-5  
 2.642000000000000E10   -5.830221925862134E-4  -1.289767329581082E-3  
 2.644000000000000E10   -1.211523660458624E-3   8.924273424781859E-4  
 2.646000000000000E10    7.302635349333286E-4   1.524657360278070E-3  
 2.648000000000000E10    9.269812726415694E-4  -1.594644272699952E-3  
 2.650000000000000E10   -1.495275064371526E-3  -1.224447973072529E-3  
 2.652000000000000E10   -1.168206799775362E-3   1.840162207372487E-3  
 2.654000000000000E10    2.223008777946234E-3   1.481178333051503E-3  
 2.656000000000000E10    9.833074873313308E-4  -2.278500236570835E-3  
 2.658000000000000E10   -2.117018448188901E-3  -9.299888042733073E-4  
 2.660000000000000E10   -4.917424521408975E-4   2.084080129861832E-3  
 2.662000000000000E10    1.835205475799739E-3   5.623099859803915E-4  
 2.664000000000000E10    1.734439574647695E-4  -1.244439510628581E-3  
 2.666000000000000E10   -1.097338856197894E-3   1.682275469647721E-4  
 2.668000000000000E10    2.068111352855340E-4   7.312725647352636E-4  
 2.670000000000000E10    6.566216470673680E-4  -3.379403788130730E-4  
 2.672000000000000E10   -4.146749561186880E-4  -3.633122250903398E-4  
 2.674000000000000E10   -4.564434057101607E-4   1.014947891235352E-3  
 2.676000000000000E10    1.338976784609258E-3   1.580890821060166E-4  
 2.678000000000000E10    2.171814121538773E-4  -1.557379728183150E-3  
 2.680000000000000E10   -1.838085008785129E-3  -3.712336183525622E-4  
 2.682000000000000E10   -1.773384719854221E-4   2.168748294934630E-3  
 2.684000000000000E10    2.500488888472319E-3   3.598398761823773E-4  
 2.686000000000000E10    4.666542517952621E-4  -2.705707913264632E-3  
 2.688000000000000E10   -2.663009800016880E-3  -3.716963110491633E-4  
 2.690000000000000E10   -2.460930554661900E-4   2.591738477349281E-3  
 2.692000000000000E10    2.367760054767132E-3   1.599248353159055E-4  
 2.694000000000000E10   -7.485299283871427E-5  -2.366574248299003E-3  
 2.696000000000000E10   -2.151231048628688E-3  -4.839361063204706E-4  
 2.698000000000000E10   -3.123595670331270E-4   1.554550370201469E-3  
 2.700000000000000E10    1.231396570801735E-3  -1.772112300386652E-4  
 2.702000000000000E10   -1.258714328287169E-4  -1.274940557777882E-3  
 2.704000000000000E10   -5.652952240779996E-4   6.840467685833573E-4  
 2.706000000000000E10    9.813660290092230E-4   1.579213421791792E-4  
 2.708000000000000E10   -1.325404446106404E-4  -1.080871326848865E-3  
 2.710000000000000E10   -1.442368957214057E-3   1.812321279430762E-4  
 2.712000000000000E10    1.889442355604842E-4   1.631337567232549E-3  
 2.714000000000000E10    2.252683276310563E-3  -9.398363763466477E-4  
 2.716000000000000E10   -9.925607591867447E-4  -1.963809598237276E-3  
 2.718000000000000E10   -2.147509250789881E-3   6.137596792541444E-4  
 2.720000000000000E10    1.300275442190468E-3   1.993976067751646E-3  
 2.722000000000000E10    1.804618746973574E-3  -6.513911648653448E-4  
 2.724000000000000E10   -5.893146735616028E-4  -1.906687626615167E-3  
 2.726000000000000E10   -1.616236520931125E-3   4.204477008897811E-4  
 2.728000000000000E10    5.343557568266988E-4   1.426314120180905E-3  
 2.730000000000000E10    1.222168095409870E-3  -6.515383138321340E-4  
 2.732000000000000E10   -1.773700496414676E-4  -8.418136858381331E-4  
 2.734000000000000E10   -8.641509921289980E-4   6.448454805649817E-4  
 2.736000000000000E10    7.922715158201754E-4  -9.680128277977929E-5  
 2.738000000000000E10   -3.219787322450429E-4  -5.209889495745301E-4  
 2.740000000000000E10   -1.241430174559355E-3   4.775353881996125E-4  
 2.742000000000000E10    4.622266860678792E-4   1.309621147811413E-3  
 2.744000000000000E10    1.162488479167223E-3  -1.059056492522359E-3  
 2.746000000000000E10   -1.332752523012459E-3  -1.300192438066006E-3  
 2.748000000000000E10   -1.694560865871608E-3   6.494704284705222E-4  
 2.750000000000000E10    1.033368404023349E-3   1.734990975819528E-3  
 2.752000000000000E10    1.702055335044861E-3  -9.750589961186051E-4  
 2.754000000000000E10   -5.900936666876078E-4  -1.663925591856241E-3  
 2.756000000000000E10   -1.988366711884737E-3   9.736894862726331E-4  
