#  HZ   S   RI   R     50.00 
! Rohde & Schwarz ZVA40 4Ports - Version 3.90 - 1145.1110k42 SN: 100403
! Date: 2023-10-04 10:42:24
! Measurement: S12 
! 
 2.200000000000000E10    4.883312503807247E-4   3.539377823472023E-3  
 2.202000000000000E10    3.977188840508461E-3  -4.252940125297755E-4  
 2.204000000000000E10   -9.441091096960008E-4  -3.936220426112413E-3  
 2.206000000000000E10   -3.637972287833691E-3   1.721915323287249E-3  
 2.208000000000000E10    2.970075933262706E-3   4.616100341081619E-3  
 2.210000000000000E10    4.545250441879034E-3  -3.060514573007822E-3  
 2.212000000000000E10   -4.015500191599131E-3  -3.806797554716468E-3  
 2.214000000000000E10   -3.826336702331901E-3   4.986835643649101E-3  
 2.216000000000000E10    5.941070616245270E-3   3.409997094422579E-3  
 2.218000000000000E10    2.388325054198504E-3  -6.688331719487906E-3  
 2.220000000000000E10   -6.753252353519201E-3  -1.531450427137315E-3  
 2.222000000000000E10   -4.244641459081322E-4   6.885588634759188E-3  
 2.224000000000000E10    7.393868640065193E-3  -4.560440720524639E-4  
 2.226000000000000E10   -1.880620373412967E-3  -6.858706939965487E-3  
 2.228000000000000E10   -5.847916472703219E-3   3.408753545954824E-3  
 2.230000000000000E10    3.871873486787081E-3   5.658279638737440E-3  
 2.232000000000000E10    5.021519027650356E-3  -4.915848840028048E-3  
 2.234000000000000E10   -5.473122000694275E-3  -3.042635042220354E-3  
 2.236000000000000E10   -2.734549809247255E-3   5.465167108923197E-3  
 2.238000000000000E10    6.007991731166840E-3   1.930736238136888E-3  
 2.240000000000000E10    1.426868606358767E-3  -6.324763409793377E-3  
 2.242000000000000E10   -6.415187381207943E-3  -3.791194758377969E-4  
 2.244000000000000E10    7.739796419627965E-4   6.338339764624834E-3  
 2.246000000000000E10    6.166441366076469E-3  -9.818188846111298E-4  
 2.248000000000000E10   -2.303910441696644E-3  -5.962274502962828E-3  
 2.250000000000000E10   -5.256680306047201E-3   2.868603449314833E-3  
 2.252000000000000E10    3.104908159002662E-3   4.765877965837717E-3  
 2.254000000000000E10    4.212334752082825E-3  -3.669779282063246E-3  
 2.256000000000000E10   -4.124962259083986E-3  -3.755023237317801E-3  
 2.258000000000000E10   -2.949797548353672E-3   4.522099625319243E-3  
 2.260000000000000E10    4.554328974336386E-3   2.133284928277135E-3  
 2.262000000000000E10    9.700116352178156E-4  -4.449819214642048E-3  
 2.264000000000000E10   -4.439826589077711E-3  -6.000089924782515E-4  
 2.266000000000000E10   -2.074218209600076E-4   4.291990306228399E-3  
 2.268000000000000E10    4.245648626238108E-3  -6.487960345111787E-4  
 2.270000000000000E10   -1.437080325558782E-3  -4.026129841804504E-3  
 2.272000000000000E10   -4.292706027626991E-3   9.377300157211721E-4  
 2.274000000000000E10    1.670792349614203E-3   3.721556393429637E-3  
 2.276000000000000E10    3.551055211573839E-3  -2.280995249748230E-3  
 2.278000000000000E10   -2.544538583606482E-3  -3.551034955307841E-3  
 2.280000000000000E10   -2.694830764085054E-3   2.874813275411725E-3  
 2.282000000000000E10    7.826806395314634E-4   2.917882055044174E-3  
 2.284000000000000E10    1.614964217878878E-3  -2.434699330478907E-3  
 2.286000000000000E10   -2.404663711786270E-3  -1.498540048487485E-3  
 2.288000000000000E10   -1.468296628445387E-3   2.202867297455668E-3  
 2.290000000000000E10    1.734470482915640E-3   9.345490834675729E-4  
 2.292000000000000E10    4.326654016040266E-4  -2.228487515822053E-3  
 2.294000000000000E10   -2.383433748036623E-3  -3.587641112972051E-4  
 2.296000000000000E10    3.623752854764462E-4   1.656299573369324E-3  
 2.298000000000000E10    1.748860697261989E-3  -3.287948493380100E-4  
 2.300000000000000E10   -4.524195101112127E-4  -1.745948451571167E-3  
 2.302000000000000E10   -1.853212714195252E-3   1.330436673015356E-3  
 2.304000000000000E10    7.622246630489826E-4   1.548951724544168E-3  
 2.306000000000000E10    1.498663797974587E-3  -1.028134254738689E-3  
 2.308000000000000E10   -1.612358028069139E-3  -1.507673528976739E-3  
 2.310000000000000E10   -1.622094656340778E-3   1.229753834195435E-3  
 2.312000000000000E10    9.315314237028360E-4   8.987521287053824E-4  
 2.314000000000000E10    1.569361775182188E-3  -1.449285773560405E-3  
 2.316000000000000E10   -1.156201120465994E-3  -1.357818604446948E-3  
 2.318000000000000E10   -1.010136096738279E-3   7.189904572442174E-4  
 2.320000000000000E10    1.227728673256934E-3   1.316248439252377E-3  
 2.322000000000000E10    7.222119602374733E-4  -9.809564799070358E-4  
 2.324000000000000E10   -6.467747152782977E-4  -8.232821128331125E-4  
 2.326000000000000E10   -9.324706625193358E-4   9.604340884834528E-4  
 2.328000000000000E10    8.023184491321445E-4   7.933506858535111E-4  
 2.330000000000000E10    3.214470052625984E-4  -6.887053023092449E-4  
 2.332000000000000E10   -8.088295580819249E-4  -1.215270749526098E-4  
 2.334000000000000E10   -2.021752297878265E-4   9.974719723686576E-4  
 2.336000000000000E10    1.174161094240844E-3   9.006312029669061E-5  
 2.338000000000000E10   -5.588624626398087E-4  -1.017208560369909E-3  
 2.340000000000000E10   -1.476804609410465E-3   7.445086957886815E-4  
 2.342000000000000E10    7.626724545843899E-4   2.009052317589521E-3  
 2.344000000000000E10    1.211050082929432E-3  -8.704495267011225E-4  
 2.346000000000000E10   -8.209708030335605E-4  -1.841240329667926E-3  
 2.348000000000000E10   -2.029043156653643E-3   1.543896389193833E-3  
 2.350000000000000E10    1.151810167357326E-3   2.059593098238111E-3  
 2.352000000000000E10    2.100075362250209E-3  -1.187661197036505E-3  
 2.354000000000000E10   -1.619964372366667E-3  -1.953059341758490E-3  
 2.356000000000000E10   -1.521032885648310E-3   1.308087725192308E-3  
 2.358000000000000E10    9.994384599849582E-4   1.244629267603159E-3  
 2.360000000000000E10    9.672062005847693E-4  -6.095928256399930E-4  
 2.362000000000000E10   -1.054170075803995E-3  -1.364783267490566E-3  
 2.364000000000000E10   -9.989129612222314E-4   1.611615880392492E-3  
 2.366000000000000E10    8.629137300886214E-4   3.902357420884073E-4  
 2.368000000000000E10    1.925680699059740E-4  -1.043219352141023E-3  
 2.370000000000000E10   -1.072490820661187E-3   3.411660727579147E-4  
 2.372000000000000E10    2.930736227426678E-4   1.316568581387401E-3  
 2.374000000000000E10    1.422715373337269E-3  -4.476291360333562E-4  
 2.376000000000000E10   -9.481417364440858E-4  -1.635846681892872E-3  
 2.378000000000000E10   -1.774982898496091E-3   1.391220954246819E-3  
 2.380000000000000E10    1.630111713893712E-3   2.053047297522426E-3  
 2.382000000000000E10    2.009211108088493E-3  -1.739868894219399E-3  
 2.384000000000000E10   -2.255345229059458E-3  -1.848515355959535E-3  
 2.386000000000000E10   -1.844170270487666E-3   2.025346504524350E-3  
 2.388000000000000E10    2.049228409305215E-3   1.830689259804785E-3  
 2.390000000000000E10    2.043091459199786E-3  -2.279778476804495E-3  
 2.392000000000000E10   -2.425913698971272E-3  -1.188670401461422E-3  
 2.394000000000000E10   -1.216595410369337E-3   1.942686387337744E-3  
 2.396000000000000E10    1.835127826780081E-3   1.244901446625590E-3  
 2.398000000000000E10    8.891611942090094E-4  -1.658199122175574E-3  
 2.400000000000000E10   -1.658736611716449E-3  -5.662715993821621E-4  
 2.402000000000000E10   -1.070435100700706E-4   1.418389496393502E-3  
 2.404000000000000E10    8.018275839276612E-4  -4.187029844615609E-4  
 2.406000000000000E10   -3.064964548684657E-4  -1.129231764934957E-3  
 2.408000000000000E10   -7.304375758394599E-4   7.244513835757971E-4  
 2.410000000000000E10    1.409640302881599E-3   4.714527458418161E-4  
 2.412000000000000E10    6.314484635367990E-4  -1.789921079762280E-3  
 2.414000000000000E10   -1.726217800751329E-3  -3.971864061895758E-4  
 2.416000000000000E10   -5.451222532428801E-4   1.622377312742174E-3  
 2.418000000000000E10    1.928869518451393E-3   9.425417520105839E-4  
 2.420000000000000E10    5.551914218813181E-4  -2.534242812544107E-3  
 2.422000000000000E10   -2.480610972270370E-3  -7.606687722727656E-4  
 2.424000000000000E10   -5.911453044973314E-4   2.164250239729881E-3  
 2.426000000000000E10    2.234543440863490E-3   4.414371796883643E-4  
 2.428000000000000E10    4.598225641530007E-4  -2.384113147854805E-3  
 2.430000000000000E10   -2.320575993508101E-3  -5.940558621659875E-4  
 2.432000000000000E10   -8.475646609440446E-5   1.904332428239286E-3  
 2.434000000000000E10    1.862071105279028E-3   2.344365930184722E-5  
 2.436000000000000E10    1.823741877160501E-5  -1.593803754076362E-3  
 2.438000000000000E10   -1.596059300936759E-3   4.956755437888205E-4  
 2.440000000000000E10    9.863235754892230E-4   1.107342424802482E-3  
 2.442000000000000E10    7.630455656908453E-4  -1.267191022634506E-3  
 2.444000000000000E10   -1.144590089097619E-3  -6.940298480913043E-4  
 2.446000000000000E10   -9.017594275064766E-4   1.392818405292928E-3  
 2.448000000000000E10    1.576259848661721E-3   2.734504814725369E-4  
 2.450000000000000E10    1.007163780741394E-3  -2.082365099340677E-3  
 2.452000000000000E10   -2.358582569286227E-3  -7.321477169170976E-4  
 2.454000000000000E10   -6.646780529990792E-4   2.063638297840953E-3  
 2.456000000000000E10    2.293096622452140E-3   8.328717667609453E-4  
 2.458000000000000E10    1.234909635968506E-3  -2.767270198091865E-3  
 2.460000000000000E10   -3.058438654989004E-3  -1.075494335964322E-3  
 2.462000000000000E10   -5.919349496252835E-4   2.674283692613244E-3  
 2.464000000000000E10    2.682816237211227E-3   4.642644489649683E-4  
 2.466000000000000E10    5.785251851193607E-4  -2.879289910197258E-3  
 2.468000000000000E10   -2.623612992465496E-3  -2.933581126853824E-4  
 2.470000000000000E10    7.020022894721478E-5   2.309122355654836E-3  
 2.472000000000000E10    2.025215886533260E-3  -9.047107305377722E-4  
 2.474000000000000E10   -8.685075445100665E-4  -1.871864194981754E-3  
 2.476000000000000E10   -1.682770904153585E-3   1.189629430882633E-3  
 2.478000000000000E10    1.498303958214819E-3   1.067377044819295E-3  
 2.480000000000000E10    1.065285992808640E-3  -2.028457121923566E-3  
 2.482000000000000E10   -2.336188452318311E-3  -1.174347940832377E-3  
 2.484000000000000E10   -1.035066670738161E-3   2.960844431072474E-3  
 2.486000000000000E10    3.196473699063063E-3   6.320666871033609E-4  
 2.488000000000000E10   -5.813227835460566E-5  -3.808280220255256E-3  
 2.490000000000000E10   -3.837436437606812E-3   3.307261504232884E-4  
 2.492000000000000E10   -8.983005272966693E-7   3.400673391297460E-3  
 2.494000000000000E10    3.557742340490222E-3  -3.977222950197756E-4  
 2.496000000000000E10   -7.698283880017698E-4  -3.954989369958639E-3  
 2.498000000000000E10   -3.479212988168001E-3   1.557230250909925E-3  
 2.500000000000000E10    6.765502621419728E-4   2.654822310432792E-3  
 2.502000000000000E10    2.814475679770112E-3  -1.189935253933072E-3  
 2.504000000000000E10   -1.946452888660133E-3  -2.164577366784215E-3  
 2.506000000000000E10   -2.154949354007840E-3   1.402971800416708E-3  
 2.508000000000000E10    1.751286908984184E-3   1.543038408271968E-3  
 2.510000000000000E10    9.055446134880185E-4  -2.757240785285831E-3  
 2.512000000000000E10   -2.679853932932019E-3  -4.386155342217535E-4  
 2.514000000000000E10   -2.878199447877705E-4   2.484909957274795E-3  
 2.516000000000000E10    2.794248051941395E-3   3.238469071220607E-4  
 2.518000000000000E10   -7.662610732950270E-4  -3.680371912196279E-3  
 2.520000000000000E10   -4.050590097904205E-3   1.158538390882313E-3  
 2.522000000000000E10    1.146297669038177E-3   3.569137537851930E-3  
 2.524000000000000E10    3.758279141038656E-3  -1.848904299549758E-3  
 2.526000000000000E10   -2.408365486189723E-3  -3.406340954825282E-3  
 2.528000000000000E10   -3.602731274440885E-3   1.951619633473456E-3  
 2.530000000000000E10    2.178676659241319E-3   3.448730800300837E-3  
 2.532000000000000E10    2.981863915920258E-3  -2.336608944460750E-3  
 2.534000000000000E10   -2.923128427937627E-3  -2.528038341552019E-3  
 2.536000000000000E10   -2.044798340648413E-3   2.876154845580459E-3  
 2.538000000000000E10    2.476717811077833E-3   1.716779195703566E-3  
 2.540000000000000E10    1.103865448385477E-3  -2.876519924029708E-3  
 2.542000000000000E10   -3.063644515350461E-3  -5.046117585152388E-4  
 2.544000000000000E10   -1.769266964402050E-4   3.040514653548598E-3  
 2.546000000000000E10    2.987008076161146E-3  -6.527355872094631E-4  
 2.548000000000000E10   -1.719424617476761E-3  -2.726629842072725E-3  
 2.550000000000000E10   -3.046552650630474E-3   2.015500096604228E-3  
 2.552000000000000E10    2.209743484854698E-3   2.989513566717506E-3  
 2.554000000000000E10    2.743607619777322E-3  -2.574130892753601E-3  
 2.556000000000000E10   -2.978494856506586E-3  -2.687208354473114E-3  
 2.558000000000000E10   -3.182574873790145E-3   3.569519147276878E-3  
 2.560000000000000E10    3.957756794989109E-3   2.773453714326024E-3  
 2.562000000000000E10    1.869709696620703E-3  -3.682865295559168E-3  
 2.564000000000000E10   -4.126695916056633E-3  -1.876779715530574E-3  
 2.566000000000000E10   -1.758946455083787E-3   4.608602263033390E-3  
 2.568000000000000E10    4.385086707770824E-3   1.165299443528056E-3  
 2.570000000000000E10   -2.202890318585560E-4  -4.171011038124561E-3  
 2.572000000000000E10   -3.702563233673573E-3   6.321449764072895E-4  
 2.574000000000000E10    1.232327311299741E-3   3.402521135285497E-3  
 2.576000000000000E10    2.889780094847083E-3  -1.730526448227465E-3  
 2.578000000000000E10   -2.083103870972991E-3  -1.943828654475510E-3  
 2.580000000000000E10   -2.097833203151822E-3   3.036685520783067E-3  
 2.582000000000000E10    3.139934269711375E-3   1.891724066808820E-3  
 2.584000000000000E10    1.137396669946611E-3  -3.419545711949468E-3  
 2.586000000000000E10   -4.030564799904823E-3  -9.572588605806232E-4  
 2.588000000000000E10   -4.377543809823692E-4   4.217857494950295E-3  
 2.590000000000000E10    3.946028649806976E-3   5.424833507277072E-4  
 2.592000000000000E10    7.656197340111248E-6  -4.160367883741856E-3  
 2.594000000000000E10   -4.477812908589840E-3  -5.218933802098036E-5  
 2.596000000000000E10    8.405632688663900E-4   4.950565751641989E-3  
 2.598000000000000E10    3.853799309581518E-3  -1.053654938004911E-3  
 2.600000000000000E10   -1.375301624648273E-3  -3.536406438797712E-3  
 2.602000000000000E10   -3.213990479707718E-3   1.719992724247277E-3  
 2.604000000000000E10    1.827743020839989E-3   2.648252295330167E-3  
 2.606000000000000E10    2.154217567294836E-3  -2.054152544587851E-3  
 2.608000000000000E10   -2.092057373374701E-3  -2.146992599591613E-3  
 2.610000000000000E10   -1.340754912234843E-3   2.868658863008022E-3  
 2.612000000000000E10    3.231488401070237E-3   1.026474987156689E-3  
 2.614000000000000E10    6.230198778212071E-4  -3.239925485104322E-3  
 2.616000000000000E10   -3.472495824098587E-3  -3.370202612131834E-4  
 2.618000000000000E10    1.803573686629534E-4   4.384803120046854E-3  
 2.620000000000000E10    4.400537349283695E-3  -7.711259531788528E-4  
 2.622000000000000E10   -1.189624425023794E-3  -4.527373705059290E-3  
 2.624000000000000E10   -3.990974742919207E-3   1.608186401426792E-3  
 2.626000000000000E10    2.167891943827272E-3   4.128716420382261E-3  
 2.628000000000000E10    3.748614573851228E-3  -2.120420802384615E-3  
 2.630000000000000E10   -2.413653070107102E-3  -3.105565207079053E-3  
 2.632000000000000E10   -2.339762868359685E-3   2.599848899990320E-3  
 2.634000000000000E10    2.622240921482444E-3   2.378177829086781E-3  
 2.636000000000000E10    1.284481375478208E-3  -2.759050810709596E-3  
 2.638000000000000E10   -1.737386221066117E-3  -8.116805693134666E-4  
 2.640000000000000E10   -3.409522178117186E-4   2.361679449677467E-3  
 2.642000000000000E10    2.183743054047227E-3  -1.341966708423570E-4  
 2.644000000000000E10   -7.802113541401923E-4  -2.533855149522424E-3  
 2.646000000000000E10   -2.168457256630063E-3   1.302244374528527E-3  
 2.648000000000000E10    1.987541327252984E-3   2.087316010147333E-3  
 2.650000000000000E10    2.267736708745360E-3  -2.156986854970455E-3  
 2.652000000000000E10   -2.824427327141166E-3  -2.084441948682070E-3  
 2.654000000000000E10   -2.231178106740117E-3   2.720403717830777E-3  
 2.656000000000000E10    3.396296640858054E-3   2.122216625139117E-3  
 2.658000000000000E10    1.551290974020958E-3  -3.592403372749686E-3  
 2.660000000000000E10   -2.773761749267578E-3  -1.343516167253256E-3  
 2.662000000000000E10   -1.548504107631743E-3   3.080084221437573E-3  
 2.664000000000000E10    3.005654551088810E-3   1.303530647419393E-3  
 2.666000000000000E10    8.221313473768532E-4  -2.638204721733928E-3  
 2.668000000000000E10   -2.482922049239278E-3  -8.228863589465618E-4  
 2.670000000000000E10   -1.408791140420362E-4   2.165726851671934E-3  
 2.672000000000000E10    2.246609423309565E-3  -3.438275016378611E-4  
 2.674000000000000E10   -8.600322762504220E-4  -1.783339423127472E-3  
 2.676000000000000E10   -1.467371359467506E-3   7.735058316029608E-4  
 2.678000000000000E10    1.433942466974258E-3   1.446571201086044E-3  
 2.680000000000000E10    1.540561090223491E-3  -2.161265118047595E-3  
 2.682000000000000E10   -2.606497611850500E-3  -9.374957298859954E-4  
 2.684000000000000E10   -7.865676889196038E-4   2.903834916651249E-3  
 2.686000000000000E10    3.123885951936245E-3   3.870487271342427E-4  
 2.688000000000000E10   -7.268010449479334E-6  -3.134806407615542E-3  
 2.690000000000000E10   -2.582099754363298E-3  -7.188566087279469E-5  
 2.692000000000000E10    1.580867829034105E-4   3.287787782028318E-3  
 2.694000000000000E10    2.863170579075813E-3  -3.140385088045150E-4  
 2.696000000000000E10   -5.593678215518594E-4  -2.563113579526544E-3  
 2.698000000000000E10   -2.209540922194719E-3   6.505557685159147E-4  
 2.700000000000000E10    9.770470205694437E-4   1.949980971403420E-3  
 2.702000000000000E10    1.633605221286416E-3  -1.042796298861504E-3  
 2.704000000000000E10   -1.040541450493038E-3  -1.033886102959514E-3  
 2.706000000000000E10   -7.696113898418844E-4   1.165014225989580E-3  
 2.708000000000000E10    1.830143271945417E-3   2.787972334772348E-4  
 2.710000000000000E10    1.909469137899578E-4  -1.945553114637733E-3  
 2.712000000000000E10   -1.812244183383882E-3   4.518501809798181E-4  
 2.714000000000000E10    7.497943588532507E-4   2.352504990994930E-3  
 2.716000000000000E10    2.321760868653655E-3  -1.019129063934088E-3  
 2.718000000000000E10   -1.159892883151770E-3  -2.399877179414034E-3  
 2.720000000000000E10   -2.227381803095341E-3   1.028053113259375E-3  
 2.722000000000000E10    1.320606796070933E-3   2.756878267973661E-3  
 2.724000000000000E10    2.308957511559129E-3  -1.258207950741053E-3  
 2.726000000000000E10   -1.270027831196785E-3  -1.811761991120875E-3  
 2.728000000000000E10   -2.129935193806887E-3   7.142235990613699E-4  
 2.730000000000000E10    1.240346464328468E-3   1.802680781111121E-3  
 2.732000000000000E10    1.012973836623132E-3  -8.438797667622566E-4  
 2.734000000000000E10   -5.706434603780508E-4  -1.040569739416242E-3  
 2.736000000000000E10   -5.677882581949234E-4   4.639467806555331E-4  
 2.738000000000000E10    5.669230595231056E-4  -4.808305311598815E-5  
 2.740000000000000E10   -1.959943620022386E-4  -7.498958148062229E-4  
 2.742000000000000E10   -4.134540213271976E-4   6.491974927484989E-4  
 2.744000000000000E10    1.082314644008875E-3   7.200721302069724E-4  
 2.746000000000000E10    9.737352957017720E-4  -1.526999869383872E-3  
 2.748000000000000E10   -1.759308739565313E-3  -4.789990489371121E-4  
 2.750000000000000E10   -1.046445802785456E-3   1.306717400439084E-3  
 2.752000000000000E10    2.194367814809084E-3   1.155913807451725E-3  
 2.754000000000000E10    1.092550344765186E-3  -2.107721986249089E-3  
 2.756000000000000E10   -1.540634431876242E-3  -1.107376185245812E-3  
