#  HZ   S   RI   R     50.00 
! Rohde & Schwarz ZVA40 4Ports - Version 3.90 - 1145.1110k42 SN: 100403
! Date: 2023-10-04 10:44:19
! Measurement: S12 
! 
 2.200000000000000E10   -1.408561947755516E-3   3.371131839230657E-3  
 2.202000000000000E10    2.931158524006605E-3   1.548722619190812E-3  
 2.204000000000000E10    1.514331204816699E-3  -3.601860255002976E-3  
 2.206000000000000E10   -3.733702469617128E-3  -8.176050614565611E-4  
 2.208000000000000E10   -6.941726896911860E-4   3.999065607786179E-3  
 2.210000000000000E10    4.398388788104057E-3   1.669763150857762E-4  
 2.212000000000000E10   -2.849067095667124E-4  -4.025093279778957E-3  
 2.214000000000000E10   -4.369352012872696E-3   1.308811712078750E-3  
 2.216000000000000E10    2.149837557226419E-3   4.020244348794222E-3  
 2.218000000000000E10    3.848659805953503E-3  -2.200432820245624E-3  
 2.220000000000000E10   -3.154244041070342E-3  -3.182044252753258E-3  
 2.222000000000000E10   -2.955781295895577E-3   4.161440767347813E-3  
 2.224000000000000E10    4.349721595644951E-3   2.097761956974864E-3  
 2.226000000000000E10    1.142867840826511E-3  -4.964106716215611E-3  
 2.228000000000000E10   -5.036750808358192E-3  -2.164396719308570E-4  
 2.230000000000000E10    6.052479729987681E-4   5.114808678627014E-3  
 2.232000000000000E10    4.719114862382412E-3  -1.283792895264924E-3  
 2.234000000000000E10   -1.845096936449409E-3  -4.057696089148521E-3  
 2.236000000000000E10   -3.863995196297765E-3   2.399439690634608E-3  
 2.238000000000000E10    2.541346708312631E-3   3.379644127562642E-3  
 2.240000000000000E10    2.784960437566042E-3  -2.886074595153332E-3  
 2.242000000000000E10   -2.991818590089679E-3  -2.481332747265697E-3  
 2.244000000000000E10   -1.404998591169715E-3   3.124952549114823E-3  
 2.246000000000000E10    2.789179095998406E-3   9.509671363048255E-4  
 2.248000000000000E10    2.270208788104355E-4  -2.991931745782495E-3  
 2.250000000000000E10   -2.864597598090768E-3   2.835102495737374E-4  
 2.252000000000000E10    4.357516882009804E-4   2.727748360484839E-3  
 2.254000000000000E10    2.275984035804868E-3  -1.196121796965599E-3  
 2.256000000000000E10   -1.689186668954790E-3  -2.234302926808596E-3  
 2.258000000000000E10   -1.869322499260306E-3   1.253684749826789E-3  
 2.260000000000000E10    1.795659190975130E-3   1.749470131471753E-3  
 2.262000000000000E10    9.536403231322765E-4  -2.182734431698918E-3  
 2.264000000000000E10   -1.423438079655170E-3  -9.567233501002193E-4  
 2.266000000000000E10   -8.584996685385704E-4   1.542127924039960E-3  
 2.268000000000000E10    1.559112803079188E-3   7.308745407499373E-4  
 2.270000000000000E10    3.951046965084970E-4  -1.042572781443596E-3  
 2.272000000000000E10   -1.111794495955110E-3  -6.501302123069763E-4  
 2.274000000000000E10   -5.224108463153243E-4   7.078342605382204E-4  
 2.276000000000000E10    8.497644448652864E-4   2.516195236239582E-4  
 2.278000000000000E10   -3.019484283868223E-4  -3.661104710772634E-4  
 2.280000000000000E10    5.194481927901506E-4  -2.334256278118119E-4  
 2.282000000000000E10    2.536409010645002E-4  -8.223407203331590E-4  
 2.284000000000000E10   -4.655657976400107E-4   5.388166755437851E-4  
 2.286000000000000E10    3.970969119109213E-4   5.514269578270614E-4  
 2.288000000000000E10    4.727726045530289E-4  -3.675820480566472E-4  
 2.290000000000000E10   -7.204770226962864E-4  -4.212054773233831E-4  
 2.292000000000000E10   -5.746070528402925E-4   4.197758389636874E-4  
 2.294000000000000E10    2.178610448027030E-4   1.221529964823276E-4  
 2.296000000000000E10   -4.222349089104682E-4  -5.491694901138544E-4  
 2.298000000000000E10   -3.977283777203411E-4   2.013591001741588E-4  
 2.300000000000000E10    4.477260808926076E-4   4.678149125538766E-4  
 2.302000000000000E10    6.942931795492768E-4  -4.748351057060063E-4  
 2.304000000000000E10   -1.056540291756392E-3  -7.810643874108791E-4  
 2.306000000000000E10   -8.847730350680649E-4   1.508349669165909E-3  
 2.308000000000000E10    1.569941290654242E-3   8.782838121987879E-4  
 2.310000000000000E10    4.296869738027453E-4  -2.222553361207247E-3  
 2.312000000000000E10   -2.880509709939361E-3  -2.419659867882729E-4  
 2.314000000000000E10   -3.441873195697554E-5   2.510010031983256E-3  
 2.316000000000000E10    2.169451909139752E-3  -8.148405328256558E-8  
 2.318000000000000E10    2.604567634989508E-5  -2.483867341652513E-3  
 2.320000000000000E10   -2.590010408312082E-3   2.594099787529558E-4  
 2.322000000000000E10    4.319411818869412E-4   2.556634834036231E-3  
 2.324000000000000E10    2.034425502642989E-3  -9.771521436050534E-4  
 2.326000000000000E10   -1.374518848024309E-3  -2.484529977664352E-3  
 2.328000000000000E10   -2.068982925266028E-3   1.572913373820484E-3  
 2.330000000000000E10    1.874616253189743E-3   1.082232105545700E-3  
 2.332000000000000E10    7.170138414949179E-4  -2.237964887171984E-3  
 2.334000000000000E10   -2.288143150508404E-3  -9.997350862249732E-4  
 2.336000000000000E10   -4.941958468407393E-4   2.734017791226506E-3  
 2.338000000000000E10    2.695016795769334E-3  -9.006966865854338E-5  
 2.340000000000000E10   -3.739836683962494E-4  -2.718867035582662E-3  
 2.342000000000000E10   -3.633416723459959E-3   7.602037512697280E-4  
 2.344000000000000E10    1.382521120831370E-3   3.355743130668998E-3  
 2.346000000000000E10    3.086511744186282E-3  -1.588532119058073E-3  
 2.348000000000000E10   -1.758189988322556E-3  -3.439424559473991E-3  
 2.350000000000000E10   -3.177282400429249E-3   2.190444152802229E-3  
 2.352000000000000E10    2.438124502077699E-3   2.999268006533384E-3  
 2.354000000000000E10    2.133136382326484E-3  -2.408705884590745E-3  
 2.356000000000000E10   -2.724761376157403E-3  -2.379344776272774E-3  
 2.358000000000000E10   -1.812642440199852E-3   2.775837434455752E-3  
 2.360000000000000E10    2.928016707301140E-3   1.192196970805526E-3  
 2.362000000000000E10    8.133560768328607E-4  -2.764265984296799E-3  
 2.364000000000000E10   -2.946173539385200E-3  -3.910414234269410E-4  
 2.366000000000000E10    4.137717187404633E-4   3.314824309200048E-3  
 2.368000000000000E10    3.176612313836813E-3  -4.485106037463993E-4  
 2.370000000000000E10   -1.335484208539128E-3  -3.156895982101560E-3  
 2.372000000000000E10   -3.343872958794236E-3   1.771508948877454E-3  
 2.374000000000000E10    2.629091031849384E-3   3.062920179218054E-3  
 2.376000000000000E10    2.999449381604791E-3  -2.619870938360691E-3  
 2.378000000000000E10   -3.471286967396736E-3  -2.597920363768935E-3  
 2.380000000000000E10   -2.581511624157429E-3   3.956374246627092E-3  
 2.382000000000000E10    4.420948214828968E-3   2.293401630595326E-3  
 2.384000000000000E10    1.550882006995380E-3  -3.953854553401470E-3  
 2.386000000000000E10   -4.078897181898356E-3  -1.275515649467707E-3  
 2.388000000000000E10   -1.111011253669858E-3   4.567450843751431E-3  
 2.390000000000000E10    4.469395615160465E-3   4.718267300631851E-4  
 2.392000000000000E10    2.542854927014560E-4  -4.007912240922451E-3  
 2.394000000000000E10   -3.828187705948949E-3   5.737938918173313E-4  
 2.396000000000000E10    5.439117667265236E-4   3.658010624349117E-3  
 2.398000000000000E10    3.558327676728368E-3  -1.224740990437567E-3  
 2.400000000000000E10   -1.758964615873992E-3  -2.615123055875301E-3  
 2.402000000000000E10   -1.795175834558904E-3   2.454544184729457E-3  
 2.404000000000000E10    2.786141354590654E-3   1.829391345381737E-3  
 2.406000000000000E10    1.194876851513982E-3  -3.066695528104901E-3  
 2.408000000000000E10   -3.134298603981733E-3  -8.916318183764815E-4  
 2.410000000000000E10   -4.301232111174613E-4   3.631673520430923E-3  
 2.412000000000000E10    3.545734798535705E-3   1.041639188770205E-4  
 2.414000000000000E10    1.358505251118913E-4  -3.852735972031951E-3  
 2.416000000000000E10   -3.760827472433448E-3   5.869701271876693E-5  
 2.418000000000000E10    4.495586908888072E-4   4.200872499495745E-3  
 2.420000000000000E10    4.253614228218794E-3  -7.348533254116774E-4  
 2.422000000000000E10   -7.405508658848703E-4  -3.922626841813326E-3  
 2.424000000000000E10   -4.066789057105780E-3   5.623563774861395E-4  
 2.426000000000000E10    1.636664848774672E-3   4.484659526497126E-3  
 2.428000000000000E10    4.018635023385286E-3  -1.622922834940255E-3  
 2.430000000000000E10   -1.882158103398979E-3  -3.836515592411161E-3  
 2.432000000000000E10   -3.107828553766012E-3   2.837543375790119E-3  
 2.434000000000000E10    2.980180783197284E-3   2.608182840049267E-3  
 2.436000000000000E10    2.021117135882378E-3  -2.805622527375817E-3  
 2.438000000000000E10   -2.567638643085957E-3  -1.216819277033210E-3  
 2.440000000000000E10   -8.149776840582490E-4   3.191458294168115E-3  
 2.442000000000000E10    4.021903965622187E-3   6.631026626564562E-4  
 2.444000000000000E10    1.161595137091354E-4  -3.889932530000806E-3  
 2.446000000000000E10   -3.700666595250368E-3   4.902415093965828E-4  
 2.448000000000000E10    9.661179501563311E-4   4.464212339371443E-3  
 2.450000000000000E10    4.136574454605579E-3  -1.321794115938246E-3  
 2.452000000000000E10   -1.411415520124137E-3  -4.277654923498631E-3  
 2.454000000000000E10   -4.090881906449795E-3   1.910513383336365E-3  
 2.456000000000000E10    2.235506195574999E-3   4.212940577417612E-3  
 2.458000000000000E10    4.379869438707829E-3  -2.672706265002489E-3  
 2.460000000000000E10   -2.825243864208460E-3  -3.671612590551376E-3  
 2.462000000000000E10   -3.370162332430482E-3   3.158865263685584E-3  
 2.464000000000000E10    3.543242346495390E-3   2.868177369236946E-3  
 2.466000000000000E10    2.484220545738936E-3  -3.438394051045179E-3  
 2.468000000000000E10   -3.433332545682788E-3  -2.209908794611692E-3  
 2.470000000000000E10   -1.000616466626525E-3   4.089558031409979E-3  
 2.472000000000000E10    3.804382635280490E-3   5.959466798231006E-4  
 2.474000000000000E10    4.340490268077701E-4  -4.031917080283165E-3  
 2.476000000000000E10   -4.187657963484526E-3   7.884718943387270E-4  
 2.478000000000000E10    1.695260638371110E-3   3.967094235122204E-3  
 2.480000000000000E10    4.348878748714924E-3  -2.397781703621149E-3  
 2.482000000000000E10   -2.821034751832485E-3  -4.154989030212164E-3  
 2.484000000000000E10   -3.686158219352365E-3   3.638636087998748E-3  
 2.486000000000000E10    4.519068636000156E-3   3.343847813084722E-3  
 2.488000000000000E10    3.404363291338086E-3  -4.816711880266666E-3  
 2.490000000000000E10   -4.708378575742245E-3  -2.608206821605563E-3  
 2.492000000000000E10   -1.945159630849958E-3   5.032029002904892E-3  
 2.494000000000000E10    5.151671357452869E-3   1.769771799445152E-3  
 2.496000000000000E10    1.495191012509167E-3  -5.343254189938307E-3  
 2.498000000000000E10   -4.422883037477732E-3  -5.240507307462394E-4  
 2.500000000000000E10   -1.849290129030123E-4   4.293859936296940E-3  
 2.502000000000000E10    4.376085940748453E-3  -2.406475541647524E-4  
 2.504000000000000E10   -9.602303034625948E-4  -3.868010593578219E-3  
 2.506000000000000E10   -2.844555303454399E-3   1.397772924974561E-3  
 2.508000000000000E10    1.535053481347859E-3   2.916644560173154E-3  
 2.510000000000000E10    3.268979722633958E-3  -2.502000890672207E-3  
 2.512000000000000E10   -2.774891676381230E-3  -2.459011273458600E-3  
 2.514000000000000E10   -1.409471966326237E-3   3.169778035953641E-3  
 2.516000000000000E10    3.950570244342089E-3   1.673184335231781E-3  
 2.518000000000000E10    1.367993070743978E-3  -4.280336201190949E-3  
 2.520000000000000E10   -4.180680029094219E-3  -7.684964220970869E-4  
 2.522000000000000E10   -9.770619362825528E-5   4.268395248800516E-3  
 2.524000000000000E10    4.675090778619051E-3   1.966119743883610E-4  
 2.526000000000000E10   -3.678595239762217E-4  -5.240554921329022E-3  
 2.528000000000000E10   -4.310830496251583E-3   6.844535819254816E-4  
 2.530000000000000E10    1.097946078516543E-3   4.584249574691057E-3  
 2.532000000000000E10    4.919490311294794E-3  -1.781652448698878E-3  
 2.534000000000000E10   -2.159703755751252E-3  -3.941047005355358E-3  
 2.536000000000000E10   -3.422119887545705E-3   2.171902684494853E-3  
 2.538000000000000E10    2.584471600130200E-3   3.074780572205782E-3  
 2.540000000000000E10    2.904003718867898E-3  -3.277485026046634E-3  
 2.542000000000000E10   -3.411119803786278E-3  -1.841194345615804E-3  
 2.544000000000000E10   -1.033594831824303E-3   3.388302633538842E-3  
 2.546000000000000E10    3.810520051047206E-3   6.742705008946359E-4  
 2.548000000000000E10   -8.642878674436361E-5  -4.418016877025366E-3  
 2.550000000000000E10   -4.088367801159620E-3   9.484922047704458E-4  
 2.552000000000000E10    1.329387305304408E-3   4.081831313669682E-3  
 2.554000000000000E10    4.274578765034676E-3  -2.281033899635077E-3  
 2.556000000000000E10   -2.345045562833548E-3  -3.940097056329250E-3  
 2.558000000000000E10   -3.854035167023540E-3   2.898607170209289E-3  
 2.560000000000000E10    3.206377616152167E-3   3.676006337627769E-3  
 2.562000000000000E10    3.124183276668191E-3  -3.468319540843368E-3  
 2.564000000000000E10   -3.739303443580866E-3  -3.256295807659626E-3  
 2.566000000000000E10   -2.788575598970056E-3   3.782913787290454E-3  
 2.568000000000000E10    3.811327042058110E-3   2.109489170834422E-3  
 2.570000000000000E10    1.677162363193929E-3  -4.300037864595652E-3  
 2.572000000000000E10   -3.805521177127957E-3  -1.029104460030794E-3  
 2.574000000000000E10   -2.492063795216382E-4   3.228964051231742E-3  
 2.576000000000000E10    3.390198107808828E-3  -2.921248087659478E-4  
 2.578000000000000E10   -1.044620876200497E-3  -2.824227791279554E-3  
 2.580000000000000E10   -2.613635035231710E-3   1.600130111910403E-3  
 2.582000000000000E10    1.835241680964828E-3   2.008834155276418E-3  
 2.584000000000000E10    1.759958569891751E-3  -2.859178697690368E-3  
 2.586000000000000E10   -3.274392336606979E-3  -1.846758997999132E-3  
 2.588000000000000E10   -1.403197296895087E-3   3.664182731881738E-3  
 2.590000000000000E10    3.697520354762673E-3   6.895842961966991E-4  
 2.592000000000000E10    1.042303163558245E-3  -4.363657440990210E-3  
 2.594000000000000E10   -4.739336203783751E-3  -7.967016426846385E-5  
 2.596000000000000E10   -2.501666494936217E-5   4.671180155128241E-3  
 2.598000000000000E10    4.522074945271015E-3  -4.074327298440039E-4  
 2.600000000000000E10   -1.039202674292028E-3  -4.923831205815077E-3  
 2.602000000000000E10   -4.613129887729883E-3   1.395886298269033E-3  
 2.604000000000000E10    1.678667264059186E-3   3.864054800942540E-3  
 2.606000000000000E10    3.365975804626942E-3  -2.002822235226631E-3  
 2.608000000000000E10   -2.019812120124698E-3  -3.362216288223863E-3  
 2.610000000000000E10   -2.732103690505028E-3   2.226646756753326E-3  
 2.612000000000000E10    2.434642519801855E-3   2.403563819825649E-3  
 2.614000000000000E10    1.567252213135362E-3  -2.721921540796757E-3  
 2.616000000000000E10   -3.116965526714921E-3  -1.372107770293951E-3  
 2.618000000000000E10   -5.885381251573563E-4   3.502961015328765E-3  
 2.620000000000000E10    3.500149585306644E-3  -3.858086711261421E-5  
 2.622000000000000E10   -5.330961357685737E-5  -3.642605850473046E-3  
 2.624000000000000E10   -3.649079473689199E-3   3.682884853333235E-4  
 2.626000000000000E10    1.109298318624497E-3   3.725896589457989E-3  
 2.628000000000000E10    3.603638848289847E-3  -1.628601341508329E-3  
 2.630000000000000E10   -1.845295191742480E-3  -3.348222468048334E-3  
 2.632000000000000E10   -2.977702068164945E-3   2.107690088450909E-3  
 2.634000000000000E10    2.290466567501426E-3   2.307950984686613E-3  
 2.636000000000000E10    2.118932548910379E-3  -2.131346147507429E-3  
 2.638000000000000E10   -2.314544981345534E-3  -2.061771694570780E-3  
 2.640000000000000E10   -1.104049384593964E-3   2.362019848078489E-3  
 2.642000000000000E10    2.060706494376063E-3   5.895190406590700E-4  
 2.644000000000000E10    2.461489639244974E-4  -2.096187323331833E-3  
 2.646000000000000E10   -2.343130530789495E-3   8.971513307187706E-5  
 2.648000000000000E10    7.431554258801043E-4   2.281063236296177E-3  
 2.650000000000000E10    2.282704459503293E-3  -1.198408543132246E-3  
 2.652000000000000E10   -1.600850606337190E-3  -2.212857827544212E-3  
 2.654000000000000E10   -2.073300303891301E-3   2.023821696639061E-3  
 2.656000000000000E10    2.527747303247452E-3   1.839861855842173E-3  
 2.658000000000000E10    1.162418629974127E-3  -2.579767256975174E-3  
 2.660000000000000E10   -3.181113163009286E-3  -1.667020376771689E-3  
 2.662000000000000E10   -1.529377070255578E-3   2.727452199906111E-3  
 2.664000000000000E10    2.722741104662418E-3   1.381636131554842E-3  
 2.666000000000000E10    1.178515260107815E-3  -2.840619068592787E-3  
 2.668000000000000E10   -2.672584727406502E-3  -1.268381834961474E-3  
 2.670000000000000E10   -1.024538301862776E-3   2.258436055853963E-3  
 2.672000000000000E10    2.294379286468029E-3   6.204477394931018E-4  
 2.674000000000000E10    5.629938095808029E-4  -1.586041064001620E-3  
 2.676000000000000E10   -1.995455240830779E-3  -2.353051240788773E-4  
 2.678000000000000E10    1.047345285769552E-4   9.867692133411765E-4  
 2.680000000000000E10    8.113753283396363E-4  -5.028700688853860E-4  
 2.682000000000000E10   -6.821556016802788E-4  -8.706428925506771E-4  
 2.684000000000000E10   -5.387665005400777E-4   9.453548118472099E-4  
 2.686000000000000E10    1.266196719370782E-3   5.920792464166880E-4  
 2.688000000000000E10    2.490583574399352E-4  -1.934933708980680E-3  
 2.690000000000000E10   -2.074072370305657E-3  -2.348326379433274E-4  
 2.692000000000000E10   -2.575061516836286E-4   2.509042853489518E-3  
 2.694000000000000E10    2.513411687687039E-3  -4.137154901400209E-4  
 2.696000000000000E10   -8.136579999700189E-4  -2.603587927296758E-3  
 2.698000000000000E10   -2.541324589401484E-3   2.052298223134130E-4  
 2.700000000000000E10    1.382711052428931E-4   2.351005095988512E-3  
 2.702000000000000E10    2.053912263363600E-3  -5.660702590830624E-4  
 2.704000000000000E10   -6.920592277310789E-4  -1.917270710691810E-3  
 2.706000000000000E10   -2.028297865763307E-3   2.214983978774399E-4  
 2.708000000000000E10    3.414483217056841E-4   1.295248628593981E-3  
 2.710000000000000E10    6.712241447530687E-4  -4.492239677347243E-4  
 2.712000000000000E10   -4.704802413471043E-4  -9.100781753659248E-4  
 2.714000000000000E10   -5.897246883250773E-4   3.568689280655235E-4  
 2.716000000000000E10    3.545439976733178E-4   1.092952297767624E-4  
 2.718000000000000E10   -6.038739229552448E-4  -7.604952406836674E-5  
 2.720000000000000E10   -3.238539211452007E-4   5.715833394788206E-4  
 2.722000000000000E10    1.309345389017835E-4   6.595004815608263E-4  
 2.724000000000000E10    4.626622248906642E-4  -8.664814522489905E-4  
 2.726000000000000E10   -8.345218957401812E-4  -8.063019486144185E-4  
 2.728000000000000E10   -1.205298001877964E-3   8.241068571805954E-4  
 2.730000000000000E10    9.028788772411645E-4   1.248429180122912E-3  
 2.732000000000000E10    1.377315493300557E-3  -8.644847548566759E-4  
 2.734000000000000E10   -8.522679563611746E-4  -1.574766007252038E-3  
 2.736000000000000E10   -1.505266991443932E-3   3.065719211008400E-4  
 2.738000000000000E10    3.966755466535687E-4   1.642428222112358E-3  
 2.740000000000000E10    1.345119322650135E-3  -6.350384210236371E-4  
 2.742000000000000E10   -1.919692294904962E-4  -1.396615174598992E-3  
 2.744000000000000E10   -1.215046970173717E-3   3.268095606472343E-4  
 2.746000000000000E10    1.257335679838434E-4   9.012160007841885E-4  
 2.748000000000000E10    8.128193439915776E-4  -1.691719662630931E-4  
 2.750000000000000E10   -4.267189069651067E-5  -4.254742525517941E-4  
 2.752000000000000E10   -3.569452092051506E-4   1.762912579579279E-4  
 2.754000000000000E10    9.187515388475731E-5  -3.619882045313716E-4  
 2.756000000000000E10   -7.905238890089095E-4   1.375641149934381E-4  
