#  HZ   S   RI   R     50.00 
! Rohde & Schwarz ZVA40 4Ports - Version 3.90 - 1145.1110k42 SN: 100403
! Date: 2023-10-04 10:45:31
! Measurement: S12 
! 
 2.200000000000000E10   -3.332011168822646E-3  -9.062880417332053E-5  
 2.202000000000000E10    1.221630082000047E-4   3.476403420791030E-3  
 2.204000000000000E10    4.067575093358755E-3  -1.132742734625936E-3  
 2.206000000000000E10   -1.222431310452521E-3  -3.899115603417158E-3  
 2.208000000000000E10   -3.721779678016901E-3   1.664886367507279E-3  
 2.210000000000000E10    2.396150026470423E-3   3.362270537763834E-3  
 2.212000000000000E10    2.781335730105639E-3  -2.993621863424778E-3  
 2.214000000000000E10   -3.328118938952684E-3  -2.116846619173884E-3  
 2.216000000000000E10   -2.042824402451515E-3   3.897730493918061E-3  
 2.218000000000000E10    4.030695185065270E-3   9.445343748666346E-4  
 2.220000000000000E10   -1.972719328477979E-4  -4.460617434233427E-3  
 2.222000000000000E10   -4.013876896351576E-3   6.368256290443242E-4  
 2.224000000000000E10    1.610053819604218E-3   4.088957328349352E-3  
 2.226000000000000E10    3.432481316849589E-3  -2.744221827015281E-3  
 2.228000000000000E10   -3.366567194461823E-3  -3.244393039494753E-3  
 2.230000000000000E10   -2.138751558959484E-3   3.889817744493485E-3  
 2.232000000000000E10    3.548658685758710E-3   1.687046256847680E-3  
 2.234000000000000E10    1.387213473208249E-3  -3.568704472854734E-3  
 2.236000000000000E10   -3.743972163647413E-3  -6.261240923777223E-4  
 2.238000000000000E10   -7.166142313508317E-5   3.620143514126539E-3  
 2.240000000000000E10    3.113914513960481E-3   2.791865699691698E-5  
 2.242000000000000E10   -7.143688853830099E-4  -3.060346469283104E-3  
 2.244000000000000E10   -2.462321426719427E-3   1.118525746278465E-3  
 2.246000000000000E10    1.482448540627956E-3   1.925361924804747E-3  
 2.248000000000000E10    1.113932463340461E-3  -1.479355734772980E-3  
 2.250000000000000E10   -1.426649512723088E-3  -9.451120276935399E-4  
 2.252000000000000E10   -5.818730569444597E-4   1.584387151524425E-3  
 2.254000000000000E10    1.305375015363097E-3   3.593424626160413E-4  
 2.256000000000000E10   -2.223149203928188E-4  -8.840663358569145E-4  
 2.258000000000000E10   -8.529346669092774E-4  -2.934613985416945E-5  
 2.260000000000000E10    1.202883577207103E-4   9.987537050619721E-4  
 2.262000000000000E10    3.207332920283079E-4  -3.283474652562290E-4  
 2.264000000000000E10    2.613140386529267E-4   3.902086464222521E-4  
 2.266000000000000E10   -9.988524107029662E-5  -3.883620083797723E-4  
 2.268000000000000E10   -5.140439025126398E-4   3.819777703029104E-5  
 2.270000000000000E10   -1.062035807990469E-4   4.830892139580101E-4  
 2.272000000000000E10    9.238151833415031E-4   3.074342093896121E-4  
 2.274000000000000E10    7.154831837397069E-5  -9.415076929144561E-4  
 2.276000000000000E10   -9.619435295462608E-4   3.497502184472978E-4  
 2.278000000000000E10    6.134592695161700E-5   1.279409276321530E-3  
 2.280000000000000E10    1.169896335341036E-3   1.189472532132641E-4  
 2.282000000000000E10    6.413928349502385E-4  -1.121715293265879E-3  
 2.284000000000000E10   -1.243536826223135E-3   3.847730113193393E-4  
 2.286000000000000E10    2.209323574788868E-4   1.242046011611819E-3  
 2.288000000000000E10    1.866277889348567E-3  -3.964336938224733E-4  
 2.290000000000000E10   -7.156999199651182E-4  -1.295899972319603E-3  
 2.292000000000000E10   -1.263113808818162E-3   1.311529078520834E-3  
 2.294000000000000E10    1.336343935690820E-3   1.520176883786917E-3  
 2.296000000000000E10    8.630077936686575E-4  -1.796298543922603E-3  
 2.298000000000000E10   -2.374373143538833E-3  -7.076435722410679E-4  
 2.300000000000000E10   -5.211564130149782E-4   2.551730256527662E-3  
 2.302000000000000E10    2.452490618452430E-3   5.130296922288835E-4  
 2.304000000000000E10    1.465131499571726E-4  -3.071057610213757E-3  
 2.306000000000000E10   -2.954060211777687E-3   6.522192270494998E-4  
 2.308000000000000E10    5.625362391583622E-4   3.144067944958806E-3  
 2.310000000000000E10    3.546842839568853E-3  -6.991143454797566E-4  
 2.312000000000000E10   -1.709179254248738E-3  -3.171215998008847E-3  
 2.314000000000000E10   -3.345649922266603E-3   1.871934044174850E-3  
 2.316000000000000E10    1.607534009963274E-3   3.250221721827984E-3  
 2.318000000000000E10    3.098039189353585E-3  -2.239681547507644E-3  
 2.320000000000000E10   -2.965786261484027E-3  -2.799431094899774E-3  
 2.322000000000000E10   -1.788103836588562E-3   3.216336481273174E-3  
 2.324000000000000E10    3.333757631480694E-3   1.651319093070924E-3  
 2.326000000000000E10    1.136807026341558E-3  -3.304326441138983E-3  
 2.328000000000000E10   -3.604274708777666E-3   6.878593121655285E-4  
 2.330000000000000E10    7.651564083062112E-4   3.322443924844265E-3  
 2.332000000000000E10    2.874935977160931E-3  -1.181602710857987E-3  
 2.334000000000000E10   -1.798946876078844E-3  -3.227935638278723E-3  
 2.336000000000000E10   -2.862401772290468E-3   2.354335738345981E-3  
 2.338000000000000E10    2.487419405952096E-3   2.762534422799945E-3  
 2.340000000000000E10    2.923723775893450E-3  -2.894897479563952E-3  
 2.342000000000000E10   -3.712375881150365E-3  -2.641611266881228E-3  
 2.344000000000000E10   -1.771443174220622E-3   4.609923809766769E-3  
 2.346000000000000E10    3.720392473042011E-3   1.645268173888326E-3  
 2.348000000000000E10    1.517544733360410E-3  -4.297456704080105E-3  
 2.350000000000000E10   -4.453881643712521E-3  -7.906639948487282E-4  
 2.352000000000000E10   -2.154892281396315E-4   4.044539760798216E-3  
 2.354000000000000E10    4.213114734739065E-3  -3.924849806935526E-5  
 2.356000000000000E10    8.512673957739025E-5  -3.894007997587323E-3  
 2.358000000000000E10   -4.155481234192848E-3   6.874689715914428E-4  
 2.360000000000000E10    1.154220313765109E-3   3.988577984273434E-3  
 2.362000000000000E10    3.122326219454408E-3  -1.461957697756589E-3  
 2.364000000000000E10   -2.132858382537961E-3  -2.890566131100059E-3  
 2.366000000000000E10   -2.536492887884378E-3   2.717622322961688E-3  
 2.368000000000000E10    2.632907591760159E-3   1.986556919291616E-3  
 2.370000000000000E10    1.989205833524466E-3  -3.444351954385638E-3  
 2.372000000000000E10   -4.135154653340578E-3  -1.732627861201763E-3  
 2.374000000000000E10   -7.184675778262317E-4   4.479795228689909E-3  
 2.376000000000000E10    5.084539297968149E-3   5.660616807290353E-5  
 2.378000000000000E10   -2.082819555653259E-4  -5.098133347928524E-3  
 2.380000000000000E10   -5.130901467055082E-3   1.166267669759691E-3  
 2.382000000000000E10    1.823096303269267E-3   4.905083216726780E-3  
 2.384000000000000E10    4.281369037926197E-3  -2.135167131200433E-3  
 2.386000000000000E10   -1.980844885110855E-3  -4.416193813085556E-3  
 2.388000000000000E10   -4.465751815587282E-3   2.769171027466655E-3  
 2.390000000000000E10    3.497526282444596E-3   3.681437810882926E-3  
 2.392000000000000E10    2.927390625700355E-3  -3.179696854203939E-3  
 2.394000000000000E10   -3.231726819649339E-3  -2.744221128523350E-3  
 2.396000000000000E10   -2.441755495965481E-3   3.627729602158070E-3  
 2.398000000000000E10    4.253735300153494E-3   1.897635753266513E-3  
 2.400000000000000E10    1.055858097970486E-3  -3.877692623063922E-3  
 2.402000000000000E10   -3.876010654494166E-3   4.859316504735034E-6  
 2.404000000000000E10    3.137493913527578E-4   4.237087443470955E-3  
 2.406000000000000E10    4.013057798147202E-3  -1.647267141379416E-3  
 2.408000000000000E10   -2.156586851924658E-3  -3.848637221381068E-3  
 2.410000000000000E10   -3.399801440536976E-3   2.407707506790757E-3  
 2.412000000000000E10    2.812957856804133E-3   3.376971231773496E-3  
 2.414000000000000E10    3.560749115422368E-3  -3.569720312952995E-3  
 2.416000000000000E10   -3.277156269177795E-3  -3.034378634765744E-3  
 2.418000000000000E10   -3.047934034839273E-3   3.849587868899107E-3  
 2.420000000000000E10    4.102398641407490E-3   2.980750286951661E-3  
 2.422000000000000E10    2.418291755020618E-3  -3.921315073966980E-3  
 2.424000000000000E10   -4.492412786930800E-3  -2.582735382020474E-3  
 2.426000000000000E10   -2.143030986189842E-3   4.481620620936155E-3  
 2.428000000000000E10    4.606211092323065E-3   1.064576441422105E-3  
 2.430000000000000E10    8.529435726813972E-4  -5.142977461218834E-3  
 2.432000000000000E10   -4.379219841212034E-3  -1.977035281015560E-4  
 2.434000000000000E10    7.328185602091253E-4   4.135988187044859E-3  
 2.436000000000000E10    4.021051339805126E-3  -1.630136976018548E-3  
 2.438000000000000E10   -1.773338066413999E-3  -3.476934740319848E-3  
 2.440000000000000E10   -2.815619809553027E-3   2.156624570488930E-3  
 2.442000000000000E10    2.570008626207709E-3   2.898990875110030E-3  
 2.444000000000000E10    2.589232521131635E-3  -3.673622850328684E-3  
 2.446000000000000E10   -3.887368598952889E-3  -2.426138846203685E-3  
 2.448000000000000E10   -1.981662586331368E-3   3.810281865298748E-3  
 2.450000000000000E10    4.845901392400265E-3   1.461138948798180E-3  
 2.452000000000000E10    1.320047420449555E-3  -5.282774101942778E-3  
 2.454000000000000E10   -5.073800217360258E-3  -1.179547398351133E-3  
 2.456000000000000E10   -8.584961760789156E-4   5.238139536231756E-3  
 2.458000000000000E10    5.613597109913826E-3   5.625440971925855E-4  
 2.460000000000000E10    1.239912235178053E-4  -5.829187575727701E-3  
 2.462000000000000E10   -5.251304246485233E-3   4.719046992249787E-4  
 2.464000000000000E10    9.047294734045863E-4   4.993451759219170E-3  
 2.466000000000000E10    4.807601217180491E-3  -1.245487248525024E-3  
 2.468000000000000E10   -1.568640116602182E-3  -4.596739076077938E-3  
 2.470000000000000E10   -4.125998821109533E-3   2.287003910169005E-3  
 2.472000000000000E10    3.158924169838429E-3   3.268128959462047E-3  
 2.474000000000000E10    2.999593270942569E-3  -3.226017346605659E-3  
 2.476000000000000E10   -3.996328916400671E-3  -2.447329694405198E-3  
 2.478000000000000E10   -1.317013753578067E-3   3.982014954090118E-3  
 2.480000000000000E10    4.694459959864616E-3   8.425390115007758E-4  
 2.482000000000000E10    2.024421992246062E-4  -4.994353745132685E-3  
 2.484000000000000E10   -4.828742239624262E-3   2.108070184476674E-4  
 2.486000000000000E10    1.172411604784429E-3   5.160551518201828E-3  
 2.488000000000000E10    5.320660769939423E-3  -2.175107132643461E-3  
 2.490000000000000E10   -2.263888949528337E-3  -5.213768221437931E-3  
 2.492000000000000E10   -4.624877125024796E-3   2.509975340217352E-3  
 2.494000000000000E10    2.921283477917314E-3   4.387941211462021E-3  
 2.496000000000000E10    4.231278784573078E-3  -3.943372983485460E-3  
 2.498000000000000E10   -3.900357754901052E-3  -3.718807827681303E-3  
 2.500000000000000E10   -2.991094719618559E-3   3.162451554089785E-3  
 2.502000000000000E10    4.223912954330444E-3   2.664173254743218E-3  
 2.504000000000000E10    1.823062426410615E-3  -4.280562512576580E-3  
 2.506000000000000E10   -3.782481420785189E-3  -1.526149339042604E-3  
 2.508000000000000E10   -1.203264691866934E-3   3.781603416427970E-3  
 2.510000000000000E10    4.528338555246592E-3   6.841043941676617E-4  
 2.512000000000000E10   -5.518071702681482E-4  -4.784775897860527E-3  
 2.514000000000000E10   -4.210127051919699E-3   1.310131279751658E-3  
 2.516000000000000E10    1.601874246262014E-3   4.061768297106028E-3  
 2.518000000000000E10    4.032162018120289E-3  -2.899600192904472E-3  
 2.520000000000000E10   -3.246808890253305E-3  -3.666119882836938E-3  
 2.522000000000000E10   -3.414880484342575E-3   3.411689773201942E-3  
 2.524000000000000E10    4.135847557336092E-3   3.264088416472077E-3  
 2.526000000000000E10    3.108531935140491E-3  -4.872255492955446E-3  
 2.528000000000000E10   -4.622226580977440E-3  -2.494838088750839E-3  
 2.530000000000000E10   -1.846707076765597E-3   4.499833099544048E-3  
 2.532000000000000E10    5.140497349202633E-3   1.417611725628376E-3  
 2.534000000000000E10    6.810144986957312E-4  -4.844725597649813E-3  
 2.536000000000000E10   -4.420637153089047E-3  -6.597774918191135E-4  
 2.538000000000000E10    2.806896809488535E-4   4.019449930638075E-3  
 2.540000000000000E10    4.121362231671810E-3  -8.221970638260245E-4  
 2.542000000000000E10   -1.528803142718971E-3  -3.740387503057718E-3  
 2.544000000000000E10   -3.174964105710387E-3   1.677858759649098E-3  
 2.546000000000000E10    2.442252356559038E-3   2.534797415137291E-3  
 2.548000000000000E10    1.963557442650199E-3  -3.123022383078933E-3  
 2.550000000000000E10   -3.387408563867211E-3  -1.568794948980212E-3  
 2.552000000000000E10   -6.642543012276292E-4   3.438582643866539E-3  
 2.554000000000000E10    3.917424473911524E-3   3.455978585407138E-4  
 2.556000000000000E10   -1.227950360771501E-5  -4.057057201862335E-3  
 2.558000000000000E10   -4.454385023564100E-3   4.434238653630018E-4  
 2.560000000000000E10    7.126525160856545E-4   4.291902296245098E-3  
 2.562000000000000E10    4.525758791714907E-3  -1.373763894662261E-3  
 2.564000000000000E10   -1.478315331041813E-3  -4.537863191217184E-3  
 2.566000000000000E10   -4.679376259446144E-3   1.846014754846692E-3  
 2.568000000000000E10    2.346415538340807E-3   4.258593078702688E-3  
 2.570000000000000E10    3.696618834510446E-3  -2.996931783854961E-3  
 2.572000000000000E10   -3.077577799558640E-3  -3.362254705280066E-3  
 2.574000000000000E10   -3.013836452737451E-3   3.116348292678595E-3  
 2.576000000000000E10    3.483909182250500E-3   2.197770634666085E-3  
 2.578000000000000E10    1.385672483593226E-3  -3.674894338473678E-3  
 2.580000000000000E10   -3.531190799549222E-3  -6.207615369930863E-4  
 2.582000000000000E10   -1.938612840604037E-4   3.084869822487235E-3  
 2.584000000000000E10    3.393656574189663E-3  -5.520488484762609E-4  
 2.586000000000000E10   -1.201777253299952E-3  -2.799623180180788E-3  
 2.588000000000000E10   -3.001048229634762E-3   1.410629367455840E-3  
 2.590000000000000E10    1.904461882077158E-3   2.868707524612546E-3  
 2.592000000000000E10    2.816080814227462E-3  -2.551883691921830E-3  
 2.594000000000000E10   -3.257854375988245E-3  -2.451112261041999E-3  
 2.596000000000000E10   -2.286701463162899E-3   3.331460291519761E-3  
 2.598000000000000E10    3.257933538407087E-3   2.064481843262911E-3  
 2.600000000000000E10    1.606045057997108E-3  -3.617863170802593E-3  
 2.602000000000000E10   -3.875725902616978E-3  -1.335327746346593E-3  
 2.604000000000000E10   -1.125730574131012E-3   3.593055065721273E-3  
 2.606000000000000E10    3.563181031495333E-3   5.401293165050447E-4  
 2.608000000000000E10   -7.498745981138200E-5  -3.293822985142469E-3  
 2.610000000000000E10   -2.513953018933535E-3   1.856636808952317E-4  
 2.612000000000000E10   -1.116260023081850E-6   2.456786809489131E-3  
 2.614000000000000E10    2.110298722982407E-3  -8.313847356475890E-4  
 2.616000000000000E10   -1.282628043554723E-3  -1.705900416709483E-3  
 2.618000000000000E10   -2.172668930143118E-3   1.424594549462199E-3  
 2.620000000000000E10    1.920702867209911E-3   1.295070047490299E-3  
 2.622000000000000E10    8.114866795949638E-4  -2.088734880089760E-3  
 2.624000000000000E10   -2.458504866808653E-3  -1.014350214973092E-3  
 2.626000000000000E10   -9.567798697389662E-4   2.901112195104361E-3  
 2.628000000000000E10    3.236288204789162E-3   7.934871828183532E-4  
 2.630000000000000E10   -5.780205810879124E-6  -3.886267775669694E-3  
 2.632000000000000E10   -3.491516225039959E-3   8.054350473685190E-5  
 2.634000000000000E10    2.937130630016327E-4   3.662899602204561E-3  
 2.636000000000000E10    3.682604525238276E-3  -8.915186044760048E-4  
 2.638000000000000E10   -5.854539922438562E-4  -3.559172851964831E-3  
 2.640000000000000E10   -3.421427682042122E-3   5.692281993106008E-4  
 2.642000000000000E10    1.145933172665536E-3   2.970475470647216E-3  
 2.644000000000000E10    2.591844182461500E-3  -1.039448776282370E-3  
 2.646000000000000E10   -1.493468647822738E-3  -2.443314064294100E-3  
 2.648000000000000E10   -1.943918527103961E-3   1.479775179177523E-3  
 2.650000000000000E10    1.549514941871166E-3   1.312212087213993E-3  
 2.652000000000000E10    5.591750959865749E-4  -2.006220398470759E-3  
 2.654000000000000E10   -1.343620591796935E-3  -3.500540042296052E-4  
 2.656000000000000E10   -5.722832065657713E-5   1.794051146134734E-3  
 2.658000000000000E10    1.689214957877994E-3  -6.414846284314990E-4  
 2.660000000000000E10   -1.085622818209231E-3  -1.633364707231522E-3  
 2.662000000000000E10   -1.846632105298340E-3   1.298388582654297E-3  
 2.664000000000000E10    1.789583475328982E-3   1.620075432583690E-3  
 2.666000000000000E10    1.234065857715905E-3  -1.929900376126170E-3  
 2.668000000000000E10   -2.096456242725253E-3  -1.223275670781732E-3  
 2.670000000000000E10   -1.312993583269417E-3   1.714487443678081E-3  
 2.672000000000000E10    1.546377432532609E-3   1.266513369046152E-3  
 2.674000000000000E10    8.201447781175375E-4  -1.740179839543998E-3  
 2.676000000000000E10   -1.610839157365263E-3  -9.796175872907043E-4  
 2.678000000000000E10   -8.835526532493532E-4   1.625583739951253E-3  
 2.680000000000000E10    9.555296273902059E-4   2.694768190849572E-4  
 2.682000000000000E10    2.485688892193139E-4  -1.167793059721589E-3  
 2.684000000000000E10   -1.239309553056955E-3  -3.878161078318954E-4  
 2.686000000000000E10    1.583780067448970E-5   7.367858197540045E-4  
 2.688000000000000E10    7.801244501024485E-4  -4.222006245981902E-4  
 2.690000000000000E10   -7.707654149271548E-4  -6.077356520108879E-4  
 2.692000000000000E10   -3.941071627195925E-4   7.072088192217052E-4  
 2.694000000000000E10    9.107575169764459E-4   1.756813144311309E-4  
 2.696000000000000E10    1.738723076414317E-4  -1.308296341449022E-3  
 2.698000000000000E10   -1.455406541936100E-3  -4.643587453756481E-4  
 2.700000000000000E10   -2.787213015835732E-4   1.516793039627373E-3  
 2.702000000000000E10    1.301547978073359E-3   3.435788094066083E-4  
 2.704000000000000E10    1.231286150868982E-4  -1.608732156455517E-3  
 2.706000000000000E10   -1.418190775439143E-3  -2.394595794612542E-4  
 2.708000000000000E10   -3.837796393781900E-4   1.166136469691992E-3  
 2.710000000000000E10    7.206942536868155E-4   4.568788572214544E-4  
 2.712000000000000E10    4.595570499077439E-4  -8.582220762036741E-4  
 2.714000000000000E10   -9.803869761526585E-4  -7.797341095283628E-4  
 2.716000000000000E10   -6.532768020406365E-4   4.585346323437989E-4  
 2.718000000000000E10    4.411187546793371E-4   6.428873166441917E-4  
 2.720000000000000E10    1.387290103593841E-4  -3.478388534858823E-4  
 2.722000000000000E10    9.580299956724048E-5  -3.563854261301458E-4  
 2.724000000000000E10   -4.192832275293768E-4  -2.157880808226764E-4  
 2.726000000000000E10   -5.295702721923590E-4   2.017630904447287E-4  
 2.728000000000000E10   -1.493712334195152E-4   2.687342057470232E-4  
 2.730000000000000E10    4.773355249199085E-5   3.423230082262307E-4  
 2.732000000000000E10    5.560221616178751E-4  -5.559409619309008E-4  
 2.734000000000000E10   -6.443859892897308E-4  -8.597078267484903E-4  
 2.736000000000000E10   -9.827361209318042E-4   3.340142429806292E-4  
 2.738000000000000E10    5.486207664944232E-4   8.192074601538479E-4  
 2.740000000000000E10    1.065575634129345E-3  -1.510527072241530E-4  
 2.742000000000000E10   -4.943989333696663E-4  -1.322804717347026E-3  
 2.744000000000000E10   -1.127879484556615E-3   8.377272024517879E-5  
 2.746000000000000E10   -9.622896322980523E-5   1.183287356980145E-3  
 2.748000000000000E10    9.094239794649184E-4   3.868953717756085E-5  
 2.750000000000000E10    6.202054210007191E-4  -8.023278787732124E-4  
 2.752000000000000E10   -9.236247860826552E-4  -5.667176446877420E-4  
 2.754000000000000E10   -7.367213256657124E-4   4.784235497936606E-4  
 2.756000000000000E10    4.177515511400998E-4   8.368882117792964E-4  
