#  HZ   S   RI   R     50.00 
! Rohde & Schwarz ZVA40 4Ports - Version 3.90 - 1145.1110k42 SN: 100403
! Date: 2023-10-04 10:46:48
! Measurement: S12 
! 
 2.200000000000000E10   -4.074494820088148E-3  -9.146648517344147E-5  
 2.202000000000000E10    2.361461229156703E-4   3.959107678383589E-3  
 2.204000000000000E10    4.114258103072643E-3  -8.472932386212051E-4  
 2.206000000000000E10   -1.424343790858984E-3  -4.152315668761730E-3  
 2.208000000000000E10   -4.197731614112854E-3   1.980697968974710E-3  
 2.210000000000000E10    2.827549120411277E-3   3.508452558889985E-3  
 2.212000000000000E10    3.163843648508191E-3  -3.189187729731202E-3  
 2.214000000000000E10   -3.705535316839814E-3  -2.295422367751598E-3  
 2.216000000000000E10   -1.307248021475971E-3   4.425791092216969E-3  
 2.218000000000000E10    4.220728296786547E-3   1.342939649475738E-4  
 2.220000000000000E10   -2.334140153834596E-4  -3.766649169847369E-3  
 2.222000000000000E10   -4.281339235603809E-3   8.979183039627969E-4  
 2.224000000000000E10    2.229597186669707E-3   3.889778628945351E-3  
 2.226000000000000E10    3.555688541382551E-3  -2.308221301063895E-3  
 2.228000000000000E10   -2.739310963079333E-3  -3.054635366424918E-3  
 2.230000000000000E10   -2.510020043700934E-3   3.283412195742130E-3  
 2.232000000000000E10    3.204390406608582E-3   1.866654492914677E-3  
 2.234000000000000E10    1.026394078508019E-3  -2.795402891933918E-3  
 2.236000000000000E10   -2.339859493076801E-3  -9.294267510995269E-4  
 2.238000000000000E10   -8.164930040948093E-4   2.352990675717592E-3  
 2.240000000000000E10    1.984078204259276E-3   1.249218184966594E-4  
 2.242000000000000E10    3.850241773761809E-4  -1.524684019386768E-3  
 2.244000000000000E10   -1.763654756359756E-3   1.361381437163800E-4  
 2.246000000000000E10    3.697470237966627E-4   1.098458073101938E-3  
 2.248000000000000E10    7.509028073400259E-4  -4.382750776130706E-4  
 2.250000000000000E10   -3.930220846086741E-4  -6.205416866578162E-4  
 2.252000000000000E10   -3.439731663092971E-4   2.996586845256388E-4  
 2.254000000000000E10    7.000617333687842E-4   2.004057605518028E-4  
 2.256000000000000E10    2.925013832282275E-4  -4.620804684236646E-4  
 2.258000000000000E10   -1.568470615893602E-4  -3.326569276396185E-4  
 2.260000000000000E10    1.617658708710223E-4   1.570434396853671E-4  
 2.262000000000000E10    4.211923442198895E-5   2.709083200898022E-4  
 2.264000000000000E10    8.029463351704180E-4   2.567324554547668E-4  
 2.266000000000000E10   -4.451658605830744E-5  -7.972015882842243E-4  
 2.268000000000000E10   -8.431499591097236E-4   1.037671390804462E-4  
 2.270000000000000E10    2.374268224230036E-4   6.788538885302842E-4  
 2.272000000000000E10    8.762342622503638E-4  -1.121937020798214E-4  
 2.274000000000000E10    3.051336680073291E-4  -8.174766553565860E-4  
 2.276000000000000E10   -1.133546698838472E-3  -2.171233063563705E-4  
 2.278000000000000E10   -4.978359211236239E-4   1.788027584552765E-3  
 2.280000000000000E10    2.024380955845118E-3   3.546679217834026E-4  
 2.282000000000000E10    1.275853370316327E-3  -1.539138262160122E-3  
 2.284000000000000E10   -2.127589425072074E-3   4.672990471590310E-4  
 2.286000000000000E10    9.169038385152817E-4   2.380393678322434E-3  
 2.288000000000000E10    2.450096420943737E-3  -8.145506144501269E-4  
 2.290000000000000E10   -1.037538633681834E-3  -2.361103426665068E-3  
 2.292000000000000E10   -2.160061383619905E-3   1.848765299655497E-3  
 2.294000000000000E10    2.738933311775327E-3   2.043327316641808E-3  
 2.296000000000000E10    1.605102792382240E-3  -2.490014769136906E-3  
 2.298000000000000E10   -3.046934260055423E-3  -6.827226025052369E-4  
 2.300000000000000E10   -4.840521141886711E-4   3.105658339336515E-3  
 2.302000000000000E10    3.301766002550721E-3   1.587696533533745E-5  
 2.304000000000000E10   -1.810726244002581E-4  -3.634785767644644E-3  
 2.306000000000000E10   -3.742424538359046E-3   4.907497786916792E-4  
 2.308000000000000E10    1.067548990249634E-3   3.766796551644802E-3  
 2.310000000000000E10    3.710338147357106E-3  -1.345042372122407E-3  
 2.312000000000000E10   -1.757726189680398E-3  -3.112368052825332E-3  
 2.314000000000000E10   -3.384983632713556E-3   3.021200187504292E-3  
 2.316000000000000E10    2.736003138124943E-3   2.870498225092888E-3  
 2.318000000000000E10    2.386471489444375E-3  -3.148276126012206E-3  
 2.320000000000000E10   -3.359012305736542E-3  -2.046741079539061E-3  
 2.322000000000000E10   -1.318254508078098E-3   3.351812250912190E-3  
 2.324000000000000E10    3.828875953331590E-3   1.049796235747635E-3  
 2.326000000000000E10    5.416895146481693E-4  -3.663815325126052E-3  
 2.328000000000000E10   -3.501123981550336E-3   4.992645699530840E-4  
 2.330000000000000E10    1.056372071616352E-3   3.488150425255299E-3  
 2.332000000000000E10    3.727722680196166E-3  -8.521985146217048E-4  
 2.334000000000000E10   -1.952371676452458E-3  -3.739635925740004E-3  
 2.336000000000000E10   -3.534814575687051E-3   2.302076434716582E-3  
 2.338000000000000E10    3.130288561806083E-3   3.561331657692790E-3  
 2.340000000000000E10    3.748741466552019E-3  -3.603969933465123E-3  
 2.342000000000000E10   -4.358043428510428E-3  -3.253849456086755E-3  
 2.344000000000000E10   -2.348329173400998E-3   5.025328602641821E-3  
 2.346000000000000E10    5.365454591810703E-3   2.130631124600768E-3  
 2.348000000000000E10    1.239917241036892E-3  -4.946051165461540E-3  
 2.350000000000000E10   -5.254050716757774E-3  -7.806583889760077E-4  
 2.352000000000000E10   -3.492289979476482E-4   4.983564838767052E-3  
 2.354000000000000E10    5.273176822811365E-3  -4.487524565774947E-4  
 2.356000000000000E10   -9.583996143192053E-4  -4.881103988736868E-3  
 2.358000000000000E10   -4.321954678744078E-3   1.349568483419716E-3  
 2.360000000000000E10    2.185007790103555E-3   4.020471591502428E-3  
 2.362000000000000E10    3.484745975583792E-3  -2.497781766578555E-3  
 2.364000000000000E10   -2.981539815664291E-3  -2.332195406779647E-3  
 2.366000000000000E10   -1.800025464035571E-3   2.901221858337522E-3  
 2.368000000000000E10    3.005029633641243E-3   1.967443851754069E-3  
 2.370000000000000E10    1.595767098478973E-3  -4.019241314381361E-3  
 2.372000000000000E10   -4.295627586543560E-3  -1.112112426199019E-3  
 2.374000000000000E10   -2.724604564718902E-4   4.412331618368626E-3  
 2.376000000000000E10    4.891572985798121E-3  -1.666747266426683E-4  
 2.378000000000000E10   -7.549334550276399E-4  -4.984977655112743E-3  
 2.380000000000000E10   -4.930194467306137E-3   1.372808124870062E-3  
 2.382000000000000E10    1.941984868608415E-3   4.899885971099138E-3  
 2.384000000000000E10    4.587494302541018E-3  -1.891378546133637E-3  
 2.386000000000000E10   -2.666684798896313E-3  -4.519232548773289E-3  
 2.388000000000000E10   -4.568156786262989E-3   2.637628931552172E-3  
 2.390000000000000E10    3.213086863979697E-3   4.275442566722632E-3  
 2.392000000000000E10    3.742776112630963E-3  -3.518928540870547E-3  
 2.394000000000000E10   -4.012989345937967E-3  -3.034029388800263E-3  
 2.396000000000000E10   -2.610800089314580E-3   3.821540158241987E-3  
 2.398000000000000E10    4.513475578278303E-3   2.139403950423002E-3  
 2.400000000000000E10    1.224805600941181E-3  -4.637302830815315E-3  
 2.402000000000000E10   -4.144766367971897E-3   3.892271779477596E-4  
 2.404000000000000E10    5.413392209447920E-4   4.168229643255472E-3  
 2.406000000000000E10    4.349999129772186E-3  -1.323473872616887E-3  
 2.408000000000000E10   -2.600750187411904E-3  -4.083308856934309E-3  
 2.410000000000000E10   -3.682443406432867E-3   2.826703013852239E-3  
 2.412000000000000E10    3.308143932372332E-3   3.185902955010533E-3  
 2.414000000000000E10    3.046976868063211E-3  -4.036727361381054E-3  
 2.416000000000000E10   -4.299480468034744E-3  -2.797402674332261E-3  
 2.418000000000000E10   -2.070263260975480E-3   4.485600627958775E-3  
 2.420000000000000E10    4.540054127573967E-3   2.080401172861457E-3  
 2.422000000000000E10    1.677378546446562E-3  -4.632130265235901E-3  
 2.424000000000000E10   -4.672207403928042E-3  -1.641049748286605E-3  
 2.426000000000000E10   -1.423427485860884E-3   4.712090827524662E-3  
 2.428000000000000E10    4.760290496051312E-3   5.998233682475984E-4  
 2.430000000000000E10    2.186949859606102E-4  -4.858915228396654E-3  
 2.432000000000000E10   -4.394777119159699E-3  -1.181253992399434E-5  
 2.434000000000000E10    7.408665842376649E-4   3.901426680386066E-3  
 2.436000000000000E10    3.818955505266786E-3  -1.594546367414296E-3  
 2.438000000000000E10   -1.712800934910774E-3  -3.762213513255119E-3  
 2.440000000000000E10   -3.133235964924097E-3   1.954960171133280E-3  
 2.442000000000000E10    2.569909440353513E-3   2.938913879916072E-3  
 2.444000000000000E10    2.340856706723571E-3  -3.544284496456385E-3  
 2.446000000000000E10   -4.083950072526932E-3  -2.400002442300320E-3  
 2.448000000000000E10   -2.129903761669993E-3   3.608666360378265E-3  
 2.450000000000000E10    4.503038246184588E-3   1.455739373341203E-3  
 2.452000000000000E10    1.188101479783654E-3  -5.270816851407290E-3  
 2.454000000000000E10   -5.249641835689545E-3  -9.761168039403856E-4  
 2.456000000000000E10   -1.380099565722048E-4   5.258271936327219E-3  
 2.458000000000000E10    5.901167169213295E-3  -3.983125789090991E-4  
 2.460000000000000E10   -6.547507364302874E-4  -6.112791132181883E-3  
 2.462000000000000E10   -5.487473215907812E-3   1.217639190144837E-3  
 2.464000000000000E10    1.691283541731536E-3   4.914130549877882E-3  
 2.466000000000000E10    4.788182675838471E-3  -2.136034192517400E-3  
 2.468000000000000E10   -2.263005124405026E-3  -4.525816999375820E-3  
 2.470000000000000E10   -3.741521388292313E-3   3.143853042274714E-3  
 2.472000000000000E10    3.202931024134159E-3   2.618606202304363E-3  
 2.474000000000000E10    2.731424756348133E-3  -3.468918614089489E-3  
 2.476000000000000E10   -3.691935678943992E-3  -2.174940425902605E-3  
 2.478000000000000E10   -1.465482870116830E-3   3.856945317238569E-3  
 2.480000000000000E10    4.359314683824778E-3   5.541360005736351E-4  
 2.482000000000000E10    2.509004298190121E-5  -4.234603140503168E-3  
 2.484000000000000E10   -4.733688198029995E-3   6.411992944777012E-4  
 2.486000000000000E10    1.610287232324481E-3   4.279870539903641E-3  
 2.488000000000000E10    4.454950336366892E-3  -2.126041334122419E-3  
 2.490000000000000E10   -2.559702843427658E-3  -4.661513026803732E-3  
 2.492000000000000E10   -4.485866986215115E-3   2.896068384870887E-3  
 2.494000000000000E10    3.587248502299190E-3   3.840271849185228E-3  
 2.496000000000000E10    3.748882561922073E-3  -4.099328536540270E-3  
 2.498000000000000E10   -4.141460638493300E-3  -3.326686099171639E-3  
 2.500000000000000E10   -3.122487105429173E-3   4.258355125784874E-3  
 2.502000000000000E10    4.573679063469172E-3   2.534308470785618E-3  
 2.504000000000000E10    1.797397970221937E-3  -4.525175318121910E-3  
 2.506000000000000E10   -4.606727510690689E-3  -1.628364436328411E-3  
 2.508000000000000E10   -9.314907365478575E-4   4.265786614269018E-3  
 2.510000000000000E10    4.737645853310823E-3   3.315772628411651E-4  
 2.512000000000000E10   -6.345651927404106E-4  -4.982660524547100E-3  
 2.514000000000000E10   -4.326417576521635E-3   1.342350733466446E-3  
 2.516000000000000E10    2.401193836703897E-3   3.846949199214578E-3  
 2.518000000000000E10    3.404560731723905E-3  -3.094582352787256E-3  
 2.520000000000000E10   -3.166435519233346E-3  -3.428249619901180E-3  
 2.522000000000000E10   -2.838982967659831E-3   3.745531663298607E-3  
 2.524000000000000E10    4.320671781897545E-3   1.914754509925842E-3  
 2.526000000000000E10    1.634880434721708E-3  -4.766508005559444E-3  
 2.528000000000000E10   -4.760033916682005E-3  -1.563217025250197E-3  
 2.530000000000000E10   -7.787055219523609E-4   4.972741007804871E-3  
 2.532000000000000E10    5.028860177844763E-3   1.702320150798187E-4  
 2.534000000000000E10   -3.163813671562821E-4  -4.851219244301319E-3  
 2.536000000000000E10   -4.816334694623947E-3   2.640529128257185E-4  
 2.538000000000000E10    1.003279117867351E-3   4.399905446916819E-3  
 2.540000000000000E10    3.913680091500282E-3  -1.615324057638645E-3  
 2.542000000000000E10   -1.518517616204917E-3  -3.810443682596088E-3  
 2.544000000000000E10   -3.562792437151074E-3   2.278983127325773E-3  
 2.546000000000000E10    2.765364246442914E-3   2.587995724752545E-3  
 2.548000000000000E10    2.287972252815962E-3  -2.778030000627041E-3  
 2.550000000000000E10   -2.864528447389603E-3  -2.010114025324583E-3  
 2.552000000000000E10   -1.330918865278363E-3   3.492319257929921E-3  
 2.554000000000000E10    3.464254317805171E-3   5.025551072321832E-4  
 2.556000000000000E10   -2.418725925963372E-4  -4.067737143486738E-3  
 2.558000000000000E10   -4.365557804703713E-3   4.975288757123053E-4  
 2.560000000000000E10    1.055462402291596E-3   4.474631045013666E-3  
 2.562000000000000E10    4.014489706605673E-3  -2.116932068020105E-3  
 2.564000000000000E10   -1.954950159415603E-3  -4.273795988410711E-3  
 2.566000000000000E10   -4.357500933110714E-3   2.589785261079669E-3  
 2.568000000000000E10    3.267423249781132E-3   3.523911116644740E-3  
 2.570000000000000E10    3.123988397419453E-3  -3.472288139164448E-3  
 2.572000000000000E10   -3.670589998364449E-3  -2.765751909464598E-3  
 2.574000000000000E10   -2.352407434955239E-3   3.688093973323703E-3  
 2.576000000000000E10    3.900826908648014E-3   2.099270466715097E-3  
 2.578000000000000E10    1.405672053806484E-3  -3.470504423603416E-3  
 2.580000000000000E10   -3.618056653067470E-3  -6.972122937440872E-4  
 2.582000000000000E10   -1.002137651084922E-4   3.315373556688428E-3  
 2.584000000000000E10    2.637941390275955E-3  -7.239244878292084E-4  
 2.586000000000000E10   -1.128364820033312E-3  -2.863951027393341E-3  
 2.588000000000000E10   -2.636394463479519E-3   1.814802177250385E-3  
 2.590000000000000E10    2.098423196002841E-3   1.845313119702041E-3  
 2.592000000000000E10    1.851829583756626E-3  -2.318411832675338E-3  
 2.594000000000000E10   -3.124439856037498E-3  -1.572013832628727E-3  
 2.596000000000000E10   -9.700389346107841E-4   3.270228393375874E-3  
 2.598000000000000E10    3.295721719041467E-3   8.995371754281223E-4  
 2.600000000000000E10    8.484965655952692E-4  -3.606610931456089E-3  
 2.602000000000000E10   -4.314825870096684E-3  -2.705730439629406E-4  
 2.604000000000000E10   -3.010234468092676E-5   3.964998293668032E-3  
 2.606000000000000E10    3.741952590644360E-3  -2.004866692004725E-4  
 2.608000000000000E10   -7.396045839414001E-4  -3.548026550561190E-3  
 2.610000000000000E10   -3.118500579148531E-3   5.994900711812079E-4  
 2.612000000000000E10    7.682141149416566E-4   3.013458801433444E-3  
 2.614000000000000E10    2.350490074604750E-3  -8.036785293370485E-4  
 2.616000000000000E10   -1.345928874798119E-3  -2.522346097975969E-3  
 2.618000000000000E10   -2.333719749003649E-3   1.337585854344070E-3  
 2.620000000000000E10    1.706268289126456E-3   1.635228400118649E-3  
 2.622000000000000E10    1.264743856154382E-3  -1.853194436989725E-3  
 2.624000000000000E10   -2.043054206296802E-3  -7.168056908994913E-4  
 2.626000000000000E10   -5.610171938315034E-4   2.026369795203209E-3  
 2.628000000000000E10    2.796550747007132E-3   3.895261033903807E-4  
 2.630000000000000E10   -3.087184450123459E-4  -2.524751005694270E-3  
 2.632000000000000E10   -2.748555038124323E-3   2.799404901452363E-4  
 2.634000000000000E10    4.811825929209590E-4   3.154686884954572E-3  
 2.636000000000000E10    2.436967100948095E-3  -1.001623342745006E-3  
 2.638000000000000E10   -1.177667523734272E-3  -2.534029074013233E-3  
 2.640000000000000E10   -2.590505406260490E-3   1.223317696712911E-3  
 2.642000000000000E10    1.075036125257611E-3   2.250812482088804E-3  
 2.644000000000000E10    2.081083366647363E-3  -1.337142428383231E-3  
 2.646000000000000E10   -1.306943362578750E-3  -2.004564506933093E-3  
 2.648000000000000E10   -1.827266416512430E-3   1.365933334454894E-3  
 2.650000000000000E10    1.423655659891665E-3   1.372030703350902E-3  
 2.652000000000000E10    5.765271489508450E-4  -1.152240205556154E-3  
 2.654000000000000E10   -1.127470051869750E-3  -7.398041198030114E-4  
 2.656000000000000E10   -4.409366520121694E-4   1.214713323861361E-3  
 2.658000000000000E10    8.994253585115075E-4  -3.249018336646259E-4  
 2.660000000000000E10   -1.168755581602454E-3  -1.188501133583486E-3  
 2.662000000000000E10   -1.041452516801655E-3   8.540754788555205E-4  
 2.664000000000000E10    1.455724239349365E-3   9.278478100895882E-4  
 2.666000000000000E10    5.741917993873358E-4  -1.768415560945869E-3  
 2.668000000000000E10   -1.784986117854714E-3  -1.082292583305389E-4  
 2.670000000000000E10   -6.800702540203929E-4   1.672966871410608E-3  
 2.672000000000000E10    1.992139965295792E-3   6.901808083057404E-4  
 2.674000000000000E10    3.127008094452322E-4  -2.052887342870235E-3  
 2.676000000000000E10   -2.060972852632403E-3  -6.144938524812460E-4  
 2.678000000000000E10   -6.819022237323225E-4   1.928890938870609E-3  
 2.680000000000000E10    1.586035941727459E-3   9.032228990690783E-5  
 2.682000000000000E10    3.398080298211426E-4  -1.598051167093217E-3  
 2.684000000000000E10   -1.143836998380721E-3  -2.653234114404768E-4  
 2.686000000000000E10   -2.026984875556082E-4   1.113101607188582E-3  
 2.688000000000000E10    7.868715329095721E-4   9.799263352761045E-5  
 2.690000000000000E10   -4.151149551034905E-5  -3.737202205229551E-4  
 2.692000000000000E10   -5.544289597310126E-4  -2.583482710178942E-4  
 2.694000000000000E10   -2.734524023253471E-4   2.097867691190913E-4  
 2.696000000000000E10   -2.076876553473994E-4  -3.035276604350656E-4  
 2.698000000000000E10   -1.048349440679885E-4   1.774550619302318E-4  
 2.700000000000000E10    2.687980013433844E-4  -2.060191582131665E-5  
 2.702000000000000E10    5.216508870944381E-4  -1.924308016896248E-4  
 2.704000000000000E10   -2.652306284289807E-4  -6.288319127634168E-4  
 2.706000000000000E10   -7.277237600646913E-4   2.038102975348011E-4  
 2.708000000000000E10    9.855340613285080E-5   9.593847207725048E-4  
 2.710000000000000E10    4.830794059671462E-4  -6.651839794358239E-5  
 2.712000000000000E10   -3.500094462651759E-4  -7.475962629541755E-4  
 2.714000000000000E10   -9.481447632424533E-4  -5.006670471630059E-5  
 2.716000000000000E10   -3.592960420064628E-4   7.551413727924228E-4  
 2.718000000000000E10    9.484580368734896E-4   9.541255712974817E-5  
 2.720000000000000E10    3.115106665063649E-4  -1.000008196569979E-3  
 2.722000000000000E10   -1.325492397882044E-3  -5.529541522264481E-4  
 2.724000000000000E10   -3.462919557932764E-4   9.722054237499833E-4  
 2.726000000000000E10    5.302674835547805E-4   2.021980180870742E-4  
 2.728000000000000E10    2.903338463511318E-4  -8.719085599295795E-4  
 2.730000000000000E10   -3.698502841871232E-4  -1.368845114484429E-4  
 2.732000000000000E10   -1.482650259276852E-4   9.318794036516920E-5  
 2.734000000000000E10    1.529614382889122E-4  -3.594835870899260E-4  
 2.736000000000000E10   -2.760707284323871E-4   4.885122179985046E-4  
 2.738000000000000E10    4.850700788665563E-4  -8.919543688534759E-6  
 2.740000000000000E10    7.140275556594133E-5  -5.983858718536794E-4  
 2.742000000000000E10   -7.067673141136766E-4  -3.728892770595849E-4  
 2.744000000000000E10   -2.620528684929013E-4   5.577504052780569E-4  
 2.746000000000000E10    5.293141584843397E-4   2.262885827803984E-4  
 2.748000000000000E10    4.088882415089756E-4  -4.812044790014625E-4  
 2.750000000000000E10   -4.296826082281768E-4  -1.126353512518108E-3  
 2.752000000000000E10   -7.426105439662933E-4   4.374434356577694E-4  
 2.754000000000000E10   -3.202835796400905E-5   7.706761243753135E-4  
 2.756000000000000E10    9.110728278756142E-4  -7.064963574521244E-5  
