#  HZ   S   RI   R     50.00 
! Rohde & Schwarz ZVA40 4Ports - Version 3.90 - 1145.1110k42 SN: 100403
! Date: 2023-10-04 10:47:18
! Measurement: S12 
! 
 2.200000000000000E10   -3.761425847187638E-3  -2.053291071206331E-3  
 2.202000000000000E10   -1.769038615748286E-3   4.303892143070698E-3  
 2.204000000000000E10    4.528869874775410E-3   9.522822219878435E-4  
 2.206000000000000E10    1.176354126073420E-4  -4.502222873270512E-3  
 2.208000000000000E10   -4.382169805467129E-3   3.645186661742628E-4  
 2.210000000000000E10    1.351822516880930E-3   4.865171853452921E-3  
 2.212000000000000E10    3.939856309443712E-3  -2.193737309426069E-3  
 2.214000000000000E10   -2.899068174883723E-3  -3.606192767620087E-3  
 2.216000000000000E10   -3.188958624377847E-3   3.612230531871319E-3  
 2.218000000000000E10    3.887792350724340E-3   2.109836088493466E-3  
 2.220000000000000E10    1.158435945399106E-3  -4.395158495754004E-3  
 2.222000000000000E10   -4.144798032939434E-3  -6.852495134808123E-4  
 2.224000000000000E10   -4.861782144871540E-5   3.833835944533348E-3  
 2.226000000000000E10    4.024583380669355E-3  -1.241238904185593E-3  
 2.228000000000000E10   -1.073544844985008E-3  -3.425773233175278E-3  
 2.230000000000000E10   -3.203557571396232E-3   1.383110182359815E-3  
 2.232000000000000E10    1.874987501651049E-3   2.715263282880187E-3  
 2.234000000000000E10    1.933561987243593E-3  -1.776722026988864E-3  
 2.236000000000000E10   -1.715574995614588E-3  -1.731904456391931E-3  
 2.238000000000000E10   -1.304621226154268E-3   1.459623454138637E-3  
 2.240000000000000E10    1.434851321391761E-3   1.024803030304611E-3  
 2.242000000000000E10    9.683425305411220E-4  -1.620028866454959E-3  
 2.244000000000000E10   -1.345046563073993E-3  -3.228620043955743E-4  
 2.246000000000000E10   -1.788726367522031E-4   1.448265393264592E-3  
 2.248000000000000E10    1.057295128703117E-3  -6.798231333959848E-5  
 2.250000000000000E10   -1.676656393101439E-4  -4.008240357507020E-4  
 2.252000000000000E10   -7.202380802482367E-4   2.789883001241833E-4  
 2.254000000000000E10    1.724946050671861E-4   2.794281463138759E-4  
 2.256000000000000E10   -1.250757486559451E-4  -3.150386037304997E-4  
 2.258000000000000E10    4.325023910496384E-4  -4.510104481596500E-4  
 2.260000000000000E10   -5.062021082267165E-4  -1.861722703324631E-4  
 2.262000000000000E10   -4.439061740413308E-4   5.275130970403552E-4  
 2.264000000000000E10    6.493512773886323E-4   1.377726206555963E-3  
 2.266000000000000E10    8.728294633328915E-4  -9.418305708095431E-4  
 2.268000000000000E10   -1.313106738962233E-3  -1.151732751168311E-3  
 2.270000000000000E10   -9.939483134075999E-4   1.495469943620265E-3  
 2.272000000000000E10    1.858883770182729E-3   1.223939820192754E-3  
 2.274000000000000E10    1.095404382795095E-3  -1.879533752799034E-3  
 2.276000000000000E10   -2.193235792219639E-3  -1.127215917222202E-3  
 2.278000000000000E10   -7.861767662689090E-4   2.817651722580195E-3  
 2.280000000000000E10    3.115840489044786E-3   5.300657940097153E-4  
 2.282000000000000E10    1.960728550329804E-3  -2.107682172209024E-3  
 2.284000000000000E10   -3.199876053258777E-3   5.209118826314807E-4  
 2.286000000000000E10    4.889120464213193E-4   3.054874716326594E-3  
 2.288000000000000E10    3.175124293193221E-3  -1.005126861855388E-3  
 2.290000000000000E10   -1.423230743966997E-3  -3.162486013025045E-3  
 2.292000000000000E10   -2.691945061087608E-3   2.143734833225608E-3  
 2.294000000000000E10    2.947169123217464E-3   2.460673917084932E-3  
 2.296000000000000E10    2.293285680934787E-3  -3.010754706338048E-3  
 2.298000000000000E10   -3.425320144742727E-3  -1.155218342319131E-3  
 2.300000000000000E10   -8.404773543588817E-4   3.535678144544363E-3  
 2.302000000000000E10    3.539346856996417E-3   6.470659282058477E-4  
 2.304000000000000E10    1.183806452900171E-4  -3.272302448749542E-3  
 2.306000000000000E10   -3.611128544434905E-3   3.248384382459335E-5  
 2.308000000000000E10    3.492527757771313E-4   4.011193290352821E-3  
 2.310000000000000E10    4.302817862480879E-3  -8.238442242145538E-4  
 2.312000000000000E10   -1.338876434601843E-3  -4.140201490372419E-3  
 2.314000000000000E10   -3.753213444724679E-3   2.069986425340176E-3  
 2.316000000000000E10    2.232786500826478E-3   3.590020118281245E-3  
 2.318000000000000E10    3.374131862074137E-3  -2.422719262540340E-3  
 2.320000000000000E10   -3.149449592456222E-3  -2.764854114502668E-3  
 2.322000000000000E10   -2.419220982119441E-3   3.533460665494204E-3  
 2.324000000000000E10    4.382842686027288E-3   2.015817910432816E-3  
 2.326000000000000E10    1.496467040851712E-3  -3.628203412517905E-3  
 2.328000000000000E10   -4.623428452759981E-3  -1.165408175438643E-3  
 2.330000000000000E10    3.568402898963541E-4   4.711027257144451E-3  
 2.332000000000000E10    4.543314222246409E-3  -7.237917743623257E-4  
 2.334000000000000E10   -1.113486709073186E-3  -4.588346462696791E-3  
 2.336000000000000E10   -4.896663129329681E-3   2.090004505589604E-3  
 2.338000000000000E10    2.472845371812582E-3   4.541742615401745E-3  
 2.340000000000000E10    4.514014348387718E-3  -3.276909934356809E-3  
 2.342000000000000E10   -3.589703934267163E-3  -4.196281544864178E-3  
 2.344000000000000E10   -3.413332859054208E-3   4.850483499467373E-3  
 2.346000000000000E10    4.565075505524874E-3   2.769743790850043E-3  
 2.348000000000000E10    2.616953337565064E-3  -4.482870455831289E-3  
 2.350000000000000E10   -4.630512557923794E-3  -1.806577318347991E-3  
 2.352000000000000E10   -1.079739071428776E-3   4.749537911266089E-3  
 2.354000000000000E10    4.437323659658432E-3   9.591888519935310E-4  
 2.356000000000000E10    3.506187349557877E-4  -4.432040732353926E-3  
 2.358000000000000E10   -4.650307819247246E-3   4.646433226298541E-4  
 2.360000000000000E10    1.339704380370677E-3   4.273540806025267E-3  
 2.362000000000000E10    4.127895925194025E-3  -1.608234946615994E-3  
 2.364000000000000E10   -2.253376645967364E-3  -3.433526726439595E-3  
 2.366000000000000E10   -2.675470663234592E-3   2.877497579902411E-3  
 2.368000000000000E10    3.356483997777104E-3   2.807125216349959E-3  
 2.370000000000000E10    2.269585151225328E-3  -3.483036532998085E-3  
 2.372000000000000E10   -4.146511666476727E-3  -2.178011694923043E-3  
 2.374000000000000E10   -1.704514259472489E-3   4.792866297066212E-3  
 2.376000000000000E10    5.604982376098633E-3   1.348112011328340E-3  
 2.378000000000000E10    1.052117513609119E-4  -5.782573018223047E-3  
 2.380000000000000E10   -5.749520380049944E-3  -8.191543020075187E-5  
 2.382000000000000E10    1.032682368531823E-3   5.719770211726427E-3  
 2.384000000000000E10    5.402491427958012E-3  -1.142675522714853E-3  
 2.386000000000000E10   -1.406491268426180E-3  -5.044415593147278E-3  
 2.388000000000000E10   -5.039400886744261E-3   1.893025124445558E-3  
 2.390000000000000E10    2.460586372762919E-3   4.917543847113848E-3  
 2.392000000000000E10    4.427941050380468E-3  -3.011519322171807E-3  
 2.394000000000000E10   -3.331890096887946E-3  -3.673368366435170E-3  
 2.396000000000000E10   -3.079977119341493E-3   3.527274820953608E-3  
 2.398000000000000E10    3.740826621651650E-3   2.465303055942059E-3  
 2.400000000000000E10    1.764731365256012E-3  -3.700692672282457E-3  
 2.402000000000000E10   -4.088072571903467E-3  -1.104902941733599E-3  
 2.404000000000000E10    9.463331480219495E-6   4.127966705709696E-3  
 2.406000000000000E10    4.555401857942343E-3  -6.756308721378446E-4  
 2.408000000000000E10   -1.560773933306336E-3  -4.378535784780979E-3  
 2.410000000000000E10   -4.308041650801897E-3   2.061913255602121E-3  
 2.412000000000000E10    2.281642751768231E-3   4.046231042593718E-3  
 2.414000000000000E10    4.202071577310562E-3  -3.243894549086690E-3  
 2.416000000000000E10   -3.692033234983683E-3  -4.128708504140377E-3  
 2.418000000000000E10   -3.987618256360292E-3   3.618860850110650E-3  
 2.420000000000000E10    4.172882530838251E-3   3.637644927948713E-3  
 2.422000000000000E10    3.410063451156020E-3  -4.280373919755220E-3  
 2.424000000000000E10   -4.657604731619358E-3  -3.394781146198511E-3  
 2.426000000000000E10   -2.799752866849303E-3   5.033255554735661E-3  
 2.428000000000000E10    5.039115436375141E-3   2.006984315812588E-3  
 2.430000000000000E10    1.679992419667542E-3  -5.586802493780851E-3  
 2.432000000000000E10   -5.368547048419714E-3  -1.122787944041193E-3  
 2.434000000000000E10   -4.443835932761431E-4   5.144646856933832E-3  
 2.436000000000000E10    4.808304831385613E-3  -6.581446505151689E-4  
 2.438000000000000E10   -1.236865529790521E-3  -4.760337062180042E-3  
 2.440000000000000E10   -4.125695675611496E-3   1.760926563292742E-3  
 2.442000000000000E10    2.286325907334685E-3   3.798492485657334E-3  
 2.444000000000000E10    3.215646138414741E-3  -3.203025553375483E-3  
 2.446000000000000E10   -3.547985805198550E-3  -2.917946781963110E-3  
 2.448000000000000E10   -2.452716464176774E-3   3.873929381370544E-3  
 2.450000000000000E10    4.292403813451529E-3   2.280263928696513E-3  
 2.452000000000000E10    1.790977315977216E-3  -5.315771792083979E-3  
 2.454000000000000E10   -5.090668331831694E-3  -1.347809447906911E-3  
 2.456000000000000E10   -1.258222735486925E-3   5.063037853688002E-3  
 2.458000000000000E10    5.443899426609278E-3   5.884859710931778E-4  
 2.460000000000000E10    2.803232928272337E-4  -5.744856782257557E-3  
 2.462000000000000E10   -5.550229921936989E-3   2.641705214045942E-4  
 2.464000000000000E10    5.664988420903683E-4   5.117683671414852E-3  
 2.466000000000000E10    5.075890570878983E-3  -1.309708924964070E-3  
 2.468000000000000E10   -1.689942670054734E-3  -4.997072741389275E-3  
 2.470000000000000E10   -4.078063182532787E-3   1.961320638656616E-3  
 2.472000000000000E10    2.438021590933204E-3   3.599345451220870E-3  
 2.474000000000000E10    3.243739949539304E-3  -2.904819790273905E-3  
 2.476000000000000E10   -3.367254743352532E-3  -3.190397983416915E-3  
 2.478000000000000E10   -2.176710404455662E-3   3.479453502222896E-3  
 2.480000000000000E10    4.407806321978569E-3   1.418335945345461E-3  
 2.482000000000000E10    9.498505387455225E-4  -4.680709913372994E-3  
 2.484000000000000E10   -4.807258956134319E-3  -4.585976421367377E-4  
 2.486000000000000E10    4.923602682538331E-4   4.941076971590519E-3  
 2.488000000000000E10    5.244441330432892E-3  -1.692748861387372E-3  
 2.490000000000000E10   -2.118475968018174E-3  -5.062154959887266E-3  
 2.492000000000000E10   -5.036321934312582E-3   2.344161504879594E-3  
 2.494000000000000E10    2.972850343212485E-3   4.471356514841318E-3  
 2.496000000000000E10    4.599156789481640E-3  -3.805575659498572E-3  
 2.498000000000000E10   -3.873847657814622E-3  -4.172536078840494E-3  
 2.500000000000000E10   -3.445192938670516E-3   3.591508371755481E-3  
 2.502000000000000E10    4.025466274470091E-3   3.331527579575777E-3  
 2.504000000000000E10    2.623679582029581E-3  -4.352924879640341E-3  
 2.506000000000000E10   -3.920927643775940E-3  -2.087720902636647E-3  
 2.508000000000000E10   -1.749346847645938E-3   3.888165578246117E-3  
 2.510000000000000E10    4.274354781955481E-3   1.600072602741420E-3  
 2.512000000000000E10    3.443931636866182E-4  -4.343451932072640E-3  
 2.514000000000000E10   -3.991689067333937E-3  -2.399209479335696E-4  
 2.516000000000000E10    9.136737207882106E-4   3.953062929213047E-3  
 2.518000000000000E10    3.556571202352643E-3  -1.565534039400518E-3  
 2.520000000000000E10   -2.022204222157598E-3  -3.654691390693188E-3  
 2.522000000000000E10   -3.095488529652357E-3   2.640004735440016E-3  
 2.524000000000000E10    3.033093642443419E-3   2.939956495538354E-3  
 2.526000000000000E10    2.679286291822791E-3  -3.723511239513755E-3  
 2.528000000000000E10   -3.649440361186862E-3  -2.314410870894790E-3  
 2.530000000000000E10   -1.947626238688827E-3   4.367828369140625E-3  
 2.532000000000000E10    4.773746244609356E-3   1.311837811954320E-3  
 2.534000000000000E10    6.802178104408085E-4  -4.578964784741402E-3  
 2.536000000000000E10   -4.863603506237268E-3  -7.153874612413347E-4  
 2.538000000000000E10   -4.070959039381705E-5   4.912767559289932E-3  
 2.540000000000000E10    4.571696277707815E-3  -5.017058574594557E-4  
 2.542000000000000E10   -8.582904119975865E-4  -4.830448422580957E-3  
 2.544000000000000E10   -4.136741161346436E-3   1.278256764635444E-3  
 2.546000000000000E10    1.992070581763983E-3   3.235146170482040E-3  
 2.548000000000000E10    3.243991872295737E-3  -2.827975433319807E-3  
 2.550000000000000E10   -3.165799658745527E-3  -2.356754150241613E-3  
 2.552000000000000E10   -1.864558318629861E-3   3.239011857658625E-3  
 2.554000000000000E10    3.497285768389702E-3   1.305796089582145E-3  
 2.556000000000000E10    3.896689158864319E-4  -3.545909654349089E-3  
 2.558000000000000E10   -3.862217301502824E-3  -4.663871659431607E-4  
 2.560000000000000E10    4.184388380963355E-4   3.859824966639280E-3  
 2.562000000000000E10    3.584813093766570E-3  -1.047508558258414E-3  
 2.564000000000000E10   -1.375756226480007E-3  -3.950039856135845E-3  
 2.566000000000000E10   -3.781168023124337E-3   1.798691344447434E-3  
 2.568000000000000E10    2.248849486932159E-3   3.948632162064314E-3  
 2.570000000000000E10    3.318356815725565E-3  -2.586663700640202E-3  
 2.572000000000000E10   -2.677300246432424E-3  -2.682954538613558E-3  
 2.574000000000000E10   -2.700087614357472E-3   2.607898786664009E-3  
 2.576000000000000E10    2.930783201009035E-3   2.125275786966085E-3  
 2.578000000000000E10    1.420379150658846E-3  -2.819198416545987E-3  
 2.580000000000000E10   -2.954069757834077E-3  -1.252424204722047E-3  
 2.582000000000000E10   -1.022099633701146E-3   2.836029278114438E-3  
 2.584000000000000E10    2.554103732109070E-3   3.916546411346644E-4  
 2.586000000000000E10   -2.090914786094800E-4  -2.641313010826707E-3  
 2.588000000000000E10   -2.746052341535687E-3   3.077089204452932E-4  
 2.590000000000000E10    1.025158679112792E-3   2.716154558584094E-3  
 2.592000000000000E10    2.463194075971842E-3  -2.051221439614892E-3  
 2.594000000000000E10   -2.669217064976692E-3  -2.299560699611902E-3  
 2.596000000000000E10   -2.028236398473382E-3   2.840090310201049E-3  
 2.598000000000000E10    3.443695604801178E-3   1.953907776623964E-3  
 2.600000000000000E10    1.186189241707325E-3  -3.442900022491813E-3  
 2.602000000000000E10   -3.573698922991753E-3  -1.399250118993223E-3  
 2.604000000000000E10   -1.221625832840800E-3   3.715269733220339E-3  
 2.606000000000000E10    3.729233285412192E-3   3.954256244469434E-4  
 2.608000000000000E10    1.359635207336396E-4  -3.560134908184409E-3  
 2.610000000000000E10   -3.623855067417026E-3  -3.914569679182023E-4  
 2.612000000000000E10    1.187040834338404E-4   3.529876004904509E-3  
 2.614000000000000E10    2.876175567507744E-3  -3.999920954811387E-5  
 2.616000000000000E10   -4.785328928846866E-4  -2.583175664767623E-3  
 2.618000000000000E10   -2.581155393272638E-3   3.486404602881521E-4  
 2.620000000000000E10    6.995033472776413E-4   2.045288914814591E-3  
 2.622000000000000E10    1.229087589308620E-3  -1.341597991995513E-3  
 2.624000000000000E10   -1.069389283657074E-3  -9.482168825343251E-4  
 2.626000000000000E10   -7.109804428182542E-4   1.027819234877825E-3  
 2.628000000000000E10    1.481661456637085E-3   4.867260286118835E-4  
 2.630000000000000E10    2.643467814777978E-5  -1.614302047528327E-3  
 2.632000000000000E10   -1.379262073896825E-3   7.296117109945044E-5  
 2.634000000000000E10    1.972429163288325E-4   1.714423997327685E-3  
 2.636000000000000E10    1.881709787994623E-3  -5.608454812318087E-4  
 2.638000000000000E10   -9.793714853003621E-4  -1.900364877656102E-3  
 2.640000000000000E10   -2.141436561942101E-3   5.114029045216739E-4  
 2.642000000000000E10    6.401548162102699E-4   1.905968762002885E-3  
 2.644000000000000E10    2.092892071232200E-3  -1.011459855362773E-3  
 2.646000000000000E10   -8.828226709738374E-4  -2.151236403733492E-3  
 2.648000000000000E10   -2.004459267482162E-3   1.226745895110071E-3  
 2.650000000000000E10    1.334957429207861E-3   1.583831966854632E-3  
 2.652000000000000E10    1.357614295557141E-3  -1.262877834960818E-3  
 2.654000000000000E10   -1.308189937844873E-3  -1.229322515428066E-3  
 2.656000000000000E10   -6.989245302975178E-4   1.527079264633358E-3  
 2.658000000000000E10    1.172409509308636E-3   2.946636232081801E-4  
 2.660000000000000E10   -1.283230812987313E-4  -1.493683201260865E-3  
 2.662000000000000E10   -1.260586199350655E-3   3.853368107229471E-4  
 2.664000000000000E10    1.025664154440165E-3   8.983431034721434E-4  
 2.666000000000000E10    9.778358507901430E-4  -8.539886330254376E-4  
 2.668000000000000E10   -1.297001261264086E-3  -9.012777591124177E-4  
 2.670000000000000E10   -9.620259515941143E-4   1.546140061691403E-3  
 2.672000000000000E10    1.483890227973461E-3   8.139580022543669E-4  
 2.674000000000000E10    8.447418222203851E-4  -1.511664246208966E-3  
 2.676000000000000E10   -2.042766660451889E-3  -1.013918779790402E-3  
 2.678000000000000E10   -6.257821223698556E-4   1.426586182788014E-3  
 2.680000000000000E10    1.615610555745661E-3   4.791886021848768E-4  
 2.682000000000000E10    7.730762590654194E-4  -1.737070619128645E-3  
 2.684000000000000E10   -1.414157799445093E-3  -7.446298259310424E-4  
 2.686000000000000E10   -5.327914841473103E-4   1.181209692731500E-3  
 2.688000000000000E10    1.074722153134644E-3   6.774714565835893E-4  
 2.690000000000000E10    5.092937499284744E-4  -8.633697871118784E-4  
 2.692000000000000E10   -6.053735851310194E-4  -3.707309078890830E-4  
 2.694000000000000E10   -1.585181744303554E-4   2.742378455877770E-5  
 2.696000000000000E10    4.587849252857268E-5  -4.361661922303028E-6  
 2.698000000000000E10   -9.781916742213070E-5  -2.474815992172808E-4  
 2.700000000000000E10    2.611728268675506E-4  -9.877066622721031E-5  
 2.702000000000000E10    1.752070675138384E-4  -3.123603528365493E-4  
 2.704000000000000E10   -3.124049981124699E-4  -4.760411393363029E-4  
 2.706000000000000E10   -6.507848738692701E-4   5.254521965980530E-4  
 2.708000000000000E10    6.310687749646604E-4   3.945146163459867E-4  
 2.710000000000000E10    8.038564119488001E-4  -6.639068596996367E-4  
 2.712000000000000E10   -6.962971528992057E-4  -1.128931413404644E-3  
 2.714000000000000E10   -8.338919142261148E-4   3.539008612278849E-4  
 2.716000000000000E10    2.851659955922514E-4   6.332920747809112E-4  
 2.718000000000000E10    1.120384549722076E-3  -4.701034049503505E-4  
 2.720000000000000E10   -2.844074697350152E-5  -8.514383225701749E-4  
 2.722000000000000E10   -1.107523683458567E-3  -2.408545697107911E-4  
 2.724000000000000E10   -2.179177827201784E-4   1.045400742441416E-3  
 2.726000000000000E10    8.138587581925094E-4  -6.186305108712986E-5  
 2.728000000000000E10    2.415469789411873E-4  -7.628210587427020E-4  
 2.730000000000000E10   -5.967484903521836E-4  -5.378837231546640E-4  
 2.732000000000000E10   -3.879382566083223E-4   1.497854536864907E-4  
 2.734000000000000E10    2.488069294486195E-4   4.316478734835982E-4  
 2.736000000000000E10    6.127340020611882E-4  -1.930098951561377E-4  
 2.738000000000000E10    9.734298510011286E-5  -5.011666216887534E-4  
 2.740000000000000E10   -2.318018814548850E-4  -3.195272583980113E-4  
 2.742000000000000E10   -3.080063906963915E-4   1.901947252918035E-4  
 2.744000000000000E10   -2.345282337046228E-5   1.081963710021228E-4  
 2.746000000000000E10    6.648406852036715E-4  -9.166625386569649E-5  
 2.748000000000000E10    1.553570327814668E-4  -4.545204574242234E-4  
 2.750000000000000E10   -5.997758125886321E-4  -2.982749138027430E-4  
 2.752000000000000E10   -3.256267809774727E-4   5.788067355751991E-4  
 2.754000000000000E10    5.304640508256853E-4   4.386063665151596E-4  
 2.756000000000000E10    8.346419781446457E-4  -6.515925051644445E-4  
