#  HZ   S   RI   R     50.00 
! Rohde & Schwarz ZVA40 4Ports - Version 3.90 - 1145.1110k42 SN: 100403
! Date: 2023-10-04 10:48:57
! Measurement: S12 
! 
 2.200000000000000E10   -4.078454338014126E-3  -3.019025549292564E-3  
 2.202000000000000E10   -2.625373424962163E-3   4.629149567335844E-3  
 2.204000000000000E10    4.921130370348692E-3   1.667464384809136E-3  
 2.206000000000000E10    8.846483542583883E-4  -5.358979105949402E-3  
 2.208000000000000E10   -5.232578143477440E-3   9.623984078643844E-5  
 2.210000000000000E10    7.883115904405713E-4   5.132807884365320E-3  
 2.212000000000000E10    4.710596986114979E-3  -1.885683625005186E-3  
 2.214000000000000E10   -2.797021064907312E-3  -4.237105604261160E-3  
 2.216000000000000E10   -3.480371553450823E-3   3.579306416213512E-3  
 2.218000000000000E10    4.070213995873928E-3   2.466181991621852E-3  
 2.220000000000000E10    1.435726531781256E-3  -4.301469773054123E-3  
 2.222000000000000E10   -4.222440067678690E-3  -1.027342514134944E-3  
 2.224000000000000E10    1.299580908380449E-4   4.178396891802549E-3  
 2.226000000000000E10    3.523199586197734E-3  -6.680277292616665E-4  
 2.228000000000000E10   -7.921570795588195E-4  -3.832109039649367E-3  
 2.230000000000000E10   -3.407790325582027E-3   1.716577564366162E-3  
 2.232000000000000E10    1.349449856206775E-3   2.667472930625081E-3  
 2.234000000000000E10    2.613304881379008E-3  -1.209202222526074E-3  
 2.236000000000000E10   -1.499144244007766E-3  -2.024414716288447E-3  
 2.238000000000000E10   -1.557444338686764E-3   1.357614295557141E-3  
 2.240000000000000E10    1.116395345889032E-3   1.460017054341734E-3  
 2.242000000000000E10    1.177901867777109E-3  -1.073900028131902E-3  
 2.244000000000000E10   -9.856905089691281E-4  -1.230066991411150E-3  
 2.246000000000000E10   -4.202612617518753E-4   6.489219376817346E-4  
 2.248000000000000E10    7.511184958275408E-5   7.573785260319710E-4  
 2.250000000000000E10    1.289593637920916E-3  -2.161925222026184E-4  
 2.252000000000000E10   -2.043513522949070E-4  -6.405126187019050E-4  
 2.254000000000000E10   -8.326670504175127E-4  -1.785735548764933E-5  
 2.256000000000000E10    1.887827093014494E-4   1.039407565258443E-3  
 2.258000000000000E10    1.147455302998424E-3  -4.960912629030645E-4  
 2.260000000000000E10   -2.082040591631085E-4  -1.121708424761891E-3  
 2.262000000000000E10   -1.083120820112526E-3   8.257426088675857E-4  
 2.264000000000000E10    9.899826254695654E-4   1.451044809073210E-3  
 2.266000000000000E10    1.457933103665710E-3  -1.190940383821726E-3  
 2.268000000000000E10   -1.190259703435004E-3  -1.077879103831947E-3  
 2.270000000000000E10   -1.383410650305450E-3   1.756026875227690E-3  
 2.272000000000000E10    2.445764141157270E-3   1.460011349990964E-3  
 2.274000000000000E10    1.387591357342899E-3  -2.235186984762549E-3  
 2.276000000000000E10   -2.692422829568386E-3  -1.108034630306065E-3  
 2.278000000000000E10   -1.011613290756941E-3   3.264401573687792E-3  
 2.280000000000000E10    3.600135445594788E-3   1.100000808946788E-3  
 2.282000000000000E10    2.454928122460842E-3  -2.156757516786456E-3  
 2.284000000000000E10   -3.744068322703242E-3  -1.045849785441533E-4  
 2.286000000000000E10   -2.588721399661154E-4   3.673557192087174E-3  
 2.288000000000000E10    4.005636088550091E-3  -4.092729941476136E-4  
 2.290000000000000E10   -1.055872999131680E-3  -3.974457271397114E-3  
 2.292000000000000E10   -3.986197523772717E-3   1.475712168030441E-3  
 2.294000000000000E10    2.766380552202463E-3   3.498493693768978E-3  
 2.296000000000000E10    3.071434795856476E-3  -3.053180174902082E-3  
 2.298000000000000E10   -3.280994715169072E-3  -2.161399461328983E-3  
 2.300000000000000E10   -1.499477075412870E-3   3.926623612642288E-3  
 2.302000000000000E10    4.469134844839573E-3   1.313773682340980E-3  
 2.304000000000000E10    9.762317058630288E-4  -4.620241466909647E-3  
 2.306000000000000E10   -4.792280495166779E-3   8.173340756911784E-5  
 2.308000000000000E10    5.910377367399633E-4   4.884245339781046E-3  
 2.310000000000000E10    5.333578679710627E-3  -1.062343479134142E-3  
 2.312000000000000E10   -2.268145326524973E-3  -5.078091286122799E-3  
 2.314000000000000E10   -4.676132928580046E-3   3.055851208046079E-3  
 2.316000000000000E10    3.028005594387651E-3   4.222407937049866E-3  
 2.318000000000000E10    4.108668770641089E-3  -3.526415675878525E-3  
 2.320000000000000E10   -4.006160888820887E-3  -3.233209950849414E-3  
 2.322000000000000E10   -3.326290985569358E-3   3.975733183324337E-3  
 2.324000000000000E10    4.715859889984131E-3   2.924083033576608E-3  
 2.326000000000000E10    2.311086049303412E-3  -5.036781542003155E-3  
 2.328000000000000E10   -5.066234618425369E-3  -1.141365384683013E-3  
 2.330000000000000E10   -4.247796605341137E-4   4.813740029931068E-3  
 2.332000000000000E10    4.619758110493422E-3   4.428543221024484E-8  
 2.334000000000000E10   -7.920743082650006E-4  -4.422264173626900E-3  
 2.336000000000000E10   -4.231360275298357E-3   1.776881399564445E-3  
 2.338000000000000E10    1.842758501879871E-3   4.094734322279692E-3  
 2.340000000000000E10    4.078338854014874E-3  -2.463085809722543E-3  
 2.342000000000000E10   -3.223190782591701E-3  -3.845723811537027E-3  
 2.344000000000000E10   -3.687217598780990E-3   4.161045420914888E-3  
 2.346000000000000E10    4.593977704644203E-3   2.955941250547767E-3  
 2.348000000000000E10    2.411637455224991E-3  -4.704399965703487E-3  
 2.350000000000000E10   -4.987151362001896E-3  -2.029957715421915E-3  
 2.352000000000000E10   -1.363449031487107E-3   5.599297117441893E-3  
 2.354000000000000E10    5.782211199402809E-3   9.104541968554258E-4  
 2.356000000000000E10    4.053252632729709E-4  -5.576424766331911E-3  
 2.358000000000000E10   -5.898906383663416E-3   8.160766446962953E-4  
 2.360000000000000E10    1.198387471958995E-3   5.300716962665319E-3  
 2.362000000000000E10    5.265109706670046E-3  -2.058356069028378E-3  
 2.364000000000000E10   -3.134452039375901E-3  -4.560435190796852E-3  
 2.366000000000000E10   -3.748143091797829E-3   3.081909613683820E-3  
 2.368000000000000E10    3.524972125887871E-3   3.483717329800129E-3  
 2.370000000000000E10    3.405050374567509E-3  -3.869673702865839E-3  
 2.372000000000000E10   -4.287370014935732E-3  -2.370678121224046E-3  
 2.374000000000000E10   -1.693578786216676E-3   4.939688835293055E-3  
 2.376000000000000E10    5.365904420614243E-3   1.589067629538477E-3  
 2.378000000000000E10    2.983111480716616E-4  -5.692091770470142E-3  
 2.380000000000000E10   -5.769062321633101E-3   8.088626782409847E-4  
 2.382000000000000E10    1.336912740953267E-3   5.244478583335877E-3  
 2.384000000000000E10    5.846309941262007E-3  -1.985425828024745E-3  
 2.386000000000000E10   -2.556960796937347E-3  -5.233024246990681E-3  
 2.388000000000000E10   -4.624079447239637E-3   2.773576648905873E-3  
 2.390000000000000E10    3.281953046098352E-3   4.980863071978092E-3  
 2.392000000000000E10    4.331421107053757E-3  -3.475194098427892E-3  
 2.394000000000000E10   -3.833625698462129E-3  -3.991693258285523E-3  
 2.396000000000000E10   -3.653028979897499E-3   4.053940996527672E-3  
 2.398000000000000E10    3.793889889493585E-3   2.954833209514618E-3  
 2.400000000000000E10    2.593656303361058E-3  -4.529487341642380E-3  
 2.402000000000000E10   -4.525760654360056E-3  -1.567829516716301E-3  
 2.404000000000000E10   -8.499246905557811E-4   4.382335115224123E-3  
 2.406000000000000E10    5.045096389949322E-3   4.607792652677745E-4  
 2.408000000000000E10   -1.039664493873715E-3  -4.924412351101637E-3  
 2.410000000000000E10   -4.199168644845486E-3   1.562538789585233E-3  
 2.412000000000000E10    2.111143199726939E-3   3.890836844220758E-3  
 2.414000000000000E10    3.835516283288598E-3  -2.792519051581621E-3  
 2.416000000000000E10   -3.281657118350267E-3  -3.616538830101490E-3  
 2.418000000000000E10   -3.050397615879774E-3   3.668711986392736E-3  
 2.420000000000000E10    3.928168211132288E-3   3.050927771255374E-3  
 2.422000000000000E10    3.128281561657786E-3  -4.559353925287724E-3  
 2.424000000000000E10   -5.196053534746170E-3  -2.769714919850230E-3  
 2.426000000000000E10   -2.223340794444084E-3   5.460970569401979E-3  
 2.428000000000000E10    5.865521263331175E-3   1.747539616189897E-3  
 2.430000000000000E10    1.369764213450253E-3  -6.072762422263622E-3  
 2.432000000000000E10   -5.911108572036028E-3  -9.288175497204065E-4  
 2.434000000000000E10    9.541492909193039E-5   5.736434832215309E-3  
 2.436000000000000E10    5.666644778102636E-3  -6.586815579794347E-4  
 2.438000000000000E10   -7.457431638613343E-4  -5.081844050437212E-3  
 2.440000000000000E10   -4.396102391183376E-3   1.596384099684656E-3  
 2.442000000000000E10    2.007440431043506E-3   4.520071670413017E-3  
 2.444000000000000E10    3.544688923284411E-3  -2.400063676759601E-3  
 2.446000000000000E10   -2.548599848523736E-3  -3.696307772770524E-3  
 2.448000000000000E10   -3.089044243097305E-3   3.470394061878324E-3  
 2.450000000000000E10    4.103523213416338E-3   1.975882332772017E-3  
 2.452000000000000E10    2.071297960355878E-3  -4.153588786721230E-3  
 2.454000000000000E10   -4.274449311196804E-3  -1.654253457672894E-3  
 2.456000000000000E10   -6.559524335898459E-4   4.993639420717955E-3  
 2.458000000000000E10    5.273457616567612E-3   4.435135633684695E-5  
 2.460000000000000E10   -9.388620674144477E-5  -5.477915052324534E-3  
 2.462000000000000E10   -5.685826297849417E-3   8.756309398449957E-4  
 2.464000000000000E10    1.975826686248183E-3   5.551929119974375E-3  
 2.466000000000000E10    5.433656275272369E-3  -2.331659896299243E-3  
 2.468000000000000E10   -2.049256814643741E-3  -5.292598623782396E-3  
 2.470000000000000E10   -5.186832509934902E-3   3.090180689468980E-3  
 2.472000000000000E10    3.867934457957745E-3   4.541345406323671E-3  
 2.474000000000000E10    4.239203408360481E-3  -3.464671550318599E-3  
 2.476000000000000E10   -3.893098095431924E-3  -4.079559352248907E-3  
 2.478000000000000E10   -3.266937099397183E-3   4.334776662290096E-3  
 2.480000000000000E10    5.077062174677849E-3   2.218322362750769E-3  
 2.482000000000000E10    1.412313315086067E-3  -4.562008660286665E-3  
 2.484000000000000E10   -4.341557156294584E-3  -1.188601134344935E-3  
 2.486000000000000E10    1.529355176899117E-5   4.937250167131424E-3  
 2.488000000000000E10    4.919630941003561E-3  -1.188034657388926E-3  
 2.490000000000000E10   -1.517933211289346E-3  -4.055468365550041E-3  
 2.492000000000000E10   -4.120170138776302E-3   1.724685775116086E-3  
 2.494000000000000E10    2.865585032850504E-3   3.980481997132301E-3  
 2.496000000000000E10    3.688867436721921E-3  -3.313489491119981E-3  
 2.498000000000000E10   -3.550889436155558E-3  -3.324674209579825E-3  
 2.500000000000000E10   -2.869233256205916E-3   3.666720818728209E-3  
 2.502000000000000E10    4.502758383750916E-3   3.203588072210550E-3  
 2.504000000000000E10    2.458738628774881E-3  -4.385029897093773E-3  
 2.506000000000000E10   -4.077041056007147E-3  -2.308064373210073E-3  
 2.508000000000000E10   -1.939320471137762E-3   4.572657402604818E-3  
 2.510000000000000E10    5.045772530138493E-3   1.419016276486218E-3  
 2.512000000000000E10    1.005918369628489E-3  -4.794133827090263E-3  
 2.514000000000000E10   -4.542375449091196E-3  -6.775160436518490E-4  
 2.516000000000000E10    1.402781053911895E-4   4.335819277912378E-3  
 2.518000000000000E10    4.055951256304979E-3  -4.428771499078721E-4  
 2.520000000000000E10   -9.812775533646345E-4  -3.941697068512440E-3  
 2.522000000000000E10   -2.917011035606265E-3   1.570288673974574E-3  
 2.524000000000000E10    2.122113248333335E-3   2.938386285677552E-3  
 2.526000000000000E10    2.483914839103818E-3  -2.839631866663694E-3  
 2.528000000000000E10   -3.066826146095991E-3  -1.901108887977898E-3  
 2.530000000000000E10   -1.535830786451697E-3   3.576743649318814E-3  
 2.532000000000000E10    4.621253348886967E-3   8.472981280647218E-4  
 2.534000000000000E10    5.203348337090574E-5  -4.471289925277233E-3  
 2.536000000000000E10   -4.265953786671162E-3   3.733455669134855E-4  
 2.538000000000000E10    1.011172309517860E-3   4.413379356265068E-3  
 2.540000000000000E10    4.507175646722317E-3  -1.208121539093554E-3  
 2.542000000000000E10   -1.596560585312545E-3  -4.726758226752281E-3  
 2.544000000000000E10   -4.252355080097914E-3   2.172338543459773E-3  
 2.546000000000000E10    2.524752402678132E-3   4.381891340017319E-3  
 2.548000000000000E10    3.964254166930914E-3  -2.881814958527684E-3  
 2.550000000000000E10   -3.239823039621115E-3  -3.098145825788379E-3  
 2.552000000000000E10   -2.703680656850338E-3   3.160258522257209E-3  
 2.554000000000000E10    3.635335015133023E-3   2.309737494215369E-3  
 2.556000000000000E10    1.828145235776901E-3  -3.362094750627875E-3  
 2.558000000000000E10   -3.930796869099140E-3  -1.506316591985524E-3  
 2.560000000000000E10   -2.452805929351598E-4   3.522389102727175E-3  
 2.562000000000000E10    3.464895300567150E-3   1.913853157020640E-5  
 2.564000000000000E10   -4.115252813789994E-4  -3.484789282083511E-3  
 2.566000000000000E10   -3.212762298062444E-3   1.359400921501219E-3  
 2.568000000000000E10    1.853376859799027E-3   3.010107204318047E-3  
 2.570000000000000E10    2.600445877760649E-3  -2.214650157839060E-3  
 2.572000000000000E10   -2.877841005101800E-3  -2.645887667313218E-3  
 2.574000000000000E10   -2.087624045088887E-3   3.152034478262067E-3  
 2.576000000000000E10    3.771524643525481E-3   1.830228487960994E-3  
 2.578000000000000E10    1.426776056177914E-3  -3.705164184793830E-3  
 2.580000000000000E10   -3.896681126207113E-3  -1.012512249872088E-3  
 2.582000000000000E10   -5.064912838861346E-4   3.489433554932475E-3  
 2.584000000000000E10    3.437947714701295E-3   4.339520237408578E-4  
 2.586000000000000E10   -2.465737925376743E-4  -3.833469236269593E-3  
 2.588000000000000E10   -3.530693706125021E-3   5.631262320093811E-4  
 2.590000000000000E10    8.776611648499966E-4   2.832165220752358E-3  
 2.592000000000000E10    2.864179201424122E-3  -1.483829692006111E-3  
 2.594000000000000E10   -1.704242778941989E-3  -2.511093625798821E-3  
 2.596000000000000E10   -1.740666222758591E-3   1.879639108665288E-3  
 2.598000000000000E10    2.254794817417860E-3   1.421714550815523E-3  
 2.600000000000000E10    9.502194589003921E-4  -2.495538908988237E-3  
 2.602000000000000E10   -2.642575884237886E-3  -7.938345079310238E-4  
 2.604000000000000E10   -2.796530898194760E-4   2.754092449322343E-3  
 2.606000000000000E10    2.748323837295175E-3  -2.321526408195496E-4  
 2.608000000000000E10   -3.019532305188477E-4  -3.192800562828779E-3  
 2.610000000000000E10   -2.942738821730018E-3   4.094646719750017E-4  
 2.612000000000000E10    6.639353814534843E-4   2.792288549244404E-3  
 2.614000000000000E10    2.916448516771197E-3  -1.065832562744618E-3  
 2.616000000000000E10   -1.241884077899158E-3  -2.831684192642570E-3  
 2.618000000000000E10   -2.480301307514310E-3   1.021448988467455E-3  
 2.620000000000000E10    1.427936949767172E-3   2.037587109953165E-3  
 2.622000000000000E10    1.769235706888139E-3  -1.581231947056949E-3  
 2.624000000000000E10   -1.106473966501653E-3  -1.847498700954020E-3  
 2.626000000000000E10   -1.343942014500499E-3   1.205237349495292E-3  
 2.628000000000000E10    1.140381791628897E-3   8.710349793545902E-4  
 2.630000000000000E10    7.718343986198306E-4  -1.428195158950985E-3  
 2.632000000000000E10   -1.021252013742924E-3  -2.813836617860943E-4  
 2.634000000000000E10    2.210507373092696E-4   7.531737210229039E-4  
 2.636000000000000E10    1.134530990384519E-3  -6.050067604519427E-4  
 2.638000000000000E10   -7.338707218877971E-4  -1.095133135095239E-3  
 2.640000000000000E10   -9.281355305574834E-4   9.061697637662292E-4  
 2.642000000000000E10    1.154226716607809E-3   9.178007603622973E-4  
 2.644000000000000E10    8.992137154564261E-4  -1.638283254578710E-3  
 2.646000000000000E10   -1.905674813315272E-3  -7.696509710513055E-4  
 2.648000000000000E10   -8.645417401567102E-4   1.768046990036964E-3  
 2.650000000000000E10    1.778453239239752E-3   4.968922585248947E-4  
 2.652000000000000E10    6.094578420743346E-4  -2.048445632681251E-3  
 2.654000000000000E10   -1.880384166724980E-3  -7.425320218317211E-4  
 2.656000000000000E10   -6.339310784824193E-4   1.836627838201821E-3  
 2.658000000000000E10    1.658797031268477E-3   5.383565439842641E-4  
 2.660000000000000E10    3.760973631870002E-4  -1.405579154379666E-3  
 2.662000000000000E10   -1.133911195211113E-3  -7.723136804997921E-4  
 2.664000000000000E10   -4.386491200421006E-4   8.136103861033917E-4  
 2.666000000000000E10    8.813735912553966E-4   5.781989893876016E-4  
 2.668000000000000E10    4.950915463268757E-4  -8.764208760112524E-4  
 2.670000000000000E10   -3.204904496669769E-4  -9.103058255277574E-5  
 2.672000000000000E10   -1.028024853440002E-4   3.911801613867283E-4  
 2.674000000000000E10    2.937232493422926E-4   8.955395605880767E-5  
 2.676000000000000E10   -3.393414954189211E-4  -3.668100689537823E-4  
 2.678000000000000E10   -3.540272882673889E-5   5.352236912585795E-4  
 2.680000000000000E10    6.563516217283905E-4  -6.369371112668887E-5  
 2.682000000000000E10    3.425866816542111E-5  -1.213666400872171E-3  
 2.684000000000000E10   -1.070430618710816E-3   2.033960918197408E-4  
 2.686000000000000E10    4.130699671804905E-4   1.332974410615861E-3  
 2.688000000000000E10    1.416058046743274E-3  -3.814836381934583E-4  
 2.690000000000000E10   -7.989430741872639E-5  -1.436147373169661E-3  
 2.692000000000000E10   -1.649491023272276E-3   2.902786654885858E-4  
 2.694000000000000E10    3.675774787552655E-4   1.696658087894321E-3  
 2.696000000000000E10    1.793264178559184E-3  -1.586254511494190E-4  
 2.698000000000000E10   -3.816587850451469E-4  -1.586177153512836E-3  
 2.700000000000000E10   -1.130718388594687E-3  -5.567725384025835E-5  
 2.702000000000000E10    4.948745481669903E-4   1.191541436128318E-3  
 2.704000000000000E10    8.378827478736639E-4  -5.834364128531888E-5  
 2.706000000000000E10    2.282864443259314E-4  -6.797851528972387E-4  
 2.708000000000000E10   -1.992443867493421E-4   2.632428950164467E-4  
 2.710000000000000E10    1.763298205332831E-4  -1.967971911653876E-5  
 2.712000000000000E10   -5.336782851372846E-5   7.999289664439857E-5  
 2.714000000000000E10    6.091688192100264E-5   6.889509386382997E-4  
 2.716000000000000E10    8.084894507192075E-4  -2.652302100614179E-5  
 2.718000000000000E10    7.778068538755179E-5  -6.329486495815218E-4  
 2.720000000000000E10   -7.122745737433434E-4   2.729956759139895E-4  
 2.722000000000000E10   -2.742497599683702E-4   8.596488041803241E-4  
 2.724000000000000E10    9.251862647943199E-4   4.868601099587977E-4  
 2.726000000000000E10    5.754215526394546E-4  -7.657246314920485E-4  
 2.728000000000000E10   -7.823559571988881E-4  -6.853931117802858E-4  
 2.730000000000000E10   -7.663262658752501E-4   1.039258902892470E-3  
 2.732000000000000E10    8.190336520783603E-4   1.008910476230085E-3  
 2.734000000000000E10    1.244102022610605E-3  -6.925847847014666E-4  
 2.736000000000000E10   -7.382205803878605E-4  -9.247627458535135E-4  
 2.738000000000000E10   -1.239119563251734E-3   4.931455478072166E-4  
 2.740000000000000E10    3.931581450160593E-4   1.228986540809274E-3  
 2.742000000000000E10    1.064628013409674E-3  -1.081667287508026E-4  
 2.744000000000000E10    1.863944926299155E-4  -7.030780543573201E-4  
 2.746000000000000E10   -5.003574187867343E-4  -1.247407926712185E-4  
 2.748000000000000E10   -1.564872800372541E-4   6.286121206358075E-4  
 2.750000000000000E10    3.726911963894963E-4   1.030687690217746E-5  
 2.752000000000000E10    3.223953826818615E-4   1.658618712099269E-4  
 2.754000000000000E10   -4.820509639102966E-5  -2.484650467522442E-4  
 2.756000000000000E10   -2.622457395773381E-4  -4.796423309016973E-4  
