#  HZ   S   RI   R     50.00 
! Rohde & Schwarz ZVA40 4Ports - Version 3.90 - 1145.1110k42 SN: 100403
! Date: 2023-10-04 10:49:31
! Measurement: S12 
! 
 2.200000000000000E10    2.833739155903459E-3  -3.265235573053360E-3  
 2.202000000000000E10   -4.052498843520880E-3  -2.916284836828709E-3  
 2.204000000000000E10   -2.223747782409191E-3   4.491181578487158E-3  
 2.206000000000000E10    4.848723299801350E-3   1.365143572911620E-3  
 2.208000000000000E10    5.712944548577070E-4  -4.984539002180100E-3  
 2.210000000000000E10   -5.057988688349724E-3   5.527612520381808E-4  
 2.212000000000000E10    1.676043146289885E-3   4.558184649795294E-3  
 2.214000000000000E10    4.099932499229908E-3  -2.329736016690731E-3  
 2.216000000000000E10   -3.021493321284652E-3  -3.848884720355272E-3  
 2.218000000000000E10   -2.545016119256616E-3   3.419088665395975E-3  
 2.220000000000000E10    3.666531993076205E-3   2.271577715873718E-3  
 2.222000000000000E10    1.249004155397415E-3  -4.043316002935171E-3  
 2.224000000000000E10   -3.704055212438107E-3  -4.041763895656914E-4  
 2.226000000000000E10   -2.583212626632303E-4   3.970434423536062E-3  
 2.228000000000000E10    3.920706454664469E-3  -4.835661384277046E-4  
 2.230000000000000E10   -8.782781078480184E-4  -3.500110935419798E-3  
 2.232000000000000E10   -3.305941121652722E-3   1.175306388176978E-3  
 2.234000000000000E10    1.359118032269180E-3   2.981943544000387E-3  
 2.236000000000000E10    2.451883628964424E-3  -1.065787859261036E-3  
 2.238000000000000E10   -1.237088581547141E-3  -2.194328699260950E-3  
 2.240000000000000E10   -1.531751360744238E-3   1.259386655874550E-3  
 2.242000000000000E10    7.306346669793129E-4   1.854573492892087E-3  
 2.244000000000000E10    1.298738177865744E-3  -5.419148365035653E-4  
 2.246000000000000E10   -4.049628332722932E-4  -1.232784939929843E-3  
 2.248000000000000E10   -8.643165929242969E-4   3.072567342314869E-4  
 2.250000000000000E10    5.089949700050056E-4   8.849716978147626E-4  
 2.252000000000000E10    9.563563507981598E-4   1.454060693504289E-4  
 2.254000000000000E10    2.689983230084181E-4  -4.976281197741628E-4  
 2.256000000000000E10   -6.911457749083638E-4  -2.443584380671382E-4  
 2.258000000000000E10   -1.143729095929302E-4   1.135388738475740E-3  
 2.260000000000000E10    1.186693087220192E-3   1.457450416637585E-4  
 2.262000000000000E10    2.347895060665906E-4  -1.018217182718217E-3  
 2.264000000000000E10   -1.439093262888491E-3   4.705424071289599E-4  
 2.266000000000000E10    8.474093629047275E-4   1.672944752499461E-3  
 2.268000000000000E10    1.826020656153560E-3  -8.625130285508931E-4  
 2.270000000000000E10   -1.284411293454468E-3  -1.738726394250989E-3  
 2.272000000000000E10   -1.713910605758429E-3   2.292972989380360E-3  
 2.274000000000000E10    2.590427873656154E-3   1.662648282945156E-3  
 2.276000000000000E10    1.301801297813654E-3  -2.805705182254314E-3  
 2.278000000000000E10   -3.275503171607852E-3  -9.785827714949846E-4  
 2.280000000000000E10   -5.567714688368142E-4   4.164090380072594E-3  
 2.282000000000000E10    2.942756982520223E-3   2.638898557052016E-3  
 2.284000000000000E10   -3.370281192474067E-4  -3.862705547362566E-3  
 2.286000000000000E10   -4.452976863831282E-3   7.653596694581211E-4  
 2.288000000000000E10    1.207795809023082E-3   4.182919859886169E-3  
 2.290000000000000E10    3.706024494022131E-3  -1.215208205394447E-3  
 2.292000000000000E10   -1.727818278595805E-3  -3.906689118593931E-3  
 2.294000000000000E10   -3.848107531666756E-3   2.912353491410613E-3  
 2.296000000000000E10    2.768860198557377E-3   3.078320529311895E-3  
 2.298000000000000E10    2.892114687711000E-3  -3.148068208247423E-3  
 2.300000000000000E10   -3.739744890481234E-3  -2.061870647594333E-3  
 2.302000000000000E10   -1.910188933834434E-3   4.473534878343344E-3  
 2.304000000000000E10    4.731535911560059E-3   1.190147828310728E-3  
 2.306000000000000E10    2.283085195813328E-4  -4.599442239850760E-3  
 2.308000000000000E10   -4.745052196085453E-3   3.589622792787850E-4  
 2.310000000000000E10    6.879539578221738E-4   4.733493085950613E-3  
 2.312000000000000E10    4.698114935308695E-3  -1.025249715894461E-3  
 2.314000000000000E10   -1.671576057560742E-3  -4.650794900953770E-3  
 2.316000000000000E10   -5.039812996983528E-3   2.570621902123094E-3  
 2.318000000000000E10    2.873047022148967E-3   4.779279232025147E-3  
 2.320000000000000E10    4.581488203257322E-3  -3.402875503525138E-3  
 2.322000000000000E10   -4.436735995113850E-3  -3.878749674186111E-3  
 2.324000000000000E10   -3.557845950126648E-3   4.565833136439323E-3  
 2.326000000000000E10    4.538910463452339E-3   2.849556738510728E-3  
 2.328000000000000E10    2.131602028384805E-3  -5.030160769820213E-3  
 2.330000000000000E10   -5.392325110733509E-3  -1.016775146126747E-3  
 2.332000000000000E10   -6.560261826962233E-4   5.370239261537790E-3  
 2.334000000000000E10    4.965467844158411E-3  -2.960811543744057E-4  
 2.336000000000000E10   -9.262380772270262E-4  -5.162545479834080E-3  
 2.338000000000000E10   -5.041292868554592E-3   1.909314072690904E-3  
 2.340000000000000E10    2.570125507190824E-3   4.891813267022371E-3  
 2.342000000000000E10    4.154319874942303E-3  -3.111103549599648E-3  
 2.344000000000000E10   -4.077432677149773E-3  -4.197535105049610E-3  
 2.346000000000000E10   -3.478201804682612E-3   4.570995457470417E-3  
 2.348000000000000E10    4.935707431286573E-3   2.878679195418954E-3  
 2.350000000000000E10    2.391093410551548E-3  -5.358701571822166E-3  
 2.352000000000000E10   -5.782992113381624E-3  -1.740815700031817E-3  
 2.354000000000000E10   -1.146900118328631E-3   5.925664678215981E-3  
 2.356000000000000E10    5.915710236877203E-3   6.429612985812128E-4  
 2.358000000000000E10   -8.545551099814475E-5  -6.327613722532988E-3  
 2.360000000000000E10   -6.014706566929817E-3   5.335584282875061E-4  
 2.362000000000000E10    1.549026928842068E-3   5.900988355278969E-3  
 2.364000000000000E10    5.367530044168234E-3  -1.670671394094825E-3  
 2.366000000000000E10   -2.391234040260315E-3  -5.050053354352713E-3  
 2.368000000000000E10   -4.438783973455429E-3   2.936597215011716E-3  
 2.370000000000000E10    2.848001895472407E-3   4.110267851501703E-3  
 2.372000000000000E10    3.818819765001535E-3  -3.525114152580500E-3  
 2.374000000000000E10   -4.054609686136246E-3  -2.921312814578414E-3  
 2.376000000000000E10   -3.256722353398800E-3   4.784997552633286E-3  
 2.378000000000000E10    5.089757964015007E-3   1.832523965276778E-3  
 2.380000000000000E10    1.158525003120303E-3  -5.560740362852812E-3  
 2.382000000000000E10   -5.934393033385277E-3   8.012804755708203E-5  
 2.384000000000000E10    9.298889781348407E-4   5.672196391969919E-3  
 2.386000000000000E10    5.723125301301479E-3  -1.412422163411975E-3  
 2.388000000000000E10   -2.018416533246636E-3  -5.797687452286482E-3  
 2.390000000000000E10   -5.938656162470579E-3   3.207603702321649E-3  
 2.392000000000000E10    3.468303475528956E-3   5.301609169691801E-3  
 2.394000000000000E10    4.829381592571735E-3  -4.071391653269529E-3  
 2.396000000000000E10   -4.248872399330139E-3  -4.419128876179457E-3  
 2.398000000000000E10   -3.611627267673612E-3   4.838112276047468E-3  
 2.400000000000000E10    5.340141244232655E-3   3.052834887057543E-3  
 2.402000000000000E10    1.822771271690726E-3  -5.219277925789356E-3  
 2.404000000000000E10   -5.049490835517645E-3  -1.193558215163648E-3  
 2.406000000000000E10   -8.146951440721750E-4   4.932365380227566E-3  
 2.408000000000000E10    4.930144641548395E-3   5.765294190496206E-4  
 2.410000000000000E10   -6.878664135001600E-4  -4.711014684289694E-3  
 2.412000000000000E10   -4.312295001000166E-3   8.807827252894640E-4  
 2.414000000000000E10    1.602374482899904E-3   3.969499375671148E-3  
 2.416000000000000E10    4.591514822095633E-3  -2.268381882458925E-3  
 2.418000000000000E10   -2.867315197363496E-3  -3.834007307887077E-3  
 2.420000000000000E10   -3.365869866684079E-3   3.204916138201952E-3  
 2.422000000000000E10    3.599920775741339E-3   3.441126784309745E-3  
 2.424000000000000E10    2.965033985674381E-3  -4.206001292914152E-3  
 2.426000000000000E10   -4.749125335365534E-3  -2.512208884581924E-3  
 2.428000000000000E10   -2.367889275774360E-3   4.674355499446392E-3  
 2.430000000000000E10    5.473182071000338E-3   2.255266765132546E-3  
 2.432000000000000E10    1.888100290670991E-3  -5.965950433164835E-3  
 2.434000000000000E10   -5.779922939836979E-3  -1.486493623815477E-3  
 2.436000000000000E10   -4.190404433757067E-4   6.114543415606022E-3  
 2.438000000000000E10    6.139134056866169E-3   3.349826511112042E-5  
 2.440000000000000E10   -2.726170641835779E-4  -5.586938932538033E-3  
 2.442000000000000E10   -5.703693255782127E-3   9.063882753252983E-4  
 2.444000000000000E10    1.675932900980115E-3   5.395965185016394E-3  
 2.446000000000000E10    5.004791542887688E-3  -2.175408182665706E-3  
 2.448000000000000E10   -2.554019913077354E-3  -4.419970791786909E-3  
 2.450000000000000E10   -3.634639550000429E-3   3.100890200585127E-3  
 2.452000000000000E10    3.951214253902435E-3   3.320993157103658E-3  
 2.454000000000000E10    2.636337419971824E-3  -4.118760116398335E-3  
 2.456000000000000E10   -4.279737360775471E-3  -1.774932723492384E-3  
 2.458000000000000E10   -1.340663409791887E-3   5.269688088446856E-3  
 2.460000000000000E10    5.504804197698832E-3   6.481324671767652E-4  
 2.462000000000000E10   -3.346256562508643E-4  -5.579255986958742E-3  
 2.464000000000000E10   -5.182708613574505E-3   1.051929430104792E-3  
 2.466000000000000E10    1.335275243036449E-3   5.664682947099209E-3  
 2.468000000000000E10    5.520324222743511E-3  -1.943962066434324E-3  
 2.470000000000000E10   -3.106627147644758E-3  -5.182473454624414E-3  
 2.472000000000000E10   -4.606481175869703E-3   2.944074803963304E-3  
 2.474000000000000E10    3.454080317169428E-3   4.794384352862835E-3  
 2.476000000000000E10    4.332926124334335E-3  -3.746057860553265E-3  
 2.478000000000000E10   -3.220719052478671E-3  -3.664609510451555E-3  
 2.480000000000000E10   -3.565095597878099E-3   4.158847499638796E-3  
 2.482000000000000E10    4.036237951368094E-3   3.405213356018066E-3  
 2.484000000000000E10    2.651604823768139E-3  -4.230805672705174E-3  
 2.486000000000000E10   -4.496428184211254E-3  -1.726319082081318E-3  
 2.488000000000000E10   -9.597867028787732E-4   5.064461845904589E-3  
 2.490000000000000E10    4.305277951061726E-3   3.584049991331995E-4  
 2.492000000000000E10   -1.176179284811951E-4  -3.886214923113585E-3  
 2.494000000000000E10   -3.741782624274492E-3   5.742180510424078E-4  
 2.496000000000000E10    1.542360638268292E-3   4.250618629157543E-3  
 2.498000000000000E10    3.787322901189327E-3  -2.190032275393605E-3  
 2.500000000000000E10   -3.101715352386236E-3  -3.129276912659407E-3  
 2.502000000000000E10   -3.082188311964274E-3   3.866650396957994E-3  
 2.504000000000000E10    4.048778209835291E-3   2.226070268079639E-3  
 2.506000000000000E10    1.950098085217178E-3  -3.743394743651152E-3  
 2.508000000000000E10   -4.292427562177181E-3  -1.718008541502059E-3  
 2.510000000000000E10   -1.672506565228105E-3   4.658411722630262E-3  
 2.512000000000000E10    4.906549118459225E-3   1.453266595490277E-3  
 2.514000000000000E10    6.012602825649083E-4  -4.679816775023937E-3  
 2.516000000000000E10   -4.696401767432690E-3  -1.721276385069359E-5  
 2.518000000000000E10    3.050378581974655E-4   4.940868820995092E-3  
 2.520000000000000E10    4.218613263219595E-3  -9.595468291081488E-4  
 2.522000000000000E10   -1.040792441926897E-3  -3.865781007334590E-3  
 2.524000000000000E10   -3.699284512549639E-3   1.712547382339835E-3  
 2.526000000000000E10    1.951063983142376E-3   3.222950967028737E-3  
 2.528000000000000E10    2.748689847066999E-3  -1.567180617712438E-3  
 2.530000000000000E10   -2.635686891153455E-3  -2.434978494420648E-3  
 2.532000000000000E10   -1.758460537530482E-3   2.994161099195480E-3  
 2.534000000000000E10    2.818395849317312E-3   1.570620224811137E-3  
 2.536000000000000E10    9.144602809101343E-4  -3.394450992345810E-3  
 2.538000000000000E10   -3.752363380044699E-3  -3.572188725229353E-4  
 2.540000000000000E10   -2.394391922280192E-4   3.789235139265657E-3  
 2.542000000000000E10    3.996575716882944E-3  -7.031079730950296E-4  
 2.544000000000000E10   -5.509072798304260E-4  -3.904130076989532E-3  
 2.546000000000000E10   -4.276353865861893E-3   1.593300723470748E-3  
 2.548000000000000E10    1.919452333822846E-3   4.173390101641417E-3  
 2.550000000000000E10    3.842805279418826E-3  -1.931052654981613E-3  
 2.552000000000000E10   -2.677743090316653E-3  -3.755714744329453E-3  
 2.554000000000000E10   -3.060323419049382E-3   2.889790339395404E-3  
 2.556000000000000E10    2.530878642573953E-3   2.881513210013509E-3  
 2.558000000000000E10    2.537015592679381E-3  -2.821257803589106E-3  
 2.560000000000000E10   -2.827555639669299E-3  -2.025530673563480E-3  
 2.562000000000000E10   -1.466503250412643E-3   3.170301439240575E-3  
 2.564000000000000E10    3.130237571895123E-3   1.179120852611959E-3  
 2.566000000000000E10    3.308419254608452E-4  -3.234328236430883E-3  
 2.568000000000000E10   -3.273223759606481E-3   4.258530389051884E-4  
 2.570000000000000E10    1.026865444146097E-3   2.634557662531734E-3  
 2.572000000000000E10    2.378807635977864E-3  -1.424381625838578E-3  
 2.574000000000000E10   -1.662630354985595E-3  -2.130132401362062E-3  
 2.576000000000000E10   -2.132978057488799E-3   2.523174043744803E-3  
 2.578000000000000E10    2.641562605276704E-3   1.668375800363720E-3  
 2.580000000000000E10    1.501468359492719E-3  -3.184327157214284E-3  
 2.582000000000000E10   -3.148836083710194E-3  -9.914662223309279E-4  
 2.584000000000000E10   -7.847416563890874E-4   3.659076290205121E-3  
 2.586000000000000E10    3.764617489650846E-3  -2.625998968142085E-5  
 2.588000000000000E10   -2.351829025428742E-4  -3.331307554617524E-3  
 2.590000000000000E10   -3.012618282809854E-3   1.103342128772056E-5  
 2.592000000000000E10    4.911138676106930E-4   3.191282507032156E-3  
 2.594000000000000E10    3.470795694738627E-3  -5.671998951584101E-4  
 2.596000000000000E10   -8.759399061091244E-4  -2.735964721068740E-3  
 2.598000000000000E10   -2.633057534694672E-3   9.952685795724392E-4  
 2.600000000000000E10    1.208954839967191E-3   2.330754883587360E-3  
 2.602000000000000E10    2.001163549721241E-3  -1.465888228267431E-3  
 2.604000000000000E10   -1.152487588115037E-3  -1.515648327767849E-3  
 2.606000000000000E10   -1.297283684834838E-3   1.837435062043369E-3  
 2.608000000000000E10    2.194400411099196E-3   6.759306415915489E-4  
 2.610000000000000E10    8.404038380831480E-4  -2.071181312203407E-3  
 2.612000000000000E10   -2.322193933650851E-3  -5.580189463216811E-5  
 2.614000000000000E10    3.194015298504382E-4   2.395037561655045E-3  
 2.616000000000000E10    2.643697662279010E-3  -2.278463798575103E-4  
 2.618000000000000E10   -9.656117181293666E-4  -2.386685227975249E-3  
 2.620000000000000E10   -2.255171537399292E-3   9.858208941295743E-4  
 2.622000000000000E10    1.432182150892913E-3   2.138411859050393E-3  
 2.624000000000000E10    2.270140917971730E-3  -1.564693287946284E-3  
 2.626000000000000E10   -1.296905567869544E-3  -1.967479707673192E-3  
 2.628000000000000E10   -1.526656211353838E-3   1.631600316613913E-3  
 2.630000000000000E10    1.700614113360643E-3   1.110317185521126E-3  
 2.632000000000000E10    1.102179288864136E-3  -1.414835569448769E-3  
 2.634000000000000E10   -1.323437201790512E-3  -4.815981374122202E-4  
 2.636000000000000E10   -4.008225223515183E-4   1.074741710908711E-3  
 2.638000000000000E10    1.116591272875667E-3  -4.628650640370324E-5  
 2.640000000000000E10   -9.273212344851345E-5  -1.125428010709584E-3  
 2.642000000000000E10   -9.670761064626277E-4   5.728319520130754E-4  
 2.644000000000000E10    8.995090611279011E-4   8.938662358559668E-4  
 2.646000000000000E10    6.248941645026207E-4  -9.882749291136861E-4  
 2.648000000000000E10   -1.078328466974199E-3  -5.434747436083853E-4  
 2.650000000000000E10   -4.442500066943467E-4   1.542881596833468E-3  
 2.652000000000000E10    1.552926260046661E-3   5.811349838040769E-4  
 2.654000000000000E10    4.576645442284644E-4  -1.506425673142076E-3  
 2.656000000000000E10   -1.642125658690929E-3  -6.636341568082571E-4  
 2.658000000000000E10   -5.671487888321281E-4   1.716165803372860E-3  
 2.660000000000000E10    1.713699661195278E-3   4.338529251981527E-4  
 2.662000000000000E10    9.007559274323285E-4  -1.493294257670641E-3  
 2.664000000000000E10   -1.624282565899193E-3  -8.800643845461309E-4  
 2.666000000000000E10   -8.142460137605667E-4   1.949491794221103E-3  
 2.668000000000000E10    1.512636197730899E-3   6.725188577547669E-4  
 2.670000000000000E10    5.814098403789103E-4  -1.433590310625732E-3  
 2.672000000000000E10   -1.569409272633493E-3  -4.940089420415461E-4  
 2.674000000000000E10   -3.646227996796370E-4   9.299318189732730E-4  
 2.676000000000000E10    8.742474019527435E-4   3.060030576307327E-4  
 2.678000000000000E10    8.164624887285754E-5  -7.258759578689933E-4  
 2.680000000000000E10   -1.480042992625386E-4   1.735577461658977E-5  
 2.682000000000000E10    2.833151374943554E-4   5.209931623539887E-5  
 2.684000000000000E10   -2.958660188596696E-4   2.408416621619836E-4  
 2.686000000000000E10   -4.773399850819260E-4   5.849025910720229E-4  
 2.688000000000000E10    3.695759514812380E-4   6.488093058578670E-4  
 2.690000000000000E10    6.825083401054144E-4  -5.665532662533224E-4  
 2.692000000000000E10   -8.065260481089354E-4  -6.748980958946049E-4  
 2.694000000000000E10   -1.470775925554335E-3   6.886450573801994E-4  
 2.696000000000000E10    9.805582230910659E-4   1.313590328209102E-3  
 2.698000000000000E10    1.110454439185560E-3  -1.055705128237605E-3  
 2.700000000000000E10   -1.080536050722003E-3  -9.566671797074378E-4  
 2.702000000000000E10   -1.373585080727935E-3   8.350095013156533E-4  
 2.704000000000000E10    6.925790221430361E-4   1.454384764656425E-3  
 2.706000000000000E10    1.194266136735678E-3  -5.002042744308710E-4  
 2.708000000000000E10   -2.755545428954065E-4  -1.106743235141039E-3  
 2.710000000000000E10   -1.420961110852659E-3   1.810295216273516E-4  
 2.712000000000000E10    2.048186725005508E-4   1.301971497014165E-3  
 2.714000000000000E10    8.943391731008887E-4   3.769856994040310E-5  
 2.716000000000000E10   -2.148916973965243E-4  -7.344284676946700E-4  
 2.718000000000000E10   -5.584930186159909E-4  -3.650956205092371E-5  
 2.720000000000000E10   -1.737147249514237E-4   3.403712180443108E-4  
 2.722000000000000E10    1.793233786884230E-5  -9.383297583553940E-5  
 2.724000000000000E10    7.189063762780279E-5   7.639359682798386E-5  
 2.726000000000000E10    3.606164245866239E-4  -2.697207673918456E-5  
 2.728000000000000E10   -1.894486777018756E-4  -4.803161718882620E-4  
 2.730000000000000E10   -7.157763466238976E-4   1.799358578864485E-4  
 2.732000000000000E10   -2.003002300625667E-4   1.248236512765288E-3  
 2.734000000000000E10    1.282798941247165E-3   2.685676190594677E-5  
 2.736000000000000E10    1.161625114036724E-4  -1.264360849745572E-3  
 2.738000000000000E10   -1.579309348016977E-3  -5.512942152563483E-5  
 2.740000000000000E10   -2.193433829233982E-5   1.234311377629638E-3  
 2.742000000000000E10    1.053568208590150E-3   2.691884292289615E-4  
 2.744000000000000E10    2.380709338467568E-4  -1.101602218113840E-3  
 2.746000000000000E10   -7.792124524712563E-4  -5.129328346811235E-4  
 2.748000000000000E10   -7.536368793807924E-4   6.160574848763645E-4  
 2.750000000000000E10    4.549320728983730E-4   7.887642132118344E-4  
 2.752000000000000E10    5.732896388508380E-4  -2.868632727768272E-4  
 2.754000000000000E10   -9.674502507550642E-5  -1.034025452099741E-3  
 2.756000000000000E10   -9.488629875704646E-4  -4.483345765038393E-5  
