#  HZ   S   RI   R     50.00 
! Rohde & Schwarz ZVA40 4Ports - Version 3.90 - 1145.1110k42 SN: 100403
! Date: 2023-10-04 10:50:13
! Measurement: S12 
! 
 2.200000000000000E10    2.383639104664326E-3  -4.137255717068911E-3  
 2.202000000000000E10   -4.617459606379271E-3  -1.997345359995961E-3  
 2.204000000000000E10   -1.439483370631933E-3   4.809708800166845E-3  
 2.206000000000000E10    5.783238448202610E-3   1.253965310752392E-4  
 2.208000000000000E10   -8.736773161217570E-4  -5.459113046526909E-3  
 2.210000000000000E10   -4.916209727525711E-3   1.845919992774725E-3  
 2.212000000000000E10    2.919850405305624E-3   4.731545224785805E-3  
 2.214000000000000E10    4.182390403002501E-3  -4.074406810104847E-3  
 2.216000000000000E10   -4.678631667047739E-3  -2.659569261595607E-3  
 2.218000000000000E10   -2.097834600135684E-3   4.960091318935156E-3  
 2.220000000000000E10    4.682431928813458E-3   1.467805705033243E-3  
 2.222000000000000E10    4.014271835330874E-4  -4.876415245234966E-3  
 2.224000000000000E10   -4.237683024257422E-3   3.200909995939583E-4  
 2.226000000000000E10    7.923598168417811E-4   3.887462662532926E-3  
 2.228000000000000E10    3.557438729330897E-3  -1.086832606233656E-3  
 2.230000000000000E10   -1.045689918100834E-3  -2.961672842502594E-3  
 2.232000000000000E10   -2.243983792141080E-3   1.818844932131469E-3  
 2.234000000000000E10    1.447974587790668E-3   1.840016571804881E-3  
 2.236000000000000E10    1.719614141620696E-3  -1.482893596403301E-3  
 2.238000000000000E10   -8.851547609083355E-4  -7.195544894784689E-4  
 2.240000000000000E10   -7.521262741647661E-4   5.759824998676777E-4  
 2.242000000000000E10    6.235084147192538E-4   8.802939555607736E-4  
 2.244000000000000E10    4.334917175583541E-4  -1.743620814522728E-4  
 2.246000000000000E10    3.035984409507364E-4  -9.396013338118792E-4  
 2.248000000000000E10   -8.407787536270917E-4  -8.055201760726050E-5  
 2.250000000000000E10    2.843399997800589E-4   9.525984060019255E-4  
 2.252000000000000E10    1.097920350730419E-3  -1.087751807062887E-4  
 2.254000000000000E10   -1.264317834284157E-4  -9.037416893988848E-4  
 2.256000000000000E10   -1.041572773829103E-3   3.521173493936658E-4  
 2.258000000000000E10    9.079009178094566E-4   1.132995821535587E-3  
 2.260000000000000E10    1.229248475283384E-3  -4.956136108376086E-4  
 2.262000000000000E10   -1.350983628071845E-3  -1.491527305915952E-3  
 2.264000000000000E10   -1.439676620066166E-3   1.946761272847652E-3  
 2.266000000000000E10    2.374924952164292E-3   1.149551826529205E-3  
 2.268000000000000E10    1.403831061907113E-3  -2.712260000407696E-3  
 2.270000000000000E10   -2.723988145589829E-3  -7.707854383625090E-4  
 2.272000000000000E10   -6.826530443504453E-4   3.638221649453044E-3  
 2.274000000000000E10    3.182767890393734E-3   4.502101510297507E-4  
 2.276000000000000E10    2.841109235305339E-4  -3.230474889278412E-3  
 2.278000000000000E10   -3.754138015210629E-3   2.867145667551085E-5  
 2.280000000000000E10    7.636562804691494E-4   4.094077739864588E-3  
 2.282000000000000E10    2.993223955854774E-3   1.813319860957563E-3  
 2.284000000000000E10   -9.499163716100156E-4  -3.553389338776469E-3  
 2.286000000000000E10   -3.780029015615583E-3   1.403584377840161E-3  
 2.288000000000000E10    1.763044390827417E-3   3.769593080505729E-3  
 2.290000000000000E10    3.508866298943758E-3  -1.550461980514228E-3  
 2.292000000000000E10   -2.118015661835671E-3  -3.236140124499798E-3  
 2.294000000000000E10   -3.054618369787931E-3   2.703721635043621E-3  
 2.296000000000000E10    3.373114159330726E-3   2.617941703647375E-3  
 2.298000000000000E10    2.127832733094692E-3  -3.484338289126754E-3  
 2.300000000000000E10   -4.106820560991764E-3  -1.411293633282185E-3  
 2.302000000000000E10   -6.285416311584413E-4   4.643947351723909E-3  
 2.304000000000000E10    4.624423570930958E-3   2.423444357191329E-6  
 2.306000000000000E10   -7.855041767470539E-4  -4.659138154238462E-3  
 2.308000000000000E10   -4.883972927927971E-3   1.555978669784963E-3  
 2.310000000000000E10    1.958353444933891E-3   4.950356669723988E-3  
 2.312000000000000E10    5.022982135415077E-3  -2.420125994831324E-3  
 2.314000000000000E10   -3.416046267375350E-3  -4.903305787593126E-3  
 2.316000000000000E10   -4.340566694736481E-3   4.680252168327570E-3  
 2.318000000000000E10    5.141856614500284E-3   3.822335274890065E-3  
 2.320000000000000E10    2.713371766731143E-3  -5.413379054516554E-3  
 2.322000000000000E10   -5.190610419958830E-3  -1.611479558050633E-3  
 2.324000000000000E10   -1.666587777435780E-3   6.095203105360270E-3  
 2.326000000000000E10    5.884203128516674E-3   6.163971847854555E-4  
 2.328000000000000E10    1.226935564773157E-4  -5.627335049211979E-3  
 2.330000000000000E10   -5.099584814161062E-3   1.039041671901941E-3  
 2.332000000000000E10    1.677799387834966E-3   5.440054461359978E-3  
 2.334000000000000E10    4.697138909250498E-3  -1.976952422410250E-3  
 2.336000000000000E10   -3.334491280838847E-3  -4.108611494302750E-3  
 2.338000000000000E10   -3.662830218672752E-3   3.491461975499988E-3  
 2.340000000000000E10    3.682977287098765E-3   3.718160092830658E-3  
 2.342000000000000E10    3.410706296563149E-3  -4.350581206381321E-3  
 2.344000000000000E10   -5.134249571710825E-3  -2.411852357909083E-3  
 2.346000000000000E10   -1.923286006785929E-3   5.078714806586504E-3  
 2.348000000000000E10    5.366371013224125E-3   1.792071620002389E-3  
 2.350000000000000E10    1.085064373910427E-3  -5.600322503596544E-3  
 2.352000000000000E10   -5.815567914396524E-3  -3.099343157373369E-4  
 2.354000000000000E10   -3.943011688534170E-4   6.216342095285654E-3  
 2.356000000000000E10    5.835834424942732E-3  -3.846017061732709E-4  
 2.358000000000000E10   -1.173982396721840E-3  -6.112853530794382E-3  
 2.360000000000000E10   -5.741944070905447E-3   2.172778127714992E-3  
 2.362000000000000E10    2.218781737610698E-3   5.348031409084797E-3  
 2.364000000000000E10    5.228786729276180E-3  -3.213923657312989E-3  
 2.366000000000000E10   -3.910937346518040E-3  -3.989033866673708E-3  
 2.368000000000000E10   -3.600018098950386E-3   3.759401850402355E-3  
 2.370000000000000E10    4.134947899729013E-3   3.387616714462638E-3  
 2.372000000000000E10    2.618668368086219E-3  -4.782971926033497E-3  
 2.374000000000000E10   -4.852646961808205E-3  -1.618547248654068E-3  
 2.376000000000000E10   -9.176101884804666E-4   5.586192011833191E-3  
 2.378000000000000E10    5.493000615388155E-3  -3.086709184572101E-4  
 2.380000000000000E10   -9.781516855582595E-4  -5.590228363871574E-3  
 2.382000000000000E10   -5.187689792364836E-3   2.450702479109168E-3  
 2.384000000000000E10    2.571514109149575E-3   4.878985229879618E-3  
 2.386000000000000E10    4.808341152966023E-3  -3.019385971128941E-3  
 2.388000000000000E10   -3.958385437726975E-3  -4.358091391623020E-3  
 2.390000000000000E10   -4.070810507982969E-3   4.355663899332285E-3  
 2.392000000000000E10    4.577289335429668E-3   3.608966944739223E-3  
 2.394000000000000E10    3.377124667167664E-3  -4.794711247086525E-3  
 2.396000000000000E10   -5.403206683695316E-3  -3.003458026796579E-3  
 2.398000000000000E10   -2.300754422321916E-3   5.619560834020376E-3  
 2.400000000000000E10    5.170915741473436E-3   1.739193685352802E-3  
 2.402000000000000E10    7.783705368638039E-4  -5.442313849925995E-3  
 2.404000000000000E10   -5.710996221750975E-3   5.263321872917004E-5  
 2.406000000000000E10    4.435733717400581E-4   5.175578873604536E-3  
 2.408000000000000E10    5.124549381434917E-3  -1.228025881573558E-3  
 2.410000000000000E10   -1.586704165674746E-3  -4.970904439687729E-3  
 2.412000000000000E10   -4.233615007251501E-3   1.996780047193170E-3  
 2.414000000000000E10    2.565959934145212E-3   4.083921201527119E-3  
 2.416000000000000E10    4.125688690692186E-3  -2.871992066502571E-3  
 2.418000000000000E10   -4.033764358609915E-3  -3.254249226301909E-3  
 2.420000000000000E10   -2.508309902623296E-3   4.450162872672081E-3  
 2.422000000000000E10    4.492725245654583E-3   2.315972000360489E-3  
 2.424000000000000E10    1.804830157198012E-3  -4.777704831212759E-3  
 2.426000000000000E10   -5.178963765501976E-3  -1.831528963521123E-3  
 2.428000000000000E10   -1.074885018169880E-3   5.682372953742743E-3  
 2.430000000000000E10    5.895986221730709E-3   3.667736309580505E-4  
 2.432000000000000E10    3.924499833374284E-5  -5.939948372542858E-3  
 2.434000000000000E10   -6.046053022146225E-3   8.138300618156791E-4  
 2.436000000000000E10    1.678457134403288E-3   5.657242611050606E-3  
 2.438000000000000E10    5.515040829777718E-3  -1.702133100479841E-3  
 2.440000000000000E10   -2.172332024201751E-3  -4.904281813651323E-3  
 2.442000000000000E10   -4.770520608872175E-3   2.547534182667732E-3  
 2.444000000000000E10    3.336471039801836E-3   4.329720977693796E-3  
 2.446000000000000E10    3.615558613091707E-3  -2.962801139801741E-3  
 2.448000000000000E10   -3.394981147721410E-3  -3.095556283369660E-3  
 2.450000000000000E10   -2.440297277644277E-3   4.206060431897640E-3  
 2.452000000000000E10    3.958055749535561E-3   1.918879803270102E-3  
 2.454000000000000E10    1.613126718439162E-3  -4.189757630228996E-3  
 2.456000000000000E10   -4.349096678197384E-3  -8.519452530890703E-4  
 2.458000000000000E10    5.690688340109773E-5   4.984959028661251E-3  
 2.460000000000000E10    5.026515107601881E-3  -4.023009678348899E-4  
 2.462000000000000E10   -9.676266927272081E-4  -5.007439758628607E-3  
 2.464000000000000E10   -5.163859575986862E-3   1.816927688196302E-3  
 2.466000000000000E10    2.504025585949421E-3   5.128553137183189E-3  
 2.468000000000000E10    4.761691670864821E-3  -3.071662271395326E-3  
 2.470000000000000E10   -3.516557859256864E-3  -4.691204521805048E-3  
 2.472000000000000E10   -3.874406684190035E-3   4.233235027641058E-3  
 2.474000000000000E10    4.280064254999161E-3   3.813924500718713E-3  
 2.476000000000000E10    3.417172469198704E-3  -4.680131096392870E-3  
 2.478000000000000E10   -4.594280850142241E-3  -2.618155907839537E-3  
 2.480000000000000E10   -2.450155094265938E-3   5.167702678591013E-3  
 2.482000000000000E10    4.823714029043913E-3   1.862499397248030E-3  
 2.484000000000000E10    1.061693998053670E-3  -4.814644809812307E-3  
 2.486000000000000E10   -4.850581288337708E-3   1.410908444086090E-4  
 2.488000000000000E10    7.954257889650762E-4   4.697862081229687E-3  
 2.490000000000000E10    3.783979685977101E-3  -1.418719417415559E-3  
 2.492000000000000E10   -1.672821235843003E-3  -3.509430913254619E-3  
 2.494000000000000E10   -3.229238092899323E-3   2.742923330515623E-3  
 2.496000000000000E10    3.405836410820484E-3   3.274277551099658E-3  
 2.498000000000000E10    2.319294260814786E-3  -3.678579349070787E-3  
 2.500000000000000E10   -4.128466360270977E-3  -1.248385175131261E-3  
 2.502000000000000E10   -1.313620130531490E-3   4.503625910729170E-3  
 2.504000000000000E10    4.649190232157707E-3   6.241403752937913E-4  
 2.506000000000000E10    1.986980205401778E-4  -4.423415753990412E-3  
 2.508000000000000E10   -4.315350670367479E-3   8.049701864365488E-5  
 2.510000000000000E10   -8.375308971153572E-5   4.625014960765839E-3  
 2.512000000000000E10    5.269224755465984E-3  -1.737947604851797E-4  
 2.514000000000000E10   -9.482227615080774E-4  -4.506949800997973E-3  
 2.516000000000000E10   -4.021785687655211E-3   1.323320087976754E-3  
 2.518000000000000E10    9.724293486215174E-4   4.563978873193264E-3  
 2.520000000000000E10    3.862916724756360E-3  -1.353785512037575E-3  
 2.522000000000000E10   -1.885115751065314E-3  -3.459045896306634E-3  
 2.524000000000000E10   -3.448891453444958E-3   1.851388486102223E-3  
 2.526000000000000E10    2.179125789552927E-3   3.305417252704501E-3  
 2.528000000000000E10    2.803953364491463E-3  -2.483303891494870E-3  
 2.530000000000000E10   -3.080682363361120E-3  -1.876046299003065E-3  
 2.532000000000000E10   -1.550158602185547E-3   3.176952246576548E-3  
 2.534000000000000E10    3.457061713561416E-3   1.210240880027413E-3  
 2.536000000000000E10    8.808077109279111E-5  -3.475591074675322E-3  
 2.538000000000000E10   -3.225129097700119E-3   6.606016540899873E-4  
 2.540000000000000E10    8.473898051306605E-4   3.590467618778348E-3  
 2.542000000000000E10    3.316237591207027E-3  -1.921365270391107E-3  
 2.544000000000000E10   -2.235564868897200E-3  -2.760468283668160E-3  
 2.546000000000000E10   -2.714315196499229E-3   2.410467946901918E-3  
 2.548000000000000E10    2.830531448125839E-3   2.639775862917304E-3  
 2.550000000000000E10    2.385518979281187E-3  -3.148925956338644E-3  
 2.552000000000000E10   -3.428039839491248E-3  -1.693108701147139E-3  
 2.554000000000000E10   -1.455234945751727E-3   3.006083192303777E-3  
 2.556000000000000E10    3.034650115296245E-3   1.498287310823798E-3  
 2.558000000000000E10    8.922525448724628E-4  -3.387581324204803E-3  
 2.560000000000000E10   -3.034877590835095E-3  -3.638250636868179E-4  
 2.562000000000000E10   -2.796921762637794E-5   2.764628967270255E-3  
 2.564000000000000E10    2.729501342400909E-3  -3.772271447815001E-4  
 2.566000000000000E10   -7.467163959518075E-4  -2.524648560211062E-3  
 2.568000000000000E10   -2.519048051908612E-3   1.307093771174550E-3  
 2.570000000000000E10    1.667035277932882E-3   1.873979461379349E-3  
 2.572000000000000E10    1.430163159966469E-3  -1.689474796876311E-3  
 2.574000000000000E10   -2.056653844192624E-3  -1.427075476385653E-3  
 2.576000000000000E10   -1.193221309222281E-3   2.594113117083907E-3  
 2.578000000000000E10    2.958329161629081E-3   9.384766453877091E-4  
 2.580000000000000E10    4.074071475770325E-4  -3.363836556673050E-3  
 2.582000000000000E10   -3.628539852797985E-3   1.465112654841505E-5  
 2.584000000000000E10    4.013996513094753E-4   3.421219997107983E-3  
 2.586000000000000E10    3.343365387991071E-3  -8.902667323127389E-4  
 2.588000000000000E10   -8.971674833446741E-4  -3.363477298989892E-3  
 2.590000000000000E10   -2.938390010967851E-3   8.031685138121247E-4  
 2.592000000000000E10    1.086654374375939E-3   2.772560808807612E-3  
 2.594000000000000E10    3.069738391786814E-3  -1.401084708049893E-3  
 2.596000000000000E10   -1.455519348382950E-3  -2.741866977885366E-3  
 2.598000000000000E10   -2.081756712868810E-3   1.590596046298742E-3  
 2.600000000000000E10    1.795541611500084E-3   1.926797209307551E-3  
 2.602000000000000E10    1.791549148038030E-3  -1.851953798905015E-3  
 2.604000000000000E10   -1.743740052916110E-3  -1.228515640832484E-3  
 2.606000000000000E10   -7.954816101118922E-4   1.942180562764406E-3  
 2.608000000000000E10    1.826493884436786E-3   1.547922147437930E-4  
 2.610000000000000E10   -2.091514470521361E-4  -1.804483705200255E-3  
 2.612000000000000E10   -1.691074576228857E-3   6.640672800131142E-4  
 2.614000000000000E10    1.044617616571486E-3   1.640630653128028E-3  
 2.616000000000000E10    1.653915620408952E-3  -1.442382112145424E-3  
 2.618000000000000E10   -1.593884779140353E-3  -1.450808020308614E-3  
 2.620000000000000E10   -1.146088121458888E-3   1.740361913107336E-3  
 2.622000000000000E10    2.005237154662609E-3   1.198542187921703E-3  
 2.624000000000000E10    9.730867459438741E-4  -1.920720213092864E-3  
 2.626000000000000E10   -1.845522434450686E-3  -7.962606614455581E-4  
 2.628000000000000E10   -4.620812542270869E-4   2.187635516747832E-3  
 2.630000000000000E10    1.619601971469820E-3   6.078635342419148E-4  
 2.632000000000000E10    5.403810064308345E-4  -1.915398286655545E-3  
 2.634000000000000E10   -1.793575123883784E-3  -3.067271900363267E-4  
 2.636000000000000E10   -2.850119490176439E-4   1.616322435438633E-3  
 2.638000000000000E10    1.328220940195024E-3  -3.290740423835814E-4  
 2.640000000000000E10    2.102466096403077E-4  -1.218700315803289E-3  
 2.642000000000000E10   -1.201900071464479E-3   4.295914841350168E-4  
 2.644000000000000E10    7.818671874701977E-4   6.946882931515575E-4  
 2.646000000000000E10    7.836388540454209E-4  -5.962413852103055E-4  
 2.648000000000000E10   -7.018375326879323E-4  -4.660098056774586E-4  
 2.650000000000000E10   -2.167689526686445E-4   1.206470071338117E-3  
 2.652000000000000E10    9.127534576691687E-4   4.513622843660414E-4  
 2.654000000000000E10    5.679107925971039E-5  -1.237004878930748E-3  
 2.656000000000000E10   -1.563539030030370E-3   1.553204056108370E-4  
 2.658000000000000E10    2.541611902415752E-4   1.345158787444234E-3  
 2.660000000000000E10    1.359874615445733E-3  -1.410610275343061E-4  
 2.662000000000000E10    9.657862392487004E-6  -1.307621365413070E-3  
 2.664000000000000E10   -1.457993639633060E-3   6.282819085754454E-4  
 2.666000000000000E10    4.329193325247616E-4   1.378825516439974E-3  
 2.668000000000000E10    1.098026754334569E-3   5.206281639402732E-5  
 2.670000000000000E10   -2.704216167330742E-4  -1.059797359630466E-3  
 2.672000000000000E10   -1.321195508353412E-3   3.489895025268197E-4  
 2.674000000000000E10   -1.870929700089619E-4   5.252457922324538E-4  
 2.676000000000000E10    8.714736322872341E-4   2.822224632836878E-4  
 2.678000000000000E10   -5.636688001686707E-5  -8.479589014314115E-4  
 2.680000000000000E10   -1.610001636436209E-4  -1.818790769902989E-4  
 2.682000000000000E10   -2.369078574702144E-4   1.244206068804488E-4  
 2.684000000000000E10    1.827503001550213E-4   2.565419708844274E-4  
 2.686000000000000E10   -2.244129282189533E-4   2.877602819353342E-4  
 2.688000000000000E10    3.494526608847082E-4   2.372555318288505E-4  
 2.690000000000000E10   -1.329870137851685E-4  -5.194999394007027E-4  
 2.692000000000000E10   -4.132727044634521E-4  -2.932219067588449E-4  
 2.694000000000000E10   -5.698860622942448E-4   7.055244641378522E-4  
 2.696000000000000E10    9.193233563564718E-4   4.895877791568637E-4  
 2.698000000000000E10    7.643808494322002E-4  -8.527971222065389E-4  
 2.700000000000000E10   -1.035710563883185E-3  -8.497879607602954E-4  
 2.702000000000000E10   -1.255698036402464E-3   1.026888377964497E-3  
 2.704000000000000E10    6.326535367406905E-4   1.291021239012480E-3  
 2.706000000000000E10    1.223125378601253E-3  -1.189324306324124E-3  
 2.708000000000000E10   -9.012520313262940E-4  -1.251873793080449E-3  
 2.710000000000000E10   -1.619239570572972E-3   9.819036349654198E-4  
 2.712000000000000E10    3.971655096393079E-4   1.395694562233985E-3  
 2.714000000000000E10    1.418234547600150E-3  -7.316978881135583E-4  
 2.716000000000000E10   -5.924475262872875E-4  -1.224517822265625E-3  
 2.718000000000000E10   -9.399179834872484E-4   3.996868035756052E-4  
 2.720000000000000E10   -5.398211578722112E-5   9.839144768193364E-4  
 2.722000000000000E10    1.057533547282219E-3  -4.443611396709457E-5  
 2.724000000000000E10   -1.647229801164940E-4  -6.532278493978083E-4  
 2.726000000000000E10    1.193093248730293E-5   1.893775333883241E-6  
 2.728000000000000E10   -4.875708837062120E-4  -1.662989598116837E-5  
 2.730000000000000E10   -4.518338828347623E-4   6.949911767151207E-5  
 2.732000000000000E10    9.978489833883941E-5   7.557469070889056E-4  
 2.734000000000000E10    8.691932889632881E-4  -3.914984117727727E-4  
 2.736000000000000E10   -5.762832006439567E-4  -1.230678986757994E-3  
 2.738000000000000E10   -1.432587159797549E-3   5.014060297980905E-4  
 2.740000000000000E10    1.292607194045559E-4   1.078614732250571E-3  
 2.742000000000000E10    1.669338904321194E-3  -1.313543907599524E-4  
 2.744000000000000E10   -2.713228459469974E-4  -1.667379750870168E-3  
 2.746000000000000E10   -1.701744040474296E-3   3.860238939523697E-5  
 2.748000000000000E10   -4.154422495048493E-4   1.322751981206238E-3  
 2.750000000000000E10    1.458798651583493E-3   4.818959860131145E-4  
 2.752000000000000E10    3.677286440506578E-4  -1.884671975858510E-3  
 2.754000000000000E10   -1.449106261134148E-3  -4.073536547366530E-4  
 2.756000000000000E10   -6.159949698485434E-4   9.511523530818522E-4  
