#  HZ   S   RI   R     50.00 
! Rohde & Schwarz ZVA40 4Ports - Version 3.90 - 1145.1110k42 SN: 100403
! Date: 2023-10-04 10:50:31
! Measurement: S12 
! 
 2.200000000000000E10    2.001257613301277E-3  -4.292530473321676E-3  
 2.202000000000000E10   -4.613937810063362E-3  -1.657643006183207E-3  
 2.204000000000000E10   -1.017946866340935E-3   4.689878784120083E-3  
 2.206000000000000E10    5.210986360907555E-3  -1.298242132179439E-4  
 2.208000000000000E10   -1.041258801706135E-3  -5.129730794578791E-3  
 2.210000000000000E10   -4.733343143016100E-3   1.897777547128499E-3  
 2.212000000000000E10    2.576880156993866E-3   4.163404926657677E-3  
 2.214000000000000E10    3.870508400723338E-3  -3.374128136783838E-3  
 2.216000000000000E10   -3.814613679423928E-3  -3.170162672176957E-3  
 2.218000000000000E10   -1.974259270355105E-3   3.911349456757307E-3  
 2.220000000000000E10    4.254645667970181E-3   1.908999402076006E-3  
 2.222000000000000E10    9.372436325065792E-4  -4.134775139391422E-3  
 2.224000000000000E10   -3.831660607829690E-3  -1.981306413654238E-4  
 2.226000000000000E10    1.849287655204535E-4   3.487393260002136E-3  
 2.228000000000000E10    3.192929551005364E-3  -5.708647076971829E-4  
 2.230000000000000E10   -1.085349824279547E-3  -2.535433275625110E-3  
 2.232000000000000E10   -2.397238044068217E-3   1.013459754176438E-3  
 2.234000000000000E10    1.236457028426230E-3   1.722258515655994E-3  
 2.236000000000000E10    1.553788897581399E-3  -1.445731264539063E-3  
 2.238000000000000E10   -1.714310375973582E-3  -1.488512381911278E-3  
 2.240000000000000E10   -7.624817662872374E-4   1.605703495442867E-3  
 2.242000000000000E10    1.386370975524187E-3   6.085683708079159E-4  
 2.244000000000000E10    7.742785383015871E-4  -2.035340759903193E-3  
 2.246000000000000E10   -1.628952915780246E-3  -3.577423049136996E-4  
 2.248000000000000E10   -5.509505863301456E-4   1.188549678772688E-3  
 2.250000000000000E10    1.553942332975566E-3   8.053801138885319E-4  
 2.252000000000000E10    6.624844972975552E-4  -1.258327858522534E-3  
 2.254000000000000E10   -9.652446024119854E-4  -1.072295126505196E-3  
 2.256000000000000E10   -1.201665261760354E-3   8.737035677768290E-4  
 2.258000000000000E10    1.057910500094295E-3   1.686808886006475E-3  
 2.260000000000000E10    1.282596378587186E-3  -1.103675225749612E-3  
 2.262000000000000E10   -1.055888598784804E-3  -1.809683279134333E-3  
 2.264000000000000E10   -2.970559289678931E-3   1.399886677972972E-3  
 2.266000000000000E10    1.752396114170551E-3   2.075196010991931E-3  
 2.268000000000000E10    2.295658690854907E-3  -2.257501240819693E-3  
 2.270000000000000E10   -2.407550113275647E-3  -2.620409242808819E-3  
 2.272000000000000E10   -2.024119487032294E-3   2.556208986788988E-3  
 2.274000000000000E10    2.954239025712013E-3   1.666223863139749E-3  
 2.276000000000000E10    1.081723836250603E-3  -3.575296141207218E-3  
 2.278000000000000E10   -3.019611118361354E-3  -1.011440530419350E-3  
 2.280000000000000E10   -1.345749624306336E-4   3.098538843914866E-3  
 2.282000000000000E10    2.616841113194823E-3   1.393010956235230E-3  
 2.284000000000000E10   -8.109638001769781E-4  -3.828899702057242E-3  
 2.286000000000000E10   -3.197726793587208E-3   1.478326856158674E-3  
 2.288000000000000E10    2.742858836427331E-3   2.902124309912324E-3  
 2.290000000000000E10    2.680594101548195E-3  -2.852462464943528E-3  
 2.292000000000000E10   -3.688905155286193E-3  -2.612696029245853E-3  
 2.294000000000000E10   -2.114599803462625E-3   3.891528584063053E-3  
 2.296000000000000E10    4.314315039664507E-3   1.558001851662993E-3  
 2.298000000000000E10    1.443143701180816E-3  -4.433754831552506E-3  
 2.300000000000000E10   -4.859000444412231E-3  -1.260832999832928E-3  
 2.302000000000000E10   -6.147165549919009E-4   5.151929799467325E-3  
 2.304000000000000E10    5.450378637760878E-3  -6.682628736598417E-5  
 2.306000000000000E10   -2.863233967218548E-4  -5.324150435626507E-3  
 2.308000000000000E10   -5.226068198680878E-3   1.047939178533852E-3  
 2.310000000000000E10    1.293401350267232E-3   5.147755611687899E-3  
 2.312000000000000E10    5.309096537530422E-3  -2.041851636022329E-3  
 2.314000000000000E10   -2.730885287746787E-3  -5.160745233297348E-3  
 2.316000000000000E10   -4.194934386759996E-3   3.044510493054986E-3  
 2.318000000000000E10    3.839001059532166E-3   3.566913073882461E-3  
 2.320000000000000E10    3.360808128491044E-3  -3.930487204343081E-3  
 2.322000000000000E10   -4.506495315581560E-3  -2.765138633549213E-3  
 2.324000000000000E10   -1.538138021714985E-3   5.030914209783077E-3  
 2.326000000000000E10    5.013720598071814E-3   7.153726764954627E-4  
 2.328000000000000E10    1.444203226128593E-4  -5.977026652544737E-3  
 2.330000000000000E10   -5.786103196442127E-3   7.391807739622891E-4  
 2.332000000000000E10    1.956414896994829E-3   5.372117273509502E-3  
 2.334000000000000E10    5.309681873768568E-3  -2.449456369504333E-3  
 2.336000000000000E10   -2.912993077188730E-3  -5.390874110162258E-3  
 2.338000000000000E10   -4.693739581853151E-3   3.749691182747483E-3  
 2.340000000000000E10    4.837863147258759E-3   4.209623206406832E-3  
 2.342000000000000E10    4.072420299053192E-3  -4.661631770431995E-3  
 2.344000000000000E10   -5.538968835026026E-3  -3.307186532765627E-3  
 2.346000000000000E10   -2.372890245169401E-3   5.863988306373358E-3  
 2.348000000000000E10    5.722374189645052E-3   1.518792123533785E-3  
 2.350000000000000E10    1.361834001727402E-3  -5.771791562438011E-3  
 2.352000000000000E10   -5.567404441535473E-3  -2.054269862128422E-4  
 2.354000000000000E10    7.251675706356764E-4   5.227522458881140E-3  
 2.356000000000000E10    5.277192220091820E-3  -9.745650459080935E-4  
 2.358000000000000E10   -1.937910448759794E-3  -5.215586163103581E-3  
 2.360000000000000E10   -4.640757106244564E-3   2.351495670154691E-3  
 2.362000000000000E10    3.147512208670378E-3   4.191991873085499E-3  
 2.364000000000000E10    3.404842689633369E-3  -3.799490164965391E-3  
 2.366000000000000E10   -4.013258032500744E-3  -3.203338012099266E-3  
 2.368000000000000E10   -2.390461508184671E-3   4.520223010331392E-3  
 2.370000000000000E10    4.583294503390789E-3   2.226274693384767E-3  
 2.372000000000000E10    2.300510648638010E-3  -5.060579162091017E-3  
 2.374000000000000E10   -5.698890425264835E-3  -1.904005650430918E-3  
 2.376000000000000E10   -1.350133214145899E-3   6.091389339417219E-3  
 2.378000000000000E10    6.639396771788597E-3   1.047849436872639E-4  
 2.380000000000000E10   -4.010604461655021E-4  -6.427591200917959E-3  
 2.382000000000000E10   -6.152901332825422E-3   1.063223462551832E-3  
 2.384000000000000E10    1.469719805754721E-3   6.336803548038006E-3  
 2.386000000000000E10    5.736729130148888E-3  -2.556652761995792E-3  
 2.388000000000000E10   -2.687552710995078E-3  -5.572173278778791E-3  
 2.390000000000000E10   -5.158382002264261E-3   3.366785123944283E-3  
 2.392000000000000E10    3.896897891536355E-3   4.445570521056652E-3  
 2.394000000000000E10    3.831978421658278E-3  -4.438094329088926E-3  
 2.396000000000000E10   -4.723283462226391E-3  -3.112513571977615E-3  
 2.398000000000000E10   -2.258621156215668E-3   5.094629712402821E-3  
 2.400000000000000E10    5.298987030982971E-3   1.244423794560134E-3  
 2.402000000000000E10   -3.263994876760989E-4  -5.155773367732763E-3  
 2.404000000000000E10   -4.777676891535521E-3   7.257866091094911E-4  
 2.406000000000000E10    1.361378002911806E-3   4.704053979367018E-3  
 2.408000000000000E10    4.321401007473469E-3  -2.341671846807003E-3  
 2.410000000000000E10   -2.788575831800699E-3  -4.344388376921415E-3  
 2.412000000000000E10   -4.295477177947760E-3   3.095640568062663E-3  
 2.414000000000000E10    3.554562805220485E-3   3.825946711003780E-3  
 2.416000000000000E10    3.476557787507772E-3  -4.305458627641201E-3  
 2.418000000000000E10   -4.339328035712242E-3  -3.396376734599471E-3  
 2.420000000000000E10   -3.001459641382098E-3   4.144766833633184E-3  
 2.422000000000000E10    4.586572758853436E-3   2.579901134595275E-3  
 2.424000000000000E10    2.585734240710735E-3  -4.919018130749464E-3  
 2.426000000000000E10   -5.317454226315022E-3  -2.399130957201123E-3  
 2.428000000000000E10   -1.761050778441131E-3   5.149568431079388E-3  
 2.430000000000000E10    5.392650607973337E-3   1.148920156992972E-3  
 2.432000000000000E10    2.948177279904485E-4  -5.442679859697819E-3  
 2.434000000000000E10   -5.444503389298916E-3  -1.336965360678732E-4  
 2.436000000000000E10    9.993778076022863E-4   4.720866214483976E-3  
 2.438000000000000E10    4.530709702521563E-3  -1.858074450865388E-3  
 2.440000000000000E10   -1.968522323295474E-3  -4.476069472730160E-3  
 2.442000000000000E10   -3.991039935499430E-3   2.423968864604831E-3  
 2.444000000000000E10    3.246673615649343E-3   3.240906866267324E-3  
 2.446000000000000E10    3.368600970134139E-3  -3.699418623000383E-3  
 2.448000000000000E10   -4.344516433775425E-3  -3.021094715222716E-3  
 2.450000000000000E10   -2.186974277719855E-3   4.244880285114050E-3  
 2.452000000000000E10    5.148722790181637E-3   1.902043237350881E-3  
 2.454000000000000E10    1.080492977052927E-3  -5.700455978512764E-3  
 2.456000000000000E10   -5.202985368669033E-3  -7.637335802428424E-4  
 2.458000000000000E10   -2.289498952450231E-4   5.451861303299666E-3  
 2.460000000000000E10    5.577852483838797E-3  -5.472809425555170E-4  
 2.462000000000000E10   -1.078410889022052E-3  -5.623481702059507E-3  
 2.464000000000000E10   -5.260459613054991E-3   1.317355898208916E-3  
 2.466000000000000E10    1.925009768456221E-3   4.878513980656862E-3  
 2.468000000000000E10    4.536125343292952E-3  -2.513236133381724E-3  
 2.470000000000000E10   -3.210560884326696E-3  -4.314762540161610E-3  
 2.472000000000000E10   -3.250572364777327E-3   2.769857645034790E-3  
 2.474000000000000E10    3.163828048855066E-3   2.929817419499159E-3  
 2.476000000000000E10    2.571835881099105E-3  -3.756679361686111E-3  
 2.478000000000000E10   -3.975912462919951E-3  -2.063474152237177E-3  
 2.480000000000000E10   -8.459116215817630E-4   4.172567743808031E-3  
 2.482000000000000E10    4.120186436921358E-3   3.612911677919328E-5  
 2.484000000000000E10   -1.062763985828497E-4  -4.396817181259394E-3  
 2.486000000000000E10   -4.234492778778076E-3   5.416038911789656E-4  
 2.488000000000000E10    1.660008798353374E-3   4.042157903313637E-3  
 2.490000000000000E10    4.007085692137480E-3  -1.988390926271677E-3  
 2.492000000000000E10   -1.900212257169187E-3  -4.293998703360558E-3  
 2.494000000000000E10   -4.271925892680883E-3   2.658115932717919E-3  
 2.496000000000000E10    3.645271295681596E-3   3.582208883017302E-3  
 2.498000000000000E10    3.566011553630233E-3  -4.060001112520695E-3  
 2.500000000000000E10   -3.895464586094022E-3  -3.220284590497613E-3  
 2.502000000000000E10   -2.534472150728107E-3   4.196437075734139E-3  
 2.504000000000000E10    4.297834355384111E-3   1.697539933957160E-3  
 2.506000000000000E10    1.644014264456928E-3  -3.787863766774535E-3  
 2.508000000000000E10   -3.985146526247263E-3  -1.372391590848565E-3  
 2.510000000000000E10   -6.296412902884185E-4   3.981086425483227E-3  
 2.512000000000000E10    3.533047623932362E-3  -4.727041959995404E-5  
 2.514000000000000E10   -7.361891039181501E-5  -3.598252078518271E-3  
 2.516000000000000E10   -2.921683015301824E-3   1.012957771308720E-3  
 2.518000000000000E10    1.511892187409103E-3   2.368797780945897E-3  
 2.520000000000000E10    2.306770533323288E-3  -1.641387934796512E-3  
 2.522000000000000E10   -1.837779534980655E-3  -1.878199516795576E-3  
 2.524000000000000E10   -1.345415483228862E-3   2.439210889860988E-3  
 2.526000000000000E10    2.766478341072798E-3   1.014866633340716E-3  
 2.528000000000000E10    9.009077912196517E-4  -2.717731287702918E-3  
 2.530000000000000E10   -3.271166700869799E-3  -1.085840631276369E-3  
 2.532000000000000E10   -2.028450398938730E-4   3.614616813138127E-3  
 2.534000000000000E10    3.655167063698173E-3  -4.935318720526993E-4  
 2.536000000000000E10   -2.850814489647746E-4  -3.907252103090286E-3  
 2.538000000000000E10   -3.694694256410003E-3   8.567048353143036E-4  
 2.540000000000000E10    1.040739356540144E-3   3.536604810506105E-3  
 2.542000000000000E10    3.856589319184423E-3  -1.078168046660721E-3  
 2.544000000000000E10   -1.349870930425823E-3  -3.795425873249769E-3  
 2.546000000000000E10   -3.534897929057479E-3   1.748877228237689E-3  
 2.548000000000000E10    2.062822226434946E-3   3.552900627255440E-3  
 2.550000000000000E10    2.688460284844041E-3  -2.401603851467371E-3  
 2.552000000000000E10   -2.648190129548311E-3  -2.339678350836039E-3  
 2.554000000000000E10   -1.586361438967288E-3   2.849388401955366E-3  
 2.556000000000000E10    2.449135994538665E-3   1.143740839324892E-3  
 2.558000000000000E10    1.084953662939370E-3  -2.499704249203205E-3  
 2.560000000000000E10   -2.491075312718749E-3  -4.847013915423304E-4  
 2.562000000000000E10    1.905913086375222E-4   2.481168834492564E-3  
 2.564000000000000E10    2.829225035384297E-3  -4.597368824761361E-4  
 2.566000000000000E10   -9.508330258540809E-4  -2.870700554922223E-3  
 2.568000000000000E10   -2.361702499911189E-3   1.758206053636968E-3  
 2.570000000000000E10    2.138714538887143E-3   2.304439898580313E-3  
 2.572000000000000E10    1.788272522389889E-3  -2.583382185548544E-3  
 2.574000000000000E10   -2.687282860279083E-3  -1.307363621890545E-3  
 2.576000000000000E10   -1.623691990971565E-3   3.191430587321520E-3  
 2.578000000000000E10    3.108894452452660E-3   6.263451068662107E-4  
 2.580000000000000E10    6.705475971102715E-4  -2.853402635082603E-3  
 2.582000000000000E10   -2.649288158863783E-3  -2.404392143944278E-4  
 2.584000000000000E10   -6.274259649217129E-4   2.801369410008192E-3  
 2.586000000000000E10    2.447279635816813E-3   1.474418531870470E-4  
 2.588000000000000E10   -2.361801161896437E-4  -2.327253343537450E-3  
 2.590000000000000E10   -2.259523607790470E-3   3.345278673805296E-4  
 2.592000000000000E10    7.902015349827707E-4   1.859732554294169E-3  
 2.594000000000000E10    1.863786950707436E-3  -8.458969532512128E-4  
 2.596000000000000E10   -1.588883227668703E-3  -1.581264776177704E-3  
 2.598000000000000E10   -1.300198840908706E-3   1.511087291873992E-3  
 2.600000000000000E10    1.735563389956951E-3   4.386318032629788E-4  
 2.602000000000000E10    5.092648207210004E-4  -2.133658155798912E-3  
 2.604000000000000E10   -2.138979500159621E-3  -2.025571302510798E-4  
 2.606000000000000E10    3.798114776145667E-4   2.156746806576848E-3  
 2.608000000000000E10    2.504682866856456E-3  -4.835386935155839E-4  
 2.610000000000000E10   -5.815171753056347E-4  -2.419916680082679E-3  
 2.612000000000000E10   -2.537620486691594E-3   9.674874017946422E-4  
 2.614000000000000E10    1.315997331403196E-3   2.627382986247540E-3  
 2.616000000000000E10    2.508495934307575E-3  -1.043701777234674E-3  
 2.618000000000000E10   -1.380458357743919E-3  -2.530240919440985E-3  
 2.620000000000000E10   -2.377717988565564E-3   1.624056021682918E-3  
 2.622000000000000E10    1.650391262955964E-3   1.972102327272296E-3  
 2.624000000000000E10    1.815830590203404E-3  -1.522677950561047E-3  
 2.626000000000000E10   -1.648888108320534E-3  -1.302675809711218E-3  
 2.628000000000000E10   -1.175384735688567E-3   1.375474501401186E-3  
 2.630000000000000E10    1.380191533826292E-3   5.521427956409752E-4  
 2.632000000000000E10    4.137483192607760E-4  -1.174921868368983E-3  
 2.634000000000000E10   -1.215561875142157E-3  -1.460782223148271E-4  
 2.636000000000000E10    4.620774125214666E-4   9.410064667463303E-4  
 2.638000000000000E10    6.269185687415302E-4  -7.352324319072068E-4  
 2.640000000000000E10   -5.696833250112832E-4  -8.965996094048023E-4  
 2.642000000000000E10   -6.155667360872030E-4   8.716244483366609E-4  
 2.644000000000000E10    1.131121534854174E-3   6.968980887904763E-4  
 2.646000000000000E10    4.389133246149868E-4  -1.439275569282472E-3  
 2.648000000000000E10   -9.459921275265515E-4  -3.670307924039662E-4  
 2.650000000000000E10   -3.984621143899858E-4   1.445222762413323E-3  
 2.652000000000000E10    1.996172359213233E-3   3.782998464885168E-5  
 2.654000000000000E10    6.259090732783079E-4  -1.290833111852408E-3  
 2.656000000000000E10   -1.205117092467845E-3  -2.286531380377710E-4  
 2.658000000000000E10   -2.086725435219705E-4   1.319095958024263E-3  
 2.660000000000000E10    1.252116751857102E-3  -1.794977288227528E-5  
 2.662000000000000E10    2.137045376002789E-4  -1.090151607058942E-3  
 2.664000000000000E10   -6.521551986224949E-4  -2.532025973778218E-4  
 2.666000000000000E10    1.029702107189223E-4   9.973820997402072E-4  
 2.668000000000000E10    1.004728372208774E-3  -5.495561708812602E-5  
 2.670000000000000E10    2.950014895759523E-4  -5.523882573470473E-4  
 2.672000000000000E10   -4.681307473219931E-4   3.469369548838586E-4  
 2.674000000000000E10    4.423603531904519E-4   4.113871545996517E-4  
 2.676000000000000E10   -4.503095260588452E-5  -3.066649951506406E-4  
 2.678000000000000E10   -4.426093364600092E-4  -2.483918506186456E-4  
 2.680000000000000E10   -2.052241616183892E-4   6.334494100883603E-4  
 2.682000000000000E10    1.058777444995940E-3  -3.056314890272915E-4  
 2.684000000000000E10   -2.014518831856549E-4  -8.662004838697612E-4  
 2.686000000000000E10   -8.634260739199817E-4   2.962683793157339E-4  
 2.688000000000000E10    4.937706980854273E-4   1.174832112155855E-3  
 2.690000000000000E10    1.278985058888793E-3  -1.808988745324314E-4  
 2.692000000000000E10   -3.788103058468550E-4  -1.027745776809752E-3  
 2.694000000000000E10   -1.143178786151111E-3   3.978334716521204E-4  
 2.696000000000000E10    2.522923459764570E-4   1.121759181842208E-3  
 2.698000000000000E10    1.309553277678788E-3  -2.572515222709626E-4  
 2.700000000000000E10    9.002511069411412E-5  -9.820406557992101E-4  
 2.702000000000000E10   -1.372736529447138E-3   4.658066245610826E-5  
 2.704000000000000E10    9.881694131763652E-5   1.094580162316561E-3  
 2.706000000000000E10    8.455309434793890E-4   2.070116315735504E-4  
 2.708000000000000E10    4.321412416175008E-4  -7.291854126378894E-4  
 2.710000000000000E10   -4.499818896874785E-4  -8.756063471082598E-5  
 2.712000000000000E10   -9.319894161308184E-5   5.165902548469603E-4  
 2.714000000000000E10    9.902243618853390E-5   1.875703164841980E-4  
 2.716000000000000E10    3.147556271869689E-4  -8.523064752807841E-5  
 2.718000000000000E10    6.938705337233841E-5   9.980421600630507E-5  
 2.720000000000000E10    1.016406604321674E-4  -9.922571189235896E-5  
 2.722000000000000E10   -3.871492517646402E-4   2.738969305937644E-5  
 2.724000000000000E10   -4.136803327128291E-4   4.869631084147841E-4  
 2.726000000000000E10    8.831293671391904E-4   5.145453033037484E-4  
 2.728000000000000E10    6.800397532060742E-4  -9.368891478516161E-4  
 2.730000000000000E10   -1.029171748086810E-3  -5.685277283191681E-4  
 2.732000000000000E10   -8.354421588592231E-4   1.309457002207637E-3  
 2.734000000000000E10    1.449740375392139E-3   1.269958331249654E-3  
 2.736000000000000E10    1.230674562975764E-3  -1.429469208233059E-3  
 2.738000000000000E10   -1.488902373239398E-3  -1.097635715268552E-3  
 2.740000000000000E10   -1.217786455526948E-3   1.691185985691845E-3  
 2.742000000000000E10    1.273512141779065E-3   1.019312418065965E-3  
 2.744000000000000E10    9.814098011702299E-4  -8.306470117531717E-4  
 2.746000000000000E10   -6.501498864963651E-4  -8.978705736808479E-4  
 2.748000000000000E10   -9.508288349024952E-4   9.170533739961684E-4  
 2.750000000000000E10    2.378401113674045E-4   9.885106701403856E-4  
 2.752000000000000E10    3.285303828306496E-4  -2.396463969489560E-4  
 2.754000000000000E10    2.127080078935251E-4  -3.739459498319775E-4  
 2.756000000000000E10   -4.795757995452732E-4  -4.014807927887887E-4  
