#  HZ   S   RI   R     50.00 
! Rohde & Schwarz ZVA40 4Ports - Version 3.90 - 1145.1110k42 SN: 100403
! Date: 2023-10-04 10:51:04
! Measurement: S12 
! 
 2.200000000000000E10    5.821797996759415E-3   2.551035024225712E-3  
 2.202000000000000E10    1.733411569148302E-3  -6.692780181765556E-3  
 2.204000000000000E10   -6.935418583452702E-3  -1.243877108208835E-3  
 2.206000000000000E10    2.731772256083787E-4   7.007492706179619E-3  
 2.208000000000000E10    6.816732231527567E-3  -5.925265722908080E-4  
 2.210000000000000E10   -1.486083609052002E-3  -6.884906906634569E-3  
 2.212000000000000E10   -6.237274967133999E-3   2.664624946191907E-3  
 2.214000000000000E10    3.181247273460031E-3   5.344753153622150E-3  
 2.216000000000000E10    4.856044892221689E-3  -3.925263416022062E-3  
 2.218000000000000E10   -4.113791976124048E-3  -3.324929624795914E-3  
 2.220000000000000E10   -2.877102699130774E-3   3.988315816968679E-3  
 2.222000000000000E10    4.176404327154160E-3   2.151684137061238E-3  
 2.224000000000000E10    1.210160437040031E-3  -3.754686331376433E-3  
 2.226000000000000E10   -3.483006032183766E-3  -5.850442685186863E-4  
 2.228000000000000E10    4.142571124248207E-4   3.235192270949483E-3  
 2.230000000000000E10    2.294363453984261E-3  -8.713454590179026E-4  
 2.232000000000000E10   -1.147979986853898E-3  -2.173284534364939E-3  
 2.234000000000000E10   -1.534126349724829E-3   1.318256952799857E-3  
 2.236000000000000E10    1.100352965295315E-3   1.031956286169589E-3  
 2.238000000000000E10    1.320840674452484E-3  -1.618453767150641E-3  
 2.240000000000000E10   -1.475125318393111E-3  -7.644735160283744E-4  
 2.242000000000000E10   -8.690415415912867E-4   1.291273976676166E-3  
 2.244000000000000E10    1.360221300274134E-3   7.494366727769375E-4  
 2.246000000000000E10    9.569170651957393E-4  -8.326362003572285E-4  
 2.248000000000000E10   -9.818731341511011E-4  -1.159377396106720E-3  
 2.250000000000000E10   -1.862618490122259E-3   7.983961259014905E-4  
 2.252000000000000E10    1.175423152744770E-3   1.492008450441063E-3  
 2.254000000000000E10    1.908805919811130E-3  -1.160731655545533E-3  
 2.256000000000000E10   -1.393768819980323E-3  -2.130374545231462E-3  
 2.258000000000000E10   -2.533386694267392E-3   1.564874430187047E-3  
 2.260000000000000E10    1.799279358237982E-3   2.537273336201906E-3  
 2.262000000000000E10    2.324952045455575E-3  -1.871948479674757E-3  
 2.264000000000000E10   -2.272274577990174E-3  -2.882317174226046E-3  
 2.266000000000000E10   -2.876171609386802E-3   2.710632514208555E-3  
 2.268000000000000E10    3.034710185602307E-3   2.746416488662362E-3  
 2.270000000000000E10    2.329024719074369E-3  -3.566568018868566E-3  
 2.272000000000000E10   -3.469110233709216E-3  -2.111712004989386E-3  
 2.274000000000000E10   -1.563856028951705E-3   3.939759917557240E-3  
 2.276000000000000E10    4.636386875063181E-3   1.301853102631867E-3  
 2.278000000000000E10    3.550255205482245E-4  -4.128261934965849E-3  
 2.280000000000000E10   -4.103826824575663E-3   5.460175452753902E-5  
 2.282000000000000E10   -2.101380610838532E-3   3.771808231249452E-3  
 2.284000000000000E10    4.337134771049023E-3  -1.066044787876308E-3  
 2.286000000000000E10   -1.526893465779722E-3  -3.902657423168421E-3  
 2.288000000000000E10   -3.873810404911637E-3   2.024365123361349E-3  
 2.290000000000000E10    2.770493272691965E-3   3.613855456933379E-3  
 2.292000000000000E10    3.809068351984024E-3  -2.824210794642568E-3  
 2.294000000000000E10   -3.221254562959075E-3  -3.359073773026466E-3  
 2.296000000000000E10   -3.023787401616573E-3   3.596392227336764E-3  
 2.298000000000000E10    4.319291561841965E-3   2.620481420308352E-3  
 2.300000000000000E10    2.299623098224402E-3  -4.184904042631388E-3  
 2.302000000000000E10   -4.369879141449928E-3  -1.866571838036180E-3  
 2.304000000000000E10   -1.060348702594638E-3   4.527769051492214E-3  
 2.306000000000000E10    4.848601296544075E-3   9.270202717743814E-4  
 2.308000000000000E10    2.088666078634560E-4  -4.693439695984125E-3  
 2.310000000000000E10   -4.828463308513165E-3   1.247337058885023E-4  
 2.312000000000000E10    9.132745908573270E-4   4.857873078435659E-3  
 2.314000000000000E10    5.060161463916302E-3  -1.574461231939495E-3  
 2.316000000000000E10   -2.219734014943242E-3  -4.355116747319698E-3  
 2.318000000000000E10   -3.711119992658496E-3   2.760618692263961E-3  
 2.320000000000000E10    3.477326594293118E-3   3.328350372612476E-3  
 2.322000000000000E10    3.227077424526215E-3  -3.940229304134846E-3  
 2.324000000000000E10   -4.494321066886187E-3  -2.209079917520285E-3  
 2.326000000000000E10   -1.802525017410517E-3   5.159669555723667E-3  
 2.328000000000000E10    5.617287009954453E-3   8.577994885854423E-4  
 2.330000000000000E10    1.629315956961364E-4  -5.929476115852594E-3  
 2.332000000000000E10   -5.849216133356094E-3   1.120820757932961E-3  
 2.334000000000000E10    1.417580526322126E-3   5.852778442203999E-3  
 2.336000000000000E10    5.801348946988583E-3  -2.014497062191367E-3  
 2.338000000000000E10   -2.683271653950214E-3  -5.352342501282692E-3  
 2.340000000000000E10   -5.080031696707010E-3   3.378190798684955E-3  
 2.342000000000000E10    3.607001621276140E-3   4.837765824049711E-3  
 2.344000000000000E10    4.423719365149736E-3  -3.974711988121271E-3  
 2.346000000000000E10   -4.456439986824989E-3  -3.653691150248051E-3  
 2.348000000000000E10   -3.178237471729517E-3   4.644367843866348E-3  
 2.350000000000000E10    4.379368387162685E-3   2.670755144208670E-3  
 2.352000000000000E10    2.278466243296862E-3  -5.074897781014442E-3  
 2.354000000000000E10   -5.141016095876694E-3  -1.056091045029461E-3  
 2.356000000000000E10   -7.009650580585003E-4   4.911393858492374E-3  
 2.358000000000000E10    4.694673698395491E-3  -3.297367948107421E-4  
 2.360000000000000E10   -6.116812583059073E-4  -4.004201386123896E-3  
 2.362000000000000E10   -4.192952997982502E-3   1.536010066047311E-3  
 2.364000000000000E10    1.794605166651309E-3   3.659726353362203E-3  
 2.366000000000000E10    3.246050560846925E-3  -2.101410180330277E-3  
 2.368000000000000E10   -2.896884223446250E-3  -3.063003299757838E-3  
 2.370000000000000E10   -2.928640926256776E-3   3.112053032964468E-3  
 2.372000000000000E10    3.570916363969445E-3   2.327961614355445E-3  
 2.374000000000000E10    2.569371368736029E-3  -4.061301238834858E-3  
 2.376000000000000E10   -4.573682788759470E-3  -1.627380494028330E-3  
 2.378000000000000E10   -1.331336214207113E-3   4.950415343046188E-3  
 2.380000000000000E10    4.995762370526791E-3   9.170761913992465E-4  
 2.382000000000000E10    1.269158965442330E-4  -5.190541502088308E-3  
 2.384000000000000E10   -5.323815159499645E-3   3.983099013566971E-4  
 2.386000000000000E10    7.313159876503050E-4   5.077327601611614E-3  
 2.388000000000000E10    4.792346619069576E-3  -1.358516048640013E-3  
 2.390000000000000E10   -1.427767681889236E-3  -4.145640879869461E-3  
 2.392000000000000E10   -3.908198326826096E-3   2.246758202090859E-3  
 2.394000000000000E10    2.667846856638789E-3   3.681002184748650E-3  
 2.396000000000000E10    3.131348639726639E-3  -2.487457590177655E-3  
 2.398000000000000E10   -3.150318050757051E-3  -2.367865527048707E-3  
 2.400000000000000E10   -2.333162818104029E-3   3.362026764079928E-3  
 2.402000000000000E10    3.461025888100267E-3   1.368255587294698E-3  
 2.404000000000000E10    8.367711561731994E-4  -4.180162213742733E-3  
 2.406000000000000E10   -3.806920954957604E-3  -1.577706825628411E-5  
 2.408000000000000E10    6.259039510041475E-4   3.988473210483789E-3  
 2.410000000000000E10    3.483145264908671E-3  -1.054064719937742E-3  
 2.412000000000000E10   -1.834746915847063E-3  -3.379614092409611E-3  
 2.414000000000000E10   -3.351608756929636E-3   2.236067084595561E-3  
 2.416000000000000E10    2.170999301597476E-3   2.918547252193093E-3  
 2.418000000000000E10    3.066721837967634E-3  -2.465434838086367E-3  
 2.420000000000000E10   -2.725663827732205E-3  -2.621392253786326E-3  
 2.422000000000000E10   -2.446167869493365E-3   3.036410082131624E-3  
 2.424000000000000E10    3.453574143350124E-3   2.837231382727623E-3  
 2.426000000000000E10    2.473894273862243E-3  -3.514726413413882E-3  
 2.428000000000000E10   -3.475725883617997E-3  -1.847148640081286E-3  
 2.430000000000000E10   -1.812056987546384E-3   4.201535601168871E-3  
 2.432000000000000E10    3.973207902163267E-3   1.783848740160465E-3  
 2.434000000000000E10    9.504891349934042E-4  -3.995664417743683E-3  
 2.436000000000000E10   -3.923082258552313E-3  -4.363163025118411E-4  
 2.438000000000000E10    1.663269176788162E-5   4.049420822411776E-3  
 2.440000000000000E10    3.529036184772849E-3   6.427468179026619E-5  
 2.442000000000000E10   -9.372403146699071E-4  -3.413914237171412E-3  
 2.444000000000000E10   -3.046670230105519E-3   1.490284455940127E-3  
 2.446000000000000E10    1.617735833860934E-3   2.903966233134270E-3  
 2.448000000000000E10    2.416667295619845E-3  -1.661126851104200E-3  
 2.450000000000000E10   -2.506972989067435E-3  -1.861456665210426E-3  
 2.452000000000000E10   -1.325957011431456E-3   2.756695728749037E-3  
 2.454000000000000E10    2.939392346888781E-3   1.196722383610904E-3  
 2.456000000000000E10    8.037519291974604E-4  -3.051732666790485E-3  
 2.458000000000000E10   -3.503939369693399E-3   1.955056650331244E-4  
 2.460000000000000E10   -9.117091394728050E-6   3.891686443239451E-3  
 2.462000000000000E10    3.887589788064361E-3  -6.007803604006767E-4  
 2.464000000000000E10   -1.272626221179962E-3  -3.868788946419954E-3  
 2.466000000000000E10   -3.785736626014113E-3   1.512386952526867E-3  
 2.468000000000000E10    1.480719074606895E-3   3.922194242477417E-3  
 2.470000000000000E10    3.746737260371447E-3  -2.119550015777350E-3  
 2.472000000000000E10   -2.615486271679401E-3  -2.974930685013533E-3  
 2.474000000000000E10   -2.846545772626996E-3   2.812775783240795E-3  
 2.476000000000000E10    2.534101018682122E-3   2.994849346578121E-3  
 2.478000000000000E10    2.152211032807827E-3  -2.502665854990482E-3  
 2.480000000000000E10   -3.031010506674647E-3  -1.764070824719966E-3  
 2.482000000000000E10   -1.898666028864682E-3   2.990592736750841E-3  
 2.484000000000000E10    2.705096267163754E-3   1.623888965696096E-3  
 2.486000000000000E10    8.233310654759407E-4  -2.927402267232537E-3  
 2.488000000000000E10   -3.305785125121474E-3  -3.479009319562465E-4  
 2.490000000000000E10   -2.008406954701059E-5   2.891830168664455E-3  
 2.492000000000000E10    2.501537557691336E-3  -4.965592597727664E-5  
 2.494000000000000E10   -8.416698547080159E-4  -3.039814764633775E-3  
 2.496000000000000E10   -2.704083686694503E-3   1.525405677966774E-3  
 2.498000000000000E10    1.737011829391122E-3   2.268585143610835E-3  
 2.500000000000000E10    1.967098563909531E-3  -2.177680609747767E-3  
 2.502000000000000E10   -2.958678407594562E-3  -1.798899960704148E-3  
 2.504000000000000E10   -1.454280456528068E-3   3.249690169468522E-3  
 2.506000000000000E10    3.060897579416633E-3   1.017408329062164E-3  
 2.508000000000000E10    7.799865561537445E-4  -3.315734211355448E-3  
 2.510000000000000E10   -3.628631820902228E-3  -4.963571554981172E-4  
 2.512000000000000E10   -2.551476427470334E-5   3.744269488379359E-3  
 2.514000000000000E10    3.483046311885119E-3  -5.579922581091523E-4  
 2.516000000000000E10   -8.716819575056434E-4  -3.459143219515681E-3  
 2.518000000000000E10   -3.581708762794733E-3   1.207428867928684E-3  
 2.520000000000000E10    1.586198341101408E-3   2.831898629665375E-3  
 2.522000000000000E10    2.264719922095537E-3  -1.674147322773933E-3  
 2.524000000000000E10   -1.941291615366936E-3  -2.295225160196424E-3  
 2.526000000000000E10   -1.738639548420906E-3   2.075451659038663E-3  
 2.528000000000000E10    2.302248962223530E-3   1.449471572414041E-3  
 2.530000000000000E10    7.805489003658295E-4  -2.556275809183717E-3  
 2.532000000000000E10   -2.542875939980149E-3  -5.860112141817808E-4  
 2.534000000000000E10   -2.086773565679323E-5   2.343893749639392E-3  
 2.536000000000000E10    2.191493054851890E-3  -2.882609842345119E-4  
 2.538000000000000E10   -6.211636937223375E-4  -2.032891847193241E-3  
 2.540000000000000E10   -2.189073478803039E-3   7.073544547893107E-4  
 2.542000000000000E10    1.215441385284066E-3   1.870447769761086E-3  
 2.544000000000000E10    1.800900092348456E-3  -1.306182355619967E-3  
 2.546000000000000E10   -1.724729198031128E-3  -1.659788656979799E-3  
 2.548000000000000E10   -1.419864012859762E-3   1.402564812451601E-3  
 2.550000000000000E10    1.864805235527456E-3   1.543129445053637E-3  
 2.552000000000000E10    1.429854659363627E-3  -2.060180064290762E-3  
 2.554000000000000E10   -1.865929109044373E-3  -1.496423152275384E-3  
 2.556000000000000E10   -1.145831309258938E-3   1.789790927432478E-3  
 2.558000000000000E10    2.052678260952234E-3   1.211879891343415E-3  
 2.560000000000000E10    9.788462193682790E-4  -1.802996150217950E-3  
 2.562000000000000E10   -1.988845644518733E-3  -6.440117722377181E-4  
 2.564000000000000E10   -6.988813402131200E-4   2.061909995973110E-3  
 2.566000000000000E10    2.157274400815368E-3   2.749161212705076E-4  
 2.568000000000000E10   -4.287176125217229E-4  -2.122253179550171E-3  
 2.570000000000000E10   -1.490189926698804E-3   2.275803417433053E-4  
 2.572000000000000E10    5.280594341456890E-4   1.339222770184279E-3  
 2.574000000000000E10    1.225137733854353E-3  -1.170083996839821E-3  
 2.576000000000000E10   -1.434373320080340E-3  -6.595622398890555E-4  
 2.578000000000000E10   -5.650556995533407E-4   1.444434281438589E-3  
 2.580000000000000E10    1.842666300944984E-3   3.145452355965972E-4  
 2.582000000000000E10    1.584763522259891E-4  -1.887974911369383E-3  
 2.584000000000000E10   -2.264824463054538E-3   4.085383552592248E-4  
 2.586000000000000E10    6.591468700207770E-4   2.272612182423472E-3  
 2.588000000000000E10    2.296914113685489E-3  -8.910956676118076E-4  
 2.590000000000000E10   -1.148761715739965E-3  -2.163506345823407E-3  
 2.592000000000000E10   -2.336045494303107E-3   1.309494837187231E-3  
 2.594000000000000E10    1.409612828865647E-3   2.148190047591925E-3  
 2.596000000000000E10    1.846663071773946E-3  -1.367518678307533E-3  
 2.598000000000000E10   -1.847704057581723E-3  -1.655175001360476E-3  
 2.600000000000000E10   -1.617907779291272E-3   1.469889422878623E-3  
 2.602000000000000E10    1.306117745116353E-3   1.200821017846465E-3  
 2.604000000000000E10    5.243158084340394E-4  -1.472689327783883E-3  
 2.606000000000000E10   -1.192070427350700E-3  -4.364488995634019E-4  
 2.608000000000000E10   -4.966771812178195E-4   7.937068003229797E-4  
 2.610000000000000E10    6.581449415534735E-4   2.927069435827434E-4  
 2.612000000000000E10    2.410992601653561E-4  -3.128688549622893E-4  
 2.614000000000000E10   -4.617334634531289E-4   1.230035413755104E-4  
 2.616000000000000E10   -2.715671726036817E-4   4.454923036973923E-4  
 2.618000000000000E10   -9.004633466247469E-5  -8.118530240608379E-5  
 2.620000000000000E10   -4.062366788275540E-4  -4.535682091955096E-4  
 2.622000000000000E10   -5.427848664112389E-4   2.681308542378247E-4  
 2.624000000000000E10    5.071365740150213E-4   2.466620644554496E-4  
 2.626000000000000E10    1.492622832302004E-4  -9.139881585724652E-4  
 2.628000000000000E10   -7.893394213169813E-4  -2.167662751162425E-4  
 2.630000000000000E10   -4.361285245977342E-4   8.568103658035398E-4  
 2.632000000000000E10    1.229178509674966E-3   3.717610088642687E-4  
 2.634000000000000E10    1.078716231859289E-4  -1.256064861081541E-3  
 2.636000000000000E10   -1.296450500376523E-3  -3.201141080353409E-4  
 2.638000000000000E10   -5.493834614753723E-4   1.128608128055930E-3  
 2.640000000000000E10    1.304530655033886E-3   1.595764624653384E-4  
 2.642000000000000E10    9.379469702253118E-5  -1.069005578756332E-3  
 2.644000000000000E10   -9.989672107622027E-4  -4.521036462392658E-4  
 2.646000000000000E10   -3.042843018192798E-4   1.315956353209913E-3  
 2.648000000000000E10    1.184480148367584E-3   4.424614016897976E-4  
 2.650000000000000E10    1.326763594988734E-4  -7.972042658366263E-4  
 2.652000000000000E10   -1.179520157165825E-3  -5.144624810782261E-5  
 2.654000000000000E10   -5.920195690123364E-5   6.981521728448570E-4  
 2.656000000000000E10    4.035537713207305E-4  -1.011274944175966E-4  
 2.658000000000000E10   -3.205725806765258E-4  -3.141656925436109E-4  
 2.660000000000000E10   -2.700661425478756E-4   9.097770816879347E-5  
 2.662000000000000E10    4.473900771699846E-4  -4.888269540970214E-5  
 2.664000000000000E10   -3.840858989860863E-4  -2.710139087866992E-4  
 2.666000000000000E10   -4.248410987202078E-4   6.223733653314412E-4  
 2.668000000000000E10    5.987207405269146E-4   2.567147312220186E-4  
 2.670000000000000E10    3.164978988934308E-4  -8.103141444735229E-4  
 2.672000000000000E10   -6.494604749605060E-4  -1.966653071576729E-4  
 2.674000000000000E10   -2.893703640438616E-4   7.958730566315353E-4  
 2.676000000000000E10    5.089817568659782E-4   4.728950152639300E-4  
 2.678000000000000E10    1.017940696328878E-3  -4.766909696627408E-4  
 2.680000000000000E10   -4.260207933839411E-4  -8.231069077737629E-4  
 2.682000000000000E10   -1.300575793720782E-3   6.300187087617815E-4  
 2.684000000000000E10    5.925304722040892E-4   1.424925867468119E-3  
 2.686000000000000E10    1.718845102004707E-3  -5.271816044114530E-4  
 2.688000000000000E10   -5.028324667364359E-4  -1.809266745112836E-3  
 2.690000000000000E10   -1.532015856355429E-3   4.126682470086962E-4  
 2.692000000000000E10    3.724753623828292E-4   1.788397086784244E-3  
 2.694000000000000E10    1.655927859246731E-3  -1.563161204103380E-4  
 2.696000000000000E10   -4.132250323891640E-4  -1.350945094600320E-3  
 2.698000000000000E10   -1.158345257863402E-3   5.889051244594157E-4  
 2.700000000000000E10    5.660457536578178E-4   1.234076684340835E-3  
 2.702000000000000E10    7.849215180613101E-4  -3.780279366765171E-4  
 2.704000000000000E10   -1.340528251603246E-4  -3.321694966871291E-4  
 2.706000000000000E10   -3.314386776764877E-5   3.983061469625682E-4  
 2.708000000000000E10    4.719747812487185E-4  -2.457311784382910E-4  
 2.710000000000000E10   -5.603235331363976E-4  -2.371903392486274E-4  
 2.712000000000000E10   -1.666947209741920E-4   1.173025812022388E-3  
 2.714000000000000E10    1.392536447383463E-3   1.962486567208543E-4  
 2.716000000000000E10   -1.775678683770821E-4  -1.437335042282939E-3  
 2.718000000000000E10   -1.591092324815691E-3   3.765400324482471E-4  
 2.720000000000000E10    3.592342836782336E-4   1.714725862257183E-3  
 2.722000000000000E10    1.527885091491044E-3  -2.676366129890084E-4  
 2.724000000000000E10   -2.070603804895654E-4  -1.763295615091920E-3  
 2.726000000000000E10   -1.566565828397870E-3   3.299234958831221E-4  
 2.728000000000000E10    5.383339521358721E-5   2.092737471684814E-3  
 2.730000000000000E10    2.014063764363527E-3  -1.914286840474233E-4  
 2.732000000000000E10    1.511032460257411E-4  -1.453594304621220E-3  
 2.734000000000000E10   -1.752672367729247E-3  -1.394701102981344E-4  
 2.736000000000000E10   -2.332201838726178E-4   1.506725675426424E-3  
 2.738000000000000E10    1.408876036293805E-3   4.694370145443827E-4  
 2.740000000000000E10    4.070321665494703E-5  -1.579163130372763E-3  
 2.742000000000000E10   -1.287292107008398E-3  -7.615062145305274E-7  
 2.744000000000000E10   -1.791596514522098E-5   1.251623383723199E-3  
 2.746000000000000E10    1.376811880618334E-3  -2.521921996958554E-4  
 2.748000000000000E10   -1.899493800010532E-4  -7.705420139245689E-4  
 2.750000000000000E10   -8.864737465046346E-4   4.211878404021263E-4  
 2.752000000000000E10    6.876857369206846E-4   2.859306114260107E-4  
 2.754000000000000E10    5.403484101407230E-4  -6.792717613279820E-4  
 2.756000000000000E10   -1.184632885269821E-3  -2.431121974950656E-4  
