#  HZ   S   RI   R     50.00 
! Rohde & Schwarz ZVA40 4Ports - Version 3.90 - 1145.1110k42 SN: 100403
! Date: 2023-10-04 10:51:31
! Measurement: S12 
! 
 2.200000000000000E10    4.898851737380028E-3   3.058186033740640E-3  
 2.202000000000000E10    1.965625444427133E-3  -4.844356793910265E-3  
 2.204000000000000E10   -5.259401164948940E-3  -1.247200067155063E-3  
 2.206000000000000E10   -5.515469820238650E-4   5.367842037230730E-3  
 2.208000000000000E10    5.075919907540083E-3  -4.437883762875572E-5  
 2.210000000000000E10   -8.418280049227178E-4  -4.958248231559992E-3  
 2.212000000000000E10   -4.665921907871962E-3   1.567476661875844E-3  
 2.214000000000000E10    1.794015406630933E-3   4.152787383645773E-3  
 2.216000000000000E10    3.959032241255045E-3  -2.415056340396404E-3  
 2.218000000000000E10   -2.504507778212428E-3  -3.087412798777223E-3  
 2.220000000000000E10   -3.031366039067507E-3   2.251219470053911E-3  
 2.222000000000000E10    2.322764601558447E-3   2.703000092878938E-3  
 2.224000000000000E10    2.241677371785045E-3  -2.694318071007729E-3  
 2.226000000000000E10   -2.298344625160098E-3  -2.335279015824199E-3  
 2.228000000000000E10   -2.147747203707695E-3   2.102909609675407E-3  
 2.230000000000000E10    1.931336708366871E-3   1.939432462677360E-3  
 2.232000000000000E10    1.536119729280472E-3  -1.704510883428156E-3  
 2.234000000000000E10   -1.449901377782226E-3  -1.777144847437739E-3  
 2.236000000000000E10   -1.994930207729340E-3   1.188870635814965E-3  
 2.238000000000000E10    1.551000168547034E-3   1.789155299775302E-3  
 2.240000000000000E10    1.491455826908350E-3  -1.744776731356978E-3  
 2.242000000000000E10   -1.499289646744728E-3  -2.002431079745293E-3  
 2.244000000000000E10   -1.271712593734264E-3   1.738307066261768E-3  
 2.246000000000000E10    2.107310108840466E-3   8.360572974197567E-4  
 2.248000000000000E10    6.064374465495348E-4  -1.784515101462603E-3  
 2.250000000000000E10   -2.234521787613630E-3  -5.589007050730288E-4  
 2.252000000000000E10   -2.331618816242553E-5   2.152743982151151E-3  
 2.254000000000000E10    2.579151885583997E-3  -4.155638744123280E-4  
 2.256000000000000E10   -6.459376163547859E-5  -2.766169374808669E-3  
 2.258000000000000E10   -2.894489094614983E-3   5.663245683535934E-4  
 2.260000000000000E10    1.264400663785636E-3   2.749536884948611E-3  
 2.262000000000000E10    2.848772797733545E-3  -1.649643876589835E-3  
 2.264000000000000E10   -2.071096561849117E-3  -2.961650723591447E-3  
 2.266000000000000E10   -3.201691200956702E-3   2.571343444287777E-3  
 2.268000000000000E10    3.042190335690975E-3   2.905214903876185E-3  
 2.270000000000000E10    2.759586786851287E-3  -3.715433878824115E-3  
 2.272000000000000E10   -3.902600146830082E-3  -2.649912610650063E-3  
 2.274000000000000E10   -2.313025528565049E-3   4.260878544300795E-3  
 2.276000000000000E10    5.112613085657358E-3   1.709824078716338E-3  
 2.278000000000000E10    1.407342380844057E-3  -5.017193965613842E-3  
 2.280000000000000E10   -4.898441489785910E-3  -7.808608352206647E-4  
 2.282000000000000E10   -3.073579864576459E-3   3.422090783715248E-3  
 2.284000000000000E10    4.919383209198713E-3  -2.019084786297754E-4  
 2.286000000000000E10   -6.518199807032943E-4  -4.369698464870453E-3  
 2.288000000000000E10   -4.285452421754599E-3   1.004866790026426E-3  
 2.290000000000000E10    1.738558756187558E-3   3.919092006981373E-3  
 2.292000000000000E10    3.742267843335867E-3  -2.196457237005234E-3  
 2.294000000000000E10   -2.563941525295377E-3  -3.247657790780067E-3  
 2.296000000000000E10   -2.948470413684845E-3   3.334706416353583E-3  
 2.298000000000000E10    3.607332007959485E-3   1.922081573866308E-3  
 2.300000000000000E10    1.983496593311429E-3  -3.655258798971772E-3  
 2.302000000000000E10   -4.097158554941416E-3  -1.006918377242982E-3  
 2.304000000000000E10   -1.091060767066665E-5   4.382888786494732E-3  
 2.306000000000000E10    4.154047928750515E-3   1.234300289070234E-4  
 2.308000000000000E10   -6.441402365453541E-4  -3.960726317018271E-3  
 2.310000000000000E10   -3.984973300248385E-3   1.238980446942151E-3  
 2.312000000000000E10    1.825604937039316E-3   4.025100730359554E-3  
 2.314000000000000E10    3.690581070259213E-3  -2.421863377094269E-3  
 2.316000000000000E10   -2.263880101963878E-3  -3.605023724958301E-3  
 2.318000000000000E10   -3.072397317737341E-3   2.791277365759015E-3  
 2.320000000000000E10    2.921040868386626E-3   2.992033259943128E-3  
 2.322000000000000E10    2.894111908972263E-3  -3.243548795580864E-3  
 2.324000000000000E10   -3.375863656401634E-3  -2.557388506829739E-3  
 2.326000000000000E10   -1.285240752622485E-3   3.837967524304986E-3  
 2.328000000000000E10    3.483357839286327E-3   1.026248559355736E-3  
 2.330000000000000E10    3.525454085320234E-4  -3.537474432960153E-3  
 2.332000000000000E10   -3.287797095254064E-3   6.399877020157874E-5  
 2.334000000000000E10    2.308479888597503E-4   3.254435257986188E-3  
 2.336000000000000E10    2.726119477301836E-3  -9.530164534226060E-4  
 2.338000000000000E10   -1.208968227729201E-3  -2.885771915316582E-3  
 2.340000000000000E10   -2.271252917125821E-3   1.631428021937609E-3  
 2.342000000000000E10    1.777927158400416E-3   2.472853520885110E-3  
 2.344000000000000E10    1.748696202412248E-3  -2.305473899468780E-3  
 2.346000000000000E10   -2.878774888813496E-3  -1.532002585008740E-3  
 2.348000000000000E10   -1.115946564823389E-3   2.882441505789757E-3  
 2.350000000000000E10    3.471483942121267E-3   1.136666745878756E-3  
 2.352000000000000E10    2.176550624426454E-4  -3.965789452195168E-3  
 2.354000000000000E10   -4.069807939231396E-3   1.600697432877496E-4  
 2.356000000000000E10    1.036466797813773E-3   4.046597518026829E-3  
 2.358000000000000E10    4.029683303087950E-3  -1.309407758526504E-3  
 2.360000000000000E10   -1.592307118698955E-3  -3.934332169592381E-3  
 2.362000000000000E10   -3.382104216143489E-3   1.763503882102668E-3  
 2.364000000000000E10    2.213821746408939E-3   3.655399428680539E-3  
 2.366000000000000E10    3.125606337562203E-3  -2.240009140223265E-3  
 2.368000000000000E10   -2.502606483176351E-3  -3.433344652876258E-3  
 2.370000000000000E10   -3.026967169716954E-3   2.542534843087196E-3  
 2.372000000000000E10    3.178730141371489E-3   2.652047667652369E-3  
 2.374000000000000E10    2.290501957759261E-3  -3.064753953367472E-3  
 2.376000000000000E10   -3.307907609269023E-3  -1.731958938762546E-3  
 2.378000000000000E10   -7.197070517577231E-4   2.898052567616105E-3  
 2.380000000000000E10    2.708752639591694E-3   1.148328068666160E-3  
 2.382000000000000E10    5.042323027737439E-4  -3.117745276540518E-3  
 2.384000000000000E10   -2.738503739237785E-3   2.322553191334009E-4  
 2.386000000000000E10    4.312896635383368E-4   2.458131406456232E-3  
 2.388000000000000E10    1.899486058391631E-3  -6.355565274134278E-4  
 2.390000000000000E10   -9.127534576691687E-4  -1.849138294346631E-3  
 2.392000000000000E10   -1.983171561732888E-3   1.300908625125885E-3  
 2.394000000000000E10    1.814802759326994E-3   1.212028786540031E-3  
 2.396000000000000E10    1.006381353363395E-3  -1.533152768388391E-3  
 2.398000000000000E10   -2.241855487227440E-3  -1.167528680525720E-3  
 2.400000000000000E10   -8.926086593419313E-4   2.415361581370235E-3  
 2.402000000000000E10    2.808237913995981E-3   5.680303365807049E-5  
 2.404000000000000E10    4.939996506436728E-5  -3.129256190732122E-3  
 2.406000000000000E10   -2.933609997853637E-3   3.676361811812967E-4  
 2.408000000000000E10    6.921120220795274E-4   3.068075049668551E-3  
 2.410000000000000E10    2.930346876382828E-3  -6.088085938245058E-4  
 2.412000000000000E10   -1.277311122976244E-3  -2.971204230561853E-3  
 2.414000000000000E10   -3.089619567617774E-3   1.946630422025919E-3  
 2.416000000000000E10    1.950424397364259E-3   2.490854356437922E-3  
 2.418000000000000E10    2.520462498068810E-3  -1.631055143661797E-3  
 2.420000000000000E10   -2.407946856692433E-3  -2.550904639065266E-3  
 2.422000000000000E10   -2.281446475535631E-3   2.028731163591147E-3  
 2.424000000000000E10    2.773953136056662E-3   1.939835376106203E-3  
 2.426000000000000E10    1.319536007940769E-3  -2.809531753882766E-3  
 2.428000000000000E10   -3.152750898152590E-3  -1.249345950782299E-3  
 2.430000000000000E10   -8.724567596800625E-4   3.361859591677785E-3  
 2.432000000000000E10    3.380382666364312E-3  -1.094808103516698E-4  
 2.434000000000000E10   -3.668317804113030E-4  -3.024140605702996E-3  
 2.436000000000000E10   -3.150685690343380E-3   1.087130163796246E-3  
 2.438000000000000E10    1.111998455598950E-3   2.794616390019655E-3  
 2.440000000000000E10    2.602662425488234E-3  -1.288708415813744E-3  
 2.442000000000000E10   -2.000815700739622E-3  -2.386597683653235E-3  
 2.444000000000000E10   -2.382658189162612E-3   2.033927477896214E-3  
 2.446000000000000E10    2.076725475490093E-3   2.140606055036187E-3  
 2.448000000000000E10    1.748186186887324E-3  -2.566955052316189E-3  
 2.450000000000000E10   -2.610159106552601E-3  -1.984597882255912E-3  
 2.452000000000000E10   -1.765629975125194E-3   2.820274326950312E-3  
 2.454000000000000E10    2.733366563916206E-3   1.391376717947424E-3  
 2.456000000000000E10    1.213782816193998E-3  -2.879999112337828E-3  
 2.458000000000000E10   -3.377733752131462E-3  -1.535797491669655E-3  
 2.460000000000000E10   -7.297146366909146E-4   3.242449602112174E-3  
 2.462000000000000E10    3.539907746016979E-3   1.195065706269816E-4  
 2.464000000000000E10   -1.838900352595374E-4  -3.023901721462607E-3  
 2.466000000000000E10   -3.013023408129811E-3   2.807482997013722E-5  
 2.468000000000000E10    4.434906877577305E-4   2.592654200270772E-3  
 2.470000000000000E10    2.385096857324243E-3  -9.627297404222190E-4  
 2.472000000000000E10   -7.080815266817808E-4  -1.953794388100505E-3  
 2.474000000000000E10   -1.895430148579180E-3   1.190249575302005E-3  
 2.476000000000000E10    1.284831087104976E-3   1.592851360328496E-3  
 2.478000000000000E10    1.434580888599157E-3  -1.860654912889004E-3  
 2.480000000000000E10   -2.107475651428103E-3  -8.636999409645796E-4  
 2.482000000000000E10   -3.018892311956734E-4   2.187161473557353E-3  
 2.484000000000000E10    2.198540139943361E-3  -1.996066130232066E-4  
 2.486000000000000E10   -4.884374793618918E-4  -2.540125977247953E-3  
 2.488000000000000E10   -2.413643524050713E-3   9.408796904608607E-4  
 2.490000000000000E10    1.167155336588621E-3   2.053288277238607E-3  
 2.492000000000000E10    2.248826902359724E-3  -1.761058578267694E-3  
 2.494000000000000E10   -1.656513893976808E-3  -2.577483886852861E-3  
 2.496000000000000E10   -2.413981128484011E-3   2.151221269741654E-3  
 2.498000000000000E10    2.617881866171956E-3   1.977032516151667E-3  
 2.500000000000000E10    2.352696144953370E-3  -2.743726363405585E-3  
 2.502000000000000E10   -2.722796984016895E-3  -1.686981646344066E-3  
 2.504000000000000E10   -1.615711254999042E-3   2.845676383003593E-3  
 2.506000000000000E10    2.697081305086613E-3   1.382190850563347E-3  
 2.508000000000000E10    1.262916950508952E-3  -2.811650978401303E-3  
 2.510000000000000E10   -2.777352463454008E-3  -1.299080206081271E-3  
 2.512000000000000E10   -4.942826926708221E-4   3.113153390586376E-3  
 2.514000000000000E10    2.682087011635304E-3   4.762982425745577E-4  
 2.516000000000000E10   -7.563055260106921E-5  -2.429562155157328E-3  
 2.518000000000000E10   -2.156396163627505E-3   3.043307806365192E-4  
 2.520000000000000E10    2.622100291773677E-4   1.865490456111729E-3  
 2.522000000000000E10    1.552979578264058E-3  -5.239958409219980E-4  
 2.524000000000000E10   -7.102069212123752E-4  -1.269539818167687E-3  
 2.526000000000000E10   -1.256169751286507E-3   1.113769365474582E-3  
 2.528000000000000E10    1.139786443673074E-3   6.549311219714582E-4  
 2.530000000000000E10    5.019668024033308E-4  -1.116968807764351E-3  
 2.532000000000000E10   -1.441940315999091E-3  -2.531417994759977E-4  
 2.534000000000000E10    2.035484940279275E-4   1.631948165595532E-3  
 2.536000000000000E10    1.741801155731082E-3  -1.438369799870998E-4  
 2.538000000000000E10   -9.471803787164390E-4  -1.593321794643998E-3  
 2.540000000000000E10   -1.587060978636146E-3   1.188403461128473E-3  
 2.542000000000000E10    9.883259190246463E-4   1.718446495942771E-3  
 2.544000000000000E10    1.931047881953418E-3  -1.188809517771006E-3  
 2.546000000000000E10   -1.420323853380978E-3  -1.435084734112024E-3  
 2.548000000000000E10   -1.678022788837552E-3   1.881294767372310E-3  
 2.550000000000000E10    1.895380555652082E-3   1.241454621776938E-3  
 2.552000000000000E10    1.026869285851717E-3  -1.808223314583302E-3  
 2.554000000000000E10   -1.722598099149764E-3  -8.687912486493588E-4  
 2.556000000000000E10   -7.137248176150024E-4   1.855585956946015E-3  
 2.558000000000000E10    1.546507817693055E-3   5.032238550484181E-4  
 2.560000000000000E10    5.334504530765116E-4  -1.625925069674850E-3  
 2.562000000000000E10   -1.358508015982807E-3  -2.351059665670618E-4  
 2.564000000000000E10   -3.343228891026229E-4   1.634552027098835E-3  
 2.566000000000000E10    1.067337696440518E-3  -1.713037199806422E-4  
 2.568000000000000E10   -5.171822267584503E-4  -1.050009974278510E-3  
 2.570000000000000E10   -4.188260936643928E-4   8.286476950161159E-4  
 2.572000000000000E10    7.806624635122716E-4   4.148025764152408E-4  
 2.574000000000000E10    3.895213885698468E-4  -8.889418095350266E-4  
 2.576000000000000E10   -1.053232233971357E-3  -6.008797572576441E-5  
 2.578000000000000E10    1.832539855968207E-4   1.236541196703911E-3  
 2.580000000000000E10    1.302322489209473E-3  -4.101225058548152E-4  
 2.582000000000000E10   -5.677393055520952E-4  -1.344863791018724E-3  
 2.584000000000000E10   -1.364167546853423E-3   1.036144094541669E-3  
 2.586000000000000E10    9.056888520717621E-4   1.307376543991268E-3  
 2.588000000000000E10    1.367051154375076E-3  -9.853559313341975E-4  
 2.590000000000000E10   -9.181729401461780E-4  -1.430110423825681E-3  
 2.592000000000000E10   -1.394734834320843E-3   1.118418294936419E-3  
 2.594000000000000E10    1.427546725608409E-3   1.646296004764736E-3  
 2.596000000000000E10    1.633361564017832E-3  -1.438402687199414E-3  
 2.598000000000000E10   -1.135663944296539E-3  -1.446357346139848E-3  
 2.600000000000000E10   -1.005882048048079E-3   1.312708598561585E-3  
 2.602000000000000E10    1.556179253384471E-3   1.206656801514328E-3  
 2.604000000000000E10    1.076861168257892E-3  -1.370321959257126E-3  
 2.606000000000000E10   -1.337431021966040E-3  -5.395417101681233E-4  
 2.608000000000000E10   -4.240533162374049E-4   1.289002597332001E-3  
 2.610000000000000E10    1.044814358465374E-3   9.630580316297710E-4  
 2.612000000000000E10    3.313007473479956E-4  -1.109860488213599E-3  
 2.614000000000000E10   -1.006670296192169E-3  -2.593296230770648E-4  
 2.616000000000000E10    1.239906996488571E-4   1.188564347103238E-3  
 2.618000000000000E10    9.717640932649374E-4  -3.710825694724917E-4  
 2.620000000000000E10   -9.466688497923315E-4  -7.175210630521178E-4  
 2.622000000000000E10   -9.186779498122633E-4   1.116348779760301E-3  
 2.624000000000000E10    1.149676390923560E-3   7.121463422663510E-4  
 2.626000000000000E10    5.188439390622079E-4  -1.563331345096231E-3  
 2.628000000000000E10   -1.606229925528169E-3  -4.404619103297591E-4  
 2.630000000000000E10   -8.655633428134024E-5   1.519383280538023E-3  
 2.632000000000000E10    2.047569490969181E-3   1.394576975144446E-4  
 2.634000000000000E10   -2.285357913933694E-4  -1.922399038448930E-3  
 2.636000000000000E10   -1.990003511309624E-3   2.130150824086741E-4  
 2.638000000000000E10    5.340505740605295E-4   2.325181849300861E-3  
 2.640000000000000E10    1.926227239891887E-3  -2.759791677817702E-4  
 2.642000000000000E10   -3.531487309373915E-4  -2.065197331830859E-3  
 2.644000000000000E10   -2.105530817061663E-3   4.643850843422115E-4  
 2.646000000000000E10    2.951721544377506E-4   2.299470826983452E-3  
 2.648000000000000E10    2.300923690199852E-3  -4.780693852808327E-4  
 2.650000000000000E10   -5.901684635318816E-4  -2.236961619928479E-3  
 2.652000000000000E10   -1.955328974872828E-3   3.412801306694746E-4  
 2.654000000000000E10    8.752876310609281E-4   2.001621527597308E-3  
 2.656000000000000E10    1.640591886825860E-3  -7.486551767215133E-4  
 2.658000000000000E10   -7.606632425449789E-4  -1.297920360229909E-3  
 2.660000000000000E10   -1.035163644701242E-3   6.762164994142950E-4  
 2.662000000000000E10    8.371659787371755E-4   8.140227291733027E-4  
 2.664000000000000E10    8.725086227059364E-4  -1.074609463103116E-3  
 2.666000000000000E10   -9.309069719165564E-4  -4.251017817296088E-4  
 2.668000000000000E10   -4.278982232790440E-4   9.194868034683168E-4  
 2.670000000000000E10    1.314001972787082E-3   3.362539573572576E-4  
 2.672000000000000E10   -5.021265678806230E-5  -1.161635736934841E-3  
 2.674000000000000E10   -1.313831890001893E-3   2.906066038121935E-5  
 2.676000000000000E10    5.271590198390186E-4   1.493418938480318E-3  
 2.678000000000000E10    1.533336355350912E-3  -9.934117551892996E-4  
 2.680000000000000E10   -1.335672801360488E-3  -1.544156926684082E-3  
 2.682000000000000E10   -1.406123978085816E-3   1.704467460513115E-3  
 2.684000000000000E10    2.117844764143229E-3   1.109334174543619E-3  
 2.686000000000000E10    1.242573605850339E-3  -2.321052365005016E-3  
 2.688000000000000E10   -1.975576393306255E-3  -1.172609743662179E-3  
 2.690000000000000E10   -1.115743652917445E-3   2.556566847488284E-3  
 2.692000000000000E10    2.482891781255603E-3   7.984811090864241E-4  
 2.694000000000000E10    9.056438575498760E-4  -2.557785483077169E-3  
 2.696000000000000E10   -2.592182485386729E-3  -5.429173470474780E-4  
 2.698000000000000E10   -3.516366414260119E-4   2.589218318462372E-3  
 2.700000000000000E10    2.461720956489444E-3  -9.154074359685183E-5  
 2.702000000000000E10   -8.931594493333250E-5  -2.511131577193737E-3  
 2.704000000000000E10   -1.963636605069041E-3   6.320525426417589E-4  
 2.706000000000000E10    1.140111824497581E-3   1.879400224424899E-3  
 2.708000000000000E10    1.720302272588015E-3  -8.286570082418621E-4  
 2.710000000000000E10   -1.120163593441248E-3  -1.661011367104948E-3  
 2.712000000000000E10   -1.443323679268360E-3   1.501327380537987E-3  
 2.714000000000000E10    1.748834969475865E-3   1.164245419204235E-3  
 2.716000000000000E10    1.143916975706816E-3  -1.689610653556883E-3  
 2.718000000000000E10   -2.011036733165383E-3  -7.851531263440847E-4  
 2.720000000000000E10   -2.791753795463592E-4   2.026373520493507E-3  
 2.722000000000000E10    2.159956376999617E-3   2.432722394587472E-4  
 2.724000000000000E10    1.079323556041345E-4  -2.293481491506100E-3  
 2.726000000000000E10   -2.307119313627482E-3   2.075101365335286E-4  
 2.728000000000000E10    3.975926083512604E-4   2.563952701166272E-3  
 2.730000000000000E10    2.429594518616796E-3  -5.338332848623395E-4  
 2.732000000000000E10   -5.843637045472860E-4  -2.583374967798591E-3  
 2.734000000000000E10   -2.739002229645848E-3   7.233627256937325E-4  
 2.736000000000000E10    1.041851704940200E-3   2.316910773515701E-3  
 2.738000000000000E10    2.775648841634393E-3  -6.673774914816022E-4  
 2.740000000000000E10   -9.873441886156797E-4  -2.377738943323493E-3  
 2.742000000000000E10   -2.163746161386371E-3   1.333414809778333E-3  
 2.744000000000000E10    1.301602576859295E-3   2.163394121453166E-3  
 2.746000000000000E10    2.007174305617809E-3  -1.489451038651168E-3  
 2.748000000000000E10   -1.573946210555732E-3  -1.271443441510201E-3  
 2.750000000000000E10   -1.410067081451416E-3   1.413836143910885E-3  
 2.752000000000000E10    1.574803725816310E-3   8.723685168661177E-4  
 2.754000000000000E10    4.460095078684390E-4  -1.224983250722289E-3  
 2.756000000000000E10   -1.269485102966428E-3  -4.254561790730804E-4  
