#  HZ   S   RI   R     50.00 
! Rohde & Schwarz ZVA40 4Ports - Version 3.90 - 1145.1110k42 SN: 100403
! Date: 2023-10-04 10:51:52
! Measurement: S12 
! 
 2.200000000000000E10    1.501211198046804E-3   4.618107341229916E-3  
 2.202000000000000E10    4.462044220417738E-3  -1.972500700503588E-3  
 2.204000000000000E10   -2.175731817260385E-3  -4.338658880442381E-3  
 2.206000000000000E10   -3.921183291822672E-3   2.261258196085692E-3  
 2.208000000000000E10    2.823952818289399E-3   3.541217651218176E-3  
 2.210000000000000E10    3.349125850945711E-3  -2.423120196908712E-3  
 2.212000000000000E10   -2.244938397780061E-3  -3.016076050698757E-3  
 2.214000000000000E10   -2.710817148908973E-3   2.513407496735454E-3  
 2.216000000000000E10    1.990893390029669E-3   2.269737422466278E-3  
 2.218000000000000E10    2.162707969546318E-3  -1.748889684677124E-3  
 2.220000000000000E10   -1.803356455639005E-3  -2.067581284791231E-3  
 2.222000000000000E10   -1.792427501641214E-3   1.495778211392462E-3  
 2.224000000000000E10    1.681329915300012E-3   1.503193401731551E-3  
 2.226000000000000E10    1.637845183722675E-3  -1.188217080198228E-3  
 2.228000000000000E10   -1.456538098864257E-3  -1.512500224635005E-3  
 2.230000000000000E10   -1.168643706478179E-3   1.721149543300271E-3  
 2.232000000000000E10    1.430162927135825E-3   8.341728826053441E-4  
 2.234000000000000E10    8.979463600553572E-4  -1.552692730911076E-3  
 2.236000000000000E10   -1.298245275393128E-3  -6.646174006164074E-4  
 2.238000000000000E10   -7.855242438381538E-5   1.339191920123994E-3  
 2.240000000000000E10    1.269861124455929E-3   2.252816375403199E-5  
 2.242000000000000E10   -3.888639548677020E-5  -1.643682830035687E-3  
 2.244000000000000E10   -1.239549368619919E-3   7.199725951068103E-4  
 2.246000000000000E10    5.896165384911001E-4   1.064527314156294E-3  
 2.248000000000000E10    1.015895162709057E-3  -7.450557895936072E-4  
 2.250000000000000E10   -1.435900572687388E-3  -9.628123370930553E-4  
 2.252000000000000E10   -7.982082897797227E-4   1.440377905964851E-3  
 2.254000000000000E10    1.883881399407983E-3   1.160084968432784E-3  
 2.256000000000000E10    9.401721181347966E-4  -2.370473928749561E-3  
 2.258000000000000E10   -2.367492066696286E-3  -8.814428583718836E-4  
 2.260000000000000E10   -2.626170462463051E-4   2.759076654911041E-3  
 2.262000000000000E10    2.880231244489551E-3   1.380414760205895E-4  
 2.264000000000000E10    1.606037403689697E-4  -3.102595219388604E-3  
 2.266000000000000E10   -3.105973359197378E-3   4.792411637026817E-4  
 2.268000000000000E10    5.941587733104825E-4   2.918394748121500E-3  
 2.270000000000000E10    3.332451218739152E-3  -1.060180366039276E-3  
 2.272000000000000E10   -1.306418096646667E-3  -3.180616768077016E-3  
 2.274000000000000E10   -3.226941218599677E-3   1.700091524980962E-3  
 2.276000000000000E10    2.352319424971938E-3   2.893928904086351E-3  
 2.278000000000000E10    2.423059195280075E-3  -2.500897506251931E-3  
 2.280000000000000E10   -2.776219276711345E-3  -2.023357199504972E-3  
 2.282000000000000E10   -3.238971577957273E-3   1.426773727871478E-3  
 2.284000000000000E10    3.146576695144177E-3   1.338823931291699E-3  
 2.286000000000000E10    8.099189726635814E-4  -3.519329009577632E-3  
 2.288000000000000E10   -3.397286636754870E-3  -2.446052967570722E-4  
 2.290000000000000E10    5.605336627922952E-4   3.561612917110324E-3  
 2.292000000000000E10    3.488781163468957E-3  -6.257493514567614E-4  
 2.294000000000000E10   -1.429734751582146E-3  -3.291171276941896E-3  
 2.296000000000000E10   -3.428238676860929E-3   1.976101892068982E-3  
 2.298000000000000E10    2.167274476960301E-3   2.766056219115853E-3  
 2.300000000000000E10    2.764261560514569E-3  -2.565855160355568E-3  
 2.302000000000000E10   -2.473627682775259E-3  -2.450680593028665E-3  
 2.304000000000000E10   -2.109421417117119E-3   3.037253394722939E-3  
 2.306000000000000E10    3.288143314421177E-3   1.807737629860640E-3  
 2.308000000000000E10    1.638122368603945E-3  -2.843907801434398E-3  
 2.310000000000000E10   -2.993531059473753E-3  -1.154824043624103E-3  
 2.312000000000000E10   -1.044801552779973E-3   3.116585314273834E-3  
 2.314000000000000E10    3.163028042763472E-3   6.163048092275858E-4  
 2.316000000000000E10    5.124607705511153E-4  -3.048286540433765E-3  
 2.318000000000000E10   -3.148162737488747E-3   2.620537452457938E-5  
 2.320000000000000E10    3.879445139318705E-4   2.825094386935234E-3  
 2.322000000000000E10    2.773736137896776E-3  -2.491571067366749E-4  
 2.324000000000000E10   -1.094513689167798E-3  -2.532253507524729E-3  
 2.326000000000000E10   -1.997540704905987E-3   1.553075038827956E-3  
 2.328000000000000E10    1.246526604518294E-3   1.261270139366388E-3  
 2.330000000000000E10    7.270735222846270E-4  -1.554333721287549E-3  
 2.332000000000000E10   -1.732760923914611E-3  -5.986830219626427E-4  
 2.334000000000000E10   -5.266765365377069E-4   1.960375579074025E-3  
 2.336000000000000E10    2.125195227563381E-3  -2.026547008426860E-4  
 2.338000000000000E10   -7.582742255181074E-4  -2.844554372131825E-3  
 2.340000000000000E10   -2.400453900918365E-3   1.386756892316043E-3  
 2.342000000000000E10    1.705698086880148E-3   2.544086193665862E-3  
 2.344000000000000E10    2.548793563619256E-3  -2.426821272820234E-3  
 2.346000000000000E10   -2.753423061221838E-3  -2.280373824760318E-3  
 2.348000000000000E10   -2.023599343374372E-3   3.088514553382993E-3  
 2.350000000000000E10    3.128962824121118E-3   1.934563159011304E-3  
 2.352000000000000E10    2.013758290559053E-3  -3.737322287634015E-3  
 2.354000000000000E10   -4.301506094634533E-3  -1.793169416487217E-3  
 2.356000000000000E10   -1.176669728010893E-3   4.563390277326107E-3  
 2.358000000000000E10    4.603467416018248E-3   8.461014367640019E-4  
 2.360000000000000E10    6.180855561979115E-4  -4.754633642733097E-3  
 2.362000000000000E10   -4.511354956775904E-3  -3.891445812769234E-4  
 2.364000000000000E10   -1.373000031890115E-5   4.473346285521984E-3  
 2.366000000000000E10    4.248307552188635E-3  -2.534488157834858E-4  
 2.368000000000000E10   -7.497482583858073E-4  -4.288264550268650E-3  
 2.370000000000000E10   -3.717996645718813E-3   9.150594123639166E-4  
 2.372000000000000E10    1.119116204790771E-3   3.563260659575462E-3  
 2.374000000000000E10    3.170418553054333E-3  -1.421357970684767E-3  
 2.376000000000000E10   -1.380941132083535E-3  -2.742710988968611E-3  
 2.378000000000000E10   -2.093352843075991E-3   1.694031176157296E-3  
 2.380000000000000E10    1.787048531696200E-3   1.859759329818189E-3  
 2.382000000000000E10    1.364004798233509E-3  -1.854841597378254E-3  
 2.384000000000000E10   -1.800790079869330E-3  -8.703787461854518E-4  
 2.386000000000000E10   -6.847754702903330E-4   1.966892275959253E-3  
 2.388000000000000E10    1.844609505496919E-3   2.808952704071999E-4  
 2.390000000000000E10   -1.415444421581924E-4  -2.006546361371875E-3  
 2.392000000000000E10   -1.700892695225775E-3   7.351757376454771E-4  
 2.394000000000000E10    1.390201738104224E-3   1.636498956941068E-3  
 2.396000000000000E10    1.461804378777742E-3  -1.253338181413710E-3  
 2.398000000000000E10   -1.515585114248097E-3  -1.413076650351286E-3  
 2.400000000000000E10   -1.177719561383128E-3   1.727807102724910E-3  
 2.402000000000000E10    2.275874605402350E-3   1.188494032248855E-3  
 2.404000000000000E10    1.060485374182463E-3  -2.166601829230785E-3  
 2.406000000000000E10   -2.496277214959264E-3  -8.372882730327547E-4  
 2.408000000000000E10   -9.093681583181024E-4   2.830836223438382E-3  
 2.410000000000000E10    3.108318429440260E-3   9.370081243105233E-4  
 2.412000000000000E10    3.632955776993185E-4  -2.783945063129067E-3  
 2.414000000000000E10   -3.152071731165052E-3  -4.766916099470109E-4  
 2.416000000000000E10    2.524911542423070E-5   3.129653632640839E-3  
 2.418000000000000E10    2.958075376227498E-3  -4.323446046328172E-5  
 2.420000000000000E10   -6.253792671486735E-4  -2.808792283758521E-3  
 2.422000000000000E10   -2.902527572587133E-3   5.790361901745200E-4  
 2.424000000000000E10    9.294591145589948E-4   2.578382380306721E-3  
 2.426000000000000E10    2.232112921774387E-3  -1.070331782102585E-3  
 2.428000000000000E10   -1.498111058026552E-3  -2.222558017820120E-3  
 2.430000000000000E10   -2.143876394256949E-3   1.494395430199802E-3  
 2.432000000000000E10    1.513195806182921E-3   1.709447358734906E-3  
 2.434000000000000E10    1.385791110806167E-3  -2.071825554594398E-3  
 2.436000000000000E10   -2.161562442779541E-3  -9.813237702473998E-4  
 2.438000000000000E10   -8.093514479696751E-4   1.755466917529702E-3  
 2.440000000000000E10    2.025054534897208E-3   6.151798297651112E-4  
 2.442000000000000E10    1.144179041148163E-4  -2.204630291089416E-3  
 2.444000000000000E10   -2.369840862229466E-3  -3.630464198067784E-5  
 2.446000000000000E10    2.969585475511849E-4   2.405409701168537E-3  
 2.448000000000000E10    2.344159642234445E-3  -8.657957660034299E-4  
 2.450000000000000E10   -1.314144232310355E-3  -2.442733850330114E-3  
 2.452000000000000E10   -2.386255422607064E-3   1.111053745262325E-3  
 2.454000000000000E10    1.319158589467406E-3   2.312904223799706E-3  
 2.456000000000000E10    2.096804091706872E-3  -1.915198634378612E-3  
 2.458000000000000E10   -1.920503680594266E-3  -2.211712999269366E-3  
 2.460000000000000E10   -1.536380732432008E-3   1.859421725384891E-3  
 2.462000000000000E10    2.170788124203682E-3   1.720336382277310E-3  
 2.464000000000000E10    1.538473647087812E-3  -1.971302088350058E-3  
 2.466000000000000E10   -2.176863141357899E-3  -1.525184605270624E-3  
 2.468000000000000E10   -1.240659621544182E-3   2.068054163828492E-3  
 2.470000000000000E10    2.098036464303732E-3   9.907050989568234E-4  
 2.472000000000000E10    9.148015524260700E-4  -2.140547614544630E-3  
 2.474000000000000E10   -2.065503969788551E-3  -4.932017764076591E-4  
 2.476000000000000E10   -5.833456089021638E-5   1.674810424447060E-3  
 2.478000000000000E10    1.723504043184221E-3   1.513911556685343E-4  
 2.480000000000000E10   -1.329951046500355E-4  -1.251879264600575E-3  
 2.482000000000000E10   -1.291461987420917E-3   5.876056384295225E-4  
 2.484000000000000E10    6.653562304563820E-4   5.213763215579093E-4  
 2.486000000000000E10    6.649370770901442E-4  -1.109403907321394E-3  
 2.488000000000000E10   -1.352085964754224E-3   1.028128390316851E-4  
 2.490000000000000E10    3.204986278433353E-4   1.389302546158433E-3  
 2.492000000000000E10    1.247829990461469E-3  -6.009670323692262E-4  
 2.494000000000000E10   -7.767460192553699E-4  -1.605640980415046E-3  
 2.496000000000000E10   -1.545452163554728E-3   1.051218947395682E-3  
 2.498000000000000E10    1.427918206900358E-3   1.604362158104777E-3  
 2.500000000000000E10    1.738590886816382E-3  -1.490583643317223E-3  
 2.502000000000000E10   -1.740998704917729E-3  -1.702636014670134E-3  
 2.504000000000000E10   -1.485412591136992E-3   2.182424068450928E-3  
 2.506000000000000E10    2.247293014079332E-3   1.206046319566667E-3  
 2.508000000000000E10    1.289314357563853E-3  -2.131807850673795E-3  
 2.510000000000000E10   -2.467720303684473E-3  -1.014963840134442E-3  
 2.512000000000000E10   -1.208054949529469E-3   2.534623723477125E-3  
 2.514000000000000E10    2.611157251521945E-3   8.328161784447730E-4  
 2.516000000000000E10    5.977399996481836E-4  -2.341249259188771E-3  
 2.518000000000000E10   -2.525496063753963E-3  -3.578143659979105E-4  
 2.520000000000000E10   -6.195506430231035E-4   2.097806893289089E-3  
 2.522000000000000E10    1.868799910880625E-3   2.006696304306388E-4  
 2.524000000000000E10    1.886491081677377E-4  -1.743201748467982E-3  
 2.526000000000000E10   -1.669000019319356E-3  -9.048466017702594E-5  
 2.528000000000000E10   -2.683547791093588E-4   1.532820402644575E-3  
 2.530000000000000E10    1.274795271456242E-3  -3.153106954414398E-4  
 2.532000000000000E10   -2.496923552826047E-4  -1.178216887637973E-3  
 2.534000000000000E10   -9.895560797303915E-4   4.118440265301615E-4  
 2.536000000000000E10    5.467436858452857E-4   5.046052974648774E-4  
 2.538000000000000E10    5.829465808346868E-4  -1.110856072045863E-3  
 2.540000000000000E10   -7.988375145941973E-4   3.600642958190292E-5  
 2.542000000000000E10    1.966764975804836E-4   1.009301864542067E-3  
 2.544000000000000E10    1.230119261890650E-3  -6.749887834303081E-4  
 2.546000000000000E10   -7.037176401354373E-4  -1.253918511793017E-3  
 2.548000000000000E10   -1.039222232066095E-3   1.168055809102953E-3  
 2.550000000000000E10    1.404273672960699E-3   1.281558652408421E-3  
 2.552000000000000E10    8.062362903729081E-4  -1.491407630965114E-3  
 2.554000000000000E10   -1.719181775115430E-3  -7.826938526704907E-4  
 2.556000000000000E10   -7.757502025924623E-4   1.561105484142900E-3  
 2.558000000000000E10    1.853936119005084E-3   7.426858064718545E-4  
 2.560000000000000E10    8.450439199805260E-4  -1.891589607112110E-3  
 2.562000000000000E10   -2.170335035771132E-3  -4.864866787102073E-4  
 2.564000000000000E10   -7.467116811312735E-4   2.229722449555993E-3  
 2.566000000000000E10    2.612914890050888E-3   4.731553417514078E-5  
 2.568000000000000E10   -1.915387256303802E-4  -2.405578503385186E-3  
 2.570000000000000E10   -1.956437015905976E-3   6.097073201090097E-4  
 2.572000000000000E10    7.161768153309822E-4   2.040229272097349E-3  
 2.574000000000000E10    1.821482321247459E-3  -6.247133133001626E-4  
 2.576000000000000E10   -9.665742982178927E-4  -1.494113472290337E-3  
 2.578000000000000E10   -1.399467000737786E-3   1.317410031333566E-3  
 2.580000000000000E10    1.315685804001987E-3   1.280721509829164E-3  
 2.582000000000000E10    8.263136842288077E-4  -1.453605014830828E-3  
 2.584000000000000E10   -1.430682721547782E-3  -7.479488267563283E-4  
 2.586000000000000E10   -8.146245381794870E-4   1.479467144235969E-3  
 2.588000000000000E10    1.836934708990157E-3   3.236571210436523E-4  
 2.590000000000000E10    3.357250534463674E-5  -1.817985554225743E-3  
 2.592000000000000E10   -1.838911091908813E-3   2.169118852179963E-5  
 2.594000000000000E10    5.022199911763892E-5   2.073428593575954E-3  
 2.596000000000000E10    2.206758596003056E-3  -4.332751268520951E-4  
 2.598000000000000E10   -9.693866013549268E-4  -2.256071660667658E-3  
 2.600000000000000E10   -2.363848267123103E-3   9.714790503494442E-4  
 2.602000000000000E10    1.124499947763979E-3   2.209611237049103E-3  
 2.604000000000000E10    2.033862518146634E-3  -1.297249109484255E-3  
 2.606000000000000E10   -1.276401337236166E-3  -2.117100637406111E-3  
 2.608000000000000E10   -1.942481962032616E-3   1.658435328863561E-3  
 2.610000000000000E10    1.465601380914450E-3   2.278415253385902E-3  
 2.612000000000000E10    1.869542757049203E-3  -1.588689628988504E-3  
 2.614000000000000E10   -1.832675421610475E-3  -2.076833508908749E-3  
 2.616000000000000E10   -1.843645935878158E-3   1.660822308622301E-3  
 2.618000000000000E10    1.613043597899377E-3   1.835045171901584E-3  
 2.620000000000000E10    1.190528040751815E-3  -1.935107866302133E-3  
 2.622000000000000E10   -1.528447261080146E-3  -1.149456482380629E-3  
 2.624000000000000E10   -1.339828711934388E-3   1.677956199273467E-3  
 2.626000000000000E10    1.780736143700779E-3   8.145261672325432E-4  
 2.628000000000000E10    6.146054947748780E-4  -1.868813298642635E-3  
 2.630000000000000E10   -1.656035892665386E-3  -3.730471653398126E-4  
 2.632000000000000E10    4.711783913080581E-5   1.503579085692763E-3  
 2.634000000000000E10    1.641209353692830E-3  -8.792756125330925E-5  
 2.636000000000000E10   -9.181061177514494E-4  -1.242644037120044E-3  
 2.638000000000000E10   -1.127283554524183E-3   9.634039015509188E-4  
 2.640000000000000E10    1.563286874443293E-3   8.776023169048131E-4  
 2.642000000000000E10    5.478178500197828E-4  -1.550407148897648E-3  
 2.644000000000000E10   -1.925795571878552E-3  -4.912540898658335E-4  
 2.646000000000000E10   -3.099182795267552E-4   2.109050750732422E-3  
 2.648000000000000E10    2.239173045381904E-3  -3.406218602322042E-4  
 2.650000000000000E10   -2.873502671718597E-4  -2.534367609769106E-3  
 2.652000000000000E10   -2.835758263245225E-3   6.459918804466724E-4  
 2.654000000000000E10    1.050096703693271E-3   2.801566617563367E-3  
 2.656000000000000E10    3.123483853414655E-3  -1.444868277758360E-3  
 2.658000000000000E10   -1.588061451911926E-3  -2.717603463679552E-3  
 2.660000000000000E10   -2.872766694054008E-3   1.562639605253935E-3  
 2.662000000000000E10    1.815163297578692E-3   2.782185561954975E-3  
 2.664000000000000E10    2.477672416716814E-3  -1.874679001048207E-3  
 2.666000000000000E10   -2.182877855375409E-3  -2.565393457189202E-3  
 2.668000000000000E10   -2.064301632344723E-3   2.186041790992022E-3  
 2.670000000000000E10    1.998783089220524E-3   1.841625780798495E-3  
 2.672000000000000E10    1.748876296915114E-3  -1.977209234610200E-3  
 2.674000000000000E10   -1.880445401184261E-3  -1.754753524437547E-3  
 2.676000000000000E10   -1.434400095604360E-3   1.988191157579422E-3  
 2.678000000000000E10    1.840650103986263E-3   1.531574642285705E-3  
 2.680000000000000E10    1.001375727355480E-3  -1.800455735065043E-3  
 2.682000000000000E10   -1.777293044142425E-3  -8.813538006506860E-4  
 2.684000000000000E10   -6.073300610296428E-4   1.910436665639281E-3  
 2.686000000000000E10    1.666299300268292E-3   4.311664961278439E-4  
 2.688000000000000E10   -1.529070577817038E-4  -1.397940679453313E-3  
 2.690000000000000E10   -1.439348794519901E-3  -2.011538163060322E-4  
 2.692000000000000E10    2.134413662133738E-4   1.242800848558545E-3  
 2.694000000000000E10    1.147882197983563E-3  -3.447350463829935E-4  
 2.696000000000000E10   -9.716492495499551E-4  -1.091415178962052E-3  
 2.698000000000000E10   -1.039944356307387E-3   1.141308224759996E-3  
 2.700000000000000E10    1.166137750260532E-3   8.130134083330631E-4  
 2.702000000000000E10    3.459071740508080E-4  -1.190874259918928E-3  
 2.704000000000000E10   -1.547492924146354E-3  -3.411672369111329E-4  
 2.706000000000000E10   -3.649236750788987E-4   1.581254648044705E-3  
 2.708000000000000E10    1.645320444367826E-3   1.779358717612922E-4  
 2.710000000000000E10    1.730089570628479E-4  -1.863096724264324E-3  
 2.712000000000000E10   -2.183725591748953E-3   1.549129956401885E-4  
 2.714000000000000E10    5.463997367769480E-4   2.033328637480736E-3  
 2.716000000000000E10    1.908751204609871E-3  -6.366847665049136E-4  
 2.718000000000000E10   -6.372046773321927E-4  -1.973915612325072E-3  
 2.720000000000000E10   -2.166040008887649E-3   8.022872498258948E-4  
 2.722000000000000E10    6.917103892192245E-4   2.009295625612140E-3  
 2.724000000000000E10    1.810839050449431E-3  -9.742200491018593E-4  
 2.726000000000000E10   -1.310519292019308E-3  -1.804574974812567E-3  
 2.728000000000000E10   -1.584031735546887E-3   8.869556477293372E-4  
 2.730000000000000E10    1.148179057054222E-3   1.216262113302946E-3  
 2.732000000000000E10    1.162991044111550E-3  -1.308538718149066E-3  
 2.734000000000000E10   -1.259255572222173E-3  -7.103939424268901E-4  
 2.736000000000000E10   -3.966829099226743E-4   1.091826241463423E-3  
 2.738000000000000E10    8.420594967901707E-4   7.400415779557079E-5  
 2.740000000000000E10    8.963559230323881E-5  -1.135810744017363E-3  
 2.742000000000000E10   -6.305998540483415E-4   4.005239461548626E-4  
 2.744000000000000E10    3.679470682982355E-4   7.498811464756727E-4  
 2.746000000000000E10    7.101058727130294E-4  -5.927449674345553E-4  
 2.748000000000000E10   -1.042317482642829E-3  -4.857081221416593E-4  
 2.750000000000000E10   -7.106269476935267E-4   1.207275665365160E-3  
 2.752000000000000E10    1.437815953977406E-3   3.987880190834403E-4  
 2.754000000000000E10    4.755159898195416E-4  -1.700908062048256E-3  
 2.756000000000000E10   -1.548897358588874E-3  -2.276244049426168E-4  
