#  HZ   S   RI   R     50.00 
! Rohde & Schwarz ZVA40 4Ports - Version 3.90 - 1145.1110k42 SN: 100403
! Date: 2023-10-04 09:37:58
! Measurement: S12 
! 
 2.200000000000000E10    5.737525061704218E-4  -7.790937670506537E-4  
 2.202000000000000E10   -1.553059788420796E-3  -7.955414475873113E-4  
 2.204000000000000E10   -9.260300430469215E-4   1.500876969657838E-3  
 2.206000000000000E10    9.599049226380885E-4   2.045423490926623E-3  
 2.208000000000000E10    1.904461416415870E-3  -1.367579214274883E-3  
 2.210000000000000E10   -1.946026750374585E-4  -1.995339989662170E-3  
 2.212000000000000E10   -9.438882698304951E-4   4.389119276311249E-4  
 2.214000000000000E10    1.023929216898978E-3   1.599968527443707E-3  
 2.216000000000000E10    1.608470454812050E-3   7.476710597984493E-4  
 2.218000000000000E10   -2.563995258242358E-5   4.161960387136787E-4  
 2.220000000000000E10   -5.627875216305256E-4   2.861392567865551E-5  
 2.222000000000000E10   -2.924251020886004E-4   4.702055302914232E-4  
 2.224000000000000E10   -1.391906873323023E-3   3.056239074794576E-5  
 2.226000000000000E10   -2.520232519600540E-4   1.756060955813155E-4  
 2.228000000000000E10    8.871297468431294E-4  -2.332287840545178E-4  
 2.230000000000000E10    1.042215968482196E-3  -1.801346661522985E-3  
 2.232000000000000E10   -1.016792884911411E-4  -1.711487188003957E-3  
 2.234000000000000E10    7.591582834720612E-5   1.078144065104425E-3  
 2.236000000000000E10    1.110695186071098E-3   1.322427182458341E-3  
 2.238000000000000E10    1.945271040312946E-3  -2.212014369433746E-4  
 2.240000000000000E10   -2.570482320152223E-4  -6.895128171890974E-4  
 2.242000000000000E10   -9.591880952939391E-4   2.912172931246460E-4  
 2.244000000000000E10   -3.467159112915397E-4   5.802085506729782E-4  
 2.246000000000000E10   -4.016819875687361E-4   1.072092345566489E-4  
 2.248000000000000E10   -1.293478126171976E-4  -2.354400057811290E-4  
 2.250000000000000E10    4.525245458353311E-5  -8.159762364812195E-4  
 2.252000000000000E10    5.508003960130736E-5  -1.485597109422088E-3  
 2.254000000000000E10   -5.858201766386628E-4  -7.803756161592901E-4  
 2.256000000000000E10   -3.237944620195776E-4   8.059785468503833E-4  
 2.258000000000000E10    1.309072249568999E-3   9.538357844576240E-4  
 2.260000000000000E10    8.301625493913889E-4  -7.763697649352253E-4  
 2.262000000000000E10   -9.274398325942457E-4  -7.907342514954507E-4  
 2.264000000000000E10   -1.137932995334268E-3   3.653607564046979E-4  
 2.266000000000000E10   -6.774466019123793E-4   9.395584347657859E-4  
 2.268000000000000E10   -1.706354669295251E-4  -4.110261506866664E-4  
 2.270000000000000E10    2.618994221847970E-5  -8.515128865838051E-4  
 2.272000000000000E10   -1.630650658626109E-4  -7.172867190092802E-4  
 2.274000000000000E10   -4.060063511133194E-4  -1.206830958835781E-3  
 2.276000000000000E10   -9.527702932246029E-4  -1.243209262611345E-4  
 2.278000000000000E10   -1.256005489267409E-4   2.114082890329883E-4  
 2.280000000000000E10    7.300758734345436E-4  -7.137421634979546E-4  
 2.282000000000000E10    1.415386679582298E-3  -8.973727235570550E-4  
 2.284000000000000E10   -9.529193630442023E-4  -1.125268987379968E-3  
 2.286000000000000E10   -3.832407237496227E-4   2.439083182252944E-4  
 2.288000000000000E10    4.138508229516447E-4   8.505108417011797E-4  
 2.290000000000000E10   -1.200658152811229E-5  -4.400645411806181E-5  
 2.292000000000000E10   -9.467683266848326E-4  -4.538501088973135E-4  
 2.294000000000000E10   -1.773332362063229E-3   1.451608113711700E-4  
 2.296000000000000E10   -1.684540999121964E-3   3.066307399421930E-4  
 2.298000000000000E10   -8.338548359461129E-4   5.893660272704437E-5  
 2.300000000000000E10   -5.373134627006948E-4  -3.149549302179366E-4  
 2.302000000000000E10   -4.515885375440121E-4  -1.340133952908218E-3  
 2.304000000000000E10   -1.587836013641208E-4  -1.052126521244645E-3  
 2.306000000000000E10   -6.492229294963181E-4   4.842580237891525E-4  
 2.308000000000000E10    3.588210383895785E-4   1.073575927875936E-3  
 2.310000000000000E10    1.920100883580744E-3   1.215672702528536E-3  
 2.312000000000000E10    1.713572710286826E-4   5.393620085669681E-5  
 2.314000000000000E10   -8.303064969368279E-4   2.690303081180900E-4  
 2.316000000000000E10   -1.495004515163600E-3   2.353450749069452E-3  
 2.318000000000000E10   -1.021551783196628E-3   1.187320915050805E-3  
 2.320000000000000E10    2.207255456596613E-4   2.597473394416738E-5  
 2.322000000000000E10   -3.344278666190803E-4  -9.796948870643973E-4  
 2.324000000000000E10   -6.977918092161417E-4  -1.904669799841940E-3  
 2.326000000000000E10   -8.142272126860917E-4  -8.777127950452268E-4  
 2.328000000000000E10    5.813646712340415E-4   9.905028855428100E-4  
 2.330000000000000E10    1.809675130061805E-3  -6.114895222708583E-5  
 2.332000000000000E10    2.402401296421886E-3  -1.426659291610122E-3  
 2.334000000000000E10    5.205304114497267E-5  -6.590544944629073E-4  
 2.336000000000000E10   -1.383687835186720E-3   4.811905382666737E-4  
 2.338000000000000E10   -4.414492286741734E-5   1.812896574847400E-3  
 2.340000000000000E10    7.274727977346629E-5   1.020562369376421E-3  
 2.342000000000000E10   -1.335441920673475E-4  -6.910832016728818E-4  
 2.344000000000000E10   -8.220309391617775E-4  -1.276815310120583E-3  
 2.346000000000000E10   -1.681108144111931E-3  -1.218722434714437E-3  
 2.348000000000000E10   -7.029554108157754E-4  -5.098881083540618E-4  
 2.350000000000000E10    1.135304686613381E-3  -2.772543521132320E-4  
 2.352000000000000E10    1.545921550132334E-3  -1.133382087573409E-3  
 2.354000000000000E10    7.979332003742456E-4  -1.844511134549975E-3  
 2.356000000000000E10   -2.698450407478958E-4   4.652503994293511E-4  
 2.358000000000000E10   -4.223804862704128E-4   1.222484163008630E-3  
 2.360000000000000E10    1.025882665999234E-3   6.982452468946576E-4  
 2.362000000000000E10   -7.142795948311687E-5  -7.605066057294607E-4  
 2.364000000000000E10   -1.726093702018261E-3  -1.661558635532856E-3  
 2.366000000000000E10   -1.940994407050312E-3   3.087654185947031E-4  
 2.368000000000000E10   -3.209087881259620E-4   4.878118634223938E-4  
 2.370000000000000E10    5.883832345716655E-4  -9.045711485669017E-4  
 2.372000000000000E10    4.629397299140692E-4  -1.576677430421114E-3  
 2.374000000000000E10   -2.865170245058835E-4  -1.180402352474630E-3  
 2.376000000000000E10   -5.405495758168399E-4  -1.689674390945584E-4  
 2.378000000000000E10   -7.172058394644409E-5   1.687290379777551E-3  
 2.380000000000000E10    5.561409052461386E-4   8.894002530723810E-4  
 2.382000000000000E10    5.390376900322735E-4  -3.966926888097078E-4  
 2.384000000000000E10   -1.726219779811800E-3  -4.222944553475827E-4  
 2.386000000000000E10   -2.235248917713761E-3   1.409019459970295E-4  
 2.388000000000000E10   -6.908829091116786E-4   1.288017723709345E-3  
 2.390000000000000E10    1.045734272338450E-3   3.183023945894092E-4  
 2.392000000000000E10    3.385930322110653E-4  -1.142891822382808E-3  
 2.394000000000000E10   -3.406139439903200E-4  -1.663328614085913E-3  
 2.396000000000000E10   -5.859262892045081E-4   8.499366231262684E-4  
 2.398000000000000E10   -6.187809049151838E-5   1.107689575292170E-3  
 2.400000000000000E10    1.656881649978459E-3   1.333538442850113E-3  
 2.402000000000000E10    7.683495641686022E-4   2.013172343140468E-4  
 2.404000000000000E10    2.568289346527308E-4  -1.135976752266288E-3  
 2.406000000000000E10   -1.002822420559824E-3   8.202518074540421E-5  
 2.408000000000000E10   -5.022378172725439E-4   7.846822263672948E-4  
 2.410000000000000E10    4.210136539768428E-4   9.312205947935581E-4  
 2.412000000000000E10    1.165094436146319E-3  -3.299203526694328E-4  
 2.414000000000000E10    2.206679055234417E-4  -2.242782502435148E-4  
 2.416000000000000E10   -6.215024623088539E-4  -7.872213609516621E-4  
 2.418000000000000E10   -7.249364862218499E-4   6.581391207873821E-4  
 2.420000000000000E10    1.809821405913681E-4   7.224845467135310E-4  
 2.422000000000000E10    1.129281939938664E-3   6.989051325945184E-5  
 2.424000000000000E10    3.805768792517483E-4  -6.949207745492458E-4  
 2.426000000000000E10    1.747963979141787E-4  -1.002255827188492E-3  
 2.428000000000000E10   -5.333597655408084E-4   2.170273655792698E-4  
 2.430000000000000E10    2.975917304866016E-4   9.712306200526655E-4  
 2.432000000000000E10    1.021513482555747E-3   4.718297277577221E-4  
 2.434000000000000E10    3.835888346657157E-4  -8.966958266682923E-4  
 2.436000000000000E10   -1.286395941860974E-3  -1.445351284928620E-3  
 2.438000000000000E10   -8.693385752849281E-4  -1.388263717672089E-5  
 2.440000000000000E10   -5.218769074417651E-4   6.161875789985061E-4  
 2.442000000000000E10    1.188652124255896E-3  -6.268232245929539E-4  
 2.444000000000000E10    9.945394704118371E-4  -1.509779249317944E-3  
 2.446000000000000E10   -6.768446764908731E-4  -1.312413951382041E-3  
 2.448000000000000E10   -9.002364822663367E-4   6.068626535125077E-4  
 2.450000000000000E10    4.836153239011765E-4   1.319895498454571E-3  
 2.452000000000000E10    7.422372000291944E-4   3.816875687334687E-4  
 2.454000000000000E10    1.198622339870781E-4  -1.519802259281278E-3  
 2.456000000000000E10   -1.492715207859874E-3  -1.064723357558250E-3  
 2.458000000000000E10   -2.387831453233957E-3  -2.823569593601860E-5  
 2.460000000000000E10   -8.530508785042912E-5   5.573322996497154E-4  
 2.462000000000000E10    1.026614918373525E-3  -4.084646934643388E-5  
 2.464000000000000E10    1.043764525093138E-3  -1.953114871867001E-3  
 2.466000000000000E10   -6.333646015264094E-4  -1.432571909390390E-3  
 2.468000000000000E10   -1.996399601921439E-3   8.558356785215437E-4  
 2.470000000000000E10   -2.459500392433256E-4   2.468701452016830E-3  
 2.472000000000000E10    1.458738348446786E-3   9.675506735220552E-4  
 2.474000000000000E10   -8.405860171478707E-6  -1.067395904101431E-3  
 2.476000000000000E10   -1.843744306825101E-3  -1.403776463121176E-3  
 2.478000000000000E10   -1.912171370349824E-3   4.935799515806139E-4  
 2.480000000000000E10    1.647915050853044E-4   1.297993585467339E-3  
 2.482000000000000E10    1.828546635806561E-3   2.779681817628443E-4  
 2.484000000000000E10    1.681176596321166E-3  -8.580785361118615E-4  
 2.486000000000000E10   -1.816849980968982E-4  -1.058884547092021E-3  
 2.488000000000000E10   -3.751440672203898E-4   1.120879314839840E-3  
 2.490000000000000E10   -2.642170584294945E-4   2.403759863227606E-3  
 2.492000000000000E10    1.216869335621595E-3   8.393222233280540E-4  
 2.494000000000000E10    1.348616904579103E-3  -4.393956623971462E-4  
 2.496000000000000E10   -5.648939404636622E-4  -9.512336691841483E-4  
 2.498000000000000E10   -9.576541488058865E-4   2.042201231233776E-4  
 2.500000000000000E10    5.675754509866238E-4   1.422461937181652E-3  
 2.502000000000000E10    1.949320547282696E-3   9.511981625109911E-4  
 2.504000000000000E10    1.279027434065938E-3  -1.030719606205821E-3  
 2.506000000000000E10    2.959362755063921E-4  -5.003626574762166E-4  
 2.508000000000000E10   -1.012090011499822E-3   5.171457305550575E-4  
 2.510000000000000E10    1.717477716738358E-4   6.841138238087297E-4  
 2.512000000000000E10    1.391492784023285E-3   6.666298140771687E-4  
 2.514000000000000E10    7.144435658119619E-4  -5.456531653180718E-4  
 2.516000000000000E10    1.655389060033485E-4  -1.483485219068825E-3  
 2.518000000000000E10   -5.875790957361460E-4   5.555851384997368E-4  
 2.520000000000000E10   -9.881537698674947E-5   1.394746359437704E-3  
 2.522000000000000E10    1.831718953326345E-3   9.217159240506589E-4  
 2.524000000000000E10    1.243726117536426E-3  -7.002332713454962E-4  
 2.526000000000000E10   -1.386424642987549E-3  -1.753129996359348E-3  
 2.528000000000000E10   -1.891404855996370E-3   3.458474238868803E-4  
 2.530000000000000E10   -7.926778635010123E-4   1.589547027833760E-3  
 2.532000000000000E10    9.843179723247886E-4  -1.088334465748631E-4  
 2.534000000000000E10    8.617077837698162E-4  -1.651783124543726E-3  
 2.536000000000000E10   -9.074645276996307E-6  -1.362302573397756E-3  
 2.538000000000000E10   -1.147753326222301E-3   1.041203649947420E-4  
 2.540000000000000E10    3.788161557167769E-4   1.199766062200069E-3  
 2.542000000000000E10    8.118711994029582E-4   1.357423723675311E-3  
 2.544000000000000E10    4.108355497010052E-4  -1.223995350301266E-4  
 2.546000000000000E10   -1.278563868254423E-3  -5.721480702050030E-4  
 2.548000000000000E10   -2.228272613137960E-3  -5.095286760479212E-4  
 2.550000000000000E10   -1.507682143710554E-3   1.034757005982101E-3  
 2.552000000000000E10    8.186746272258461E-4  -1.712567463982850E-4  
 2.554000000000000E10    1.219069468788803E-3  -1.572257257066667E-3  
 2.556000000000000E10   -8.522369898855686E-4  -1.971777994185686E-3  
 2.558000000000000E10   -5.987576441839337E-4  -2.676684525795281E-4  
 2.560000000000000E10    1.269837521249428E-4   1.562275458127260E-3  
 2.562000000000000E10    1.226759864948690E-3   7.443692884407938E-4  
 2.564000000000000E10    3.863388847094029E-4  -1.521465019322932E-4  
 2.566000000000000E10   -7.758848369121552E-4  -7.276206160895526E-4  
 2.568000000000000E10   -1.645522890612483E-3  -1.274149981327355E-4  
 2.570000000000000E10   -1.009532017633319E-3   5.737129831686616E-4  
 2.572000000000000E10    3.274550545029342E-4   5.028218147344887E-4  
 2.574000000000000E10    7.945685065351427E-4  -1.384946168400347E-3  
 2.576000000000000E10    1.983643778658006E-5  -1.720013213343918E-3  
 2.578000000000000E10   -9.935612324625254E-4  -2.339425554964691E-4  
 2.580000000000000E10    3.846214167424478E-5   1.512634102255106E-3  
 2.582000000000000E10    1.267258077859879E-3   3.804823209065944E-4  
 2.584000000000000E10    1.097150612622500E-3  -8.239463204517961E-4  
 2.586000000000000E10   -1.412488054484129E-3  -7.452548597939313E-4  
 2.588000000000000E10   -1.259697251953185E-3   3.906951751559973E-4  
 2.590000000000000E10   -3.134303842671216E-4   8.799785864539444E-4  
 2.592000000000000E10    5.645801429636776E-4   2.150175569113344E-4  
 2.594000000000000E10    4.618442908395082E-4  -7.313172100111842E-4  
 2.596000000000000E10   -1.481191575294361E-4  -7.966014090925455E-4  
 2.598000000000000E10   -1.563225174322724E-3  -2.249445096822456E-4  
 2.600000000000000E10   -5.899161915294826E-4   6.605127709917724E-4  
 2.602000000000000E10    5.570676294155419E-4   1.347643323242664E-3  
 2.604000000000000E10    1.078369677998126E-3  -7.305486360564828E-4  
 2.606000000000000E10   -1.290637155761942E-4  -1.278366427868605E-3  
 2.608000000000000E10   -1.306426827795804E-3  -1.693337399046868E-4  
 2.610000000000000E10   -1.080590445781127E-4   1.927452860400081E-3  
 2.612000000000000E10    1.261228346265853E-3   1.247688429430127E-3  
 2.614000000000000E10    8.426316198892891E-4  -2.153202367480844E-4  
 2.616000000000000E10   -4.820501781068742E-4  -3.362751449458301E-4  
 2.618000000000000E10   -7.932717562653124E-4   5.669187521561980E-4  
 2.620000000000000E10   -9.391086059622467E-4   8.007641299627721E-4  
 2.622000000000000E10   -6.467480852734298E-5   6.944508058950305E-4  
 2.624000000000000E10    1.029400620609522E-3   4.499507213040488E-6  
 2.626000000000000E10    7.595830829814076E-4  -9.321087854914367E-4  
 2.628000000000000E10   -2.940373960882425E-4  -4.222584539093077E-4  
 2.630000000000000E10   -1.885683741420507E-4   1.264028949663043E-3  
 2.632000000000000E10    7.155756466090679E-4   1.471269875764847E-3  
 2.634000000000000E10    1.530230278149247E-3   1.295424299314618E-4  
 2.636000000000000E10   -1.220029953401536E-4  -1.675520179560408E-4  
 2.638000000000000E10   -1.223992323502898E-3   1.793637202354148E-4  
 2.640000000000000E10   -2.446970611345023E-4   1.194717944599688E-3  
 2.642000000000000E10    3.743197303265333E-4   7.666858728043735E-4  
 2.644000000000000E10    4.653985670302063E-4  -1.531588786747307E-4  
 2.646000000000000E10    1.595440116943792E-4  -8.743037324165925E-5  
 2.648000000000000E10   -4.414224822539836E-4   1.056235851137899E-4  
 2.650000000000000E10   -5.522262654267252E-4   1.302185410168022E-4  
 2.652000000000000E10    5.092880455777049E-4   1.264439779333770E-3  
 2.654000000000000E10    6.051423843018711E-4   2.690985566005111E-4  
 2.656000000000000E10    5.710617406293750E-4  -1.309246406890452E-3  
 2.658000000000000E10   -8.440766250714660E-4  -3.333227359689772E-4  
 2.660000000000000E10   -7.738877320662141E-4   8.254590211436153E-4  
 2.662000000000000E10    8.935170480981469E-4   1.030689803883433E-3  
 2.664000000000000E10    1.602479373104870E-3  -2.421421813778579E-4  
 2.666000000000000E10    1.729639916447923E-4  -7.842718623578548E-4  
 2.668000000000000E10   -7.008983520790935E-4  -4.061059444211423E-4  
 2.670000000000000E10   -6.177531322464347E-4   7.308996282517910E-4  
 2.672000000000000E10   -5.941744311712682E-4   4.153917834628373E-4  
 2.674000000000000E10    7.889011758379638E-4  -4.319915024098009E-4  
 2.676000000000000E10    3.189157578162849E-4  -1.099837827496231E-3  
 2.678000000000000E10   -9.271521703340113E-4  -1.559990574605763E-3  
 2.680000000000000E10   -5.848329747095704E-4  -3.994343278463930E-4  
 2.682000000000000E10    7.025857921689749E-4   7.901751087047160E-4  
 2.684000000000000E10    1.351977814920247E-3   7.729345816187561E-5  
 2.686000000000000E10    5.783408414572477E-4  -1.053550862707198E-3  
 2.688000000000000E10   -1.539055607281625E-3  -5.748143885284662E-4  
 2.690000000000000E10   -1.298173097893596E-3   2.091458009090275E-4  
 2.692000000000000E10   -4.771064559463412E-4   7.376999710686505E-4  
 2.694000000000000E10   -1.259228738490492E-4  -5.674358108080924E-4  
 2.696000000000000E10   -1.899165654322133E-4  -1.078039756976068E-3  
 2.698000000000000E10   -5.253473063930869E-4  -9.643874946050346E-4  
 2.700000000000000E10   -4.271993529982865E-4   6.807083263993263E-5  
 2.702000000000000E10    1.506185362813994E-4   4.004777583759278E-4  
 2.704000000000000E10    8.161976584233344E-4   2.012701006606221E-4  
 2.706000000000000E10    5.757408143836074E-5  -3.801188722718507E-4  
 2.708000000000000E10   -7.970714941620827E-4  -1.830049150157720E-4  
 2.710000000000000E10   -1.322518102824688E-3   8.804044919088483E-4  
 2.712000000000000E10   -1.276876864721999E-4   8.899380336515605E-4  
 2.714000000000000E10    2.836837957147509E-4  -5.289471591822803E-4  
 2.716000000000000E10   -3.602853394113481E-4  -1.024501863867044E-3  
 2.718000000000000E10   -1.038048532791436E-3   3.377746907062829E-4  
 2.720000000000000E10    4.727937721327180E-6   4.030292911920697E-4  
 2.722000000000000E10    5.053861532360315E-4   2.054477226920426E-4  
 2.724000000000000E10    3.876215032505570E-6  -1.688815973466262E-4  
 2.726000000000000E10   -7.638530951226130E-5   3.296101349405944E-4  
 2.728000000000000E10   -9.053056128323078E-4   7.500303763663396E-5  
 2.730000000000000E10   -2.559488639235497E-4   5.460449028760195E-4  
 2.732000000000000E10    1.701017026789486E-4   8.250869577750564E-4  
 2.734000000000000E10    5.449049058370292E-4  -4.349981900304556E-4  
 2.736000000000000E10    3.776663506869227E-4  -3.110957914032042E-4  
 2.738000000000000E10   -2.057039528153837E-4   3.087969380430877E-4  
 2.740000000000000E10   -3.393384395167232E-4   6.642419029958546E-4  
 2.742000000000000E10    5.928584141656756E-4   1.002958510071039E-3  
 2.744000000000000E10   -2.280634653288871E-4   9.586632950231433E-5  
 2.746000000000000E10   -2.071887720376253E-4   7.945249080876238E-7  
 2.748000000000000E10    1.203840656671673E-4   6.032875971868634E-4  
 2.750000000000000E10    5.891988985240459E-4  -4.583968548104167E-4  
 2.752000000000000E10    7.493892335332930E-4  -2.614339755382389E-4  
 2.754000000000000E10   -6.966252840356901E-5   3.783017746172845E-4  
 2.756000000000000E10    1.436506572645158E-4   4.261838039383292E-4  
