#  HZ   S   RI   R     50.00 
! Rohde & Schwarz ZVA40 4Ports - Version 3.90 - 1145.1110k42 SN: 100403
! Date: 2023-10-04 09:37:35
! Measurement: S12 
! 
 2.200000000000000E10   -2.386058040428907E-4  -1.968678698176518E-4  
 2.202000000000000E10   -1.067482284270227E-3   5.467179289553314E-5  
 2.204000000000000E10    1.702842127997428E-4   1.345543190836906E-3  
 2.206000000000000E10    1.426027971319854E-3   1.042090938426554E-3  
 2.208000000000000E10    1.569868996739388E-3  -1.752203446812928E-3  
 2.210000000000000E10   -6.146607920527458E-4  -1.214473624713719E-3  
 2.212000000000000E10   -6.564593641087413E-4   1.191147719509900E-3  
 2.214000000000000E10    1.813101815059781E-3   2.002448309212923E-3  
 2.216000000000000E10    1.610235078260303E-3   3.477623977232724E-4  
 2.218000000000000E10   -7.822025218047202E-4  -1.896325702546164E-4  
 2.220000000000000E10   -1.323350938037038E-3   8.581227302784100E-5  
 2.222000000000000E10   -5.825831321999431E-4   7.906013634055853E-4  
 2.224000000000000E10   -6.825674790889025E-4  -8.778122719377279E-5  
 2.226000000000000E10    5.424437695182860E-4  -4.976260825060308E-4  
 2.228000000000000E10    7.150195888243616E-4  -6.138727185316384E-4  
 2.230000000000000E10    4.786661884281784E-4  -1.510567497462034E-3  
 2.232000000000000E10    5.008686566725373E-4  -9.441009606234729E-4  
 2.234000000000000E10    4.232795035932213E-4   1.452910830266774E-3  
 2.236000000000000E10    1.176090445369482E-3   1.007392187602818E-3  
 2.238000000000000E10    1.522165024653077E-3  -3.670476144179702E-4  
 2.240000000000000E10   -1.012689317576587E-3  -7.843191269785166E-4  
 2.242000000000000E10   -1.105571049265564E-3   5.224679480306804E-4  
 2.244000000000000E10   -1.182088890345767E-4   7.474499288946390E-4  
 2.246000000000000E10    4.578393782139756E-5  -6.459064898081124E-4  
 2.248000000000000E10   -1.526033011032268E-4  -1.109319389797747E-3  
 2.250000000000000E10   -3.008667845278978E-4  -1.033046748489142E-3  
 2.252000000000000E10    2.356213954044506E-4  -1.038062851876020E-3  
 2.254000000000000E10    1.221280544996262E-4  -2.983286103699356E-4  
 2.256000000000000E10    4.536327469395474E-5   8.592447265982628E-4  
 2.258000000000000E10    1.008799299597740E-3   5.177211714908481E-4  
 2.260000000000000E10    2.947305911220610E-4  -9.537036530673504E-4  
 2.262000000000000E10   -1.538135344162583E-3  -5.515954690054059E-4  
 2.264000000000000E10   -1.042966265231371E-3   7.981245289556682E-4  
 2.266000000000000E10    9.965720528271049E-5   8.411657763645053E-4  
 2.268000000000000E10    1.923430681927130E-4  -1.068961690180004E-3  
 2.270000000000000E10   -3.108188975602388E-4  -1.441714353859425E-3  
 2.272000000000000E10   -6.802225834690034E-4  -4.009444382973015E-4  
 2.274000000000000E10   -3.943321062251926E-4  -4.699436540249735E-4  
 2.276000000000000E10   -1.299824652960524E-4  -5.030757893109694E-5  
 2.278000000000000E10    4.228094476275146E-4  -2.865618807845749E-5  
 2.280000000000000E10    6.425019819289446E-4  -1.093369908630848E-3  
 2.282000000000000E10    1.164506538771093E-3  -8.812756859697402E-4  
 2.284000000000000E10   -9.759904933162034E-4  -7.524074753746390E-4  
 2.286000000000000E10   -9.917371062329039E-5   8.016208303160965E-4  
 2.288000000000000E10    8.071405463851988E-4   8.071194170042872E-4  
 2.290000000000000E10    2.606709676911123E-5  -4.646961460821331E-4  
 2.292000000000000E10   -1.346530742011964E-3  -1.049700775183737E-3  
 2.294000000000000E10   -2.162295160815120E-3   3.608681145124137E-4  
 2.296000000000000E10   -1.613192376680672E-3   3.551586414687336E-4  
 2.298000000000000E10   -2.738555485848337E-4  -2.053490461548790E-4  
 2.300000000000000E10   -4.569088923744857E-4  -9.031882509589195E-4  
 2.302000000000000E10   -5.185176269151270E-4  -1.440370338968933E-3  
 2.304000000000000E10    1.927273478941061E-5  -5.669129895977676E-4  
 2.306000000000000E10   -5.492700729519129E-4   7.576617645099759E-4  
 2.308000000000000E10    6.718626245856285E-4   1.067375415004790E-3  
 2.310000000000000E10    1.667667063884437E-3   1.122383750043809E-3  
 2.312000000000000E10   -4.605442809406668E-4  -2.978964766953141E-4  
 2.314000000000000E10   -1.448374241590500E-3   5.431869649328291E-4  
 2.316000000000000E10   -1.351593178696930E-3   2.511303173378110E-3  
 2.318000000000000E10   -3.917696012649685E-4   4.486951802391559E-4  
 2.320000000000000E10    9.881448204396293E-5  -1.043855445459485E-3  
 2.322000000000000E10   -9.522579493932426E-4  -1.423172885552049E-3  
 2.324000000000000E10   -8.853261824697256E-4  -9.826663881540299E-4  
 2.326000000000000E10    4.690153000410646E-4   1.380645844619721E-4  
 2.328000000000000E10    1.661399379372597E-3   7.987114368006587E-4  
 2.330000000000000E10    1.979852328076959E-3  -1.134812715463340E-3  
 2.332000000000000E10    1.196112367324531E-3  -1.425626105628908E-3  
 2.334000000000000E10   -8.465393329970539E-4   5.995169631205499E-4  
 2.336000000000000E10   -8.575684623792768E-4   1.562784193083644E-3  
 2.338000000000000E10    1.426553702913225E-3   1.630055485293269E-3  
 2.340000000000000E10    3.126403607893735E-4  -5.296645103953779E-4  
 2.342000000000000E10   -1.272182678803802E-3  -1.965611241757870E-3  
 2.344000000000000E10   -1.736950594931841E-3  -4.415366274770349E-4  
 2.346000000000000E10   -1.019062940031290E-3   1.103961549233645E-4  
 2.348000000000000E10    8.577855187468231E-4  -5.606675986200571E-4  
 2.350000000000000E10    1.803567865863442E-3  -1.327733625657857E-3  
 2.352000000000000E10    5.916421068832278E-4  -1.916317385621369E-3  
 2.354000000000000E10   -1.491189614171162E-4  -9.389612241648138E-4  
 2.356000000000000E10   -3.401711001060903E-4   1.857319963164628E-3  
 2.358000000000000E10    5.773157463409007E-4   1.612925785593689E-3  
 2.360000000000000E10    1.471427851356566E-3  -3.844248421955854E-4  
 2.362000000000000E10   -7.911243010312319E-4  -1.576893497258425E-3  
 2.364000000000000E10   -2.383258426561952E-3  -1.340727554634213E-3  
 2.366000000000000E10   -1.428825198672712E-3   7.289483328349888E-4  
 2.368000000000000E10    4.575008933898062E-4   3.530117101036012E-4  
 2.370000000000000E10    8.430833113379777E-4  -1.737604266963899E-3  
 2.372000000000000E10    1.633377105463296E-4  -1.655757310800254E-3  
 2.374000000000000E10   -3.608857223298401E-4  -6.659007049165666E-4  
 2.376000000000000E10    5.366243931348436E-5   3.362432471476495E-4  
 2.378000000000000E10    3.010137879755348E-4   1.378150773234665E-3  
 2.380000000000000E10    4.224476288072765E-4   2.059190301224589E-4  
 2.382000000000000E10   -3.283442056272179E-4  -4.084866377525032E-4  
 2.384000000000000E10   -2.131266053766012E-3   1.848664542194456E-4  
 2.386000000000000E10   -1.519638346508145E-3   7.106419070623815E-4  
 2.388000000000000E10    7.989547157194465E-5   4.620594845619053E-4  
 2.390000000000000E10    4.941761726513505E-4  -5.935933440923691E-4  
 2.392000000000000E10   -6.791788036935031E-4  -1.344841322861612E-3  
 2.394000000000000E10   -6.158414180390537E-4  -2.455124340485781E-4  
 2.396000000000000E10   -6.747857696609572E-5   1.787414774298668E-3  
 2.398000000000000E10    1.002448028884828E-3   8.943293942138553E-4  
 2.400000000000000E10    1.647212193347514E-3   5.464131245389581E-4  
 2.402000000000000E10   -2.808734716381878E-4  -1.435807644156739E-4  
 2.404000000000000E10   -7.812615367583931E-4  -4.414460854604840E-4  
 2.406000000000000E10   -9.143017814494669E-4   1.133149489760399E-3  
 2.408000000000000E10    6.937904981896281E-4   1.120677101425827E-3  
 2.410000000000000E10    1.357704051770270E-3  -3.208406851626933E-4  
 2.412000000000000E10    4.067275731358677E-4  -1.609752769581974E-3  
 2.414000000000000E10   -1.250796602107585E-3  -7.530979200964794E-5  
 2.416000000000000E10   -9.387414902448654E-4   5.817909259349108E-4  
 2.418000000000000E10    6.141929188743234E-4   1.452548895031214E-3  
 2.420000000000000E10    1.525911502540112E-3  -1.041939030983485E-4  
 2.422000000000000E10    9.370956686325371E-4  -1.265703234821558E-3  
 2.424000000000000E10   -1.057600136846304E-3  -9.994613938033581E-4  
 2.426000000000000E10   -5.755720194429159E-4   1.876336609711871E-4  
 2.428000000000000E10    2.037516242126003E-4   1.359979738481343E-3  
 2.430000000000000E10    1.588370767422020E-3   6.185653619468212E-4  
 2.432000000000000E10    1.060415524989367E-3  -1.172604621388018E-3  
 2.434000000000000E10   -9.362436830997467E-4  -1.480670063756406E-3  
 2.436000000000000E10   -1.977045554667711E-3  -4.375206481199712E-4  
 2.438000000000000E10    3.189081617165357E-4   1.071692560799420E-3  
 2.440000000000000E10    7.707886397838593E-4  -1.172960619442165E-4  
 2.442000000000000E10    1.053733867593110E-3  -2.058912999927998E-3  
 2.444000000000000E10   -6.615374877583236E-5  -1.383150229230523E-3  
 2.446000000000000E10   -1.205340493470430E-3  -3.316771471872926E-4  
 2.448000000000000E10   -4.299419742892496E-5   1.060523907653987E-3  
 2.450000000000000E10    1.309890416450799E-3   6.421972066164017E-4  
 2.452000000000000E10    1.308906503254548E-4  -8.874995983205736E-4  
 2.454000000000000E10   -1.183105050586164E-3  -1.643260824494064E-3  
 2.456000000000000E10   -1.498695579357445E-3   3.440883010625839E-4  
 2.458000000000000E10   -1.061156275682151E-3   2.478037495166063E-4  
 2.460000000000000E10    1.388612086884677E-3  -6.330752512440085E-4  
 2.462000000000000E10    2.160040021408349E-4  -1.306514604948461E-3  
 2.464000000000000E10   -4.281248257029802E-4  -1.512898132205010E-3  
 2.466000000000000E10   -6.641226937063038E-4   3.763792628888041E-4  
 2.468000000000000E10   -5.006896099075675E-4   1.682616421021521E-3  
 2.470000000000000E10    8.996433462016285E-4   1.114168320782483E-3  
 2.472000000000000E10    3.190797579009086E-4  -5.716815940104425E-4  
 2.474000000000000E10   -1.680495799519122E-3  -7.994915358722210E-4  
 2.476000000000000E10   -2.159793162718415E-3   1.356886350549758E-4  
 2.478000000000000E10   -1.184732082037954E-5   1.285535399802029E-3  
 2.480000000000000E10    1.476875972002745E-3   2.136386756319553E-4  
 2.482000000000000E10    1.650871243327856E-3  -1.415813458152115E-3  
 2.484000000000000E10    1.482327661506133E-5  -6.769570754840970E-4  
 2.486000000000000E10   -8.483403944410384E-4   6.171772838570178E-4  
 2.488000000000000E10    7.032874273136258E-4   2.399057848379016E-3  
 2.490000000000000E10    1.124573289416730E-3   1.772332354448736E-3  
 2.492000000000000E10    1.009501283988357E-3  -8.641409804113209E-4  
 2.494000000000000E10   -3.837583935819566E-4  -1.142244203947485E-3  
 2.496000000000000E10   -1.480462029576302E-3   3.628776757977903E-4  
 2.498000000000000E10   -1.044790224113967E-5   1.246330561116338E-3  
 2.500000000000000E10    1.955612562596798E-3   7.521788938902319E-4  
 2.502000000000000E10    1.706136390566826E-3  -4.191312182229012E-4  
 2.504000000000000E10    1.221487182192504E-4  -1.240186160430312E-3  
 2.506000000000000E10   -3.224626998417079E-4   7.490863790735602E-4  
 2.508000000000000E10   -4.780716553796083E-4   1.389751210808754E-3  
 2.510000000000000E10    1.296768547035754E-3   4.989661392755806E-4  
 2.512000000000000E10    1.145901856943965E-3  -2.479734539519996E-4  
 2.514000000000000E10   -5.253788549453020E-4  -8.329569245688617E-4  
 2.516000000000000E10   -4.072698066011071E-4  -4.469598643481731E-4  
 2.518000000000000E10   -7.184201967902482E-5   1.530345645733178E-3  
 2.520000000000000E10    9.373710490763187E-4   8.609821088612080E-4  
 2.522000000000000E10    1.610393403097987E-3  -3.337253583595157E-4  
 2.524000000000000E10   -2.406753483228385E-4  -7.330849766731262E-4  
 2.526000000000000E10   -1.535937655717135E-3  -4.655187076423317E-4  
 2.528000000000000E10   -5.695114377886057E-4   1.269470900297165E-3  
 2.530000000000000E10    4.958297358825803E-4   7.797859143465757E-4  
 2.532000000000000E10    8.842759998515248E-4  -1.542299520224333E-3  
 2.534000000000000E10   -1.117977371904999E-4  -1.515560783445835E-3  
 2.536000000000000E10   -5.417891079559922E-4  -4.038595579913817E-5  
 2.538000000000000E10    3.167918112012558E-5   6.308886222541332E-4  
 2.540000000000000E10    1.478829537518323E-3   6.246992852538824E-4  
 2.542000000000000E10    2.696216397453100E-4   1.939718094945420E-5  
 2.544000000000000E10   -8.010385208763182E-4  -3.627588157542050E-4  
 2.546000000000000E10   -1.789581612683833E-3   4.062312946189195E-4  
 2.548000000000000E10   -1.199520309455693E-3   9.262313687941060E-5  
 2.550000000000000E10   -2.144813188351691E-4   4.320031148381531E-4  
 2.552000000000000E10    9.198155603371561E-4  -1.499970909208059E-3  
 2.554000000000000E10    2.641691826283932E-4  -1.855186419561505E-3  
 2.556000000000000E10   -1.365999691188335E-3  -1.279848860576749E-3  
 2.558000000000000E10    7.884570368332788E-5   8.561516879126430E-4  
 2.560000000000000E10    9.525371715426445E-4   1.260042539797723E-3  
 2.562000000000000E10    1.414466649293900E-3  -5.450629396364093E-4  
 2.564000000000000E10   -9.034692775458098E-4  -4.303757159505040E-4  
 2.566000000000000E10   -1.549601322039962E-3  -3.461278683971614E-4  
 2.568000000000000E10   -1.118841231800616E-3   6.160394987091422E-4  
 2.570000000000000E10   -3.636556502897292E-4   6.475255941040814E-5  
 2.572000000000000E10    5.280331242829561E-4  -5.959896370768547E-4  
 2.574000000000000E10    2.171946107409895E-4  -1.914294436573982E-3  
 2.576000000000000E10   -4.195242363493890E-4  -1.184474909678102E-3  
 2.578000000000000E10   -6.569488905370235E-4   7.256540120579302E-4  
 2.580000000000000E10    8.736991439945996E-4   1.461404375731945E-3  
 2.582000000000000E10    1.283898833207786E-3  -3.721519606187940E-4  
 2.584000000000000E10    3.144504153169692E-4  -9.358169045299292E-4  
 2.586000000000000E10   -2.071866998448968E-3   2.632224350236356E-4  
 2.588000000000000E10   -6.501110619865358E-4   9.131553815677762E-4  
 2.590000000000000E10    6.376323290169239E-4   4.954202449880540E-4  
 2.592000000000000E10    4.313285171519965E-4  -7.994028856046498E-4  
 2.594000000000000E10   -3.031649684999138E-4  -1.046731020323932E-3  
 2.596000000000000E10   -8.261033799499273E-4  -1.088454882847145E-4  
 2.598000000000000E10   -9.855248499661684E-4   4.553733451757580E-4  
 2.600000000000000E10    5.583886522799730E-4   4.613940254785121E-4  
 2.602000000000000E10    9.599835611879826E-4   1.216336313518696E-4  
 2.604000000000000E10   -2.739085757639259E-4  -1.251587760634720E-3  
 2.606000000000000E10   -9.031722438521683E-4  -2.956835960503668E-4  
 2.608000000000000E10   -5.176351987756789E-4   1.425933791324496E-3  
 2.610000000000000E10    9.150561527349055E-4   1.843838836066425E-3  
 2.612000000000000E10    1.385504729114473E-3   3.571084744180553E-5  
 2.614000000000000E10   -6.053269607946277E-4  -8.532927604392171E-4  
 2.616000000000000E10   -1.632921630516648E-3   4.975089104846120E-4  
 2.618000000000000E10   -5.605817423202097E-4   1.810310292057693E-3  
 2.620000000000000E10    2.853712649084628E-4   6.456580595113337E-4  
 2.622000000000000E10    3.775046207010746E-4  -6.450077053159475E-4  
 2.624000000000000E10    4.459526098798960E-4  -8.467286243103445E-4  
 2.626000000000000E10   -2.622929750941694E-4  -4.135601047892124E-4  
 2.628000000000000E10   -3.162562497891486E-4   8.231541141867638E-4  
 2.630000000000000E10    9.840558050200343E-4   1.532159512862563E-3  
 2.632000000000000E10    1.116598024964333E-3   5.853647016920149E-4  
 2.634000000000000E10    5.382177187129855E-4  -5.410216399468482E-4  
 2.636000000000000E10   -1.526897773146629E-3   1.870462292572483E-4  
 2.638000000000000E10   -1.152163371443749E-3   1.197869540192187E-3  
 2.640000000000000E10    4.179231182206422E-4   1.325279474258423E-3  
 2.642000000000000E10    3.664442920126021E-4  -3.911985259037465E-4  
 2.644000000000000E10   -4.826191288884729E-4  -7.943541859276593E-4  
 2.646000000000000E10   -5.538500263355672E-4   2.807230048347265E-4  
 2.648000000000000E10   -2.301881322637200E-4   4.013965954072774E-4  
 2.650000000000000E10    3.050532359338831E-5   1.091828744392842E-5  
 2.652000000000000E10    6.499778828583658E-4   5.689710960723460E-4  
 2.654000000000000E10   -1.395689832861535E-5  -9.880444122245535E-5  
 2.656000000000000E10   -1.299766445299611E-4  -6.277441279962659E-4  
 2.658000000000000E10   -6.884268368594348E-4   8.858050568960607E-4  
 2.660000000000000E10    3.932168183382601E-4   9.222492226399481E-4  
 2.662000000000000E10    1.129840733483434E-3  -4.911142241326161E-5  
 2.664000000000000E10    3.275997296441346E-4  -7.463018409907818E-4  
 2.666000000000000E10   -8.798988419584930E-4   1.168565431726165E-4  
 2.668000000000000E10   -2.297221362823620E-4   5.245328648015857E-4  
 2.670000000000000E10    6.297096260823309E-4   7.430586847476661E-4  
 2.672000000000000E10   -2.023718407144770E-4  -9.366283193230629E-4  
 2.674000000000000E10    2.979508337830339E-7  -9.415620588697493E-4  
 2.676000000000000E10   -3.454008838161826E-4  -2.874718920793384E-4  
 2.678000000000000E10   -2.789167629089207E-4  -6.067276699468494E-4  
 2.680000000000000E10    4.816244181711227E-4  -8.059670653892681E-5  
 2.682000000000000E10    9.635990136303008E-4  -1.026519821607508E-4  
 2.684000000000000E10    5.583430756814778E-4  -7.896820316091180E-4  
 2.686000000000000E10   -6.030365475453436E-4  -6.167452665977180E-4  
 2.688000000000000E10   -1.464664936065674E-3   3.784956352319568E-4  
 2.690000000000000E10   -3.501346800476313E-4   2.714098664000630E-4  
 2.692000000000000E10    2.909953764174134E-4  -3.245127154514194E-4  
 2.694000000000000E10   -4.221176204737276E-4  -1.501660677604377E-3  
 2.696000000000000E10   -7.278068223968148E-4  -9.831018978729844E-4  
 2.698000000000000E10   -3.698512737173587E-4  -4.189427418168634E-4  
 2.700000000000000E10    4.979193327017129E-4   3.225165128242225E-4  
 2.702000000000000E10    2.859512169379741E-4  -3.203790765837766E-5  
 2.704000000000000E10    4.272586666047573E-4  -1.652042556088418E-4  
 2.706000000000000E10   -4.592908371705562E-4  -1.428584655513987E-4  
 2.708000000000000E10   -1.003475161269307E-3   1.339394366368651E-4  
 2.710000000000000E10   -8.620304870419204E-4   7.338742725551128E-4  
 2.712000000000000E10   -2.594770339783281E-4   1.845823280746117E-4  
 2.714000000000000E10   -3.257505304645747E-4  -8.015410276129842E-4  
 2.716000000000000E10   -2.225532516604289E-4  -5.239924066700041E-4  
 2.718000000000000E10   -6.204145029187203E-4   4.484833916649222E-4  
 2.720000000000000E10    2.654917479958385E-4   5.655884524458088E-5  
 2.722000000000000E10    1.674064696999267E-5  -1.060403592418879E-4  
 2.724000000000000E10   -6.396559183485806E-4   3.441322769504041E-4  
 2.726000000000000E10   -1.346990611637011E-4   1.215363736264408E-3  
 2.728000000000000E10   -3.559481992851943E-4   2.024283312493935E-4  
 2.730000000000000E10    2.449438616167754E-4  -7.521436782553792E-5  
 2.732000000000000E10   -2.983887970913202E-4   3.353017964400351E-4  
 2.734000000000000E10   -5.914577195653692E-5  -2.910426701419056E-4  
 2.736000000000000E10    6.645498069701716E-5   3.472339303698391E-4  
 2.738000000000000E10    2.717941824812442E-4   5.406860145740211E-4  
 2.740000000000000E10    2.261356275994331E-4   2.553337544668466E-4  
 2.742000000000000E10    2.281948691233993E-4   5.166613846085966E-4  
 2.744000000000000E10   -7.269906927831471E-4   1.457691541872919E-4  
 2.746000000000000E10   -8.067015733104199E-5   6.289199809543788E-4  
 2.748000000000000E10    5.031945183873177E-4   8.278576424345374E-4  
 2.750000000000000E10    8.143152808770537E-4  -7.535021868534386E-4  
 2.752000000000000E10    2.689014654606581E-4  -2.490175247658044E-4  
 2.754000000000000E10   -2.118502743542194E-4   5.475598154589534E-4  
 2.756000000000000E10    4.427185340318829E-4   5.689509562216699E-4  
