#  HZ   S   RI   R     50.00 
! Rohde & Schwarz ZVA40 4Ports - Version 3.90 - 1145.1110k42 SN: 100403
! Date: 2023-10-04 09:37:25
! Measurement: S12 
! 
 2.200000000000000E10    4.992561880499125E-4   1.207477762363851E-3  
 2.202000000000000E10    4.447874962352216E-4  -2.258672975585796E-5  
 2.204000000000000E10    7.731061778031290E-4   1.598262897459790E-4  
 2.206000000000000E10   -2.200690796598792E-4   1.195436692796648E-3  
 2.208000000000000E10    1.887047837954015E-4  -1.678814151091501E-4  
 2.210000000000000E10    6.549336831085384E-6   8.512529893778265E-4  
 2.212000000000000E10   -4.987602587789297E-4   1.767989830113947E-3  
 2.214000000000000E10    1.461759326048195E-3   9.479720029048622E-4  
 2.216000000000000E10    4.490569117479026E-4  -9.772317716851831E-4  
 2.218000000000000E10   -1.953841187059879E-3  -5.550622008740902E-4  
 2.220000000000000E10   -9.513931581750512E-4   9.723756229504943E-4  
 2.222000000000000E10    1.231971778906882E-3   1.298196380957961E-3  
 2.224000000000000E10    4.966036067344248E-4  -1.385390409268439E-3  
 2.226000000000000E10    3.879125579260290E-4  -6.256795604713261E-4  
 2.228000000000000E10   -2.842365356627852E-4   7.662943680770695E-4  
 2.230000000000000E10    7.482498185709119E-4   2.969692468468566E-5  
 2.232000000000000E10    8.819155627861619E-4   6.324903806671500E-4  
 2.234000000000000E10    4.898598945146659E-6   1.023662392981350E-3  
 2.236000000000000E10    7.153738988563418E-4   4.234974912833422E-4  
 2.238000000000000E10    2.049963659374043E-4  -2.289194962941110E-4  
 2.240000000000000E10   -1.393169164657593E-3  -6.744473357684910E-4  
 2.242000000000000E10   -7.695891545154154E-4   2.937508397735655E-4  
 2.244000000000000E10    1.216072472743690E-3   6.418077646230813E-6  
 2.246000000000000E10    1.259728800505400E-3  -1.899185008369386E-3  
 2.248000000000000E10    5.510250775841996E-5  -1.840743469074369E-3  
 2.250000000000000E10    4.389261011965573E-4   2.929154434241355E-4  
 2.252000000000000E10    7.424124632962048E-4   4.694432136602700E-4  
 2.254000000000000E10    9.796990780159831E-4   2.311114658368751E-4  
 2.256000000000000E10   -2.646930806804448E-4   9.628555853851140E-4  
 2.258000000000000E10   -3.722826077137142E-4   7.717646803939715E-5  
 2.260000000000000E10   -5.140252760611475E-4  -9.653419256210327E-4  
 2.262000000000000E10   -1.719439635053277E-3   9.249019785784185E-5  
 2.264000000000000E10   -6.880092551000416E-4   4.844256618525833E-4  
 2.266000000000000E10    1.729311537928879E-3  -1.522569164080778E-5  
 2.268000000000000E10    9.709579171612859E-4  -1.784224412404001E-3  
 2.270000000000000E10   -3.138924657832831E-4  -1.342411269433796E-3  
 2.272000000000000E10   -2.353401068830863E-4   1.404158538207412E-3  
 2.274000000000000E10    7.585845887660980E-4   1.021930249407888E-3  
 2.276000000000000E10    1.264503691345453E-3  -1.808998495107517E-4  
 2.278000000000000E10   -1.604032877366990E-4   1.853701978689060E-4  
 2.280000000000000E10   -4.575715574901551E-4  -5.594681133516133E-4  
 2.282000000000000E10    3.122019697912037E-4  -1.925520045915619E-4  
 2.284000000000000E10   -6.389060290530324E-4   6.042899331077933E-4  
 2.286000000000000E10    8.990879869088531E-4   6.750531611032784E-5  
 2.288000000000000E10    1.441872329451144E-3  -6.811210769228637E-4  
 2.290000000000000E10   -8.035528589971364E-4  -1.596720656380057E-3  
 2.292000000000000E10   -1.079524052329361E-3  -1.909082347992808E-4  
 2.294000000000000E10    5.110121564939618E-4   1.745009096339345E-3  
 2.296000000000000E10    9.752519545145333E-4  -2.672248810995370E-4  
 2.298000000000000E10    4.207428428344429E-4  -1.735980971716344E-3  
 2.300000000000000E10   -1.607712940312922E-3  -8.235444547608495E-4  
 2.302000000000000E10   -1.000028103590012E-3   2.640519523993135E-4  
 2.304000000000000E10    9.603157523088157E-4   9.784863796085119E-4  
 2.306000000000000E10    8.613583049736917E-4   4.440319607965648E-4  
 2.308000000000000E10    4.906451213173568E-4  -5.844010156579316E-4  
 2.310000000000000E10   -6.338970270007849E-4  -2.938213001471013E-4  
 2.312000000000000E10   -1.940800459124148E-3   1.340590883046389E-3  
 2.314000000000000E10   -9.442323935218155E-4   1.662386814132333E-3  
 2.316000000000000E10    1.111577148549259E-3   4.226091841701418E-4  
 2.318000000000000E10   -2.670942558324896E-5  -2.046813257038593E-3  
 2.320000000000000E10   -1.136995153501630E-3  -2.358038676902652E-3  
 2.322000000000000E10   -9.808219037950039E-4   5.943669239059091E-4  
 2.324000000000000E10    9.186813258565962E-4   1.381879090331495E-3  
 2.326000000000000E10    2.588858827948570E-3   2.842458197847009E-4  
 2.328000000000000E10    1.396731240674853E-3  -4.973008763045073E-4  
 2.330000000000000E10   -9.548386442475021E-4  -4.926587571389973E-4  
 2.332000000000000E10   -6.744032143615186E-4   9.872762020677328E-4  
 2.334000000000000E10   -5.695404252037406E-5   2.577573060989380E-3  
 2.336000000000000E10    1.005795435048640E-3   5.517697427421808E-4  
 2.338000000000000E10    1.146294292993844E-3  -7.666234741918743E-4  
 2.340000000000000E10   -1.513292430900037E-3  -1.019181217998266E-3  
 2.342000000000000E10   -1.239933306351304E-3  -3.969086974393576E-4  
 2.344000000000000E10    8.439702796749771E-4   1.107024494558573E-3  
 2.346000000000000E10    1.738818944431841E-3  -1.472602016292512E-4  
 2.348000000000000E10    1.194495125673711E-3  -2.084232633933425E-3  
 2.350000000000000E10    9.428861812921241E-5  -9.921571472659707E-4  
 2.352000000000000E10   -8.960457053035498E-4   1.092258491553366E-3  
 2.354000000000000E10    8.298179018311203E-4   1.180731342174113E-3  
 2.356000000000000E10    9.941756725311279E-4   1.074700499884784E-3  
 2.358000000000000E10   -4.602529807016254E-4  -1.284491969272494E-3  
 2.360000000000000E10   -1.133103389292955E-3  -1.544759026728571E-3  
 2.362000000000000E10   -1.740412437357009E-3   3.064394695684314E-4  
 2.364000000000000E10    2.698996977414936E-4   5.578752025030553E-4  
 2.366000000000000E10    2.063700230792165E-3  -6.857535918243229E-4  
 2.368000000000000E10    5.137926200404763E-4  -1.631107996217907E-3  
 2.370000000000000E10   -8.365960675291717E-4  -1.285833772271872E-3  
 2.372000000000000E10   -5.621194723062217E-4   1.219992642290890E-3  
 2.374000000000000E10    1.138304593041539E-3   1.817128155380487E-3  
 2.376000000000000E10    1.333488151431084E-3  -2.943197032436729E-4  
 2.378000000000000E10   -1.136737846536562E-4  -1.265103113837540E-3  
 2.380000000000000E10   -2.403249265626073E-3   4.175029971520416E-5  
 2.382000000000000E10   -1.645237323828042E-3   7.095200126059353E-4  
 2.384000000000000E10   -2.144584141205996E-4   1.581844058819115E-3  
 2.386000000000000E10    1.011148211546242E-3  -7.331564556807280E-4  
 2.388000000000000E10    1.367901568301022E-3  -1.690742210485041E-3  
 2.390000000000000E10   -1.356252585537732E-3  -1.498242258094251E-3  
 2.392000000000000E10   -1.236985553987324E-3   8.317672181874514E-4  
 2.394000000000000E10    1.231897505931556E-3   2.496798755601049E-3  
 2.396000000000000E10    2.128979656845331E-3   1.092715538106859E-3  
 2.398000000000000E10    1.514473988208920E-4  -8.877315558493137E-4  
 2.400000000000000E10   -1.041799434460700E-3  -1.744155160849914E-4  
 2.402000000000000E10   -1.822577556595206E-3   1.304185483604670E-3  
 2.404000000000000E10   -3.321547119412571E-4   7.349770166911185E-4  
 2.406000000000000E10    8.526339079253376E-4   1.683525624684990E-4  
 2.408000000000000E10    3.315929789096117E-4  -1.278437557630241E-3  
 2.410000000000000E10   -2.819295914378017E-4  -1.105284085497260E-3  
 2.412000000000000E10   -7.831447292119265E-4   4.728011554107070E-4  
 2.414000000000000E10   -2.535120293032378E-4   1.537368283607066E-3  
 2.416000000000000E10    1.459398306906223E-3   3.309363382868469E-4  
 2.418000000000000E10    8.767141262069345E-4  -4.373232950456440E-4  
 2.420000000000000E10   -1.060497830621898E-3  -7.668885518796742E-4  
 2.422000000000000E10   -7.255706586875022E-4   5.923024727962911E-4  
 2.424000000000000E10   -3.948969242628664E-4   6.654038443230093E-4  
 2.426000000000000E10    8.881331305019558E-4  -3.801168932113797E-4  
 2.428000000000000E10    1.739012805046514E-4  -5.764394882135093E-4  
 2.430000000000000E10   -3.909061488229781E-4  -8.319833432324231E-4  
 2.432000000000000E10   -6.584484362974763E-4   1.016633177641779E-4  
 2.434000000000000E10    2.745161473285407E-4   9.454537066631019E-4  
 2.436000000000000E10    7.204880821518600E-4   5.268596578389406E-4  
 2.438000000000000E10    1.120744505897164E-3  -1.037290086969733E-3  
 2.440000000000000E10   -3.754476492758840E-4  -7.146639400161803E-4  
 2.442000000000000E10   -1.135878730565310E-3  -4.143145051784813E-4  
 2.444000000000000E10    7.535412441939116E-4   1.232188311405480E-3  
 2.446000000000000E10    9.351604967378080E-4  -1.260536955669522E-4  
 2.448000000000000E10    8.757240138947964E-4  -1.687094918452203E-3  
 2.450000000000000E10   -4.244567535351962E-4  -5.388028221204877E-4  
 2.452000000000000E10   -1.429495168849826E-3  -1.623063290026039E-4  
 2.454000000000000E10   -3.601520729716867E-4   3.921160241588950E-4  
 2.456000000000000E10    9.997854940593243E-4   4.023203218821436E-4  
 2.458000000000000E10    7.195913349278271E-4  -1.316866953857243E-3  
 2.460000000000000E10   -6.764110003132373E-5  -1.866969862021506E-3  
 2.462000000000000E10   -7.074560853652656E-4  -2.320593239346636E-6  
 2.464000000000000E10   -7.052910514175892E-4   9.138500317931175E-4  
 2.466000000000000E10    1.328494749031961E-3   9.449053322896361E-4  
 2.468000000000000E10    9.617132018320262E-4  -1.232077047461644E-4  
 2.470000000000000E10   -4.053832089994103E-4  -1.593167195096612E-3  
 2.472000000000000E10   -1.606553327292204E-3  -7.138857617974281E-4  
 2.474000000000000E10   -1.616044202819467E-3   1.005033846013248E-3  
 2.476000000000000E10    9.553518029861152E-4   9.934069385053590E-5  
 2.478000000000000E10    2.038293052464724E-3  -4.789740196429193E-4  
 2.480000000000000E10   -1.473711745347828E-4  -1.252329442650080E-3  
 2.482000000000000E10   -2.498106332495809E-4  -5.959843983873725E-4  
 2.484000000000000E10    1.819861645344645E-4   1.989307813346386E-3  
 2.486000000000000E10    1.686306932242587E-4   1.791997696273029E-3  
 2.488000000000000E10    1.243765698745847E-3   6.638273771386594E-5  
 2.490000000000000E10    2.162700984627008E-4  -2.244795468868688E-4  
 2.492000000000000E10   -1.677441177889705E-3  -5.545186577364802E-4  
 2.494000000000000E10   -4.917464102618396E-4   2.121686993632466E-4  
 2.496000000000000E10    7.465583621524274E-4   1.245419611223042E-3  
 2.498000000000000E10    1.240923884324729E-3  -7.830014801584184E-4  
 2.500000000000000E10    1.360506750643253E-3  -1.155873993411660E-3  
 2.502000000000000E10   -5.640569142997265E-4   6.595924496650696E-4  
 2.504000000000000E10    1.229181361850351E-4   1.393632031977177E-3  
 2.506000000000000E10    1.329652732238174E-3   2.013594144955277E-3  
 2.508000000000000E10    3.718509979080409E-4   6.176413735374808E-4  
 2.510000000000000E10   -1.904578530229628E-4  -5.153475794941187E-4  
 2.512000000000000E10   -1.417124061845243E-3   7.187324808910489E-5  
 2.514000000000000E10   -1.356733497232199E-3   6.240772781893611E-4  
 2.516000000000000E10    8.480050601065159E-4   5.524690495803952E-4  
 2.518000000000000E10    1.724010682664812E-3  -1.471046562073752E-4  
 2.520000000000000E10    7.913368172012270E-4  -9.443247690796852E-4  
 2.522000000000000E10   -1.926252007251605E-4  -1.464736560592428E-4  
 2.524000000000000E10   -4.602513945428655E-5   1.805924810469151E-3  
 2.526000000000000E10    5.760880303569138E-4   1.484693377278745E-3  
 2.528000000000000E10    1.226320629939437E-3   7.525829132646322E-4  
 2.530000000000000E10   -4.215669468976557E-4  -4.123882099520415E-4  
 2.532000000000000E10   -9.446918847970665E-4  -1.070568687282503E-3  
 2.534000000000000E10   -7.133709150366485E-4   1.102608861401677E-3  
 2.536000000000000E10    5.017399089410901E-4   5.972189246676862E-4  
 2.538000000000000E10    2.103945938870311E-3  -6.103985360823572E-4  
 2.540000000000000E10    8.998460834845901E-4  -1.259419135749340E-3  
 2.542000000000000E10   -7.355072884820402E-4  -2.037582307821140E-4  
 2.544000000000000E10   -8.805468096397817E-4   6.151898996904492E-4  
 2.546000000000000E10    6.640908541157842E-4   1.409641117788851E-3  
 2.548000000000000E10    8.015280473046005E-4  -4.269713535904884E-4  
 2.550000000000000E10    4.708856286015362E-4  -1.569634652696550E-3  
 2.552000000000000E10   -1.041482319124043E-3  -4.392383852973580E-4  
 2.554000000000000E10   -9.417587425559759E-4  -6.195969763211906E-4  
 2.556000000000000E10    4.982357495464385E-4   2.760222705546767E-4  
 2.558000000000000E10    1.002401229925454E-3   1.431467098882422E-4  
 2.560000000000000E10    4.367207002360374E-4  -1.257148105651140E-3  
 2.562000000000000E10   -8.205384947359562E-4  -1.218535471707583E-3  
 2.564000000000000E10   -1.334981294348836E-3   7.081799558363855E-4  
 2.566000000000000E10    1.865162194008008E-4   6.195667083375156E-4  
 2.568000000000000E10    1.341475872322917E-3  -5.025717546232045E-4  
 2.570000000000000E10   -8.147005573846400E-4  -1.952583668753505E-3  
 2.572000000000000E10   -9.935782290995121E-4  -1.108524040319026E-3  
 2.574000000000000E10   -3.027065249625593E-4   2.719227923080325E-4  
 2.576000000000000E10    1.034852932207286E-3   4.647593304980546E-4  
 2.578000000000000E10    1.092843827791512E-3  -7.030857377685607E-4  
 2.580000000000000E10    1.119160078815185E-4  -9.326462750323117E-4  
 2.582000000000000E10   -1.098210806958377E-3  -1.098913271562196E-4  
 2.584000000000000E10   -4.323760804254562E-4   7.877281750552356E-4  
 2.586000000000000E10   -1.752039970597252E-4   1.225520740263164E-3  
 2.588000000000000E10    3.429570642765611E-4  -1.120142871513963E-3  
 2.590000000000000E10   -8.589601202402264E-5  -1.035477616824210E-3  
 2.592000000000000E10   -2.048364840447903E-3  -4.196344816591591E-4  
 2.594000000000000E10   -6.453166715800762E-4   8.735468727536500E-4  
 2.596000000000000E10    9.084821213036776E-4   8.096899255178869E-4  
 2.598000000000000E10    9.534456185065210E-4  -1.328255166299641E-3  
 2.600000000000000E10   -4.118602373637259E-4  -1.117534469813108E-3  
 2.602000000000000E10   -6.875473191030324E-4   3.851119545288384E-4  
 2.604000000000000E10   -7.763344910927117E-5   1.047807279974222E-3  
 2.606000000000000E10    1.203957595862448E-3   4.006467643193901E-4  
 2.608000000000000E10    4.201228730380535E-4   8.536258828826249E-4  
 2.610000000000000E10   -4.950482980348170E-4  -3.885568294208497E-4  
 2.612000000000000E10   -3.335976507514715E-4   6.935741112101823E-5  
 2.614000000000000E10   -1.424979185685515E-3   1.434457139112055E-3  
 2.616000000000000E10    8.379081555176526E-5   6.941181491129100E-4  
 2.618000000000000E10    6.440134020522237E-4   1.957514905370772E-4  
 2.620000000000000E10   -5.464410642161965E-4  -1.309128478169441E-3  
 2.622000000000000E10   -6.989177782088518E-4  -3.989604301750660E-4  
 2.624000000000000E10    2.886419824790210E-4   1.211450551636517E-3  
 2.626000000000000E10    1.722131273709238E-3   2.987233747262508E-4  
 2.628000000000000E10    8.497318485751748E-4  -6.085674976930022E-4  
 2.630000000000000E10   -1.733907265588641E-4   8.655702695250511E-4  
 2.632000000000000E10   -2.793118183035404E-4   1.514480565674603E-3  
 2.634000000000000E10    7.873574213590473E-5   6.396080716513097E-4  
 2.636000000000000E10   -3.306217549834400E-4   4.062286461703479E-4  
 2.638000000000000E10   -1.107597607187927E-3  -6.787151796743274E-4  
 2.640000000000000E10   -5.351292202249169E-4  -5.981224821880460E-4  
 2.642000000000000E10   -4.906162503175438E-4  -3.446868795435876E-4  
 2.644000000000000E10    2.570014330558479E-4  -5.511691560968757E-4  
 2.646000000000000E10    7.275878451764584E-4  -4.153909685555846E-4  
 2.648000000000000E10    7.844473002478480E-4  -3.920916933566332E-4  
 2.650000000000000E10   -4.014921723864973E-4  -2.124183811247349E-4  
 2.652000000000000E10   -3.211456933058798E-4   6.460159202106297E-4  
 2.654000000000000E10   -8.083962893579155E-5   1.370427664369345E-3  
 2.656000000000000E10   -1.633865322219208E-4  -2.246165240649134E-4  
 2.658000000000000E10   -7.843878120183945E-4  -6.183177902130410E-5  
 2.660000000000000E10   -1.013118075206876E-3   1.180866092909128E-4  
 2.662000000000000E10    4.894159246759955E-6  -2.179304428864270E-4  
 2.664000000000000E10   -4.104147374164313E-4  -3.946929064113647E-4  
 2.666000000000000E10   -5.177324055694044E-4  -3.092058177571744E-4  
 2.668000000000000E10    1.419572945451364E-4  -4.192848427919671E-5  
 2.670000000000000E10    3.512916155159473E-4   2.669582609087229E-4  
 2.672000000000000E10   -1.856188318924978E-4  -6.149331456981599E-4  
 2.674000000000000E10    3.828962799161673E-4   6.339846004266292E-5  
 2.676000000000000E10   -2.837022184394300E-4   5.949076730757952E-4  
 2.678000000000000E10    3.934325359296054E-4  -1.694139937171713E-4  
 2.680000000000000E10   -1.370413083350286E-4   2.669611421879381E-4  
 2.682000000000000E10   -2.354930329602212E-4  -4.053734010085464E-4  
 2.684000000000000E10    8.882191468728706E-5  -5.100060952827334E-4  
 2.686000000000000E10   -3.434123646002263E-4  -9.844765299931169E-4  
 2.688000000000000E10   -4.754511464852840E-4  -1.131022218032740E-4  
 2.690000000000000E10    2.731353743001819E-4  -4.339045844972134E-4  
 2.692000000000000E10    1.220106030814350E-3  -7.335016853176057E-4  
 2.694000000000000E10   -2.399587974650785E-4  -1.041974173858762E-3  
 2.696000000000000E10    9.646212856750935E-5  -4.389876557979733E-4  
 2.698000000000000E10    2.366845292272046E-4   3.443276509642601E-4  
 2.700000000000000E10    4.199329705443233E-4  -2.578792045824230E-4  
 2.702000000000000E10   -1.513634924776852E-4  -7.736706902505830E-5  
 2.704000000000000E10   -8.235364657593891E-5  -3.848606866085902E-5  
 2.706000000000000E10   -3.442676970735192E-4  -1.858477917267010E-4  
 2.708000000000000E10   -6.898222491145134E-4  -8.865591953508556E-4  
 2.710000000000000E10   -8.971784263849258E-4  -3.429299395065755E-4  
 2.712000000000000E10   -3.705915150931105E-5  -4.447787650860846E-4  
 2.714000000000000E10    6.820806302130222E-4  -2.658710291143507E-4  
 2.716000000000000E10   -2.783726959023625E-4  -7.234548684209585E-4  
 2.718000000000000E10   -6.355778896249831E-5   2.649862435646355E-4  
 2.720000000000000E10   -1.728663046378642E-4   3.896649577654898E-4  
 2.722000000000000E10   -1.038136033457704E-4   2.460770483594388E-4  
 2.724000000000000E10   -6.789763574488461E-4   5.313970032148063E-4  
 2.726000000000000E10   -2.369888388784602E-4   1.749157090671361E-4  
 2.728000000000000E10   -2.287176321260631E-4  -2.926620654761791E-4  
 2.730000000000000E10   -3.873966634273529E-4  -1.855583686847240E-4  
 2.732000000000000E10   -3.150294069200754E-4   3.862741286866367E-4  
 2.734000000000000E10    7.701124413870275E-4   2.074369549518451E-4  
 2.736000000000000E10    1.689503988018259E-4   2.328436130483169E-5  
 2.738000000000000E10   -4.101181402802467E-4  -1.258926495211199E-4  
 2.740000000000000E10   -4.111012385692447E-4   1.176207093521953E-3  
 2.742000000000000E10    3.856080365949310E-5   4.757980641443282E-4  
 2.744000000000000E10   -1.453274035156937E-5   2.029098395723850E-4  
 2.746000000000000E10   -3.463115135673434E-4  -2.989463391713798E-4  
 2.748000000000000E10   -1.258442989637842E-5   2.481622213963419E-4  
 2.750000000000000E10   -2.737912582233548E-4   4.664389125537127E-4  
 2.752000000000000E10    4.768290091305971E-4   2.589739742688835E-4  
 2.754000000000000E10    8.938997634686530E-4   4.353783733677119E-4  
 2.756000000000000E10    4.557832726277411E-4   1.250218192581087E-4  
