#  HZ   S   RI   R     50.00 
! Rohde & Schwarz ZVA40 4Ports - Version 3.90 - 1145.1110k42 SN: 100403
! Date: 2023-10-04 09:37:14
! Measurement: S12 
! 
 2.200000000000000E10    1.870156032964587E-3   7.240869454108179E-4  
 2.202000000000000E10    4.887814284302294E-4  -8.527659811079502E-4  
 2.204000000000000E10   -1.167214824818075E-3   5.619027651846409E-4  
 2.206000000000000E10   -1.042179996147752E-3   1.863505109213293E-3  
 2.208000000000000E10   -4.618554667104036E-4   2.718342002481222E-4  
 2.210000000000000E10   -6.073840195313096E-4  -3.516056458465755E-4  
 2.212000000000000E10   -9.353570058010519E-4  -1.491555158281699E-4  
 2.214000000000000E10    1.665501622483134E-4  -1.023067859932780E-3  
 2.216000000000000E10    1.760273735271767E-4  -9.340727119706571E-4  
 2.218000000000000E10   -8.103840518742800E-4   8.779332856647670E-4  
 2.220000000000000E10    6.640679785050452E-4   1.005894970148802E-3  
 2.222000000000000E10    1.401677145622671E-3   8.540141861885786E-4  
 2.224000000000000E10   -3.220744256395847E-4  -7.983689429238439E-4  
 2.226000000000000E10   -1.534683979116380E-3   8.448529115412384E-5  
 2.228000000000000E10   -3.839964920189232E-4   2.203830517828465E-3  
 2.230000000000000E10    1.788936497177929E-4   5.167060880921781E-4  
 2.232000000000000E10    4.672057111747563E-4  -8.536127861589193E-4  
 2.234000000000000E10   -8.241352043114603E-4  -1.871733346092697E-8  
 2.236000000000000E10   -4.465156816877425E-4   9.404866432305425E-6  
 2.238000000000000E10    2.218668378191069E-4   2.365198888583109E-4  
 2.240000000000000E10    1.656395179452375E-4   8.242926560342312E-4  
 2.242000000000000E10    1.141625689342618E-3  -2.875371428672224E-4  
 2.244000000000000E10    1.709648990072310E-3  -7.653196807950735E-4  
 2.246000000000000E10   -3.059640876017511E-4  -5.661165341734886E-4  
 2.248000000000000E10   -1.559285738039762E-4   9.297294309362769E-4  
 2.250000000000000E10    9.830163326114416E-4   2.309668576344848E-3  
 2.252000000000000E10    9.386852034367621E-4   5.030671600252390E-4  
 2.254000000000000E10    1.935521577252075E-4  -1.486095716245472E-3  
 2.256000000000000E10   -2.275763778015971E-3  -1.604027784196660E-4  
 2.258000000000000E10   -1.540469122119248E-3   4.257468390278518E-4  
 2.260000000000000E10    7.566679269075394E-4   4.476899339351803E-4  
 2.262000000000000E10    2.850416640285403E-4  -8.537986432202160E-4  
 2.264000000000000E10    4.919440252706409E-4  -1.354884356260300E-3  
 2.266000000000000E10    2.967183827422559E-4  -5.485363653860986E-4  
 2.268000000000000E10   -4.148981824982911E-4   3.177570761181414E-4  
 2.270000000000000E10    7.782297325320542E-4   1.580785843543708E-3  
 2.272000000000000E10    2.006162190809846E-3   1.256704912520945E-3  
 2.274000000000000E10    4.142917459830642E-4  -6.103803752921522E-4  
 2.276000000000000E10   -1.516374060884118E-3  -5.722861387766898E-4  
 2.278000000000000E10   -2.039932180196047E-3   1.799885882064700E-3  
 2.280000000000000E10   -2.135829854523763E-4   1.095965271815658E-3  
 2.282000000000000E10    1.911936793476343E-3   4.539756337180734E-4  
 2.284000000000000E10   -3.467477217782289E-4  -2.113762544468045E-3  
 2.286000000000000E10   -1.345027703791857E-3  -1.410480355843902E-3  
 2.288000000000000E10    1.870019041234627E-4   1.247433130629361E-3  
 2.290000000000000E10    1.254200120456517E-3   1.318590249866247E-3  
 2.292000000000000E10    1.476402161642909E-3   1.329258957412094E-4  
 2.294000000000000E10    8.935061632655561E-4  -1.541035162517801E-4  
 2.296000000000000E10   -1.366683398373425E-3   3.753902856260538E-4  
 2.298000000000000E10   -1.243680249899626E-3   1.227540546096861E-3  
 2.300000000000000E10    5.928770988248289E-4   2.800504444167018E-3  
 2.302000000000000E10    1.095838728360832E-3   1.390696561429650E-4  
 2.304000000000000E10    6.500671152025461E-4  -2.139180433005095E-3  
 2.306000000000000E10   -1.899212365970016E-3  -2.615246048662812E-4  
 2.308000000000000E10   -1.614873064681888E-3   1.048831851221621E-3  
 2.310000000000000E10    1.130601158365607E-3   1.429974567145109E-3  
 2.312000000000000E10    1.559578464366496E-3  -1.178025413537398E-4  
 2.314000000000000E10    2.346451656194404E-4  -2.526926109567285E-3  
 2.316000000000000E10   -6.409824127331376E-4  -9.545314824208617E-4  
 2.318000000000000E10   -1.171951182186604E-3   1.184434397146106E-3  
 2.320000000000000E10    1.187326968647540E-3   1.165915396995843E-3  
 2.322000000000000E10    1.858457108028233E-3   1.082434784621000E-3  
 2.324000000000000E10   -1.676819665590301E-4  -8.066316368058324E-4  
 2.326000000000000E10   -1.423635869286954E-3  -2.867828006856144E-4  
 2.328000000000000E10   -1.716427039355040E-3   1.587160630151629E-3  
 2.330000000000000E10   -5.464859423227608E-4   1.755670993588865E-3  
 2.332000000000000E10    1.295065623708069E-3  -5.618206923827529E-4  
 2.334000000000000E10    2.825884439516813E-4  -9.089562227018178E-4  
 2.336000000000000E10   -1.878036651760340E-3  -9.864895837381482E-4  
 2.338000000000000E10   -6.071035168133676E-4   9.007947519421578E-4  
 2.340000000000000E10    5.729611148126423E-4   1.680335728451610E-3  
 2.342000000000000E10    1.366066513583064E-3   5.170740769244731E-5  
 2.344000000000000E10    8.066348964348435E-4  -3.872018132824451E-4  
 2.346000000000000E10   -1.245741266757250E-3   5.565986793953925E-5  
 2.348000000000000E10   -1.114768441766501E-3   1.212693518027663E-3  
 2.350000000000000E10    2.269770193379372E-4   1.820670091547072E-3  
 2.352000000000000E10    4.246107710059732E-4   2.997693954966962E-4  
 2.354000000000000E10   -9.029961074702442E-4  -2.017487771809101E-3  
 2.356000000000000E10   -1.728563569486141E-3  -6.345780566334724E-4  
 2.358000000000000E10   -1.313238171860576E-3   1.135477330535650E-3  
 2.360000000000000E10    1.404800568707287E-3   1.636412634979934E-4  
 2.362000000000000E10    1.639971043914557E-3  -1.001775846816599E-3  
 2.364000000000000E10   -3.027521597687155E-4  -1.292577479034662E-3  
 2.366000000000000E10   -6.939353188499808E-4  -1.520150253782049E-4  
 2.368000000000000E10   -1.221717917360365E-3   2.200731774792075E-3  
 2.370000000000000E10    5.004838458262384E-4   1.885706675238907E-3  
 2.372000000000000E10    1.599097391590476E-3   6.405531894415617E-4  
 2.374000000000000E10   -5.043909186497331E-4  -1.684024697169662E-3  
 2.376000000000000E10   -2.545306226238608E-3  -1.002961653284729E-3  
 2.378000000000000E10   -1.845811959356070E-3   1.725304289720953E-3  
 2.380000000000000E10    4.807603836525232E-4   1.399602741003037E-3  
 2.382000000000000E10    1.532171154394746E-3  -1.444264664314687E-3  
 2.384000000000000E10    5.899003590457141E-4  -1.556595554575324E-3  
 2.386000000000000E10   -1.323448726907373E-3  -6.604182417504489E-4  
 2.388000000000000E10    2.382159727858380E-4   7.924890378490090E-4  
 2.390000000000000E10    1.053268788382411E-3   2.225165953859687E-3  
 2.392000000000000E10    9.332079207524657E-4   3.489488153718412E-4  
 2.394000000000000E10    5.169805954210460E-4  -6.541809416376054E-4  
 2.396000000000000E10   -1.329759950749576E-3   2.758113841991872E-4  
 2.398000000000000E10   -2.032793359830976E-3   7.117296918295324E-4  
 2.400000000000000E10    4.590016906149685E-4   1.102916896343231E-3  
 2.402000000000000E10    1.223910949192941E-3  -6.496676942333579E-4  
 2.404000000000000E10   -4.170961328782141E-4  -2.512217499315739E-3  
 2.406000000000000E10   -1.033348031342030E-3  -7.185696158558130E-4  
 2.408000000000000E10   -7.216940139187500E-5   4.202095733489841E-4  
 2.410000000000000E10    1.221525715664029E-3   1.284631580347195E-4  
 2.412000000000000E10    3.506024659145623E-4  -6.928154616616666E-4  
 2.414000000000000E10   -3.506967041175813E-4  -4.985843552276492E-4  
 2.416000000000000E10   -7.239369442686439E-4  -4.975708725396544E-5  
 2.418000000000000E10   -7.153106271289289E-4   5.649395170621574E-4  
 2.420000000000000E10   -6.464528269134462E-4   2.346115361433476E-4  
 2.422000000000000E10    4.119973164051771E-4  -7.116032065823674E-4  
 2.424000000000000E10   -6.378216203302145E-4  -1.086786272935569E-3  
 2.426000000000000E10   -9.489946532994509E-4  -1.167155103757978E-3  
 2.428000000000000E10   -6.055054836906493E-4   8.683078922331333E-4  
 2.430000000000000E10    4.038552870042622E-4   6.841560825705528E-4  
 2.432000000000000E10    1.144732814282179E-3  -7.875600131228566E-4  
 2.434000000000000E10   -9.059363510459662E-4  -6.694551557302475E-4  
 2.436000000000000E10   -1.811001216992736E-3   9.761068213265389E-5  
 2.438000000000000E10   -3.679976507555693E-4   8.122629951685667E-4  
 2.440000000000000E10    5.529390764422715E-4   3.959609894081950E-4  
 2.442000000000000E10    2.322818181710318E-4  -3.901387390214950E-4  
 2.444000000000000E10    4.573131736833602E-4  -1.014607260003686E-3  
 2.446000000000000E10   -6.876217412354890E-6  -3.414983511902392E-4  
 2.448000000000000E10   -1.073305727913976E-3  -1.901256764540449E-4  
 2.450000000000000E10    4.196441441308707E-4   1.209232024848461E-3  
 2.452000000000000E10    1.067512901499867E-3   1.011404674500227E-3  
 2.454000000000000E10    9.569525718688965E-4  -1.482836902141571E-3  
 2.456000000000000E10   -5.097953253425658E-4  -1.049903919920325E-3  
 2.458000000000000E10   -1.412589685060084E-3   3.890380903612822E-4  
 2.460000000000000E10    1.826907682698220E-4   9.264863911084831E-4  
 2.462000000000000E10    1.515951706096530E-3  -7.252774958033115E-5  
 2.464000000000000E10    3.413489903323352E-4  -7.687984616495669E-4  
 2.466000000000000E10   -2.395584888290614E-4  -9.309363085776568E-4  
 2.468000000000000E10   -6.350815529003739E-4   3.539941099006683E-4  
 2.470000000000000E10   -7.226218585856259E-4   4.204085271339864E-4  
 2.472000000000000E10    8.700903272256255E-4   3.059742157347500E-4  
 2.474000000000000E10    1.218514167703688E-3  -6.777412636438385E-5  
 2.476000000000000E10    1.812057598726824E-4  -1.565915765240789E-3  
 2.478000000000000E10   -6.349046016111970E-4  -4.127436841372401E-4  
 2.480000000000000E10   -3.560188633855432E-4   1.024487311951816E-3  
 2.482000000000000E10    1.373989391140640E-3   7.874647271819413E-4  
 2.484000000000000E10    8.465832215733826E-4  -1.383266207994893E-4  
 2.486000000000000E10   -5.472996854223311E-4  -6.413274095393717E-4  
 2.488000000000000E10   -1.201459905132651E-3   1.604059507371858E-4  
 2.490000000000000E10   -4.365247150417417E-4   1.176887191832066E-3  
 2.492000000000000E10    2.076913951896131E-4   1.750155934132636E-4  
 2.494000000000000E10    5.944779841229320E-4  -1.095136278308928E-3  
 2.496000000000000E10    2.661573307705112E-5  -6.143510690890253E-4  
 2.498000000000000E10   -6.582728237845004E-4   4.063429514644668E-5  
 2.500000000000000E10    1.109669974539429E-4   1.337009714916349E-3  
 2.502000000000000E10    7.929319399408996E-4   1.821377663873136E-3  
 2.504000000000000E10    6.047160131856799E-4  -2.587156450317707E-5  
 2.506000000000000E10   -7.211068877950311E-4   5.064049037173390E-5  
 2.508000000000000E10   -2.401905599981546E-3   9.668688871897757E-4  
 2.510000000000000E10   -1.264194375835359E-3   6.651856238022447E-4  
 2.512000000000000E10    1.096837921068072E-3   5.261953338049352E-4  
 2.514000000000000E10    7.226280285976827E-5  -1.053036772646010E-3  
 2.516000000000000E10   -2.539393608458340E-4  -1.704753492958844E-3  
 2.518000000000000E10   -4.014027945231646E-4   1.295223017223179E-3  
 2.520000000000000E10    1.413581048836932E-4   1.657421118579805E-3  
 2.522000000000000E10    1.418102066963911E-3   1.511391252279282E-3  
 2.524000000000000E10    1.552524336148053E-4   6.676104967482388E-4  
 2.526000000000000E10   -1.518127624876797E-3   4.336364145274274E-5  
 2.528000000000000E10   -1.834878814406693E-3   2.638458099681884E-4  
 2.530000000000000E10   -9.865693282335997E-4   1.840752665884793E-3  
 2.532000000000000E10   -8.144671301124618E-5   3.131224657408893E-4  
 2.534000000000000E10    1.335548819042742E-3  -1.390799996443093E-3  
 2.536000000000000E10   -6.642041262239218E-4  -9.816730162128806E-4  
 2.538000000000000E10   -2.028112066909671E-4  -1.827195665100589E-4  
 2.540000000000000E10    1.110481563955545E-3   1.557218958623707E-3  
 2.542000000000000E10    1.659901463426650E-3   7.279099663719535E-4  
 2.544000000000000E10    1.134669641032815E-3   3.763158165384084E-4  
 2.546000000000000E10   -4.200158291496337E-4   2.901971165556461E-4  
 2.548000000000000E10   -6.526327342726290E-4   7.589180604554713E-4  
 2.550000000000000E10   -5.984392482787371E-4   8.696751319803298E-4  
 2.552000000000000E10    8.190547814592719E-4  -2.337201149202883E-4  
 2.554000000000000E10    3.383450384717435E-4  -1.386875053867698E-3  
 2.556000000000000E10   -3.014686517417431E-4  -1.802368089556694E-3  
 2.558000000000000E10   -4.450479755178094E-4  -3.437197301536799E-4  
 2.560000000000000E10    6.548647652380168E-4   9.374990622745827E-5  
 2.562000000000000E10    1.790104666724801E-3  -6.527587538585067E-4  
 2.564000000000000E10    2.825123374350369E-4  -9.804575238376856E-4  
 2.566000000000000E10   -5.155744729563594E-4  -3.474810509942472E-4  
 2.568000000000000E10   -7.361089228652418E-5   6.277424399740994E-4  
 2.570000000000000E10    2.677261363714933E-4   4.786024219356477E-4  
 2.572000000000000E10    5.833898321725428E-4  -2.250277757411823E-4  
 2.574000000000000E10   -2.916864759754390E-4  -3.811383794527501E-4  
 2.576000000000000E10   -1.258409814909101E-3  -1.057720161043108E-3  
 2.578000000000000E10   -5.006443825550377E-4   1.043916054186411E-4  
 2.580000000000000E10    1.803659251891077E-4   6.929807132110000E-4  
 2.582000000000000E10    5.455025238916278E-4  -7.551194285042584E-4  
 2.584000000000000E10    3.282056059106253E-5  -1.405679038725793E-3  
 2.586000000000000E10   -8.057437371462584E-4  -1.702668960206211E-4  
 2.588000000000000E10   -6.458163261413574E-4   5.640434101223946E-4  
 2.590000000000000E10    7.185272406786680E-4   1.483691594330594E-4  
 2.592000000000000E10    6.417857366614044E-5  -1.520310179330409E-4  
 2.594000000000000E10   -5.145404720678926E-4  -5.466598668135703E-4  
 2.596000000000000E10    1.781766040949151E-4   3.383972798474133E-4  
 2.598000000000000E10   -5.932474159635603E-4   4.637564125005156E-4  
 2.600000000000000E10   -2.537903856136836E-5   1.571160828461871E-4  
 2.602000000000000E10    5.210454110056162E-4   6.235165637917817E-4  
 2.604000000000000E10    6.073900658520870E-5   2.487039892002940E-4  
 2.606000000000000E10   -5.512136849574745E-4  -5.220475213718601E-5  
 2.608000000000000E10   -2.983688609674573E-4   8.590847719460726E-4  
 2.610000000000000E10    3.525566717144102E-4   1.070566591806710E-3  
 2.612000000000000E10    7.821439066901803E-4  -5.671120597980917E-4  
 2.614000000000000E10   -6.368225440382958E-4   4.900447675026953E-5  
 2.616000000000000E10   -1.054714317433536E-3   6.393696530722082E-4  
 2.618000000000000E10    1.332144602201879E-3   6.188271800056100E-4  
 2.620000000000000E10    7.451495621353388E-4   1.533499307697639E-4  
 2.622000000000000E10   -2.663886116351932E-4  -6.492584943771362E-4  
 2.624000000000000E10    1.846661762101576E-4   8.802643860690296E-4  
 2.626000000000000E10    4.346123314462602E-4   9.458257118239999E-4  
 2.628000000000000E10    6.138880271464586E-4   5.137422122061253E-4  
 2.630000000000000E10   -3.195310127921403E-4   7.927411934360862E-4  
 2.632000000000000E10   -8.841542294248939E-4   2.468106104061008E-4  
 2.634000000000000E10   -4.622830019798130E-4  -3.224020474590361E-4  
 2.636000000000000E10   -6.333095370791853E-4  -3.285531129222363E-4  
 2.638000000000000E10   -1.335584092885256E-4  -3.855895192828029E-4  
 2.640000000000000E10    1.615955028682947E-3  -7.076881011016667E-4  
 2.642000000000000E10    4.088972928002477E-4  -1.016836264170706E-3  
 2.644000000000000E10   -1.355127751594409E-4  -3.149842668790370E-4  
 2.646000000000000E10    8.016014471650124E-4   1.290927990339696E-3  
 2.648000000000000E10    8.971072384156287E-4   5.458401283249259E-4  
 2.650000000000000E10   -1.748006179695949E-4  -5.293315625749528E-4  
 2.652000000000000E10   -1.023710356093943E-3   3.758089951588772E-5  
 2.654000000000000E10   -9.793151402845979E-4   4.191536281723529E-4  
 2.656000000000000E10   -3.481595485936850E-4  -5.030154716223478E-4  
 2.658000000000000E10    1.488663838244975E-4  -7.639578543603420E-4  
 2.660000000000000E10   -2.301466593053192E-4  -7.853774586692452E-4  
 2.662000000000000E10    1.049447837431217E-5  -6.303872214630246E-4  
 2.664000000000000E10    7.102064409991726E-5  -1.674564700806513E-4  
 2.666000000000000E10    3.372081555426121E-4   1.754171098582447E-4  
 2.668000000000000E10    6.726848077960312E-4  -1.753874130372424E-5  
 2.670000000000000E10    2.432348264846951E-4  -3.908289363607764E-4  
 2.672000000000000E10   -1.208341331221163E-3  -7.729164644842967E-5  
 2.674000000000000E10   -6.970497197471559E-4   3.510401584208012E-4  
 2.676000000000000E10    6.669858121313155E-4   7.218284299597144E-4  
 2.678000000000000E10    4.699354758486152E-5  -1.478786463849247E-3  
 2.680000000000000E10   -3.400312562007457E-4  -9.486270719207823E-4  
 2.682000000000000E10   -5.378565983846784E-4   2.457349619362503E-4  
 2.684000000000000E10    8.792348089627922E-4  -1.195258937514154E-5  
 2.686000000000000E10    5.266735097393394E-4   2.092205104418099E-4  
 2.688000000000000E10    6.926242494955659E-4  -1.766762288752943E-4  
 2.690000000000000E10    1.320685259997845E-4   8.124268060782924E-5  
 2.692000000000000E10    1.712101948214695E-5   1.708562049316242E-4  
 2.694000000000000E10   -7.886656931077596E-6   5.802442901767790E-4  
 2.696000000000000E10    4.065863904543221E-4   2.934966178145260E-4  
 2.698000000000000E10    7.681995630264282E-4   5.566329855355434E-5  
 2.700000000000000E10    3.915293491445482E-4  -1.128918956965208E-3  
 2.702000000000000E10   -5.623669130727649E-4   4.162844561506063E-5  
 2.704000000000000E10   -1.691284123808146E-4   4.835159343201667E-4  
 2.706000000000000E10    1.286000479012728E-3  -1.989181473618373E-4  
 2.708000000000000E10   -4.505334436544217E-5  -6.975465803407133E-4  
 2.710000000000000E10    9.526442590868101E-5  -3.058913571294397E-4  
 2.712000000000000E10    1.055010070558637E-4   3.531980619300157E-4  
 2.714000000000000E10    1.560225500725210E-4  -1.645406300667673E-4  
 2.716000000000000E10   -1.372315746266395E-4  -9.063951438292861E-5  
 2.718000000000000E10    4.361382452771068E-4   3.590402775444090E-5  
 2.720000000000000E10   -3.152657882310450E-4  -1.016448804875836E-4  
 2.722000000000000E10   -4.473284643609077E-4  -8.344688685610890E-4  
 2.724000000000000E10   -5.690332618542016E-4   5.701366171706468E-5  
 2.726000000000000E10   -2.038470265688375E-4   3.976915904786438E-4  
 2.728000000000000E10    5.545426392927766E-4  -6.408732151612639E-4  
 2.730000000000000E10   -2.571311197243631E-4  -5.533844232559204E-4  
 2.732000000000000E10   -5.590375512838364E-4   4.628029710147530E-4  
 2.734000000000000E10    3.278619842603803E-4   1.801327452994883E-4  
 2.736000000000000E10    2.286760282004252E-4  -4.998165240976960E-5  
 2.738000000000000E10   -7.872256683185697E-4  -3.440090804360807E-4  
 2.740000000000000E10    1.130223463405855E-4   5.340381176210940E-5  
 2.742000000000000E10   -3.948597004637122E-4  -9.729818702908233E-5  
 2.744000000000000E10   -7.355395355261862E-4  -2.171850210288540E-4  
 2.746000000000000E10   -9.444900206290186E-5   9.710990125313401E-4  
 2.748000000000000E10    5.296480958350003E-4   2.509559271857142E-4  
 2.750000000000000E10    5.047820741310716E-4  -6.188498809933662E-4  
 2.752000000000000E10   -8.798739872872829E-4  -1.424508081981912E-4  
 2.754000000000000E10   -6.402010913006961E-4   1.437604776583612E-3  
 2.756000000000000E10    1.007736354949884E-4   1.045822282321751E-3  
