#  HZ   S   RI   R     50.00 
! Rohde & Schwarz ZVA40 4Ports - Version 3.90 - 1145.1110k42 SN: 100403
! Date: 2023-10-04 09:37:02
! Measurement: S12 
! 
 2.200000000000000E10    2.104049781337380E-4  -4.768363214679994E-5  
 2.202000000000000E10   -2.156534232199192E-3   2.591651764305425E-6  
 2.204000000000000E10   -7.854468422010541E-4   8.511772612109780E-4  
 2.206000000000000E10    6.186552927829325E-4   1.261331373825669E-3  
 2.208000000000000E10    7.312054513022304E-4  -1.931080943904817E-3  
 2.210000000000000E10    1.815138239180669E-4  -2.451128326356411E-3  
 2.212000000000000E10   -5.062324344180524E-4  -1.767924695741385E-4  
 2.214000000000000E10    6.864366587251425E-4   1.006042817607522E-3  
 2.216000000000000E10    2.182848285883665E-3   9.560330072417855E-4  
 2.218000000000000E10    4.711764049716294E-4   4.480815550778061E-4  
 2.220000000000000E10   -9.650339488871396E-4  -4.447669489309192E-4  
 2.222000000000000E10   -1.237316289916635E-3   6.518305162899196E-4  
 2.224000000000000E10   -2.008549636229873E-3   1.737007114570588E-4  
 2.226000000000000E10    4.339817678555846E-4   7.383518823189661E-5  
 2.228000000000000E10    6.589450640603900E-4  -5.361735238693655E-4  
 2.230000000000000E10    4.144910199102014E-4  -2.433283720165491E-3  
 2.232000000000000E10   -3.355242661200464E-4  -1.158634433522821E-3  
 2.234000000000000E10   -2.058537502307445E-4   1.726106158457696E-3  
 2.236000000000000E10    1.516774529591203E-3   9.761931723915041E-4  
 2.238000000000000E10    2.224808558821678E-3   5.702079943148419E-5  
 2.240000000000000E10   -4.715936083812267E-4  -8.933292119763792E-4  
 2.242000000000000E10   -1.460503437556326E-3  -4.843792121391743E-4  
 2.244000000000000E10   -4.918947233818471E-4   1.562638324685395E-3  
 2.246000000000000E10    1.998343213927001E-4   7.680318085476756E-4  
 2.248000000000000E10    6.021190783940256E-4  -1.088231336325407E-3  
 2.250000000000000E10    2.606174966786057E-4  -1.295277033932507E-3  
 2.252000000000000E10   -1.444030203856528E-3  -1.067099976353347E-3  
 2.254000000000000E10   -6.355156656354666E-4  -1.921710645547137E-4  
 2.256000000000000E10    8.134074741974473E-4   1.054496155120432E-3  
 2.258000000000000E10    1.371568068861961E-3  -4.996658535674214E-4  
 2.260000000000000E10    5.646612262353301E-4  -1.856166869401932E-3  
 2.262000000000000E10   -1.357531175017357E-3  -6.071343668736517E-4  
 2.264000000000000E10   -1.364459050819278E-3   1.379670109599829E-3  
 2.266000000000000E10    7.832336123101413E-4   1.806036685593426E-3  
 2.268000000000000E10    1.669911085627973E-3  -3.303391276858747E-4  
 2.270000000000000E10   -4.179266688879579E-4  -2.023688284680247E-3  
 2.272000000000000E10   -1.973508857190609E-3   1.617123198229820E-4  
 2.274000000000000E10   -1.512004062533379E-3   1.624945085495710E-3  
 2.276000000000000E10    4.304759495425969E-4   6.949225789867342E-4  
 2.278000000000000E10    6.834578816778958E-4  -3.588091058190912E-4  
 2.280000000000000E10   -3.525162755977362E-4  -1.949451747350395E-3  
 2.282000000000000E10    6.840084097348154E-5  -1.294218236580491E-3  
 2.284000000000000E10   -1.103341230191290E-3   1.243870006874204E-3  
 2.286000000000000E10    1.019732910208404E-3   1.544779632240534E-3  
 2.288000000000000E10    2.158368472009897E-3   9.694523178040981E-4  
 2.290000000000000E10   -1.067218727257568E-5  -5.876619252376258E-4  
 2.292000000000000E10   -2.170231426134706E-3  -3.235139884054661E-4  
 2.294000000000000E10   -1.877702772617340E-3   2.253710757941008E-3  
 2.296000000000000E10    1.329509686911479E-4   2.338264137506485E-3  
 2.298000000000000E10    1.197118544951081E-3  -5.700829206034541E-4  
 2.300000000000000E10   -2.165312471333891E-4  -1.161664375104010E-3  
 2.302000000000000E10   -1.803917810320854E-3  -7.810888346284628E-4  
 2.304000000000000E10    1.332318497588858E-4   1.086452393792570E-3  
 2.306000000000000E10    9.460279834456742E-4   1.810362329706550E-3  
 2.308000000000000E10    1.940778456628323E-3  -6.393680905603105E-6  
 2.310000000000000E10    9.640611242502928E-4  -5.932177300564945E-4  
 2.312000000000000E10   -9.153668652288616E-4   1.794964045984671E-4  
 2.314000000000000E10   -1.318223541602492E-3   1.331528881564736E-3  
 2.316000000000000E10    6.335129146464169E-4   1.308105187490583E-3  
 2.318000000000000E10    4.692020011134446E-4   1.440586056560278E-4  
 2.320000000000000E10   -2.135795512003824E-4  -1.926201046444476E-3  
 2.322000000000000E10   -1.196038560010493E-3  -7.547826971858740E-4  
 2.324000000000000E10   -2.026227302849293E-3   6.139878532849252E-4  
 2.326000000000000E10    8.559398702345789E-4   8.778371266089380E-4  
 2.328000000000000E10    1.482338411733508E-3  -5.396331544034183E-4  
 2.330000000000000E10   -7.044398225843906E-4  -2.200587885454297E-3  
 2.332000000000000E10   -1.400022534653544E-3  -5.816145567223430E-4  
 2.334000000000000E10   -4.620068357326090E-4   1.978976884856820E-3  
 2.336000000000000E10    5.319189513102174E-4   7.482608198188245E-4  
 2.338000000000000E10    1.447691349312663E-3  -6.390728522092104E-4  
 2.340000000000000E10   -1.099388347938657E-3  -4.681357822846621E-4  
 2.342000000000000E10   -1.974446233361960E-3  -5.166759947314858E-4  
 2.344000000000000E10   -9.845559252426028E-4   1.106218667700887E-3  
 2.346000000000000E10    7.463514975825092E-6   1.310516498051584E-3  
 2.348000000000000E10    6.023750756867230E-4  -1.253975788131356E-3  
 2.350000000000000E10    5.407474600360729E-5  -2.019185572862625E-3  
 2.352000000000000E10   -2.522456692531705E-3  -8.587015327066183E-4  
 2.354000000000000E10   -1.511159702204168E-3   7.181994733400643E-4  
 2.356000000000000E10    1.133386744186282E-3   2.015986945480108E-3  
 2.358000000000000E10    1.353012048639357E-3  -6.865554023534060E-4  
 2.360000000000000E10   -2.541205903980881E-4  -1.855968846939504E-3  
 2.362000000000000E10   -2.142159035429359E-3  -1.665258168941364E-4  
 2.364000000000000E10   -1.714887097477913E-3   1.936129527166486E-3  
 2.366000000000000E10    5.860747769474983E-4   1.510877977125347E-3  
 2.368000000000000E10    3.946328070014715E-4  -9.362928540213034E-5  
 2.370000000000000E10   -7.903322693891823E-4  -1.560274627991021E-3  
 2.372000000000000E10   -1.226455555297434E-3  -6.630982388742268E-4  
 2.374000000000000E10   -1.503337989561260E-3   7.684219744987786E-4  
 2.376000000000000E10    2.074628864647821E-4   6.724250270053744E-4  
 2.378000000000000E10    1.549339503981173E-3  -7.332218228839338E-5  
 2.380000000000000E10    5.453959456644952E-4  -9.363952558487654E-4  
 2.382000000000000E10   -1.129391021095216E-3  -3.924512420780957E-4  
 2.384000000000000E10   -6.511879619210959E-4   2.134829061105847E-3  
 2.386000000000000E10    8.869608864188194E-4   1.850171247497201E-3  
 2.388000000000000E10    1.413629041053355E-3  -4.189623577985913E-4  
 2.390000000000000E10   -8.631622185930610E-4  -5.321395001374185E-4  
 2.392000000000000E10   -1.658251392655075E-3  -2.845810377039015E-5  
 2.394000000000000E10    3.927958896383643E-4   9.987835073843598E-4  
 2.396000000000000E10    8.812826126813889E-4   2.698928001336753E-4  
 2.398000000000000E10    5.630823434330523E-4  -1.117478939704597E-3  
 2.400000000000000E10    1.862211938714609E-4  -8.410445880144835E-4  
 2.402000000000000E10   -5.578075652010739E-4   4.920164064969868E-5  
 2.404000000000000E10   -1.927099765453022E-5   4.836510925088078E-4  
 2.406000000000000E10    1.190172741189599E-3   5.163178429938853E-4  
 2.408000000000000E10    8.362961816601455E-4  -6.462098099291325E-4  
 2.410000000000000E10   -6.161655619507656E-5  -2.010741271078587E-3  
 2.412000000000000E10   -1.386062009260058E-3  -6.110552931204438E-5  
 2.414000000000000E10   -4.847837553825229E-4   7.696023676544428E-4  
 2.416000000000000E10    2.079631900414825E-3  -3.200432111043483E-4  
 2.418000000000000E10    1.039229682646692E-3  -1.941386377438903E-3  
 2.420000000000000E10   -9.600977064110339E-4  -1.919712056405842E-3  
 2.422000000000000E10   -9.146516094915569E-4  -1.511783921159804E-4  
 2.424000000000000E10    1.336631248705089E-4   3.887774946633726E-4  
 2.426000000000000E10    6.396291428245604E-4   1.475402386859059E-4  
 2.428000000000000E10    7.125438423827291E-4  -8.330101263709366E-4  
 2.430000000000000E10   -5.118608241900802E-4  -1.176130142994225E-3  
 2.432000000000000E10   -1.457274309359491E-3  -1.388847129419446E-3  
 2.434000000000000E10   -1.270562410354614E-3   5.827242857776582E-4  
 2.436000000000000E10   -1.100181034416892E-4   5.323388031683862E-4  
 2.438000000000000E10    1.874785055406392E-3  -1.487259403802455E-3  
 2.440000000000000E10    1.001012569759041E-4  -1.515729585662484E-3  
 2.442000000000000E10   -1.247264561243355E-3  -8.769920095801354E-4  
 2.444000000000000E10   -9.161666639556643E-6   1.140684122219682E-3  
 2.446000000000000E10    6.024254253134131E-4   1.028765575028956E-3  
 2.448000000000000E10    1.046600227709860E-4  -3.295538481324911E-4  
 2.450000000000000E10   -1.694366656010971E-4  -5.471512558870018E-4  
 2.452000000000000E10   -1.046954886987805E-3   2.749078557826579E-4  
 2.454000000000000E10   -4.144091799389571E-4  -5.202899919822812E-4  
 2.456000000000000E10    1.324734039371833E-4   9.194004815071821E-5  
 2.458000000000000E10    4.325961635913700E-4   2.338140038773418E-4  
 2.460000000000000E10    1.150287105701864E-3  -7.286858162842691E-4  
 2.462000000000000E10    1.258160191355273E-4  -1.483480155002326E-4  
 2.464000000000000E10   -4.558837972581387E-4   7.799939485266805E-4  
 2.466000000000000E10    5.053534987382591E-4   1.359010348096490E-3  
 2.468000000000000E10    8.184525649994612E-4   8.963469299487770E-4  
 2.470000000000000E10   -3.612989967223257E-4  -6.815917440690100E-4  
 2.472000000000000E10   -6.283784750849009E-4   2.836123167071492E-4  
 2.474000000000000E10   -5.023418343625963E-4   8.764602243900299E-4  
 2.476000000000000E10    7.908825064077973E-4  -4.987135762348771E-4  
 2.478000000000000E10    1.399071537889540E-3  -8.240722818300128E-4  
 2.480000000000000E10    2.079940459225327E-4  -2.451346081215888E-4  
 2.482000000000000E10    5.832926253788173E-4  -2.357765479246154E-4  
 2.484000000000000E10    6.558487075380981E-4   6.675240001641214E-4  
 2.486000000000000E10    2.279550390085205E-4   1.357655273750424E-3  
 2.488000000000000E10    8.143623126670718E-4   2.704738290049136E-4  
 2.490000000000000E10    4.879600310232490E-4  -4.812319530174136E-4  
 2.492000000000000E10   -1.533771282993257E-3  -7.866604137234390E-4  
 2.494000000000000E10   -6.638972554355860E-4   7.160677341744304E-5  
 2.496000000000000E10    8.845582487992942E-4   1.211323193274438E-3  
 2.498000000000000E10    5.319607444107533E-4  -7.036388851702213E-4  
 2.500000000000000E10    4.907018155790865E-4  -1.260405057109892E-3  
 2.502000000000000E10   -8.999384008347988E-4   4.740936274174601E-4  
 2.504000000000000E10   -4.691479553002864E-4   7.284934981726110E-4  
 2.506000000000000E10    3.043459146283567E-4   6.968650850467384E-4  
 2.508000000000000E10   -2.185323537560180E-4  -2.170756779378280E-4  
 2.510000000000000E10   -2.577173872850835E-4  -4.852015117648989E-4  
 2.512000000000000E10   -4.263728624209762E-4  -7.931233267299831E-4  
 2.514000000000000E10   -9.970535757020116E-4  -3.074888445553370E-5  
 2.516000000000000E10   -3.340338880661875E-4   1.482147199567407E-4  
 2.518000000000000E10    1.186778885312378E-3   5.264634964987636E-4  
 2.520000000000000E10   -1.580008829478174E-4  -5.307603278197348E-4  
 2.522000000000000E10   -5.890455213375390E-4  -7.168615702539682E-4  
 2.524000000000000E10   -1.377222128212452E-3   9.890202200040221E-4  
 2.526000000000000E10   -5.434677004814148E-4   1.452209980925545E-4  
 2.528000000000000E10   -2.176751731894910E-4   8.724134386284277E-5  
 2.530000000000000E10   -9.678411297500134E-4  -5.468572489917278E-4  
 2.532000000000000E10   -5.473786150105298E-4  -4.313496756367385E-4  
 2.534000000000000E10    6.058004146325402E-6  -2.854282683983911E-6  
 2.536000000000000E10    4.728456842713058E-4   4.610931500792503E-4  
 2.538000000000000E10    3.448711941018701E-4  -2.632893156260252E-4  
 2.540000000000000E10    8.954794029705226E-4   3.741562832146883E-4  
 2.542000000000000E10   -6.891287630423904E-4   7.359932060353458E-4  
 2.544000000000000E10   -7.906124228611589E-4   3.921871539205313E-4  
 2.546000000000000E10   -3.314219065941870E-4   1.052578678354621E-3  
 2.548000000000000E10   -2.450266329105943E-4  -4.907299298793078E-4  
 2.550000000000000E10   -1.072953273251187E-5  -9.927187347784638E-4  
 2.552000000000000E10   -5.247239023447037E-4  -4.682795552071184E-4  
 2.554000000000000E10    1.273041270906106E-4  -6.742209661751986E-4  
 2.556000000000000E10    1.187089947052300E-3  -3.855951654259116E-4  
 2.558000000000000E10    8.672144031152129E-4  -3.536873555276543E-5  
 2.560000000000000E10    4.401898186188191E-4  -5.434400518424809E-4  
 2.562000000000000E10    4.123465041629970E-4   3.912125248461962E-4  
 2.564000000000000E10   -1.228681794600561E-4   5.499021499417722E-4  
 2.566000000000000E10   -3.110508623649366E-5   1.565982965985313E-4  
 2.568000000000000E10   -2.656279502843972E-5   1.245054445462301E-4  
 2.570000000000000E10   -3.543014463502914E-4  -5.281126941554248E-4  
 2.572000000000000E10   -6.386599270626903E-4  -1.073277788236737E-3  
 2.574000000000000E10    7.595045190100791E-6  -6.318475352600217E-4  
 2.576000000000000E10    1.274553069379181E-4  -7.263819570653141E-4  
 2.578000000000000E10    7.053517620079219E-4  -1.237673801369965E-3  
 2.580000000000000E10    7.485546520911157E-4  -2.210279199061915E-4  
 2.582000000000000E10    4.883012734353542E-4  -4.332931421231479E-4  
 2.584000000000000E10    6.937538855709136E-4   4.306392511352897E-4  
 2.586000000000000E10   -4.575607017613947E-4   6.015764083713293E-4  
 2.588000000000000E10   -1.380266912747175E-4   4.183058335911483E-4  
 2.590000000000000E10   -2.272961137350649E-4   4.177830414846540E-4  
 2.592000000000000E10   -8.312400314025581E-4  -1.681490175542422E-5  
 2.594000000000000E10   -1.068765996024013E-3  -4.467935650609434E-4  
 2.596000000000000E10   -2.839427615981549E-4  -5.691575934179127E-4  
 2.598000000000000E10   -7.373782573267818E-4  -3.991014091297984E-5  
 2.600000000000000E10    1.214100120705552E-4  -5.885771824978292E-4  
 2.602000000000000E10    6.294304621405900E-4   3.225675609428436E-4  
 2.604000000000000E10    1.293849491048604E-4   2.796213811961934E-5  
 2.606000000000000E10    5.721334600821137E-4  -5.069614780950360E-5  
 2.608000000000000E10   -4.405706713441759E-4   1.341171097010374E-3  
 2.610000000000000E10   -3.764355205930769E-4   9.322541300207377E-4  
 2.612000000000000E10    1.272832014365122E-4   7.495500613003969E-4  
 2.614000000000000E10   -7.220606785267592E-4   4.780049494002014E-4  
 2.616000000000000E10   -9.778263047337532E-4   2.189653314417228E-4  
 2.618000000000000E10   -4.616756050381810E-4   5.653458647429943E-4  
 2.620000000000000E10   -3.736852086149156E-4   4.665009328164160E-4  
 2.622000000000000E10    2.547141921240836E-4  -1.796341894078068E-5  
 2.624000000000000E10    6.703073740936816E-4   5.820372025482357E-4  
 2.626000000000000E10    7.199492392828688E-5   1.487016415921971E-4  
 2.628000000000000E10    1.329022925347090E-4   2.410419547231868E-4  
 2.630000000000000E10    1.120428278227337E-4   9.813712676987052E-4  
 2.632000000000000E10   -1.020705676637590E-4   5.271309055387974E-4  
 2.634000000000000E10    3.262779500801116E-4  -4.872182325925678E-4  
 2.636000000000000E10   -1.991707831621170E-4   8.213311957661063E-6  
 2.638000000000000E10   -3.639385977294296E-4   7.678582187509164E-5  
 2.640000000000000E10    8.942146669141948E-4  -1.221229613292962E-4  
 2.642000000000000E10    9.920767042785883E-4   2.976403629872948E-4  
 2.644000000000000E10    2.007916336879134E-4  -6.004595779813826E-4  
 2.646000000000000E10    2.713453141041100E-4  -8.950524352258071E-5  
 2.648000000000000E10   -2.843987895175815E-4   6.221355870366097E-4  
 2.650000000000000E10    1.817529118852690E-4   6.495318302768283E-6  
 2.652000000000000E10    1.837706367950887E-4  -2.780040667857975E-4  
 2.654000000000000E10   -1.472056028433144E-4  -8.329453994520009E-4  
 2.656000000000000E10   -1.978295331355184E-4  -8.959129336290062E-4  
 2.658000000000000E10   -1.516621705377474E-4  -5.177257698960602E-4  
 2.660000000000000E10    1.832713314797729E-4   3.317047958262265E-4  
 2.662000000000000E10    1.026335754431784E-3  -4.674161900766194E-4  
 2.664000000000000E10    6.107818335294724E-4  -3.472033713478595E-4  
 2.666000000000000E10   -7.645800360478461E-4  -4.285328323021531E-4  
 2.668000000000000E10   -2.821679227054119E-4   4.406004736665636E-4  
 2.670000000000000E10   -4.519976791925728E-4   5.193643737584353E-4  
 2.672000000000000E10    1.348377991234884E-4  -3.138815809506923E-4  
 2.674000000000000E10   -2.184776676585898E-4  -3.739178646355867E-4  
 2.676000000000000E10   -4.773174296133220E-4  -9.867947082966566E-4  
 2.678000000000000E10   -5.374152678996325E-4  -2.293148427270353E-4  
 2.680000000000000E10    1.156206853920594E-4   1.939569774549455E-4  
 2.682000000000000E10    4.132690082769841E-4   8.018030785024166E-4  
 2.684000000000000E10    5.478640086948872E-4  -3.871739027090371E-4  
 2.686000000000000E10   -1.416606828570366E-4  -3.835613315459341E-4  
 2.688000000000000E10   -1.299451338127255E-3   6.894771358929575E-4  
 2.690000000000000E10    1.184284847113304E-4   1.161150052212179E-3  
 2.692000000000000E10    6.138113676570356E-4   4.152666660957038E-4  
 2.694000000000000E10   -6.549074169015512E-5  -7.315645343624055E-4  
 2.696000000000000E10   -4.815719730686396E-4   7.092663872754201E-5  
 2.698000000000000E10   -6.016057159285992E-5   7.734335376881063E-4  
 2.700000000000000E10    4.544204857666045E-4   1.903654338093475E-4  
 2.702000000000000E10    6.963853957131505E-4   2.332793956156820E-4  
 2.704000000000000E10    9.381004929309711E-5   4.700619319919497E-4  
 2.706000000000000E10    6.061018575564958E-5   7.329104846576229E-5  
 2.708000000000000E10   -5.820870137540624E-5   4.576089268084616E-4  
 2.710000000000000E10   -3.602938086260110E-4   3.240276128053665E-4  
 2.712000000000000E10    6.525136413984001E-4   3.408523625694215E-4  
 2.714000000000000E10    2.974270028062165E-4  -2.369595167692751E-4  
 2.716000000000000E10   -3.838528064079583E-4  -4.054954915773124E-4  
 2.718000000000000E10   -4.875943704973906E-5   4.244075098540634E-4  
 2.720000000000000E10    3.908840590156615E-4   3.581709752324969E-4  
 2.722000000000000E10    6.353930220939219E-4  -4.966337583027780E-4  
 2.724000000000000E10   -1.054825042956509E-4  -2.579808642622083E-4  
 2.726000000000000E10   -5.264045903459191E-4  -1.611412735655904E-4  
 2.728000000000000E10    3.649101927294396E-5  -2.117491385433823E-4  
 2.730000000000000E10    8.141444595821668E-6   9.754752682056278E-5  
 2.732000000000000E10    3.048001963179559E-4  -8.479291864205152E-5  
 2.734000000000000E10    8.147193584591150E-4  -4.982955288141966E-4  
 2.736000000000000E10   -3.698343061842024E-4  -5.479438113979995E-4  
 2.738000000000000E10   -8.864061674103141E-4  -6.815113010816276E-5  
 2.740000000000000E10    3.114318587904563E-6   8.199567673727870E-4  
 2.742000000000000E10    4.018312611151487E-4   1.397618179908022E-4  
 2.744000000000000E10   -3.512175753712654E-4  -7.808342343196273E-4  
 2.746000000000000E10   -4.745973565150052E-4  -4.087229608558118E-4  
 2.748000000000000E10   -6.517168949358165E-4   6.408114131772891E-5  
 2.750000000000000E10   -1.857507741078734E-4   1.020275012706406E-4  
 2.752000000000000E10    1.541231758892536E-4   3.356434754095972E-4  
 2.754000000000000E10    8.768484258325771E-5  -2.045908040599898E-4  
 2.756000000000000E10    1.504446699982509E-4  -8.059568936005235E-4  
