#  HZ   S   RI   R     50.00 
! Rohde & Schwarz ZVA40 4Ports - Version 3.90 - 1145.1110k42 SN: 100403
! Date: 2023-10-04 09:36:46
! Measurement: S12 
! 
 2.200000000000000E10   -7.089350838214159E-4   1.409376622177661E-3  
 2.202000000000000E10   -1.409180549671874E-4   5.993634695187211E-4  
 2.204000000000000E10    1.313623506575823E-3  -6.842963048256934E-4  
 2.206000000000000E10    2.570151700638235E-4  -1.016683410853148E-3  
 2.208000000000000E10   -6.590101984329522E-4  -1.542848418466747E-3  
 2.210000000000000E10   -2.533749502617866E-4   1.020691357553005E-3  
 2.212000000000000E10    1.199734164401889E-3   1.963618444278836E-3  
 2.214000000000000E10    1.934377476572990E-3   4.352457763161510E-4  
 2.216000000000000E10    1.810996764106676E-4  -4.994517657905817E-4  
 2.218000000000000E10   -2.238553250208497E-3   4.137655487284064E-4  
 2.220000000000000E10   -1.834797323681414E-3   1.068442128598690E-3  
 2.222000000000000E10    5.168626084923744E-4   1.072502229362726E-3  
 2.224000000000000E10    8.277779561467469E-4  -1.121431821957231E-3  
 2.226000000000000E10    5.600935546681285E-4  -2.603139262646437E-3  
 2.228000000000000E10   -5.268576787784696E-4  -4.498190537560731E-4  
 2.230000000000000E10    4.556310304906219E-4   9.903501486405730E-4  
 2.232000000000000E10    1.937212306074798E-3   1.260358956642449E-3  
 2.234000000000000E10    1.753692049533129E-3   6.510226521641016E-4  
 2.236000000000000E10    2.104863815475255E-4  -3.040676238015294E-4  
 2.238000000000000E10   -8.174926042556763E-4   1.823841157602146E-4  
 2.240000000000000E10   -1.444223220460117E-3   1.749950926750898E-3  
 2.242000000000000E10   -2.875031786970794E-4   9.226722177118063E-4  
 2.244000000000000E10    1.178535865619779E-3  -5.061193951405585E-4  
 2.246000000000000E10    3.551294139469974E-5  -1.822723541408777E-3  
 2.248000000000000E10   -7.685927557758987E-4  -1.876389724202454E-3  
 2.250000000000000E10    1.467032707296312E-4   8.433304610662162E-4  
 2.252000000000000E10    1.552993082441390E-3   1.478949794545770E-3  
 2.254000000000000E10    2.314001088961959E-3  -6.561834015883505E-4  
 2.256000000000000E10    4.924006061628461E-4  -8.267271914519370E-4  
 2.258000000000000E10   -1.391055993735790E-3  -5.357943155104294E-5  
 2.260000000000000E10   -5.281167686916888E-4   6.286366260610521E-4  
 2.262000000000000E10   -3.981446934631094E-5   1.539818360470235E-3  
 2.264000000000000E10    5.883679259568453E-4  -5.662197945639491E-4  
 2.266000000000000E10    6.521164905279875E-4  -1.473150798119605E-3  
 2.268000000000000E10   -1.340291812084615E-3  -1.357046654447913E-3  
 2.270000000000000E10   -7.311977678909898E-4  -7.775433914503083E-5  
 2.272000000000000E10    4.442906356416643E-4   1.055589993484318E-3  
 2.274000000000000E10    1.523768645711243E-3  -1.831107219913974E-4  
 2.276000000000000E10    6.985819200053811E-4  -1.642702380195260E-3  
 2.278000000000000E10   -1.415609498508275E-3  -8.070395560935140E-4  
 2.280000000000000E10   -1.637678593397141E-3   1.004812889732420E-3  
 2.282000000000000E10    6.718356598867104E-5   1.399814500473440E-3  
 2.284000000000000E10    9.683103999122977E-4   2.761032956186682E-4  
 2.286000000000000E10   -7.398785674013197E-4  -9.060466545633972E-4  
 2.288000000000000E10   -1.343820360489190E-3  -1.203784813696984E-5  
 2.290000000000000E10   -2.117122290655971E-3   1.279849675484002E-3  
 2.292000000000000E10   -4.945256514474750E-4   8.866375428624451E-4  
 2.294000000000000E10    6.001818692311645E-4   3.699259832501411E-4  
 2.296000000000000E10   -1.534631592221558E-4  -8.974177762866020E-4  
 2.298000000000000E10   -1.372080063447356E-3  -1.284659490920603E-3  
 2.300000000000000E10   -5.903106066398323E-4   1.213363953866065E-3  
 2.302000000000000E10    3.189000417478383E-4   1.832291949540377E-3  
 2.304000000000000E10    2.189642516896129E-3   2.691296976990998E-4  
 2.306000000000000E10    8.059518295340240E-4  -1.032350483001210E-4  
 2.308000000000000E10   -1.792374532669783E-3   1.216222153743729E-4  
 2.310000000000000E10   -1.290615764446557E-3   2.181482966989279E-3  
 2.312000000000000E10    4.455443995539099E-4   2.483476419001818E-3  
 2.314000000000000E10    5.133483791723847E-4  -2.963951847050339E-4  
 2.316000000000000E10   -2.282110217493027E-4  -2.054583979770541E-3  
 2.318000000000000E10   -1.851948793046176E-3  -5.657051224261522E-4  
 2.320000000000000E10   -5.366739933378995E-4  -1.429689291398972E-4  
 2.322000000000000E10    1.870110863819718E-3   6.622236105613411E-4  
 2.324000000000000E10    1.812564441934228E-3  -1.584126584930345E-4  
 2.326000000000000E10    1.143099274486303E-3  -1.593918423168361E-3  
 2.328000000000000E10   -3.300665994174779E-4  -4.861747438553721E-4  
 2.330000000000000E10   -1.136099686846137E-3   1.080023008398712E-3  
 2.332000000000000E10    2.935298834927380E-4   1.340375863946974E-3  
 2.334000000000000E10    1.687415177002549E-3   5.387011333368719E-4  
 2.336000000000000E10   -2.900239087466616E-5  -1.936412649229169E-3  
 2.338000000000000E10   -1.817864365875721E-3  -1.610801205970347E-3  
 2.340000000000000E10   -1.955477287992835E-3   1.013456610962749E-3  
 2.342000000000000E10    6.780764088034630E-4   2.355871984036639E-4  
 2.344000000000000E10    1.686686649918556E-3  -9.145390940830112E-4  
 2.346000000000000E10    2.538386906962842E-4  -1.655578031204641E-3  
 2.348000000000000E10   -5.614615511149168E-4  -1.090173027478159E-3  
 2.350000000000000E10   -1.718083221931011E-4   4.849838442169130E-4  
 2.352000000000000E10   -4.311589873395860E-4   1.599667477421463E-3  
 2.354000000000000E10    4.676546668633819E-4  -3.781172854360193E-4  
 2.356000000000000E10    2.466262085363269E-4  -8.625932387076318E-4  
 2.358000000000000E10   -1.715272897854447E-3  -1.232431503012776E-3  
 2.360000000000000E10   -1.273895381018519E-3   2.104740815411788E-5  
 2.362000000000000E10   -1.373553823214024E-4   8.312134887091816E-4  
 2.364000000000000E10    8.891015313565731E-4  -5.031476612202823E-4  
 2.366000000000000E10   -8.898162923287600E-5  -2.020832384005189E-3  
 2.368000000000000E10   -1.311233383603394E-3  -3.089167003054172E-4  
 2.370000000000000E10   -9.098616428673267E-4   1.244279206730425E-3  
 2.372000000000000E10    1.290951389819384E-3   7.693036459386349E-4  
 2.374000000000000E10    3.001181175932288E-4  -5.147564224898815E-4  
 2.376000000000000E10   -1.131515018641949E-3  -1.233135233633220E-3  
 2.378000000000000E10   -1.183149055577815E-3   6.010442157275975E-4  
 2.380000000000000E10   -1.088376622647047E-3   1.101842382922769E-3  
 2.382000000000000E10    1.110696393880062E-4   5.061791162006557E-4  
 2.384000000000000E10    5.087623721919954E-4  -2.692491980269551E-4  
 2.386000000000000E10   -4.994901828467846E-4  -1.289410982280970E-3  
 2.388000000000000E10   -1.460153376683593E-3  -9.235742618329823E-4  
 2.390000000000000E10   -7.067204569466412E-4   1.188149210065603E-3  
 2.392000000000000E10    1.052883337251842E-3   1.496234093792737E-3  
 2.394000000000000E10    2.404653467237949E-3  -6.525935605168343E-4  
 2.396000000000000E10   -1.292774977628142E-4  -1.056530862115324E-3  
 2.398000000000000E10   -1.697231084108353E-3   3.544322971720249E-4  
 2.400000000000000E10    2.167383499909192E-4   2.271549310535193E-3  
 2.402000000000000E10    1.218066085129976E-3   5.689466488547623E-4  
 2.404000000000000E10    1.072576851584017E-3  -1.165816793218255E-3  
 2.406000000000000E10   -1.594872155692428E-4  -8.584069437347353E-4  
 2.408000000000000E10   -4.568774311337620E-4  -5.673726554960012E-4  
 2.410000000000000E10    2.098846161970869E-4   1.000904157990590E-4  
 2.412000000000000E10    1.114044222049415E-3   8.445167914032936E-4  
 2.414000000000000E10    1.489169197157025E-3  -5.030831089243293E-4  
 2.416000000000000E10    1.316859154030681E-3  -2.003667177632451E-3  
 2.418000000000000E10   -7.026720559224486E-4  -4.488576669245958E-4  
 2.420000000000000E10   -1.013503293506801E-3   3.616382309701294E-4  
 2.422000000000000E10    1.362401759251952E-3   9.768097661435604E-4  
 2.424000000000000E10    9.364293655380607E-4  -8.699226309545338E-4  
 2.426000000000000E10   -1.126770803239197E-4  -1.634080195799470E-3  
 2.428000000000000E10   -6.735296337865293E-4  -6.059711085981689E-5  
 2.430000000000000E10   -2.872868390113581E-5  -1.629351027077064E-4  
 2.432000000000000E10    5.767360562458634E-4  -9.580238256603479E-4  
 2.434000000000000E10    4.752824024762958E-4  -5.073836073279381E-4  
 2.436000000000000E10   -1.879756164271385E-4  -1.919497153721750E-4  
 2.438000000000000E10    5.512648494914174E-4  -7.276536780409515E-4  
 2.440000000000000E10   -3.271529567427933E-5   6.211322033777833E-4  
 2.442000000000000E10   -4.822403716389090E-4   1.819395984057337E-4  
 2.444000000000000E10    3.630745341069996E-4  -2.978134143631905E-4  
 2.446000000000000E10   -7.669841870665550E-4  -5.561021971516311E-4  
 2.448000000000000E10   -1.263260026462376E-3  -6.119994213804603E-4  
 2.450000000000000E10    5.549359411816113E-5   4.392971459310502E-4  
 2.452000000000000E10    4.813133855350316E-4   3.740061074495316E-4  
 2.454000000000000E10    4.640246334020048E-4  -1.795590971596539E-3  
 2.456000000000000E10    9.372057684231550E-5  -3.557149320840836E-4  
 2.458000000000000E10   -7.741316221654415E-4   1.370465965010226E-3  
 2.460000000000000E10    6.961825420148671E-4   8.437907672487199E-4  
 2.462000000000000E10    8.122231229208410E-4   7.623150013387203E-4  
 2.464000000000000E10   -7.084792596288025E-4   4.847955715376884E-4  
 2.466000000000000E10   -1.003079232759774E-3   5.592867964878678E-4  
 2.468000000000000E10   -6.657143821939826E-4   6.625595851801336E-4  
 2.470000000000000E10   -7.366325589828193E-4   2.860069507732987E-4  
 2.472000000000000E10   -1.616000663489103E-4   3.269654989708215E-4  
 2.474000000000000E10    7.503263768739998E-4   1.837908203015104E-4  
 2.476000000000000E10    8.628550567664206E-4  -7.874244474805892E-4  
 2.478000000000000E10    4.094266332685947E-4  -1.420102635165677E-4  
 2.480000000000000E10    1.244859595317394E-4   1.130805467255414E-3  
 2.482000000000000E10    1.344099175184965E-3   8.245279896073043E-4  
 2.484000000000000E10    9.682976524345577E-4   8.415665361098945E-4  
 2.486000000000000E10   -7.555387564934790E-4   3.593133878894150E-4  
 2.488000000000000E10   -2.580318541731685E-4   3.741262480616570E-4  
 2.490000000000000E10   -1.497700868640095E-4   6.226021796464920E-4  
 2.492000000000000E10   -7.394566782750189E-4  -4.163465346209705E-4  
 2.494000000000000E10   -7.585794810438529E-5   1.265438186237589E-4  
 2.496000000000000E10    1.002037897706032E-3   1.415189326507971E-4  
 2.498000000000000E10    3.287418803665787E-4  -7.002469501458108E-4  
 2.500000000000000E10    1.468009868403897E-4  -6.246420671232045E-4  
 2.502000000000000E10   -1.002657518256456E-4   1.614518347196281E-3  
 2.504000000000000E10    1.534591574454680E-4   2.058426034636796E-4  
 2.506000000000000E10    1.033045817166567E-3   5.011140456190333E-5  
 2.508000000000000E10   -1.096188556402922E-3   1.997781655518338E-4  
 2.510000000000000E10   -3.780907136388123E-4  -4.405859508551657E-4  
 2.512000000000000E10   -8.351865108124912E-5   2.251405385322869E-4  
 2.514000000000000E10   -3.876123519148678E-4  -4.166288126725704E-4  
 2.516000000000000E10    2.256743027828634E-4  -6.913454271852970E-4  
 2.518000000000000E10    8.377805352210999E-4  -1.497250777902082E-4  
 2.520000000000000E10    7.774129699100740E-6   1.171683834400028E-5  
 2.522000000000000E10   -1.369804613204906E-5  -4.546948475763202E-4  
 2.524000000000000E10   -1.487574772909284E-4   1.083645271137357E-3  
 2.526000000000000E10   -4.638780665118247E-4   1.587781298439950E-5  
 2.528000000000000E10   -2.874287929444108E-5  -7.441191701218486E-4  
 2.530000000000000E10   -1.294182380661368E-3  -1.901194773381576E-4  
 2.532000000000000E10   -5.191412637941539E-4  -1.891414431156591E-4  
 2.534000000000000E10    2.930868067778647E-4  -1.122245957958512E-4  
 2.536000000000000E10    3.640621798695065E-5  -6.637130281887949E-4  
 2.538000000000000E10   -2.738031907938421E-4  -4.902940709143877E-4  
 2.540000000000000E10    2.980081189889461E-4   1.915337343234569E-4  
 2.542000000000000E10   -6.033586396370083E-5   5.122938891872764E-4  
 2.544000000000000E10   -1.827256201067939E-4  -2.977609692607075E-4  
 2.546000000000000E10    2.568356576375663E-4   4.938538768328726E-4  
 2.548000000000000E10   -2.365958243899513E-5  -1.518029312137514E-4  
 2.550000000000000E10    2.358714118599892E-4  -3.114831633865833E-4  
 2.552000000000000E10   -7.395399734377861E-4   1.342000323347747E-4  
 2.554000000000000E10    2.555530809331685E-4   5.938505273661576E-5  
 2.556000000000000E10    1.068095443770289E-3   1.956694322871044E-4  
 2.558000000000000E10    3.370792255736888E-4  -6.122876075096428E-4  
 2.560000000000000E10   -5.816997145302594E-4  -5.927348975092173E-4  
 2.562000000000000E10    1.271121727768332E-4   2.021899126702920E-4  
 2.564000000000000E10   -2.679543104022741E-5   9.049751097336412E-4  
 2.566000000000000E10    2.879727107938379E-4  -5.279731121845543E-4  
 2.568000000000000E10    5.958739202469587E-4  -2.716414164751768E-4  
 2.570000000000000E10   -5.999032291583717E-4  -6.826153839938343E-4  
 2.572000000000000E10    3.675505286082625E-4  -5.228475201874971E-4  
 2.574000000000000E10    2.806429984048009E-4   5.589876091107726E-4  
 2.576000000000000E10    9.128331439569593E-4  -3.448145871516317E-4  
 2.578000000000000E10    1.102043897844851E-3  -4.864142101723701E-4  
 2.580000000000000E10    2.746351492532995E-5  -3.378411201993004E-5  
 2.582000000000000E10   -7.756251143291593E-4   9.222933440469205E-4  
 2.584000000000000E10    1.291977823711932E-4   6.629542331211269E-4  
 2.586000000000000E10    9.123878407990560E-5   8.477419032715261E-4  
 2.588000000000000E10   -7.469731499440968E-4  -7.620747201144695E-4  
 2.590000000000000E10   -6.463996251113713E-4  -3.050676023121923E-4  
 2.592000000000000E10   -1.220662845298648E-3   8.401064405916259E-5  
 2.594000000000000E10    1.819932804210112E-4  -3.455317055340856E-4  
 2.596000000000000E10    8.278196910396218E-4  -2.854525337170344E-5  
 2.598000000000000E10    4.238062538206577E-4  -6.494236877188087E-4  
 2.600000000000000E10    2.085154847009108E-4  -3.333305940032005E-4  
 2.602000000000000E10    3.867665363941342E-4   6.083691259846091E-4  
 2.604000000000000E10    3.021156007889658E-4   1.638802350498736E-3  
 2.606000000000000E10    4.233849904267117E-5   6.950127426534891E-4  
 2.608000000000000E10   -2.965165549539961E-5   5.008711596019566E-4  
 2.610000000000000E10   -1.313732238486409E-3   2.042302949121222E-4  
 2.612000000000000E10   -7.588302250951529E-4   3.364171134307981E-4  
 2.614000000000000E10   -7.700908463448286E-4   6.696064374409616E-4  
 2.616000000000000E10   -2.213617699453607E-4  -7.288673077709973E-4  
 2.618000000000000E10    1.414834114257246E-4  -9.474275866523385E-4  
 2.620000000000000E10   -2.505067095626146E-4  -6.686658889520913E-5  
 2.622000000000000E10   -8.316773892147467E-5   3.506930079311132E-4  
 2.624000000000000E10    8.087324677035213E-4   7.451963028870523E-4  
 2.626000000000000E10    5.281795747578144E-4   8.672977564856410E-4  
 2.628000000000000E10    2.455755020491779E-4   1.099310393328778E-4  
 2.630000000000000E10   -5.013353074900806E-4   7.226385059766471E-4  
 2.632000000000000E10   -1.203472493216395E-3   5.472712218761444E-4  
 2.634000000000000E10   -7.124901458155364E-5   4.222790594212711E-4  
 2.636000000000000E10   -4.532064485829324E-4   2.379928919253871E-4  
 2.638000000000000E10   -1.228182081831619E-4  -6.442277226597071E-4  
 2.640000000000000E10    1.172083066194318E-4  -4.217342357151210E-4  
 2.642000000000000E10    1.412224373780191E-4  -3.180188650730997E-4  
 2.644000000000000E10    3.453310637269169E-5   3.412549849599600E-4  
 2.646000000000000E10    7.256273529492319E-4   3.316337533760816E-4  
 2.648000000000000E10    5.486577865667641E-4   3.495809505693615E-4  
 2.650000000000000E10   -4.707059270003811E-5  -6.727172876708210E-4  
 2.652000000000000E10   -6.272453902056441E-5   1.396092848153785E-4  
 2.654000000000000E10   -6.213460583239794E-4   4.755485861096531E-4  
 2.656000000000000E10    2.702457422856242E-4  -9.329454042017460E-5  
 2.658000000000000E10    2.162394084734842E-4  -6.000766879878938E-4  
 2.660000000000000E10    3.945126954931766E-4  -5.346492398530245E-4  
 2.662000000000000E10   -1.793003611965105E-4  -2.527522738091648E-4  
 2.664000000000000E10    3.041716990992427E-4  -2.319927734788507E-4  
 2.666000000000000E10    1.319165021413937E-4   2.776428591459990E-4  
 2.668000000000000E10    2.598728751763701E-4  -6.137524615041912E-4  
 2.670000000000000E10    4.541859671007842E-4  -3.297129296697676E-4  
 2.672000000000000E10   -9.254532633349299E-4  -8.350020507350564E-4  
 2.674000000000000E10   -2.246046351501718E-4   9.688928548712283E-5  
 2.676000000000000E10   -6.404236046364531E-5   1.636635133763775E-4  
 2.678000000000000E10    2.050538168987259E-4  -6.678073550574482E-4  
 2.680000000000000E10   -2.450141764711589E-4  -5.160153377801180E-4  
 2.682000000000000E10   -3.487508220132440E-4  -4.493674496188760E-4  
 2.684000000000000E10   -3.232993476558477E-4   4.149513915763237E-5  
 2.686000000000000E10   -1.047056794050150E-4   4.944227475789376E-5  
 2.688000000000000E10    1.260615827050060E-4   5.539069024962373E-5  
 2.690000000000000E10    2.199287519033533E-5  -1.609997416380793E-4  
 2.692000000000000E10   -6.441945442929864E-4  -2.861490247596521E-5  
 2.694000000000000E10   -6.401682039722800E-4   5.109206904307939E-5  
 2.696000000000000E10    2.792680788843427E-5   6.664047832600772E-4  
 2.698000000000000E10    1.382234477205202E-4   4.100526712136343E-5  
 2.700000000000000E10    3.679592555272393E-5  -9.289188310503960E-4  
 2.702000000000000E10   -1.051866333000362E-3   2.425693528493866E-4  
 2.704000000000000E10   -5.888526793569326E-4   9.833329822868109E-4  
 2.706000000000000E10    6.057631107978523E-4   3.765000437851995E-4  
 2.708000000000000E10    1.216245873365551E-4  -4.291740478947759E-4  
 2.710000000000000E10   -6.733941845595837E-4  -1.825260915211402E-5  
 2.712000000000000E10   -6.038059364072979E-4   2.740583440754563E-4  
 2.714000000000000E10   -1.327976933680475E-4   5.564480088651180E-4  
 2.716000000000000E10   -3.471081799943931E-5   3.623086668085307E-4  
 2.718000000000000E10    5.174009711481631E-4   1.917077752295882E-4  
 2.720000000000000E10   -2.306327369296923E-4  -9.506075912213419E-6  
 2.722000000000000E10   -6.008003256283701E-4  -5.403047543950379E-4  
 2.724000000000000E10   -2.917163074016571E-4   4.804373893421143E-4  
 2.726000000000000E10    3.317392611279502E-6   7.529473514296114E-4  
 2.728000000000000E10    8.698166348040104E-4  -2.347490371903405E-4  
 2.730000000000000E10    6.633293232880533E-4  -3.144222428090870E-4  
 2.732000000000000E10   -6.328722811304033E-4   8.077044913079590E-5  
 2.734000000000000E10    4.698130578617565E-5   1.405771326972172E-4  
 2.736000000000000E10    1.795407733879983E-4   5.497022648341954E-4  
 2.738000000000000E10   -2.231128892162815E-4  -4.062565130880103E-5  
 2.740000000000000E10    3.146666858810931E-4  -9.477347703068517E-6  
 2.742000000000000E10   -3.194780729245395E-4  -1.659004192333669E-4  
 2.744000000000000E10   -5.156135885044932E-4  -4.512628656812012E-4  
 2.746000000000000E10    1.566731953062117E-4   4.476154281292111E-4  
 2.748000000000000E10    5.921765114180744E-4   3.281144017819315E-4  
 2.750000000000000E10    2.763881639111787E-4  -7.087944541126490E-4  
 2.752000000000000E10    2.856128558050841E-4  -1.075517357094213E-4  
 2.754000000000000E10    2.121224824804813E-4   4.021391214337200E-4  
 2.756000000000000E10    2.252250124001876E-4  -1.514444593340159E-4  
