#  HZ   S   RI   R     50.00 
! Rohde & Schwarz ZVA40 4Ports - Version 3.90 - 1145.1110k42 SN: 100403
! Date: 2023-10-04 09:36:29
! Measurement: S12 
! 
 2.200000000000000E10    9.480791632086039E-4  -1.044963137246668E-3  
 2.202000000000000E10   -6.784277502447367E-4  -5.632700631394982E-4  
 2.204000000000000E10   -9.894967079162598E-4  -6.113826530054212E-4  
 2.206000000000000E10   -2.663114573806524E-4   1.548228203319013E-3  
 2.208000000000000E10    1.666619500610977E-4   1.080052577890456E-3  
 2.210000000000000E10    1.263220910914242E-3  -5.120088462717831E-4  
 2.212000000000000E10   -1.157559803687036E-3  -7.136085187084973E-4  
 2.214000000000000E10   -1.908592297695577E-3  -1.336324930889532E-4  
 2.216000000000000E10   -7.095123874023557E-4   1.542933750897646E-3  
 2.218000000000000E10    1.911025756271556E-4   1.150794443674386E-3  
 2.220000000000000E10    3.114313294645399E-4  -1.483408734202385E-3  
 2.222000000000000E10   -2.322526124771684E-4  -1.304262666963041E-3  
 2.224000000000000E10   -1.886696321889758E-3   5.560280987992883E-4  
 2.226000000000000E10    5.129973869770765E-4   8.635413250885904E-4  
 2.228000000000000E10    2.006847877055407E-3   1.239670440554619E-3  
 2.230000000000000E10    3.601002390496433E-4   1.545736886328086E-4  
 2.232000000000000E10    3.509985108394176E-4  -8.143622544594109E-4  
 2.234000000000000E10   -1.081714639440179E-3   1.109987613745034E-3  
 2.236000000000000E10   -1.134473248384893E-3   1.493169926106930E-3  
 2.238000000000000E10    9.941293392330408E-4   5.169906071387231E-4  
 2.240000000000000E10    8.285638759844005E-4  -1.020444789901376E-3  
 2.242000000000000E10   -1.045382348820567E-3  -2.110685454681516E-3  
 2.244000000000000E10   -5.564417224377394E-4  -5.411971360445023E-4  
 2.246000000000000E10    5.361183430068195E-4   1.213952898979187E-3  
 2.248000000000000E10    1.578000257723033E-3   1.581319229444489E-4  
 2.250000000000000E10    1.757918857038021E-3  -2.826119016390294E-4  
 2.252000000000000E10   -5.411820020526648E-4   5.322828656062484E-5  
 2.254000000000000E10   -1.070143654942513E-3   8.494540234096348E-4  
 2.256000000000000E10   -5.836054333485663E-4   1.167438225820661E-3  
 2.258000000000000E10   -1.038991904351860E-4   5.481728003360331E-4  
 2.260000000000000E10    1.131720928242430E-4  -9.156058658845723E-4  
 2.262000000000000E10   -2.177474816562608E-4  -1.375104766339064E-3  
 2.264000000000000E10   -1.277016126550734E-3  -7.790176896378398E-4  
 2.266000000000000E10   -1.584329875186086E-4   6.863945745863020E-4  
 2.268000000000000E10    1.598706352524459E-3   8.046100847423077E-4  
 2.270000000000000E10    1.189203583635390E-3  -1.086598495021462E-3  
 2.272000000000000E10   -9.937163849826902E-5  -6.449836655519903E-4  
 2.274000000000000E10   -1.347276032902300E-3   1.004031626507640E-3  
 2.276000000000000E10   -2.285117370774970E-4   1.318284776061773E-3  
 2.278000000000000E10    4.154801426921040E-4   5.081290728412569E-4  
 2.280000000000000E10   -5.287143867462874E-4  -6.779839168302715E-4  
 2.282000000000000E10    1.133288387791254E-4  -1.381404232233763E-3  
 2.284000000000000E10   -8.445106213912368E-4  -7.778993458487093E-4  
 2.286000000000000E10   -1.030769664794207E-3   1.498230121796951E-4  
 2.288000000000000E10    9.144290816038847E-4   1.474635064369068E-4  
 2.290000000000000E10    1.252543064765632E-3  -5.831324961036444E-4  
 2.292000000000000E10   -4.337586287874728E-4  -1.830579480156303E-3  
 2.294000000000000E10   -1.778262085281313E-3  -8.254657586803660E-5  
 2.296000000000000E10   -8.079576655291021E-4   1.604259712621570E-3  
 2.298000000000000E10    8.871629252098501E-4   6.656972691416740E-4  
 2.300000000000000E10    5.007687141187489E-4  -7.850357214920223E-4  
 2.302000000000000E10   -1.452692551538348E-3  -7.946731057018042E-4  
 2.304000000000000E10   -1.530914567410946E-3   2.473121858201921E-4  
 2.306000000000000E10   -8.004051633179188E-4   1.245497725903988E-3  
 2.308000000000000E10   -2.633848635014147E-5   8.683838532306254E-4  
 2.310000000000000E10    2.206824719905853E-4  -4.902409855276346E-4  
 2.312000000000000E10   -3.867392661049962E-4  -9.175192681141198E-4  
 2.314000000000000E10   -1.591679290868342E-3  -5.485847941599786E-4  
 2.316000000000000E10   -5.867631989531219E-4   9.157794411294162E-4  
 2.318000000000000E10    5.661371396854520E-4   1.622882904484868E-3  
 2.320000000000000E10    1.743822242133319E-3  -7.769507938064635E-4  
 2.322000000000000E10    2.063399588223547E-4  -5.963831208646298E-4  
 2.324000000000000E10   -1.835716306231916E-3   6.732078036293387E-4  
 2.326000000000000E10    9.104335731535684E-6   1.850559143349528E-3  
 2.328000000000000E10    1.090963603928685E-3   1.036261674016714E-3  
 2.330000000000000E10    1.608323800610378E-4  -6.347663584165275E-4  
 2.332000000000000E10   -5.827773711644113E-4  -1.011351239867508E-3  
 2.334000000000000E10   -3.387448959983885E-4   4.781772731803358E-4  
 2.336000000000000E10   -3.191156429238617E-4   3.230724905733950E-5  
 2.338000000000000E10    1.289968960918486E-3  -6.070780218578875E-4  
 2.340000000000000E10    4.852985439356417E-4   2.762684016488493E-4  
 2.342000000000000E10    3.201544750481844E-4  -8.087810128927231E-4  
 2.344000000000000E10    5.667252698913217E-4  -2.242337541247252E-5  
 2.346000000000000E10   -3.936752618756145E-4   9.384132572449744E-4  
 2.348000000000000E10    7.462484645657241E-4   1.001840340904892E-3  
 2.350000000000000E10    8.343845838680863E-4  -7.167523726820946E-4  
 2.352000000000000E10   -1.305667101405561E-3  -1.056105131283402E-3  
 2.354000000000000E10   -2.069562440738082E-3  -3.443214227445424E-4  
 2.356000000000000E10    4.939969512633979E-4   4.968491848558188E-4  
 2.358000000000000E10    9.830455528572202E-4  -1.086597330868244E-3  
 2.360000000000000E10    2.442605618853122E-4  -1.898363349027932E-3  
 2.362000000000000E10    1.062282080965815E-6  -4.201258998364210E-4  
 2.364000000000000E10    9.558511374052614E-5   2.330595161765814E-4  
 2.366000000000000E10    2.781912917271256E-4   6.072289543226361E-4  
 2.368000000000000E10    6.575549487024546E-4   9.071488166227937E-4  
 2.370000000000000E10    7.039169431664050E-4  -2.141698787454516E-4  
 2.372000000000000E10   -4.988362197764218E-4  -1.009325147606432E-3  
 2.374000000000000E10   -2.007857663556933E-3  -2.198824658989906E-4  
 2.376000000000000E10   -1.118423650041223E-3   7.887181127443910E-4  
 2.378000000000000E10    1.072954735718668E-3   2.220174064859748E-4  
 2.380000000000000E10    7.225816952995956E-4  -2.083772793412209E-3  
 2.382000000000000E10   -8.878094376996160E-4  -1.919892616569996E-3  
 2.384000000000000E10   -1.072504790499806E-3   3.613516164477915E-4  
 2.386000000000000E10    2.836583298631012E-4   8.561025606468320E-4  
 2.388000000000000E10    1.030410407111049E-3  -2.088835753966123E-5  
 2.390000000000000E10   -1.318299036938697E-4  -4.425747611094266E-4  
 2.392000000000000E10   -9.721178212203085E-4  -3.536116564646363E-4  
 2.394000000000000E10   -1.233621500432491E-3   1.067619887180626E-4  
 2.396000000000000E10   -1.485790358856320E-3   9.158292668871582E-4  
 2.398000000000000E10   -2.574285899754614E-4   8.656129939481616E-4  
 2.400000000000000E10    7.453736034221947E-4  -2.446665312163532E-4  
 2.402000000000000E10   -8.487149025313556E-4  -6.843943265266717E-4  
 2.404000000000000E10   -1.136026228778064E-3   1.307645015913295E-5  
 2.406000000000000E10    3.330632171127945E-4   1.467043766751885E-3  
 2.408000000000000E10    9.815782541409135E-4   5.855911877006292E-4  
 2.410000000000000E10    5.950880586169660E-4  -6.425623432733119E-4  
 2.412000000000000E10   -3.437501145526767E-4   2.554564853198826E-4  
 2.414000000000000E10    5.927727397647686E-5   1.332166604697704E-3  
 2.416000000000000E10    8.202340104617178E-4   9.844174928730354E-5  
 2.418000000000000E10    4.066870023962110E-4  -1.939023059094325E-4  
 2.420000000000000E10   -4.120761586818844E-4  -4.291687673685374E-6  
 2.422000000000000E10    5.099494592286646E-4  -2.345735629205592E-5  
 2.424000000000000E10    5.362304000300355E-5   2.054849901469424E-4  
 2.426000000000000E10    4.544367257039994E-4  -7.542243838543072E-5  
 2.428000000000000E10    8.982270956039429E-4   2.328903210582212E-4  
 2.430000000000000E10    6.127764354459941E-4  -5.941287381574512E-4  
 2.432000000000000E10   -3.463561006356031E-4  -7.339546573348343E-4  
 2.434000000000000E10    1.067528864950873E-4   8.441118989139795E-4  
 2.436000000000000E10    5.232500261627138E-4   2.101706195389852E-4  
 2.438000000000000E10    1.126766321249306E-3  -1.291049644351006E-3  
 2.440000000000000E10   -2.702636702451855E-4  -5.440298700705171E-4  
 2.442000000000000E10   -1.079344307072461E-3  -4.580691747833043E-4  
 2.444000000000000E10    7.505754474550486E-4  -1.458837941754609E-4  
 2.446000000000000E10    5.063203861936927E-4  -2.033487398875877E-4  
 2.448000000000000E10    6.711843161610887E-5  -8.139863493852317E-4  
 2.450000000000000E10    3.472743846941739E-4  -4.581971443258226E-4  
 2.452000000000000E10   -3.345265868119896E-4  -2.387625136179850E-4  
 2.454000000000000E10   -6.189036066643894E-4  -3.489181690383703E-4  
 2.456000000000000E10   -1.688736811047420E-4   5.778204649686813E-4  
 2.458000000000000E10   -2.758456685114652E-4   4.385889333207160E-4  
 2.460000000000000E10   -1.075530162779614E-4  -6.468617939390242E-4  
 2.462000000000000E10   -1.498188357800245E-4   1.018630282487720E-4  
 2.464000000000000E10   -1.217465149238706E-3   1.159781604656018E-4  
 2.466000000000000E10   -3.288002917543054E-4  -3.517603036016226E-4  
 2.468000000000000E10   -3.091287217102945E-4   7.114286418072879E-4  
 2.470000000000000E10   -7.473828154616058E-4  -1.878662733361125E-4  
 2.472000000000000E10    3.801054263021797E-4   2.487916026439052E-5  
 2.474000000000000E10   -3.627463884186000E-4   3.060911840293557E-4  
 2.476000000000000E10   -3.363744763191789E-4  -6.316071958281100E-4  
 2.478000000000000E10   -5.991011275909841E-4   6.822557770647109E-4  
 2.480000000000000E10   -5.035787035012618E-5   1.211025286465883E-3  
 2.482000000000000E10    4.145081911701709E-4   1.580190873937681E-4  
 2.484000000000000E10    4.364874330349267E-4  -7.374084671027958E-4  
 2.486000000000000E10   -1.386886462569237E-3   9.370897896587849E-4  
 2.488000000000000E10   -7.136329077184200E-4   4.042696964461356E-4  
 2.490000000000000E10    7.150186575017870E-4   9.987610392272472E-4  
 2.492000000000000E10   -3.525694191921502E-4  -7.148625445552170E-4  
 2.494000000000000E10    2.158388815587387E-4  -9.052481618709862E-4  
 2.496000000000000E10   -5.056590889580548E-4   3.962157934438437E-4  
 2.498000000000000E10    9.146099728241097E-6   2.059288381133229E-4  
 2.500000000000000E10   -1.627076417207718E-4   3.747110022231937E-4  
 2.502000000000000E10    6.978546734899283E-4   2.827518037520349E-4  
 2.504000000000000E10   -3.337260568514466E-4  -1.041980285663158E-4  
 2.506000000000000E10   -5.231431568972766E-4  -4.148682928644121E-4  
 2.508000000000000E10   -6.986768567003310E-4   9.524585912004113E-4  
 2.510000000000000E10    3.291876964794938E-6   8.650263771414757E-5  
 2.512000000000000E10    8.698309538885951E-4  -5.872789188288152E-4  
 2.514000000000000E10   -8.573336526751518E-4  -6.226343102753162E-4  
 2.516000000000000E10   -1.586168800713494E-4  -4.431665292941034E-4  
 2.518000000000000E10    6.067368667572737E-4   8.284445502795279E-4  
 2.520000000000000E10    5.972343496978283E-4  -9.201248030876741E-5  
 2.522000000000000E10    3.767705056816340E-4  -5.758869810961187E-4  
 2.524000000000000E10   -4.911088617518544E-4  -4.673680814448744E-5  
 2.526000000000000E10   -6.534368149004877E-4   1.196441808133386E-4  
 2.528000000000000E10   -2.092076465487480E-4   1.197985693579540E-4  
 2.530000000000000E10   -1.786058601283003E-5   4.307719937060028E-4  
 2.532000000000000E10   -1.534790353616700E-4  -1.067948411218822E-3  
 2.534000000000000E10    3.000306314788759E-4  -7.363619515672326E-4  
 2.536000000000000E10   -6.721453974023461E-4  -1.091360172722489E-4  
 2.538000000000000E10    1.950894220499322E-4   3.047803475055844E-4  
 2.540000000000000E10    1.161856809630990E-3   3.333841741550714E-4  
 2.542000000000000E10    6.858832784928381E-4  -2.143439924111590E-4  
 2.544000000000000E10   -3.097798326052725E-4  -7.224190048873425E-4  
 2.546000000000000E10   -6.950688548386097E-4   7.461309432983398E-4  
 2.548000000000000E10   -7.099380018189549E-4   7.795541896484792E-4  
 2.550000000000000E10    9.496908751316369E-4  -7.062480290187523E-5  
 2.552000000000000E10   -6.257445784285665E-5  -2.622765896376222E-4  
 2.554000000000000E10   -9.328278829343617E-4  -1.603615353815258E-3  
 2.556000000000000E10   -2.881908039853443E-5  -4.326154157752171E-5  
 2.558000000000000E10   -8.008714212337509E-5   3.394285449758172E-4  
 2.560000000000000E10    8.473438792861998E-4  -1.261875295313075E-4  
 2.562000000000000E10    6.245977710932493E-4  -3.577780735213310E-4  
 2.564000000000000E10   -9.369575127493590E-5  -3.909126098733395E-4  
 2.566000000000000E10   -6.194375455379486E-4   4.594359779730439E-4  
 2.568000000000000E10    2.105981693603098E-4   8.217385038733482E-4  
 2.570000000000000E10    7.566251588286832E-5   1.011163811199367E-3  
 2.572000000000000E10    4.565148556139320E-4  -1.005163067020476E-3  
 2.574000000000000E10   -2.537479740567505E-4  -3.794160147663206E-4  
 2.576000000000000E10   -1.446428708732128E-3   8.189604159269948E-6  
 2.578000000000000E10    8.118116529658437E-4   6.788512109778822E-4  
 2.580000000000000E10    2.471451589372009E-4   2.841308596543968E-4  
 2.582000000000000E10    1.722791639622301E-4  -6.242741947062314E-4  
 2.584000000000000E10   -3.093059349339455E-4   1.650947669986635E-4  
 2.586000000000000E10   -4.951279261149466E-4   3.910275991074741E-4  
 2.588000000000000E10   -3.836698015220463E-4   4.497231566347182E-4  
 2.590000000000000E10    4.540280497167260E-4  -1.408482930855826E-4  
 2.592000000000000E10   -1.522066886536777E-4  -2.442164113745093E-4  
 2.594000000000000E10   -9.465463226661086E-4  -1.112117664888501E-3  
 2.596000000000000E10   -1.733695971779525E-4   7.148791919462383E-4  
 2.598000000000000E10   -5.181628512218595E-4   7.590832537971437E-4  
 2.600000000000000E10    8.972234791144729E-4  -3.126763040199876E-4  
 2.602000000000000E10   -1.942833623616025E-4   1.140444801421836E-4  
 2.604000000000000E10   -1.443654764443636E-3  -5.049791070632637E-4  
 2.606000000000000E10   -5.531667848117650E-4   6.354515790008009E-4  
 2.608000000000000E10    7.709315104875714E-5   7.594161434099078E-4  
 2.610000000000000E10   -7.969373109517619E-5   5.744129157392308E-5  
 2.612000000000000E10   -2.044809225481004E-4  -6.691989838145673E-4  
 2.614000000000000E10   -7.722307345829904E-4   1.161563777714036E-4  
 2.616000000000000E10   -6.971145048737526E-4  -3.114179708063602E-4  
 2.618000000000000E10    2.865673450287432E-4   7.507081609219313E-4  
 2.620000000000000E10   -2.063139254460111E-4   6.407118635252118E-4  
 2.622000000000000E10    7.343221805058420E-4  -6.487700738944113E-4  
 2.624000000000000E10    7.647468919458333E-6   2.606529160402715E-4  
 2.626000000000000E10   -7.911925786174834E-4   4.331849922891706E-4  
 2.628000000000000E10   -3.807110188063234E-4   6.417835829779506E-4  
 2.630000000000000E10    5.519995465874672E-4   4.611909680534154E-4  
 2.632000000000000E10   -2.759842027444392E-4  -4.501892544794828E-4  
 2.634000000000000E10   -7.442465284839273E-4  -1.052666571922600E-3  
 2.636000000000000E10   -5.914003122597933E-4   2.576201513875276E-4  
 2.638000000000000E10   -2.323924854863435E-4  -6.201491924002767E-4  
 2.640000000000000E10    9.901947341859341E-4  -2.237140142824501E-4  
 2.642000000000000E10    4.588566298480146E-5  -2.172148379031569E-4  
 2.644000000000000E10    1.734067336656153E-4  -6.581677589565516E-4  
 2.646000000000000E10    4.077183984918520E-5   2.161388983950019E-4  
 2.648000000000000E10    6.589804252143949E-5   4.497286572586745E-4  
 2.650000000000000E10   -2.106867468683049E-4   3.325345169287175E-4  
 2.652000000000000E10    7.291385554708540E-5  -1.806945074349642E-4  
 2.654000000000000E10   -6.298399530351162E-4   1.209495821967721E-4  
 2.656000000000000E10   -3.411498910281807E-4  -2.985759638249874E-4  
 2.658000000000000E10    1.874520421552006E-5   2.406125277047977E-4  
 2.660000000000000E10    2.378693807258969E-6  -8.364423410966992E-4  
 2.662000000000000E10    8.669606177136302E-4  -5.211258539929986E-4  
 2.664000000000000E10    1.633146603126079E-4  -6.340470281429589E-4  
 2.666000000000000E10    5.609337822534144E-4  -4.450952983461320E-4  
 2.668000000000000E10    1.027259713737294E-4   2.877306251320988E-4  
 2.670000000000000E10    2.253078564535826E-4   2.101124700857326E-4  
 2.672000000000000E10    2.207702491432428E-4   3.855844843201339E-4  
 2.674000000000000E10   -3.099454625044018E-4  -4.595929058268666E-4  
 2.676000000000000E10   -8.790446445345879E-4  -3.520847531035543E-4  
 2.678000000000000E10   -4.983547260053456E-4  -4.035588935948908E-4  
 2.680000000000000E10    3.202061343472451E-4  -1.448201655875891E-4  
 2.682000000000000E10   -1.284966710954905E-4  -1.128211151808500E-3  
 2.684000000000000E10    3.130527620669454E-4  -9.703049436211586E-4  
 2.686000000000000E10   -3.509483067318797E-4  -1.209484107675962E-4  
 2.688000000000000E10   -9.645053069107235E-5  -1.410622935509309E-4  
 2.690000000000000E10    3.358556714374572E-4   3.393835795577616E-4  
 2.692000000000000E10    1.764754561008886E-4  -5.872435576748103E-5  
 2.694000000000000E10   -3.983585338573903E-4  -4.157746152486652E-4  
 2.696000000000000E10   -4.506181576289237E-4  -4.835104336962104E-4  
 2.698000000000000E10   -8.033498888835311E-4   4.522927702055313E-5  
 2.700000000000000E10   -3.560199402272701E-4  -5.554185481742024E-4  
 2.702000000000000E10    4.011025012005121E-4  -2.822768583428115E-4  
 2.704000000000000E10   -4.971885937266052E-4  -6.537592853419483E-4  
 2.706000000000000E10   -9.845761815086007E-5  -9.922618046402931E-4  
 2.708000000000000E10   -5.395586485974491E-4   1.677885156823322E-4  
 2.710000000000000E10   -3.607241378631443E-4   2.673094277270138E-4  
 2.712000000000000E10    3.877257986459881E-4   5.662352850777097E-5  
 2.714000000000000E10   -1.535595802124590E-4  -7.110035221558064E-5  
 2.716000000000000E10   -6.280567031353712E-4  -2.556678664404899E-4  
 2.718000000000000E10   -4.044089000672102E-4   1.066607364919037E-4  
 2.720000000000000E10   -5.611638189293444E-4   3.029223880730569E-4  
 2.722000000000000E10   -8.474715968986857E-7  -4.863491922151297E-4  
 2.724000000000000E10    1.949927245732397E-4   1.161307882284746E-4  
 2.726000000000000E10   -6.431637448258698E-4  -1.187287052744068E-4  
 2.728000000000000E10   -2.256593870697543E-5  -3.949474776163697E-4  
 2.730000000000000E10    3.554700815584511E-4   4.268145130481571E-5  
 2.732000000000000E10   -2.092214162985329E-5  -1.015927336993627E-4  
 2.734000000000000E10    8.693437848705798E-5  -5.004561971873045E-4  
 2.736000000000000E10    3.168381954310462E-5  -8.934373909141868E-5  
 2.738000000000000E10   -2.641661558300257E-4   3.049485967494547E-4  
 2.740000000000000E10    4.497531917877495E-4  -2.709003456402570E-4  
 2.742000000000000E10   -6.269532605074346E-5   1.722553133731708E-4  
 2.744000000000000E10   -4.394646675791591E-4  -2.172816020902246E-4  
 2.746000000000000E10    3.168753464706242E-4   1.043335068970919E-4  
 2.748000000000000E10   -7.350315718213096E-5   4.044330853503197E-4  
 2.750000000000000E10    3.263056350988336E-5  -2.717905445024371E-4  
 2.752000000000000E10    1.988291915040463E-4   2.378214703639969E-4  
 2.754000000000000E10    2.200586313847452E-4   5.074434448033571E-4  
 2.756000000000000E10    3.550058172550052E-4   1.029662744258530E-4  
