#  HZ   S   RI   R     50.00 
! Rohde & Schwarz ZVA40 4Ports - Version 3.90 - 1145.1110k42 SN: 100403
! Date: 2023-10-04 09:36:11
! Measurement: S12 
! 
 2.200000000000000E10   -1.408936572261155E-3   7.733401143923402E-4  
 2.202000000000000E10    4.289589414838702E-4   1.218262710608542E-3  
 2.204000000000000E10    2.186914207413793E-3   1.434369096386945E-5  
 2.206000000000000E10    4.805923672392964E-4  -1.689495984464884E-3  
 2.208000000000000E10   -1.387273659929633E-3  -6.176382303237915E-4  
 2.210000000000000E10   -6.540332833537832E-5   5.430781166069210E-4  
 2.212000000000000E10    8.078182581812143E-4   9.002143051475287E-4  
 2.214000000000000E10    2.960387791972607E-4  -1.887510297819972E-4  
 2.216000000000000E10    6.225539837032557E-4  -3.800142148975283E-4  
 2.218000000000000E10   -5.864671547897160E-4  -7.360320305451751E-4  
 2.220000000000000E10   -1.510062837041915E-3  -1.876743626780808E-4  
 2.222000000000000E10   -2.165965852327645E-4   9.849489433690906E-4  
 2.224000000000000E10    1.634040032513440E-3   2.180787414545193E-4  
 2.226000000000000E10    7.461063796654344E-4  -1.677375985309482E-3  
 2.228000000000000E10   -6.882164161652327E-4  -1.080279587768018E-3  
 2.230000000000000E10   -1.212350325658917E-3   8.704291540198028E-4  
 2.232000000000000E10    1.174277276732028E-3   8.819869835861027E-4  
 2.234000000000000E10    1.365829026326537E-3  -2.513534855097532E-4  
 2.236000000000000E10   -7.559218793176115E-4  -1.440078951418400E-3  
 2.238000000000000E10   -8.436680654995143E-4  -8.484996214974672E-5  
 2.240000000000000E10   -1.150337120634504E-4   1.168451039120555E-3  
 2.242000000000000E10    1.427630922989920E-4   2.883869747165591E-4  
 2.244000000000000E10    8.694321149960160E-4   8.268669625977054E-5  
 2.246000000000000E10    6.517997826449573E-4   2.312229335075244E-4  
 2.248000000000000E10   -3.640397917479277E-4  -8.660782477818430E-4  
 2.250000000000000E10   -6.380683043971658E-4   5.889476160518825E-4  
 2.252000000000000E10   -2.927794412244111E-5   1.858151867054403E-3  
 2.254000000000000E10    1.589632243849337E-3  -2.843866823241115E-4  
 2.256000000000000E10    1.675570820225403E-4  -1.238776021637023E-3  
 2.258000000000000E10   -1.822825754061341E-3  -7.399019086733460E-4  
 2.260000000000000E10   -4.476230533327907E-4   5.900234682485461E-4  
 2.262000000000000E10    1.182415639050305E-3   8.650352829135954E-4  
 2.264000000000000E10    9.952957043424249E-4  -9.862557053565979E-4  
 2.266000000000000E10    1.591108739376068E-4  -9.899751748889685E-4  
 2.268000000000000E10   -3.111090918537229E-4   3.130449040327221E-4  
 2.270000000000000E10   -1.741720043355599E-4   6.170705310069025E-4  
 2.272000000000000E10    1.073502862709574E-4   8.593869279138744E-4  
 2.274000000000000E10    3.114093851763755E-4   6.028354982845485E-4  
 2.276000000000000E10    6.515024579130113E-4  -7.736333645880222E-4  
 2.278000000000000E10   -1.060663955286145E-3  -1.063872710801661E-3  
 2.280000000000000E10   -1.736804959364235E-3   1.406186929671094E-4  
 2.282000000000000E10   -1.957135682459921E-4   1.386935822665691E-3  
 2.284000000000000E10    1.871301326900721E-3  -4.324842302594334E-4  
 2.286000000000000E10    3.495311248116195E-4  -1.642854418605566E-3  
 2.288000000000000E10   -9.971067775040865E-4  -1.912495645228773E-4  
 2.290000000000000E10   -1.728045317577198E-4   1.313488348387182E-3  
 2.292000000000000E10    5.378979840315878E-4   6.007087649777532E-4  
 2.294000000000000E10    5.155554972589016E-4  -1.838332100305706E-4  
 2.296000000000000E10   -4.014588485006243E-4  -3.071529499720782E-4  
 2.298000000000000E10   -3.815588133875281E-4  -6.731915636919439E-4  
 2.300000000000000E10   -2.226117067039013E-4   3.848070991807617E-5  
 2.302000000000000E10   -4.119182121939957E-4   3.951816761400551E-4  
 2.304000000000000E10    9.407930192537606E-4   1.582795375725254E-4  
 2.306000000000000E10    8.164013852365315E-4  -1.031112857162952E-3  
 2.308000000000000E10   -7.823430933058262E-4  -9.841646533459425E-4  
 2.310000000000000E10   -1.114482292905450E-3   4.337654099799693E-4  
 2.312000000000000E10    8.252077386714518E-4   1.166320405900478E-3  
 2.314000000000000E10    6.578995962627232E-4  -7.129253936000168E-4  
 2.316000000000000E10   -6.024165195412934E-4  -1.421086373738945E-3  
 2.318000000000000E10   -1.036492176353931E-3   5.132810911163688E-4  
 2.320000000000000E10    1.227137545356527E-4   1.298604474868625E-4  
 2.322000000000000E10    6.644954555667937E-4  -4.070935829076916E-4  
 2.324000000000000E10   -4.352820396889001E-4  -2.118272095685825E-4  
 2.326000000000000E10    1.362716720905155E-4   1.130109594669193E-4  
 2.328000000000000E10    5.173090812604642E-6  -1.451186108170077E-4  
 2.330000000000000E10   -4.104266699869186E-4  -3.660774018499069E-5  
 2.332000000000000E10   -1.047644691425376E-4   5.862800753675401E-4  
 2.334000000000000E10    8.487564045935869E-4   3.432374505791813E-4  
 2.336000000000000E10    4.882766006630845E-5  -1.114435261115432E-3  
 2.338000000000000E10   -9.988833917304874E-4  -4.365714848972857E-4  
 2.340000000000000E10   -5.484113935381174E-4   1.410520984791219E-3  
 2.342000000000000E10    8.998962584882975E-4   2.487076271791011E-4  
 2.344000000000000E10    6.297662039287388E-4  -6.780651747249067E-4  
 2.346000000000000E10   -9.950839448720217E-4  -5.780435749329627E-4  
 2.348000000000000E10   -1.875830203061923E-4   2.111895737471059E-4  
 2.350000000000000E10    4.256506799720228E-4   9.389939805259928E-5  
 2.352000000000000E10    6.381951243383810E-5   9.890602814266458E-5  
 2.354000000000000E10    4.815197899006307E-4  -3.214753814972937E-5  
 2.356000000000000E10    1.061812508851290E-3  -4.006393137387931E-4  
 2.358000000000000E10   -2.185888588428497E-4  -9.227928239852190E-4  
 2.360000000000000E10   -4.308807547204197E-4   5.442526307888329E-4  
 2.362000000000000E10    4.929073038510978E-4   1.725213718600571E-3  
 2.364000000000000E10    1.284602214582264E-3   2.957110409624875E-4  
 2.366000000000000E10    2.506751334294677E-4  -1.325817778706551E-3  
 2.368000000000000E10   -1.626440556719899E-3  -5.540938000194728E-4  
 2.370000000000000E10   -4.131210444029421E-4   5.867285071872175E-4  
 2.372000000000000E10    4.907064721919596E-4   2.403986873105168E-4  
 2.374000000000000E10    6.352183991111815E-4  -7.415228174068034E-4  
 2.376000000000000E10    5.431821336969733E-4  -7.660689298063517E-4  
 2.378000000000000E10    4.475551249925047E-4  -7.013253634795547E-4  
 2.380000000000000E10   -5.135620012879372E-4  -5.053911008872092E-4  
 2.382000000000000E10   -4.783851327374578E-4   5.945933517068625E-4  
 2.384000000000000E10    9.268057765439153E-4   1.064012991264463E-3  
 2.386000000000000E10    3.320318064652383E-4  -1.302658929489553E-3  
 2.388000000000000E10   -9.242739179171622E-4  -1.447036745958030E-3  
 2.390000000000000E10   -1.293904613703489E-3   4.703425802290440E-4  
 2.392000000000000E10    5.752885772380978E-5  -9.171401325147599E-5  
 2.394000000000000E10    9.513218537904322E-4  -8.092219359241426E-4  
 2.396000000000000E10   -5.787434056401253E-4  -1.187504734843969E-3  
 2.398000000000000E10   -5.159056745469570E-4  -3.089856763835996E-4  
 2.400000000000000E10    4.691700742114335E-4   3.597036993596703E-4  
 2.402000000000000E10    2.807007404044271E-4  -1.366651849821210E-5  
 2.404000000000000E10   -3.370010817889124E-4  -4.937542835250497E-4  
 2.406000000000000E10    1.997678336920217E-4   6.891177035868168E-4  
 2.408000000000000E10   -2.204813063144684E-4   2.228984230896458E-4  
 2.410000000000000E10   -3.406622563488782E-4  -1.121368113672361E-4  
 2.412000000000000E10   -1.953421306097880E-4   8.275550790131092E-4  
 2.414000000000000E10    4.404467181302607E-4  -3.165386442560703E-4  
 2.416000000000000E10   -3.321581607451662E-5  -7.691049249842763E-4  
 2.418000000000000E10   -9.122798219323158E-4   4.006276139989495E-4  
 2.420000000000000E10    3.272288449807093E-5   7.956917397677898E-4  
 2.422000000000000E10    1.119174878112972E-3   2.658566518221051E-5  
 2.424000000000000E10    9.865155880106613E-5  -5.157506675459445E-4  
 2.426000000000000E10   -3.544315113686025E-4  -2.220928290626034E-4  
 2.428000000000000E10    3.819242701865733E-4   7.291222573257983E-4  
 2.430000000000000E10    2.260080073028803E-4   7.883112411946058E-4  
 2.432000000000000E10    3.576473391149193E-4  -6.564324721693993E-4  
 2.434000000000000E10    5.680919275619090E-4   8.259052265202627E-6  
 2.436000000000000E10   -5.180847947485745E-4  -1.248008775291964E-4  
 2.438000000000000E10    4.356428980827332E-4  -8.004553965292871E-4  
 2.440000000000000E10   -1.931620499817655E-4   5.987079348415136E-4  
 2.442000000000000E10   -5.478959428728558E-5   4.287940973881632E-4  
 2.444000000000000E10    1.065177726559341E-3  -1.179891551146284E-4  
 2.446000000000000E10    5.181171000003815E-4  -2.560733701102436E-4  
 2.448000000000000E10   -6.164367077872157E-4  -2.565651666373015E-4  
 2.450000000000000E10    5.432135658338666E-4   2.222846524091438E-5  
 2.452000000000000E10    1.148123774328269E-4   7.540403166785836E-4  
 2.454000000000000E10   -4.796381836058572E-5  -4.153795889578760E-4  
 2.456000000000000E10    8.383066160604358E-4   3.779962426051498E-4  
 2.458000000000000E10    2.148239727830514E-4  -8.020189125090838E-5  
 2.460000000000000E10   -1.710668220766820E-5  -8.004712872207165E-4  
 2.462000000000000E10   -6.076982826925814E-4   4.059290804434568E-4  
 2.464000000000000E10    2.180878072977066E-4   9.540071478113532E-4  
 2.466000000000000E10    1.102624344639480E-3  -5.457923634821782E-6  
 2.468000000000000E10    5.237166187725961E-4  -8.903552661649883E-4  
 2.470000000000000E10   -1.522559556178749E-3  -2.224703930551186E-4  
 2.472000000000000E10   -7.428519165841863E-5   3.591704880818725E-4  
 2.474000000000000E10    7.315715774893761E-4   6.927121430635452E-4  
 2.476000000000000E10    6.594946607947350E-4  -9.200596250593662E-4  
 2.478000000000000E10    3.350633487571031E-4  -1.897328620543703E-4  
 2.480000000000000E10   -4.927803529426456E-4  -3.571693669073284E-4  
 2.482000000000000E10    2.267174713779241E-4  -2.006473514484242E-4  
 2.484000000000000E10    3.735586942639202E-4   4.792866238858551E-4  
 2.486000000000000E10    4.137023352086544E-4   2.469065657351166E-4  
 2.488000000000000E10    2.078631514450535E-4  -1.031263149343431E-3  
 2.490000000000000E10    3.391889777049073E-6  -3.760739054996520E-4  
 2.492000000000000E10   -1.271777204237878E-3   1.650610502110794E-4  
 2.494000000000000E10    4.642262065317482E-4  -2.464083954691887E-4  
 2.496000000000000E10    8.917634841054678E-4  -1.467229740228504E-4  
 2.498000000000000E10   -2.661830221768469E-4  -1.197023317217827E-3  
 2.500000000000000E10   -5.779046477982774E-5   1.592969638295472E-4  
 2.502000000000000E10   -3.449900541454554E-4   1.219020108692348E-3  
 2.504000000000000E10    7.496648468077183E-4   3.391360223758966E-5  
 2.506000000000000E10    3.461383457761258E-4  -1.600077521288768E-4  
 2.508000000000000E10   -1.101268688216806E-3  -4.384766216389835E-4  
 2.510000000000000E10   -8.801473304629326E-4  -3.398517146706581E-4  
 2.512000000000000E10   -2.386260894127190E-4   5.169717478565872E-4  
 2.514000000000000E10   -1.459638588130474E-4   3.150216361973435E-4  
 2.516000000000000E10    7.795873098075390E-4  -1.298997667618096E-3  
 2.518000000000000E10    3.285875427536666E-4  -5.030158208683133E-4  
 2.520000000000000E10   -1.204282045364380E-3   7.287694461410865E-5  
 2.522000000000000E10    4.890835261903703E-4   9.796615922823548E-4  
 2.524000000000000E10    8.261835901066661E-4   1.255487557500601E-3  
 2.526000000000000E10    2.917513193096966E-4  -5.675802240148187E-4  
 2.528000000000000E10   -5.555066745728254E-4  -6.218131748028100E-4  
 2.530000000000000E10   -1.291474327445030E-3   7.291334914043546E-4  
 2.532000000000000E10   -2.334765886189416E-4   4.487129044719040E-4  
 2.534000000000000E10    1.089697121642530E-3  -3.799032128881663E-5  
 2.536000000000000E10    2.707049425225705E-4  -5.776465404778719E-4  
 2.538000000000000E10   -5.936107481829822E-5  -6.059434381313622E-4  
 2.540000000000000E10   -1.245253315573791E-5   5.076620727777481E-4  
 2.542000000000000E10   -3.376256790943444E-5   1.057892339304090E-3  
 2.544000000000000E10    6.017406121827662E-4   1.497388002462685E-4  
 2.546000000000000E10    5.374153843149543E-4   3.256730560678989E-4  
 2.548000000000000E10   -8.679816382937133E-4  -7.469541742466390E-5  
 2.550000000000000E10   -3.258496290072799E-4  -1.338149468210759E-5  
 2.552000000000000E10   -5.155733379069716E-5   1.169908442534506E-3  
 2.554000000000000E10    3.606387763284147E-4  -1.388488017255440E-4  
 2.556000000000000E10    1.187265850603581E-3  -2.234486455563456E-4  
 2.558000000000000E10   -3.276714414823800E-4   2.309646079083905E-4  
 2.560000000000000E10   -3.448321949690580E-4  -1.158871964435093E-4  
 2.562000000000000E10    3.690167504828423E-4   1.183064305223525E-3  
 2.564000000000000E10    3.522924089338630E-4   6.728068110533059E-4  
 2.566000000000000E10   -2.754553634076729E-6  -2.406064595561475E-4  
 2.568000000000000E10   -5.684062489308417E-4  -2.199948794441298E-4  
 2.570000000000000E10   -7.048629922792316E-4   3.415473620407283E-4  
 2.572000000000000E10    8.736779273021966E-5   1.072783852578141E-4  
 2.574000000000000E10    7.135095074772835E-4   2.078924007946625E-4  
 2.576000000000000E10   -7.477187318727374E-5  -5.553404334932566E-4  
 2.578000000000000E10    8.153008820954710E-5  -6.899103755131364E-4  
 2.580000000000000E10   -2.129371932824142E-5   1.144167850725353E-3  
 2.582000000000000E10   -4.583286645356566E-4   5.526178865693510E-4  
 2.584000000000000E10    9.608604013919830E-4   3.191194555256516E-4  
 2.586000000000000E10   -1.471825962653384E-4   3.013743262272328E-4  
 2.588000000000000E10   -7.302488666027784E-4  -8.588379714637995E-4  
 2.590000000000000E10   -6.074479897506535E-4   3.646405239123851E-4  
 2.592000000000000E10   -4.669348127208650E-4   6.152834394015372E-4  
 2.594000000000000E10    8.874515187926590E-4  -2.709853870328516E-4  
 2.596000000000000E10    7.421806803904474E-4  -6.861366564407945E-4  
 2.598000000000000E10   -7.172129116952419E-4  -3.742888657143340E-5  
 2.600000000000000E10   -3.244192048441619E-4  -3.855889372061938E-4  
 2.602000000000000E10    3.799850237555802E-4   8.360421052202582E-4  
 2.604000000000000E10   -1.716045662760735E-4   3.974266583099961E-4  
 2.606000000000000E10    9.158659959211946E-4  -5.741518689319491E-4  
 2.608000000000000E10   -4.302097950130701E-4  -3.153172729071230E-4  
 2.610000000000000E10   -1.114263432100415E-3  -1.203664432978258E-4  
 2.612000000000000E10    1.933353632921353E-4   7.405653013847768E-4  
 2.614000000000000E10    4.660760750994086E-4   2.543289156164974E-4  
 2.616000000000000E10    2.450446481816471E-4  -1.307575614191592E-3  
 2.618000000000000E10   -8.128832996590063E-5  -9.308472508564591E-4  
 2.620000000000000E10   -9.226133697666228E-4   7.806375506334007E-4  
 2.622000000000000E10    5.958310794085264E-4   3.826911852229387E-4  
 2.624000000000000E10    1.304633100517094E-3   1.869072875706479E-4  
 2.626000000000000E10   -7.407665543723851E-5  -8.069431642070413E-4  
 2.628000000000000E10   -2.921288541983813E-4  -3.265181730967015E-4  
 2.630000000000000E10   -1.598062372067943E-4   5.962579161860049E-4  
 2.632000000000000E10    7.378812733804807E-5   2.128710548277013E-5  
 2.634000000000000E10    4.390210960991681E-4  -4.079604404978454E-4  
 2.636000000000000E10    4.433765716385096E-4  -1.107398857129738E-4  
 2.638000000000000E10   -7.649804465472698E-4  -8.317879401147366E-4  
 2.640000000000000E10    2.743547083809972E-4  -2.514813386369497E-4  
 2.642000000000000E10    1.911527651827782E-4   9.743453701958060E-4  
 2.644000000000000E10    7.130375015549362E-4  -5.020843818783760E-4  
 2.646000000000000E10    7.770540541969240E-4  -1.527987187728286E-4  
 2.648000000000000E10   -3.980560286436230E-4  -1.046998804667965E-4  
 2.650000000000000E10   -1.641654234845191E-4   3.496051358524710E-4  
 2.652000000000000E10    6.063624168746173E-4   5.801005754619837E-4  
 2.654000000000000E10    3.860445576719940E-4  -1.773015537764877E-4  
 2.656000000000000E10   -6.427569314837456E-4  -8.339022169820964E-4  
 2.658000000000000E10   -7.489285053452477E-6  -2.171700034523383E-4  
 2.660000000000000E10    1.355291078652954E-5   9.442721784580499E-5  
 2.662000000000000E10    8.023890550248325E-4  -1.153707853518426E-4  
 2.664000000000000E10    7.800069288350642E-4   3.492746327538043E-4  
 2.666000000000000E10    2.475766814313829E-4  -5.325785605236888E-4  
 2.668000000000000E10    8.837097993819043E-5   1.708770141704008E-4  
 2.670000000000000E10   -7.286635227501392E-4   8.812653250060976E-4  
 2.672000000000000E10    2.008508163271472E-4   3.896136768162251E-4  
 2.674000000000000E10    5.344559394870885E-5  -1.774734409991652E-4  
 2.676000000000000E10   -5.181802553124726E-4  -1.054148306138814E-3  
 2.678000000000000E10   -2.337399637326598E-4  -4.875840095337480E-4  
 2.680000000000000E10    4.365740460343659E-4  -1.004658042802475E-4  
 2.682000000000000E10    6.564088398590684E-4  -5.956694949418306E-4  
 2.684000000000000E10    5.945548182353377E-4  -6.361661362461746E-4  
 2.686000000000000E10    2.778049965854734E-4   4.265547322575003E-4  
 2.688000000000000E10    2.161681040888652E-4   3.530050889821723E-5  
 2.690000000000000E10    1.858382893260568E-4  -1.800830359570682E-4  
 2.692000000000000E10   -6.083321059122682E-4   3.254992188885808E-4  
 2.694000000000000E10   -1.979054504772648E-4  -5.193006018089363E-6  
 2.696000000000000E10    3.582661738619208E-4  -1.139070736826398E-4  
 2.698000000000000E10   -1.744725159369409E-4  -7.012368296273053E-4  
 2.700000000000000E10   -2.767663390841335E-4  -7.458646432496607E-4  
 2.702000000000000E10    3.015637921635062E-4   2.904781722463667E-4  
 2.704000000000000E10    3.228683199267834E-4  -2.843716902134474E-5  
 2.706000000000000E10    3.177057660650462E-4  -1.705552567727864E-4  
 2.708000000000000E10   -3.588827439671150E-6   6.230791914276779E-4  
 2.710000000000000E10   -2.877672668546438E-4   5.474589997902513E-4  
 2.712000000000000E10   -4.289652861189097E-5   3.106039657723159E-4  
 2.714000000000000E10   -3.305503050796688E-4   4.607537994161248E-4  
 2.716000000000000E10   -1.972908212337643E-4  -1.697955594863743E-4  
 2.718000000000000E10    4.508266283664852E-4   7.151355384849012E-5  
 2.720000000000000E10    1.007416212814860E-4   4.102958773728460E-4  
 2.722000000000000E10    2.929269394371659E-4  -2.157281705876812E-4  
 2.724000000000000E10    8.872717735357583E-4   5.117318942211568E-4  
 2.726000000000000E10    1.850870903581381E-4   3.319367824587971E-4  
 2.728000000000000E10    3.130865807179362E-4  -7.578088116133586E-5  
 2.730000000000000E10    8.518773247487843E-4   7.310864748433232E-4  
 2.732000000000000E10    6.282711401581764E-4   2.739148330874741E-4  
 2.734000000000000E10    3.999585460405797E-4  -2.993920061271638E-4  
 2.736000000000000E10    2.922643616329879E-4   2.618742000777274E-4  
 2.738000000000000E10    8.910134056350216E-5   2.110491041094065E-4  
 2.740000000000000E10    7.356625865213573E-4  -2.450195024721324E-4  
 2.742000000000000E10    5.344951641745865E-4   4.018002073280513E-4  
 2.744000000000000E10    2.117954718414694E-4  -1.746508496580645E-4  
 2.746000000000000E10    9.230878204107285E-4   1.540241501061246E-4  
 2.748000000000000E10    3.135349834337831E-4   3.911868261639029E-4  
 2.750000000000000E10    2.592692180769518E-5  -3.177293110638857E-4  
 2.752000000000000E10    5.272480775602162E-4   1.893035368993878E-4  
 2.754000000000000E10    1.556971401441842E-4   2.388967986917123E-4  
 2.756000000000000E10    1.327250538452063E-5  -6.939685554243624E-4  
