#  HZ   S   RI   R     50.00 
! Rohde & Schwarz ZVA40 4Ports - Version 3.90 - 1145.1110k42 SN: 100403
! Date: 2023-10-04 09:35:59
! Measurement: S12 
! 
 2.200000000000000E10    1.111839592340402E-4  -3.715938655659556E-4  
 2.202000000000000E10   -7.162087422329933E-5  -5.969827907392755E-5  
 2.204000000000000E10   -1.554197515361011E-4  -5.362417432479560E-4  
 2.206000000000000E10   -1.139561863965355E-4   8.843021350912750E-4  
 2.208000000000000E10    8.387780690100044E-5   1.231947680935264E-3  
 2.210000000000000E10    1.765492139384151E-3  -4.927261034026742E-4  
 2.212000000000000E10   -2.111171052092686E-4  -5.820752121508122E-4  
 2.214000000000000E10   -1.535474089905620E-3  -3.253270697314292E-4  
 2.216000000000000E10   -5.410966332419775E-5   1.759344246238470E-3  
 2.218000000000000E10    1.122557907365263E-3   9.958083974197507E-4  
 2.220000000000000E10    4.218312096782029E-4  -1.550646033138037E-3  
 2.222000000000000E10   -1.015693997032940E-3  -6.820248090662062E-4  
 2.224000000000000E10   -1.328522223047912E-3   1.231315545737743E-3  
 2.226000000000000E10    6.862313603051007E-4   3.103876661043614E-4  
 2.228000000000000E10    1.717940904200077E-4   4.931370858685114E-5  
 2.230000000000000E10   -4.534101753961295E-4  -2.837917709257454E-4  
 2.232000000000000E10   -9.434837920707651E-6  -5.851897294633091E-4  
 2.234000000000000E10   -1.192547570099123E-4   8.379253995371983E-5  
 2.236000000000000E10   -7.352762622758746E-4   8.512377971783280E-4  
 2.238000000000000E10    6.908709765411913E-4   5.325550446286798E-4  
 2.240000000000000E10    1.268442720174789E-3   1.383426842949120E-5  
 2.242000000000000E10   -9.524078341200948E-4  -6.351370248012245E-4  
 2.244000000000000E10   -1.035459921695292E-3   6.137031014077365E-4  
 2.246000000000000E10    1.700311258900911E-4   2.288770396262407E-3  
 2.248000000000000E10    7.749986834824085E-4   5.145785398781300E-4  
 2.250000000000000E10    3.275687049608678E-5  -9.550611721351743E-4  
 2.252000000000000E10   -1.135814585722983E-3   2.325105306226760E-4  
 2.254000000000000E10   -4.589314630720764E-4   1.062502735294402E-3  
 2.256000000000000E10    7.731229998171330E-4   3.207776171620935E-4  
 2.258000000000000E10   -6.875702092656866E-5   4.270502540748566E-4  
 2.260000000000000E10    2.799966314341873E-4  -3.312640046715387E-7  
 2.262000000000000E10    7.204101420938969E-4  -1.727994676912203E-4  
 2.264000000000000E10   -1.072331448085606E-3   1.243230799445882E-4  
 2.266000000000000E10   -7.322342717088759E-4   1.544812112115324E-3  
 2.268000000000000E10    8.423252729699016E-4   1.196677680127323E-3  
 2.270000000000000E10    3.543178318068385E-4  -7.186522125266492E-4  
 2.272000000000000E10   -1.779506099410355E-3  -8.739926852285862E-4  
 2.274000000000000E10   -1.695873914286494E-3   6.633761222474277E-4  
 2.276000000000000E10    3.868899948429316E-4   5.908125895075500E-4  
 2.278000000000000E10    7.211238844320178E-4  -7.811974501237273E-4  
 2.280000000000000E10   -6.129519897513092E-4  -1.131584751419723E-3  
 2.282000000000000E10   -2.527331816963852E-4  -2.189587976317853E-4  
 2.284000000000000E10    4.353458934929222E-4  -3.719394726431347E-6  
 2.286000000000000E10    4.659316036850214E-4  -4.751412197947502E-4  
 2.288000000000000E10    2.401357778580859E-5   6.397056276910007E-4  
 2.290000000000000E10    5.536791286431253E-4   5.718739121221006E-4  
 2.292000000000000E10    3.548620734363794E-4  -4.121201636735350E-4  
 2.294000000000000E10   -1.596351386979222E-3  -8.854918996803463E-5  
 2.296000000000000E10   -6.019560387358069E-4   1.242824713699520E-3  
 2.298000000000000E10    3.835514944512397E-4  -3.834219023701735E-5  
 2.300000000000000E10   -1.894407032523304E-4  -1.127353869378567E-3  
 2.302000000000000E10   -1.335851615294814E-3  -4.848884418606758E-4  
 2.304000000000000E10    1.632893690839410E-4   8.911520708352327E-4  
 2.306000000000000E10    6.306312861852348E-4  -2.477837597325561E-6  
 2.308000000000000E10   -7.914150046417490E-5  -8.269477402791381E-4  
 2.310000000000000E10   -7.957021589390934E-4   1.519585566711612E-6  
 2.312000000000000E10   -1.981109962798655E-4   5.740229389630258E-4  
 2.314000000000000E10    3.977555898018181E-4  -1.194788274005987E-4  
 2.316000000000000E10   -5.290990811772645E-4  -1.586730941198766E-4  
 2.318000000000000E10   -6.272247992455959E-4   7.228438626043499E-4  
 2.320000000000000E10    4.165517457295209E-4  -6.947711808606982E-4  
 2.322000000000000E10   -9.682619565865025E-5  -1.031833468005061E-3  
 2.324000000000000E10   -1.209776732139289E-3  -1.213230425491929E-4  
 2.326000000000000E10    7.382116164080799E-4   4.359471495263279E-4  
 2.328000000000000E10    1.137084211222827E-3   2.421692624920979E-4  
 2.330000000000000E10   -2.871918550226837E-4  -1.157921040430665E-3  
 2.332000000000000E10   -4.355229903012514E-4   1.950934674823657E-4  
 2.334000000000000E10    4.517811248661019E-5   9.744433336891234E-4  
 2.336000000000000E10    1.418333995388821E-4  -2.397127536823973E-4  
 2.338000000000000E10   -9.256722114514560E-5  -1.040317729348317E-4  
 2.340000000000000E10   -1.463965745642781E-4   7.019477197900415E-4  
 2.342000000000000E10   -3.674650361062959E-5  -8.886294090189040E-4  
 2.344000000000000E10   -4.009972035419196E-4  -9.373938664793968E-4  
 2.346000000000000E10   -8.411412709392607E-4   5.415921914391220E-4  
 2.348000000000000E10    8.477364317514002E-4   5.558453267440200E-4  
 2.350000000000000E10    1.505887485109270E-3  -6.843967130407691E-4  
 2.352000000000000E10   -3.557637974154204E-4  -1.256785239093006E-3  
 2.354000000000000E10   -1.131374505348504E-3   5.448613228509203E-5  
 2.356000000000000E10    4.644591826945543E-4   1.099375076591969E-3  
 2.358000000000000E10    3.323498822283000E-4   3.403888258617371E-4  
 2.360000000000000E10    2.032367046922445E-5  -6.474752444773912E-4  
 2.362000000000000E10   -6.516363937407732E-4   3.921019015251659E-5  
 2.364000000000000E10   -6.033997633494437E-4  -6.839729030616581E-4  
 2.366000000000000E10   -7.042426150292158E-4  -3.386437892913818E-4  
 2.368000000000000E10   -1.131793716922402E-3   3.185251262038946E-4  
 2.370000000000000E10    1.126740127801895E-3  -1.940257207024843E-4  
 2.372000000000000E10    6.326917791739106E-4  -1.207787776365876E-3  
 2.374000000000000E10   -8.350547286681831E-4  -6.272441241890192E-4  
 2.376000000000000E10   -1.122671383200213E-4   8.733652648515999E-4  
 2.378000000000000E10    8.233244298025966E-4   1.037137350067496E-3  
 2.380000000000000E10    3.497178258839995E-4  -6.064359913580120E-4  
 2.382000000000000E10   -5.541844875551760E-4  -2.331615251023322E-4  
 2.384000000000000E10   -8.626346243545413E-4   5.210016388446093E-4  
 2.386000000000000E10   -2.706051745917648E-4  -2.135334798367694E-4  
 2.388000000000000E10   -1.231829664902762E-4  -6.184047670103610E-4  
 2.390000000000000E10   -4.045701352879405E-4  -2.168892970075831E-4  
 2.392000000000000E10    4.715322284027934E-4  -7.487483089789748E-4  
 2.394000000000000E10    5.486774025484920E-4  -6.197442417033017E-4  
 2.396000000000000E10   -6.341832922771573E-4   1.071475708158687E-4  
 2.398000000000000E10    1.009962987154722E-3   3.471160016488284E-5  
 2.400000000000000E10    1.279048621654511E-3  -1.596010552020744E-4  
 2.402000000000000E10   -1.078500063158572E-3  -9.786526206880808E-4  
 2.404000000000000E10   -6.692698225378990E-4   2.927421592175961E-4  
 2.406000000000000E10    7.756660343147814E-4   6.497986032627523E-4  
 2.408000000000000E10    3.298782685305923E-4  -8.581294678151608E-4  
 2.410000000000000E10   -6.068530492484570E-4  -1.202759565785527E-3  
 2.412000000000000E10   -5.200502346269786E-4   3.844909952022135E-4  
 2.414000000000000E10   -5.187611677683890E-4   2.500364207662642E-4  
 2.416000000000000E10    6.228237762115896E-4  -1.999435626203194E-4  
 2.418000000000000E10   -6.172314169816673E-5   6.476198177551851E-5  
 2.420000000000000E10   -7.538717909483239E-6  -6.530506070703268E-4  
 2.422000000000000E10    1.512437302153558E-4  -2.250673569506034E-4  
 2.424000000000000E10   -1.253726892173290E-3   1.560638484079391E-4  
 2.426000000000000E10   -2.302113134646788E-4   7.448940305039287E-4  
 2.428000000000000E10    1.203800435177982E-3   7.756971172057092E-4  
 2.430000000000000E10    3.412441001273692E-4  -8.665794157423079E-4  
 2.432000000000000E10   -7.783714681863785E-4  -7.535041659139097E-4  
 2.434000000000000E10   -6.292198086157441E-4   1.160864369012415E-3  
 2.436000000000000E10   -1.792384573491290E-4   7.299730787053704E-4  
 2.438000000000000E10    6.344142602756620E-4  -1.231025526067242E-4  
 2.440000000000000E10    4.051876603625715E-4   4.489663115236908E-4  
 2.442000000000000E10   -1.993906334973872E-4  -5.123589653521776E-4  
 2.444000000000000E10   -1.479460188420489E-4  -3.070810053031892E-4  
 2.446000000000000E10   -5.121876602061093E-4   1.038935501128435E-3  
 2.448000000000000E10    3.783071588259190E-4   7.573966286145151E-4  
 2.450000000000000E10    1.247187494300306E-3   4.973231261828914E-5  
 2.452000000000000E10   -4.608429735526443E-4  -2.618698636069894E-4  
 2.454000000000000E10   -1.080089481547475E-3  -6.392562645487487E-4  
 2.456000000000000E10    5.090849663247354E-5   9.643458761274815E-4  
 2.458000000000000E10    3.624397213570774E-4   7.224277360364795E-4  
 2.460000000000000E10    7.683410658501089E-4  -9.272779570892453E-4  
 2.462000000000000E10   -9.891687659546733E-5   2.195971901528537E-4  
 2.464000000000000E10   -3.021284064743668E-4   1.398578315274790E-4  
 2.466000000000000E10    1.168305316241458E-4   5.474120262078941E-4  
 2.468000000000000E10   -1.374887942802161E-4   7.543761748820543E-4  
 2.470000000000000E10   -1.236068928847089E-4   1.516366173746064E-4  
 2.472000000000000E10    8.170604996848851E-5  -8.341983630089089E-5  
 2.474000000000000E10   -5.491150077432394E-4  -1.050594505613844E-6  
 2.476000000000000E10   -1.023356220684946E-3  -3.651049046311528E-4  
 2.478000000000000E10    8.113278890959919E-4   6.924360641278327E-4  
 2.480000000000000E10    3.035478875972331E-4   3.105939249508083E-4  
 2.482000000000000E10    6.363227294059470E-5  -1.091152545996010E-3  
 2.484000000000000E10   -3.103085036855191E-4   5.555045790970326E-4  
 2.486000000000000E10   -2.951823989860714E-4   1.368519267998636E-3  
 2.488000000000000E10    7.186241564340890E-4   3.009930078405887E-4  
 2.490000000000000E10    3.273250767961144E-4  -2.606813213787973E-4  
 2.492000000000000E10   -9.993349667638540E-4  -1.072273735189810E-4  
 2.494000000000000E10   -5.437507061287761E-4   5.649474769597873E-5  
 2.496000000000000E10    3.025692712981254E-4   6.052570533938706E-4  
 2.498000000000000E10    2.650304813869298E-4  -2.048443275270984E-5  
 2.500000000000000E10    9.492643293924630E-4  -5.144544993527234E-4  
 2.502000000000000E10    8.494234498357400E-5   9.744023554958403E-5  
 2.504000000000000E10   -9.507108479738236E-4  -9.204367233905941E-5  
 2.506000000000000E10    3.067463403567672E-4   1.137513783760369E-3  
 2.508000000000000E10    4.472371656447649E-4   7.766954950056970E-4  
 2.510000000000000E10    6.128838867880404E-4  -1.255004084669054E-3  
 2.512000000000000E10   -2.015356294577941E-4  -6.799916154704988E-4  
 2.514000000000000E10   -1.119195367209613E-3   5.821136874146760E-4  
 2.516000000000000E10    3.144836518913508E-4   4.483403463382274E-4  
 2.518000000000000E10    1.350684906356037E-3  -2.427636500215158E-4  
 2.520000000000000E10   -5.479736501001753E-5  -6.195528549142182E-4  
 2.522000000000000E10   -6.164396763779223E-4  -5.468485760502517E-4  
 2.524000000000000E10   -5.835999618284404E-4   2.747779362834990E-4  
 2.526000000000000E10   -4.463020304683596E-4   3.847037805826403E-5  
 2.528000000000000E10    2.802540257107467E-4  -2.133762754965574E-4  
 2.530000000000000E10   -3.080723690800369E-4  -3.809495829045773E-4  
 2.532000000000000E10   -4.879255720879883E-4  -1.085371128283441E-3  
 2.534000000000000E10   -2.951711066998541E-4  -3.169678675476462E-4  
 2.536000000000000E10   -2.128195774275810E-4   3.486923815216869E-4  
 2.538000000000000E10    7.987114368006587E-4   1.235481468029320E-4  
 2.540000000000000E10    2.812181483022869E-4  -3.313964989501983E-4  
 2.542000000000000E10   -9.835549863055348E-4  -1.079274516087025E-4  
 2.544000000000000E10   -8.210137020796537E-4   5.350083229131997E-4  
 2.546000000000000E10   -1.449206174584106E-4   5.664345226250589E-4  
 2.548000000000000E10   -4.247512551955879E-4  -3.044127370230854E-4  
 2.550000000000000E10   -4.941920051351190E-4  -7.306006737053394E-4  
 2.552000000000000E10   -7.190365577116609E-4  -5.401876114774495E-5  
 2.554000000000000E10   -6.344616995193064E-4  -2.511024067644030E-4  
 2.556000000000000E10    2.205432538175955E-4  -4.666467066272162E-5  
 2.558000000000000E10    7.352213287958875E-5   2.221462345914915E-4  
 2.560000000000000E10   -2.356232726015151E-4  -6.737867806805298E-5  
 2.562000000000000E10   -1.677835680311546E-4   1.129117736127228E-4  
 2.564000000000000E10   -9.257583878934383E-4   4.653936775866896E-4  
 2.566000000000000E10   -1.115607738029212E-4   5.611428059637547E-4  
 2.568000000000000E10   -1.669509219937027E-5   5.866176215931773E-4  
 2.570000000000000E10   -8.962500141933560E-4  -5.719551118090749E-4  
 2.572000000000000E10   -1.421615888830274E-4  -6.064720801077783E-4  
 2.574000000000000E10   -5.069070612080395E-4   1.240023848367855E-4  
 2.576000000000000E10   -8.863647963153198E-5   2.631609386298806E-4  
 2.578000000000000E10    6.631731521338224E-4   2.648199733812362E-4  
 2.580000000000000E10    3.030963707715273E-4  -1.480164701206377E-5  
 2.582000000000000E10   -6.902190507389605E-4  -2.934995281975716E-4  
 2.584000000000000E10   -4.424561338964850E-4   2.679956960491836E-4  
 2.586000000000000E10   -2.798149071168155E-4   1.206643646582961E-3  
 2.588000000000000E10    2.176569250877947E-4  -1.145712449215353E-4  
 2.590000000000000E10    6.779076647944748E-4  -2.831014571711421E-4  
 2.592000000000000E10   -9.988080710172653E-4  -5.668330704793334E-4  
 2.594000000000000E10   -3.395184758119285E-4  -3.551236877683550E-4  
 2.596000000000000E10    3.566311788745225E-4   9.660992072895169E-4  
 2.598000000000000E10    8.722761995159090E-4  -1.749679795466363E-4  
 2.600000000000000E10    5.734125152230263E-4  -1.052817911840975E-3  
 2.602000000000000E10   -4.600643005687743E-4  -6.765354191884399E-4  
 2.604000000000000E10   -5.880620446987450E-4   3.189911658409983E-4  
 2.606000000000000E10    6.757167284376919E-4   5.220153616392054E-5  
 2.608000000000000E10    9.186977986246347E-4   1.758166617946699E-4  
 2.610000000000000E10   -3.537449811119586E-4  -8.588276687078178E-4  
 2.612000000000000E10   -6.860200082883239E-4  -3.547405358403921E-4  
 2.614000000000000E10   -9.941934840753675E-4   3.692064783535898E-4  
 2.616000000000000E10    1.938868808792904E-4  -3.462270833551884E-4  
 2.618000000000000E10    5.648389924317598E-5  -5.575258983299136E-4  
 2.620000000000000E10   -8.102523279376328E-4  -6.611995631828904E-4  
 2.622000000000000E10   -3.335622895974666E-4  -6.667497800663114E-4  
 2.624000000000000E10   -1.749340881360695E-4   5.961519782431424E-4  
 2.626000000000000E10   -4.058342601638287E-4   7.534285541623831E-4  
 2.628000000000000E10    7.843843195587397E-4  -2.649062080308795E-4  
 2.630000000000000E10   -3.653916355688125E-4  -2.171343294321559E-5  
 2.632000000000000E10   -1.378045650199056E-3  -5.895235517527908E-5  
 2.634000000000000E10   -3.926889912690967E-4   6.046924972906709E-4  
 2.636000000000000E10    4.223742871545255E-5   9.858020348474383E-4  
 2.638000000000000E10    2.609463408589363E-4  -2.806251577567309E-4  
 2.640000000000000E10   -1.913976739160717E-4  -7.043501827865839E-4  
 2.642000000000000E10   -9.229375864379108E-4   6.390463095158339E-4  
 2.644000000000000E10    1.822628473746590E-5   7.666807505302131E-4  
 2.646000000000000E10    1.165618770755827E-3   3.980498004239053E-4  
 2.648000000000000E10    5.576310650212690E-5  -2.402158861514181E-5  
 2.650000000000000E10   -4.940463113598526E-4  -1.989647716982290E-4  
 2.652000000000000E10   -3.735346544999629E-4   6.750928587280214E-4  
 2.654000000000000E10   -2.456459333188832E-4   6.516724242828786E-4  
 2.656000000000000E10    5.769900162704289E-4   9.932132343237754E-6  
 2.658000000000000E10    5.067736492492259E-4  -2.131482615368441E-4  
 2.660000000000000E10   -5.683866329491139E-4  -2.684979699552059E-4  
 2.662000000000000E10   -2.477926900610328E-4   2.106415340676904E-4  
 2.664000000000000E10    2.127197512891144E-4   7.425241637974978E-4  
 2.666000000000000E10    4.005421651527286E-4   5.138970664120279E-5  
 2.668000000000000E10   -2.362530540267471E-5  -2.982768928632140E-4  
 2.670000000000000E10   -8.954496006481350E-4   2.990741922985762E-4  
 2.672000000000000E10   -4.219183465465903E-4   5.205037887208164E-4  
 2.674000000000000E10    2.739145420491695E-4   3.437243576627225E-4  
 2.676000000000000E10   -3.380714624654502E-4  -2.998888376168907E-4  
 2.678000000000000E10   -4.881078348262236E-5  -6.321538821794093E-4  
 2.680000000000000E10    6.433401140384376E-4   1.854944566730410E-4  
 2.682000000000000E10    1.884824305307120E-4  -4.262003058101982E-4  
 2.684000000000000E10    2.993516682181507E-4  -3.399641427677125E-4  
 2.686000000000000E10    4.156997019890696E-4   4.270037752576172E-4  
 2.688000000000000E10    3.579137264750898E-4  -9.307013533543795E-5  
 2.690000000000000E10    1.460942876292393E-4  -4.677712859120220E-4  
 2.692000000000000E10   -4.066589463036507E-4   2.099310659104958E-4  
 2.694000000000000E10   -1.557309151394293E-4  -3.959723471780308E-5  
 2.696000000000000E10    4.311530792620033E-4  -2.620170998852700E-4  
 2.698000000000000E10   -2.637499128468335E-4  -6.877454579807818E-4  
 2.700000000000000E10   -3.199133498128504E-4  -7.653033244423568E-4  
 2.702000000000000E10    2.650534734129906E-4   2.309738920303062E-4  
 2.704000000000000E10    2.812012971844524E-4  -1.798278244677931E-4  
 2.706000000000000E10    3.459622093942016E-4  -8.563919691368938E-4  
 2.708000000000000E10   -1.587689912412316E-4   2.523120783735067E-4  
 2.710000000000000E10   -3.973925486207008E-4   2.844154951162636E-4  
 2.712000000000000E10    1.831210392992944E-4   6.869166099932045E-5  
 2.714000000000000E10   -7.602994446642697E-5   3.900460433214903E-4  
 2.716000000000000E10   -2.362180821364746E-4  -1.681344001553953E-4  
 2.718000000000000E10   -1.768020010786131E-4  -6.955557037144899E-4  
 2.720000000000000E10   -6.296954816207290E-4   9.406460594618693E-5  
 2.722000000000000E10   -1.235795207321644E-4   1.085048352251761E-4  
 2.724000000000000E10    6.089049857109785E-4   3.454371762927622E-4  
 2.726000000000000E10   -3.942914772778750E-4   1.172329939436168E-4  
 2.728000000000000E10   -3.779558755923063E-4  -1.507961569586769E-4  
 2.730000000000000E10    1.135187339968979E-4   6.202513468451798E-4  
 2.732000000000000E10   -2.702052370295860E-5   5.588987260125577E-4  
 2.734000000000000E10   -2.444911515340209E-4  -3.108076343778521E-4  
 2.736000000000000E10   -1.298579445574433E-4   1.434544683434069E-4  
 2.738000000000000E10   -2.704150974750519E-4   3.537607553880662E-4  
 2.740000000000000E10    4.074681201018393E-4  -1.999350206460804E-4  
 2.742000000000000E10    7.870658737374470E-5   4.057627811562270E-4  
 2.744000000000000E10   -2.618297876324505E-4   6.385782762663439E-5  
 2.746000000000000E10    3.427524352446199E-4   2.205545606557280E-4  
 2.748000000000000E10   -1.038517875713296E-4   6.626291433349252E-4  
 2.750000000000000E10   -1.818265445763245E-4   4.320194420870394E-4  
 2.752000000000000E10    2.870653115678579E-4   3.229396825190634E-4  
 2.754000000000000E10    9.955021232599393E-5  -1.257607345905853E-5  
 2.756000000000000E10   -5.251235561445355E-4  -3.035005938727409E-4  
