#  HZ   S   RI   R     50.00 
! Rohde & Schwarz ZVA40 4Ports - Version 3.90 - 1145.1110k42 SN: 100403
! Date: 2023-10-04 09:35:42
! Measurement: S12 
! 
 2.200000000000000E10   -1.271444023586810E-3   4.911884316243231E-4  
 2.202000000000000E10    4.397493030410260E-4   2.009750111028552E-3  
 2.204000000000000E10    2.047692658379674E-3   1.681033463682979E-4  
 2.206000000000000E10    5.668089725077152E-4  -5.966239259578288E-4  
 2.208000000000000E10   -1.728710718452931E-3  -3.522857514326461E-5  
 2.210000000000000E10    1.536372001282871E-4   8.940459811128676E-4  
 2.212000000000000E10   -3.313508932478726E-4   3.871774533763528E-4  
 2.214000000000000E10    7.430329333146801E-6  -3.545232757460326E-4  
 2.216000000000000E10    6.309741002041847E-5  -1.198103855131194E-4  
 2.218000000000000E10    2.836283529177308E-4  -7.784453337080777E-4  
 2.220000000000000E10   -9.326368453912437E-4  -1.198050740640611E-4  
 2.222000000000000E10    8.634634286863729E-5   7.886331295594573E-4  
 2.224000000000000E10    8.918739040382206E-4   1.436253543943167E-3  
 2.226000000000000E10    1.478399499319494E-3  -1.213665236718953E-3  
 2.228000000000000E10   -6.428093765862286E-4  -4.840074689127505E-4  
 2.230000000000000E10   -1.559656695462763E-3   1.149713760241866E-3  
 2.232000000000000E10    1.021557371132076E-3   1.390679157339037E-3  
 2.234000000000000E10    1.175399054773152E-3  -4.949904978275299E-4  
 2.236000000000000E10   -8.886498981155455E-4  -8.228744845837355E-4  
 2.238000000000000E10   -7.014327566139400E-4  -1.012552165775560E-4  
 2.240000000000000E10    4.942954983562231E-4   2.756809990387410E-4  
 2.242000000000000E10   -4.694600938819349E-4  -8.080910192802548E-4  
 2.244000000000000E10    3.381145943421871E-4   8.558437548344955E-5  
 2.246000000000000E10    5.828876164741814E-4   4.701642901636660E-4  
 2.248000000000000E10    2.479000831954181E-4  -1.355344778858125E-3  
 2.250000000000000E10   -1.205234089866281E-3   1.762864412739873E-4  
 2.252000000000000E10   -4.607786249835044E-4   1.041988725773990E-3  
 2.254000000000000E10    9.539896855130792E-4  -1.570002059452236E-4  
 2.256000000000000E10    1.328329090029001E-4  -9.955171262845397E-4  
 2.258000000000000E10   -1.691223820671439E-3  -4.844380600843579E-4  
 2.260000000000000E10   -7.907784311100841E-4   2.003590634558350E-4  
 2.262000000000000E10    5.724341026507318E-4   3.584848600439727E-4  
 2.264000000000000E10    1.214187941513956E-4  -1.301207346841693E-3  
 2.266000000000000E10   -8.616180275566876E-4  -5.139886052347720E-4  
 2.268000000000000E10   -8.129780326271430E-5   3.236293268855661E-4  
 2.270000000000000E10    5.500775296241045E-4  -2.406993298791349E-4  
 2.272000000000000E10   -9.873890085145831E-4  -3.835822863038629E-4  
 2.274000000000000E10   -4.545769188553095E-4   2.912773052230477E-4  
 2.276000000000000E10    2.873702323995531E-4  -3.965809592045844E-4  
 2.278000000000000E10   -6.096510333009064E-4  -1.396344974637032E-3  
 2.280000000000000E10   -1.220356673002243E-3  -5.402682581916452E-4  
 2.282000000000000E10    1.846021041274071E-5   2.019189269049093E-4  
 2.284000000000000E10    7.130579906515777E-4  -5.199744482524693E-4  
 2.286000000000000E10    1.134245394496247E-4  -1.024628640152514E-3  
 2.288000000000000E10   -7.664590375497937E-4   1.400968758389354E-4  
 2.290000000000000E10    1.365208299830556E-4   7.638104725629091E-4  
 2.292000000000000E10    6.319744279608131E-4  -4.058618651470169E-5  
 2.294000000000000E10   -5.701446789316833E-4  -4.104471590835601E-4  
 2.296000000000000E10   -1.065588556230068E-3   1.865784579422325E-4  
 2.298000000000000E10    1.568610168760642E-4  -3.289189044153318E-5  
 2.300000000000000E10    5.203786349738948E-5  -1.100332010537386E-3  
 2.302000000000000E10   -8.832815219648182E-4  -4.719788557849824E-4  
 2.304000000000000E10    6.638105260208249E-4   3.540516190696508E-4  
 2.306000000000000E10    1.232764916494489E-3  -6.784395081922412E-4  
 2.308000000000000E10   -2.587675407994539E-4  -1.086214673705399E-3  
 2.310000000000000E10   -3.040863084606826E-4   8.465911960229278E-4  
 2.312000000000000E10    4.406032385304570E-4   1.144300564192236E-3  
 2.314000000000000E10    8.561526192352176E-4  -5.643189651891589E-4  
 2.316000000000000E10   -7.334627443924546E-4  -5.436378996819258E-4  
 2.318000000000000E10   -7.943637319840491E-4   2.739822230068967E-5  
 2.320000000000000E10   -8.807156518741977E-6  -2.877342631109059E-4  
 2.322000000000000E10    5.388589852373116E-5  -9.183632209897041E-4  
 2.324000000000000E10   -4.671830101870000E-4  -4.160923999734223E-4  
 2.326000000000000E10    1.371687161736190E-3   1.480437058489770E-4  
 2.328000000000000E10    1.310147577896714E-3  -6.532942643389106E-4  
 2.330000000000000E10   -2.843641850631684E-4  -1.019916380755603E-3  
 2.332000000000000E10   -5.245821084827185E-4   7.259045960381627E-4  
 2.334000000000000E10    5.938208196312189E-4   1.439763931557536E-3  
 2.336000000000000E10    6.507633370347321E-4  -1.673274091444910E-4  
 2.338000000000000E10   -1.053740415954962E-4  -6.696261116303504E-4  
 2.340000000000000E10   -9.613589500077069E-4   5.222353502176702E-4  
 2.342000000000000E10    3.161298809573054E-4  -9.155042789643630E-5  
 2.344000000000000E10    5.323234945535660E-4  -4.189570609014481E-4  
 2.346000000000000E10   -5.241287872195244E-4  -4.870072880294174E-4  
 2.348000000000000E10    9.370464249514043E-4  -2.072848001262173E-4  
 2.350000000000000E10    8.740458870306611E-4  -8.582810987718403E-4  
 2.352000000000000E10   -1.635650260141119E-4  -2.177319984184578E-4  
 2.354000000000000E10    2.185141056543216E-4   6.628971896134317E-4  
 2.356000000000000E10    1.500230515375733E-3   7.318907300941646E-4  
 2.358000000000000E10   -1.607350859558210E-4  -1.026475569233298E-3  
 2.360000000000000E10   -7.857790915295482E-4  -3.305724530946463E-4  
 2.362000000000000E10   -7.233198848553002E-4   8.078782120719552E-4  
 2.364000000000000E10    9.450509678572416E-4  -8.838821086101234E-4  
 2.366000000000000E10    4.208111786283553E-4  -1.308795763179660E-3  
 2.368000000000000E10   -7.727472111582756E-4  -1.028587692417204E-3  
 2.370000000000000E10    3.770940529648215E-4   3.064315533265472E-4  
 2.372000000000000E10    9.433226077817380E-4   1.352933031739667E-4  
 2.374000000000000E10    6.871430668979883E-4  -7.412022678181529E-4  
 2.376000000000000E10    1.050509017659351E-4  -5.205277120694518E-4  
 2.378000000000000E10   -3.911629391950555E-5   1.529782603029162E-4  
 2.380000000000000E10   -1.181356608867645E-3  -2.427387080388144E-4  
 2.382000000000000E10    2.867706461984199E-5   4.977019852958620E-4  
 2.384000000000000E10    5.636820569634438E-4   5.908819730393589E-4  
 2.386000000000000E10    4.915714962407947E-4  -1.750702387653291E-3  
 2.388000000000000E10   -2.884417481254786E-4  -1.445975620299578E-3  
 2.390000000000000E10   -5.302323843352497E-4   3.715215134434402E-4  
 2.392000000000000E10    8.213952532969415E-4   2.930307528004050E-4  
 2.394000000000000E10    1.921474817208946E-3  -3.159892512485385E-4  
 2.396000000000000E10    2.008895244216546E-4  -5.858466611243784E-4  
 2.398000000000000E10   -4.008097748737782E-4  -4.033373261336237E-4  
 2.400000000000000E10    2.104473787767347E-5   9.391547646373510E-4  
 2.402000000000000E10    1.425057271262631E-4   6.366446614265442E-4  
 2.404000000000000E10    7.249400368891656E-4  -3.205531393177807E-4  
 2.406000000000000E10    6.440578144975007E-4  -9.990083053708077E-4  
 2.408000000000000E10   -6.017524283379316E-4  -1.327447593212128E-3  
 2.410000000000000E10   -7.358685252256692E-4  -2.720236952882260E-4  
 2.412000000000000E10    4.435995069798082E-4   1.356980879791081E-3  
 2.414000000000000E10    1.307316706515849E-3   2.290729753440246E-5  
 2.416000000000000E10    1.027582678943873E-3  -1.104514580219984E-3  
 2.418000000000000E10   -9.252332383766770E-4   4.715383984148502E-4  
 2.420000000000000E10   -4.866637464147061E-4   4.195662040729076E-4  
 2.422000000000000E10    2.698501339182258E-4   8.515671943314374E-4  
 2.424000000000000E10   -2.800715737976134E-4   3.465198387857527E-4  
 2.426000000000000E10    1.316468406002969E-4  -4.375411081127822E-4  
 2.428000000000000E10   -2.061931882053614E-4  -5.119136403664015E-5  
 2.430000000000000E10   -7.010400295257568E-4  -5.862459147465415E-5  
 2.432000000000000E10    1.978195796255022E-4  -2.555627143010497E-4  
 2.434000000000000E10    6.663696258328855E-4   6.887287599965930E-4  
 2.436000000000000E10    3.622888762038201E-4  -1.807414664654061E-4  
 2.438000000000000E10    5.902332486584783E-4  -7.470757118426263E-4  
 2.440000000000000E10   -4.576773790176958E-4   1.183069427497685E-3  
 2.442000000000000E10    1.240130368387327E-4   9.241618681699038E-4  
 2.444000000000000E10    1.179006765596569E-3   2.357846533413976E-4  
 2.446000000000000E10   -5.255484720692039E-4  -2.695971925277263E-4  
 2.448000000000000E10   -6.977656739763916E-4  -1.379901514155790E-4  
 2.450000000000000E10    2.198152360506356E-4   7.216896046884358E-4  
 2.452000000000000E10    3.201064828317612E-4  -7.743599417153746E-5  
 2.454000000000000E10    2.221370086772367E-4  -9.236431797035039E-4  
 2.456000000000000E10    4.416787123773247E-4  -1.907877158373594E-4  
 2.458000000000000E10   -2.143377932952717E-4   3.197879705112428E-4  
 2.460000000000000E10    3.941680479329079E-4  -2.351897855987772E-4  
 2.462000000000000E10    9.483222966082394E-4   1.136926934123039E-3  
 2.464000000000000E10    3.142612404190004E-4  -1.235644140251679E-5  
 2.466000000000000E10   -2.789777317957487E-5  -7.754135876893997E-4  
 2.468000000000000E10   -1.341177732683718E-3   3.203646047040820E-4  
 2.470000000000000E10   -1.031775609590113E-3   3.427140763960779E-4  
 2.472000000000000E10    5.561949801631272E-4  -3.958402885473333E-7  
 2.474000000000000E10    2.443958364892751E-4  -1.336691319011152E-3  
 2.476000000000000E10   -4.387758381199092E-4  -1.470689196139574E-3  
 2.478000000000000E10   -4.830308607779443E-4  -1.810111571103334E-4  
 2.480000000000000E10    7.084517710609362E-5   4.445353697519749E-4  
 2.482000000000000E10    3.023685130756348E-4   5.587924988503801E-6  
 2.484000000000000E10    3.066603967454284E-4   4.425295628607273E-4  
 2.486000000000000E10   -5.343321827240288E-4  -2.077588396787178E-5  
 2.488000000000000E10   -7.164243725128472E-4  -5.957662360742688E-4  
 2.490000000000000E10   -1.346101635135710E-3   7.427722448483110E-4  
 2.492000000000000E10   -6.977448938414455E-4   6.341519183479250E-4  
 2.494000000000000E10    1.076708198525012E-3  -3.279292432125658E-4  
 2.496000000000000E10   -1.661043061176315E-4  -1.162273460067809E-3  
 2.498000000000000E10   -7.064566016197205E-4  -6.169996922835708E-4  
 2.500000000000000E10    7.534395990660414E-5   1.067504636012018E-3  
 2.502000000000000E10    5.170038202777505E-4   1.101777539588511E-3  
 2.504000000000000E10    2.963188453577459E-4  -2.877455262932926E-4  
 2.506000000000000E10   -1.389793760608882E-4   3.076260327361524E-4  
 2.508000000000000E10   -9.584931540302932E-4   5.403546383604407E-4  
 2.510000000000000E10   -2.243646740680561E-4  -3.008986823260784E-5  
 2.512000000000000E10    8.151870861183852E-5   3.133851278107613E-4  
 2.514000000000000E10   -8.041322871576995E-5  -1.019807750708424E-4  
 2.516000000000000E10    8.008892764337361E-4  -7.256524986587465E-4  
 2.518000000000000E10    1.542185054859147E-4  -9.000490535981953E-5  
 2.520000000000000E10   -2.605881891213357E-4   1.610160834388807E-4  
 2.522000000000000E10    1.169178052805364E-3   5.011319881305099E-4  
 2.524000000000000E10    9.706582059152424E-4   4.038905317429453E-4  
 2.526000000000000E10   -5.360267823562026E-4  -7.567934226244688E-4  
 2.528000000000000E10   -8.281262853415683E-5   1.417356834281236E-4  
 2.530000000000000E10   -6.143845530459657E-5   8.718758472241461E-4  
 2.532000000000000E10    7.588355219922960E-4  -7.037963368929923E-4  
 2.534000000000000E10    5.050692707300186E-4  -5.876276409253478E-4  
 2.536000000000000E10   -4.603372653946281E-4  -2.461175026837736E-4  
 2.538000000000000E10    3.410821955185384E-4  -2.084757288685069E-4  
 2.540000000000000E10    4.148203879594803E-4   5.848846922162920E-5  
 2.542000000000000E10   -3.880074364133179E-4   1.388838281854987E-4  
 2.544000000000000E10    4.571431782096624E-4  -4.167876322753727E-4  
 2.546000000000000E10    3.904813493136317E-4  -1.949459401657805E-4  
 2.548000000000000E10   -8.287563687190414E-4  -6.893933750689030E-4  
 2.550000000000000E10    7.817528057785239E-6  -8.955276280175895E-5  
 2.552000000000000E10    6.657785852439702E-4   2.472376509103924E-4  
 2.554000000000000E10    5.656097200699151E-4  -1.161284046247602E-3  
 2.556000000000000E10   -6.400367510650540E-6  -4.545675183180720E-4  
 2.558000000000000E10   -5.190654774196446E-4   2.746154787018895E-4  
 2.560000000000000E10    4.013392317574471E-4   1.962676033144817E-4  
 2.562000000000000E10    4.171880136709660E-4   4.775762135977857E-5  
 2.564000000000000E10    2.792832310660742E-5  -2.890707110054791E-4  
 2.566000000000000E10   -4.465131787583232E-4  -3.476488345768303E-4  
 2.568000000000000E10   -3.038315044250339E-4  -3.670348669402301E-4  
 2.570000000000000E10   -6.833610823377967E-4  -2.915759978350252E-5  
 2.572000000000000E10    3.299314412288368E-4  -3.506564826238900E-4  
 2.574000000000000E10    4.869832191616297E-4  -1.503241946920753E-4  
 2.576000000000000E10   -2.615537086967379E-4  -1.133340527303517E-3  
 2.578000000000000E10    9.177281026495621E-5  -3.088130906689912E-4  
 2.580000000000000E10    2.750033127085771E-5   6.748769083060324E-4  
 2.582000000000000E10    4.539634101092815E-4   7.558184734079987E-5  
 2.584000000000000E10    7.174466154538095E-4  -8.865066047292203E-5  
 2.586000000000000E10   -5.565548199228942E-4  -1.938568166224286E-4  
 2.588000000000000E10   -8.543686126358807E-4  -1.670211495365948E-4  
 2.590000000000000E10    3.396447864361107E-4   8.026283467188478E-4  
 2.592000000000000E10   -2.934634976554662E-4   5.290062399581075E-4  
 2.594000000000000E10    3.028836217708886E-4  -1.129951793700457E-3  
 2.596000000000000E10    1.486567489337176E-4   1.712902158033103E-4  
 2.598000000000000E10   -1.034098793752492E-3  -2.465278375893831E-4  
 2.600000000000000E10    7.862850325182080E-4  -2.863827103283256E-4  
 2.602000000000000E10    1.044020638801158E-3   4.703877784777433E-4  
 2.604000000000000E10    2.319701161468402E-4  -5.962461000308394E-4  
 2.606000000000000E10    2.821151283569634E-4  -8.672396070323885E-4  
 2.608000000000000E10   -5.626812926493585E-4   1.020614872686565E-3  
 2.610000000000000E10   -5.709299002774060E-4   5.562439328059554E-4  
 2.612000000000000E10    1.242998405359685E-3   5.952843348495662E-4  
 2.614000000000000E10   -6.075717974454165E-4  -5.690474645234644E-4  
 2.616000000000000E10   -1.058514229953289E-3  -1.223105355165899E-3  
 2.618000000000000E10    8.048563904594630E-5   4.545043047983199E-4  
 2.620000000000000E10    7.890569395385683E-4   3.061639727093279E-4  
 2.622000000000000E10    8.743493817746639E-4  -9.591912967152894E-4  
 2.624000000000000E10    6.715493509545922E-4  -6.552460254170001E-4  
 2.626000000000000E10   -6.900052540004253E-4  -7.266927423188463E-5  
 2.628000000000000E10   -7.000695040915161E-5   8.313450962305069E-5  
 2.630000000000000E10    3.976582374889404E-4   8.023224072530866E-4  
 2.632000000000000E10    5.607821731246077E-5  -2.503109863027930E-4  
 2.634000000000000E10   -1.234906958416104E-4  -5.132177611812949E-4  
 2.636000000000000E10   -6.019147695042193E-4   3.097921144217253E-4  
 2.638000000000000E10   -6.337390514090657E-4  -1.306003105128184E-5  
 2.640000000000000E10    2.638857695274055E-4  -3.853850648738444E-5  
 2.642000000000000E10    5.320379859767854E-4  -1.299004652537406E-4  
 2.644000000000000E10    4.383173363748938E-4  -7.576090283691883E-4  
 2.646000000000000E10    2.491813502274454E-4  -4.770981031470001E-4  
 2.648000000000000E10   -2.600090519990772E-4   4.098199715372175E-4  
 2.650000000000000E10    3.025365876965225E-4   1.127226369135315E-5  
 2.652000000000000E10    5.069870385341346E-4  -1.800663449103013E-4  
 2.654000000000000E10   -9.236274636350572E-4  -5.810174043290317E-4  
 2.656000000000000E10   -7.929175044409931E-4  -4.176001530140638E-4  
 2.658000000000000E10    2.105770399793983E-4   6.881016888655722E-4  
 2.660000000000000E10    6.278914515860379E-4  -2.294191508553922E-4  
 2.662000000000000E10    3.986415395047516E-4  -7.492197910323739E-4  
 2.664000000000000E10   -3.913805703632534E-4   1.072097365977243E-4  
 2.666000000000000E10   -1.155459394794889E-4   1.506102853454649E-5  
 2.668000000000000E10    6.755034701200202E-5  -8.201503078453243E-5  
 2.670000000000000E10   -8.475430513499305E-5   1.717609120532870E-5  
 2.672000000000000E10    1.402099296683446E-4  -6.033186218701303E-4  
 2.674000000000000E10   -1.691820652922615E-4  -5.623493925668299E-4  
 2.676000000000000E10   -5.004185368306935E-4   9.117575973505154E-5  
 2.678000000000000E10    3.228660789318383E-4  -1.451582938898355E-4  
 2.680000000000000E10    9.422529838047922E-4  -2.378667704761028E-4  
 2.682000000000000E10    8.251170220319182E-5  -5.894504720345140E-4  
 2.684000000000000E10    1.388789678458124E-4  -2.360962680540979E-4  
 2.686000000000000E10    2.777949557639659E-4   5.460168467834592E-4  
 2.688000000000000E10    3.039306611754000E-4   3.196061879862100E-4  
 2.690000000000000E10    4.730907094199210E-4  -4.533249739324674E-5  
 2.692000000000000E10   -8.173167589120567E-5  -1.977881038328633E-5  
 2.694000000000000E10   -1.462919317418709E-4  -1.610609760973603E-4  
 2.696000000000000E10    3.129392571281642E-4  -2.874815545510501E-4  
 2.698000000000000E10   -2.681527439563070E-5  -2.286274248035625E-4  
 2.700000000000000E10    1.774309057509527E-4  -4.138892400078476E-4  
 2.702000000000000E10    8.248033700510860E-4   3.692836253321730E-5  
 2.704000000000000E10    1.990745658986270E-4  -1.687349431449547E-4  
 2.706000000000000E10    2.781554030661937E-5   1.355218846583739E-4  
 2.708000000000000E10    1.471367868361995E-4   9.073100518435240E-4  
 2.710000000000000E10   -6.862435111543164E-5   5.628241342492402E-4  
 2.712000000000000E10    2.307853719685227E-4  -4.524138421402313E-5  
 2.714000000000000E10   -3.011475491803139E-4   1.847293460741639E-4  
 2.716000000000000E10   -8.754839655011892E-5   1.239961420651525E-4  
 2.718000000000000E10    3.885382029693574E-4  -9.647406841395423E-5  
 2.720000000000000E10   -8.968056590674678E-7  -4.086957778781653E-4  
 2.722000000000000E10   -3.048013604711741E-4  -5.158414714969695E-4  
 2.724000000000000E10    4.168430459685624E-4   5.184992915019393E-4  
 2.726000000000000E10    1.179646133095957E-4   2.742745564319193E-4  
 2.728000000000000E10    8.025804709177464E-5  -1.430122847523307E-5  
 2.730000000000000E10    2.301073254784569E-4   3.885238547809422E-4  
 2.732000000000000E10   -1.162384069175459E-4   1.705765898805112E-4  
 2.734000000000000E10   -3.022831806447357E-4   1.284425234189257E-4  
 2.736000000000000E10   -1.306867306993809E-5   4.893929581157863E-4  
 2.738000000000000E10    6.091364775784314E-5  -2.086245876853354E-5  
 2.740000000000000E10    1.020618874463253E-4  -9.334220667369664E-4  
 2.742000000000000E10   -4.164246784057468E-4   1.955178449861705E-4  
 2.744000000000000E10   -3.277833093306981E-5   3.976451116614044E-4  
 2.746000000000000E10    9.061688906513155E-4   4.336487618274987E-4  
 2.748000000000000E10    2.145498001482338E-4  -9.295607014792040E-5  
 2.750000000000000E10   -2.522401337046176E-4  -3.448211646173149E-4  
 2.752000000000000E10   -3.600582422222942E-4   3.028750361409038E-4  
 2.754000000000000E10   -2.667578228283674E-4   1.837629242800176E-4  
 2.756000000000000E10   -1.875208108685911E-4  -3.078205627389252E-4  
