#  HZ   S   RI   R     50.00 
! Rohde & Schwarz ZVA40 4Ports - Version 3.90 - 1145.1110k42 SN: 100403
! Date: 2023-10-04 09:35:31
! Measurement: S12 
! 
 2.200000000000000E10   -6.121675687609240E-5   3.675824264064431E-4  
 2.202000000000000E10   -5.305217928253114E-4  -6.941188621567562E-5  
 2.204000000000000E10   -1.076149870641530E-3  -4.833906423300505E-4  
 2.206000000000000E10   -1.156735466793180E-3   1.105950679630041E-3  
 2.208000000000000E10   -8.035963401198387E-4   6.677447236143053E-4  
 2.210000000000000E10    7.356684072874486E-4  -7.243735017254949E-4  
 2.212000000000000E10   -1.362837851047516E-3  -4.383822379168123E-4  
 2.214000000000000E10   -1.226595952175558E-3  -2.437113435007632E-4  
 2.216000000000000E10    2.921254490502179E-4   1.300779753364623E-3  
 2.218000000000000E10    1.048422884196043E-3   8.255617103714030E-6  
 2.220000000000000E10    1.314886321779341E-4  -2.677795127965510E-4  
 2.222000000000000E10   -1.284898025915027E-3   6.465462502092123E-4  
 2.224000000000000E10   -5.914043867960572E-4   1.471988507546485E-3  
 2.226000000000000E10   -3.957222797907889E-4  -4.786138015333563E-5  
 2.228000000000000E10   -8.340576314367354E-4  -7.708622433710843E-5  
 2.230000000000000E10   -9.746608557179570E-4   5.026045982958749E-5  
 2.232000000000000E10    2.975123061332852E-4  -2.352893643546850E-4  
 2.234000000000000E10   -9.062637109309435E-4  -5.290269036777318E-4  
 2.236000000000000E10   -5.680280155502260E-4   7.531275041401386E-4  
 2.238000000000000E10    5.729793338105083E-4   1.254514791071415E-3  
 2.240000000000000E10    7.999187801033258E-4  -5.845087580382824E-4  
 2.242000000000000E10   -1.003963174298406E-3  -3.585874947020784E-5  
 2.244000000000000E10   -1.020825584419072E-3   8.790639694780111E-4  
 2.246000000000000E10    1.998443185584620E-4   1.236913143657148E-3  
 2.248000000000000E10    2.811215235851705E-4  -4.347408248577267E-4  
 2.250000000000000E10   -8.314069709740579E-4  -4.251080390531570E-4  
 2.252000000000000E10   -1.266112434677780E-3   3.378298133611679E-4  
 2.254000000000000E10    2.431259053992108E-4   5.848183063790202E-4  
 2.256000000000000E10   -4.308809366193600E-5  -7.300128927454352E-4  
 2.258000000000000E10   -8.340562344528735E-4   2.107514155795798E-4  
 2.260000000000000E10   -2.764974196907133E-4   6.562329363077879E-4  
 2.262000000000000E10    1.139795422204770E-4  -6.182584911584854E-4  
 2.264000000000000E10   -7.555869524367154E-4  -7.865279912948608E-4  
 2.266000000000000E10   -2.606918860692531E-4   1.534500392153859E-3  
 2.268000000000000E10    1.731785887386650E-4   2.972494985442609E-4  
 2.270000000000000E10    9.141949121840298E-4  -6.797431851737201E-4  
 2.272000000000000E10   -9.752543410286307E-4  -7.853526039980352E-5  
 2.274000000000000E10   -4.890565760433674E-4   3.139966866001487E-4  
 2.276000000000000E10    9.462315938435495E-4   9.778732201084495E-4  
 2.278000000000000E10    5.619538133032620E-4  -6.840829883003607E-5  
 2.280000000000000E10   -9.439483983442187E-5  -3.537591328495182E-5  
 2.282000000000000E10   -1.103548347600736E-4   8.956545498222113E-4  
 2.284000000000000E10    5.514243093784899E-5   2.030900213867426E-5  
 2.286000000000000E10   -4.849307515542023E-5  -1.005469704978168E-3  
 2.288000000000000E10    2.751099964370951E-5   9.070594096556306E-4  
 2.290000000000000E10    9.440216235816479E-4  -2.712331115617417E-5  
 2.292000000000000E10    1.291541149839759E-3  -1.312133972533047E-3  
 2.294000000000000E10   -8.033248595893383E-4  -5.721409106627107E-4  
 2.296000000000000E10    5.095417145639658E-5   6.176436436362565E-4  
 2.298000000000000E10    1.231360016390681E-3   7.246460882015526E-4  
 2.300000000000000E10    3.749697643797845E-4  -6.795883564336691E-6  
 2.302000000000000E10   -5.277294549159706E-4  -1.095688785426319E-4  
 2.304000000000000E10    9.277383651351556E-5   4.911742871627212E-4  
 2.306000000000000E10   -5.699172616004944E-4   2.925908484030515E-4  
 2.308000000000000E10   -6.646877154707909E-4  -4.827249795198441E-4  
 2.310000000000000E10   -2.750626881606877E-4   5.234915297478437E-4  
 2.312000000000000E10    3.534065035637468E-4  -1.024883022182621E-4  
 2.314000000000000E10    3.956606378778815E-4  -1.397704472765327E-3  
 2.316000000000000E10   -5.686507211066783E-4  -4.751056840177625E-4  
 2.318000000000000E10   -3.486974164843559E-4   1.258172676898539E-3  
 2.320000000000000E10    1.413158490322530E-3   1.551590103190392E-4  
 2.322000000000000E10    6.090365932323039E-4  -2.027101581916213E-4  
 2.324000000000000E10   -1.412166049703956E-3   1.178226375486702E-4  
 2.326000000000000E10    2.744183002505451E-4   1.192883588373661E-3  
 2.328000000000000E10    2.175959234591574E-4   7.873636204749346E-4  
 2.330000000000000E10   -4.633354255929589E-4  -3.742569533642381E-4  
 2.332000000000000E10   -4.473591106943786E-4   4.400858015287668E-4  
 2.334000000000000E10   -1.058374436979648E-5   5.618846626020968E-4  
 2.336000000000000E10   -1.939050707733259E-4  -6.705576670356095E-4  
 2.338000000000000E10    3.089455713052303E-4  -7.520819963247050E-6  
 2.340000000000000E10   -2.948485234810505E-5   1.185257220640779E-3  
 2.342000000000000E10    4.116540658287704E-4  -2.889351162593812E-4  
 2.344000000000000E10    6.855499232187867E-4   1.762747415341437E-4  
 2.346000000000000E10   -1.017573522403836E-3   5.328552215360105E-4  
 2.348000000000000E10    6.993336137384176E-4   7.630765321664512E-4  
 2.350000000000000E10    8.654269040562213E-4   1.256756222574040E-4  
 2.352000000000000E10   -4.253076331224293E-4  -5.151483346708119E-4  
 2.354000000000000E10   -1.253230031579733E-3   3.853466478176415E-4  
 2.356000000000000E10    4.086929839104414E-4   1.127499388530850E-3  
 2.358000000000000E10    2.886478323489428E-4   2.187242498621345E-4  
 2.360000000000000E10    1.638606045162305E-4  -1.016462105326355E-3  
 2.362000000000000E10   -5.344367818906903E-4   2.831325400620699E-4  
 2.364000000000000E10   -6.039234722265974E-5  -2.278948668390513E-4  
 2.366000000000000E10    3.823857987299562E-4   4.549357981886715E-4  
 2.368000000000000E10   -3.472138996585272E-5   6.475405534729362E-4  
 2.370000000000000E10    1.385024865157902E-3   8.379877544939518E-5  
 2.372000000000000E10    1.607873127795756E-5  -8.270801627077162E-4  
 2.374000000000000E10   -9.217756451107562E-4  -1.623810385353863E-5  
 2.376000000000000E10   -2.696107258088887E-4   1.335287466645241E-3  
 2.378000000000000E10    9.460751898586750E-4   9.264078689739108E-4  
 2.380000000000000E10    5.787476547993720E-4  -8.489436004310846E-4  
 2.382000000000000E10   -5.606603808701038E-4  -9.761150577105582E-4  
 2.384000000000000E10   -1.344607793726027E-3   8.010255405679345E-4  
 2.386000000000000E10    2.298360777786002E-5   1.061592716723681E-3  
 2.388000000000000E10    8.900784887373447E-4   6.458761636167765E-4  
 2.390000000000000E10    4.441843775566667E-4  -1.959015935426578E-4  
 2.392000000000000E10   -4.317992716096342E-4  -3.171239804942161E-4  
 2.394000000000000E10   -7.376938592642546E-4   3.041920426767319E-4  
 2.396000000000000E10   -7.603794219903648E-4   8.016508072614670E-4  
 2.398000000000000E10    7.279722485691309E-4   5.890210741199553E-4  
 2.400000000000000E10    1.334158820100129E-3  -6.300211680354551E-5  
 2.402000000000000E10   -5.031438195146620E-4  -8.599745342507958E-4  
 2.404000000000000E10   -3.714186605066061E-4   3.971215046476573E-4  
 2.406000000000000E10    2.634455740917474E-4   1.394986175000668E-3  
 2.408000000000000E10    3.102016344200820E-4   4.019762855023146E-4  
 2.410000000000000E10    4.132319008931518E-4  -3.215826000086963E-4  
 2.412000000000000E10   -4.406243388075382E-4   4.812260522157885E-5  
 2.414000000000000E10   -8.209199877455831E-4   4.433444119058549E-4  
 2.416000000000000E10    3.120795008726418E-4   6.582536734640598E-4  
 2.418000000000000E10    3.400540736038238E-4   5.774748278781772E-4  
 2.420000000000000E10    1.002513527055271E-4  -4.801038012374193E-4  
 2.422000000000000E10   -1.094249091693200E-4   2.722465433180332E-4  
 2.424000000000000E10   -8.620717562735081E-4   1.002403325401247E-3  
 2.426000000000000E10    4.989410517737269E-4   7.017077878117561E-4  
 2.428000000000000E10    7.595197530463338E-4   2.888584276661277E-4  
 2.430000000000000E10   -6.152787245810032E-4  -4.366107459645718E-4  
 2.432000000000000E10   -9.925046470016241E-4   1.395596336806193E-4  
 2.434000000000000E10   -6.350596086122096E-4   1.585267600603402E-3  
 2.436000000000000E10    1.087137788999826E-4   3.936079738195986E-4  
 2.438000000000000E10    5.280546611174941E-4  -8.357336628250778E-4  
 2.440000000000000E10   -9.262270759791136E-4  -1.121800887631252E-4  
 2.442000000000000E10   -9.504223125986755E-4   5.053414497524500E-5  
 2.444000000000000E10    6.444824975915253E-4   7.932937587611377E-4  
 2.446000000000000E10    4.335611301939935E-4   8.996254764497280E-4  
 2.448000000000000E10    6.485792691819370E-4  -3.944494528695941E-4  
 2.450000000000000E10    4.479749186430126E-4  -3.387307224329561E-4  
 2.452000000000000E10   -1.285148318856955E-3   1.945989424712025E-5  
 2.454000000000000E10   -3.412098449189216E-4   4.151625034864992E-4  
 2.456000000000000E10    4.090022121090442E-4   1.008542603813112E-3  
 2.458000000000000E10    6.329346797429025E-4  -3.920666931662709E-4  
 2.460000000000000E10   -1.214999138028361E-4  -1.117837033234537E-3  
 2.462000000000000E10   -1.318963826633990E-3   1.422229834133759E-4  
 2.464000000000000E10   -4.544192634057254E-4   7.808136870153248E-4  
 2.466000000000000E10    7.993656909093261E-4   1.906342367874458E-4  
 2.468000000000000E10    2.503308351151645E-4  -3.792784118559212E-4  
 2.470000000000000E10   -5.150688230060041E-4  -9.985612705349922E-4  
 2.472000000000000E10    9.327888983534649E-5  -3.233263123547658E-5  
 2.474000000000000E10   -5.506386514753103E-4   6.887217750772834E-4  
 2.476000000000000E10    4.036315658595413E-4   1.343788899248466E-4  
 2.478000000000000E10    7.324914913624525E-4   6.197259062901139E-4  
 2.480000000000000E10   -7.535658660344780E-4  -4.950463771820068E-4  
 2.482000000000000E10   -8.916743681766093E-4  -2.416735369479284E-4  
 2.484000000000000E10   -4.998731892555952E-4   7.236907840706408E-4  
 2.486000000000000E10   -1.350950769847259E-4   1.194485230371356E-4  
 2.488000000000000E10    1.192879281006753E-4  -9.548717061989009E-4  
 2.490000000000000E10   -8.108471229206771E-5   3.712141915457323E-5  
 2.492000000000000E10   -9.593351860530675E-4  -1.235151576111093E-4  
 2.494000000000000E10    7.488014525733888E-4   4.305774054955691E-4  
 2.496000000000000E10   -8.568993507651612E-5   8.010629098862410E-4  
 2.498000000000000E10   -2.624678600113839E-4  -3.696650383062661E-4  
 2.500000000000000E10    1.481930521549657E-4   7.618883391842246E-4  
 2.502000000000000E10   -4.645130829885602E-4   5.043143755756319E-4  
 2.504000000000000E10   -6.887248018756509E-4  -3.187587135471404E-4  
 2.506000000000000E10   -3.288575680926442E-4   4.675261734519154E-4  
 2.508000000000000E10   -2.530582787585445E-5  -1.212327606481267E-5  
 2.510000000000000E10    1.195751174236648E-4  -1.383489114232361E-3  
 2.512000000000000E10   -2.707987441681325E-4   4.998006625100970E-4  
 2.514000000000000E10   -3.488202346488833E-4   1.178200938738883E-3  
 2.516000000000000E10    1.025429111905396E-3   4.573439655359834E-4  
 2.518000000000000E10    2.702927158679813E-4   3.333935455884785E-4  
 2.520000000000000E10   -7.517157937400043E-4   4.078063648194075E-5  
 2.522000000000000E10   -5.471126642078161E-4   7.128263823688030E-4  
 2.524000000000000E10    1.233406946994364E-4   8.452917099930346E-4  
 2.526000000000000E10    1.010899723041803E-4  -3.758148232009262E-4  
 2.528000000000000E10    4.220601695124060E-4  -1.914945751195774E-4  
 2.530000000000000E10   -2.794874890241772E-4   3.305248392280191E-4  
 2.532000000000000E10    1.946124684764072E-4  -4.032928554806858E-4  
 2.534000000000000E10    3.718239895533770E-4   5.615129484795034E-4  
 2.536000000000000E10    8.466276631224901E-5   5.870186723768711E-4  
 2.538000000000000E10    7.472655852325261E-4  -2.478944952599704E-4  
 2.540000000000000E10   -2.229747333331034E-4  -6.932741380296648E-4  
 2.542000000000000E10   -1.183854066766799E-3   1.769362424965948E-4  
 2.544000000000000E10    1.032876607496291E-4   5.091640050522983E-4  
 2.546000000000000E10    5.367199191823602E-4  -1.250162895303220E-4  
 2.548000000000000E10   -4.591374599840492E-4  -9.204429225064814E-4  
 2.550000000000000E10   -1.699192653177306E-4  -6.101818871684372E-4  
 2.552000000000000E10   -3.099138848483563E-4   3.557765157893300E-4  
 2.554000000000000E10    4.657805402530357E-5  -7.945682737044990E-4  
 2.556000000000000E10    6.117444718256593E-4  -2.481183910276741E-4  
 2.558000000000000E10   -8.443141705356538E-4   3.288194420747459E-4  
 2.560000000000000E10    4.417123636812903E-5  -2.175667759729549E-4  
 2.562000000000000E10   -4.182794364169240E-4   2.239715831819922E-5  
 2.564000000000000E10   -1.091227401047945E-3  -6.296343781286851E-5  
 2.566000000000000E10   -1.738730934448540E-4   5.923774442635477E-4  
 2.568000000000000E10    8.999836427392438E-5  -5.223195694270544E-5  
 2.570000000000000E10   -7.810589158907533E-4  -3.635147295426577E-4  
 2.572000000000000E10   -5.903383716940880E-4  -8.874441846273840E-6  
 2.574000000000000E10   -1.351831742795184E-4   7.890852284617722E-4  
 2.576000000000000E10   -1.134061749326065E-4  -1.840975455706939E-4  
 2.578000000000000E10    8.358997001778334E-5  -2.829422301147133E-4  
 2.580000000000000E10   -1.259041833691299E-3   7.470563286915422E-4  
 2.582000000000000E10   -6.090308888815343E-4   2.054825017694384E-4  
 2.584000000000000E10    2.048739261226729E-4   5.977255641482770E-4  
 2.586000000000000E10   -6.785009172745049E-4   2.942722057923675E-4  
 2.588000000000000E10   -7.363123004324734E-4   7.165368879213929E-5  
 2.590000000000000E10   -1.479720231145620E-4   1.100218796636909E-4  
 2.592000000000000E10   -5.120844580233097E-4   4.988121218048036E-4  
 2.594000000000000E10   -2.211763639934361E-4   1.321015006396920E-4  
 2.596000000000000E10    7.018590113148093E-4   5.198321305215359E-4  
 2.598000000000000E10   -3.159336338285357E-4   1.640094560571015E-4  
 2.600000000000000E10   -2.343429223401472E-4  -6.420684803742915E-5  
 2.602000000000000E10   -3.402188012842089E-4   1.258379546925426E-3  
 2.604000000000000E10   -2.757545917120297E-5   4.958317149430513E-4  
 2.606000000000000E10    4.670150810852647E-4  -1.983468100661412E-4  
 2.608000000000000E10   -2.978512493427843E-4   2.063829306280240E-4  
 2.610000000000000E10   -6.235292530618608E-4   1.382662389914913E-6  
 2.612000000000000E10    4.964109393768013E-4   1.968104916159064E-4  
 2.614000000000000E10    2.792938321363181E-4   3.179826308041811E-4  
 2.616000000000000E10    6.222732481546700E-4  -3.516708384267986E-4  
 2.618000000000000E10    4.933906602673233E-4   3.728944284375757E-4  
 2.620000000000000E10   -3.829413326457143E-4   2.955266390927136E-4  
 2.622000000000000E10    2.628069778438658E-4   1.485843094997108E-4  
 2.624000000000000E10    2.484438591636717E-4   8.031208417378366E-4  
 2.626000000000000E10   -3.266343555878848E-4  -9.651905565988272E-5  
 2.628000000000000E10    4.602796980179846E-4  -8.496662485413253E-4  
 2.630000000000000E10   -6.293337210081518E-4  -1.618524111108854E-4  
 2.632000000000000E10   -5.779661005362868E-4  -2.197029098169878E-4  
 2.634000000000000E10    8.751119021326304E-4  -7.765349437249824E-5  
 2.636000000000000E10    5.664058844558895E-4  -3.924419288523495E-4  
 2.638000000000000E10   -2.449310268275440E-4  -9.166962117888033E-4  
 2.640000000000000E10    2.732838620431721E-4   4.923056112602353E-4  
 2.642000000000000E10    1.300926378462464E-4   6.297095096670091E-4  
 2.644000000000000E10    5.343921948224306E-4  -5.862971884198487E-4  
 2.646000000000000E10    4.044361412525177E-4  -1.624676078790799E-4  
 2.648000000000000E10   -6.840138812549412E-4  -3.582393983379006E-4  
 2.650000000000000E10    5.127510303282179E-5  -4.257364344084635E-5  
 2.652000000000000E10    2.749972045421600E-4   2.433208719594404E-4  
 2.654000000000000E10    1.696446415735409E-4  -5.321271019056439E-4  
 2.656000000000000E10    1.996860664803535E-4  -3.506857319734991E-4  
 2.658000000000000E10    1.214373041875660E-4   4.426291343406774E-5  
 2.660000000000000E10   -1.432020362699404E-4  -7.082021329551935E-5  
 2.662000000000000E10    1.724293106235564E-4  -4.896066457149573E-5  
 2.664000000000000E10    4.597200313583016E-4  -3.132455822196789E-5  
 2.666000000000000E10    1.055880784406327E-4  -9.859894635155797E-4  
 2.668000000000000E10   -1.007164173643105E-4  -2.885007706936449E-4  
 2.670000000000000E10   -2.911057672463357E-4   3.580303164198995E-4  
 2.672000000000000E10    4.639125254470855E-4   1.577496004756540E-4  
 2.674000000000000E10    3.110117395408452E-4   3.182768414262682E-4  
 2.676000000000000E10   -4.566276038531214E-4   1.488415146013722E-4  
 2.678000000000000E10   -5.342051736079156E-4   2.754683373495936E-4  
 2.680000000000000E10    3.139247201033868E-5   5.403377581387758E-4  
 2.682000000000000E10   -3.092491242568940E-4   2.439292438793927E-5  
 2.684000000000000E10    1.909335405798629E-4  -2.829258446581662E-4  
 2.686000000000000E10   -1.019666342472192E-5   1.622164127184078E-4  
 2.688000000000000E10   -1.271944638574496E-4  -3.284460108261555E-4  
 2.690000000000000E10    2.846443094313145E-4   2.268678690597881E-5  
 2.692000000000000E10    2.569437783677131E-4   7.621574914082885E-4  
 2.694000000000000E10    6.120970938354731E-4   5.344090750440955E-4  
 2.696000000000000E10    7.316988921957091E-5   2.626507193781436E-4  
 2.698000000000000E10   -4.832476261071861E-4   6.098365993238986E-4  
 2.700000000000000E10   -4.432388232089579E-4   8.844316471368074E-4  
 2.702000000000000E10   -1.615069777471945E-4   2.689495449885726E-4  
 2.704000000000000E10   -5.345335230231285E-4  -1.851105189416558E-4  
 2.706000000000000E10   -5.037391092628241E-4  -3.455381956882775E-4  
 2.708000000000000E10   -4.007530806120485E-4   3.270278393756598E-4  
 2.710000000000000E10   -1.883930817712098E-4   1.992874604184181E-4  
 2.712000000000000E10    3.024499746970832E-4  -9.117395529756323E-5  
 2.714000000000000E10   -2.037416415987536E-4   1.074863248504698E-4  
 2.716000000000000E10    1.334071657765890E-5   5.086168530397117E-4  
 2.718000000000000E10   -9.272407623939216E-5   4.493474552873522E-4  
 2.720000000000000E10   -4.353244439698756E-4   4.714124079328030E-4  
 2.722000000000000E10   -3.210218274034560E-4   3.462763561401516E-4  
 2.724000000000000E10    1.661271380726248E-5   2.006054855883122E-4  
 2.726000000000000E10   -1.107467920519412E-3  -1.033990774885751E-4  
 2.728000000000000E10   -6.751404143869877E-4   5.650433013215661E-5  
 2.730000000000000E10   -1.965295950867585E-6   2.322241634828970E-4  
 2.732000000000000E10   -5.662503463099711E-5  -3.361298586241901E-4  
 2.734000000000000E10   -3.269542939960957E-4  -6.895599653944373E-4  
 2.736000000000000E10   -4.015957529190928E-5  -1.417774910805747E-4  
 2.738000000000000E10   -2.114521630574018E-4   5.303664947859943E-4  
 2.740000000000000E10    2.213962143287063E-4   1.665007148403674E-4  
 2.742000000000000E10    9.902734745992348E-5   5.878919619135559E-4  
 2.744000000000000E10   -6.013398524373770E-4  -2.352556039113551E-4  
 2.746000000000000E10   -2.303413348272443E-4   7.666229066671804E-5  
 2.748000000000000E10   -6.424075108952820E-4   3.617883485276252E-4  
 2.750000000000000E10   -8.306073868880048E-5  -1.076659536920488E-4  
 2.752000000000000E10    4.364257620181888E-4  -6.708411092404276E-5  
 2.754000000000000E10    2.092709037242457E-4  -4.533026076387614E-4  
 2.756000000000000E10   -7.544232648797333E-4  -4.661013954319060E-4  
