#  HZ   S   RI   R     50.00 
! Rohde & Schwarz ZVA40 4Ports - Version 3.90 - 1145.1110k42 SN: 100403
! Date: 2023-10-04 09:35:18
! Measurement: S12 
! 
 2.200000000000000E10   -9.986412478610873E-4   1.138134743086994E-3  
 2.202000000000000E10    6.040221778675914E-4   1.830205728765577E-4  
 2.204000000000000E10    3.549360262695700E-4  -7.866364903748035E-4  
 2.206000000000000E10   -7.246829918585718E-4  -4.854822182096541E-4  
 2.208000000000000E10   -6.320701795630157E-4  -3.451165684964508E-5  
 2.210000000000000E10    4.430763365235180E-4  -4.995677154511213E-4  
 2.212000000000000E10   -5.662895273417234E-4  -4.438048053998500E-4  
 2.214000000000000E10    2.228704106528312E-4   1.167370646726340E-5  
 2.216000000000000E10    4.205252917017788E-4  -3.616753674577922E-4  
 2.218000000000000E10   -1.741438318276778E-4  -1.024315715767443E-3  
 2.220000000000000E10   -1.603780081495643E-3   4.941353690810502E-4  
 2.222000000000000E10   -1.325148041360080E-4   4.717142437584698E-4  
 2.224000000000000E10    5.080667324364185E-4  -7.879320764914155E-4  
 2.226000000000000E10   -9.515464771538973E-4  -2.110612811520696E-3  
 2.228000000000000E10   -7.748865173198283E-4   1.438250910723582E-4  
 2.230000000000000E10   -1.576181384734809E-4  -3.868376661557704E-4  
 2.232000000000000E10    1.278205774724484E-3  -7.266185129992664E-4  
 2.234000000000000E10   -6.434301030822098E-4  -6.390416529029608E-4  
 2.236000000000000E10   -6.247635465115309E-4  -4.160321259405464E-4  
 2.238000000000000E10   -4.007491224911064E-4   3.118211170658469E-4  
 2.240000000000000E10   -1.300761650782079E-4  -1.064764452166855E-3  
 2.242000000000000E10   -8.669567760080099E-4  -9.671676089055836E-4  
 2.244000000000000E10   -7.130741141736507E-4  -2.089294866891578E-4  
 2.246000000000000E10    1.442220818717033E-4  -2.896629448514432E-4  
 2.248000000000000E10   -1.668270415393636E-4  -1.767313689924777E-3  
 2.250000000000000E10   -8.970844792202115E-4  -7.759939035167918E-5  
 2.252000000000000E10   -3.820169076789171E-4  -1.668911427259445E-4  
 2.254000000000000E10    8.641558815725148E-4  -9.563412750139833E-4  
 2.256000000000000E10   -8.490337640978396E-4  -1.169390277937055E-3  
 2.258000000000000E10   -6.418296252377331E-4  -3.406197356525809E-4  
 2.260000000000000E10   -4.659838159568608E-4   6.247641431400552E-5  
 2.262000000000000E10    1.063748368324013E-5  -9.333812049590051E-4  
 2.264000000000000E10   -4.053635639138520E-4  -9.375785011798143E-4  
 2.266000000000000E10   -4.913771990686655E-4   3.083751944359392E-4  
 2.268000000000000E10    1.625612640054897E-4  -4.588072188198566E-4  
 2.270000000000000E10    2.337592450203374E-4  -1.033940585330129E-3  
 2.272000000000000E10   -1.500463462434709E-3  -1.392954145558178E-4  
 2.274000000000000E10   -2.376488118898124E-4   6.488268845714629E-4  
 2.276000000000000E10    8.147430489771068E-4   2.110145433107391E-4  
 2.278000000000000E10   -6.381020648404956E-4  -1.060528447851539E-3  
 2.280000000000000E10   -1.504985266365111E-3  -1.695514365565032E-4  
 2.282000000000000E10   -9.556775330565870E-5   5.756395403295755E-4  
 2.284000000000000E10    4.775860579684377E-4  -1.746495981933549E-4  
 2.286000000000000E10    3.069536251132377E-5  -8.756016031838954E-4  
 2.288000000000000E10    1.172286356450059E-4   6.696948548778892E-4  
 2.290000000000000E10   -1.468318951083347E-4   2.323512017028406E-4  
 2.292000000000000E10    5.965121090412140E-4   1.784695487003774E-4  
 2.294000000000000E10   -4.813526466023177E-4   8.347510010935366E-4  
 2.296000000000000E10   -4.035940219182521E-4   8.004280389286578E-4  
 2.298000000000000E10    3.247788117732853E-4   5.647682701237500E-4  
 2.300000000000000E10   -5.523381405510008E-4  -3.677294589579105E-4  
 2.302000000000000E10   -1.422953326255083E-3   2.081504644593224E-4  
 2.304000000000000E10    9.163602371700108E-4   3.812814538832754E-4  
 2.306000000000000E10    7.258690893650055E-4  -5.510477931238711E-4  
 2.308000000000000E10   -3.708203439600766E-4  -1.500780577771366E-3  
 2.310000000000000E10    1.270148204639554E-4   1.185959903523326E-3  
 2.312000000000000E10    7.559698424302042E-4   1.059204689227045E-3  
 2.314000000000000E10    1.232582028023899E-3  -3.934973792638630E-4  
 2.316000000000000E10   -4.731978988274932E-4   1.644474541535601E-4  
 2.318000000000000E10   -8.663748158141971E-4   5.445624119602144E-4  
 2.320000000000000E10    8.357108890777454E-5  -5.996329855406657E-5  
 2.322000000000000E10   -2.033337077591568E-4  -4.352623946033418E-4  
 2.324000000000000E10   -8.556419052183628E-4  -5.513300420716405E-4  
 2.326000000000000E10    1.102251000702381E-3  -6.169128464534879E-4  
 2.328000000000000E10   -4.066931523993844E-6  -1.041914336383343E-3  
 2.330000000000000E10   -5.943815340287983E-4  -1.475629280321300E-3  
 2.332000000000000E10    3.881815646309406E-4   7.817856385372579E-4  
 2.334000000000000E10    1.070019090548158E-3   5.723799695260823E-4  
 2.336000000000000E10    7.284934399649501E-4  -1.099548186175525E-3  
 2.338000000000000E10   -8.390261209569871E-4  -3.008708881679922E-4  
 2.340000000000000E10   -1.547797117382288E-3   1.521751401014626E-3  
 2.342000000000000E10    2.265771909151226E-4  -2.940726117230952E-4  
 2.344000000000000E10    1.621784758754075E-4  -5.759471678175032E-4  
 2.346000000000000E10   -1.420580898411572E-3  -7.346162456087768E-4  
 2.348000000000000E10    1.948222234204877E-5  -9.683427051641047E-4  
 2.350000000000000E10   -2.313974255230278E-4  -2.709397522266954E-4  
 2.352000000000000E10   -4.265205934643745E-4  -1.895258028525859E-4  
 2.354000000000000E10    4.325002955738455E-4   1.923434756463394E-4  
 2.356000000000000E10    8.655506535433233E-4  -1.188197857118212E-4  
 2.358000000000000E10   -7.329634390771389E-4  -9.567373781464994E-4  
 2.360000000000000E10   -8.595099207013845E-4  -1.623815187485889E-4  
 2.362000000000000E10   -7.032157154753804E-4   1.264257007278502E-3  
 2.364000000000000E10    4.472100117709488E-4  -2.823984323185869E-5  
 2.366000000000000E10    5.881761317141354E-4  -5.949890473857522E-4  
 2.368000000000000E10   -9.406306780874729E-4  -6.204709061421454E-4  
 2.370000000000000E10   -3.392482176423073E-4   4.483293159864843E-4  
 2.372000000000000E10    5.115608219057322E-4   6.501338793896139E-4  
 2.374000000000000E10    2.351644507143647E-4  -4.112134629394859E-4  
 2.376000000000000E10    2.802049275487661E-4  -2.030672912951559E-4  
 2.378000000000000E10    1.046413890435360E-4   5.672451879945584E-5  
 2.380000000000000E10   -5.924628349021077E-4  -3.608827246353030E-4  
 2.382000000000000E10    7.359695155173540E-5   2.288277028128505E-4  
 2.384000000000000E10    7.864303915994242E-5   4.732005181722343E-4  
 2.386000000000000E10    1.817930460674688E-4  -3.953178238589317E-4  
 2.388000000000000E10   -1.628077880013734E-4  -5.803375388495624E-4  
 2.390000000000000E10   -6.942920153960586E-4   8.401064551435411E-4  
 2.392000000000000E10   -1.651727652642876E-4   4.484265227802098E-4  
 2.394000000000000E10    6.811316707171500E-4  -3.602309152483940E-4  
 2.396000000000000E10   -5.054021021351218E-4  -6.426376057788730E-4  
 2.398000000000000E10   -6.150798290036619E-4  -5.146753974258900E-4  
 2.400000000000000E10    1.540200173621997E-5   1.043657422997057E-3  
 2.402000000000000E10    4.572786856442690E-4  -2.351626462768763E-4  
 2.404000000000000E10    3.441379521973431E-4  -1.237750169821084E-3  
 2.406000000000000E10   -4.647342721000314E-4  -6.125348736532033E-4  
 2.408000000000000E10   -8.834367035888135E-4  -1.118482578021940E-5  
 2.410000000000000E10    4.151766479481012E-4   3.638549824245274E-4  
 2.412000000000000E10    1.166417147032917E-3   4.547332355286926E-4  
 2.414000000000000E10    4.248081240803003E-4  -1.044532982632518E-3  
 2.416000000000000E10   -4.138601070735604E-4  -7.844550418667495E-4  
 2.418000000000000E10   -1.196786179207265E-3   1.156651065684855E-3  
 2.420000000000000E10   -8.419582445640117E-5   9.826627792790532E-4  
 2.422000000000000E10    1.043325406499207E-3   3.828345797955990E-4  
 2.424000000000000E10   -1.735122787067667E-4  -1.126582501456142E-3  
 2.426000000000000E10   -9.880552534013987E-4  -1.237849937751889E-3  
 2.428000000000000E10   -1.100394874811173E-3   5.180044681765139E-4  
 2.430000000000000E10   -3.054832341149449E-4   7.287465850822628E-4  
 2.432000000000000E10    1.655193045735359E-3  -4.193644272163510E-4  
 2.434000000000000E10    5.576902185566723E-4  -7.877550087869167E-4  
 2.436000000000000E10   -1.226556370966137E-3  -1.048935111612082E-3  
 2.438000000000000E10   -5.669598467648029E-4   8.063545101322234E-4  
 2.440000000000000E10    1.436699494661298E-5   1.589424791745842E-3  
 2.442000000000000E10    4.821353650186211E-4  -1.917659246828407E-4  
 2.444000000000000E10    4.170530155533925E-5  -9.334467467851937E-4  
 2.446000000000000E10   -1.417224993929267E-3  -2.248902164865285E-4  
 2.448000000000000E10   -8.378478232771158E-4   1.884422235889360E-4  
 2.450000000000000E10    9.055195259861648E-4   4.075649485457689E-4  
 2.452000000000000E10    3.697306092362851E-4  -3.212396113667637E-4  
 2.454000000000000E10    4.377505392767489E-4  -1.089612836949527E-3  
 2.456000000000000E10    1.047349360305816E-4   6.125168874859810E-4  
 2.458000000000000E10   -4.652084317058325E-4   9.939586743712425E-4  
 2.460000000000000E10    7.637047674506903E-4   1.460244238842279E-4  
 2.462000000000000E10    2.523737493902445E-4   3.876260598190129E-4  
 2.464000000000000E10   -4.399906902108342E-4  -4.460140189621598E-4  
 2.466000000000000E10   -3.755829238798469E-4  -4.620858235284686E-4  
 2.468000000000000E10   -4.179119714535773E-4   2.194482076447457E-4  
 2.470000000000000E10    3.890185907948762E-4  -5.235690623521805E-4  
 2.472000000000000E10    9.448785567656159E-4  -9.230904979631305E-4  
 2.474000000000000E10   -1.205572407343425E-4  -8.466703002341092E-5  
 2.476000000000000E10   -1.060362628777511E-4  -4.627104208339006E-4  
 2.478000000000000E10    5.392761086113751E-4   6.909570074640214E-4  
 2.480000000000000E10    1.300836011068896E-4  -6.710497109452263E-5  
 2.482000000000000E10    1.810644171200693E-4  -3.978600725531578E-4  
 2.484000000000000E10   -7.831739494577050E-4  -1.038331811287208E-5  
 2.486000000000000E10   -5.325899692252278E-4  -1.334409462288022E-4  
 2.488000000000000E10   -7.821452891221270E-5   2.586843584140297E-5  
 2.490000000000000E10   -1.853288413258269E-4  -7.531739538535476E-5  
 2.492000000000000E10   -1.991571480175480E-4  -4.710377543233335E-4  
 2.494000000000000E10    1.233175134984776E-5  -7.579648518003523E-4  
 2.496000000000000E10   -6.918439758010209E-4   1.506622065789998E-4  
 2.498000000000000E10   -4.302212619222701E-5   6.347495946101844E-4  
 2.500000000000000E10    7.788072107359767E-4   2.906727313529700E-4  
 2.502000000000000E10    1.447443501092494E-4  -3.039283619727939E-4  
 2.504000000000000E10   -4.279443237464875E-4  -2.100377460010350E-4  
 2.506000000000000E10   -1.731984375510365E-4   2.428844454698265E-4  
 2.508000000000000E10   -3.568759129848331E-4   6.275040796026588E-4  
 2.510000000000000E10    2.357183984713629E-4  -1.087333075702190E-4  
 2.512000000000000E10    1.700424909358844E-4   1.447876275051385E-4  
 2.514000000000000E10   -9.488909272477031E-4  -2.386892592767254E-4  
 2.516000000000000E10    1.746938323776703E-5  -6.296454230323434E-4  
 2.518000000000000E10   -2.861491229850799E-4   1.284508762182668E-4  
 2.520000000000000E10   -3.340668627060950E-4  -6.013039965182543E-4  
 2.522000000000000E10    8.857707725837827E-4  -1.435367303201929E-4  
 2.524000000000000E10    1.199845428345725E-6  -2.875342033803463E-4  
 2.526000000000000E10   -6.791944615542889E-4  -3.919035953003913E-4  
 2.528000000000000E10    2.045568835455924E-4   9.480536682531238E-4  
 2.530000000000000E10    1.061636576196179E-4   8.314192527905107E-4  
 2.532000000000000E10   -6.432560621760786E-5  -7.793157128617168E-4  
 2.534000000000000E10   -2.076385426335037E-4   1.989540032809600E-4  
 2.536000000000000E10   -9.010197827592492E-4   3.283897822257131E-4  
 2.538000000000000E10    1.943414245033637E-4  -2.924707659985870E-4  
 2.540000000000000E10    3.042267926502973E-4  -9.692551975604147E-5  
 2.542000000000000E10   -2.690113906282932E-4  -7.515271427109838E-4  
 2.544000000000000E10    2.675958094187081E-4  -1.869427651399747E-4  
 2.546000000000000E10    1.857068273238838E-4   2.088858891511336E-4  
 2.548000000000000E10    1.128926087403670E-4  -3.037601418327540E-4  
 2.550000000000000E10    1.439451589249075E-4  -9.246480658475775E-6  
 2.552000000000000E10    4.167110892012715E-4   2.152097149519250E-4  
 2.554000000000000E10   -4.923618689645082E-5  -4.784428747370839E-4  
 2.556000000000000E10   -1.309119252255186E-4  -6.141705671325326E-5  
 2.558000000000000E10    1.643915020395070E-4   3.181362117175013E-4  
 2.560000000000000E10    3.409311757422984E-4  -8.920138934627175E-4  
 2.562000000000000E10    2.086520253214985E-4  -3.129376273136586E-4  
 2.564000000000000E10   -4.499480419326574E-4  -2.234808780485764E-4  
 2.566000000000000E10    1.677933469181880E-4  -1.072133527486585E-4  
 2.568000000000000E10    6.418671109713614E-4  -1.351345999864861E-4  
 2.570000000000000E10    1.501257502241060E-4  -8.343001245521009E-4  
 2.572000000000000E10   -1.238321565324441E-4  -6.651051808148623E-4  
 2.574000000000000E10    2.579440188128501E-4  -3.971753903897479E-5  
 2.576000000000000E10    3.504760388750583E-4  -5.117586115375161E-4  
 2.578000000000000E10    4.231653001625091E-4  -5.836923373863101E-4  
 2.580000000000000E10   -1.088810531655327E-4   2.472234773449600E-4  
 2.582000000000000E10    5.102672002976760E-5  -6.469780346378684E-4  
 2.584000000000000E10    4.358424048405141E-4  -6.056653219275177E-4  
 2.586000000000000E10   -9.475421393290162E-4  -2.601980813778937E-4  
 2.588000000000000E10    4.463031291379593E-5  -4.956420161761344E-4  
 2.590000000000000E10    4.179985553491861E-4  -3.649829595815390E-4  
 2.592000000000000E10   -2.922367129940540E-4  -7.154968916438520E-4  
 2.594000000000000E10   -1.756686106091365E-4  -8.319656481035054E-4  
 2.596000000000000E10    2.004694688366726E-4   7.621672557434067E-5  
 2.598000000000000E10   -1.665364106884226E-4  -3.125614894088358E-4  
 2.600000000000000E10    2.657865989021957E-4  -7.231876370497048E-4  
 2.602000000000000E10   -2.512588398531079E-4   4.263098526280373E-4  
 2.604000000000000E10   -5.990451900288463E-4  -3.805177693720907E-4  
 2.606000000000000E10    2.764131058938801E-4  -6.961738690733910E-4  
 2.608000000000000E10   -6.195568712428212E-4  -5.399248493631603E-6  
 2.610000000000000E10   -5.308591644279659E-4  -4.429342225193977E-4  
 2.612000000000000E10    4.984324914403260E-4  -3.315050271339715E-4  
 2.614000000000000E10   -2.454183122608811E-4  -6.797126261517406E-4  
 2.616000000000000E10   -5.360038485378027E-4  -4.008499672636390E-4  
 2.618000000000000E10    2.011407050304115E-4   5.690188845619559E-4  
 2.620000000000000E10    2.960927668027580E-5   3.359728434588760E-4  
 2.622000000000000E10   -6.364101864164695E-5  -6.542736082337797E-4  
 2.624000000000000E10   -2.570606302469969E-4   4.480217758100480E-4  
 2.626000000000000E10   -7.864487706683576E-4   1.703953457763419E-4  
 2.628000000000000E10    6.431728252209723E-4  -6.694339099340141E-4  
 2.630000000000000E10    1.322385069215670E-4   2.119890268659219E-4  
 2.632000000000000E10   -2.802397648338229E-4  -1.468701666453853E-4  
 2.634000000000000E10    1.894795714179054E-4   3.505939093884081E-4  
 2.636000000000000E10    1.590033643878996E-4   2.943424915429205E-4  
 2.638000000000000E10   -6.149635009933263E-5   2.327580441487953E-4  
 2.640000000000000E10    2.812922175507993E-4   5.677243461832404E-4  
 2.642000000000000E10    1.271658256882802E-4   4.680544952861965E-4  
 2.644000000000000E10   -1.799981691874564E-4  -4.039139312226325E-4  
 2.646000000000000E10    1.048872873070650E-4   7.731997175142169E-4  
 2.648000000000000E10    1.048354024533182E-4   6.906852358952165E-4  
 2.650000000000000E10    8.896010112948716E-4  -3.975813742727041E-4  
 2.652000000000000E10   -1.425307709723711E-5   8.516329398844391E-5  
 2.654000000000000E10   -1.580921089043841E-4   6.396534736268222E-4  
 2.656000000000000E10    9.212482254952192E-4   8.855443447828293E-4  
 2.658000000000000E10    1.093712518922985E-3  -5.678571324096993E-5  
 2.660000000000000E10    4.505813994910568E-4   2.283760695718229E-4  
 2.662000000000000E10    2.275862061651424E-4   4.493108135648072E-4  
 2.664000000000000E10    4.200682451482862E-4   6.197792245075107E-4  
 2.666000000000000E10    5.403703544288874E-4   1.203576903208159E-4  
 2.668000000000000E10    7.639068644493818E-4  -2.089191639242927E-6  
 2.670000000000000E10    2.128304004145321E-5   1.503374660387635E-4  
 2.672000000000000E10    4.770779341924936E-4   1.472529256716371E-4  
 2.674000000000000E10    3.324722347315401E-4  -3.281519821030088E-5  
 2.676000000000000E10   -4.626364534487948E-5  -1.095801271731034E-4  
 2.678000000000000E10    4.342809261288494E-4   1.174178305518581E-5  
 2.680000000000000E10    5.185998161323369E-4  -4.434475849848241E-4  
 2.682000000000000E10   -3.126692608930171E-4  -4.603046108968556E-4  
 2.684000000000000E10    1.265231549041346E-4   1.073054008884355E-4  
 2.686000000000000E10    6.709765875712037E-4   1.684464368736371E-4  
 2.688000000000000E10    1.443885703338310E-4  -4.885696107521653E-4  
 2.690000000000000E10   -4.104053659830242E-4  -2.076501696137711E-4  
 2.692000000000000E10   -3.284606791567057E-4   2.908793976530433E-4  
 2.694000000000000E10    1.679548950050958E-5   2.146811493730638E-5  
 2.696000000000000E10    2.524210503906943E-5  -3.064469201490283E-4  
 2.698000000000000E10   -3.617444308474660E-4  -7.306424085982144E-4  
 2.700000000000000E10   -3.087151271756738E-4  -6.915881531313062E-4  
 2.702000000000000E10   -2.327225811313838E-4  -1.448494876967743E-4  
 2.704000000000000E10   -3.508905356284231E-4  -1.750285446178168E-4  
 2.706000000000000E10    1.098210632335395E-4  -1.182995110866614E-4  
 2.708000000000000E10   -1.378759334329516E-4   1.088452045223676E-4  
 2.710000000000000E10   -7.281753350980580E-4  -7.668550242669880E-4  
 2.712000000000000E10   -7.831043330952525E-4  -1.791936956578866E-4  
 2.714000000000000E10   -3.429038915783167E-4   4.627992457244545E-4  
 2.716000000000000E10    9.866324398899451E-5  -2.593341050669551E-4  
 2.718000000000000E10   -2.539794077165425E-4  -8.703705971129239E-4  
 2.720000000000000E10   -7.291912334039807E-4  -4.156425711698830E-4  
 2.722000000000000E10   -5.164587055332959E-4  -7.199414540082216E-5  
 2.724000000000000E10    3.139867476420477E-5   5.430952296592295E-4  
 2.726000000000000E10   -5.750626951339655E-5   1.444782246835530E-4  
 2.728000000000000E10    1.406462106388062E-4  -4.159924865234643E-4  
 2.730000000000000E10   -6.927555659785867E-4   4.536525011644699E-5  
 2.732000000000000E10   -4.828042583540082E-4   2.582885790616274E-4  
 2.734000000000000E10   -1.564275153214112E-4  -1.245990279130638E-4  
 2.736000000000000E10   -2.802487870212644E-4  -3.464839537627995E-4  
 2.738000000000000E10   -2.865146379917860E-4  -2.991560031659901E-4  
 2.740000000000000E10   -2.482208947185427E-4  -6.755906506441534E-4  
 2.742000000000000E10   -2.340494247619063E-4   1.426002272637561E-4  
 2.744000000000000E10    4.048780829180032E-4   1.570601743878797E-4  
 2.746000000000000E10    5.149882636032999E-4   1.018818657030352E-4  
 2.748000000000000E10   -3.327295708004385E-4  -1.850537082646042E-4  
 2.750000000000000E10   -4.230373451719061E-5   1.550508022774011E-4  
 2.752000000000000E10   -1.479093189118430E-4   1.021228454192169E-4  
 2.754000000000000E10   -3.631477011367679E-5   3.114096180070192E-4  
 2.756000000000000E10   -3.145563241560012E-4  -2.641447936184704E-4  
