#  HZ   S   RI   R     50.00 
! Rohde & Schwarz ZVA40 4Ports - Version 3.90 - 1145.1110k42 SN: 100403
! Date: 2023-10-04 09:35:08
! Measurement: S12 
! 
 2.200000000000000E10    1.613217318663374E-4   4.805609642062336E-4  
 2.202000000000000E10    2.451677864883095E-4  -1.049366896040738E-3  
 2.204000000000000E10   -1.199633232317865E-3  -9.035925031639636E-4  
 2.206000000000000E10   -4.024785885121673E-4   1.271857880055904E-3  
 2.208000000000000E10    8.640187443234026E-4   1.411671692039818E-4  
 2.210000000000000E10    9.107239311560988E-4  -1.387477735988796E-3  
 2.212000000000000E10   -1.238049939274788E-3   1.396603693137877E-5  
 2.214000000000000E10   -3.631275321822614E-4   6.872871890664101E-4  
 2.216000000000000E10    7.832868723198772E-4   8.080149418674409E-4  
 2.218000000000000E10   -4.984490442438982E-5  -1.367287361063063E-3  
 2.220000000000000E10   -9.016691474243999E-4   2.026895090239123E-4  
 2.222000000000000E10   -2.842864159902092E-5   3.462767344899476E-4  
 2.224000000000000E10    1.254437142051756E-3  -2.817197819240391E-4  
 2.226000000000000E10   -4.652320640161634E-4  -1.056368811987341E-3  
 2.228000000000000E10    3.650460566859692E-4   8.438243530690670E-4  
 2.230000000000000E10    1.017654081806541E-3   5.799215869046748E-4  
 2.232000000000000E10    1.213088398799300E-3  -1.111156190745533E-3  
 2.234000000000000E10   -9.537394507788122E-4   5.958110705250874E-5  
 2.236000000000000E10    5.233021802268922E-4   1.111415564082563E-3  
 2.238000000000000E10    1.592310261912644E-3   4.444430232979357E-4  
 2.240000000000000E10    3.639174683485180E-4  -1.287578372284770E-3  
 2.242000000000000E10   -3.509395464789122E-4   5.532755167223513E-4  
 2.244000000000000E10    7.413194398395717E-4   6.057465216144919E-4  
 2.246000000000000E10    1.336523564532399E-3  -6.278739310801029E-4  
 2.248000000000000E10   -2.933273026428651E-5  -6.854340317659080E-4  
 2.250000000000000E10    5.333133740350604E-4   5.700896144844592E-4  
 2.252000000000000E10    1.300366944633424E-3   4.869266194873489E-5  
 2.254000000000000E10    1.438230741769075E-3  -8.603095193393529E-4  
 2.256000000000000E10   -3.053085238207132E-4  -5.041423137299717E-4  
 2.258000000000000E10    4.744182515423745E-4   8.592765661887825E-4  
 2.260000000000000E10    1.346910721622407E-3   2.909874019678682E-4  
 2.262000000000000E10    4.958511563017964E-4  -1.125451177358627E-3  
 2.264000000000000E10   -6.126209045760334E-4  -4.575819766614586E-4  
 2.266000000000000E10    2.589463838376105E-4   1.196739962324500E-3  
 2.268000000000000E10    9.352414053864777E-4  -5.425455165095627E-4  
 2.270000000000000E10    9.622105280868709E-4  -1.253335154615343E-3  
 2.272000000000000E10   -6.044861511327326E-4  -7.586188530694926E-6  
 2.274000000000000E10    6.682630046270788E-4  -9.524962661089376E-5  
 2.276000000000000E10    1.126596704125404E-3  -1.702441113593523E-5  
 2.278000000000000E10   -1.467199908802286E-4  -4.567073192447424E-4  
 2.280000000000000E10    3.821625432465226E-4   5.043498822487891E-4  
 2.282000000000000E10    6.501093739643693E-4   2.878542582038790E-4  
 2.284000000000000E10   -3.505478380247951E-4  -5.955631495453417E-4  
 2.286000000000000E10   -7.058606133796275E-4  -1.751871022861451E-4  
 2.288000000000000E10    5.249915993772447E-4   9.128727833740413E-4  
 2.290000000000000E10    3.849667555186898E-4  -9.568351088091731E-4  
 2.292000000000000E10    9.804648288991302E-5  -1.532151829451323E-3  
 2.294000000000000E10   -1.280330354347825E-3   6.392470095306635E-4  
 2.296000000000000E10    2.168418432120234E-4   5.815658369101584E-4  
 2.298000000000000E10    1.220614998601377E-3  -2.304645704498398E-6  
 2.300000000000000E10   -2.516540989745408E-4  -7.648195023648441E-4  
 2.302000000000000E10   -1.102205016650260E-3  -4.005685332231224E-5  
 2.304000000000000E10    1.124986083596014E-4   7.057695765979588E-4  
 2.306000000000000E10   -7.922464283183217E-5   6.338534294627607E-4  
 2.308000000000000E10   -2.256163679703604E-5  -4.899748018942773E-4  
 2.310000000000000E10   -2.302180218975991E-4   2.467131998855621E-4  
 2.312000000000000E10   -3.195885801687837E-4  -1.293563545914367E-4  
 2.314000000000000E10   -1.799504680093378E-4  -3.854397800751030E-4  
 2.316000000000000E10   -4.750550724565983E-4   4.011403943877667E-4  
 2.318000000000000E10    7.392304250970483E-4   4.363869666121900E-4  
 2.320000000000000E10    1.149501884356141E-3  -6.368195172399283E-4  
 2.322000000000000E10    6.022351226420142E-5  -4.314634716138244E-4  
 2.324000000000000E10   -9.184479131363332E-4   4.124485421925783E-4  
 2.326000000000000E10    1.079711830243468E-3   1.238878816366196E-3  
 2.328000000000000E10    1.006135134957731E-3   5.344992387108505E-4  
 2.330000000000000E10    1.341284805675969E-4  -1.119012944400311E-3  
 2.332000000000000E10    9.354668873129413E-5   9.201857610605657E-4  
 2.334000000000000E10   -1.614098873687908E-4   6.030898657627404E-4  
 2.336000000000000E10    2.718658070079982E-4  -2.388771972618997E-4  
 2.338000000000000E10    8.906687435228378E-5   3.567320527508855E-4  
 2.340000000000000E10    1.668415497988462E-4   4.652837815228850E-4  
 2.342000000000000E10    6.005016621202231E-4  -1.094089238904417E-3  
 2.344000000000000E10    4.694947274401784E-4  -6.538942689076066E-4  
 2.346000000000000E10   -7.129784207791090E-4   5.161572480574250E-4  
 2.348000000000000E10    1.292274915613234E-3   2.339794882573187E-4  
 2.350000000000000E10    1.047086436301470E-3   2.261853369418532E-4  
 2.352000000000000E10   -5.650998209603131E-4  -8.385107503272593E-4  
 2.354000000000000E10   -3.508470254018903E-4   6.816456443630159E-4  
 2.356000000000000E10    1.574088382767513E-4   9.928694926202297E-4  
 2.358000000000000E10    1.345843338640407E-4  -5.598288262262940E-4  
 2.360000000000000E10   -2.127869520336390E-4  -1.845160004450008E-4  
 2.362000000000000E10   -4.249943885952234E-4   7.013540598563850E-4  
 2.364000000000000E10    3.383033617865294E-4  -2.634919364936650E-4  
 2.366000000000000E10    1.308227656409144E-4   7.222691783681512E-5  
 2.368000000000000E10    9.839660197030753E-5   1.929518475662917E-4  
 2.370000000000000E10    8.762285578995943E-4  -4.317682760301977E-4  
 2.372000000000000E10    4.706529216491617E-5  -3.896080597769469E-4  
 2.374000000000000E10   -4.434584116097540E-5   1.553198962938041E-4  
 2.376000000000000E10    7.652810309082270E-4   6.547031807713211E-4  
 2.378000000000000E10    8.811914012767375E-4   3.603281802497804E-4  
 2.380000000000000E10   -1.063024610630237E-4  -5.639571463689208E-4  
 2.382000000000000E10   -5.496583180502057E-4  -1.388845994370058E-4  
 2.384000000000000E10   -8.756283205002546E-4   1.136009348556399E-3  
 2.386000000000000E10    6.215584580786526E-4   3.321271797176451E-4  
 2.388000000000000E10    5.980753339827061E-4  -1.152917160652578E-3  
 2.390000000000000E10   -8.341780630871654E-4  -1.401042798534036E-3  
 2.392000000000000E10   -8.991044014692307E-4  -1.367554359603673E-4  
 2.394000000000000E10    4.904454690404236E-4   6.139258621260524E-4  
 2.396000000000000E10    8.915162179619074E-4  -4.569524753605947E-5  
 2.398000000000000E10    6.908638169988990E-4  -1.148157869465649E-3  
 2.400000000000000E10   -5.076990928500891E-4  -5.851323367096484E-4  
 2.402000000000000E10   -1.131599419750273E-3   4.565080162137747E-4  
 2.404000000000000E10    1.167276714113541E-4   7.019301410764456E-4  
 2.406000000000000E10    4.408697132021189E-4   5.388609715737402E-4  
 2.408000000000000E10    1.224299194291234E-4  -5.488225142471492E-4  
 2.410000000000000E10   -5.920930416323245E-4  -9.439131827093661E-4  
 2.412000000000000E10   -1.545007224194706E-3   2.143556339433417E-4  
 2.414000000000000E10   -7.168902084231377E-4   7.222680724225938E-4  
 2.416000000000000E10    1.325059449300170E-3   4.079822101630271E-4  
 2.418000000000000E10    4.009800322819501E-4  -9.443779708817601E-4  
 2.420000000000000E10   -9.346098522655666E-4  -1.198703888803721E-3  
 2.422000000000000E10   -1.052805338986218E-3   1.212682342156768E-3  
 2.424000000000000E10    3.991783596575260E-4   1.208844245411456E-3  
 2.426000000000000E10    9.181234636344016E-4  -2.094444498652592E-4  
 2.428000000000000E10    2.040159597527236E-4  -1.101304587791674E-4  
 2.430000000000000E10   -1.347813871689141E-3   3.516932483762503E-4  
 2.432000000000000E10   -5.941421259194613E-4   6.613582954742014E-4  
 2.434000000000000E10    2.622508618514985E-4   1.358293346129358E-3  
 2.436000000000000E10    4.748052379000001E-5  -3.283077676314861E-4  
 2.438000000000000E10    2.797211636789143E-4  -5.624234909191728E-4  
 2.440000000000000E10   -4.192750784568489E-4   3.537198936101049E-4  
 2.442000000000000E10   -1.071399383363314E-4   1.412103483744431E-5  
 2.444000000000000E10    1.189630012959242E-3   4.715679970104247E-4  
 2.446000000000000E10    7.197220693342388E-4  -8.378366328543052E-5  
 2.448000000000000E10   -4.190963954897597E-5  -3.254320763517171E-4  
 2.450000000000000E10   -2.610655792523176E-4   6.018537678755820E-4  
 2.452000000000000E10   -2.808040881063789E-4   9.815748780965805E-4  
 2.454000000000000E10    6.570174009539187E-4   1.253706141142175E-4  
 2.456000000000000E10    3.881992015521973E-4  -5.833958857692778E-4  
 2.458000000000000E10   -1.027075690217316E-3  -8.390250150114298E-4  
 2.460000000000000E10   -5.904521094635129E-4  -3.950716563849710E-5  
 2.462000000000000E10    7.330725784413517E-4   6.832053768448532E-4  
 2.464000000000000E10    9.613983565941453E-4  -7.602686528116465E-4  
 2.466000000000000E10    4.417338641360402E-4  -6.104917847551405E-4  
 2.468000000000000E10   -4.758137220051140E-4  -8.812633313937113E-5  
 2.470000000000000E10    2.010984171647579E-4   6.864940514788032E-4  
 2.472000000000000E10    4.735414404422045E-4   8.578673587180674E-4  
 2.474000000000000E10    1.095855259336531E-4   2.098608092637733E-5  
 2.476000000000000E10   -1.928045094246045E-4  -7.690737838856876E-4  
 2.478000000000000E10   -5.171518423594534E-4   3.212186857126653E-5  
 2.480000000000000E10   -1.287180464714766E-3  -1.440648047719151E-4  
 2.482000000000000E10    3.411014040466398E-4  -3.236078773625195E-4  
 2.484000000000000E10    6.430424982681871E-4   7.461341010639444E-5  
 2.486000000000000E10    5.748622697865358E-6  -1.136748236604035E-3  
 2.488000000000000E10   -3.282024990767241E-4  -3.644911339506507E-4  
 2.490000000000000E10   -5.024159909226000E-4   7.272253860719502E-4  
 2.492000000000000E10   -1.929425052367151E-4   1.606641308171675E-4  
 2.494000000000000E10    3.178363840561360E-4   1.165388021036051E-4  
 2.496000000000000E10   -4.661982238758355E-4   8.435088966507465E-5  
 2.498000000000000E10   -6.038823048584163E-4  -5.865664570592344E-4  
 2.500000000000000E10   -2.982626610901207E-4   5.602488527074456E-4  
 2.502000000000000E10   -4.133264010306448E-4   4.743626050185412E-4  
 2.504000000000000E10    2.738342300290242E-5  -2.750133862718940E-4  
 2.506000000000000E10   -1.732948658172973E-5  -5.139757195138373E-5  
 2.508000000000000E10   -3.647137200459838E-4  -8.836683264235035E-5  
 2.510000000000000E10   -2.944837033282965E-4  -8.071401680354029E-5  
 2.512000000000000E10    2.259995817439631E-4   5.575795657932758E-4  
 2.514000000000000E10    2.628870133776218E-4   9.479938307777047E-5  
 2.516000000000000E10    3.509814268909395E-4  -6.403030129149556E-4  
 2.518000000000000E10   -3.659929789137095E-4   3.629595448728651E-4  
 2.520000000000000E10   -2.023994456976652E-4   2.279158215969801E-4  
 2.522000000000000E10    5.802041268907487E-4   1.472969597671181E-4  
 2.524000000000000E10   -1.624870201339945E-4   1.348689256701618E-4  
 2.526000000000000E10   -4.346227506175637E-4  -3.496727149467915E-4  
 2.528000000000000E10    2.308529219590128E-4   1.850566186476499E-4  
 2.530000000000000E10   -2.669512177817524E-4   5.625115009024739E-4  
 2.532000000000000E10    2.151111548300833E-4  -5.166060873307288E-4  
 2.534000000000000E10    6.573871360160410E-4  -1.101729794754647E-4  
 2.536000000000000E10   -3.412182850297540E-4   4.699771307059564E-5  
 2.538000000000000E10    4.220405826345086E-4  -1.098913780879229E-4  
 2.540000000000000E10    2.422211400698870E-4   6.274337647482753E-4  
 2.542000000000000E10   -8.536066161468625E-5   3.088426310569048E-4  
 2.544000000000000E10    4.178681410849094E-4  -1.789435627870262E-4  
 2.546000000000000E10   -3.072153485845774E-4  -1.867189275799319E-4  
 2.548000000000000E10   -8.180915028788149E-4   4.861220804741606E-5  
 2.550000000000000E10    2.309506671736017E-4   1.751975505612791E-4  
 2.552000000000000E10    2.797025372274220E-4  -4.368042937130667E-5  
 2.554000000000000E10   -9.754949132911861E-5  -3.095170541200787E-4  
 2.556000000000000E10    2.156965347239748E-4   5.966669777990319E-5  
 2.558000000000000E10   -6.080844468669966E-5   6.811525672674179E-4  
 2.560000000000000E10    9.153130667982623E-5   1.417162857251242E-4  
 2.562000000000000E10    3.475760167930275E-4   3.250504669267684E-4  
 2.564000000000000E10   -6.272139144130051E-4   1.250572531716898E-4  
 2.566000000000000E10    4.698333577835001E-5   3.796316159423441E-4  
 2.568000000000000E10    4.851349149248563E-5   3.898855065926909E-4  
 2.570000000000000E10   -8.231386891566217E-5  -2.973924274556339E-4  
 2.572000000000000E10    1.916559267556295E-4   3.846178879030049E-4  
 2.574000000000000E10    4.692317161243409E-4   6.325987051241100E-4  
 2.576000000000000E10    5.285649094730616E-4   1.154560013674200E-4  
 2.578000000000000E10    2.380085497861728E-4   1.697642437648028E-4  
 2.580000000000000E10    9.807799506234005E-5   6.999220931902528E-4  
 2.582000000000000E10    1.015979069052264E-4   1.252771180588752E-4  
 2.584000000000000E10    7.261126302182674E-4  -8.129783964250237E-5  
 2.586000000000000E10    5.430424062069506E-5   4.689722845796496E-4  
 2.588000000000000E10    2.672656264621764E-4  -3.218399069737643E-4  
 2.590000000000000E10    8.444905397482216E-4   1.782270919647999E-5  
 2.592000000000000E10    1.752671087160707E-4  -8.366198017029092E-5  
 2.594000000000000E10    3.781632403843105E-4  -3.219595819246024E-4  
 2.596000000000000E10    7.312775705941021E-4   8.700314210727811E-4  
 2.598000000000000E10    2.575135440565646E-4   1.902848016470671E-4  
 2.600000000000000E10    7.040600030450150E-5  -8.201039745472372E-4  
 2.602000000000000E10   -2.871308533940464E-4   2.880761458072811E-4  
 2.604000000000000E10   -1.112507088691928E-4   3.337513480801135E-4  
 2.606000000000000E10    1.037554349750280E-3  -1.027519232593477E-3  
 2.608000000000000E10    2.489984581188764E-5  -4.132708709221333E-4  
 2.610000000000000E10    3.263299367972650E-5  -2.443832636345178E-4  
 2.612000000000000E10    1.014789217151702E-3   1.964542898349464E-4  
 2.614000000000000E10    3.285227285232395E-4   1.340939634246752E-4  
 2.616000000000000E10   -1.872032444225624E-4  -4.227958852425218E-4  
 2.618000000000000E10   -3.321301483083516E-4   1.674746017670259E-4  
 2.620000000000000E10   -2.318455080967397E-4  -2.119386772392318E-4  
 2.622000000000000E10   -1.473624870413914E-4  -7.158780936151743E-4  
 2.624000000000000E10    3.659428693936206E-5  -3.403583250474185E-4  
 2.626000000000000E10   -7.026405364740640E-5  -2.790401631500572E-4  
 2.628000000000000E10    5.447524599730969E-4  -4.417870077304542E-4  
 2.630000000000000E10   -4.039239720441401E-4  -6.992807175265625E-5  
 2.632000000000000E10   -6.208843551576138E-4  -2.607646456453949E-4  
 2.634000000000000E10    4.110522277187556E-4   7.913252193247899E-5  
 2.636000000000000E10   -2.418588410364464E-4  -3.158771432936192E-4  
 2.638000000000000E10   -9.310811292380095E-4  -1.414148282492533E-4  
 2.640000000000000E10   -2.825932751875371E-4   2.550201606936753E-4  
 2.642000000000000E10    2.647037908900529E-4   8.948229515226558E-5  
 2.644000000000000E10   -3.402517759241164E-4  -5.111940554343164E-4  
 2.646000000000000E10   -2.283154026372358E-4  -6.739380478393287E-5  
 2.648000000000000E10   -6.787745514884591E-4   2.291648706886917E-4  
 2.650000000000000E10   -4.336148413131014E-5  -1.447915565222502E-4  
 2.652000000000000E10   -5.558762350119650E-4   8.152561349561438E-5  
 2.654000000000000E10   -1.120313769206405E-3   1.819212229747791E-6  
 2.656000000000000E10   -6.849335040897131E-4   3.570601984392852E-4  
 2.658000000000000E10   -5.100010894238949E-4  -2.372213202761486E-5  
 2.660000000000000E10   -7.371282554231584E-4  -1.894564338726923E-4  
 2.662000000000000E10   -6.521850009448826E-4   1.323647156823427E-4  
 2.664000000000000E10   -7.440793706336990E-5   2.470604085829109E-4  
 2.666000000000000E10   -2.864419075194746E-4  -1.537296193419024E-4  
 2.668000000000000E10   -5.865485873073340E-4   5.673812702298164E-4  
 2.670000000000000E10   -4.877495521213859E-4   1.095804153010249E-3  
 2.672000000000000E10   -6.391252100002021E-5   2.843688416760415E-4  
 2.674000000000000E10   -5.676903529092670E-4   4.710381326731294E-4  
 2.676000000000000E10   -9.216215694323182E-4   7.323234458453953E-4  
 2.678000000000000E10   -6.192000728333369E-5   4.449324042070657E-4  
 2.680000000000000E10    4.594704078044742E-4   2.142534067388624E-4  
 2.682000000000000E10   -1.709870412014425E-4  -2.465482975821942E-4  
 2.684000000000000E10   -9.238174970960245E-5   1.776071003405377E-4  
 2.686000000000000E10    3.187074908055365E-4   6.775865331292152E-4  
 2.688000000000000E10    4.216257366351783E-4   3.200371575076133E-4  
 2.690000000000000E10    4.259625857230276E-4   1.413780701113865E-4  
 2.692000000000000E10    1.011749845929444E-4   5.905951256863773E-4  
 2.694000000000000E10    1.562836696393788E-4   2.164809120586142E-4  
 2.696000000000000E10    2.292323624715209E-4  -1.831670524552465E-4  
 2.698000000000000E10   -4.156580325798132E-5   4.504511889535934E-4  
 2.700000000000000E10    4.967903951182962E-4  -1.883170771179721E-4  
 2.702000000000000E10    7.631484186276794E-4  -7.727859192527831E-4  
 2.704000000000000E10    4.793660991708748E-5  -3.582111967261881E-4  
 2.706000000000000E10    5.245788488537073E-4   3.265357372583821E-5  
 2.708000000000000E10    1.069669844582677E-3   3.786213055718690E-4  
 2.710000000000000E10    7.067814585752785E-4  -9.337574738310650E-6  
 2.712000000000000E10    4.339183215051889E-4  -7.979627116583288E-5  
 2.714000000000000E10    5.098784458823502E-4   2.056773082586005E-4  
 2.716000000000000E10    2.991193032357842E-4   1.031255233101547E-4  
 2.718000000000000E10    4.499098868109286E-4  -1.404643408022821E-4  
 2.720000000000000E10    1.163758934126236E-4  -3.659330541267991E-4  
 2.722000000000000E10   -9.176506137009710E-5  -6.043541943654418E-4  
 2.724000000000000E10    1.728904462652281E-4  -4.189413739368320E-4  
 2.726000000000000E10    3.428983036428690E-4  -5.799087812192738E-4  
 2.728000000000000E10    5.850761663168669E-4  -6.217316840775311E-4  
 2.730000000000000E10    6.055058911442757E-4  -3.769489121623337E-4  
 2.732000000000000E10    2.235850843135268E-4  -5.961690912954509E-4  
 2.734000000000000E10    1.871381973614916E-4  -5.159151623956859E-5  
 2.736000000000000E10    3.051958919968456E-4   5.871229404874612E-6  
 2.738000000000000E10    2.596397534944117E-4  -2.200810849899426E-4  
 2.740000000000000E10   -1.869600528152660E-4  -7.822709740139544E-4  
 2.742000000000000E10   -3.541269397828728E-4  -4.211165360175073E-4  
 2.744000000000000E10   -4.241269489284605E-4  -3.269859298598021E-4  
 2.746000000000000E10    4.074187309015542E-4  -6.794113869545981E-5  
 2.748000000000000E10    3.519580350257456E-4  -3.966446965932846E-4  
 2.750000000000000E10    3.025156911462545E-4  -7.256304379552603E-4  
 2.752000000000000E10   -3.433714155107737E-4   2.295125741511583E-4  
 2.754000000000000E10   -3.185643290635198E-4   4.136310308240354E-4  
 2.756000000000000E10    2.800771198963048E-6   8.328915282618254E-5  
