#  HZ   S   RI   R     50.00 
! Rohde & Schwarz ZVA40 4Ports - Version 3.90 - 1145.1110k42 SN: 100403
! Date: 2023-10-04 09:34:54
! Measurement: S12 
! 
 2.200000000000000E10    8.821026131045073E-5   7.917949114926159E-4  
 2.202000000000000E10    1.297027571126819E-3  -1.361850998364389E-3  
 2.204000000000000E10   -8.270354592241347E-4  -7.996424683369696E-4  
 2.206000000000000E10   -2.341284853173420E-4   6.454787217080593E-4  
 2.208000000000000E10    1.124253962188959E-3   5.014610360376537E-4  
 2.210000000000000E10    1.560579694341868E-4  -1.497223274782300E-3  
 2.212000000000000E10   -1.245623803697527E-3   3.937866422347724E-4  
 2.214000000000000E10   -4.295781400287524E-5   6.410754867829382E-4  
 2.216000000000000E10    9.827378671616316E-4  -2.150996588170528E-4  
 2.218000000000000E10   -7.272391812875867E-4  -1.680801738984883E-3  
 2.220000000000000E10   -1.157472026534379E-3   3.198111662641168E-4  
 2.222000000000000E10    2.083658328047022E-4   6.685034022666514E-4  
 2.224000000000000E10    1.270671607926488E-3  -8.000911329872906E-4  
 2.226000000000000E10   -6.651743897236884E-4  -1.151742646470666E-3  
 2.228000000000000E10   -2.568701747804880E-4   1.111290068365634E-3  
 2.230000000000000E10    6.278323126025498E-4   8.602584130130708E-4  
 2.232000000000000E10    9.833788499236107E-4  -1.242315862327814E-3  
 2.234000000000000E10   -1.200128230266273E-3   4.497944610193372E-4  
 2.236000000000000E10   -1.465044915676117E-4   1.064185402356088E-3  
 2.238000000000000E10    8.275855798274279E-4   4.366727662272751E-4  
 2.240000000000000E10   -4.922493826597929E-4  -1.119233667850494E-3  
 2.242000000000000E10   -1.154226949438453E-3   8.357624756172299E-4  
 2.244000000000000E10    5.060685798525810E-4   1.129874959588051E-3  
 2.246000000000000E10    1.471850904636085E-3  -3.983179631177336E-4  
 2.248000000000000E10   -6.622023647651076E-4  -1.065445365384221E-3  
 2.250000000000000E10   -4.239300615154207E-4   1.430273172445595E-3  
 2.252000000000000E10    1.035512075759471E-3   1.449927221983671E-3  
 2.254000000000000E10    1.226609922014177E-3  -1.283600140595809E-4  
 2.256000000000000E10   -6.531702238135040E-4   9.729633893584833E-5  
 2.258000000000000E10   -1.627799356356263E-4   1.222360529936850E-3  
 2.260000000000000E10    3.986507945228368E-4   6.083937478251755E-4  
 2.262000000000000E10   -4.658960970118642E-4  -2.489277103450149E-4  
 2.264000000000000E10   -5.345997633412480E-4   4.068407579325140E-4  
 2.266000000000000E10    4.978235810995102E-4   9.152123820967972E-4  
 2.268000000000000E10    1.034473651088774E-3  -6.328683812171221E-4  
 2.270000000000000E10    3.446123446337879E-5  -5.138273118063808E-4  
 2.272000000000000E10   -8.740965276956558E-4   1.225051470100880E-3  
 2.274000000000000E10    1.607901765964925E-3   1.442739390768111E-3  
 2.276000000000000E10    1.573480083607137E-3   1.558011572342366E-4  
 2.278000000000000E10   -9.064358891919255E-4  -5.983354640193284E-4  
 2.280000000000000E10   -8.302611531689763E-4   8.437595679424703E-4  
 2.282000000000000E10    1.702046865830198E-4   1.238488242961466E-3  
 2.284000000000000E10    3.772724012378603E-4  -8.398928330279887E-4  
 2.286000000000000E10    6.223699165275320E-5  -1.055916771292687E-3  
 2.288000000000000E10    5.164978210814297E-4   7.754022371955216E-4  
 2.290000000000000E10    6.692938623018563E-4  -5.475990474224091E-4  
 2.292000000000000E10    7.903365185484290E-4  -3.871130757033825E-4  
 2.294000000000000E10   -3.341051342431456E-4   1.033687382005155E-3  
 2.296000000000000E10    6.856507970951498E-4   2.988797787111253E-4  
 2.298000000000000E10    6.272412138059735E-4  -5.366601399146020E-4  
 2.300000000000000E10   -1.039210939779878E-3  -3.865975013468415E-4  
 2.302000000000000E10   -7.587131694890559E-4   2.443239500280470E-4  
 2.304000000000000E10    7.592115434817970E-4  -6.303623376879841E-5  
 2.306000000000000E10   -2.312648721272126E-4  -1.123744528740645E-3  
 2.308000000000000E10   -6.259276415221393E-4  -1.222975202836096E-3  
 2.310000000000000E10   -3.703522670548409E-4   4.857931053265929E-4  
 2.312000000000000E10    5.183983594179153E-4   9.982161282096058E-5  
 2.314000000000000E10    7.980305817909539E-4  -6.847684853710234E-4  
 2.316000000000000E10   -6.595661398023367E-4   7.542175444541499E-5  
 2.318000000000000E10   -4.349409136921167E-4   7.998161017894745E-4  
 2.320000000000000E10    3.555278817657381E-4   1.078286950360052E-4  
 2.322000000000000E10   -6.426066393032670E-4   1.600647519808263E-4  
 2.324000000000000E10   -9.427734767086804E-4   3.273431502748281E-5  
 2.326000000000000E10    5.898145609535277E-4  -8.736020390642807E-5  
 2.328000000000000E10   -3.138429310638458E-4  -1.099751389119774E-4  
 2.330000000000000E10   -4.570368328131735E-4  -3.852738300338388E-4  
 2.332000000000000E10    4.231477505527437E-4   1.014439854770899E-3  
 2.334000000000000E10    2.709489781409502E-4   9.637193579692394E-5  
 2.336000000000000E10    1.371285034110770E-4  -5.896417424082756E-4  
 2.338000000000000E10   -9.423405863344669E-4   3.507655346766114E-4  
 2.340000000000000E10   -7.717912085354328E-4   1.156646059826016E-3  
 2.342000000000000E10    9.160012123174965E-4   2.672695554792881E-4  
 2.344000000000000E10    4.769230436068028E-4   5.374227112042718E-5  
 2.346000000000000E10   -1.153296441771090E-3  -5.302128920448013E-5  
 2.348000000000000E10    2.862803812604398E-4   2.736370661295950E-4  
 2.350000000000000E10   -1.583363628014922E-4   8.284953073598445E-4  
 2.352000000000000E10   -2.954249212052673E-4   2.497187524568290E-4  
 2.354000000000000E10    6.566282827407122E-4   6.258695502765477E-4  
 2.356000000000000E10    1.994333870243281E-4  -1.905905519379303E-4  
 2.358000000000000E10   -5.693650455214083E-4  -8.326573879458010E-4  
 2.360000000000000E10   -7.123310933820903E-4   5.156539264135063E-4  
 2.362000000000000E10   -1.291588996537030E-4   1.472719362936914E-3  
 2.364000000000000E10    8.242782787419856E-4  -1.497534685768187E-4  
 2.366000000000000E10    5.813954048790038E-4  -8.939206018112600E-4  
 2.368000000000000E10   -1.027745776809752E-3   1.646477612666786E-4  
 2.370000000000000E10    2.484373981133103E-4   1.036260393448174E-3  
 2.372000000000000E10    7.927323458716273E-4   9.950939565896988E-4  
 2.374000000000000E10    5.676746950484812E-4   4.214203509036452E-4  
 2.376000000000000E10    6.679978832835332E-5  -1.094701019610511E-5  
 2.378000000000000E10   -6.235623150132597E-4   4.194133507553488E-4  
 2.380000000000000E10   -8.560956921428442E-4  -2.575787948444486E-5  
 2.382000000000000E10    4.090473521500826E-4   6.831568898633122E-4  
 2.384000000000000E10    7.045998936519027E-4  -9.480497101321816E-5  
 2.386000000000000E10    3.080368333030492E-4  -1.443695742636919E-3  
 2.388000000000000E10   -1.641333365114406E-4  -5.068400059826672E-4  
 2.390000000000000E10   -5.007061645301292E-6   3.718980296980590E-4  
 2.392000000000000E10    7.696468965150416E-4   8.305071387439966E-4  
 2.394000000000000E10    1.466768910177052E-3  -1.108632641262375E-4  
 2.396000000000000E10   -3.450194781180471E-4  -5.858006188645959E-4  
 2.398000000000000E10   -9.194840677082539E-4  -1.734622492222115E-4  
 2.400000000000000E10    1.261277247976977E-6   1.039890805259347E-3  
 2.402000000000000E10    2.373772440478206E-4  -8.418522193096578E-4  
 2.404000000000000E10    2.667134103830904E-4  -1.533376285806298E-3  
 2.406000000000000E10   -1.028268365189433E-3  -8.467758307233453E-4  
 2.408000000000000E10   -9.862753358902410E-5  -1.153209668700583E-4  
 2.410000000000000E10    1.010795356705785E-3  -3.992360143456608E-5  
 2.412000000000000E10    1.037633977830410E-3  -8.843431132845581E-4  
 2.414000000000000E10    1.410561708325986E-6  -1.402956317178905E-3  
 2.416000000000000E10   -6.180591881275177E-4  -9.765035065356642E-5  
 2.418000000000000E10   -7.187286391854286E-4   1.188817201182246E-3  
 2.420000000000000E10    1.899099006550387E-4  -7.575784547952935E-5  
 2.422000000000000E10    9.294474148191512E-5  -4.138403164688498E-4  
 2.424000000000000E10   -7.768338546156883E-4  -5.911019979976118E-4  
 2.426000000000000E10   -6.886614137329161E-4  -5.057217786088586E-4  
 2.428000000000000E10   -9.091052343137562E-4   6.713645998388529E-4  
 2.430000000000000E10    2.937576209660620E-4   4.642914573196322E-4  
 2.432000000000000E10    1.073306426405907E-3  -1.044380711391568E-3  
 2.434000000000000E10   -5.889144958928227E-4  -9.874216048046947E-4  
 2.436000000000000E10   -1.603035256266594E-3   4.459308547666296E-5  
 2.438000000000000E10    2.928016183432192E-4   1.197076519019902E-3  
 2.440000000000000E10    1.073317718692124E-3   1.005215221084654E-3  
 2.442000000000000E10    2.558884152676910E-4  -1.222033286467195E-3  
 2.444000000000000E10   -4.829360404983163E-4  -6.407576147466898E-4  
 2.446000000000000E10   -1.217362820170820E-3   1.028043800033629E-3  
 2.448000000000000E10    1.540248194942251E-4   8.831009618006647E-4  
 2.450000000000000E10    7.854296709410846E-4   3.842865407932550E-4  
 2.452000000000000E10    1.193841962958686E-4  -4.227653553243727E-4  
 2.454000000000000E10   -3.340451512485743E-4  -5.925697041675448E-4  
 2.456000000000000E10   -1.666090829530731E-4   4.180110991001129E-4  
 2.458000000000000E10    7.228556205518544E-5   7.208710885606706E-4  
 2.460000000000000E10    9.695628541521728E-4  -5.119466368341819E-5  
 2.462000000000000E10    9.524968918412924E-4   3.137081221211702E-4  
 2.464000000000000E10   -4.392827686388046E-4  -3.403565497137606E-4  
 2.466000000000000E10   -2.877966035157442E-4   5.266965599730611E-4  
 2.468000000000000E10   -9.091320680454373E-5   8.652013493701816E-4  
 2.470000000000000E10    6.996598094701767E-4  -3.646438999567181E-4  
 2.472000000000000E10   -2.049434551736340E-4  -6.917534046806395E-4  
 2.474000000000000E10   -4.152611363679171E-4  -5.189513904042542E-4  
 2.476000000000000E10    1.920138020068407E-4  -1.849506807047874E-4  
 2.478000000000000E10    9.489684598520398E-4  -4.807616060134023E-4  
 2.480000000000000E10    4.829264653380960E-4  -7.401406182907522E-4  
 2.482000000000000E10    1.326566853094846E-4  -5.190469673834741E-4  
 2.484000000000000E10    3.054745684494264E-5   5.054387729614973E-4  
 2.486000000000000E10   -5.821351805934683E-5   8.561131835449487E-5  
 2.488000000000000E10   -2.110689638357144E-5  -2.885104913730174E-4  
 2.490000000000000E10   -4.700758145190775E-4  -1.418902975274250E-4  
 2.492000000000000E10   -3.741540422197431E-4  -6.598451291210949E-4  
 2.494000000000000E10   -1.491096627432853E-4  -8.766543469391763E-4  
 2.496000000000000E10   -2.587763883639127E-4  -6.707692955387756E-5  
 2.498000000000000E10    5.895238718949258E-4  -4.252761718817055E-4  
 2.500000000000000E10    8.374875760637224E-4  -4.207677848171443E-4  
 2.502000000000000E10   -8.737971074879170E-5  -7.422355702146888E-4  
 2.504000000000000E10    4.426039959071204E-5   1.029978284350364E-5  
 2.506000000000000E10    2.686946536414325E-4   7.606387953273952E-4  
 2.508000000000000E10    6.443658639909700E-5  -9.142193448496983E-5  
 2.510000000000000E10   -3.492068208288401E-4  -6.488707731477916E-4  
 2.512000000000000E10   -5.251227412372828E-4  -1.954685285454616E-4  
 2.514000000000000E10   -4.552863538265228E-4  -1.954904728336260E-4  
 2.516000000000000E10    1.955495245056227E-4  -4.540725785773248E-4  
 2.518000000000000E10    2.089003683067858E-4   1.079291614587419E-4  
 2.520000000000000E10    2.195149863837287E-4  -7.354792905971408E-4  
 2.522000000000000E10    2.125695318682119E-4  -3.300964017398655E-4  
 2.524000000000000E10   -5.541137070395052E-4   2.356531767873094E-4  
 2.526000000000000E10   -7.850621477700770E-5   1.417221355950460E-4  
 2.528000000000000E10    7.969587459228933E-4   4.484371456783265E-4  
 2.530000000000000E10    2.264038485009223E-4   2.972964648506604E-5  
 2.532000000000000E10   -4.066005931235850E-4  -2.720146731007844E-4  
 2.534000000000000E10   -2.090813268296188E-6   6.448713247664273E-4  
 2.536000000000000E10    8.807606354821473E-5   2.750566054601222E-4  
 2.538000000000000E10    2.437314979033545E-4  -1.590614556334913E-4  
 2.540000000000000E10   -5.299714975990355E-4   8.643228647997603E-5  
 2.542000000000000E10   -4.061104555148631E-4  -1.672366124694236E-5  
 2.544000000000000E10    2.519284025765955E-4  -3.197132173227146E-5  
 2.546000000000000E10    2.816554915625602E-4  -5.515943121281453E-5  
 2.548000000000000E10   -1.099547953344882E-4  -4.189180908724666E-4  
 2.550000000000000E10    4.915154422633350E-4  -2.309695119038224E-4  
 2.552000000000000E10    1.730283402139321E-4   7.053888984955847E-4  
 2.554000000000000E10   -1.134623453253880E-4   2.767247679003049E-5  
 2.556000000000000E10    3.438928106334060E-4   5.181432934477925E-4  
 2.558000000000000E10   -3.987053642049432E-4   2.104613377014175E-4  
 2.560000000000000E10   -3.084460040554404E-4   5.987197710055625E-6  
 2.562000000000000E10   -3.576200688257814E-4   4.983398830518127E-4  
 2.564000000000000E10   -2.394008915871382E-4   7.753469253657386E-5  
 2.566000000000000E10    2.113052614731714E-4  -3.847644256893545E-4  
 2.568000000000000E10    1.784353516995907E-4  -1.435419253539294E-4  
 2.570000000000000E10    1.012386783258990E-4   3.654075553640723E-4  
 2.572000000000000E10    2.962061844300479E-4   2.500303671695292E-4  
 2.574000000000000E10   -1.444881127099507E-5   6.902388995513320E-4  
 2.576000000000000E10   -1.496884578955360E-6   4.422703932505101E-4  
 2.578000000000000E10   -2.067486821033526E-5   1.993310579564422E-4  
 2.580000000000000E10   -6.170544656924903E-4   4.613113414961845E-4  
 2.582000000000000E10   -1.718867424642667E-4   1.955594925675541E-4  
 2.584000000000000E10    4.126639687456191E-4  -4.208547761663795E-4  
 2.586000000000000E10    1.287790200876771E-5  -4.621896005119197E-5  
 2.588000000000000E10    1.797993900254369E-4   2.869620511773974E-4  
 2.590000000000000E10    1.003894023597240E-3   2.004410489462316E-4  
 2.592000000000000E10    3.539869794622064E-4   1.901267823996022E-4  
 2.594000000000000E10    1.467279798816890E-4   7.138011278584600E-5  
 2.596000000000000E10   -4.814492785953917E-5   4.209086473565549E-4  
 2.598000000000000E10   -9.988346573663876E-5   2.050603943644092E-4  
 2.600000000000000E10    1.682653091847897E-4   2.704267535591498E-5  
 2.602000000000000E10    2.588717907201499E-4  -3.212342562619597E-4  
 2.604000000000000E10   -1.898178015835583E-4  -3.419657878112048E-4  
 2.606000000000000E10    5.726247327402234E-4  -4.683978040702641E-4  
 2.608000000000000E10    4.474525048863143E-4   2.880780084524304E-4  
 2.610000000000000E10    1.527878048364073E-4   5.136213076184504E-6  
 2.612000000000000E10    6.105033098720014E-4   1.605367287993431E-5  
 2.614000000000000E10   -3.164958616252989E-4  -1.244947488885373E-4  
 2.616000000000000E10   -4.054246819578111E-4  -4.178394447080791E-4  
 2.618000000000000E10    1.569993037264794E-4   1.096593623515219E-4  
 2.620000000000000E10    4.541355010587722E-4  -3.624857927206904E-4  
 2.622000000000000E10    3.982769558206201E-4  -9.227968403138220E-4  
 2.624000000000000E10    2.293151919730008E-4  -9.618046169634908E-5  
 2.626000000000000E10   -8.687190711498261E-5   4.570465243887156E-4  
 2.628000000000000E10    6.562115158885717E-4  -2.294139121659100E-4  
 2.630000000000000E10    2.396482159383595E-4   2.834243350662291E-4  
 2.632000000000000E10   -5.062124691903591E-4  -2.796940098050982E-4  
 2.634000000000000E10    2.274451398989186E-4   2.159790892619640E-4  
 2.636000000000000E10   -8.407291898038238E-5   5.822160164825618E-5  
 2.638000000000000E10   -1.992762117879465E-4  -6.848051561973989E-4  
 2.640000000000000E10    5.461432010633871E-5  -1.693678204901516E-4  
 2.642000000000000E10    3.136788436677307E-4   1.756583224050701E-4  
 2.644000000000000E10   -1.061665971064940E-4  -4.458038019947708E-4  
 2.646000000000000E10    1.373121194774285E-4   2.783117452054285E-6  
 2.648000000000000E10    1.160093452199362E-4   5.027086008340120E-4  
 2.650000000000000E10    2.716788148973137E-4  -7.748067728243768E-4  
 2.652000000000000E10    1.351107584923739E-5  -2.611208765301853E-4  
 2.654000000000000E10   -5.321553326211870E-4  -1.906224788399413E-4  
 2.656000000000000E10    3.169656265527010E-4  -2.754464803729206E-4  
 2.658000000000000E10    3.093282866757363E-4  -3.552665002644062E-4  
 2.660000000000000E10    5.128259726916440E-5  -3.141592314932495E-4  
 2.662000000000000E10   -2.720226184464991E-4  -3.239704237785190E-4  
 2.664000000000000E10    4.687910404754803E-5   2.212108229286969E-4  
 2.666000000000000E10   -4.287851043045521E-4  -9.122861229116097E-5  
 2.668000000000000E10   -5.396216292865574E-4  -4.125249688513577E-4  
 2.670000000000000E10   -6.958413869142532E-4   2.938019169960171E-4  
 2.672000000000000E10   -4.044331726618111E-4  -4.241723800078034E-4  
 2.674000000000000E10   -3.160639316774905E-4  -5.363480886444449E-4  
 2.676000000000000E10   -6.107193767093122E-4  -1.352065737592056E-4  
 2.678000000000000E10    2.948809124063700E-4   1.122566827689298E-4  
 2.680000000000000E10    4.501981311477721E-4   2.428754669381306E-5  
 2.682000000000000E10   -3.538344753906131E-4   2.289690164616332E-4  
 2.684000000000000E10   -4.978359793312848E-4   4.666741006076336E-4  
 2.686000000000000E10   -3.892199310939759E-5   5.820735823363066E-4  
 2.688000000000000E10   -7.580072851851583E-4   2.179625735152513E-4  
 2.690000000000000E10   -6.231372826732695E-4   3.358361209393479E-5  
 2.692000000000000E10   -2.643703192006797E-4   2.278625906910747E-4  
 2.694000000000000E10    3.592234861571342E-5   2.024175955739338E-5  
 2.696000000000000E10    7.672282663406804E-5  -2.878434606827796E-4  
 2.698000000000000E10    7.772106619086117E-5   7.892557914601639E-5  
 2.700000000000000E10    3.452098462730646E-4   5.143503658473492E-4  
 2.702000000000000E10    5.772334407083690E-4   3.639264032244682E-4  
 2.704000000000000E10    2.068032772513107E-4   5.379495560191572E-4  
 2.706000000000000E10   -2.219277812400833E-4   7.282020524144173E-4  
 2.708000000000000E10   -1.408079551765695E-4   1.016959547996521E-3  
 2.710000000000000E10   -4.526990815065801E-4   4.393614362925291E-4  
 2.712000000000000E10   -1.755777630023658E-4   1.757784484652802E-4  
 2.714000000000000E10    1.665935124037787E-4   4.529622965492308E-4  
 2.716000000000000E10    3.377971588633955E-4  -1.615071087144315E-4  
 2.718000000000000E10    2.944553125416860E-5  -1.050939899869263E-4  
 2.720000000000000E10    2.237955050077289E-4   2.616826677694917E-4  
 2.722000000000000E10    8.881127578206360E-4   4.937498597428203E-4  
 2.724000000000000E10    7.645708974450827E-4   3.424573806114495E-4  
 2.726000000000000E10    1.281101722270250E-4   3.091706603299826E-4  
 2.728000000000000E10    3.332710766699165E-4   5.329900886863470E-4  
 2.730000000000000E10    1.716149272397161E-4   8.163184975273907E-4  
 2.732000000000000E10   -1.658406472415663E-5   4.478552436921746E-4  
 2.734000000000000E10    2.886716392822564E-4   3.808927067439072E-5  
 2.736000000000000E10    1.419220207026228E-4  -6.378391408361495E-4  
 2.738000000000000E10   -7.996310887392610E-5  -3.241622762288898E-4  
 2.740000000000000E10    4.374341224320233E-4  -1.905956887640059E-4  
 2.742000000000000E10    9.558886522427201E-4  -5.772625081590377E-5  
 2.744000000000000E10    8.478278759866953E-4  -6.414018571376801E-5  
 2.746000000000000E10    5.314974114298821E-4   2.527082397136837E-4  
 2.748000000000000E10   -1.627110323170200E-4   3.073347616009414E-4  
 2.750000000000000E10   -7.002949132584035E-5   2.929091278929263E-4  
 2.752000000000000E10   -6.069464143365622E-5   3.189924973412417E-5  
 2.754000000000000E10   -4.603434063028544E-4  -3.304529527667910E-4  
 2.756000000000000E10   -2.224919153377414E-4  -4.840133769903332E-4  
