#  HZ   S   RI   R     50.00 
! Rohde & Schwarz ZVA40 4Ports - Version 3.90 - 1145.1110k42 SN: 100403
! Date: 2023-10-04 09:34:37
! Measurement: S12 
! 
 2.200000000000000E10    9.020909783430398E-4   2.084289444610477E-3  
 2.202000000000000E10    2.200602320954204E-3  -1.449780655093491E-3  
 2.204000000000000E10   -1.447078771889210E-3  -1.220208243466914E-3  
 2.206000000000000E10   -1.072191516868770E-3   1.448628026992083E-3  
 2.208000000000000E10    1.773780211806297E-3   1.086952979676426E-3  
 2.210000000000000E10    1.081000082194805E-3  -2.413111040368676E-3  
 2.212000000000000E10   -1.802318729460239E-3  -2.279086183989421E-4  
 2.214000000000000E10   -1.831254485296086E-4   1.260506338439882E-3  
 2.216000000000000E10    1.906683668494225E-3   3.283341065980494E-4  
 2.218000000000000E10   -7.465727394446731E-4  -1.570236403495073E-3  
 2.220000000000000E10   -9.788677562028170E-4   9.151357226073742E-4  
 2.222000000000000E10    2.747379476204515E-4   1.352854422293603E-3  
 2.224000000000000E10    1.412882702425122E-3  -8.585061295889318E-4  
 2.226000000000000E10   -1.811513910070062E-3  -5.488586029969156E-4  
 2.228000000000000E10   -4.881306376773864E-4   1.046333927661181E-3  
 2.230000000000000E10    1.457793288864195E-3   9.814150398597121E-4  
 2.232000000000000E10    6.926248315721750E-4  -2.257142215967178E-3  
 2.234000000000000E10   -1.508718007244170E-3   2.007762232096866E-4  
 2.236000000000000E10   -2.511623461032286E-5   1.602596719749272E-3  
 2.238000000000000E10    2.146626356989145E-3   6.822573486715555E-4  
 2.240000000000000E10   -9.017230331664905E-5  -1.495308009907603E-3  
 2.242000000000000E10   -1.531629008240998E-3   7.947686244733632E-4  
 2.244000000000000E10    1.930231956066564E-4   1.554095069877803E-3  
 2.246000000000000E10    1.428059302270412E-3  -4.618894890882075E-4  
 2.248000000000000E10   -8.424179977737367E-4  -8.965714368969202E-4  
 2.250000000000000E10   -5.391009617596865E-4   5.704723298549652E-4  
 2.252000000000000E10    9.270971640944481E-4   6.475542904809117E-4  
 2.254000000000000E10    8.129141060635448E-4  -1.368072931654751E-3  
 2.256000000000000E10   -1.246163039468229E-3  -5.508891190402210E-4  
 2.258000000000000E10    3.937734072678722E-5   1.027038553729653E-3  
 2.260000000000000E10    1.165787107311189E-3  -1.637040113564581E-4  
 2.262000000000000E10   -5.363204982131720E-4  -2.064903732389212E-3  
 2.264000000000000E10   -1.673567690886557E-3   3.620821516960859E-4  
 2.266000000000000E10    6.115279393270612E-5   1.463124062865973E-3  
 2.268000000000000E10    9.524967754259706E-4  -1.207785797305405E-3  
 2.270000000000000E10   -1.125053851865232E-3  -1.056472188793123E-3  
 2.272000000000000E10   -1.711527816951275E-3   7.677989196963608E-4  
 2.274000000000000E10    5.354530294425786E-4   1.042793039232492E-3  
 2.276000000000000E10    3.480885061435401E-4  -6.897942512296140E-4  
 2.278000000000000E10   -1.250969013199210E-3  -6.226844270713627E-4  
 2.280000000000000E10   -5.009334417991340E-4   1.490517402999103E-3  
 2.282000000000000E10    4.509726131800562E-4   9.954205015674233E-4  
 2.284000000000000E10    3.494934207992628E-5  -6.705425330437720E-4  
 2.286000000000000E10   -7.467945106327534E-4   7.558645447716117E-4  
 2.288000000000000E10    2.159468276659027E-4   1.820447272621095E-3  
 2.290000000000000E10    5.030046449974179E-4  -1.914735912578180E-4  
 2.292000000000000E10   -6.268505239859223E-4  -1.197371821035631E-4  
 2.294000000000000E10   -1.286055892705917E-3   1.059924252331257E-3  
 2.296000000000000E10    1.083422568626702E-3   8.967031026259065E-4  
 2.298000000000000E10    1.095619401894510E-3  -4.778417351190001E-4  
 2.300000000000000E10   -4.821277107112110E-4  -5.719719338230789E-4  
 2.302000000000000E10   -2.347317349631339E-4   1.320958137512207E-3  
 2.304000000000000E10    1.630830578505993E-3   1.188975293189287E-3  
 2.306000000000000E10    6.778532988391817E-4  -1.934012834681198E-4  
 2.308000000000000E10   -3.562003548722714E-4  -1.753025280777365E-4  
 2.310000000000000E10   -1.456435566069558E-4   1.795902964659035E-3  
 2.312000000000000E10    5.519085680134594E-4  -8.069026080192998E-5  
 2.314000000000000E10   -3.391629434190691E-5  -2.080055419355631E-4  
 2.316000000000000E10   -6.993294227868319E-4   4.931573057547212E-4  
 2.318000000000000E10    7.320770528167486E-4   1.888074184535071E-4  
 2.320000000000000E10    8.451904868707061E-4  -8.459461969323456E-4  
 2.322000000000000E10   -3.813592193182558E-4  -9.200458298437297E-4  
 2.324000000000000E10   -4.486562102101743E-5   2.668231609277427E-4  
 2.326000000000000E10    1.456851838156581E-3   5.385022959671915E-4  
 2.328000000000000E10    1.045744516886771E-3  -5.535596865229309E-4  
 2.330000000000000E10   -3.271483292337507E-4  -9.788840543478727E-4  
 2.332000000000000E10   -4.562158428598195E-4   7.851808913983405E-4  
 2.334000000000000E10    2.282892637595069E-5   4.377416917122901E-4  
 2.336000000000000E10    4.650426853913814E-4  -7.780705927871168E-4  
 2.338000000000000E10   -3.495994606055319E-4   1.811690162867308E-5  
 2.340000000000000E10   -1.645600277697668E-4  -3.131525008939207E-4  
 2.342000000000000E10    7.441143679898232E-5  -1.035550842061639E-3  
 2.344000000000000E10   -3.609862760640681E-4   1.093492537620477E-4  
 2.346000000000000E10   -1.998297193495091E-5   4.936868208460510E-4  
 2.348000000000000E10    1.210681395605207E-3  -2.592056989669800E-4  
 2.350000000000000E10    1.700521679595113E-4  -5.435571074485779E-4  
 2.352000000000000E10   -8.079378749243915E-4  -9.074849658645690E-4  
 2.354000000000000E10   -1.373054838040844E-4   6.612378056161106E-4  
 2.356000000000000E10    3.608182669267990E-5   3.325562574900687E-4  
 2.358000000000000E10    4.505629476625472E-4  -1.412693527527154E-3  
 2.360000000000000E10   -5.552815855480731E-4  -5.692464183084667E-4  
 2.362000000000000E10   -6.724027334712446E-4   8.197558781830594E-5  
 2.364000000000000E10    1.864270016085357E-4  -3.463698376435787E-4  
 2.366000000000000E10    5.832377937622368E-4  -2.096844837069511E-4  
 2.368000000000000E10   -5.025679129175842E-4  -1.370508834952489E-4  
 2.370000000000000E10    3.475500852800906E-4   1.699522908893414E-5  
 2.372000000000000E10   -3.719605592777953E-5   4.205965888104402E-5  
 2.374000000000000E10   -7.911872817203403E-4  -3.480589948594570E-4  
 2.376000000000000E10    4.931701114401221E-4   2.861179236788303E-4  
 2.378000000000000E10    2.429740998195484E-4  -4.610348696587607E-5  
 2.380000000000000E10   -2.542413712944835E-4  -6.941952742636204E-4  
 2.382000000000000E10   -2.540126442909241E-4   2.583066234365106E-4  
 2.384000000000000E10    6.519239832414314E-5   9.361134143546224E-4  
 2.386000000000000E10    6.999479373916984E-4   1.997998188016936E-4  
 2.388000000000000E10    2.435674250591546E-4  -7.709846249781549E-4  
 2.390000000000000E10   -1.024345634505153E-3   1.590132160345092E-4  
 2.392000000000000E10   -6.130150286480784E-4   9.431320358999074E-4  
 2.394000000000000E10    7.038520416244865E-4   5.876240902580321E-4  
 2.396000000000000E10    1.547290448797867E-4  -5.240007885731757E-4  
 2.398000000000000E10   -3.291065513622016E-4  -7.838932215236127E-4  
 2.400000000000000E10   -2.224303752882406E-4   9.117799927480519E-4  
 2.402000000000000E10    3.873763780575246E-4   7.914036978036165E-4  
 2.404000000000000E10    1.289513194933534E-3   6.897462881170213E-4  
 2.406000000000000E10    2.814772888086736E-4  -7.633082645952527E-7  
 2.408000000000000E10   -8.511111955158413E-4  -1.204542695631972E-5  
 2.410000000000000E10   -9.672409505583346E-4   7.016508025117219E-4  
 2.412000000000000E10   -1.895057794172317E-4   8.987418841570616E-4  
 2.414000000000000E10    5.814124015159905E-4   1.844701328082010E-4  
 2.416000000000000E10    1.098845154047012E-3  -1.062782597728074E-3  
 2.418000000000000E10   -2.245263603981584E-4  -9.332004119642079E-4  
 2.420000000000000E10   -5.845029372721911E-4   2.183640899602324E-4  
 2.422000000000000E10    8.734476868994534E-4   1.687240903265774E-3  
 2.424000000000000E10    1.231220201589167E-3   6.806748569943011E-4  
 2.426000000000000E10    5.674517597071827E-4  -3.718698571901768E-4  
 2.428000000000000E10   -1.263312646187842E-3   2.771079307422042E-4  
 2.430000000000000E10   -1.291241962462664E-3   8.627754286862910E-4  
 2.432000000000000E10    2.844206755980849E-4   4.391986585687846E-4  
 2.434000000000000E10    5.242849001660943E-4  -4.482922377064824E-4  
 2.436000000000000E10   -1.718091807560995E-4  -9.618865442462266E-4  
 2.438000000000000E10    1.688766205916181E-4  -2.403916878392920E-4  
 2.440000000000000E10    3.496335411909968E-4   6.802907446399331E-4  
 2.442000000000000E10    7.506706169806421E-4   2.218370354967192E-4  
 2.444000000000000E10    7.433474529534578E-4   4.115345655009151E-4  
 2.446000000000000E10    7.093846215866506E-5   5.982057773508132E-4  
 2.448000000000000E10   -4.998059594072402E-4  -3.140937769785523E-4  
 2.450000000000000E10   -6.210829596966505E-4   1.610638428246602E-4  
 2.452000000000000E10   -6.715024937875569E-4  -5.576962212217040E-5  
 2.454000000000000E10    5.873466725461185E-4  -9.940313175320625E-4  
 2.456000000000000E10   -4.132132380618714E-5  -8.962219581007958E-4  
 2.458000000000000E10   -9.112562984228134E-4  -6.635405588895083E-4  
 2.460000000000000E10    3.299924428574741E-4   5.859085358679295E-4  
 2.462000000000000E10    7.653314387425780E-4   3.220782382413745E-4  
 2.464000000000000E10   -3.564689832273871E-4  -6.719414959661663E-4  
 2.466000000000000E10   -1.072366954758763E-3  -8.758871263125911E-5  
 2.468000000000000E10   -7.586849387735128E-4   1.005634432658553E-3  
 2.470000000000000E10    2.369604189880192E-4   4.741919110529125E-5  
 2.472000000000000E10    4.620065737981349E-4  -9.527950896881521E-4  
 2.474000000000000E10   -7.143937400542200E-4  -4.388698143884540E-4  
 2.476000000000000E10    1.190061666420661E-4   2.137056726496667E-4  
 2.478000000000000E10    3.545741783455014E-4   3.163167275488377E-4  
 2.480000000000000E10   -1.566555438330397E-4  -1.858132891356945E-4  
 2.482000000000000E10    1.201459454023279E-4   2.310744748683646E-4  
 2.484000000000000E10   -2.173432767449413E-5   4.352404357632622E-5  
 2.486000000000000E10   -5.547321634367108E-4  -1.716229162411764E-4  
 2.488000000000000E10   -5.151590448804200E-4   2.627935318741947E-4  
 2.490000000000000E10    3.507717920001596E-4   7.871367270126939E-4  
 2.492000000000000E10    3.389602352399379E-4   2.735149173531681E-4  
 2.494000000000000E10    5.998401320539415E-5  -4.002172499895096E-4  
 2.496000000000000E10   -6.498433649539948E-4   3.321108815725893E-4  
 2.498000000000000E10   -2.162502496503294E-4   9.275521733798087E-4  
 2.500000000000000E10    4.185221041552723E-4   6.711882306262851E-4  
 2.502000000000000E10   -1.659616973483935E-4  -1.945860421983525E-4  
 2.504000000000000E10   -4.382314509712160E-4   6.595836748601869E-5  
 2.506000000000000E10   -1.393736602040008E-4   4.785661585628986E-4  
 2.508000000000000E10    2.044063294306397E-4  -1.891635038191453E-4  
 2.510000000000000E10    1.290240616071969E-4  -1.895518944365904E-4  
 2.512000000000000E10    3.224560932721943E-4   9.426779579371214E-4  
 2.514000000000000E10    6.117410375736654E-4   1.751521631376818E-4  
 2.516000000000000E10    3.722883702721447E-4  -5.633645196212456E-5  
 2.518000000000000E10   -6.521050236187875E-4   8.925242000259459E-4  
 2.520000000000000E10    5.617058195639402E-5   2.069243637379259E-4  
 2.522000000000000E10    8.216166170313954E-4  -2.173609391320497E-4  
 2.524000000000000E10   -5.758769693784416E-4  -5.246179644018412E-4  
 2.526000000000000E10   -3.646291734185070E-4  -1.991407771129161E-4  
 2.528000000000000E10    8.654919802211225E-4   4.309597716201097E-4  
 2.530000000000000E10    4.639136313926429E-4  -1.188088790513575E-4  
 2.532000000000000E10   -7.515981269534677E-5  -5.828128196299076E-4  
 2.534000000000000E10   -2.730339656409342E-5   5.368369747884572E-4  
 2.536000000000000E10   -1.314699329668656E-4   5.172069650143385E-4  
 2.538000000000000E10    2.256059087812901E-4  -2.330160641577095E-4  
 2.540000000000000E10   -6.997931632213295E-4   4.093637107871473E-5  
 2.542000000000000E10   -5.864279810339212E-4  -2.469205646775663E-4  
 2.544000000000000E10    1.296545960940421E-4  -5.901394761167467E-4  
 2.546000000000000E10   -1.325945340795443E-4  -2.153013629140332E-4  
 2.548000000000000E10   -2.269048563903198E-4  -1.776915160007775E-4  
 2.550000000000000E10    5.222988547757268E-4  -3.565466613508761E-4  
 2.552000000000000E10   -2.268830139655620E-4  -7.744197500869632E-5  
 2.554000000000000E10   -3.997093008365482E-4  -1.202569692395628E-4  
 2.556000000000000E10   -1.231919304700568E-4   3.507208602968603E-4  
 2.558000000000000E10    4.546556010609493E-5  -1.863105571828783E-4  
 2.560000000000000E10   -3.957696899306029E-4  -4.930614959448576E-4  
 2.562000000000000E10   -6.728096050210297E-4   1.724368848954327E-5  
 2.564000000000000E10   -3.352584608364850E-4   4.602564731612802E-4  
 2.566000000000000E10    2.602852873678785E-5   4.242682189214975E-4  
 2.568000000000000E10   -3.263926191721112E-4   6.678894715150818E-5  
 2.570000000000000E10   -7.145366398617625E-4   1.878286711871624E-4  
 2.572000000000000E10   -2.810118894558400E-4   1.901510840980336E-4  
 2.574000000000000E10   -2.518727560527623E-4   7.036457827780396E-5  
 2.576000000000000E10   -8.394241740461439E-5  -7.156449719332159E-4  
 2.578000000000000E10    3.264413317083381E-5  -1.635251683183014E-4  
 2.580000000000000E10   -4.000289209216135E-6   1.861655764514580E-4  
 2.582000000000000E10    1.763129257597029E-4   6.469619984272867E-5  
 2.584000000000000E10    8.186919876607135E-5   1.475953758927062E-4  
 2.586000000000000E10   -1.845073420554400E-4   4.606340080499649E-4  
 2.588000000000000E10   -2.513048821128905E-4  -5.856629286427051E-5  
 2.590000000000000E10   -4.067612753715366E-4   1.625949516892433E-4  
 2.592000000000000E10   -5.833120085299015E-4   1.524646359030157E-4  
 2.594000000000000E10    1.209120455314405E-5  -2.477446105331183E-4  
 2.596000000000000E10   -4.281714063836262E-5  -1.980444503715262E-4  
 2.598000000000000E10   -2.535858075134456E-4  -2.343840169487521E-4  
 2.600000000000000E10    2.330693823751062E-4   7.940502109704539E-5  
 2.602000000000000E10    2.336534962523729E-4   6.061204476282001E-4  
 2.604000000000000E10   -3.459995423327200E-5   4.812476981896907E-4  
 2.606000000000000E10    2.962330836453475E-5   6.033529280102812E-5  
 2.608000000000000E10   -8.595252875238657E-4   3.405911265872419E-4  
 2.610000000000000E10   -6.673842435702682E-4   8.525789598934352E-5  
 2.612000000000000E10    3.006395127158612E-4   1.155242935055867E-4  
 2.614000000000000E10   -5.121052890899591E-5  -6.096805445849896E-4  
 2.616000000000000E10   -7.182826084317640E-5  -4.680067067965865E-4  
 2.618000000000000E10    2.437614894006401E-4   3.196843899786472E-4  
 2.620000000000000E10    6.146220257505775E-4   7.081169169396162E-4  
 2.622000000000000E10    6.201229098223848E-6   4.827494558412582E-4  
 2.624000000000000E10    5.146535386302276E-6   5.940363625995815E-4  
 2.626000000000000E10   -9.790875483304262E-4   2.386623818892986E-4  
 2.628000000000000E10   -4.902085638605058E-4  -4.134144983254373E-4  
 2.630000000000000E10   -7.356269052252173E-4   3.370030026417226E-5  
 2.632000000000000E10   -4.490722494665533E-4  -1.059953239746392E-3  
 2.634000000000000E10    4.762239113915712E-4  -4.144585982430726E-4  
 2.636000000000000E10    2.926505694631487E-4  -4.369917151052505E-4  
 2.638000000000000E10    5.513200085260905E-5  -1.093569335353095E-5  
 2.640000000000000E10    1.102565292967483E-4   6.262142560444772E-4  
 2.642000000000000E10    6.637442857027054E-4   7.580431411042810E-4  
 2.644000000000000E10   -3.189006529282779E-4   8.013456681510434E-5  
 2.646000000000000E10   -1.038703834638000E-3   4.496548499446362E-4  
 2.648000000000000E10   -1.183577580377460E-3   6.394060328602791E-4  
 2.650000000000000E10   -4.595820064423606E-5  -6.050103547750041E-5  
 2.652000000000000E10   -2.676089934539050E-4  -1.944760733749718E-4  
 2.654000000000000E10   -3.877920680679381E-4  -5.668001831509173E-4  
 2.656000000000000E10   -2.448473060212564E-5   6.207971455296502E-5  
 2.658000000000000E10    4.454130539670587E-4   1.218717534356983E-5  
 2.660000000000000E10    4.496514447964728E-4   1.804494677344337E-4  
 2.662000000000000E10    3.992495476268232E-4   1.725003530737013E-4  
 2.664000000000000E10    4.409931425470859E-4   1.499315403634682E-4  
 2.666000000000000E10   -2.805434633046389E-4  -3.829981724265963E-4  
 2.668000000000000E10   -2.377893688390032E-4   5.633345790556632E-5  
 2.670000000000000E10    1.632646490179468E-5   4.963500759913586E-5  
 2.672000000000000E10    4.384489730000496E-4  -5.876704235561192E-4  
 2.674000000000000E10   -6.391025090124458E-5  -5.277472664602101E-4  
 2.676000000000000E10   -9.063641482498497E-5  -2.451671753078699E-4  
 2.678000000000000E10    4.042299115099013E-4  -3.539643148542382E-5  
 2.680000000000000E10    6.382672581821680E-4  -3.264604019932449E-4  
 2.682000000000000E10    5.843583858222701E-5  -5.729314871132374E-4  
 2.684000000000000E10   -4.753648681798950E-5  -4.069134593009949E-4  
 2.686000000000000E10    6.099198071751744E-5   3.014662297573523E-6  
 2.688000000000000E10    1.624457363504916E-4  -5.400258232839406E-4  
 2.690000000000000E10    1.519856596132740E-4  -1.421992492396385E-4  
 2.692000000000000E10    5.416357817011885E-5   3.182326327078044E-5  
 2.694000000000000E10    1.648925826884806E-4  -2.514142252039164E-4  
 2.696000000000000E10   -4.788349615409970E-4  -4.399814642965794E-4  
 2.698000000000000E10   -3.051614621654153E-4  -3.857949341181666E-4  
 2.700000000000000E10    6.623145509365713E-6  -7.501376094296575E-4  
 2.702000000000000E10   -1.745703630149365E-4  -6.160576594993472E-4  
 2.704000000000000E10   -2.604595501907170E-4  -5.093039362691343E-4  
 2.706000000000000E10    2.765470708254725E-4   1.547115825815126E-4  
 2.708000000000000E10    2.981358738907147E-5  -1.044538075802848E-4  
 2.710000000000000E10   -4.119214718230069E-4  -3.815542731899768E-4  
 2.712000000000000E10   -2.853655896615237E-4  -6.435481918742880E-5  
 2.714000000000000E10   -9.748594311531633E-5   1.720985528663732E-5  
 2.716000000000000E10   -1.547756692161784E-4  -3.269175358582288E-4  
 2.718000000000000E10   -5.218875012360513E-4  -2.880150568671525E-4  
 2.720000000000000E10   -3.043977485504001E-4  -5.785260000266135E-4  
 2.722000000000000E10   -9.432661317987368E-5  -6.213281885720789E-4  
 2.724000000000000E10   -3.677573986351490E-4  -2.048919122898951E-4  
 2.726000000000000E10   -2.371282898820937E-4   1.326951314695180E-4  
 2.728000000000000E10    4.283201997168362E-4  -9.862257866188884E-5  
 2.730000000000000E10   -1.622463169042021E-4  -1.865844242274761E-4  
 2.732000000000000E10   -7.152068428695202E-4   9.548354864818975E-5  
 2.734000000000000E10   -2.507887838874012E-4   9.014258102979511E-5  
 2.736000000000000E10   -5.039490497438237E-5   7.822113548172638E-5  
 2.738000000000000E10   -5.900519900023937E-4  -2.896303776651621E-4  
 2.740000000000000E10   -1.964432303793728E-4  -2.875226491596550E-4  
 2.742000000000000E10    9.342178600491025E-6   3.550523542799056E-4  
 2.744000000000000E10    6.027326890034601E-5  -7.173592166509479E-5  
 2.746000000000000E10   -3.097820444963872E-4   1.102860696846619E-4  
 2.748000000000000E10   -7.992342580109835E-5   3.696084313560277E-4  
 2.750000000000000E10    1.921403018059209E-4   1.316353445872665E-4  
 2.752000000000000E10   -2.200622111558914E-5   2.160593139706180E-4  
 2.754000000000000E10   -1.001996351988055E-4   3.557019808795303E-4  
 2.756000000000000E10    2.134386886609718E-4  -8.022750080272090E-6  
