#  HZ   S   RI   R     50.00 
! Rohde & Schwarz ZVA40 4Ports - Version 3.90 - 1145.1110k42 SN: 100403
! Date: 2023-10-04 09:34:22
! Measurement: S12 
! 
 2.200000000000000E10    1.917225599754602E-4   1.571598462760449E-3  
 2.202000000000000E10    1.294522429816425E-3  -1.007489627227187E-3  
 2.204000000000000E10   -1.174101023934782E-3  -9.454374667257071E-4  
 2.206000000000000E10   -1.173851313069463E-3   9.911687811836600E-4  
 2.208000000000000E10    1.548188971355557E-3   1.167603651992977E-3  
 2.210000000000000E10    9.140116162598133E-4  -1.711088349111378E-3  
 2.212000000000000E10   -1.674880390055478E-3  -2.356671029701829E-5  
 2.214000000000000E10   -5.496626254171133E-4   1.935976790264249E-3  
 2.216000000000000E10    2.153063425794244E-3   7.422566413879395E-4  
 2.218000000000000E10   -1.099510816857219E-3  -2.069626469165087E-3  
 2.220000000000000E10   -1.805117470212281E-3   3.674075705930591E-4  
 2.222000000000000E10   -2.360913931624964E-4   1.839250675402582E-3  
 2.224000000000000E10    1.875689369626343E-3  -8.808564743958414E-4  
 2.226000000000000E10   -1.057826098985970E-3  -1.847201492637396E-3  
 2.228000000000000E10   -1.205362728796899E-3   5.268348613753915E-4  
 2.230000000000000E10    9.856157703325152E-4   9.930466767400503E-4  
 2.232000000000000E10    1.264523132704198E-3  -1.476818462833762E-3  
 2.234000000000000E10   -1.344442833214998E-3   4.036669852212071E-4  
 2.236000000000000E10   -7.304137689061463E-4   1.409720163792372E-3  
 2.238000000000000E10    9.833397343754768E-4   5.671374965459108E-4  
 2.240000000000000E10   -1.019016373902559E-3  -1.581513322889805E-3  
 2.242000000000000E10   -1.899127615615726E-3   2.728078688960522E-4  
 2.244000000000000E10   -2.671400034159888E-5   9.536840370856226E-4  
 2.246000000000000E10    1.467188703827560E-3  -1.135829021222889E-3  
 2.248000000000000E10   -1.262925332412124E-3  -1.132852048613131E-3  
 2.250000000000000E10   -9.198846528306603E-4   8.857503416948021E-4  
 2.252000000000000E10    1.171489362604916E-3   1.539322314783931E-3  
 2.254000000000000E10    8.791225263848901E-4  -1.222801744006574E-3  
 2.256000000000000E10   -9.904551552608609E-4  -2.129246859112755E-4  
 2.258000000000000E10   -8.978463010862470E-4   1.381175243295729E-3  
 2.260000000000000E10    7.346378988586366E-4   5.301474593579769E-4  
 2.262000000000000E10    6.591627607122064E-5  -1.147945178672671E-3  
 2.264000000000000E10   -1.250808127224445E-3  -3.349873004481196E-4  
 2.266000000000000E10   -7.880512566771358E-5   7.797859143465757E-4  
 2.268000000000000E10    1.047129626385868E-3  -6.702631944790483E-4  
 2.270000000000000E10   -6.046431954018772E-4  -1.060350914485753E-3  
 2.272000000000000E10   -1.346507109701634E-3   4.979012301191688E-4  
 2.274000000000000E10    1.280469587072730E-3   8.136869873851538E-4  
 2.276000000000000E10    3.394140803720802E-4  -1.108264201320708E-3  
 2.278000000000000E10   -1.417108345776796E-3  -9.093013941310346E-4  
 2.280000000000000E10   -7.215937366709113E-4   1.142610912211239E-3  
 2.282000000000000E10    6.171798449940980E-4   8.237676229327917E-4  
 2.284000000000000E10    1.653010986046866E-4  -1.449598697945476E-3  
 2.286000000000000E10   -1.626044628210366E-3  -1.514715404482558E-4  
 2.288000000000000E10   -5.770696443505585E-4   1.405684626661241E-3  
 2.290000000000000E10    7.312970701605082E-4  -7.098416099324822E-4  
 2.292000000000000E10   -3.308309533167630E-4  -8.808007696643472E-4  
 2.294000000000000E10   -1.408793730661273E-3   3.564007929526269E-4  
 2.296000000000000E10    7.227273890748620E-4   7.228429312817752E-4  
 2.298000000000000E10    3.963273484259844E-4  -3.206587571185082E-4  
 2.300000000000000E10   -8.023756090551615E-4  -7.934671593829989E-4  
 2.302000000000000E10   -1.106335665099323E-3   1.284771598875523E-3  
 2.304000000000000E10    4.517491615843028E-4   7.026766543276608E-4  
 2.306000000000000E10    3.129277029074729E-4  -1.006314530968666E-3  
 2.308000000000000E10   -1.067884382791817E-3  -5.244532367214561E-4  
 2.310000000000000E10   -9.706349228508771E-4   1.219922094605863E-3  
 2.312000000000000E10    4.205352161079645E-4   2.651947434060276E-4  
 2.314000000000000E10    1.283421443076804E-4  -6.445685285143554E-4  
 2.316000000000000E10   -1.256357412785292E-3   2.488545533196884E-6  
 2.318000000000000E10    4.030657873954624E-4   7.949971477501094E-4  
 2.320000000000000E10    6.910226657055318E-4  -3.267625288572162E-4  
 2.322000000000000E10   -4.551427555270493E-4  -5.876351497136056E-4  
 2.324000000000000E10   -5.528182955458760E-4   7.894838927313685E-4  
 2.326000000000000E10    9.303846163675189E-4   6.005918257869780E-4  
 2.328000000000000E10    4.967237473465502E-4  -4.533720202744007E-4  
 2.330000000000000E10   -7.868937682360411E-4  -7.374694541795179E-5  
 2.332000000000000E10    3.463616167209693E-6   9.962571784853935E-4  
 2.334000000000000E10    4.098205827176571E-4  -9.669434075476602E-5  
 2.336000000000000E10    2.788539568427950E-4  -8.804303943179548E-4  
 2.338000000000000E10   -8.449983433820307E-4   4.372321709524840E-4  
 2.340000000000000E10    2.986727049574256E-4   5.542301223613322E-4  
 2.342000000000000E10    1.356800086796284E-3  -7.081375952111557E-5  
 2.344000000000000E10   -1.518115313956514E-4  -6.493228138424456E-4  
 2.346000000000000E10   -7.904108497314155E-4   2.009626768995076E-4  
 2.348000000000000E10    6.389037589542568E-4   7.597696967422962E-4  
 2.350000000000000E10    3.504364285618067E-4   1.456848549423739E-4  
 2.352000000000000E10   -2.221843460574746E-4  -7.223819266073406E-4  
 2.354000000000000E10    3.061482275370508E-4   2.106341707985848E-4  
 2.356000000000000E10   -1.058341076713987E-4   1.406064402544871E-4  
 2.358000000000000E10    2.686749794520438E-4  -7.125717820599675E-4  
 2.360000000000000E10    2.327919355593622E-4   7.172433543018997E-4  
 2.362000000000000E10    7.044899393804371E-4   4.754030305775814E-5  
 2.364000000000000E10    1.226096996106207E-3  -5.258683231659234E-4  
 2.366000000000000E10    6.246328121051192E-5  -2.219745801994577E-4  
 2.368000000000000E10   -2.709293912630528E-4   5.077086389064789E-4  
 2.370000000000000E10    5.050554173067212E-4   8.938658866100013E-4  
 2.372000000000000E10    7.051212014630437E-4   1.167694699688582E-5  
 2.374000000000000E10    6.636689067818224E-5  -1.255331560969353E-3  
 2.376000000000000E10   -4.944482352584600E-4  -1.597137888893485E-4  
 2.378000000000000E10   -2.955611562356353E-4   4.873542929999530E-4  
 2.380000000000000E10    8.063648710958660E-4  -3.604916855692864E-4  
 2.382000000000000E10    1.071109552867711E-3  -1.893401204142720E-4  
 2.384000000000000E10   -5.197985592531040E-5  -6.578629254363477E-4  
 2.386000000000000E10   -9.284154657507315E-5  -4.959304933436215E-4  
 2.388000000000000E10   -4.895038437098265E-4   5.853107431903482E-4  
 2.390000000000000E10   -4.409854227560572E-5   4.444465739652515E-4  
 2.392000000000000E10    5.192332901060581E-4  -3.257755306549370E-4  
 2.394000000000000E10   -3.803953004535288E-4  -1.180626568384469E-3  
 2.396000000000000E10   -1.133879064582288E-3  -8.026495925150812E-4  
 2.398000000000000E10   -6.239837966859341E-4   1.029540799208917E-4  
 2.400000000000000E10    3.980487817898393E-4   3.763777494896203E-4  
 2.402000000000000E10    3.136715167784132E-5  -8.136075921356678E-4  
 2.404000000000000E10   -4.129756125621498E-4  -6.591640994884074E-4  
 2.406000000000000E10   -1.094476901926100E-3   5.438323714770377E-4  
 2.408000000000000E10   -2.361188089707866E-4   4.036180907860398E-4  
 2.410000000000000E10    4.203592834528536E-4   6.712005415465683E-5  
 2.412000000000000E10   -6.216276669874787E-4  -5.190593074075878E-4  
 2.414000000000000E10   -7.927320548333228E-4  -3.362150164321065E-5  
 2.416000000000000E10   -4.149757442064583E-4   7.590145687572658E-4  
 2.418000000000000E10   -1.163683336926624E-4   3.964282514061779E-4  
 2.420000000000000E10   -3.742193803191185E-4  -2.382217207923532E-4  
 2.422000000000000E10   -6.140575278550386E-4   4.206349694868550E-5  
 2.424000000000000E10   -1.212656847201288E-3   2.439214877085760E-4  
 2.426000000000000E10   -5.249296082183719E-4  -8.910991891752929E-5  
 2.428000000000000E10   -9.183790098177269E-5   2.700854092836380E-4  
 2.430000000000000E10   -1.441255881218240E-4  -6.567257223650813E-4  
 2.432000000000000E10    3.270765300840139E-4  -3.200761857442558E-4  
 2.434000000000000E10   -2.187340869568288E-4   6.544273928739131E-4  
 2.436000000000000E10    1.275456361327088E-5   7.717285188846290E-4  
 2.438000000000000E10    1.133277895860374E-3   1.178939361125231E-3  
 2.440000000000000E10   -5.104870433569886E-5   1.941941300174221E-4  
 2.442000000000000E10   -9.332873742096126E-4  -3.675244806800038E-4  
 2.444000000000000E10   -8.970152121037245E-4   7.274571689777076E-4  
 2.446000000000000E10   -1.677565014688298E-4   2.801132504828274E-4  
 2.448000000000000E10    8.975792443379760E-4  -8.785129175521433E-4  
 2.450000000000000E10    8.040980901569128E-4  -1.088095945306122E-3  
 2.452000000000000E10    3.183204680681229E-4  -7.454704609699547E-4  
 2.454000000000000E10    8.018914377316833E-4   3.553082933649421E-4  
 2.456000000000000E10    1.077894703485072E-3   1.013936474919319E-3  
 2.458000000000000E10    6.674334290437400E-4  -3.692904283525422E-5  
 2.460000000000000E10    1.623385323910043E-4  -1.024939556373283E-4  
 2.462000000000000E10   -7.554384064860642E-4   2.369655267102644E-4  
 2.464000000000000E10   -8.179764845408499E-4  -3.915239940397441E-4  
 2.466000000000000E10   -7.025616650935262E-5  -5.879641976207495E-4  
 2.468000000000000E10    6.069116643629968E-4  -6.997481104917824E-4  
 2.470000000000000E10    5.815313197672367E-4  -1.557874027639628E-3  
 2.472000000000000E10    5.798462079837918E-4  -7.936203037388623E-4  
 2.474000000000000E10    1.086375923478045E-4   3.130529366899282E-4  
 2.476000000000000E10    9.907723870128393E-4   2.470539475325495E-4  
 2.478000000000000E10    1.121934154070914E-3   4.615599173121154E-4  
 2.480000000000000E10   -7.089962018653750E-4  -4.794327542185783E-4  
 2.482000000000000E10   -8.749550906941295E-4  -1.926818222273141E-4  
 2.484000000000000E10   -4.121647798456252E-4   5.405608098953962E-4  
 2.486000000000000E10   -2.988633968925569E-5  -3.822615835815668E-4  
 2.488000000000000E10   -5.227868678048253E-4  -9.551491239108145E-4  
 2.490000000000000E10   -4.884558729827404E-4   3.145010850857943E-5  
 2.492000000000000E10   -1.959964902198408E-5  -9.957226575352252E-5  
 2.494000000000000E10    3.684945986606181E-4  -2.771228610072285E-4  
 2.496000000000000E10   -6.647619302384555E-4   3.236344782635570E-4  
 2.498000000000000E10    9.120192316913744E-7   2.227137010777369E-4  
 2.500000000000000E10    8.411725139012560E-5   3.679358924273402E-4  
 2.502000000000000E10   -7.815305725671351E-4  -1.971322490135208E-4  
 2.504000000000000E10   -3.400818095542491E-4   2.333097072551027E-4  
 2.506000000000000E10   -1.063456584233791E-4   4.136821953579783E-4  
 2.508000000000000E10    1.864894729806110E-4  -2.192139509133995E-4  
 2.510000000000000E10   -1.016780151985586E-4  -1.589479215908796E-4  
 2.512000000000000E10   -3.126025840174407E-4   7.719520945101976E-4  
 2.514000000000000E10    1.791392714949325E-4   4.102364182472229E-4  
 2.516000000000000E10    4.359839076641947E-4  -5.836531054228544E-4  
 2.518000000000000E10   -7.568105356767774E-4  -4.033036020700820E-5  
 2.520000000000000E10   -4.340221348684281E-4  -2.532177131797653E-5  
 2.522000000000000E10    4.378241137601435E-4   3.263149701524526E-4  
 2.524000000000000E10    7.708302291575819E-5  -1.214330113725737E-4  
 2.526000000000000E10    2.383709579589777E-5  -1.087023192667402E-4  
 2.528000000000000E10    3.284750564489514E-4   6.144711514934897E-4  
 2.530000000000000E10   -3.205554821761325E-5   4.417536256369203E-4  
 2.532000000000000E10   -4.659119585994631E-4   1.116283601731993E-5  
 2.534000000000000E10    2.223745541414246E-4   6.112933042459190E-4  
 2.536000000000000E10   -2.032392658293247E-4   6.388961628545076E-5  
 2.538000000000000E10    1.275064278161153E-4  -6.773778586648405E-4  
 2.540000000000000E10   -5.372975138016045E-4  -1.274247770197690E-4  
 2.542000000000000E10    3.673433384392411E-4   8.220061863539740E-5  
 2.544000000000000E10    9.287266875617206E-4   3.329633036628366E-4  
 2.546000000000000E10    3.909010265488178E-4  -3.603934310376644E-4  
 2.548000000000000E10   -4.213533247821033E-4   1.570971508044750E-4  
 2.550000000000000E10    1.207224559038878E-4   6.732854526489973E-4  
 2.552000000000000E10    2.831356250680983E-4   2.046295703621581E-4  
 2.554000000000000E10   -3.857484553009272E-4  -2.888563030865043E-4  
 2.556000000000000E10   -6.696824129903689E-5  -2.373715506109875E-5  
 2.558000000000000E10    2.230584941571578E-4  -2.458193048369139E-4  
 2.560000000000000E10    5.745026282966137E-4  -5.624829791486263E-4  
 2.562000000000000E10    1.118191285058856E-4  -6.220251088961959E-5  
 2.564000000000000E10   -1.490865251980722E-4  -1.072376926458674E-5  
 2.566000000000000E10    2.364265819778666E-4   1.899802882689983E-4  
 2.568000000000000E10    6.011952791595832E-5   3.808459732681513E-4  
 2.570000000000000E10   -5.630433224723674E-5   1.943686074810103E-4  
 2.572000000000000E10    3.133977588731796E-4  -4.558130603982136E-5  
 2.574000000000000E10    2.383453684160486E-4  -4.781272946274839E-5  
 2.576000000000000E10   -1.327737991232425E-4  -2.994786191266030E-4  
 2.578000000000000E10   -8.691258699400351E-5   1.228988257935271E-4  
 2.580000000000000E10    2.870330063160509E-4   3.623806333052926E-5  
 2.582000000000000E10   -1.312147651333362E-5  -3.191625000908971E-4  
 2.584000000000000E10   -1.186072331620380E-4  -4.501643998082727E-4  
 2.586000000000000E10   -1.057902954926249E-5   4.171097534708679E-4  
 2.588000000000000E10    2.016437065321952E-4  -1.925021933857352E-4  
 2.590000000000000E10    5.614017136394978E-4  -4.519926733337343E-4  
 2.592000000000000E10   -3.008429775945842E-4  -4.615634388756007E-4  
 2.594000000000000E10    2.281559864059091E-5  -4.223007999826223E-5  
 2.596000000000000E10    3.560436016414315E-4   2.009454910876229E-4  
 2.598000000000000E10    1.095971092581749E-4  -2.757557958830148E-4  
 2.600000000000000E10   -7.341869786614552E-5   2.286647941218689E-5  
 2.602000000000000E10   -3.101784677710384E-4   1.001049895421602E-4  
 2.604000000000000E10   -8.057841332629323E-4  -4.007040115538985E-4  
 2.606000000000000E10   -3.821020072791725E-4  -3.399517154321075E-4  
 2.608000000000000E10   -4.498240887187421E-4  -4.106491105630994E-4  
 2.610000000000000E10   -1.442019711248577E-4  -1.028983271680772E-3  
 2.612000000000000E10    1.394939172314480E-4  -4.196516238152981E-4  
 2.614000000000000E10   -7.958061905810610E-5  -1.343549083685502E-4  
 2.616000000000000E10    2.812722523231059E-4   4.521701703197323E-5  
 2.618000000000000E10   -3.399520937819034E-4   5.344229284673929E-4  
 2.620000000000000E10   -2.551834913901985E-4  -5.164554750081152E-6  
 2.622000000000000E10   -9.572356357239187E-4  -2.454943341945182E-6  
 2.624000000000000E10   -8.882970432750881E-4  -1.115538907470182E-6  
 2.626000000000000E10   -3.681795205920935E-4  -1.485309257986955E-5  
 2.628000000000000E10    5.167929339222610E-4  -7.468727417290211E-4  
 2.630000000000000E10   -3.036966081708670E-4  -4.392607370391488E-4  
 2.632000000000000E10   -2.897304948419333E-4  -2.398381038801745E-4  
 2.634000000000000E10    3.974024730268866E-4   7.086266996338964E-4  
 2.636000000000000E10    9.724323899718002E-5   4.138149961363524E-4  
 2.638000000000000E10    2.330307179363444E-4   2.470142208039761E-4  
 2.640000000000000E10   -5.501250270754099E-4   2.362546510994434E-4  
 2.642000000000000E10   -4.721051082015038E-4   1.003311335807666E-4  
 2.644000000000000E10   -4.572173347696662E-4   1.010186242638156E-4  
 2.646000000000000E10    1.755490811774507E-4  -1.231416244991124E-4  
 2.648000000000000E10    9.364330253447406E-7  -3.355792723596096E-4  
 2.650000000000000E10    4.894206067547202E-4  -6.570936529897153E-4  
 2.652000000000000E10   -9.254134783986956E-5   3.116709995083511E-4  
 2.654000000000000E10    2.459247480146587E-4   4.692897200584412E-4  
 2.656000000000000E10    1.033579581417143E-3   8.895585197024047E-4  
 2.658000000000000E10   -6.089799717301503E-5   1.324240729445592E-4  
 2.660000000000000E10   -6.475498666986823E-4   3.936247230740264E-5  
 2.662000000000000E10   -1.967281423276290E-4   6.784977158531547E-4  
 2.664000000000000E10    1.865748927230015E-4   1.294759713346139E-4  
 2.666000000000000E10    3.319595416542143E-4  -6.385863525792956E-4  
 2.668000000000000E10    2.939638507086784E-4  -2.067494933726266E-4  
 2.670000000000000E10   -1.389626122545451E-4   2.437548537272960E-4  
 2.672000000000000E10    6.861410220153630E-4   8.547850302420557E-5  
 2.674000000000000E10    6.373309879563749E-4   7.094742031767964E-4  
 2.676000000000000E10    2.928971953224391E-4   2.046893350780010E-4  
 2.678000000000000E10    3.244227264076471E-4   2.319493796676397E-4  
 2.680000000000000E10   -4.468041879590601E-5   1.007439350360073E-4  
 2.682000000000000E10   -4.161740653216839E-4   2.935217344202101E-4  
 2.684000000000000E10    2.687452652025968E-4   8.624044130556285E-5  
 2.686000000000000E10    4.746052436530590E-4  -1.609348983038217E-4  
 2.688000000000000E10   -4.617169543053024E-5  -5.133750382810831E-4  
 2.690000000000000E10    2.139275457011536E-4  -9.097586735151708E-5  
 2.692000000000000E10    3.540720208548009E-4   6.471389206126332E-4  
 2.694000000000000E10    6.544633070006967E-4   1.054769963957369E-4  
 2.696000000000000E10    7.564772968180478E-4  -2.815099142026156E-4  
 2.698000000000000E10    1.015681045828387E-4   1.422274999640649E-5  
 2.700000000000000E10    1.702193985693157E-4   2.094125666189939E-4  
 2.702000000000000E10   -2.781615512503777E-5   1.653882209211588E-4  
 2.704000000000000E10   -1.076247572200373E-4   8.786558464635164E-5  
 2.706000000000000E10    3.149399999529123E-4  -2.103140432154760E-4  
 2.708000000000000E10    7.973783067427576E-5  -2.883429406210780E-4  
 2.710000000000000E10   -3.276816569268704E-4  -5.890534885111265E-5  
 2.712000000000000E10    4.597039660438895E-4  -3.979844768764451E-5  
 2.714000000000000E10    6.938799051567912E-4   5.970776328467764E-5  
 2.716000000000000E10    3.881859302055091E-4  -4.178858653176576E-4  
 2.718000000000000E10    4.846057345275767E-5  -2.288690448040143E-4  
 2.720000000000000E10   -7.897135947132483E-5   5.996196414344013E-4  
 2.722000000000000E10    7.008172105997801E-4   4.492831649258733E-4  
 2.724000000000000E10    3.717903746291995E-5   4.286352123017423E-5  
 2.726000000000000E10   -5.960988928563893E-4  -1.859979383880273E-4  
 2.728000000000000E10    2.959139237646014E-4   2.200041053583846E-4  
 2.730000000000000E10    1.416365266777575E-4  -1.849216496339068E-4  
 2.732000000000000E10   -2.411042514722794E-4  -6.943036569282413E-4  
 2.734000000000000E10    2.656931465025991E-4  -2.980409772135317E-4  
 2.736000000000000E10    4.878556355834007E-4  -2.580388390924782E-4  
 2.738000000000000E10    2.073334690066986E-5   1.046061788656516E-5  
 2.740000000000000E10    2.553406811784953E-4   3.534476854838431E-4  
 2.742000000000000E10    1.380311005050317E-6   1.017139074974693E-4  
 2.744000000000000E10   -2.426184510113671E-4  -3.352082858327776E-4  
 2.746000000000000E10   -7.809685776010156E-4   4.986542990081944E-6  
 2.748000000000000E10   -1.644515723455697E-4   1.772672840161249E-4  
 2.750000000000000E10    5.453848280012608E-4  -3.843292652163655E-4  
 2.752000000000000E10    5.692635750165209E-5  -8.082168642431498E-4  
 2.754000000000000E10   -7.345281192101538E-4  -2.261871413793415E-4  
 2.756000000000000E10   -6.776794180041179E-5   3.575617738533765E-4  
