#  HZ   S   RI   R     50.00 
! Rohde & Schwarz ZVA40 4Ports - Version 3.90 - 1145.1110k42 SN: 100403
! Date: 2023-10-04 09:34:09
! Measurement: S12 
! 
 2.200000000000000E10    1.734856341499835E-4   6.078131846152246E-4  
 2.202000000000000E10    1.516649732366204E-3  -8.758206968195736E-4  
 2.204000000000000E10   -5.429617522167973E-5  -1.902746735140681E-3  
 2.206000000000000E10   -1.831948873586953E-3   8.248211815953255E-4  
 2.208000000000000E10    1.708273892290890E-3   1.533580361865461E-3  
 2.210000000000000E10    1.526649342849851E-3  -1.476959325373173E-3  
 2.212000000000000E10   -1.865188707597554E-3  -9.880403522402048E-4  
 2.214000000000000E10   -7.587000145576894E-4   1.204538042657077E-3  
 2.216000000000000E10    1.217004726640880E-3   3.021096345037222E-4  
 2.218000000000000E10   -3.359274123795331E-4  -1.505266991443932E-3  
 2.220000000000000E10   -8.360975189134479E-4  -7.978143403306603E-4  
 2.222000000000000E10   -3.212091687601060E-4   4.800438473466784E-4  
 2.224000000000000E10    1.134091522544622E-3  -1.725469192024320E-4  
 2.226000000000000E10   -2.031309559242800E-4  -1.233019167557359E-3  
 2.228000000000000E10   -8.719105389900506E-4   9.853994706645608E-4  
 2.230000000000000E10    1.175726647488773E-3   1.144322683103383E-3  
 2.232000000000000E10    5.946729215793312E-4  -1.225049956701696E-3  
 2.234000000000000E10   -2.026090398430824E-3  -1.277320407098159E-4  
 2.236000000000000E10   -5.654789274558425E-4   8.528563193976879E-4  
 2.238000000000000E10    8.430977468378842E-4   3.513279079925269E-4  
 2.240000000000000E10    3.803029539994896E-4  -1.748045091517270E-3  
 2.242000000000000E10   -1.405261224135757E-3  -1.145002082921565E-3  
 2.244000000000000E10   -1.163849083241075E-4   1.389903132803738E-3  
 2.246000000000000E10    1.684873714111745E-3   8.358905324712396E-5  
 2.248000000000000E10   -1.745056943036616E-4  -1.785937114618719E-3  
 2.250000000000000E10   -9.410122875124216E-4   1.146397087723017E-3  
 2.252000000000000E10    4.829643585253507E-4   6.961752660572529E-4  
 2.254000000000000E10    2.084465522784740E-4  -4.623731074389070E-4  
 2.256000000000000E10   -7.644955767318606E-4  -3.786015731748194E-4  
 2.258000000000000E10   -6.024863105267286E-4   4.391280235722661E-4  
 2.260000000000000E10    8.798493072390556E-4   3.617320617195219E-4  
 2.262000000000000E10    7.870524423196912E-4  -9.668156853877008E-4  
 2.264000000000000E10   -1.177793834358454E-3  -6.000250577926636E-4  
 2.266000000000000E10    7.645376172149554E-5   1.645158044993877E-3  
 2.268000000000000E10    1.557275420054793E-3  -2.021153486566618E-4  
 2.270000000000000E10    2.349786809645593E-4  -1.070975093171001E-3  
 2.272000000000000E10   -1.335834152996540E-3   1.011999556794763E-3  
 2.274000000000000E10    1.083606272004545E-3   7.978327339515090E-4  
 2.276000000000000E10    1.001270720735192E-3  -7.360939634963870E-4  
 2.278000000000000E10   -4.712164227385074E-4  -6.017706473357976E-4  
 2.280000000000000E10   -5.969190970063210E-4   9.831748902797699E-4  
 2.282000000000000E10    6.999268662184477E-4   5.560164572671056E-4  
 2.284000000000000E10    6.192330620251596E-4  -5.422307294793427E-4  
 2.286000000000000E10   -5.135584506206214E-4  -5.187779315747321E-4  
 2.288000000000000E10    1.161978889285820E-5   9.050694643519819E-4  
 2.290000000000000E10    1.035836525261402E-3   4.612946358975023E-4  
 2.292000000000000E10    6.146711530163884E-4  -1.112530007958412E-3  
 2.294000000000000E10   -9.885893668979406E-4   1.691833022050560E-4  
 2.296000000000000E10    4.512936866376549E-4   6.056940765120089E-4  
 2.298000000000000E10    4.474535817280412E-4  -6.631873839069158E-5  
 2.300000000000000E10   -3.724685811903328E-4  -6.802182178944349E-4  
 2.302000000000000E10   -5.574817769229412E-4   3.101528855040669E-4  
 2.304000000000000E10    3.848077321890742E-4   4.656891396734864E-4  
 2.306000000000000E10    6.615224992856383E-4  -8.137726690620184E-4  
 2.308000000000000E10   -5.023025441914797E-4  -6.367589230649173E-4  
 2.310000000000000E10   -3.120751935057342E-4   7.077830377966166E-4  
 2.312000000000000E10    1.010437030345202E-3  -7.579082193842623E-6  
 2.314000000000000E10    5.266502266749740E-4  -8.902618428692222E-4  
 2.316000000000000E10   -5.586441257037222E-4   2.617620339151472E-4  
 2.318000000000000E10    5.911555490456522E-4   7.255483069457114E-4  
 2.320000000000000E10    8.711783448234201E-4  -2.339577185921371E-4  
 2.322000000000000E10    4.813916166312993E-5  -1.474318414693698E-4  
 2.324000000000000E10   -4.656762466765940E-4   5.574196693487465E-4  
 2.326000000000000E10    5.192720564082265E-4   9.716642089188099E-4  
 2.328000000000000E10    7.586288265883923E-4  -5.360402865335345E-4  
 2.330000000000000E10   -9.483726462349296E-4  -7.303214515559375E-4  
 2.332000000000000E10   -6.795912631787360E-4   7.404884672723711E-4  
 2.334000000000000E10    7.776339771226049E-4   3.920446906704456E-4  
 2.336000000000000E10    4.638182872440666E-4  -2.994486712850630E-4  
 2.338000000000000E10   -2.171925589209423E-4  -3.224690954084508E-5  
 2.340000000000000E10   -3.195884346496314E-4   3.577813622541726E-4  
 2.342000000000000E10    5.195869598537684E-4   6.319841486401856E-4  
 2.344000000000000E10   -2.216793509433046E-4  -2.949569352495018E-5  
 2.346000000000000E10   -1.598303933860734E-4   1.029192586429417E-3  
 2.348000000000000E10    4.838598251808435E-4   3.160438791383058E-4  
 2.350000000000000E10    7.306136103579775E-5  -7.447758107446134E-4  
 2.352000000000000E10   -7.567663560621440E-4   2.469895407557488E-4  
 2.354000000000000E10    8.207267092075199E-5   5.561811849474907E-4  
 2.356000000000000E10    7.076078327372670E-4   2.311224088771269E-4  
 2.358000000000000E10    9.522702894173563E-4  -9.366762824356556E-4  
 2.360000000000000E10   -6.402606377378106E-4  -4.173643246758729E-4  
 2.362000000000000E10   -5.992240621708334E-4   6.680650985799730E-4  
 2.364000000000000E10    8.899067761376500E-4   6.707084248773754E-4  
 2.366000000000000E10   -1.868994586402550E-4  -2.908372553065419E-4  
 2.368000000000000E10   -5.993245868012309E-4  -1.761241437634453E-4  
 2.370000000000000E10   -9.927637438522652E-5  -2.955483796540648E-5  
 2.372000000000000E10   -3.426711773499847E-4  -2.773326996248215E-4  
 2.374000000000000E10   -3.179521081619896E-5  -1.656593085499480E-4  
 2.376000000000000E10    6.071472889743745E-4   2.372105664107949E-4  
 2.378000000000000E10   -1.859988842625171E-4   2.292350254720077E-4  
 2.380000000000000E10    6.445361650548875E-4  -2.401621168246493E-4  
 2.382000000000000E10   -5.954697844572365E-4   2.783562813419849E-4  
 2.384000000000000E10   -1.557815412525088E-4   6.058537983335555E-4  
 2.386000000000000E10    7.876063464209437E-4  -2.271301782457158E-4  
 2.388000000000000E10   -4.037872131448239E-4  -7.037065806798637E-4  
 2.390000000000000E10   -5.071409977972508E-4  -3.715367056429386E-4  
 2.392000000000000E10    2.464794306433760E-5  -1.706028560874984E-4  
 2.394000000000000E10    4.828568780794740E-4  -7.223775173770264E-5  
 2.396000000000000E10    6.340914405882359E-4  -6.921814056113362E-4  
 2.398000000000000E10   -1.961241505341604E-4  -1.067500706994906E-4  
 2.400000000000000E10   -6.209479761309922E-5   6.984575884416699E-4  
 2.402000000000000E10    5.892119952477515E-4  -1.966412237379700E-4  
 2.404000000000000E10    1.519675570307300E-4  -2.381923422944965E-6  
 2.406000000000000E10   -2.055547956842929E-4  -1.110179364331998E-4  
 2.408000000000000E10   -2.955998061224818E-4  -1.405064540449530E-4  
 2.410000000000000E10    6.154644652269781E-4  -1.272036388400011E-5  
 2.412000000000000E10   -3.506265784380958E-5  -1.255395618500188E-4  
 2.414000000000000E10    1.015442656353116E-3  -3.279566590208560E-4  
 2.416000000000000E10    5.479219835251570E-4  -7.190499454736710E-4  
 2.418000000000000E10   -8.950023329816759E-4  -1.876447349786758E-4  
 2.420000000000000E10    5.349137354642153E-4   1.118150888942182E-3  
 2.422000000000000E10    5.197306163609028E-4  -1.342319883406162E-4  
 2.424000000000000E10    2.930479822680354E-4  -3.888327337335795E-4  
 2.426000000000000E10    1.227089524036273E-5  -7.661101408302784E-4  
 2.428000000000000E10   -1.015028799884021E-3   3.590203123167157E-4  
 2.430000000000000E10    7.562142127426341E-5   6.987236556597054E-4  
 2.432000000000000E10    1.370281912386417E-3   6.759752432117239E-5  
 2.434000000000000E10   -2.265439543407410E-4  -3.121142799500376E-4  
 2.436000000000000E10    7.439328328473494E-6  -2.628192014526576E-4  
 2.438000000000000E10   -5.825482658110559E-4   7.946373661980033E-4  
 2.440000000000000E10    2.708586980588734E-4   8.864975534379482E-4  
 2.442000000000000E10    8.861203095875680E-4  -2.407441352261230E-4  
 2.444000000000000E10    1.272836107091280E-5  -3.995104343630374E-4  
 2.446000000000000E10   -2.338249469175935E-4   1.147577422671020E-4  
 2.448000000000000E10   -9.544528438709676E-6   9.514953853795305E-5  
 2.450000000000000E10    2.311621792614460E-4   9.369294275529683E-4  
 2.452000000000000E10    4.973202594555914E-4  -1.337867433903739E-4  
 2.454000000000000E10    9.676864283392206E-5   3.393323568161577E-4  
 2.456000000000000E10   -3.119990287814289E-4   2.884279820136726E-4  
 2.458000000000000E10   -3.675286134239286E-4  -1.427580427844077E-4  
 2.460000000000000E10   -4.379508027341217E-4   4.048297705594450E-4  
 2.462000000000000E10    3.159611951559782E-4   1.908750418806449E-4  
 2.464000000000000E10   -1.270148641197011E-4  -7.903323858045042E-4  
 2.466000000000000E10   -3.182220825692639E-5   1.931523584062234E-4  
 2.468000000000000E10   -2.774407039396465E-4   4.954215255565941E-4  
 2.470000000000000E10    3.964514762628824E-4   2.153040404664353E-4  
 2.472000000000000E10   -1.466046524001285E-4   6.310486933216453E-4  
 2.474000000000000E10   -7.075562607496977E-4  -2.079666046483908E-5  
 2.476000000000000E10   -7.671900675632060E-4   6.544883362948895E-4  
 2.478000000000000E10   -1.727027702145279E-4   4.459202755242586E-4  
 2.480000000000000E10   -5.041263648308814E-4  -4.397107404656708E-4  
 2.482000000000000E10   -4.313889949116856E-4  -3.085898933932185E-4  
 2.484000000000000E10    2.971363137476146E-4   3.182044601999223E-4  
 2.486000000000000E10    6.265979027375579E-5  -5.690425750799477E-4  
 2.488000000000000E10    2.371758746448904E-4   1.804708590498194E-4  
 2.490000000000000E10   -2.304034278495237E-4   1.444981025997549E-4  
 2.492000000000000E10    4.560333400149830E-5  -1.390470861224458E-4  
 2.494000000000000E10   -2.420197561150417E-4  -1.334140542894602E-4  
 2.496000000000000E10   -6.928075454197824E-4   1.240734563907608E-4  
 2.498000000000000E10   -2.908669121097773E-4   1.682582660578191E-4  
 2.500000000000000E10    2.795657492242754E-4  -3.778891696128994E-4  
 2.502000000000000E10   -1.431502605555579E-4  -6.715026684105396E-4  
 2.504000000000000E10   -5.989766796119511E-4  -4.740433651022613E-4  
 2.506000000000000E10    4.675911332014948E-4   7.863399805501103E-4  
 2.508000000000000E10    2.274309663334861E-4  -3.790828923229128E-4  
 2.510000000000000E10   -8.938504470279440E-5   1.430294378224062E-5  
 2.512000000000000E10   -7.680853013880551E-4  -5.276090632833075E-6  
 2.514000000000000E10    1.562522265885491E-5   5.710539408028126E-4  
 2.516000000000000E10    7.589373126393184E-5  -6.127220694907010E-4  
 2.518000000000000E10   -3.154656733386219E-4  -3.335582150612027E-4  
 2.520000000000000E10    6.533124542329460E-5  -2.321797655895352E-4  
 2.522000000000000E10    1.571514731040224E-4  -5.064326687715948E-4  
 2.524000000000000E10    1.286391634494066E-4  -2.643227926455438E-4  
 2.526000000000000E10   -4.399369936436415E-4  -1.992125762626529E-4  
 2.528000000000000E10    2.027598929998931E-5   4.721732984762639E-4  
 2.530000000000000E10    1.290379168494837E-5  -2.970921923406422E-4  
 2.532000000000000E10    3.126054070889950E-5  -2.071511989925057E-4  
 2.534000000000000E10   -4.953427705913782E-4  -4.917004844173789E-4  
 2.536000000000000E10    5.820786464028060E-5   8.043136913329363E-4  
 2.538000000000000E10    3.165417874697596E-4  -4.480339412111789E-4  
 2.540000000000000E10   -3.839280980173498E-4  -8.914242789614946E-5  
 2.542000000000000E10   -3.888583742082119E-4  -4.502589217736386E-5  
 2.544000000000000E10    3.666624252218753E-4   2.595902769826353E-4  
 2.546000000000000E10    1.997100916923955E-4  -2.871394681278616E-4  
 2.548000000000000E10    6.720509554725140E-5  -3.686548734549433E-4  
 2.550000000000000E10   -2.032028569374234E-4   8.116335811791942E-5  
 2.552000000000000E10    4.035963502246887E-4   3.651752485893667E-4  
 2.554000000000000E10    1.735180267132819E-4  -3.132061974611133E-4  
 2.556000000000000E10    1.811262918636203E-4   2.714291258598678E-5  
 2.558000000000000E10    5.725651590182679E-6   2.368779405514943E-6  
 2.560000000000000E10    5.152980447746813E-4  -3.924841075786389E-5  
 2.562000000000000E10   -1.796839787857607E-4  -4.998778240405954E-5  
 2.564000000000000E10   -1.322788448305801E-4  -3.510743408696726E-5  
 2.566000000000000E10    3.224739339202642E-4  -4.511171209742315E-5  
 2.568000000000000E10    1.344540069112554E-4  -8.605601615272462E-4  
 2.570000000000000E10   -3.485149354673922E-4   1.254273229278624E-4  
 2.572000000000000E10    1.802826009225100E-4   5.642967516905628E-5  
 2.574000000000000E10    7.867307285778225E-4   1.723291934467852E-4  
 2.576000000000000E10   -1.798097218852490E-5  -5.124424933455885E-4  
 2.578000000000000E10   -3.950791433453560E-4   2.280036278534681E-4  
 2.580000000000000E10   -2.712683053687215E-4   1.050013597705402E-4  
 2.582000000000000E10    1.380617904942483E-4   8.461646939394996E-5  
 2.584000000000000E10    6.041866799932905E-5  -6.232217419892550E-4  
 2.586000000000000E10   -2.531990176066756E-4  -3.314194036647677E-4  
 2.588000000000000E10    1.291032240260392E-4   2.180678129661828E-4  
 2.590000000000000E10    7.161167013691738E-5  -4.390578251332045E-4  
 2.592000000000000E10    4.515022446867079E-4   1.105736882891506E-4  
 2.594000000000000E10   -4.478591727092862E-4  -4.269387864042074E-4  
 2.596000000000000E10    3.791507915593684E-4  -3.750645846594125E-4  
 2.598000000000000E10   -1.682293950580061E-4   4.541569796856493E-5  
 2.600000000000000E10    8.219594019465148E-5  -5.157470586709678E-4  
 2.602000000000000E10    9.691399463918060E-5   5.552432849071920E-4  
 2.604000000000000E10   -1.052825882652542E-5  -5.636923597194254E-4  
 2.606000000000000E10    4.279132699593902E-4  -1.673500955803320E-4  
 2.608000000000000E10   -6.207921542227268E-4   2.490171027602628E-5  
 2.610000000000000E10    9.087860817089677E-4   3.779631224460900E-4  
 2.612000000000000E10   -5.663358606398106E-4  -4.514906686381437E-5  
 2.614000000000000E10    6.278535583987832E-4  -5.853569018654525E-4  
 2.616000000000000E10   -8.623115718364716E-4  -2.726472121139523E-5  
 2.618000000000000E10    4.041457723360509E-4   1.197867532027885E-4  
 2.620000000000000E10    3.616787435021251E-4   1.173326745629311E-4  
 2.622000000000000E10    3.466267080511898E-4  -3.905782941728830E-4  
 2.624000000000000E10   -1.628687896300107E-4  -6.797016794735100E-6  
 2.626000000000000E10   -5.448641968541779E-5   5.965760210528970E-4  
 2.628000000000000E10    5.264139617793262E-4  -2.759743620117661E-5  
 2.630000000000000E10   -2.351938601350412E-4   2.646914217621088E-4  
 2.632000000000000E10   -6.785536970710382E-5   2.653591218404472E-5  
 2.634000000000000E10   -9.113288251683116E-5   6.257987115532160E-5  
 2.636000000000000E10   -5.655114728142507E-5  -1.814600545912981E-4  
 2.638000000000000E10   -4.575593338813633E-4   1.572710898471996E-4  
 2.640000000000000E10    6.896533304825425E-4   6.070221934351139E-5  
 2.642000000000000E10   -3.159863408654928E-4  -2.347328554606065E-4  
 2.644000000000000E10    4.262629954610020E-4  -5.094124935567379E-4  
 2.646000000000000E10   -5.618623108603060E-4   8.102774154394865E-4  
 2.648000000000000E10    6.465899641625583E-4  -7.572714366688160E-6  
 2.650000000000000E10    3.250552399549633E-4   8.053563215071335E-5  
 2.652000000000000E10   -9.920912270899862E-5  -3.755070501938462E-4  
 2.654000000000000E10   -4.659187106881291E-4   3.350997576490045E-4  
 2.656000000000000E10    3.001679397129919E-5   5.803996464237571E-4  
 2.658000000000000E10    7.118936628103256E-4   5.063389471615665E-5  
 2.660000000000000E10   -2.423068799544126E-4  -4.585656861308962E-4  
 2.662000000000000E10   -8.276540756924078E-5  -1.255206880159676E-4  
 2.664000000000000E10   -1.610483886906877E-4   4.778716829605401E-4  
 2.666000000000000E10    2.373923489358276E-4  -6.044709152774885E-5  
 2.668000000000000E10    2.767787082120776E-4   1.952227903530002E-4  
 2.670000000000000E10   -1.207555687869899E-4  -2.443731937091798E-4  
 2.672000000000000E10   -1.792853981896769E-5  -2.432879846310243E-4  
 2.674000000000000E10   -7.769110379740596E-4   1.305420446442440E-4  
 2.676000000000000E10    2.287388488184661E-4   4.407514061313123E-4  
 2.678000000000000E10    6.166363018564880E-4   1.746604539221153E-4  
 2.680000000000000E10    5.070270854048431E-4  -5.416188505478203E-4  
 2.682000000000000E10   -7.297222036868334E-4  -2.379249490331858E-4  
 2.684000000000000E10    1.720336003927514E-4   2.110884088324383E-4  
 2.686000000000000E10    3.238595381844789E-4   6.146502564661205E-4  
 2.688000000000000E10    4.968962748534977E-4  -5.440053064376116E-4  
 2.690000000000000E10   -4.804029013030231E-4  -3.927988582290709E-4  
 2.692000000000000E10    3.228817877243273E-5   3.373623185325414E-4  
 2.694000000000000E10    3.244560793973506E-4   2.012825716519728E-4  
 2.696000000000000E10    4.899994019069709E-5  -2.741645730566233E-4  
 2.698000000000000E10    2.028058224823326E-4  -8.778330811765045E-5  
 2.700000000000000E10    2.149361534975469E-4  -9.941374446498230E-5  
 2.702000000000000E10    8.319699554704130E-5  -1.690029748715460E-4  
 2.704000000000000E10   -1.437144092051312E-4   5.919437535339966E-5  
 2.706000000000000E10    3.750222385860980E-4   3.276113129686564E-4  
 2.708000000000000E10    2.678103046491742E-4  -4.344792978372425E-4  
 2.710000000000000E10   -2.431924513075501E-4  -8.304207585752010E-5  
 2.712000000000000E10   -1.744075416354463E-4   2.013144257944077E-4  
 2.714000000000000E10    1.097631102311425E-4   4.916416946798563E-4  
 2.716000000000000E10    4.574676859192550E-4  -3.175903111696243E-4  
 2.718000000000000E10   -2.018029044847935E-4  -6.448841886594892E-4  
 2.720000000000000E10   -5.060707335360348E-4   2.641213650349528E-4  
 2.722000000000000E10    1.727432972984389E-4   1.367140212096274E-4  
 2.724000000000000E10   -3.099100140389055E-4   2.142661833204329E-5  
 2.726000000000000E10    3.434254613239318E-4  -1.110703888116404E-4  
 2.728000000000000E10   -2.323104126844555E-4  -1.912218431243673E-4  
 2.730000000000000E10   -2.684516766748857E-5   1.186504086945206E-4  
 2.732000000000000E10    2.802121452987194E-4   4.883174551650882E-4  
 2.734000000000000E10    2.883293782360852E-4  -2.313291770406067E-4  
 2.736000000000000E10   -3.995358565589413E-5   1.743027823977172E-4  
 2.738000000000000E10   -4.536551932687871E-5  -7.185951108112931E-4  
 2.740000000000000E10   -2.843067923095077E-4   9.213055454893038E-5  
 2.742000000000000E10   -1.501003134762868E-4   5.947733297944069E-4  
 2.744000000000000E10    6.990001420490444E-4  -3.394523519091308E-4  
 2.746000000000000E10   -2.947387110907584E-5  -1.779569574864581E-4  
 2.748000000000000E10   -6.540661561302841E-4  -2.039479732047766E-4  
 2.750000000000000E10    2.615506818983704E-4   2.659607271198183E-4  
 2.752000000000000E10    2.759933413472027E-4   1.102508904295974E-4  
 2.754000000000000E10    6.378442776622251E-5  -1.922219089465216E-4  
 2.756000000000000E10    2.564320166129619E-4   9.630409476812929E-5  
