#  HZ   S   RI   R     50.00 
! Rohde & Schwarz ZVA40 4Ports - Version 3.90 - 1145.1110k42 SN: 100403
! Date: 2023-10-04 09:33:55
! Measurement: S12 
! 
 2.200000000000000E10   -1.034343149513006E-3   9.289007866755128E-4  
 2.202000000000000E10    8.511701598763466E-4   7.769364747218788E-4  
 2.204000000000000E10    5.285533261485398E-4  -1.014924258925021E-3  
 2.206000000000000E10   -1.391756813973188E-3  -8.863546827342361E-5  
 2.208000000000000E10    3.698730142787099E-4   3.643569652922452E-4  
 2.210000000000000E10    3.685032061184757E-5  -5.406190757639706E-4  
 2.212000000000000E10    8.920958498492837E-5  -3.066067874897271E-4  
 2.214000000000000E10   -2.512824430596083E-4   2.953813527710736E-4  
 2.216000000000000E10    4.975660704076290E-4   2.745237143244594E-4  
 2.218000000000000E10    8.645418565720320E-4  -3.498236474115402E-4  
 2.220000000000000E10   -1.009920961223543E-3  -1.011157990433276E-3  
 2.222000000000000E10   -7.225314620882273E-4   1.716381870210171E-3  
 2.224000000000000E10    1.918499823659658E-3   6.076492136344314E-4  
 2.226000000000000E10   -6.948922236915678E-5  -1.488307490944862E-3  
 2.228000000000000E10   -1.361944945529103E-3   3.728932351805270E-4  
 2.230000000000000E10    3.919804585166276E-4   9.886737680062652E-4  
 2.232000000000000E10    4.616115184035152E-4  -5.970375059405342E-5  
 2.234000000000000E10    2.147530321963131E-4  -6.954679847694933E-4  
 2.236000000000000E10   -1.043119118548930E-3  -4.946189583279192E-4  
 2.238000000000000E10    2.395395276835188E-4   1.101032830774784E-3  
 2.240000000000000E10    1.188208349049091E-3  -3.892159147653729E-4  
 2.242000000000000E10   -3.899740986526012E-4  -6.688098073936999E-4  
 2.244000000000000E10   -4.549642908386886E-4   1.040124334394932E-3  
 2.246000000000000E10    8.699968457221985E-4   2.153662790078670E-4  
 2.248000000000000E10    2.487486344762147E-4  -3.573308058548719E-4  
 2.250000000000000E10   -9.816808160394430E-4  -1.497108751209453E-4  
 2.252000000000000E10   -7.981360249686986E-5   1.290084677748382E-3  
 2.254000000000000E10    6.011002114973962E-4  -2.839642984326929E-4  
 2.256000000000000E10   -3.320975520182401E-4  -6.853726808913052E-4  
 2.258000000000000E10   -1.008527236990631E-3   9.602168574929237E-5  
 2.260000000000000E10    2.437315124552697E-4   1.150053460150957E-3  
 2.262000000000000E10    8.476586081087589E-4  -3.763998392969370E-4  
 2.264000000000000E10   -1.231824862770736E-4  -8.236333378590643E-4  
 2.266000000000000E10   -1.340975635685027E-3   7.290061912499368E-4  
 2.268000000000000E10    9.284805855713785E-4   6.440872675739229E-4  
 2.270000000000000E10    3.068347868975252E-4  -6.074215634725988E-4  
 2.272000000000000E10   -4.185706493444741E-4  -1.525850530015305E-4  
 2.274000000000000E10   -3.333720542286756E-6   6.977802840992808E-4  
 2.276000000000000E10    5.721005072700791E-5  -6.561968621099368E-5  
 2.278000000000000E10    2.275991137139499E-4  -5.674865678884089E-5  
 2.280000000000000E10   -3.571162233129144E-4  -2.448133891448379E-4  
 2.282000000000000E10   -6.589143886230886E-4   7.106811390258372E-4  
 2.284000000000000E10    9.060452575795353E-4  -5.661551404045895E-5  
 2.286000000000000E10   -4.759118601214141E-4  -7.020632037892938E-4  
 2.288000000000000E10   -4.558676446322352E-4   8.483740966767073E-4  
 2.290000000000000E10    3.901986056007445E-4   3.872495653922670E-5  
 2.292000000000000E10    1.989409356610850E-4   4.217720743326936E-6  
 2.294000000000000E10   -5.986879841657355E-6  -5.535706295631826E-4  
 2.296000000000000E10   -5.238221492618322E-4   2.053646312560886E-4  
 2.298000000000000E10    7.884658989496529E-4   4.996914067305625E-4  
 2.300000000000000E10    3.724295820575208E-4  -8.693680283613503E-4  
 2.302000000000000E10   -7.591180037707090E-4   5.875301430933178E-4  
 2.304000000000000E10    7.390720420517027E-4   4.190957988612354E-4  
 2.306000000000000E10    1.790657115634531E-4  -2.500035625416786E-4  
 2.308000000000000E10   -2.009510644711554E-4  -3.847459156531841E-4  
 2.310000000000000E10   -7.142518879845738E-4   5.104751835460775E-5  
 2.312000000000000E10   -2.285642549395561E-4   7.755067199468613E-4  
 2.314000000000000E10    7.440445479005575E-4  -3.054025291930884E-4  
 2.316000000000000E10   -5.866953288204968E-4  -9.938671719282866E-4  
 2.318000000000000E10   -5.461417022161186E-4   5.718387546949089E-4  
 2.320000000000000E10    4.248439217917621E-4   3.411106590647250E-4  
 2.322000000000000E10    2.488061436451972E-4  -3.571166598703712E-4  
 2.324000000000000E10    2.043270214926451E-4  -3.171154094161466E-5  
 2.326000000000000E10   -2.963649458251894E-4  -1.535471965325996E-4  
 2.328000000000000E10   -1.388712698826566E-4   2.128819323843345E-4  
 2.330000000000000E10    1.067633711500093E-4  -4.397862721816637E-5  
 2.332000000000000E10   -6.906598573550582E-4  -8.844516560202465E-5  
 2.334000000000000E10    2.233321138191968E-4   9.008963243104518E-4  
 2.336000000000000E10    6.193586741574109E-4  -1.155583304353058E-3  
 2.338000000000000E10   -1.073475345037878E-3  -1.553766342112795E-4  
 2.340000000000000E10   -1.893337030196562E-4   3.821021236944944E-4  
 2.342000000000000E10    5.401574308052659E-4   2.941460406873375E-4  
 2.344000000000000E10    7.265959284268320E-4  -5.361607763916254E-4  
 2.346000000000000E10   -5.223988555371761E-4  -4.869763215538114E-4  
 2.348000000000000E10   -3.488835936877877E-4   5.178992287255824E-4  
 2.350000000000000E10    3.765762376133353E-4   1.742997119436041E-5  
 2.352000000000000E10    5.085887096356601E-6  -2.235402207588777E-4  
 2.354000000000000E10    2.116123323503416E-5  -3.766474546864629E-4  
 2.356000000000000E10   -8.407709538005292E-4  -7.363425538642332E-5  
 2.358000000000000E10    6.200227653607726E-4   1.530279259895906E-4  
 2.360000000000000E10    2.088415931211785E-5  -8.543698349967599E-4  
 2.362000000000000E10   -5.036005750298500E-4   6.843458395451307E-4  
 2.364000000000000E10    1.153205987066031E-3  -1.839979959186167E-4  
 2.366000000000000E10   -5.133835365995765E-4  -4.682918079197407E-4  
 2.368000000000000E10    2.748999395407736E-4   4.694954550359398E-4  
 2.370000000000000E10    2.409528497082647E-5  -1.520095538580790E-4  
 2.372000000000000E10    4.022948851343244E-4   4.913372104056180E-4  
 2.374000000000000E10    2.416965580778197E-4  -7.119444198906422E-4  
 2.376000000000000E10   -9.152066195383668E-4  -2.436422801110894E-4  
 2.378000000000000E10    4.622169653885067E-4   7.951101288199425E-4  
 2.380000000000000E10    7.264344603754580E-4  -5.184100591577590E-4  
 2.382000000000000E10   -4.808016456081532E-5  -2.726585626078304E-5  
 2.384000000000000E10   -3.363049472682178E-4  -5.653489497490227E-4  
 2.386000000000000E10   -5.391594022512436E-4   1.363395829685032E-3  
 2.388000000000000E10    1.060911454260349E-3   4.325063491705805E-4  
 2.390000000000000E10   -1.838723692344502E-4  -4.436115850694478E-4  
 2.392000000000000E10   -9.084805060410872E-5   3.360156842973083E-4  
 2.394000000000000E10   -5.800807266496122E-4  -1.752554453560151E-5  
 2.396000000000000E10   -2.123755257343873E-4   8.114220108836889E-4  
 2.398000000000000E10    6.066348869353533E-4   4.155790156801231E-5  
 2.400000000000000E10    6.546864460688084E-5   2.255576691823080E-4  
 2.402000000000000E10    3.717132494784892E-4  -5.605923433904536E-5  
 2.404000000000000E10   -5.130739300511777E-4  -4.203428397886455E-5  
 2.406000000000000E10   -1.545535051263869E-4   1.095692277885974E-3  
 2.408000000000000E10    6.640132633037865E-4   4.559255612548441E-4  
 2.410000000000000E10    2.969930210383609E-5  -1.374503190163523E-4  
 2.412000000000000E10   -4.304141912143678E-4  -5.422524991445243E-4  
 2.414000000000000E10   -8.168257772922516E-4   1.455942256143317E-4  
 2.416000000000000E10   -1.904547971207649E-4   8.769403793849051E-4  
 2.418000000000000E10    8.336619357578456E-4   6.493256478279363E-6  
 2.420000000000000E10   -4.629590839613229E-4  -6.102731567807496E-4  
 2.422000000000000E10   -1.604635035619140E-4  -1.531294037704356E-5  
 2.424000000000000E10   -7.023940561339259E-4   3.185037639923394E-4  
 2.426000000000000E10    3.180454659741372E-4   6.461110315285623E-4  
 2.428000000000000E10    2.882317348849028E-4  -1.468437130824896E-5  
 2.430000000000000E10   -5.301156197674573E-4  -7.953136082505807E-5  
 2.432000000000000E10   -5.689621684723534E-5   2.139692369382829E-4  
 2.434000000000000E10   -4.327477654442191E-4   2.692769885470625E-5  
 2.436000000000000E10    1.266939070774242E-4   7.612004410475493E-4  
 2.438000000000000E10    9.008450433611870E-5  -5.809803260490298E-4  
 2.440000000000000E10   -3.006342158187181E-4   3.323117853142321E-4  
 2.442000000000000E10   -2.668763954716269E-5  -1.364449708489701E-4  
 2.444000000000000E10   -6.997497985139489E-4  -2.583157911431044E-4  
 2.446000000000000E10    1.837602030718699E-4   5.975163658149540E-4  
 2.448000000000000E10    2.735100861173123E-4  -6.072835531085730E-4  
 2.450000000000000E10   -5.868326406925917E-4   2.148333733202890E-4  
 2.452000000000000E10    3.716380888363347E-5  -1.830430119298399E-4  
 2.454000000000000E10   -2.874775964301080E-4  -3.756913429242559E-5  
 2.456000000000000E10    5.965577438473702E-4   3.274829359725118E-4  
 2.458000000000000E10    2.909670365625061E-5  -8.758965414017439E-4  
 2.460000000000000E10   -5.638009752146900E-4   3.099921159446240E-4  
 2.462000000000000E10    8.302649803226814E-5  -1.193358330056071E-4  
 2.464000000000000E10   -2.359815989620984E-4  -8.212025568354875E-5  
 2.466000000000000E10    8.783519151620567E-4  -2.288396499352530E-4  
 2.468000000000000E10   -5.240564350970089E-4  -1.229523681104183E-3  
 2.470000000000000E10   -2.807003329508007E-4   4.052943841088563E-4  
 2.472000000000000E10    5.347068654373288E-4  -4.492424777708948E-4  
 2.474000000000000E10   -2.078332181554288E-4   2.016081125475466E-4  
 2.476000000000000E10    7.312450907193124E-4  -1.332949614152312E-4  
 2.478000000000000E10   -5.262595950625837E-4  -6.147129461169243E-4  
 2.480000000000000E10    3.429786374908872E-5   4.287807387299836E-4  
 2.482000000000000E10    3.414668026380241E-4  -5.727250827476382E-4  
 2.484000000000000E10   -4.974127514287829E-4   2.923165739048272E-4  
 2.486000000000000E10    1.090259640477598E-3  -2.849430711648893E-5  
 2.488000000000000E10   -2.797918277792633E-4  -7.750733057036996E-4  
 2.490000000000000E10   -3.164831432513893E-4   3.120939363725483E-4  
 2.492000000000000E10    1.620533294044435E-4  -3.510952228680253E-5  
 2.494000000000000E10   -8.215961133828387E-5   3.078126756008714E-4  
 2.496000000000000E10    9.171543060801923E-4  -1.036422690958716E-4  
 2.498000000000000E10   -5.136830732226372E-4  -3.623298835009337E-4  
 2.500000000000000E10   -5.695220534107648E-5   8.588893688283861E-4  
 2.502000000000000E10    4.610584292095155E-4  -1.989594748010859E-4  
 2.504000000000000E10   -2.144091122318059E-4  -9.622824109101202E-6  
 2.506000000000000E10    2.138982817996293E-4   5.882166442461312E-5  
 2.508000000000000E10    1.166334404842928E-4  -1.627656311029568E-4  
 2.510000000000000E10   -1.078383938875049E-4   1.692769728833810E-4  
 2.512000000000000E10    2.304975168954115E-5  -1.878369657788426E-4  
 2.514000000000000E10   -5.239042220637202E-4   4.445412487257272E-4  
 2.516000000000000E10    4.493310116231442E-4   4.364381893537939E-4  
 2.518000000000000E10   -9.808407412492670E-6  -3.050173982046545E-4  
 2.520000000000000E10   -4.405554209370166E-4   1.615452492842451E-4  
 2.522000000000000E10   -8.672506737639196E-6   3.978832974098623E-4  
 2.524000000000000E10    1.153543489635922E-4  -4.523325696936809E-5  
 2.526000000000000E10    3.380627604201436E-4   4.259936758899130E-6  
 2.528000000000000E10   -3.257033240515739E-4  -1.158480881713331E-4  
 2.530000000000000E10    2.429475134704262E-4   7.183789857663214E-4  
 2.532000000000000E10    2.620773739181459E-4   4.957648343406618E-5  
 2.534000000000000E10   -3.226874978281558E-4   5.422412141342647E-5  
 2.536000000000000E10    2.176624839194119E-4   3.460069128777832E-4  
 2.538000000000000E10   -1.982270478038117E-4  -5.486955706146546E-5  
 2.540000000000000E10   -1.677587424637750E-4   1.797695877030492E-4  
 2.542000000000000E10   -4.725026155938394E-5  -3.021744487341493E-4  
 2.544000000000000E10   -3.555530274752528E-4   1.373529084958136E-5  
 2.546000000000000E10    5.651844548992813E-4   1.609108003322035E-4  
 2.548000000000000E10   -3.322665288578719E-4  -4.796165740117431E-4  
 2.550000000000000E10   -3.035144763998687E-4   3.461539163254201E-4  
 2.552000000000000E10    6.833388470113277E-4   2.527589967940003E-4  
 2.554000000000000E10    7.689587073400617E-5  -3.612431464716792E-4  
 2.556000000000000E10   -2.782356750685722E-4   1.244843315362232E-5  
 2.558000000000000E10   -3.005512116942555E-4   1.614885695744306E-4  
 2.560000000000000E10    1.340371527476236E-4   5.264340434223414E-4  
 2.562000000000000E10    4.712984664365649E-4  -5.310038686729968E-4  
 2.564000000000000E10   -6.914382684044540E-4  -3.314101486466825E-4  
 2.566000000000000E10   -9.855302050709724E-5   4.976948257535696E-4  
 2.568000000000000E10    2.651962859090418E-4  -1.336407003691420E-4  
 2.570000000000000E10    6.512331310659647E-5  -9.458243584958836E-5  
 2.572000000000000E10    2.002200053539127E-4  -3.143119392916560E-4  
 2.574000000000000E10   -6.063505425117910E-4   2.105288585880771E-4  
 2.576000000000000E10    8.462123223580420E-4   3.809688787441701E-4  
 2.578000000000000E10   -1.249128399649635E-4  -7.804387714713812E-4  
 2.580000000000000E10   -4.788909282069653E-4   3.471546806395054E-4  
 2.582000000000000E10    3.567482053767890E-4   4.845474322792143E-4  
 2.584000000000000E10   -1.726218033581972E-4  -5.206483183428645E-4  
 2.586000000000000E10    9.540633982396685E-6   5.399793153628707E-4  
 2.588000000000000E10    9.580612641002517E-6  -2.576053375378251E-4  
 2.590000000000000E10   -1.173780474346131E-4   7.137091597542167E-5  
 2.592000000000000E10    2.499893889762461E-4  -3.544758365023881E-4  
 2.594000000000000E10   -7.456300663761795E-4   3.043214746867307E-5  
 2.596000000000000E10    3.807805187534541E-4   8.307068492285907E-4  
 2.598000000000000E10    8.447797736153007E-4  -6.662192172370851E-4  
 2.600000000000000E10   -8.566151955164969E-4  -3.594384470488876E-4  
 2.602000000000000E10    7.279791316250339E-5   4.890207783319056E-4  
 2.604000000000000E10   -9.025538747664541E-5   1.422779751010239E-4  
 2.606000000000000E10    3.652427694760263E-4   4.140122618991882E-4  
 2.608000000000000E10    5.497073871083558E-4  -4.075768520124257E-4  
 2.610000000000000E10   -9.440333815291524E-4  -4.766198107972741E-4  
 2.612000000000000E10   -3.267622960265726E-4   1.106903073377907E-3  
 2.614000000000000E10    5.197792779654265E-4  -4.027430841233581E-4  
 2.616000000000000E10   -2.048793976427987E-4  -2.227637451142073E-4  
 2.618000000000000E10   -2.416550523776095E-5  -2.963393926620483E-4  
 2.620000000000000E10   -3.974100982304663E-4  -1.292010420002043E-4  
 2.622000000000000E10   -1.162238258984871E-4   5.847987486049533E-4  
 2.624000000000000E10    2.697984455153346E-4  -2.211709215771407E-4  
 2.626000000000000E10   -3.188545815646648E-4   1.085914991563186E-4  
 2.628000000000000E10    3.438265703152865E-4  -1.434075820725411E-4  
 2.630000000000000E10   -5.651459214277566E-4  -6.431372021324933E-4  
 2.632000000000000E10   -3.947301884181798E-4   6.059795850887895E-4  
 2.634000000000000E10    6.910960655659437E-4  -1.767565117916092E-5  
 2.636000000000000E10   -2.959624689538032E-4  -4.151404427830130E-4  
 2.638000000000000E10    4.618610773832188E-7   2.078037323371973E-5  
 2.640000000000000E10   -4.949942231178284E-4  -3.451669472269714E-4  
 2.642000000000000E10    1.950144724105485E-5   8.386068511754274E-4  
 2.644000000000000E10    9.356977534480393E-4  -3.469496441539377E-4  
 2.646000000000000E10   -5.615625996142626E-4  -7.680810522288084E-4  
 2.648000000000000E10   -1.591062900843099E-4   6.944684428162873E-4  
 2.650000000000000E10    2.702694036997855E-4  -2.942532883025706E-4  
 2.652000000000000E10   -1.636302622500807E-4   7.362932956311852E-5  
 2.654000000000000E10    3.603504446800798E-4  -2.780917384370696E-5  
 2.656000000000000E10   -4.303339228499681E-4  -4.070970462635160E-4  
 2.658000000000000E10   -2.267385134473443E-4   3.683023969642818E-4  
 2.660000000000000E10    2.936621312983334E-4  -1.342342729913071E-4  
 2.662000000000000E10   -3.365176089573652E-4   2.131403161911294E-4  
 2.664000000000000E10    5.263621569611132E-4   1.492738956585527E-4  
 2.666000000000000E10   -2.332235890207812E-4  -6.489759543910623E-4  
 2.668000000000000E10   -4.756035050377250E-4   2.042220148723573E-4  
 2.670000000000000E10    2.946869644802064E-4   5.621197487926111E-5  
 2.672000000000000E10   -7.582446414744481E-5  -1.314190449193120E-4  
 2.674000000000000E10    5.578609998337925E-4  -6.456279515987262E-5  
 2.676000000000000E10   -7.403913186863065E-4  -7.426059455610812E-4  
 2.678000000000000E10   -3.044741752091795E-4   1.096069579944015E-3  
 2.680000000000000E10    1.145731308497489E-3   2.001340762944892E-4  
 2.682000000000000E10   -1.353679836029187E-4  -6.248204153962433E-4  
 2.684000000000000E10   -4.411239351611584E-4   1.568021252751350E-4  
 2.686000000000000E10   -3.917018184438348E-4  -4.877687388216145E-5  
 2.688000000000000E10   -1.222713763127103E-4   6.198031478561461E-4  
 2.690000000000000E10    2.896249352488667E-4  -4.175933136139065E-4  
 2.692000000000000E10   -3.927465877495706E-4  -1.230448688147590E-4  
 2.694000000000000E10    1.250360364792869E-4   9.758162923390046E-5  
 2.696000000000000E10   -2.306481474079192E-4  -1.770570997905452E-5  
 2.698000000000000E10   -2.776959263428580E-5   2.460975374560803E-4  
 2.700000000000000E10    5.395844927988946E-4  -2.166432386729866E-5  
 2.702000000000000E10    3.244485469622305E-6  -1.804918574634939E-4  
 2.704000000000000E10   -3.283070400357246E-4  -3.715724742505699E-4  
 2.706000000000000E10   -6.020945147611201E-4   2.193920372519642E-4  
 2.708000000000000E10    2.372575545450673E-4   5.370408180169761E-4  
 2.710000000000000E10    6.320986431092024E-4  -5.031048785895109E-4  
 2.712000000000000E10   -2.651626127772033E-4  -6.173573783598840E-4  
 2.714000000000000E10   -1.563630648888648E-4   1.623116404516622E-4  
 2.716000000000000E10   -1.286677725147456E-4   6.992962153162807E-5  
 2.718000000000000E10    4.994900664314628E-4   2.124815509887412E-4  
 2.720000000000000E10    2.342050429433584E-4  -6.672014133073390E-4  
 2.722000000000000E10   -3.109429089818150E-4  -1.405131188221276E-4  
 2.724000000000000E10   -8.524944860255346E-5   6.190090061863884E-5  
 2.726000000000000E10   -2.735667803790420E-4  -1.695984101388603E-4  
 2.728000000000000E10    2.012441254919395E-4   3.661639930214733E-4  
 2.730000000000000E10    3.116524894721806E-4  -2.800557413138449E-4  
 2.732000000000000E10   -8.935599907999858E-5  -2.574787067715079E-4  
 2.734000000000000E10   -1.843890640884638E-4   2.127530206053052E-5  
 2.736000000000000E10   -5.493898061104119E-5   4.075567121617496E-4  
 2.738000000000000E10    7.674008957110345E-4  -6.611844582948834E-5  
 2.740000000000000E10    5.014342241338454E-5  -4.759167204611003E-4  
 2.742000000000000E10   -5.215404671616852E-4  -4.264492235961370E-5  
 2.744000000000000E10    5.887912629987113E-5   2.942998544313014E-4  
 2.746000000000000E10   -7.059009658405557E-5  -3.082697367062792E-5  
 2.748000000000000E10    5.313012516126037E-4  -7.352909597102553E-5  
 2.750000000000000E10    4.591079778037965E-5  -5.953573854640126E-4  
 2.752000000000000E10   -2.743088116403669E-4   3.458791179582477E-4  
 2.754000000000000E10    5.158012500032783E-4  -1.561995013616979E-4  
 2.756000000000000E10   -3.956735017709434E-4   7.707018085056916E-5  
