#  HZ   S   RI   R     50.00 
! Rohde & Schwarz ZVA40 4Ports - Version 3.90 - 1145.1110k42 SN: 100403
! Date: 2023-10-04 09:33:41
! Measurement: S12 
! 
 2.200000000000000E10    7.674567168578506E-4   1.150119351223111E-4  
 2.202000000000000E10    7.857684977352619E-4  -1.134620164521039E-3  
 2.204000000000000E10   -6.168744293972850E-4  -9.197309263981879E-4  
 2.206000000000000E10   -1.123036374337971E-3   5.687546799890697E-4  
 2.208000000000000E10    3.607966646086425E-4   1.524006365798414E-3  
 2.210000000000000E10    1.212609698995948E-3   1.826777588576078E-4  
 2.212000000000000E10   -4.943709882354597E-6  -7.632237393409014E-4  
 2.214000000000000E10   -8.384211687371135E-4   4.707625485025346E-4  
 2.216000000000000E10    1.436082384316251E-4   7.383859483525157E-4  
 2.218000000000000E10    1.075468608178198E-4  -5.512109491974115E-4  
 2.220000000000000E10   -3.778760728891939E-4  -3.214588796254247E-4  
 2.222000000000000E10   -5.460223183035851E-4   2.370349538978189E-4  
 2.224000000000000E10    7.443296490237117E-4   3.646446275524795E-4  
 2.226000000000000E10    5.140847642906010E-4  -3.169713600073010E-4  
 2.228000000000000E10    2.013971825363115E-4  -4.632360069081187E-4  
 2.230000000000000E10   -2.626798814162612E-4   1.079388675861992E-4  
 2.232000000000000E10    2.157681956305169E-5  -4.500303184613586E-4  
 2.234000000000000E10   -5.963860312476754E-4   5.854229093529284E-4  
 2.236000000000000E10   -5.222632898949087E-4   8.299634209834039E-4  
 2.238000000000000E10    3.564556827768683E-4   5.998390261083841E-4  
 2.240000000000000E10    1.341465249424800E-4  -6.783079006709158E-4  
 2.242000000000000E10   -5.634273984469473E-4  -6.184964440762997E-4  
 2.244000000000000E10   -7.295624236576259E-4   3.379717527423054E-4  
 2.246000000000000E10    3.901736636180431E-4   1.611631450941786E-4  
 2.248000000000000E10   -3.188922128174454E-4  -5.734557053074241E-4  
 2.250000000000000E10   -1.163225038908422E-3  -3.151002965751104E-5  
 2.252000000000000E10   -6.050005904398859E-4   1.007103594020009E-3  
 2.254000000000000E10    6.007604533806443E-4   3.860711876768619E-4  
 2.256000000000000E10    3.763416898436844E-4  -2.960078418254852E-4  
 2.258000000000000E10   -3.018002025783062E-4   2.601496526040137E-4  
 2.260000000000000E10    2.885279245674610E-4   6.828601472079754E-4  
 2.262000000000000E10    4.513120511546731E-4   1.909108541440219E-4  
 2.264000000000000E10   -1.544894330436364E-4  -2.206501376349479E-4  
 2.266000000000000E10    1.255524548469111E-4   2.883122360799462E-4  
 2.268000000000000E10    1.852561108535156E-4   3.982034395448864E-4  
 2.270000000000000E10   -4.210252518532798E-5  -5.926274461671710E-4  
 2.272000000000000E10   -3.424375609029084E-4  -3.130281402263790E-4  
 2.274000000000000E10   -3.765392757486552E-4   3.742820117622614E-4  
 2.276000000000000E10    4.618352977558971E-4   2.920924744103104E-4  
 2.278000000000000E10   -7.624041609233245E-5  -5.309501430019736E-4  
 2.280000000000000E10    1.222657592734322E-4  -5.222277250140905E-4  
 2.282000000000000E10   -3.543354687280953E-4   3.165987145621330E-4  
 2.284000000000000E10    2.611820236779749E-4  -6.560957990586758E-5  
 2.286000000000000E10   -1.094426625058986E-4  -1.899529888760299E-4  
 2.288000000000000E10   -2.317081089131534E-4   2.886987058445811E-4  
 2.290000000000000E10    3.918018774129450E-4   4.855261940974742E-4  
 2.292000000000000E10    2.511146885808557E-4   2.631496317917481E-5  
 2.294000000000000E10    1.988835283555090E-4  -2.598172286525369E-4  
 2.296000000000000E10    2.163666067644954E-5   2.632722025737166E-4  
 2.298000000000000E10    4.508789279498160E-4   2.932323150162119E-5  
 2.300000000000000E10    4.403626662679017E-4  -4.906487883999944E-4  
 2.302000000000000E10   -3.470354713499546E-4  -8.933576173149049E-4  
 2.304000000000000E10   -5.831199232488871E-4   2.322712498425972E-5  
 2.306000000000000E10   -3.473641118034720E-4   2.401951642241329E-4  
 2.308000000000000E10    1.892606233013794E-4  -5.564599996432662E-4  
 2.310000000000000E10   -4.186721344012767E-4  -7.853544229874387E-5  
 2.312000000000000E10   -2.596166450530291E-4   6.838554982095957E-4  
 2.314000000000000E10    3.137914463877678E-4   7.702170987613499E-4  
 2.316000000000000E10    1.902375370264053E-4  -1.998263032874093E-4  
 2.318000000000000E10    8.521111340087373E-6   3.589568077586591E-4  
 2.320000000000000E10   -3.002392186317593E-4  -5.936699744779617E-5  
 2.322000000000000E10    3.079489979427308E-4  -6.392320501618087E-4  
 2.324000000000000E10   -5.774772143922746E-4  -3.041495438083075E-5  
 2.326000000000000E10   -6.372290663421154E-4   4.711482906714082E-4  
 2.328000000000000E10    2.130232751369476E-4   4.421303747221828E-4  
 2.330000000000000E10    3.301539109088481E-4  -2.089405752485618E-4  
 2.332000000000000E10   -3.831058274954557E-4  -1.888445694930852E-4  
 2.334000000000000E10   -4.902955843135715E-4   1.927547709783539E-4  
 2.336000000000000E10   -9.493482502875850E-5   6.986632070038468E-5  
 2.338000000000000E10    3.810402995441109E-5  -9.398358088219538E-5  
 2.340000000000000E10   -2.186556812375784E-4   3.078248410020024E-4  
 2.342000000000000E10   -1.525332772871479E-4   3.305028658360243E-4  
 2.344000000000000E10    3.010379732586443E-4   1.745785266393796E-4  
 2.346000000000000E10   -3.029751824215055E-4  -3.899815510521876E-6  
 2.348000000000000E10   -1.701381988823414E-4   2.091857313644141E-4  
 2.350000000000000E10   -4.257259206497110E-5   1.664118099142797E-5  
 2.352000000000000E10    3.487364447209984E-4   1.105213959817775E-4  
 2.354000000000000E10    1.687817566562444E-4  -1.357742235086334E-6  
 2.356000000000000E10   -1.426625676685944E-4   5.098269903101027E-4  
 2.358000000000000E10    1.619650574866682E-4  -9.264928667107597E-5  
 2.360000000000000E10   -6.315814098343253E-4   1.466113317292184E-4  
 2.362000000000000E10   -1.887070538941771E-4   3.643949457909912E-4  
 2.364000000000000E10   -4.015251761302352E-5   4.344818880781531E-4  
 2.366000000000000E10    5.324403173290193E-4  -1.518628268968314E-4  
 2.368000000000000E10   -5.135924438945949E-4  -5.349244456738234E-4  
 2.370000000000000E10   -8.589758072048426E-4   5.050362087786198E-4  
 2.372000000000000E10    1.826265652198345E-4   6.817887770012021E-4  
 2.374000000000000E10    2.994717506226152E-4   1.142673427239060E-4  
 2.376000000000000E10    2.359431819058955E-4  -6.223166710697115E-4  
 2.378000000000000E10   -1.028226106427610E-3  -1.526670093880966E-4  
 2.380000000000000E10   -6.094310811022297E-5   8.522407733835280E-4  
 2.382000000000000E10   -2.260191395180300E-4   3.557108357199468E-5  
 2.384000000000000E10    1.242406433448196E-4   1.575467176735401E-4  
 2.386000000000000E10   -4.802004259545356E-4  -5.176704144105315E-4  
 2.388000000000000E10   -3.649402060545981E-4   5.511532435775735E-5  
 2.390000000000000E10   -5.619866424240172E-4  -4.056167963426560E-4  
 2.392000000000000E10   -1.709701609797776E-4   3.629432758316398E-4  
 2.394000000000000E10    3.834353410638869E-4  -4.492435618885793E-5  
 2.396000000000000E10    7.188908057287335E-5  -5.306366365402937E-4  
 2.398000000000000E10   -7.529018912464380E-4  -2.497866516932845E-4  
 2.400000000000000E10   -3.629458078648895E-4   2.291481505380943E-4  
 2.402000000000000E10    4.405443905852735E-4   6.542456103488803E-4  
 2.404000000000000E10    5.550850983127020E-5  -8.136271499097347E-4  
 2.406000000000000E10   -8.819035720080137E-4  -1.360386813757941E-4  
 2.408000000000000E10   -5.634411354549229E-4   1.961439375008922E-5  
 2.410000000000000E10    4.287273040972650E-4   5.345674580894411E-4  
 2.412000000000000E10   -2.653076307979063E-6  -7.843779749237001E-4  
 2.414000000000000E10   -3.069101076107472E-4  -2.975952229462564E-4  
 2.416000000000000E10   -3.034947440028191E-4  -4.612897828337736E-5  
 2.418000000000000E10    5.592314846580848E-5   3.498639271128923E-4  
 2.420000000000000E10    1.828128151828423E-4  -1.051418221322820E-4  
 2.422000000000000E10    1.071909136953764E-4  -5.163436871953309E-4  
 2.424000000000000E10   -4.339916049502790E-4  -4.777725916937925E-5  
 2.426000000000000E10   -1.176135265268385E-4  -5.664430209435523E-4  
 2.428000000000000E10    8.638099097879604E-5   4.752002423629165E-4  
 2.430000000000000E10    7.750032236799598E-4  -4.109865112695843E-4  
 2.432000000000000E10   -1.101459783967584E-4  -1.968866999959573E-4  
 2.434000000000000E10    1.253239752259105E-4  -7.694232044741511E-4  
 2.436000000000000E10   -6.716390489600599E-4   3.340089169796556E-4  
 2.438000000000000E10    3.732785407919437E-4   5.590061773546040E-4  
 2.440000000000000E10    2.990833309013397E-4  -2.260419278172776E-4  
 2.442000000000000E10    5.548010813072324E-4  -7.130606682039797E-4  
 2.444000000000000E10   -8.560654823668301E-4  -5.816298071295023E-4  
 2.446000000000000E10   -1.115026825573295E-4   6.200132775120437E-4  
 2.448000000000000E10    7.970820879563689E-4  -1.335134438704699E-4  
 2.450000000000000E10    6.531008984893560E-4  -5.648927617585287E-5  
 2.452000000000000E10    3.249506698921323E-4  -5.609181243926287E-4  
 2.454000000000000E10   -5.569852073676884E-4   1.508242858108133E-4  
 2.456000000000000E10    5.569689092226327E-4   7.498757913708687E-4  
 2.458000000000000E10   -3.055113847949542E-5   1.915944158099592E-4  
 2.460000000000000E10    6.655610050074756E-4   2.944219704659190E-5  
 2.462000000000000E10   -4.019447369500995E-4  -1.345839700661600E-4  
 2.464000000000000E10   -2.321632200619206E-4   1.881850403151475E-5  
 2.466000000000000E10   -3.550164183252491E-5   4.695952229667455E-4  
 2.468000000000000E10    2.658268203958869E-4   3.968968521803618E-4  
 2.470000000000000E10    6.797998794354498E-4  -1.371199032291770E-4  
 2.472000000000000E10    1.064240314008202E-5  -3.071226237807423E-4  
 2.474000000000000E10    8.008490840438753E-5   1.966667186934501E-4  
 2.476000000000000E10   -2.465313882566989E-4   3.873737005051225E-4  
 2.478000000000000E10    4.557841748464853E-4   7.234470685943961E-4  
 2.480000000000000E10    6.030507502146065E-4  -3.700449015013874E-4  
 2.482000000000000E10   -4.823089984711260E-4  -4.357883881311864E-5  
 2.484000000000000E10    2.211585378972814E-4   2.193804248236120E-4  
 2.486000000000000E10   -2.049631075351499E-5   2.591098018456250E-5  
 2.488000000000000E10   -1.103443428291939E-4   2.024160785367712E-4  
 2.490000000000000E10    4.378958838060498E-4  -3.179766063112766E-4  
 2.492000000000000E10   -3.161867207381874E-4  -1.173384080175310E-4  
 2.494000000000000E10    1.183624863188015E-5   2.901509287767112E-4  
 2.496000000000000E10   -1.368094817735255E-4  -3.946220967918634E-4  
 2.498000000000000E10    1.163548076874577E-4   2.954728915938176E-5  
 2.500000000000000E10   -1.590985921211541E-4  -3.725069691427052E-4  
 2.502000000000000E10   -1.651704224059358E-5   2.486313751433045E-4  
 2.504000000000000E10    1.905436802189797E-4  -1.818244199967012E-4  
 2.506000000000000E10   -5.474697682075203E-4  -4.234814841765910E-4  
 2.508000000000000E10   -1.354925334453583E-4   3.637904010247439E-4  
 2.510000000000000E10    3.994753642473370E-4  -4.597434017341584E-4  
 2.512000000000000E10   -1.049694255925715E-3  -3.053970867767930E-4  
 2.514000000000000E10   -6.090464921726380E-6   1.643715804675594E-4  
 2.516000000000000E10    1.441067433916032E-4   1.196949669974856E-4  
 2.518000000000000E10    1.738025603117421E-4  -5.400473601184785E-4  
 2.520000000000000E10   -2.618033031467348E-4  -6.055154153727926E-5  
 2.522000000000000E10   -2.229012607131153E-4  -1.079378271242604E-4  
 2.524000000000000E10   -4.406232910696417E-4   5.432590842247009E-4  
 2.526000000000000E10    3.498387814033777E-4   7.727950287517160E-5  
 2.528000000000000E10   -1.555570179334609E-6  -6.236277986317873E-4  
 2.530000000000000E10   -1.131789991632104E-3  -3.648891288321465E-5  
 2.532000000000000E10    4.523741081357002E-4   3.710462187882513E-4  
 2.534000000000000E10    1.959153742063791E-4  -5.166637711226940E-4  
 2.536000000000000E10   -2.682050107978284E-4   2.243683702545241E-4  
 2.538000000000000E10    4.775398992933333E-4   2.643794578034431E-4  
 2.540000000000000E10    2.066147135337815E-4  -2.387475251452997E-4  
 2.542000000000000E10   -4.865853697992861E-4   3.220143553335220E-4  
 2.544000000000000E10   -9.457642590859905E-6   7.451678393408656E-4  
 2.546000000000000E10    3.131079138256609E-4   1.075191757990979E-4  
 2.548000000000000E10    5.316498572938144E-5   1.390908582834527E-4  
 2.550000000000000E10   -2.235438005300239E-4  -4.413277929415926E-5  
 2.552000000000000E10   -1.596228976268321E-4   3.038327122339979E-5  
 2.554000000000000E10    2.119919226970524E-4   3.764638968277723E-4  
 2.556000000000000E10    4.828082164749503E-4  -7.334363181143999E-5  
 2.558000000000000E10    3.840151184704155E-4  -7.072618609527126E-5  
 2.560000000000000E10   -4.944364991388284E-5   1.623521384317428E-4  
 2.562000000000000E10    5.313511355780065E-4   3.688120632432401E-4  
 2.564000000000000E10    1.282009034184739E-4  -9.801945998333395E-5  
 2.566000000000000E10   -2.567666815593839E-4   1.534674447611906E-5  
 2.568000000000000E10    8.299477485707030E-5   5.591032095253468E-4  
 2.570000000000000E10    2.577422419562936E-4   8.359337516594678E-5  
 2.572000000000000E10    1.246506581082940E-4  -9.627296822145581E-5  
 2.574000000000000E10   -4.865226219408214E-5   2.212199469795451E-4  
 2.576000000000000E10    4.901756765320897E-4   1.087940981960855E-4  
 2.578000000000000E10    5.455726932268590E-5  -2.459952083881944E-4  
 2.580000000000000E10   -3.210430731996894E-4   2.830234507200657E-6  
 2.582000000000000E10    4.951302544213831E-4   2.303149085491896E-4  
 2.584000000000000E10    3.190044371876866E-4  -4.352548858150840E-4  
 2.586000000000000E10    1.149655727203935E-4  -5.798125639557838E-4  
 2.588000000000000E10   -3.296464856248349E-4   2.057222445728257E-4  
 2.590000000000000E10   -4.133916809223592E-5   1.246906613232568E-4  
 2.592000000000000E10    5.280727054923773E-4  -3.023849239980336E-5  
 2.594000000000000E10   -7.287320477189496E-5  -4.539258952718228E-4  
 2.596000000000000E10   -2.499784459359944E-4  -2.339874044992030E-4  
 2.598000000000000E10    2.122249425156042E-4   6.733893678756431E-5  
 2.600000000000000E10   -7.354524859692901E-5  -6.000839057378471E-4  
 2.602000000000000E10   -5.149730714038014E-4  -2.964056038763374E-4  
 2.604000000000000E10   -7.329588406719267E-4   1.992928009713069E-4  
 2.606000000000000E10    2.262485213577747E-4   4.142104880884290E-4  
 2.608000000000000E10    4.339666629675776E-4  -7.483400986529887E-5  
 2.610000000000000E10    3.592171124182642E-4  -1.071531005436555E-4  
 2.612000000000000E10    6.137246964499354E-4  -1.896703906822950E-4  
 2.614000000000000E10   -4.584750422509387E-5  -4.190721374470741E-4  
 2.616000000000000E10   -7.328299398068339E-5  -2.204521442763507E-4  
 2.618000000000000E10   -1.285732723772526E-4   1.611812185728923E-4  
 2.620000000000000E10   -1.855645095929503E-4  -6.020310102030635E-4  
 2.622000000000000E10   -4.885969101451337E-4  -4.195262736175209E-4  
 2.624000000000000E10   -6.214866880327463E-4  -3.767014277400449E-5  
 2.626000000000000E10    4.338177677709609E-5   3.425583126954734E-4  
 2.628000000000000E10    3.205582906957716E-4  -3.733339326572605E-5  
 2.630000000000000E10   -1.102199021261185E-4  -1.545486302347854E-4  
 2.632000000000000E10   -7.211694610305131E-4   1.684177404968068E-4  
 2.634000000000000E10    1.132727193180472E-4   7.833470008336008E-4  
 2.636000000000000E10    8.307861862704158E-4   3.540448378771544E-4  
 2.638000000000000E10   -1.577391522005200E-4  -7.180531974881887E-4  
 2.640000000000000E10   -6.123291677795351E-4   3.173035656800494E-5  
 2.642000000000000E10    2.592890814412385E-4   7.258595433086157E-4  
 2.644000000000000E10    4.786154604516923E-4   9.887124906526879E-5  
 2.646000000000000E10   -7.103634561644867E-5  -4.818874585907906E-4  
 2.648000000000000E10   -5.770172574557364E-4   2.023374399868771E-4  
 2.650000000000000E10   -8.174261165549979E-5   2.209310769103468E-4  
 2.652000000000000E10    1.837418967625126E-4   9.989552199840546E-5  
 2.654000000000000E10    2.171141568396706E-5  -1.196746743516997E-4  
 2.656000000000000E10    1.826879743020982E-4   2.373082133999560E-5  
 2.658000000000000E10   -7.927825936349109E-5   5.297478764987318E-6  
 2.660000000000000E10   -2.806983247864991E-4   2.355581236770377E-4  
 2.662000000000000E10   -7.171047036536038E-5   2.723468351177871E-4  
 2.664000000000000E10    3.682038804981858E-4   5.644963239319623E-4  
 2.666000000000000E10    4.968603025190532E-4  -3.682180249597877E-4  
 2.668000000000000E10   -2.358791098231450E-4  -6.085757049731910E-4  
 2.670000000000000E10   -9.536180878058076E-4   6.516588473459706E-5  
 2.672000000000000E10    1.723640307318419E-4   9.428265038877726E-4  
 2.674000000000000E10    7.515311590395868E-4   5.014966154703870E-5  
 2.676000000000000E10   -2.144850441254675E-4  -6.482953322120011E-4  
 2.678000000000000E10   -2.304269874002785E-4   3.588458275771700E-5  
 2.680000000000000E10    2.145367034245282E-5  -3.790269147430081E-6  
 2.682000000000000E10    3.309916064608842E-4  -1.190369512187317E-4  
 2.684000000000000E10   -1.453187578590587E-4   1.831011904869229E-4  
 2.686000000000000E10    3.825026797130704E-4  -6.354639481287450E-5  
 2.688000000000000E10    4.874853038927540E-5  -2.024556888500229E-4  
 2.690000000000000E10   -3.941824252251536E-4  -2.699373580981046E-4  
 2.692000000000000E10   -1.734753168420866E-4   3.128346579615027E-4  
 2.694000000000000E10    6.580557674169540E-4   3.285546554252505E-4  
 2.696000000000000E10   -1.134707417804748E-5  -1.055829343385994E-3  
 2.698000000000000E10   -6.595878512598574E-4  -5.204879198572598E-5  
 2.700000000000000E10    2.474298889865167E-5   5.868932348676026E-4  
 2.702000000000000E10    6.635662284679711E-4  -1.611064362805337E-4  
 2.704000000000000E10   -1.155171485152096E-4  -2.759370545390993E-4  
 2.706000000000000E10   -2.394415205344558E-4   1.219041369040497E-4  
 2.708000000000000E10   -8.016048377612606E-5   3.923417534679174E-4  
 2.710000000000000E10    9.341316763311625E-5   5.064969882369041E-4  
 2.712000000000000E10    3.859784046653658E-4  -8.549020276404917E-5  
 2.714000000000000E10   -1.200441620312631E-4  -3.705400740727782E-4  
 2.716000000000000E10   -7.331182132475078E-4   6.257454515434802E-4  
 2.718000000000000E10    8.021165849640966E-4   4.954106407240033E-4  
 2.720000000000000E10    2.235859428765252E-4  -2.799712819978595E-4  
 2.722000000000000E10   -1.758648722898215E-4  -3.977640299126506E-4  
 2.724000000000000E10   -1.497999619459733E-4   4.380146274343133E-4  
 2.726000000000000E10    1.662507565924898E-4   1.590176980243996E-4  
 2.728000000000000E10    4.171519831288606E-4   2.889457391574979E-4  
 2.730000000000000E10   -1.057587360264733E-4  -1.211871131090447E-4  
 2.732000000000000E10    4.421824996825308E-4   3.287217987235636E-4  
 2.734000000000000E10    2.697086301850504E-6   9.619543561711907E-5  
 2.736000000000000E10    5.018926458433271E-5  -2.568704076111317E-5  
 2.738000000000000E10   -1.287346240133047E-4   5.105528398416936E-4  
 2.740000000000000E10    7.135585765354335E-4   5.752591096097603E-5  
 2.742000000000000E10   -1.240893470821902E-4  -6.843830924481154E-4  
 2.744000000000000E10   -4.569154407363385E-4   4.098087447346188E-5  
 2.746000000000000E10    1.431501295883209E-4   5.613910616375506E-4  
 2.748000000000000E10    4.329081857576966E-4  -1.153402336058207E-4  
 2.750000000000000E10   -2.197539106418844E-5  -2.414020127616823E-5  
 2.752000000000000E10    1.510506554041058E-4  -2.358862693654373E-4  
 2.754000000000000E10   -4.048286937177181E-4   1.849687687354162E-4  
 2.756000000000000E10   -2.886628208216280E-4   3.912535903509706E-4  
