#  HZ   S   RI   R     50.00 
! Rohde & Schwarz ZVA40 4Ports - Version 3.90 - 1145.1110k42 SN: 100403
! Date: 2023-10-04 09:33:23
! Measurement: S12 
! 
 2.200000000000000E10   -2.149198408005759E-4   7.518560742028058E-4  
 2.202000000000000E10    3.608916886150837E-4  -8.135217649396509E-5  
 2.204000000000000E10   -3.357759269420058E-4  -3.147562965750694E-4  
 2.206000000000000E10   -3.726702416315675E-4   1.074578176485375E-4  
 2.208000000000000E10    1.580167445354164E-4   2.010969328694046E-4  
 2.210000000000000E10   -1.900134229799733E-4   1.015535744954832E-4  
 2.212000000000000E10    9.786298323888332E-5   1.637877285247669E-4  
 2.214000000000000E10   -2.087048051180318E-4   5.673194391420111E-5  
 2.216000000000000E10    8.289408287964761E-5  -3.425584873184562E-4  
 2.218000000000000E10   -2.552846563048661E-4   2.770035061985254E-4  
 2.220000000000000E10   -2.362273335165810E-5  -4.832026388612576E-5  
 2.222000000000000E10    1.213032155646943E-4   6.997494492679834E-4  
 2.224000000000000E10    1.392826961819083E-4  -2.424890262773261E-4  
 2.226000000000000E10   -1.640260161366314E-4   2.187981299357489E-4  
 2.228000000000000E10   -4.772851534653455E-4   1.303565368289128E-4  
 2.230000000000000E10    4.465907113626599E-4   6.821763236075640E-4  
 2.232000000000000E10   -3.711988101713359E-4  -4.175427893642336E-4  
 2.234000000000000E10   -1.542679092381150E-4  -3.870357177220285E-4  
 2.236000000000000E10   -6.952136754989624E-4   4.538862267509103E-4  
 2.238000000000000E10    6.100736209191382E-4  -2.184318000217900E-4  
 2.240000000000000E10    1.585633754075388E-6  -8.863778202794492E-5  
 2.242000000000000E10   -5.616195994662121E-5  -5.236032302491367E-4  
 2.244000000000000E10   -1.826052612159401E-4   4.344760964158922E-4  
 2.246000000000000E10   -1.041887953761034E-4  -1.129270167439245E-4  
 2.248000000000000E10    9.912536188494414E-5   3.267204447183758E-4  
 2.250000000000000E10   -4.293878009775654E-5  -4.902937216684222E-4  
 2.252000000000000E10    3.262429090682417E-4   8.875958155840635E-5  
 2.254000000000000E10   -3.146450035274029E-4   6.059873703634366E-5  
 2.256000000000000E10    5.041502881795168E-4   2.265586408611853E-5  
 2.258000000000000E10   -1.664232986513525E-4   2.058032987406477E-4  
 2.260000000000000E10    5.146219627931714E-4  -1.554792979732156E-4  
 2.262000000000000E10    1.812082882679533E-5   2.608742215670645E-4  
 2.264000000000000E10   -8.587230695411563E-6  -4.338029248174280E-4  
 2.266000000000000E10    1.130262680817395E-4   4.867501847911626E-4  
 2.268000000000000E10   -2.107741056533996E-5  -8.575389074394479E-5  
 2.270000000000000E10    1.233929942827672E-4  -2.548053162172437E-4  
 2.272000000000000E10   -2.699065371416509E-4  -4.443660436663777E-4  
 2.274000000000000E10    9.430717182112858E-5   1.760186860337853E-4  
 2.276000000000000E10   -7.028241816442460E-5  -4.788097066921182E-5  
 2.278000000000000E10    6.631248979829252E-4  -1.521658559795469E-4  
 2.280000000000000E10    5.709189281333238E-5   1.479868205933599E-5  
 2.282000000000000E10    1.318988070124760E-4   2.204617048846558E-4  
 2.284000000000000E10   -8.515438821632415E-5   1.139172891271301E-4  
 2.286000000000000E10    2.644568157847971E-4  -5.144794122315943E-4  
 2.288000000000000E10   -2.176527632400394E-4   6.215105941009824E-7  
 2.290000000000000E10   -7.556495984317735E-5   1.109599470510148E-4  
 2.292000000000000E10    5.128179909661412E-4  -1.288876228500158E-4  
 2.294000000000000E10    1.614881039131433E-4  -1.031425199471414E-3  
 2.296000000000000E10   -1.702964073047042E-4   1.007377704809187E-5  
 2.298000000000000E10   -1.422909554094076E-4   8.734408038435504E-5  
 2.300000000000000E10    7.975177722983062E-4  -2.226970973424614E-4  
 2.302000000000000E10   -1.461876381654292E-4  -1.827222004067153E-4  
 2.304000000000000E10   -2.886053989641368E-4  -1.988418516702950E-4  
 2.306000000000000E10   -2.150710934074596E-4   8.021202665986493E-5  
 2.308000000000000E10    1.190037219203077E-4  -1.737917627906427E-4  
 2.310000000000000E10   -2.593679237179458E-4  -2.768533886410296E-4  
 2.312000000000000E10    2.075946540571749E-4  -3.364736403455026E-5  
 2.314000000000000E10   -6.147169915493578E-5  -1.070687940227799E-4  
 2.316000000000000E10   -8.968278416432440E-5  -6.098378216847777E-4  
 2.318000000000000E10   -3.993611608166248E-4   2.925149456132203E-4  
 2.320000000000000E10    1.479111524531618E-4   5.146794137544930E-4  
 2.322000000000000E10    5.823113606311381E-4  -9.029271313920617E-5  
 2.324000000000000E10   -2.162967430194840E-4  -7.449681288562715E-4  
 2.326000000000000E10   -9.839197155088186E-4   2.205664641223848E-4  
 2.328000000000000E10   -9.755518112797290E-5   4.157419898547232E-4  
 2.330000000000000E10    4.598532686941326E-4  -9.204926755046472E-5  
 2.332000000000000E10   -4.013450234197080E-4  -1.019373186863959E-3  
 2.334000000000000E10   -1.559624215587974E-4  -5.597500057774596E-5  
 2.336000000000000E10   -1.730364019749686E-4   3.209011338185519E-4  
 2.338000000000000E10    4.914525197818875E-4  -3.364020085427910E-5  
 2.340000000000000E10   -1.597336231498048E-4   2.039063547272235E-4  
 2.342000000000000E10   -3.052226093132049E-4   7.756619743304327E-5  
 2.344000000000000E10    2.213821244367864E-5   8.572854312660638E-6  
 2.346000000000000E10   -3.319497336633503E-4  -1.024351877276786E-4  
 2.348000000000000E10   -5.900702090002596E-4  -1.410363802278880E-5  
 2.350000000000000E10    3.024614125024527E-4   1.244492741534486E-4  
 2.352000000000000E10    6.034328253008425E-4  -1.059465066646226E-4  
 2.354000000000000E10   -3.249798610340804E-4  -7.394201820716262E-4  
 2.356000000000000E10   -2.519117260817438E-4   3.676492488011718E-4  
 2.358000000000000E10    2.818981301970780E-4   3.062920004595071E-4  
 2.360000000000000E10    6.742948899045587E-4  -4.599036765284836E-4  
 2.362000000000000E10   -4.348278744146228E-4  -3.593383298721165E-4  
 2.364000000000000E10   -6.137854070402682E-4   6.956039578653872E-4  
 2.366000000000000E10    2.095425588777289E-4   1.818917371565476E-4  
 2.368000000000000E10    2.234457351732999E-4  -2.978171396534890E-4  
 2.370000000000000E10   -8.340114727616310E-4  -5.755852325819433E-4  
 2.372000000000000E10   -1.559476659167558E-4   1.085307121684309E-5  
 2.374000000000000E10    1.777865037411175E-7  -7.159177766880021E-5  
 2.376000000000000E10    4.993362745153718E-5  -4.436153685674071E-4  
 2.378000000000000E10    7.933091546874493E-5  -3.837567419395782E-5  
 2.380000000000000E10    5.040600080974400E-4  -6.938275328138843E-5  
 2.382000000000000E10   -3.186190733686090E-4  -4.408170934766531E-4  
 2.384000000000000E10   -2.117329859174788E-4  -8.251814870163798E-5  
 2.386000000000000E10    8.721704216441140E-5   7.727869087830186E-4  
 2.388000000000000E10    3.369050973560661E-4  -9.244027314707637E-4  
 2.390000000000000E10    1.640361369936727E-5  -8.274442516267300E-4  
 2.392000000000000E10   -1.030749175697565E-3  -2.473875356372446E-4  
 2.394000000000000E10    3.740077372640371E-4   4.078163474332541E-4  
 2.396000000000000E10    1.023388584144414E-3  -4.262304355506785E-5  
 2.398000000000000E10    5.719533073715866E-4  -8.716918528079987E-4  
 2.400000000000000E10   -7.218724931590259E-4  -2.339214843232185E-4  
 2.402000000000000E10   -5.435712228063494E-5   4.906018148176372E-4  
 2.404000000000000E10    1.337098510703072E-4   4.057004407513887E-4  
 2.406000000000000E10    2.130004868377000E-4  -3.579975236789323E-5  
 2.408000000000000E10    3.055058768950403E-4   5.164842150406912E-5  
 2.410000000000000E10   -9.580869664205238E-5  -6.146851228550077E-4  
 2.412000000000000E10   -3.008316889463458E-5   2.719725016504526E-4  
 2.414000000000000E10   -2.017595033976249E-5   5.343616940081120E-4  
 2.416000000000000E10    9.273234754800797E-4   2.809330762829632E-4  
 2.418000000000000E10    4.151583125349134E-4  -5.771387368440628E-4  
 2.420000000000000E10   -6.883354508318007E-4  -2.903978456743062E-4  
 2.422000000000000E10   -2.994812966790050E-4   6.465705810114741E-4  
 2.424000000000000E10    8.212574757635593E-4   6.136449519544840E-4  
 2.426000000000000E10    5.735812592320144E-4  -2.767588593997061E-4  
 2.428000000000000E10   -4.911681753583252E-5  -4.991826135665178E-4  
 2.430000000000000E10   -7.502287626266480E-4   6.004527676850557E-4  
 2.432000000000000E10    2.828556753229350E-4   8.462474215775728E-4  
 2.434000000000000E10    5.768853006884456E-4   2.713296562433243E-4  
 2.436000000000000E10   -7.079063652781770E-5  -3.064133052248508E-4  
 2.438000000000000E10   -6.435729301301763E-5   1.759107362886425E-5  
 2.440000000000000E10    2.815507177729160E-4   3.907081845682114E-4  
 2.442000000000000E10    3.035021945834160E-4  -1.126581337302923E-4  
 2.444000000000000E10    4.608618910424411E-4  -8.227122452808544E-5  
 2.446000000000000E10    4.509820137172937E-4  -2.042783671640791E-5  
 2.448000000000000E10   -7.639016257598996E-5   1.068627607310191E-4  
 2.450000000000000E10   -2.041204716078937E-4   4.395528521854430E-4  
 2.452000000000000E10    1.338905167358462E-5   6.216503679752350E-4  
 2.454000000000000E10    9.566415974404663E-5  -3.311928012408316E-4  
 2.456000000000000E10   -7.923780503915623E-5  -3.736607322935015E-4  
 2.458000000000000E10   -6.239545764401555E-4  -3.066687786486000E-4  
 2.460000000000000E10    8.441120007773861E-5   2.071845956379548E-4  
 2.462000000000000E10    4.500837530940771E-4   2.537125255912542E-4  
 2.464000000000000E10    2.789978752844036E-4  -2.046585577772930E-4  
 2.466000000000000E10   -1.662688300712034E-4  -3.686061827465892E-4  
 2.468000000000000E10   -4.081140796188265E-4   7.439277833327651E-4  
 2.470000000000000E10   -6.612596916966140E-5   3.944000345654786E-4  
 2.472000000000000E10    1.974833430722356E-4  -2.065554872388020E-5  
 2.474000000000000E10   -4.578842490445823E-4  -2.737409668043256E-4  
 2.476000000000000E10   -5.208287038840354E-4  -3.023301542270929E-4  
 2.478000000000000E10   -4.444416845217347E-4  -4.124056431464851E-5  
 2.480000000000000E10   -3.878650022670627E-5   4.021683416794986E-4  
 2.482000000000000E10    4.860093467868865E-4  -4.920749415759929E-5  
 2.484000000000000E10    1.207453169627115E-4  -2.388160355621949E-4  
 2.486000000000000E10   -3.319841343909502E-4  -1.757444442773704E-5  
 2.488000000000000E10   -1.798828889150173E-4   1.902700751088560E-4  
 2.490000000000000E10   -2.892684715334326E-4   4.116174241062254E-4  
 2.492000000000000E10    1.585089921718463E-4  -2.830316370818764E-4  
 2.494000000000000E10    2.648990193847567E-4  -4.428287211339921E-4  
 2.496000000000000E10   -4.244256706442684E-4  -4.660592239815742E-4  
 2.498000000000000E10   -6.620408385060728E-5   3.300831886008382E-4  
 2.500000000000000E10    3.681759408209473E-4   2.469553728587925E-4  
 2.502000000000000E10    5.733948783017695E-4   1.414151597600721E-6  
 2.504000000000000E10   -1.140947279054672E-4  -1.014379158732481E-4  
 2.506000000000000E10   -4.314478137530386E-4  -5.503925785887986E-5  
 2.508000000000000E10   -4.406523949000984E-4   5.425788112916052E-4  
 2.510000000000000E10    1.548619038658217E-4   1.400605287926737E-5  
 2.512000000000000E10    5.646666977554560E-4  -1.839558826759458E-4  
 2.514000000000000E10   -3.585647500585765E-4  -3.776265657506883E-4  
 2.516000000000000E10    1.682729489402846E-4   6.043497342034243E-5  
 2.518000000000000E10    3.413321974221617E-4   1.471330760978162E-4  
 2.520000000000000E10    1.526175910839811E-4  -1.373918203171343E-4  
 2.522000000000000E10   -1.720355940051377E-4   1.069217705662595E-5  
 2.524000000000000E10    2.362708910368383E-4   1.812639384297654E-4  
 2.526000000000000E10   -4.350737435743213E-4  -9.522715845378116E-5  
 2.528000000000000E10   -1.033504959195852E-4  -2.301517379237339E-4  
 2.530000000000000E10    3.170219424646348E-4   5.633210530504584E-4  
 2.532000000000000E10   -1.002657663775608E-4  -4.911666619591415E-4  
 2.534000000000000E10    1.429335243301466E-4  -1.087634664145298E-4  
 2.536000000000000E10   -6.532459519803524E-4   5.961373681202531E-4  
 2.538000000000000E10   -1.028527822199976E-5   2.046030858764425E-4  
 2.540000000000000E10    4.149224423599662E-6   1.225837186211720E-4  
 2.542000000000000E10   -5.162846064195037E-4  -4.897317267023027E-4  
 2.544000000000000E10   -4.321783198975027E-4   2.932735660579056E-4  
 2.546000000000000E10   -4.989740409655497E-5   1.504540705354884E-5  
 2.548000000000000E10    6.341105327010155E-4  -3.008423082064837E-4  
 2.550000000000000E10   -1.829384273150936E-4  -4.582534020300955E-4  
 2.552000000000000E10    2.693871647352353E-5   3.720194217748940E-4  
 2.554000000000000E10    1.118492218665779E-4   4.912585718557239E-4  
 2.556000000000000E10    1.994512058445253E-5  -1.807202124837204E-6  
 2.558000000000000E10   -5.804612883366644E-4   5.001699319109321E-4  
 2.560000000000000E10   -3.111232654191554E-4   3.172063152305782E-4  
 2.562000000000000E10   -2.731735876295716E-4  -2.661055186763406E-4  
 2.564000000000000E10   -5.149345961399376E-4  -5.180267617106438E-4  
 2.566000000000000E10   -9.430448699276894E-5   6.498213770100847E-5  
 2.568000000000000E10    4.334241966716945E-4   6.655130709987134E-5  
 2.570000000000000E10    1.576405920786783E-4  -4.454677400644869E-4  
 2.572000000000000E10   -1.586742146173492E-4  -2.526236130506732E-6  
 2.574000000000000E10   -1.108926080632955E-4   5.881211254745722E-4  
 2.576000000000000E10    1.205378284794278E-4   3.214394382666796E-4  
 2.578000000000000E10   -1.901952491607517E-4  -4.897272447124124E-4  
 2.580000000000000E10   -9.280957165174186E-4  -2.812228340189904E-4  
 2.582000000000000E10   -5.221724859438837E-4   2.323257467651274E-5  
 2.584000000000000E10    4.519466892816126E-4  -5.210287636145949E-4  
 2.586000000000000E10    4.106480628252029E-5  -6.382172578014433E-4  
 2.588000000000000E10   -2.228323137387633E-4  -1.674903905950487E-4  
 2.590000000000000E10    5.650102393701673E-4   4.818910674657673E-4  
 2.592000000000000E10    5.761082284152508E-4  -2.424410049570724E-4  
 2.594000000000000E10   -2.584831090644002E-4  -3.668546196422540E-5  
 2.596000000000000E10   -6.287656142376363E-4   2.979726123157889E-4  
 2.598000000000000E10    2.800834772642702E-4   2.452953776810318E-4  
 2.600000000000000E10   -9.411099745193496E-5  -2.850180608220398E-4  
 2.602000000000000E10   -1.701515429886058E-4  -3.899841685779393E-4  
 2.604000000000000E10    1.812946720747277E-4  -7.549741712864488E-5  
 2.606000000000000E10    3.975058498326689E-4  -3.374068764969707E-4  
 2.608000000000000E10    1.303689932683483E-4   1.917280605994165E-4  
 2.610000000000000E10    1.906713587231934E-4   2.609595539979637E-4  
 2.612000000000000E10    3.487522772047669E-4   6.265558768063784E-4  
 2.614000000000000E10    1.217751632793807E-4  -4.571939934976399E-4  
 2.616000000000000E10   -2.433987101539969E-4  -1.427382085239515E-4  
 2.618000000000000E10   -5.273988936096430E-4   5.348034901544452E-4  
 2.620000000000000E10    8.657255093567073E-4   1.814317802200094E-4  
 2.622000000000000E10    5.298384930938482E-4  -8.694535354152322E-4  
 2.624000000000000E10   -4.909631679765880E-4  -3.183114749845117E-4  
 2.626000000000000E10   -1.129418378695846E-4   8.288574172183871E-4  
 2.628000000000000E10    7.700896239839494E-4   5.120261339470744E-4  
 2.630000000000000E10    8.218432776629925E-5  -3.263514081481844E-4  
 2.632000000000000E10   -3.855364047922194E-4   3.613726221374236E-5  
 2.634000000000000E10   -1.765309134498239E-4   2.882266999222338E-4  
 2.636000000000000E10    1.317345158895478E-4  -2.364079846302047E-4  
 2.638000000000000E10    3.424852038733661E-4  -2.634330594446510E-4  
 2.640000000000000E10    1.344512857031077E-4  -5.720375702367164E-5  
 2.642000000000000E10    4.033890145365149E-4  -9.641492215450853E-5  
 2.644000000000000E10    1.511505979578942E-4   2.763251359283458E-5  
 2.646000000000000E10   -2.595380938146263E-4   1.057317276718095E-4  
 2.648000000000000E10    2.328687332919799E-5   4.234930383972824E-4  
 2.650000000000000E10    3.461343003436923E-4  -3.723283007275313E-4  
 2.652000000000000E10   -1.505658146925271E-4  -8.169299690052867E-4  
 2.654000000000000E10   -5.370915750972927E-4  -1.690891513135284E-4  
 2.656000000000000E10    8.695969154359773E-5   7.238062680698931E-4  
 2.658000000000000E10    6.356299272738397E-4  -2.020696847466752E-4  
 2.660000000000000E10    9.243452950613573E-5  -4.738650459330529E-4  
 2.662000000000000E10   -4.292067897040397E-4   2.916145895142108E-4  
 2.664000000000000E10    2.240947942482308E-4   4.609716415870935E-4  
 2.666000000000000E10    3.243132960051298E-4   1.078240311471745E-4  
 2.668000000000000E10    2.416302741039544E-4  -4.708033520728350E-4  
 2.670000000000000E10    2.121621400874574E-5  -1.933300954988226E-4  
 2.672000000000000E10   -8.583508315496147E-5  -1.147274451795965E-4  
 2.674000000000000E10    3.838682896457613E-4  -4.251304490026087E-4  
 2.676000000000000E10    4.467807593755424E-4  -3.382538270670921E-4  
 2.678000000000000E10    3.486940695438534E-4  -2.929978109023068E-5  
 2.680000000000000E10    2.984534658025950E-4   9.083950135391206E-5  
 2.682000000000000E10    4.291140066925436E-5  -5.367139601730742E-5  
 2.684000000000000E10   -6.632489385083318E-5   3.872341476380825E-4  
 2.686000000000000E10    2.004605630645528E-4  -3.106835356447846E-5  
 2.688000000000000E10    7.661447307327762E-5  -5.465681897476316E-4  
 2.690000000000000E10   -4.172874614596367E-4  -5.065053119324148E-4  
 2.692000000000000E10   -2.924241707660258E-4   5.295645678415895E-4  
 2.694000000000000E10    6.797462701797485E-4   1.223635481437668E-4  
 2.696000000000000E10    7.044549565762281E-4  -4.671984643209726E-4  
 2.698000000000000E10   -2.457208756823093E-4  -5.286519881337881E-4  
 2.700000000000000E10   -4.710399662144482E-5   1.323497417615727E-4  
 2.702000000000000E10    8.750530105317012E-5   4.474278248380870E-4  
 2.704000000000000E10    5.785056273452938E-4  -3.717358922585845E-4  
 2.706000000000000E10   -1.925216638483107E-4  -5.559785058721900E-4  
 2.708000000000000E10   -4.455233283806592E-4  -1.849852269515395E-4  
 2.710000000000000E10   -3.000292635988444E-4   3.025425539817661E-4  
 2.712000000000000E10    6.614243466174230E-5  -2.192438550991938E-4  
 2.714000000000000E10   -9.466838673688471E-5   1.366602082271129E-4  
 2.716000000000000E10   -5.906124133616686E-4  -1.394911960233003E-4  
 2.718000000000000E10    1.824092032620683E-4  -1.153095763584133E-5  
 2.720000000000000E10   -4.983507096767426E-4   2.474378270562738E-4  
 2.722000000000000E10    1.718739804346114E-4   2.112989168381318E-4  
 2.724000000000000E10    1.714755489956588E-4   3.141989582218230E-4  
 2.726000000000000E10   -2.753346343524754E-4  -3.675026528071612E-4  
 2.728000000000000E10   -3.265240520704538E-4   7.043893565423787E-4  
 2.730000000000000E10   -4.050556453876197E-4   8.661155006848276E-4  
 2.732000000000000E10    2.027095979428850E-5   3.948475932702422E-4  
 2.734000000000000E10   -8.938942482927814E-5  -5.197498830966651E-5  
 2.736000000000000E10   -4.566646821331233E-4   2.803074676194228E-5  
 2.738000000000000E10   -2.749805280473083E-4  -4.743001409224235E-5  
 2.740000000000000E10    3.117288579232991E-4   3.985054790973663E-4  
 2.742000000000000E10    1.195776712847874E-4  -2.042949054157361E-4  
 2.744000000000000E10    2.768833655864000E-4   5.980155765428208E-5  
 2.746000000000000E10   -2.598135615698993E-4   5.556191899813712E-4  
 2.748000000000000E10    2.318098268005997E-4   3.252709866501391E-4  
 2.750000000000000E10   -3.019109717570245E-4   3.199499915353954E-4  
 2.752000000000000E10   -8.699462341610342E-5   2.302321372553706E-4  
 2.754000000000000E10   -3.821575373876840E-4   1.568008592585102E-4  
 2.756000000000000E10   -2.970224886666983E-4  -5.436444771476090E-4  
