#  HZ   S   RI   R     50.00 
! Rohde & Schwarz ZVA40 4Ports - Version 3.90 - 1145.1110k42 SN: 100403
! Date: 2023-10-04 09:33:04
! Measurement: S12 
! 
 2.200000000000000E10    6.410595960915089E-4   1.254848029930145E-4  
 2.202000000000000E10    3.028432183782570E-5  -5.999776767566800E-4  
 2.204000000000000E10   -4.827134252991527E-4   1.034591477946378E-4  
 2.206000000000000E10    2.082929568132386E-4   6.158605683594942E-4  
 2.208000000000000E10    3.850742068607360E-4  -3.220629878342152E-4  
 2.210000000000000E10   -3.093220293521881E-4  -3.948427911382169E-4  
 2.212000000000000E10   -1.229038462042809E-4  -1.192342006106628E-5  
 2.214000000000000E10    6.693359464406967E-4   4.416012961883098E-4  
 2.216000000000000E10    5.269199609756470E-4  -4.174069908913225E-4  
 2.218000000000000E10   -3.011166991200298E-4  -1.103546164813452E-4  
 2.220000000000000E10   -2.189367223763838E-4   4.045636742375791E-4  
 2.222000000000000E10    4.594016063492745E-4   4.992261528968811E-4  
 2.224000000000000E10   -1.364011550322175E-4  -2.332008298253641E-4  
 2.226000000000000E10   -5.003609694540501E-4  -1.839007018133998E-4  
 2.228000000000000E10   -1.682685979176313E-4   5.905138095840812E-4  
 2.230000000000000E10    1.524569233879447E-4   4.674131196225062E-5  
 2.232000000000000E10    1.104512557503767E-4  -4.890970885753632E-4  
 2.234000000000000E10    2.784462994895876E-4   5.071305786259472E-4  
 2.236000000000000E10    2.067393652396277E-4   1.466031826566905E-4  
 2.238000000000000E10    2.574096142780036E-4  -1.517430791864172E-5  
 2.240000000000000E10   -7.879178738221526E-4   3.938770678360015E-4  
 2.242000000000000E10    1.008966355584562E-4   5.287269596010447E-4  
 2.244000000000000E10    2.027426489803474E-5   3.454812031122856E-5  
 2.246000000000000E10   -4.558704094961286E-4  -5.523951258510351E-4  
 2.248000000000000E10   -5.777076003141701E-4   3.363627765793353E-4  
 2.250000000000000E10    4.162071563769132E-4   1.872157154139131E-4  
 2.252000000000000E10    3.831548674497753E-4   1.065872565959580E-4  
 2.254000000000000E10   -5.168854841031134E-5  -3.333558270242065E-4  
 2.256000000000000E10    1.461950596421957E-4   8.345547248609364E-4  
 2.258000000000000E10   -1.140278764069080E-4   2.696280134841800E-4  
 2.260000000000000E10    4.637840029317886E-4  -1.581215037731454E-4  
 2.262000000000000E10   -8.506945450790227E-4   2.462026168359444E-5  
 2.264000000000000E10    1.936084445333108E-4   2.164689212804660E-4  
 2.266000000000000E10   -3.381649730727077E-5  -1.851826891652308E-5  
 2.268000000000000E10   -8.165169128915295E-5  -1.144690322689712E-3  
 2.270000000000000E10   -2.360465878155083E-4   1.578302617417648E-4  
 2.272000000000000E10    7.495760801248252E-4  -2.474828215781599E-5  
 2.274000000000000E10    5.279096076264978E-4  -1.345655618933961E-4  
 2.276000000000000E10   -7.176623330451548E-4  -4.393871058709920E-4  
 2.278000000000000E10    3.078330191783607E-4   7.738905842415988E-4  
 2.280000000000000E10   -2.587886119727045E-4  -8.055966645770241E-6  
 2.282000000000000E10    2.037465310422704E-4  -6.553516141138971E-4  
 2.284000000000000E10   -8.746690000407398E-4   2.611567906569690E-4  
 2.286000000000000E10    1.220803533215076E-4  -3.262865648139268E-4  
 2.288000000000000E10   -5.441795292426832E-5  -5.229552043601871E-4  
 2.290000000000000E10   -4.498985072132200E-4  -4.804061609320343E-4  
 2.292000000000000E10   -4.285192990209907E-4   2.690824330784380E-4  
 2.294000000000000E10    4.636690428014845E-4   3.749264578800649E-5  
 2.296000000000000E10    5.596085102297366E-4  -8.095856173895299E-6  
 2.298000000000000E10   -4.506580007728189E-4  -6.751345063094050E-5  
 2.300000000000000E10   -7.090740109561011E-5   4.990820889361203E-4  
 2.302000000000000E10   -1.913084270199761E-4   5.127736367285252E-4  
 2.304000000000000E10   -2.732855209615082E-4  -5.616063208435662E-5  
 2.306000000000000E10   -5.779085913673043E-4   2.417480864096433E-4  
 2.308000000000000E10   -2.742987271631137E-5  -1.215116863022558E-4  
 2.310000000000000E10   -1.981464629352558E-5  -5.652612890116870E-4  
 2.312000000000000E10   -3.092882107011974E-4  -3.863973834086210E-4  
 2.314000000000000E10    4.810734026250430E-6   5.352806765586138E-4  
 2.316000000000000E10    8.347036200575531E-4  -2.271594858029857E-4  
 2.318000000000000E10    7.011825800873339E-5  -4.923944943584502E-4  
 2.320000000000000E10   -4.600170068442822E-4   3.722414548974484E-4  
 2.322000000000000E10    4.272066871635616E-4   3.558011085260660E-4  
 2.324000000000000E10    5.015634233132005E-4  -2.868798037525266E-5  
 2.326000000000000E10   -5.304200458340347E-4  -5.457103834487498E-4  
 2.328000000000000E10   -1.212855131598190E-4   2.514910302124918E-4  
 2.330000000000000E10    2.595105324871838E-4   1.816280564526096E-4  
 2.332000000000000E10    5.326089449226856E-4  -5.776466568931937E-4  
 2.334000000000000E10   -1.601598196430132E-4  -2.743310760706663E-4  
 2.336000000000000E10   -2.251326513942331E-4   1.053555461112410E-4  
 2.338000000000000E10    3.918505099136382E-4   3.869367355946451E-5  
 2.340000000000000E10   -9.713545296108350E-5  -5.117106484249234E-4  
 2.342000000000000E10   -6.839219713583589E-5   6.715505151078105E-5  
 2.344000000000000E10    2.978398115374148E-4   1.521181839052588E-4  
 2.346000000000000E10    4.837986780330539E-4  -2.640918537508696E-4  
 2.348000000000000E10   -5.463334382511675E-4  -3.586218808777630E-4  
 2.350000000000000E10   -3.887240745825693E-5   4.393002018332481E-4  
 2.352000000000000E10    4.226926539558917E-4   2.155948022846133E-4  
 2.354000000000000E10    9.017369302455336E-5  -8.934022043831646E-4  
 2.356000000000000E10   -7.943782838992775E-4  -4.622412961907685E-5  
 2.358000000000000E10    1.206995802931488E-4   4.205269215162844E-4  
 2.360000000000000E10    9.371963096782565E-4   2.451215696055442E-4  
 2.362000000000000E10    8.476176299154759E-5  -1.074005034752190E-3  
 2.364000000000000E10   -4.806151264347136E-4  -1.447839604225010E-4  
 2.366000000000000E10   -2.203360490966588E-4   3.513684205245227E-4  
 2.368000000000000E10    8.703276980668306E-4   1.915298489620909E-4  
 2.370000000000000E10    7.854576688259840E-5  -8.491129119647667E-5  
 2.372000000000000E10    2.736970782279968E-4   2.761119103524834E-4  
 2.374000000000000E10   -6.577394378837198E-5   1.339120790362358E-4  
 2.376000000000000E10   -2.040782273979858E-4  -3.922982141375542E-4  
 2.378000000000000E10   -6.995693547651172E-4   5.624895566143096E-4  
 2.380000000000000E10    5.204673507250845E-4   3.425919567234814E-4  
 2.382000000000000E10    8.568408084101975E-4  -2.120974677382037E-4  
 2.384000000000000E10   -5.951820639893413E-4  -7.974276086315513E-4  
 2.386000000000000E10   -7.360205636359751E-4   8.991115610115230E-4  
 2.388000000000000E10    4.033680888824165E-4   1.150235068053007E-3  
 2.390000000000000E10    1.118425978347659E-3  -3.093843406531960E-4  
 2.392000000000000E10   -8.078936953097582E-4  -7.880939519964159E-4  
 2.394000000000000E10   -1.180722028948367E-3   3.754948847927153E-4  
 2.396000000000000E10    8.003386028576642E-5   7.968423888087273E-4  
 2.398000000000000E10    7.578078075312078E-4  -1.660306297708303E-4  
 2.400000000000000E10    1.831415138440207E-4  -3.546074731275439E-4  
 2.402000000000000E10    7.174082566052675E-5  -3.631599829532206E-4  
 2.404000000000000E10    1.743901520967484E-4   1.584913698025048E-4  
 2.406000000000000E10   -8.439721568720415E-5   1.782301405910403E-4  
 2.408000000000000E10    4.044747329317033E-4   7.065671961754561E-4  
 2.410000000000000E10    2.591222873888910E-4   1.941758964676410E-4  
 2.412000000000000E10   -2.620367158669978E-4  -7.334841648116708E-4  
 2.414000000000000E10   -6.095972494222224E-4  -5.909316678298637E-5  
 2.416000000000000E10   -1.951873127836734E-4   6.397695979103446E-4  
 2.418000000000000E10    6.413168157450855E-4  -3.443617897573859E-4  
 2.420000000000000E10    7.460162305505946E-5  -1.066049677319825E-3  
 2.422000000000000E10   -5.924139986746013E-4  -4.707115294877440E-4  
 2.424000000000000E10   -2.485879522282630E-4   7.603340200148523E-4  
 2.426000000000000E10    6.727066938765347E-4   4.555388295557350E-4  
 2.428000000000000E10    2.528332988731563E-4  -3.467513015493751E-4  
 2.430000000000000E10   -8.909197058528662E-4  -7.472708239220083E-4  
 2.432000000000000E10   -2.104389568557963E-4   2.765804238151759E-4  
 2.434000000000000E10   -3.086179640376940E-5  -1.826965308282524E-4  
 2.436000000000000E10    1.406160008627921E-4  -6.606116658076644E-4  
 2.438000000000000E10    1.307583734160289E-4  -1.852384011726826E-4  
 2.440000000000000E10   -1.663428702158853E-4  -5.031107575632632E-4  
 2.442000000000000E10   -3.856104740407318E-4  -3.367612953297794E-4  
 2.444000000000000E10    9.117500303545967E-5   4.691276699304581E-4  
 2.446000000000000E10    3.350858460180461E-4   2.513524377718568E-4  
 2.448000000000000E10    2.386804408160970E-4  -6.966212531551719E-4  
 2.450000000000000E10   -2.313614240847528E-4  -3.410551653360017E-5  
 2.452000000000000E10   -6.188790430314839E-4   2.897580852732062E-4  
 2.454000000000000E10    6.707923021167517E-4   4.478475893847644E-4  
 2.456000000000000E10    6.604432128369808E-4  -5.068414611741900E-5  
 2.458000000000000E10   -3.099374589510262E-4  -6.082995678298175E-4  
 2.460000000000000E10   -4.713821399491280E-4   2.915405493695289E-4  
 2.462000000000000E10    1.687567710177973E-4   6.438561249524355E-4  
 2.464000000000000E10    5.349125713109970E-4  -4.023780347779393E-4  
 2.466000000000000E10    1.024974699248560E-4  -3.728075243998319E-4  
 2.468000000000000E10   -1.548561995150521E-4   2.787108678603545E-5  
 2.470000000000000E10    1.445288944523782E-4  -8.838120265863836E-5  
 2.472000000000000E10    1.520975783932954E-4   4.156147770117968E-4  
 2.474000000000000E10   -3.217652192688547E-5   6.195213645696640E-4  
 2.476000000000000E10    2.607074566185474E-4  -1.801424659788609E-4  
 2.478000000000000E10   -2.591191441752017E-4  -1.040240385918878E-4  
 2.480000000000000E10   -5.912424530833960E-4   2.848094445653260E-4  
 2.482000000000000E10   -1.907366386149079E-4   3.819073899649084E-4  
 2.484000000000000E10    3.593483124859631E-4  -2.636729041114450E-4  
 2.486000000000000E10    3.958641609642655E-4  -3.691050806082785E-4  
 2.488000000000000E10   -7.057344191707671E-5  -1.712082448648289E-4  
 2.490000000000000E10    1.666278403718025E-4   1.559223455842584E-4  
 2.492000000000000E10    7.311273366212845E-4   3.841286816168577E-4  
 2.494000000000000E10    3.355028748046607E-4   1.394205028191209E-4  
 2.496000000000000E10   -2.695393923204392E-4  -2.800885995384306E-4  
 2.498000000000000E10   -8.625285408925265E-5   2.611570234876126E-4  
 2.500000000000000E10   -5.403868271969259E-4   1.262665609829128E-4  
 2.502000000000000E10   -3.716034698300064E-4  -2.549344208091497E-4  
 2.504000000000000E10    4.353208641987294E-4   3.414784441702068E-4  
 2.506000000000000E10   -7.753825047984719E-5  -2.681693295016885E-4  
 2.508000000000000E10   -2.736536844167858E-4  -2.545489405747503E-4  
 2.510000000000000E10    1.663219445617870E-4   6.070449016988277E-4  
 2.512000000000000E10    4.785964847542346E-4   3.117027808912098E-4  
 2.514000000000000E10   -1.318761642323807E-4  -7.285726605914533E-4  
 2.516000000000000E10    4.555360283120535E-5   2.048246096819639E-4  
 2.518000000000000E10    8.499211980961263E-5   3.818099503405392E-4  
 2.520000000000000E10    2.265939256176353E-4  -2.381555823376402E-4  
 2.522000000000000E10    2.767921250779182E-4  -2.082003484247252E-4  
 2.524000000000000E10    6.831849168520421E-5  -3.121093031950295E-4  
 2.526000000000000E10   -2.711042179726064E-4  -9.608489926904440E-5  
 2.528000000000000E10    5.451161632663570E-5  -1.456796326237964E-5  
 2.530000000000000E10    9.382540156366304E-5   7.102786184987053E-5  
 2.532000000000000E10    2.349249989492819E-4  -1.816619769670069E-4  
 2.534000000000000E10    3.378108958713710E-4  -4.202682175673544E-4  
 2.536000000000000E10   -2.424070844426751E-4  -3.555175208020955E-4  
 2.538000000000000E10    1.005724625429139E-4   2.506898017600179E-4  
 2.540000000000000E10    5.380875663831830E-4   2.017959923250601E-4  
 2.542000000000000E10    3.308633458800614E-4  -7.103632669895887E-4  
 2.544000000000000E10   -2.159524301532656E-4  -2.585797046776861E-4  
 2.546000000000000E10   -1.243898004759103E-4   6.681223749183118E-4  
 2.548000000000000E10    3.188430855516344E-4   3.049688239116222E-4  
 2.550000000000000E10    4.650911723729223E-4  -2.380032237851992E-4  
 2.552000000000000E10   -1.624150172574446E-4   4.091080882062670E-6  
 2.554000000000000E10   -6.666961417067796E-5   2.246482181362808E-4  
 2.556000000000000E10    3.165397502016276E-4  -1.159897510660812E-4  
 2.558000000000000E10    2.677559095900506E-4  -2.443326229695231E-4  
 2.560000000000000E10    2.387748099863529E-4   2.873728808481246E-4  
 2.562000000000000E10    1.645167940296233E-4   2.320265339221805E-4  
 2.564000000000000E10    1.878094917628914E-4  -2.579702231741976E-5  
 2.566000000000000E10   -1.036125904647633E-4   2.118512202287093E-4  
 2.568000000000000E10    6.942158506717533E-5   6.092418334446847E-4  
 2.570000000000000E10    3.057652793359011E-4   2.403577527729794E-4  
 2.572000000000000E10   -9.020648576552048E-5  -2.381470258114860E-4  
 2.574000000000000E10   -4.093544266652316E-4   1.150302123278379E-4  
 2.576000000000000E10    1.916496694320813E-4   4.450533597264439E-4  
 2.578000000000000E10    2.526520402170718E-4  -1.642505085328594E-4  
 2.580000000000000E10   -2.867714792955667E-4  -2.657491713762283E-4  
 2.582000000000000E10   -2.185672783525661E-4   6.688818102702498E-4  
 2.584000000000000E10    2.598411811050028E-4   2.060998813249171E-4  
 2.586000000000000E10    7.563219696749002E-5  -2.572511730249971E-4  
 2.588000000000000E10   -7.182117551565170E-4   9.706722630653530E-5  
 2.590000000000000E10   -1.075011896318756E-4   4.520925285760313E-4  
 2.592000000000000E10    1.251056091859937E-4   1.044527452904731E-4  
 2.594000000000000E10   -2.006857539527118E-5  -1.875082671176642E-4  
 2.596000000000000E10   -5.741115892305970E-4  -1.191982810269110E-4  
 2.598000000000000E10   -3.239520592615008E-4   7.859363540774211E-5  
 2.600000000000000E10   -3.011297667399049E-4   2.650272799655795E-4  
 2.602000000000000E10   -1.530200970591977E-4  -3.253788745496422E-4  
 2.604000000000000E10   -3.268271102569997E-4   1.248783664777875E-4  
 2.606000000000000E10   -3.013490932062268E-4   3.202973457518965E-4  
 2.608000000000000E10   -2.486503217369318E-5  -3.322426346130669E-4  
 2.610000000000000E10   -5.114866653457284E-4  -7.483095396310091E-5  
 2.612000000000000E10   -2.243847848149017E-4   3.915408160537481E-4  
 2.614000000000000E10    5.906290025450289E-4  -5.433558253571391E-4  
 2.616000000000000E10   -3.741508699022234E-4  -5.407469579949975E-4  
 2.618000000000000E10   -5.786184919998050E-4   2.894022036343813E-4  
 2.620000000000000E10    3.978678141720593E-4   3.082705952692777E-4  
 2.622000000000000E10    3.569587424863130E-4  -4.907197435386479E-4  
 2.624000000000000E10   -1.165024332294706E-5  -5.363922100514174E-4  
 2.626000000000000E10   -3.425294125918299E-4   4.091432128916495E-5  
 2.628000000000000E10    3.418046981096268E-4   3.898338763974607E-4  
 2.630000000000000E10    6.613940931856632E-4  -2.164270845241845E-4  
 2.632000000000000E10    2.522796276025474E-4  -3.844497841782868E-4  
 2.634000000000000E10   -3.400539571885020E-4  -4.569998782244511E-5  
 2.636000000000000E10    3.357625973876566E-4  -5.409958612290211E-5  
 2.638000000000000E10    3.782602434512228E-4  -2.162947509987134E-7  
 2.640000000000000E10   -1.549471344333142E-4  -3.072879917453975E-4  
 2.642000000000000E10    4.368522495497018E-4  -2.206157805630937E-4  
 2.644000000000000E10    7.796556019457057E-5  -2.802910166792572E-4  
 2.646000000000000E10   -8.064900612225756E-5  -5.810530274175108E-4  
 2.648000000000000E10    3.132070996798575E-4   5.022780387662351E-4  
 2.650000000000000E10    4.847519448958337E-4  -2.048628957709298E-4  
 2.652000000000000E10    1.489292189944536E-4  -8.220981108024716E-4  
 2.654000000000000E10   -3.166118985973299E-4   9.134075662586838E-5  
 2.656000000000000E10   -2.191066596424207E-4   2.831888850778341E-4  
 2.658000000000000E10    4.092565504834056E-4  -1.583526172908023E-4  
 2.660000000000000E10    2.950375492218882E-4  -4.803376505151391E-4  
 2.662000000000000E10   -3.558522439561784E-4  -2.727711689658463E-4  
 2.664000000000000E10   -3.357449895702303E-5   4.799802627530880E-5  
 2.666000000000000E10    3.193088050466031E-4   4.918739432469010E-4  
 2.668000000000000E10    6.588549877051264E-5  -5.412453319877386E-4  
 2.670000000000000E10   -3.144998856896564E-7  -2.508146862965077E-4  
 2.672000000000000E10   -4.196661757305265E-4   1.993456389755011E-4  
 2.674000000000000E10   -3.191774158040062E-5  -7.210490730358288E-5  
 2.676000000000000E10    5.341194264474325E-5   1.771157549228519E-4  
 2.678000000000000E10   -4.970817826688290E-5   3.092383849434555E-4  
 2.680000000000000E10   -1.464231609134004E-4  -4.646235902328044E-5  
 2.682000000000000E10   -1.777110301190987E-4  -2.312462747795507E-4  
 2.684000000000000E10   -6.800970877520740E-4   2.398322540102527E-4  
 2.686000000000000E10    2.474430630172719E-6   2.618301368784159E-4  
 2.688000000000000E10    1.022604119498283E-4  -1.229641056852415E-4  
 2.690000000000000E10   -1.166153087979183E-4  -3.734962083399296E-4  
 2.692000000000000E10   -4.503636155277491E-4   1.081712471204810E-4  
 2.694000000000000E10   -2.022484259214252E-4   4.397700249683112E-4  
 2.696000000000000E10    3.558988682925701E-4   4.429486871231347E-4  
 2.698000000000000E10    3.176474274368957E-5   2.798317291308194E-5  
 2.700000000000000E10   -2.706251980271190E-4   1.082424787455238E-4  
 2.702000000000000E10   -4.099987854715437E-4   4.129529406782240E-4  
 2.704000000000000E10    3.830708446912468E-4   1.879412448033691E-4  
 2.706000000000000E10   -1.801964681362733E-4  -3.088243465754204E-5  
 2.708000000000000E10   -3.900343144778162E-4  -5.618318100459874E-4  
 2.710000000000000E10   -5.949522528680973E-5   2.756704052444547E-4  
 2.712000000000000E10    1.316011621383950E-4   1.025137171382085E-4  
 2.714000000000000E10    1.151746109826490E-4  -1.407927775289863E-4  
 2.716000000000000E10    5.667854929924943E-5   1.951594458660111E-4  
 2.718000000000000E10    3.062135947402567E-4   1.640648406464607E-4  
 2.720000000000000E10    8.782851364230737E-5   5.760152271250263E-5  
 2.722000000000000E10   -5.930933639319846E-6  -5.828456778544933E-5  
 2.724000000000000E10    1.669073972152546E-4  -1.314320543315262E-4  
 2.726000000000000E10    2.800858055707067E-4  -1.959592373168562E-5  
 2.728000000000000E10    1.512369053671137E-4  -3.310574393253774E-4  
 2.730000000000000E10    9.626308747101575E-5  -1.137713115895167E-4  
 2.732000000000000E10    1.183372223749757E-4   4.470386193133891E-4  
 2.734000000000000E10    4.202645504847169E-4  -1.345325872534886E-4  
 2.736000000000000E10    2.086175809381530E-4  -3.662026720121503E-4  
 2.738000000000000E10   -3.383064758963883E-4   2.392969472566620E-4  
 2.740000000000000E10    1.134511549025774E-4   4.137841460760683E-4  
 2.742000000000000E10    4.099918878637254E-4  -3.483725595287979E-4  
 2.744000000000000E10   -2.172360545955598E-4  -5.105861928313971E-4  
 2.746000000000000E10   -4.386648943182081E-4  -2.330788993276656E-4  
 2.748000000000000E10    1.548315922264010E-4   2.150215732399374E-4  
 2.750000000000000E10    3.543333441484720E-4  -8.596064435550943E-5  
 2.752000000000000E10    1.579600939294323E-4  -1.269269851036370E-4  
 2.754000000000000E10    6.113615381764248E-5   1.215341544593684E-4  
 2.756000000000000E10   -4.034820449305698E-5   1.242081052623689E-4  
