#  HZ   S   RI   R     50.00 
! Rohde & Schwarz ZVA40 4Ports - Version 3.90 - 1145.1110k42 SN: 100403
! Date: 2023-10-04 09:32:50
! Measurement: S12 
! 
 2.200000000000000E10    5.880200187675655E-4   8.164149767253548E-5  
 2.202000000000000E10    2.859696687664837E-4  -6.633535376749933E-4  
 2.204000000000000E10   -6.649572751484811E-4  -6.823560688644648E-4  
 2.206000000000000E10   -3.338303358759731E-4   8.960406412370503E-4  
 2.208000000000000E10    6.807833560742438E-4  -6.145882798591629E-5  
 2.210000000000000E10    2.004178386414424E-4  -7.980224909260869E-4  
 2.212000000000000E10   -7.229639450088143E-4   1.786831417120993E-4  
 2.214000000000000E10    6.046357448212802E-4   6.058709695935249E-4  
 2.216000000000000E10    3.891836095135659E-4  -3.290962195023894E-4  
 2.218000000000000E10   -3.929402446374297E-4  -3.216167096979916E-4  
 2.220000000000000E10   -2.966084575746208E-4   3.150103439111263E-4  
 2.222000000000000E10    3.583433863241226E-4   2.005155547522008E-4  
 2.224000000000000E10   -4.054275268572383E-5  -8.637693827040494E-4  
 2.226000000000000E10   -4.905614187009633E-4  -1.902006915770471E-4  
 2.228000000000000E10    1.427843235433102E-4   7.289446657523513E-4  
 2.230000000000000E10    1.996130013139918E-4  -1.740031148074195E-4  
 2.232000000000000E10    2.008742449106649E-4  -6.605816306546331E-4  
 2.234000000000000E10   -4.037337203044444E-4   7.574429619126022E-4  
 2.236000000000000E10    6.497343565570191E-5   2.271303528686985E-4  
 2.238000000000000E10    6.854638340882957E-4  -2.266515075461939E-4  
 2.240000000000000E10   -9.036961128003895E-4  -4.198952519800514E-4  
 2.242000000000000E10   -3.058148140553385E-4   2.339835045859218E-4  
 2.244000000000000E10    5.765638779848814E-4   2.059387334156781E-4  
 2.246000000000000E10    1.826667867135257E-4  -1.254935050383210E-3  
 2.248000000000000E10   -9.715985506772995E-4  -2.157829003408551E-4  
 2.250000000000000E10    2.788701676763594E-4   5.001483368687332E-4  
 2.252000000000000E10    8.117418037727475E-4  -1.007266037049703E-4  
 2.254000000000000E10   -1.858770119724795E-4  -8.562913862988353E-4  
 2.256000000000000E10   -4.441413911990821E-4   9.271013550460339E-4  
 2.258000000000000E10    4.745841724798083E-4   1.893677108455449E-4  
 2.260000000000000E10    4.887387040071189E-4  -3.107095544692129E-4  
 2.262000000000000E10   -1.032078638672829E-3  -1.554014888824895E-4  
 2.264000000000000E10    4.482525400817394E-4   2.450096653774381E-4  
 2.266000000000000E10    7.895645685493946E-4   2.896973091992550E-5  
 2.268000000000000E10    1.586389407748357E-4  -1.086914446204901E-3  
 2.270000000000000E10   -1.610898179933429E-4   5.341764772310853E-4  
 2.272000000000000E10    4.393595445435494E-4   2.964459054055624E-5  
 2.274000000000000E10    8.068145252764225E-4   1.919820788316429E-4  
 2.276000000000000E10   -6.111090187914670E-4  -2.720195916481316E-4  
 2.278000000000000E10   -7.123235263861716E-5   5.884749698452652E-4  
 2.280000000000000E10    8.615101978648454E-5   2.960426791105419E-4  
 2.282000000000000E10    8.121595019474626E-4  -2.515411870263051E-5  
 2.284000000000000E10   -3.507581131998450E-4  -3.751658005057834E-5  
 2.286000000000000E10    3.550989786162973E-4  -3.807945176959038E-5  
 2.288000000000000E10    9.545370121486485E-4   1.393150887452066E-4  
 2.290000000000000E10    3.140045155305415E-4  -3.861481964122504E-4  
 2.292000000000000E10    8.035612700041384E-5   6.871673394925892E-4  
 2.294000000000000E10    8.134189993143082E-4   4.819465684704483E-4  
 2.296000000000000E10    5.580642027780414E-4  -2.270036929985508E-4  
 2.298000000000000E10   -5.676262080669403E-4  -3.297217772342265E-4  
 2.300000000000000E10    7.616703078383580E-5   4.107176209799945E-4  
 2.302000000000000E10    1.051028229994699E-4   1.078247878467664E-4  
 2.304000000000000E10   -1.558661751914769E-4  -8.385761757381260E-4  
 2.306000000000000E10   -4.437981115188450E-4   5.645191995427012E-4  
 2.308000000000000E10    1.300875737797469E-4   3.292280598543584E-4  
 2.310000000000000E10    6.878410931676626E-4  -3.974431456299499E-5  
 2.312000000000000E10   -3.202387233613990E-5  -6.361524719977751E-5  
 2.314000000000000E10    7.183311936387327E-6   7.767144707031548E-4  
 2.316000000000000E10    6.737779476679862E-4   8.492413908243179E-4  
 2.318000000000000E10    8.702300256118178E-4   2.287049028382171E-5  
 2.320000000000000E10   -3.652897721622139E-4  -2.571763470768929E-4  
 2.322000000000000E10   -3.697936481330544E-4   1.931481674546376E-4  
 2.324000000000000E10    2.263232890982181E-4   1.308273640461266E-4  
 2.326000000000000E10   -4.459030242287554E-5  -6.441862788051367E-4  
 2.328000000000000E10   -1.362180046271533E-4   2.177947753807530E-4  
 2.330000000000000E10    3.039110561076086E-5   4.417506279423833E-4  
 2.332000000000000E10    6.271539605222642E-4  -1.659893459873274E-4  
 2.334000000000000E10   -2.240699395770207E-4   1.460647617932409E-4  
 2.336000000000000E10    1.124552800320089E-4   6.027907948009670E-4  
 2.338000000000000E10    8.008962613530457E-4   1.241259888047352E-4  
 2.340000000000000E10   -1.693380763754249E-4  -9.443228482268751E-4  
 2.342000000000000E10   -1.137106912210584E-3   2.893912314902991E-4  
 2.344000000000000E10   -4.072316805832088E-4   9.115150896832347E-4  
 2.346000000000000E10    4.827652592211962E-4   2.422058460069820E-4  
 2.348000000000000E10   -2.847235591616482E-4  -4.746935446746647E-4  
 2.350000000000000E10   -2.575933176558465E-4  -5.474046702147462E-5  
 2.352000000000000E10    8.354686724487692E-5   4.478882183320820E-4  
 2.354000000000000E10    3.301606047898531E-4   2.510917547624558E-4  
 2.356000000000000E10   -1.741199594107457E-5  -1.319628063356504E-4  
 2.358000000000000E10    3.670608930406161E-5   5.671799881383777E-4  
 2.360000000000000E10    4.534811596386135E-4  -7.903568985057063E-6  
 2.362000000000000E10   -5.519071710295975E-4  -9.760600369190797E-5  
 2.364000000000000E10   -1.091331068892032E-4   4.331093805376440E-4  
 2.366000000000000E10   -3.071391620323993E-5   5.537061369977891E-4  
 2.368000000000000E10    7.441051420755684E-4  -8.315888117067516E-4  
 2.370000000000000E10   -1.313331769779325E-3  -2.267733070766553E-4  
 2.372000000000000E10    2.705188853724394E-5   5.011035245843232E-4  
 2.374000000000000E10    3.503218467812985E-4   8.015685016289353E-4  
 2.376000000000000E10    7.094971952028573E-4  -8.551799692213535E-4  
 2.378000000000000E10   -1.233750488609076E-3  -1.787132496247068E-4  
 2.380000000000000E10   -1.834439317462966E-4   4.771305248141289E-4  
 2.382000000000000E10    2.195847446273547E-5   4.991002497263253E-4  
 2.384000000000000E10    2.539794077165425E-4  -4.664566949941218E-4  
 2.386000000000000E10   -7.635873625986278E-4  -1.734504476189613E-4  
 2.388000000000000E10   -2.389294968452305E-4   4.411356640048325E-4  
 2.390000000000000E10   -1.324073127761949E-5  -3.579090698622167E-4  
 2.392000000000000E10    1.795560092432424E-4   4.384870699141175E-4  
 2.394000000000000E10   -4.464846824703272E-6  -6.973202689550817E-4  
 2.396000000000000E10    2.650702372193337E-4   1.425009832018986E-4  
 2.398000000000000E10   -6.182016804814339E-4  -6.661441875621676E-4  
 2.400000000000000E10   -3.150591219309717E-4   6.656635669060051E-4  
 2.402000000000000E10    7.809003000147641E-4   2.065536391455680E-4  
 2.404000000000000E10    2.784434473142028E-4  -2.909729082603008E-4  
 2.406000000000000E10   -5.137154948897660E-4  -1.364438561722636E-3  
 2.408000000000000E10   -9.487353963777423E-4   8.722657803446055E-4  
 2.410000000000000E10    8.322134963236749E-4   5.048622260801494E-4  
 2.412000000000000E10    3.284641716163606E-4  -8.175706607289612E-4  
 2.414000000000000E10    1.202032144647092E-4  -6.932175019755960E-4  
 2.416000000000000E10   -1.468150061555207E-3  -2.219046436948702E-4  
 2.418000000000000E10    5.291739362291992E-4   4.277659754734486E-4  
 2.420000000000000E10    1.658865803619847E-4   5.026681901654229E-5  
 2.422000000000000E10    2.746405079960823E-4  -4.404688370414078E-4  
 2.424000000000000E10   -4.184518911642954E-5  -6.444106111302972E-4  
 2.426000000000000E10   -4.652448988053948E-4   3.518019220791757E-4  
 2.428000000000000E10   -2.299415500601754E-4   9.518957813270390E-5  
 2.430000000000000E10    3.092024417128414E-4   5.449434393085539E-4  
 2.432000000000000E10    8.332435390911996E-4  -2.909328322857618E-4  
 2.434000000000000E10   -6.313463672995567E-4  -4.182446864433587E-4  
 2.436000000000000E10   -2.417503274045885E-4  -1.423795911250636E-4  
 2.438000000000000E10   -4.924644017592073E-4   8.073589997366071E-4  
 2.440000000000000E10    1.055330852977932E-3  -3.442475872361683E-6  
 2.442000000000000E10    4.308568604756147E-4  -9.668503189459443E-4  
 2.444000000000000E10   -6.777323433198035E-4  -2.654124691616744E-4  
 2.446000000000000E10   -5.244388594292104E-4   5.099995760247111E-4  
 2.448000000000000E10    7.033954607322812E-4   6.874168175272644E-4  
 2.450000000000000E10    2.289584335812833E-5  -3.101620823144913E-4  
 2.452000000000000E10   -3.896278212778270E-4  -1.085698531824164E-4  
 2.454000000000000E10   -2.223467308795080E-4  -1.055727116181515E-4  
 2.456000000000000E10   -6.317800725810230E-4   2.293192083016038E-4  
 2.458000000000000E10    1.802764891181141E-4  -2.436416689306498E-4  
 2.460000000000000E10    1.120975139201619E-4   4.497525806073099E-4  
 2.462000000000000E10    8.599171269452199E-5  -5.460337270051241E-4  
 2.464000000000000E10   -3.510978131089360E-4   2.239633658973617E-6  
 2.466000000000000E10   -1.416895102011040E-4   5.196650745347142E-4  
 2.468000000000000E10    6.732669862685725E-5   3.517944714985788E-4  
 2.470000000000000E10    4.634375509340316E-4  -2.023273118538782E-4  
 2.472000000000000E10   -7.452180143445730E-4  -5.911913467571139E-4  
 2.474000000000000E10   -3.696280473377556E-4   5.570431676460430E-5  
 2.476000000000000E10   -4.458734474610537E-5   2.966602332890034E-4  
 2.478000000000000E10    6.934573757462204E-4  -5.104501033201814E-4  
 2.480000000000000E10    2.928060348494910E-5  -7.748977513983846E-4  
 2.482000000000000E10   -3.294873458798975E-4   4.420531913638115E-4  
 2.484000000000000E10    2.104904997395352E-4  -1.756011042743921E-4  
 2.486000000000000E10    5.972286453470588E-4   2.755481691565365E-4  
 2.488000000000000E10   -3.650515573099256E-4  -4.550445737550035E-5  
 2.490000000000000E10    3.529383393470198E-4   1.171611002064310E-4  
 2.492000000000000E10   -1.096325140679255E-4  -1.123043839470483E-4  
 2.494000000000000E10   -3.224654356017709E-4   5.257445736788213E-4  
 2.496000000000000E10    2.680933976080269E-4  -2.141290606232360E-4  
 2.498000000000000E10    5.391982267610729E-4  -7.006554369581863E-5  
 2.500000000000000E10   -5.410512676462531E-4  -5.606190534308553E-4  
 2.502000000000000E10    8.536210953025147E-5  -9.157510794466361E-5  
 2.504000000000000E10    4.002935311291367E-4   3.361033159308136E-4  
 2.506000000000000E10    2.702572965063155E-4   2.927200403064489E-4  
 2.508000000000000E10    3.556949377525598E-4  -5.761441425420344E-4  
 2.510000000000000E10   -1.630388142075390E-4   3.330378967802972E-4  
 2.512000000000000E10   -8.102301944745705E-5   8.574458479415625E-5  
 2.514000000000000E10    3.437225532252342E-4   4.083697858732194E-4  
 2.516000000000000E10   -1.557360337756109E-5  -4.156370050623082E-5  
 2.518000000000000E10   -2.184139739256352E-4   2.287837996846065E-4  
 2.520000000000000E10    2.350970898987725E-4  -2.009168820222840E-4  
 2.522000000000000E10   -3.239698417019099E-4   2.865278802346438E-4  
 2.524000000000000E10    2.272692472615745E-5  -7.627479499205947E-5  
 2.526000000000000E10    4.027191025670618E-4   4.206784360576421E-4  
 2.528000000000000E10    1.126865099649876E-4  -9.055077098309994E-4  
 2.530000000000000E10   -4.639469843823463E-4   2.195854322053492E-4  
 2.532000000000000E10   -1.447725371690467E-4   1.924922107718885E-4  
 2.534000000000000E10    3.261947131250054E-4   4.198909446131438E-4  
 2.536000000000000E10   -1.107734351535328E-4  -4.307674826122820E-4  
 2.538000000000000E10   -3.192050789948553E-4   6.043603061698377E-4  
 2.540000000000000E10   -4.862938367296010E-4   2.944477892015129E-4  
 2.542000000000000E10    2.560948196332902E-4   4.145959392189980E-4  
 2.544000000000000E10   -3.869099600706250E-4  -1.947850105352700E-4  
 2.546000000000000E10   -3.001324657816440E-4   1.721409716992639E-5  
 2.548000000000000E10   -4.198008391540498E-4   2.493971442163456E-5  
 2.550000000000000E10   -4.883478140982334E-6   3.098073939327151E-4  
 2.552000000000000E10   -3.932319814339280E-4  -5.283646532916464E-5  
 2.554000000000000E10   -9.619997581467032E-5   4.424778744578362E-4  
 2.556000000000000E10   -2.469054015818983E-4   4.876164439338027E-6  
 2.558000000000000E10   -2.362264240218792E-5   5.073488136986271E-5  
 2.560000000000000E10   -6.548166857101023E-4   3.258462529629469E-4  
 2.562000000000000E10   -3.701112655107863E-5   1.376962172798812E-4  
 2.564000000000000E10   -3.482327447272837E-4  -2.641027094796300E-4  
 2.566000000000000E10   -4.970603040419519E-4  -9.059737931238487E-5  
 2.568000000000000E10   -4.492826992645860E-4   6.578234606422484E-4  
 2.570000000000000E10    4.186585720162839E-4  -1.291713415412232E-4  
 2.572000000000000E10   -1.853824505815283E-4  -4.220945702400059E-4  
 2.574000000000000E10   -2.533970982767642E-4  -1.826649531722069E-4  
 2.576000000000000E10   -9.093790868064389E-5   2.442746481392533E-4  
 2.578000000000000E10    1.815761934267357E-4  -1.352100225631148E-4  
 2.580000000000000E10    1.347351062577218E-4  -2.384478284511715E-4  
 2.582000000000000E10   -1.088170974981040E-4  -1.687886106083170E-4  
 2.584000000000000E10   -7.118219946278259E-5   3.426753028179519E-5  
 2.586000000000000E10    3.271691093686968E-4  -6.239025242393836E-5  
 2.588000000000000E10   -1.732727832859382E-4  -2.711022971197963E-4  
 2.590000000000000E10   -4.529713987722062E-5  -3.083991468884051E-4  
 2.592000000000000E10    1.921835355460644E-4   3.922906762454659E-5  
 2.594000000000000E10    1.923824602272362E-4  -5.810710135847330E-4  
 2.596000000000000E10    1.889007107820362E-4  -2.218016888946295E-4  
 2.598000000000000E10    4.404602223075926E-4  -6.918351573403925E-6  
 2.600000000000000E10    1.590134634170681E-4  -4.448144463822246E-4  
 2.602000000000000E10   -4.910892312182114E-5  -3.799280384555459E-4  
 2.604000000000000E10   -1.405782531946898E-4   6.887573981657624E-4  
 2.606000000000000E10    3.351955092512071E-4  -2.469795290380716E-4  
 2.608000000000000E10    4.937301855534315E-4  -2.084313309751451E-4  
 2.610000000000000E10   -3.093400446232408E-4  -2.383895043749362E-4  
 2.612000000000000E10    2.424685226287693E-4   1.333528052782640E-4  
 2.614000000000000E10    5.083252908661962E-4   4.059419552504551E-6  
 2.616000000000000E10    3.281099488958716E-4  -2.648906956892461E-4  
 2.618000000000000E10   -1.266156032215804E-4  -4.489258571993560E-4  
 2.620000000000000E10    2.349863498238847E-4   4.153683257754892E-4  
 2.622000000000000E10   -1.188335045299027E-5   3.734423953574151E-4  
 2.624000000000000E10    7.674131193198264E-4  -2.681307087186724E-4  
 2.626000000000000E10    6.375309021677822E-5   4.670849884860218E-4  
 2.628000000000000E10   -1.602094853296876E-4  -3.674578692880459E-5  
 2.630000000000000E10    2.750672865658999E-4   8.687405352247879E-5  
 2.632000000000000E10   -2.656817378010601E-4   2.832623722497374E-4  
 2.634000000000000E10    1.251249705092050E-5   2.718424657359719E-4  
 2.636000000000000E10    6.106738146627322E-5  -4.158142473897897E-5  
 2.638000000000000E10   -4.194854700472206E-4   1.670486963121221E-4  
 2.640000000000000E10   -3.001624427270144E-4   4.007840761914849E-4  
 2.642000000000000E10   -4.842280395678245E-5   3.326293081045151E-4  
 2.644000000000000E10   -1.173909768112935E-4  -7.756809645798057E-5  
 2.646000000000000E10   -9.221044456353411E-5  -4.364841734059155E-4  
 2.648000000000000E10   -6.757742085028440E-5   2.500776026863605E-4  
 2.650000000000000E10   -1.926319964695722E-4   5.649708909913898E-4  
 2.652000000000000E10    2.916890953201801E-4   2.506911696400493E-4  
 2.654000000000000E10    7.989385630935431E-5   2.454404602758586E-5  
 2.656000000000000E10   -7.496089092455804E-4  -3.400472633074969E-5  
 2.658000000000000E10   -3.270422166679055E-4   9.962970943888649E-5  
 2.660000000000000E10    1.106094059650786E-4   4.948135465383530E-4  
 2.662000000000000E10   -1.096702326321974E-4  -2.376254415139556E-4  
 2.664000000000000E10    4.220087430439889E-4  -3.647471021395177E-4  
 2.666000000000000E10   -4.004462680313736E-4   4.121932724956423E-4  
 2.668000000000000E10   -1.026895333779976E-4  -2.106640604324639E-4  
 2.670000000000000E10    5.082878633402288E-4   3.692850586958230E-4  
 2.672000000000000E10   -1.963814574992284E-4  -1.002989301923662E-4  
 2.674000000000000E10    2.012158511206508E-4  -3.511104150675237E-4  
 2.676000000000000E10   -2.588907373137772E-4   3.760290856007487E-4  
 2.678000000000000E10   -4.199447866994888E-4   1.920652575790882E-4  
 2.680000000000000E10    1.922926167026162E-4  -1.274214591830969E-4  
 2.682000000000000E10    2.624937915243208E-4  -1.219959085574374E-4  
 2.684000000000000E10   -2.067023742711172E-4  -5.181584274396300E-4  
 2.686000000000000E10   -1.907595469674561E-5  -5.197805876377970E-5  
 2.688000000000000E10    1.142987239290960E-4   3.664110263343900E-4  
 2.690000000000000E10    3.557768650352955E-4  -1.205081498483196E-4  
 2.692000000000000E10   -1.183148779091425E-4   6.394274805643363E-6  
 2.694000000000000E10   -6.855217507109046E-4  -1.465749082854018E-4  
 2.696000000000000E10    7.536140037700534E-5   3.342380223330110E-4  
 2.698000000000000E10    2.209095400758088E-4   2.004501729970798E-4  
 2.700000000000000E10    1.396908483002335E-4  -3.046027850359678E-4  
 2.702000000000000E10   -1.719066785881296E-4  -2.867003495339304E-4  
 2.704000000000000E10    1.291028311243281E-4  -3.775622099055909E-5  
 2.706000000000000E10   -3.567212843336165E-5   8.783442899584770E-5  
 2.708000000000000E10    2.788948768284172E-4  -2.875599602703005E-4  
 2.710000000000000E10    1.660217967582867E-4   3.041665186174214E-4  
 2.712000000000000E10   -8.379419887205586E-5  -6.955998105695471E-5  
 2.714000000000000E10   -8.769663691055030E-5   6.095993012422696E-5  
 2.716000000000000E10   -3.077578730881214E-4   2.773542655631900E-4  
 2.718000000000000E10    1.970622834051028E-4   2.337208570679650E-4  
 2.720000000000000E10    1.540256780572236E-4  -2.560700522735715E-4  
 2.722000000000000E10   -3.302207333035767E-4  -5.444358685053885E-4  
 2.724000000000000E10   -2.371748705627397E-4   1.580628450028598E-4  
 2.726000000000000E10    3.298860974609852E-4   4.248331533744931E-4  
 2.728000000000000E10    2.392439782852307E-4  -1.696440631349105E-5  
 2.730000000000000E10   -1.396573352394626E-4  -1.104688344639726E-4  
 2.732000000000000E10   -3.136236045975238E-4   3.509056987240911E-4  
 2.734000000000000E10    7.246825407491997E-5   4.215750086586922E-4  
 2.736000000000000E10    4.414889190229587E-5  -1.449567207600921E-4  
 2.738000000000000E10   -3.762585984077305E-4  -1.931905717356131E-4  
 2.740000000000000E10   -1.969594595720992E-4  -1.087785349227488E-4  
 2.742000000000000E10    4.153737099841237E-4  -5.765344394603744E-5  
 2.744000000000000E10   -2.797300112433732E-4  -1.551464811200276E-4  
 2.746000000000000E10   -3.008074418175966E-5  -5.239002712187357E-5  
 2.748000000000000E10    1.482672087149695E-4   2.162374730687589E-4  
 2.750000000000000E10    9.783286077436060E-5  -2.971732756122947E-4  
 2.752000000000000E10   -3.016763657797128E-4  -1.121140085160732E-4  
 2.754000000000000E10   -3.612144209910184E-4   2.620606101118028E-4  
 2.756000000000000E10    1.647546596359462E-4   8.231934771174565E-5  
