#  HZ   S   RI   R     50.00 
! Rohde & Schwarz ZVA40 4Ports - Version 3.90 - 1145.1110k42 SN: 100403
! Date: 2023-10-04 09:32:34
! Measurement: S12 
! 
 2.200000000000000E10    1.140934298746288E-3   2.490207261871547E-4  
 2.202000000000000E10   -1.094803701562341E-5  -6.658136844635010E-4  
 2.204000000000000E10   -8.378669153898954E-4  -4.893625737167895E-4  
 2.206000000000000E10    9.731976751936600E-5   1.233177841641009E-3  
 2.208000000000000E10    8.689128444530070E-4  -1.159392631961964E-4  
 2.210000000000000E10   -8.969745977083221E-5  -7.971751037985086E-4  
 2.212000000000000E10   -3.690720477607101E-4   8.618453284725547E-4  
 2.214000000000000E10    4.833585990127176E-4   5.945517914369702E-4  
 2.216000000000000E10    2.418577350908890E-4  -3.061031457036734E-4  
 2.218000000000000E10   -2.464736753609031E-4  -4.307811905164272E-4  
 2.220000000000000E10   -6.148076499812305E-4   7.537535857409239E-4  
 2.222000000000000E10    7.792037795297802E-4   1.560542150400579E-4  
 2.224000000000000E10    1.464794768253341E-4  -8.297823951579630E-4  
 2.226000000000000E10   -6.842968286946416E-4  -1.365029311273247E-4  
 2.228000000000000E10   -1.998040970647708E-4   8.686603396199644E-4  
 2.230000000000000E10    9.484224137850106E-4  -2.510181220714003E-4  
 2.232000000000000E10    6.973846029723063E-5  -1.020657131448388E-3  
 2.234000000000000E10   -6.272083264775574E-4   8.636085549369454E-4  
 2.236000000000000E10    6.407699547708035E-4   4.941953811794519E-4  
 2.238000000000000E10    3.283551195636392E-4  -1.868597610155121E-4  
 2.240000000000000E10   -6.720349192619324E-4  -4.898753832094371E-4  
 2.242000000000000E10   -3.972792765125632E-4   5.703969509340823E-4  
 2.244000000000000E10    3.631669387686998E-4   4.891685675829649E-4  
 2.246000000000000E10    1.242445578100160E-4  -7.988440338522196E-4  
 2.248000000000000E10   -4.153480113018304E-4   2.717755269259214E-4  
 2.250000000000000E10    7.289304630830884E-5   4.961395170539618E-4  
 2.252000000000000E10    2.142867597285658E-4   1.402367779519409E-4  
 2.254000000000000E10   -1.995623024413362E-4  -2.901860571000725E-4  
 2.256000000000000E10   -6.113413837738335E-4   6.684183608740568E-4  
 2.258000000000000E10    3.637405461631715E-5   2.733425935730338E-4  
 2.260000000000000E10    4.052425210829824E-4  -1.309548097196966E-4  
 2.262000000000000E10   -7.478492334485054E-4  -5.231139948591590E-5  
 2.264000000000000E10   -1.461356296204031E-4   8.233856642618775E-4  
 2.266000000000000E10    4.492898588068783E-4   8.674119599163532E-4  
 2.268000000000000E10    5.338839764590375E-5  -9.284261032007635E-4  
 2.270000000000000E10   -8.792565786279738E-4   4.202917043585330E-4  
 2.272000000000000E10   -1.116652201744728E-4   4.965516855008900E-4  
 2.274000000000000E10    6.020014989189804E-4   6.153044523671269E-5  
 2.276000000000000E10   -3.761724510695785E-4  -5.258713499642909E-4  
 2.278000000000000E10    8.647304639453068E-5   4.551738384179771E-4  
 2.280000000000000E10    4.112956812605262E-4   2.104363811668009E-4  
 2.282000000000000E10    3.477114078123123E-4  -1.044203600031324E-4  
 2.284000000000000E10   -4.353796248324215E-4   5.262329941615462E-4  
 2.286000000000000E10    2.941492421086878E-4   1.294136891374365E-4  
 2.288000000000000E10    3.696346830110997E-4   3.806202148552984E-4  
 2.290000000000000E10   -5.302065401338041E-4  -5.334787419997156E-4  
 2.292000000000000E10   -3.694303741212934E-4   5.663753254339099E-4  
 2.294000000000000E10    3.370725899003446E-4   2.264140930492431E-4  
 2.296000000000000E10    4.266351170372218E-4  -4.462744109332562E-4  
 2.298000000000000E10   -3.958799061365426E-4  -6.696961936540902E-4  
 2.300000000000000E10   -3.035897680092603E-4   2.277536987094209E-4  
 2.302000000000000E10    4.220686678308994E-4   7.334093097597361E-4  
 2.304000000000000E10    1.603401178726926E-4  -5.973360966891050E-4  
 2.306000000000000E10   -4.396048607304692E-4   3.652972736745141E-5  
 2.308000000000000E10   -7.574384217150509E-4   2.208034275099635E-4  
 2.310000000000000E10    4.145497514400631E-4   1.049575366778299E-4  
 2.312000000000000E10   -4.962991806678474E-4  -5.717572057619691E-4  
 2.314000000000000E10   -7.313237874768674E-4   5.470639007398859E-5  
 2.316000000000000E10    1.411078555975109E-4   1.797907170839608E-4  
 2.318000000000000E10    1.202244238811545E-4  -6.506385980173945E-4  
 2.320000000000000E10   -5.295503069646657E-4  -1.639946713112295E-4  
 2.322000000000000E10   -1.498098845331697E-5  -6.491745352832368E-6  
 2.324000000000000E10    4.957452183589339E-4   1.355888962280005E-4  
 2.326000000000000E10   -2.606190100777894E-4  -5.899477400816977E-4  
 2.328000000000000E10   -4.659440601244569E-4   2.257567102788016E-4  
 2.330000000000000E10   -3.683612158056349E-4  -9.030216460814700E-5  
 2.332000000000000E10    6.156122544780374E-4  -5.583990132436156E-4  
 2.334000000000000E10   -4.023015499114990E-4  -5.010341410525143E-4  
 2.336000000000000E10   -5.738487816415727E-4  -8.962975698523223E-5  
 2.338000000000000E10    3.157629398629069E-4   8.649497613077983E-5  
 2.340000000000000E10    4.697854456026107E-4  -4.502490046434104E-4  
 2.342000000000000E10   -4.288332420401275E-4  -2.670528192538768E-4  
 2.344000000000000E10   -3.236177726648748E-4   8.150024223141372E-5  
 2.346000000000000E10    5.238579469732940E-4   3.931774117518216E-4  
 2.348000000000000E10   -1.704412716208026E-4  -4.246018652338535E-4  
 2.350000000000000E10   -4.036619502585381E-4   2.681125770322979E-4  
 2.352000000000000E10   -1.363469345960766E-4   6.343894056044519E-4  
 2.354000000000000E10    1.086226984625682E-4  -8.232195978052914E-4  
 2.356000000000000E10   -1.033121021464467E-3  -3.701752284541726E-4  
 2.358000000000000E10   -3.623234224505723E-4   4.061723011545837E-4  
 2.360000000000000E10    8.403470856137574E-4  -2.256117732031271E-4  
 2.362000000000000E10    1.581865799380466E-4  -1.054580090567470E-3  
 2.364000000000000E10   -6.044986075721681E-4   1.845363585744053E-4  
 2.366000000000000E10   -2.201874885940924E-4   3.841356083285064E-4  
 2.368000000000000E10    1.102415262721479E-3   1.415576698491350E-4  
 2.370000000000000E10    4.626027293852530E-5  -3.975729632657021E-4  
 2.372000000000000E10   -4.382930346764624E-4  -6.669228896498680E-4  
 2.374000000000000E10   -3.842717560473830E-4   8.934508659876883E-4  
 2.376000000000000E10    2.198235306423158E-4   2.028751041507348E-4  
 2.378000000000000E10    2.963879960589111E-4  -1.175058787339367E-4  
 2.380000000000000E10    2.663899795152247E-5  -3.862213925458491E-4  
 2.382000000000000E10    3.126482479274273E-4  -3.597855684347451E-4  
 2.384000000000000E10    2.627268549986184E-4  -2.093801740556955E-4  
 2.386000000000000E10    3.243440878577530E-4   5.322612123563886E-4  
 2.388000000000000E10    4.864705842919648E-4   5.688432138413191E-4  
 2.390000000000000E10    1.000654301606119E-3  -5.293522262945771E-4  
 2.392000000000000E10   -7.687539909966290E-4  -7.699160778429359E-5  
 2.394000000000000E10   -2.403349208179861E-4   6.945688510313630E-4  
 2.396000000000000E10    9.967966470867395E-4   6.261112284846604E-4  
 2.398000000000000E10    3.707332944031805E-4  -8.126238244585693E-4  
 2.400000000000000E10   -1.743029715726152E-4  -5.402499227784574E-4  
 2.402000000000000E10   -7.720208959653974E-4   7.234686636365950E-4  
 2.404000000000000E10    3.722605179063976E-4   3.445191541686654E-4  
 2.406000000000000E10    6.439760909415782E-4  -2.436332142679021E-4  
 2.408000000000000E10   -8.312407589983195E-5   1.068321580532938E-4  
 2.410000000000000E10   -3.723705303855240E-4  -1.151918768300675E-4  
 2.412000000000000E10    2.016487705986947E-4   7.832260598661378E-5  
 2.414000000000000E10    1.679661072557792E-4   2.990156935993582E-4  
 2.416000000000000E10   -2.684089704416692E-4  -1.569951709825546E-4  
 2.418000000000000E10    5.062292912043631E-4  -2.985144237754867E-5  
 2.420000000000000E10   -2.697717573028058E-4  -2.769491984508932E-4  
 2.422000000000000E10   -3.049481601919979E-4   3.354131185915321E-4  
 2.424000000000000E10    7.474464946426451E-4   1.003942335955799E-3  
 2.426000000000000E10    3.995562437921763E-4  -9.105704521061853E-6  
 2.428000000000000E10   -7.708808698225766E-5  -6.308238371275365E-4  
 2.430000000000000E10   -8.918205276131630E-4   5.497454549185932E-4  
 2.432000000000000E10    3.117758751614019E-6   9.821821004152298E-4  
 2.434000000000000E10    4.888625117018819E-4  -4.414575814735144E-4  
 2.436000000000000E10    1.374657731503248E-4  -5.743404617533088E-4  
 2.438000000000000E10   -4.723553138319403E-4  -1.743987668305636E-4  
 2.440000000000000E10    1.523411046946421E-4   2.053229254670441E-4  
 2.442000000000000E10    5.415380001068115E-4   5.441089742816985E-4  
 2.444000000000000E10    3.238501958549023E-4  -3.750673204194754E-4  
 2.446000000000000E10    3.579335461836308E-4  -4.200645707896911E-5  
 2.448000000000000E10   -7.388063822872937E-4  -1.282327575609088E-4  
 2.450000000000000E10   -4.575446073431522E-4   2.290161210112274E-4  
 2.452000000000000E10    3.782646963372827E-4   4.294801328796893E-4  
 2.454000000000000E10    3.292890905868262E-4  -2.915122022386640E-4  
 2.456000000000000E10    9.170959674520418E-5  -8.352287695743144E-4  
 2.458000000000000E10   -3.432469384279102E-4  -5.150001961737871E-4  
 2.460000000000000E10   -1.489059650339186E-4   8.990878704935312E-4  
 2.462000000000000E10    1.096835709176958E-3   1.927430275827646E-4  
 2.464000000000000E10    8.214375120587647E-4  -3.182102809660137E-4  
 2.466000000000000E10   -5.412646569311619E-4  -3.002269950229675E-4  
 2.468000000000000E10   -2.077983663184568E-4   6.344798021018505E-4  
 2.470000000000000E10    4.327381902839989E-4   5.604875041171908E-4  
 2.472000000000000E10    1.831666886573657E-4  -5.308563704602420E-4  
 2.474000000000000E10    5.614255132968538E-5  -1.906574761960656E-4  
 2.476000000000000E10   -1.170411633211188E-4  -4.331794916652143E-4  
 2.478000000000000E10   -3.194731543771923E-4  -8.092441566986963E-5  
 2.480000000000000E10    3.176607424393296E-4   2.531544014345855E-4  
 2.482000000000000E10    6.527539226226509E-4   2.637775905895978E-4  
 2.484000000000000E10    3.786759916692972E-4  -1.907614787342027E-4  
 2.486000000000000E10   -2.906364970840514E-4   1.297455892199650E-4  
 2.488000000000000E10   -5.908843595534563E-4   5.284919170662761E-4  
 2.490000000000000E10    2.836944477166981E-4   4.807963559869677E-4  
 2.492000000000000E10   -3.263096732553095E-5   8.628422801848501E-5  
 2.494000000000000E10   -5.105402087792754E-4  -6.839157431386411E-4  
 2.496000000000000E10   -5.005786078982055E-4  -5.169609357835725E-5  
 2.498000000000000E10   -1.595291978446767E-4   3.653551102615893E-4  
 2.500000000000000E10    3.389935591258109E-4  -1.202457351610065E-4  
 2.502000000000000E10   -1.114020706154406E-4  -5.474985227920115E-4  
 2.504000000000000E10    8.351272845175117E-5   5.930190673097968E-5  
 2.506000000000000E10    1.931011938722804E-4   1.707614865154028E-4  
 2.508000000000000E10   -1.322246098425239E-4   3.605370875447989E-4  
 2.510000000000000E10   -1.923669187817723E-4   4.435379523783922E-4  
 2.512000000000000E10    1.836143346736208E-4   4.773820546688512E-5  
 2.514000000000000E10   -4.461558419279754E-4  -1.284851168747991E-4  
 2.516000000000000E10   -7.660181727260351E-4   1.168559756479226E-4  
 2.518000000000000E10   -3.018201277882326E-5   1.707736810203642E-4  
 2.520000000000000E10    2.792139130178839E-4  -3.929538070224226E-4  
 2.522000000000000E10   -3.418165433686227E-4  -5.493361968547106E-4  
 2.524000000000000E10   -3.637953777797520E-4  -1.577005314175040E-4  
 2.526000000000000E10   -5.211641109781340E-5   2.268683310830966E-4  
 2.528000000000000E10    3.405696770641953E-4   6.467194180004299E-5  
 2.530000000000000E10    1.332133688265458E-4  -1.054416570696048E-4  
 2.532000000000000E10   -3.840610443148762E-4  -1.893844309961423E-4  
 2.534000000000000E10   -9.803560533327982E-5   2.131892833858728E-4  
 2.536000000000000E10   -6.532807674375363E-6   3.891452215611935E-4  
 2.538000000000000E10   -6.542613264173269E-4  -2.966478932648897E-4  
 2.540000000000000E10   -1.197209712699987E-4  -4.059341445099562E-4  
 2.542000000000000E10    1.075449108611792E-4  -6.449720967793837E-5  
 2.544000000000000E10   -2.456524816807360E-4  -4.104694817215204E-4  
 2.546000000000000E10    2.538724511396140E-4  -2.853312471415848E-4  
 2.548000000000000E10    4.823803319595754E-4  -2.090821071760729E-4  
 2.550000000000000E10    2.839455555658788E-4  -6.413473165594041E-4  
 2.552000000000000E10   -2.563552698120475E-4   1.122623143601231E-4  
 2.554000000000000E10    2.478565875208005E-6   3.437081468291581E-4  
 2.556000000000000E10    4.560852830763906E-4  -1.769486989360303E-4  
 2.558000000000000E10   -3.737384031410329E-5  -3.083205083385110E-4  
 2.560000000000000E10   -5.770139978267252E-4  -2.457600494381040E-4  
 2.562000000000000E10    2.244597271783277E-5  -3.601813223212957E-4  
 2.564000000000000E10    4.353898402769119E-4   7.667134195799008E-5  
 2.566000000000000E10    9.039637370733544E-5  -6.291811587288976E-4  
 2.568000000000000E10    1.151850810856558E-4  -1.757524732965976E-4  
 2.570000000000000E10   -5.953381696599536E-5   2.037288068095222E-4  
 2.572000000000000E10    8.531156927347183E-4   6.525030039483681E-5  
 2.574000000000000E10    2.460898249410093E-4  -1.646765012992546E-4  
 2.576000000000000E10   -2.750638850557152E-5   2.318126280442812E-5  
 2.578000000000000E10    4.122462123632431E-4   3.061544848605990E-4  
 2.580000000000000E10    1.281849399674684E-4   3.431345976423472E-4  
 2.582000000000000E10   -2.535886305849999E-4  -2.709627369767986E-5  
 2.584000000000000E10    2.377626515226439E-4  -9.322686673840508E-5  
 2.586000000000000E10    3.889602085109800E-4   3.837792901322246E-4  
 2.588000000000000E10   -3.993771970272064E-4  -6.384981679730117E-5  
 2.590000000000000E10    7.198405801318586E-4   1.057050103554502E-4  
 2.592000000000000E10    4.973802133463323E-4   1.016697497107089E-4  
 2.594000000000000E10    1.011865970212966E-5   1.728131755953655E-4  
 2.596000000000000E10    1.688495649432298E-5   3.926843055523932E-4  
 2.598000000000000E10    1.718941057333723E-4   6.038902211003006E-4  
 2.600000000000000E10    2.116812684107572E-4   3.175335004925728E-4  
 2.602000000000000E10    2.017092338064686E-4   1.778157311491668E-4  
 2.604000000000000E10   -4.879078769590706E-4   3.750816686078906E-4  
 2.606000000000000E10   -1.675366802373901E-4   2.399162767687812E-4  
 2.608000000000000E10    3.951159596908838E-4   3.443969762884080E-4  
 2.610000000000000E10   -1.966903364518657E-4  -1.262354635400698E-4  
 2.612000000000000E10    8.685524335305672E-6   2.257278902106918E-5  
 2.614000000000000E10   -7.793657277943566E-5   1.861810451373458E-4  
 2.616000000000000E10   -1.809616696846206E-5   1.122288522310555E-4  
 2.618000000000000E10    3.481008461676538E-4  -1.562043617013842E-4  
 2.620000000000000E10   -1.788205554476008E-4   3.358623507665470E-5  
 2.622000000000000E10   -1.835102593759075E-4  -1.601921248948202E-4  
 2.624000000000000E10    2.090234775096178E-4   7.646685116924346E-5  
 2.626000000000000E10   -1.702260778984055E-4   3.468922222964466E-4  
 2.628000000000000E10    1.538227079436183E-4  -2.515660307835788E-4  
 2.630000000000000E10   -1.113642065320164E-4  -9.498539293417707E-5  
 2.632000000000000E10   -3.647163975983858E-4  -3.051818930543959E-4  
 2.634000000000000E10    9.111647523241118E-5  -4.458940820768476E-4  
 2.636000000000000E10    2.525417658034712E-4  -6.646555266343057E-5  
 2.638000000000000E10   -3.505813947413117E-5  -3.843004815280438E-4  
 2.640000000000000E10   -4.341570820542984E-5  -5.139525746926665E-4  
 2.642000000000000E10   -6.239783397177234E-5  -4.582651308737695E-5  
 2.644000000000000E10   -1.458970364183188E-4  -7.761344022583216E-5  
 2.646000000000000E10    5.459227832034230E-4  -2.393494796706364E-4  
 2.648000000000000E10   -6.096210199757479E-5  -3.267912543378770E-4  
 2.650000000000000E10   -3.216516925022006E-4  -4.797126457560808E-4  
 2.652000000000000E10   -2.705000224523246E-4   3.711659810505807E-4  
 2.654000000000000E10    3.186021058354527E-5  -1.611746847629547E-4  
 2.656000000000000E10    2.926619199570268E-4  -9.044405887834728E-4  
 2.658000000000000E10   -1.469307026127353E-4   1.277356350328773E-4  
 2.660000000000000E10   -1.229825866175816E-4   1.055113098118454E-4  
 2.662000000000000E10    4.259248380549252E-4  -1.891001193143893E-5  
 2.664000000000000E10    5.184097681194544E-4   2.201337192673236E-4  
 2.666000000000000E10   -2.999816206283867E-4   4.350397284724750E-5  
 2.668000000000000E10    4.191456828266382E-4   1.362001876259456E-5  
 2.670000000000000E10    1.984500886464957E-5   1.144200432463549E-4  
 2.672000000000000E10   -1.897732581710443E-4  -6.502721953438595E-5  
 2.674000000000000E10    4.642885469365865E-4   1.062261526385555E-5  
 2.676000000000000E10    1.709684293018654E-4   3.198565682396293E-4  
 2.678000000000000E10    6.671477876807330E-7  -4.051950527355075E-4  
 2.680000000000000E10    2.908329588535707E-5   2.761651703622192E-4  
 2.682000000000000E10    1.819963945308700E-4   7.060316856950522E-4  
 2.684000000000000E10    4.035965539515019E-4  -1.126102288253605E-4  
 2.686000000000000E10    3.314801142551005E-4   1.841245648392942E-5  
 2.688000000000000E10   -7.145475829020143E-4   9.523195330984891E-5  
 2.690000000000000E10   -9.821204912441317E-6   1.902556396089494E-4  
 2.692000000000000E10    2.118554111802951E-4   2.713109715841711E-4  
 2.694000000000000E10   -2.944165898952633E-4  -2.155922411475331E-4  
 2.696000000000000E10   -2.162636810680851E-4  -1.128920871451555E-6  
 2.698000000000000E10    1.118629588745534E-4   3.987807140219957E-4  
 2.700000000000000E10    3.659883805084974E-4   3.242973434680607E-6  
 2.702000000000000E10    6.818654946982861E-5   7.963003736222163E-5  
 2.704000000000000E10    2.335530007258058E-5   3.281808167230338E-4  
 2.706000000000000E10    3.725923888850957E-4   1.603181954124011E-5  
 2.708000000000000E10   -1.412816927768290E-4   1.184522334369831E-4  
 2.710000000000000E10   -5.002024117857218E-4   3.868990170303732E-4  
 2.712000000000000E10    2.119034325005487E-4   2.482764248270541E-4  
 2.714000000000000E10    2.157448907382786E-4  -1.452281576348469E-4  
 2.716000000000000E10   -4.125619889236987E-4  -1.316073321504518E-4  
 2.718000000000000E10    3.091633698204532E-5   4.689010165748186E-5  
 2.720000000000000E10    4.427598905749619E-4   9.344404679723084E-5  
 2.722000000000000E10    1.245683670276776E-4  -2.939887635875493E-4  
 2.724000000000000E10   -3.854033129755408E-4  -1.511668961029500E-4  
 2.726000000000000E10   -2.157664566766471E-4   3.498833975754678E-4  
 2.728000000000000E10    2.390837180428207E-4  -8.042850095080212E-5  
 2.730000000000000E10   -8.142280421452597E-5  -3.696127678267658E-4  
 2.732000000000000E10   -4.961627419106662E-4   2.506274768165895E-6  
 2.734000000000000E10    3.284823615103960E-4   9.513572877040133E-5  
 2.736000000000000E10    4.748007922898978E-4  -1.968632568605244E-4  
 2.738000000000000E10   -3.009694046340883E-4  -2.228590165032074E-4  
 2.740000000000000E10   -3.285359707660973E-4   2.446259895805270E-4  
 2.742000000000000E10    5.074281943961978E-4   3.672168531920761E-4  
 2.744000000000000E10   -1.430692063877359E-4  -3.739187377505004E-4  
 2.746000000000000E10   -3.912407264579088E-4  -2.156401315005496E-4  
 2.748000000000000E10   -1.756080564518925E-5   4.870552802458406E-4  
 2.750000000000000E10    2.567804185673595E-4  -1.468895934522152E-4  
 2.752000000000000E10    1.477941113989800E-4  -6.776787340641022E-4  
 2.754000000000000E10   -3.689012082759291E-4   7.524946704506874E-5  
 2.756000000000000E10    5.543566658161581E-4   2.336227189516649E-4  
