#  HZ   S   RI   R     50.00 
! Rohde & Schwarz ZVA40 4Ports - Version 3.90 - 1145.1110k42 SN: 100403
! Date: 2023-10-04 09:32:17
! Measurement: S12 
! 
 2.200000000000000E10    6.110910326242447E-4  -7.070824358379468E-5  
 2.202000000000000E10    7.312923116842285E-5  -5.699720932170749E-4  
 2.204000000000000E10   -6.767483428120613E-4  -6.241732044145465E-4  
 2.206000000000000E10    4.420224740897538E-6   8.018714142963290E-4  
 2.208000000000000E10    3.211644361726940E-4  -4.354136181063950E-4  
 2.210000000000000E10    2.828485412464943E-5  -7.729739882051945E-4  
 2.212000000000000E10   -3.694123006425798E-4   1.135239581344649E-4  
 2.214000000000000E10    5.475588841363788E-4   7.835130672901869E-4  
 2.216000000000000E10    2.187671925639734E-4  -7.579386583529413E-4  
 2.218000000000000E10   -4.635722434613854E-4  -6.909572985023260E-4  
 2.220000000000000E10   -5.651835235767067E-4   8.507788879796863E-4  
 2.222000000000000E10    7.151127210818231E-4  -3.071621176786721E-4  
 2.224000000000000E10    2.171191299566999E-4  -8.386884583160281E-4  
 2.226000000000000E10   -8.066752343438566E-4  -2.389045694144443E-4  
 2.228000000000000E10    2.051146584562957E-4   4.117822390981019E-4  
 2.230000000000000E10    8.500305120833218E-4   1.875882117019501E-5  
 2.232000000000000E10    2.043452986981720E-4  -6.459518917836249E-4  
 2.234000000000000E10   -3.922680043615401E-4   5.924925790168345E-4  
 2.236000000000000E10    4.685975000029430E-5   2.736713504418731E-4  
 2.238000000000000E10    4.046919348184019E-4  -3.350407932884991E-4  
 2.240000000000000E10   -6.234328611753881E-4  -7.857723539927974E-5  
 2.242000000000000E10    6.458316420321353E-6   6.006446201354265E-4  
 2.244000000000000E10    2.933173673227429E-4   2.912000491051003E-5  
 2.246000000000000E10    2.192785468650982E-4  -5.087930476292968E-4  
 2.248000000000000E10   -8.380722138099372E-4   2.338849590159953E-4  
 2.250000000000000E10    7.632958295289427E-5   7.460330380126834E-4  
 2.252000000000000E10    7.245279266498983E-4  -1.800255995476618E-4  
 2.254000000000000E10   -6.117621087469161E-4  -4.867108946200460E-4  
 2.256000000000000E10   -2.617341815494001E-4   5.531826172955334E-4  
 2.258000000000000E10    4.623790446203202E-4   6.345439469441772E-4  
 2.260000000000000E10    2.624719636514783E-4  -5.479948013089597E-4  
 2.262000000000000E10   -4.487910773605108E-4  -9.140916517935693E-5  
 2.264000000000000E10   -2.383334685873706E-5   5.325099918991327E-4  
 2.266000000000000E10    2.194971457356587E-4   3.070644161198288E-4  
 2.268000000000000E10    3.258895230828784E-5  -4.172339686192572E-4  
 2.270000000000000E10   -1.026497920975089E-4   3.275266499258578E-5  
 2.272000000000000E10    1.543681282782927E-4  -8.530191553290933E-5  
 2.274000000000000E10    6.331530748866499E-4  -1.210805203299969E-4  
 2.276000000000000E10   -4.071306902915239E-4   7.736407860647887E-5  
 2.278000000000000E10    7.833923518774100E-6   1.497968041803688E-4  
 2.280000000000000E10    1.644842996029183E-4   3.031151427421719E-4  
 2.282000000000000E10    6.349168252199888E-4  -4.239544796291739E-4  
 2.284000000000000E10   -2.095137169817463E-4   2.974307280965149E-4  
 2.286000000000000E10    8.270598482340574E-5   1.409398100804538E-4  
 2.288000000000000E10    6.639076163992286E-4   4.332911921665072E-4  
 2.290000000000000E10   -2.254161372547969E-4  -6.846087053418160E-4  
 2.292000000000000E10   -4.150403256062418E-4   1.873475994216278E-4  
 2.294000000000000E10    1.533128379378468E-4   6.678358186036348E-4  
 2.296000000000000E10    4.899089108221233E-4  -2.752973232418299E-4  
 2.298000000000000E10   -1.981537498068065E-4  -5.077906535007060E-4  
 2.300000000000000E10   -8.391043229494244E-5  -2.359897043788806E-4  
 2.302000000000000E10    1.297670678468421E-4   2.335878816666082E-4  
 2.304000000000000E10    1.938639470608905E-4  -4.793684638570994E-4  
 2.306000000000000E10    3.234751347918063E-4   4.195480141788721E-4  
 2.308000000000000E10   -2.120415592798963E-5  -1.403204660164192E-4  
 2.310000000000000E10    1.904528471641243E-4  -1.100404770113528E-4  
 2.312000000000000E10   -5.350448191165924E-4   3.053570690099150E-4  
 2.314000000000000E10    1.624293072381988E-4  -1.439043553546071E-4  
 2.316000000000000E10   -1.910045539261773E-4   2.934912918135524E-4  
 2.318000000000000E10    1.381555484840646E-4  -5.835159099660814E-4  
 2.320000000000000E10   -5.319006741046906E-4  -3.750780306290835E-4  
 2.322000000000000E10   -3.792166535276920E-4   2.083539766317699E-5  
 2.324000000000000E10    7.481778156943619E-4   1.985710114240646E-4  
 2.326000000000000E10    2.420258242636919E-4  -3.426218754611909E-4  
 2.328000000000000E10    3.603569712140597E-5  -1.647014432819560E-4  
 2.330000000000000E10   -2.345952671021223E-4   6.221558433026075E-4  
 2.332000000000000E10    3.038795548491180E-4   2.048142196144909E-4  
 2.334000000000000E10   -7.849578105378896E-5   4.829398239962757E-4  
 2.336000000000000E10   -1.783793413778767E-4   2.422704856144264E-4  
 2.338000000000000E10   -4.661540879169479E-5  -5.107352626509965E-5  
 2.340000000000000E10   -3.264610131736845E-4  -1.165486537502147E-5  
 2.342000000000000E10   -2.873653429560363E-4   6.192704895511270E-4  
 2.344000000000000E10    5.744462250731885E-4   1.009683110169135E-4  
 2.346000000000000E10    4.653711221180856E-4  -4.223854048177600E-4  
 2.348000000000000E10   -5.574383540078998E-4  -5.460866668727249E-5  
 2.350000000000000E10   -1.750584051478654E-4   4.423861100804061E-4  
 2.352000000000000E10    4.118299402762204E-4   4.337830177973956E-4  
 2.354000000000000E10    3.940263704862446E-4  -5.348577396944165E-4  
 2.356000000000000E10   -1.345872296951711E-4  -3.299384843558073E-4  
 2.358000000000000E10   -3.548197564668953E-4   1.083428724086843E-4  
 2.360000000000000E10    3.760128747671843E-4   3.919408482033759E-4  
 2.362000000000000E10    4.280840803403407E-4   2.401689744147006E-5  
 2.364000000000000E10   -5.904382487642579E-5   1.088587960111909E-4  
 2.366000000000000E10   -9.558802412357181E-5   3.837889817077667E-4  
 2.368000000000000E10    2.826618729159236E-4   3.583150100894272E-4  
 2.370000000000000E10   -2.082370629068464E-4   1.252361980732530E-4  
 2.372000000000000E10    1.655922533245757E-4   2.056018092844170E-5  
 2.374000000000000E10   -3.379511326784268E-5   5.886920462216949E-6  
 2.376000000000000E10   -6.752705667167902E-4  -6.999834440648556E-4  
 2.378000000000000E10   -2.788795245578513E-5   4.140950914006680E-4  
 2.380000000000000E10    1.263062440557405E-4   2.484942669980228E-4  
 2.382000000000000E10    9.202685323543847E-4  -5.293064168654382E-4  
 2.384000000000000E10   -3.442976958467625E-5  -1.464006345486268E-4  
 2.386000000000000E10   -3.830529385595582E-5   3.469852381385863E-4  
 2.388000000000000E10    1.939637004397810E-4   7.430309196934104E-4  
 2.390000000000000E10    1.094068429665640E-4  -1.268347405130044E-4  
 2.392000000000000E10   -6.482395110651851E-4  -1.326283527305350E-4  
 2.394000000000000E10   -8.046218426898122E-4  -4.749452273244970E-5  
 2.396000000000000E10   -2.785371907521039E-4   8.088202448561788E-4  
 2.398000000000000E10   -1.228242326760665E-4  -1.803760533221066E-4  
 2.400000000000000E10    7.806735811755061E-4  -5.936373490840197E-4  
 2.402000000000000E10   -3.472029929980636E-4  -4.001901470473968E-5  
 2.404000000000000E10   -1.572989422129467E-4  -2.667780208867043E-4  
 2.406000000000000E10    3.678845532704145E-4   8.487916784361005E-4  
 2.408000000000000E10    2.744467055890709E-4   5.637815920636058E-4  
 2.410000000000000E10    3.688144497573376E-4  -2.076527744065970E-4  
 2.412000000000000E10   -3.423678863327950E-4  -9.303252591053024E-5  
 2.414000000000000E10   -7.227183668874204E-4   3.711238387040794E-4  
 2.416000000000000E10    1.143799672718160E-4   4.143979749642313E-4  
 2.418000000000000E10    6.641585496254265E-4  -3.428337804507464E-4  
 2.420000000000000E10   -3.577564784791321E-4  -8.550176862627268E-4  
 2.422000000000000E10   -5.409535951912403E-4  -4.767659411299974E-4  
 2.424000000000000E10   -1.185157088912092E-4   7.826910004951060E-4  
 2.426000000000000E10    2.428392908768728E-4   2.640136226546019E-4  
 2.428000000000000E10    6.802016869187355E-4  -1.445369707653299E-4  
 2.430000000000000E10   -3.345508594065905E-4  -2.677974407561123E-4  
 2.432000000000000E10   -5.809253198094666E-4  -5.152965240995400E-5  
 2.434000000000000E10   -6.019217471475713E-5   7.777548162266612E-4  
 2.436000000000000E10    2.197890717070550E-4   2.378454082645476E-4  
 2.438000000000000E10    1.977560896193609E-4  -6.369210896082223E-4  
 2.440000000000000E10   -1.382192131131887E-4  -3.342448617331684E-4  
 2.442000000000000E10   -5.445303977467120E-4   2.560494176577777E-4  
 2.444000000000000E10    2.103751321556047E-4  -2.213885454693809E-5  
 2.446000000000000E10    8.934049983508885E-4   2.771894214674830E-4  
 2.448000000000000E10   -1.074059109669179E-4  -6.578661850653589E-4  
 2.450000000000000E10   -3.685526316985488E-4  -7.101729861460626E-4  
 2.452000000000000E10   -4.351765674073249E-4   9.201875654980540E-4  
 2.454000000000000E10    2.051406045211479E-4   2.029969182331115E-4  
 2.456000000000000E10    5.178504507057369E-4  -4.139207594562322E-4  
 2.458000000000000E10   -5.698733730241656E-4   9.471860539633781E-5  
 2.460000000000000E10   -5.301770870573819E-4   1.954883628059179E-4  
 2.462000000000000E10    4.365392378531396E-4   4.103400860913098E-4  
 2.464000000000000E10   -3.135350561933592E-5   4.347624490037561E-4  
 2.466000000000000E10   -1.355842978227884E-4  -1.290250074816868E-4  
 2.468000000000000E10   -2.873450466722716E-5   1.909546845126897E-4  
 2.470000000000000E10   -5.645059281960130E-4   1.642830757191405E-4  
 2.472000000000000E10    2.606905472930521E-4   1.350776437902823E-4  
 2.474000000000000E10    3.613733279053122E-4   3.879151190631092E-4  
 2.476000000000000E10   -5.076783054391854E-6  -3.670985752250999E-4  
 2.478000000000000E10    8.941732812672854E-5  -1.610329636605457E-4  
 2.480000000000000E10   -5.744685186073184E-4   5.536841927096248E-4  
 2.482000000000000E10   -1.189142276416533E-4   3.177756734658033E-4  
 2.484000000000000E10    5.783251835964620E-4  -1.181136540253647E-4  
 2.486000000000000E10   -3.190859279129654E-4  -4.621875414159149E-4  
 2.488000000000000E10   -8.348022238351405E-4  -3.621369614847936E-5  
 2.490000000000000E10    1.806101645343006E-4   3.752007032744587E-4  
 2.492000000000000E10    3.906549245584756E-4  -1.605749712325633E-4  
 2.494000000000000E10    1.570730673847720E-4  -9.278971119783819E-4  
 2.496000000000000E10   -2.109826164087281E-4   5.344271812646184E-6  
 2.498000000000000E10   -2.796836779452860E-4   4.616182923200540E-5  
 2.500000000000000E10    2.826922573149204E-4  -7.934617315186188E-5  
 2.502000000000000E10    2.276222658110783E-4   7.083518721628934E-5  
 2.504000000000000E10    2.093465263897087E-5  -5.249318783171475E-4  
 2.506000000000000E10   -3.192343574482948E-4  -6.111215916462243E-4  
 2.508000000000000E10   -4.793995758518577E-4  -4.574415652314201E-5  
 2.510000000000000E10   -8.365630492335185E-5  -3.636655746959150E-4  
 2.512000000000000E10    4.928652197122574E-4  -1.924716489156708E-4  
 2.514000000000000E10   -1.733206590870395E-5  -2.777427725959569E-4  
 2.516000000000000E10   -1.157276929006912E-4  -4.965917323715985E-4  
 2.518000000000000E10   -1.584647907293402E-5   2.912829804699868E-4  
 2.520000000000000E10    3.858109412249178E-4   1.567285507917404E-4  
 2.522000000000000E10    3.166654496453702E-4  -3.548041859176010E-4  
 2.524000000000000E10   -3.384075243957341E-4  -1.514887990197167E-4  
 2.526000000000000E10   -3.732632321771234E-4   4.404796054586768E-4  
 2.528000000000000E10    2.875694772228599E-4   3.689051663968712E-5  
 2.530000000000000E10    2.670540707185864E-4   8.400616934522986E-5  
 2.532000000000000E10   -2.767922997009009E-4  -4.330387455411255E-4  
 2.534000000000000E10    4.437469760887325E-4  -3.623487718869001E-4  
 2.536000000000000E10   -7.155976345529780E-5   4.119837831240147E-4  
 2.538000000000000E10   -6.744724669260904E-5   7.268411718541756E-5  
 2.540000000000000E10    6.512275431305170E-4   7.289891800610349E-5  
 2.542000000000000E10    6.751530600013211E-5   6.780098192393780E-5  
 2.544000000000000E10   -2.688911627046764E-4   1.352970139123499E-4  
 2.546000000000000E10    2.056932571576908E-4   4.102110979147255E-4  
 2.548000000000000E10    1.086844131350517E-4   3.548403619788587E-4  
 2.550000000000000E10    1.667349570197985E-4  -3.278288641013205E-4  
 2.552000000000000E10   -2.491646446287632E-4   5.357883492251858E-5  
 2.554000000000000E10   -2.473533095326275E-4   2.526303578633815E-4  
 2.556000000000000E10    1.952760940184817E-4   3.668109129648656E-4  
 2.558000000000000E10    5.992621299810708E-4   3.233278766856529E-5  
 2.560000000000000E10   -9.664052049629390E-5  -2.888645394705236E-4  
 2.562000000000000E10   -2.059541002381593E-4   1.799349411157891E-4  
 2.564000000000000E10    3.844590683002025E-4   5.942922434769571E-4  
 2.566000000000000E10   -4.354925840743817E-5  -3.856057010125369E-4  
 2.568000000000000E10   -1.843057252699509E-4   2.933228388428688E-4  
 2.570000000000000E10   -2.872469194699079E-4   3.632390289567411E-4  
 2.572000000000000E10    2.390565714449622E-5  -1.725671027088538E-4  
 2.574000000000000E10    2.179294533561915E-4   4.133608017582446E-4  
 2.576000000000000E10   -5.499522376339883E-5  -3.763336862903088E-4  
 2.578000000000000E10    1.727044873405248E-4   4.904669549432583E-5  
 2.580000000000000E10   -1.702128938632086E-4  -1.853774447226897E-4  
 2.582000000000000E10   -3.944385680370033E-4  -8.549181802663952E-5  
 2.584000000000000E10    2.196342975366861E-4  -1.812731788959354E-4  
 2.586000000000000E10   -1.945830008480698E-4  -2.598273931653239E-5  
 2.588000000000000E10   -1.359473099000752E-4  -3.591089625842869E-4  
 2.590000000000000E10   -1.227889151778072E-4  -6.116961594671011E-5  
 2.592000000000000E10    8.973264630185440E-5   1.394834107486531E-4  
 2.594000000000000E10   -8.407312634517439E-6  -2.299591578776017E-4  
 2.596000000000000E10   -3.357135283295065E-4  -5.059583345428109E-4  
 2.598000000000000E10   -3.788868489209563E-4   1.434467594663147E-5  
 2.600000000000000E10   -9.661580406827852E-6  -3.687224525492638E-4  
 2.602000000000000E10    2.306208625668660E-4  -1.759746373863891E-4  
 2.604000000000000E10   -5.253417184576392E-4  -4.670757916755974E-4  
 2.606000000000000E10   -1.376906438963488E-4  -5.436144056147896E-5  
 2.608000000000000E10    6.352949276333675E-5  -5.974330633762293E-5  
 2.610000000000000E10    2.937076205853373E-4  -2.877227962017059E-5  
 2.612000000000000E10    4.143472688156180E-5  -3.926575300283730E-4  
 2.614000000000000E10   -2.364671236136928E-4  -1.361832573820720E-6  
 2.616000000000000E10   -1.044073069351725E-4   1.425870141247287E-4  
 2.618000000000000E10    5.212568212300539E-4   1.341358147328720E-4  
 2.620000000000000E10   -1.363563642371446E-4  -2.709233667701483E-4  
 2.622000000000000E10    5.318482726579532E-5  -3.050933592021465E-4  
 2.624000000000000E10    1.685490278759971E-4   1.333049876848236E-4  
 2.626000000000000E10    1.883260119939223E-4   1.239657922269544E-5  
 2.628000000000000E10    6.066350397304632E-5  -6.916090933373198E-5  
 2.630000000000000E10    3.384576993994415E-4   2.588612260296941E-4  
 2.632000000000000E10    1.074816173058935E-4   1.586019352544099E-4  
 2.634000000000000E10    1.146688300650567E-4   1.431177588528954E-5  
 2.636000000000000E10   -1.058183261193335E-4   4.175920912530273E-4  
 2.638000000000000E10    2.043263084487990E-4   3.057215362787247E-4  
 2.640000000000000E10    3.714909835252911E-4   1.957978383870795E-4  
 2.642000000000000E10   -3.051460371352732E-4  -3.482659667497501E-5  
 2.644000000000000E10   -1.214909570990130E-4   6.285451236180961E-4  
 2.646000000000000E10    2.998171257786453E-4   6.222253432497382E-4  
 2.648000000000000E10    3.299257659818977E-4   3.931638202629983E-4  
 2.650000000000000E10   -3.160519991070032E-4  -2.660206519067287E-4  
 2.652000000000000E10   -5.587454143096693E-5   3.684976836666465E-4  
 2.654000000000000E10   -1.221484417328611E-4   1.978947548195720E-4  
 2.656000000000000E10    5.881147226318717E-4   1.931394654093310E-4  
 2.658000000000000E10   -1.570832391735166E-4   3.590447886381298E-4  
 2.660000000000000E10   -5.728802352678031E-5   3.828911285381764E-4  
 2.662000000000000E10    6.616774044232443E-5   3.968863165937364E-4  
 2.664000000000000E10   -2.210155507782474E-4   1.733449025778100E-4  
 2.666000000000000E10   -6.343168788589537E-4   2.494698856025934E-4  
 2.668000000000000E10   -1.245360617758706E-4  -8.207254722947255E-5  
 2.670000000000000E10   -2.783675736282021E-4  -8.989455818664283E-5  
 2.672000000000000E10   -3.303681733086705E-4  -5.509615875780582E-4  
 2.674000000000000E10    1.788615918485448E-4   2.895532525144517E-4  
 2.676000000000000E10   -7.374400865955977E-6  -1.836954106693156E-5  
 2.678000000000000E10    1.668322802288458E-4  -4.908094997517765E-4  
 2.680000000000000E10   -3.066466597374529E-4   3.920689341612160E-4  
 2.682000000000000E10    1.802926271921024E-4   6.795549998059869E-4  
 2.684000000000000E10    1.782291365088895E-4   1.687524927547202E-4  
 2.686000000000000E10   -7.026809907983989E-5  -1.670580095378682E-4  
 2.688000000000000E10   -8.025418501347303E-4  -2.177538408432156E-5  
 2.690000000000000E10   -9.332708577858284E-5   7.673192885704339E-5  
 2.692000000000000E10    2.909218892455101E-4  -1.930418220581487E-4  
 2.694000000000000E10    3.773296339204535E-5  -5.017931689508259E-4  
 2.696000000000000E10    7.685543096158654E-5  -4.799938760697842E-4  
 2.698000000000000E10    3.839638084173203E-4   3.112184931524098E-4  
 2.700000000000000E10    2.726388047449291E-4  -2.122752775903791E-4  
 2.702000000000000E10   -1.631637860555202E-5   4.851874109590426E-5  
 2.704000000000000E10    7.711842044955120E-5   2.459080424159765E-4  
 2.706000000000000E10    5.034998685005121E-5  -3.200444916728884E-4  
 2.708000000000000E10   -5.305974045768380E-4  -2.387805288890377E-4  
 2.710000000000000E10   -1.941935042850673E-4  -2.100056008202955E-4  
 2.712000000000000E10   -2.494989312253892E-4   1.610507897567004E-4  
 2.714000000000000E10    5.449232994578779E-4  -3.970721736550331E-4  
 2.716000000000000E10   -1.506510016042739E-4  -4.458298790268600E-4  
 2.718000000000000E10   -1.298902207054198E-4   4.328541690483689E-4  
 2.720000000000000E10    8.474548812955618E-4   4.135186609346420E-4  
 2.722000000000000E10    5.153659149073064E-4  -3.252670867368579E-4  
 2.724000000000000E10   -3.264422994107008E-4  -1.569020387250930E-4  
 2.726000000000000E10   -5.371763472794555E-5   2.432006585877389E-4  
 2.728000000000000E10    2.889409661293030E-4   1.906764955492690E-4  
 2.730000000000000E10   -2.359171776333824E-4  -3.163240326102823E-4  
 2.732000000000000E10   -2.506059245206416E-4  -1.779938756953925E-4  
 2.734000000000000E10    3.314581408631057E-4   1.128190488088876E-4  
 2.736000000000000E10    4.322176682762802E-4  -3.727475996129215E-4  
 2.738000000000000E10   -3.802692226599902E-4  -4.673418588936329E-4  
 2.740000000000000E10   -3.445009933784604E-4   4.269767669029534E-4  
 2.742000000000000E10    2.664306084625423E-4   2.738241164479405E-4  
 2.744000000000000E10   -1.025961755658500E-4  -2.452042535878718E-4  
 2.746000000000000E10   -7.853367133066058E-4  -1.513069000793621E-4  
 2.748000000000000E10   -3.330964318593033E-5   4.049167910125107E-4  
 2.750000000000000E10    1.236262178281322E-4  -5.832356328028254E-5  
 2.752000000000000E10   -1.651770289754495E-4  -4.397330631036311E-4  
 2.754000000000000E10   -2.815321495290846E-4   1.292572560487315E-4  
 2.756000000000000E10    2.239833265775815E-4   8.948575123213232E-5  
