#  HZ   S   RI   R     50.00 
! Rohde & Schwarz ZVA40 4Ports - Version 3.90 - 1145.1110k42 SN: 100403
! Date: 2023-10-04 09:32:01
! Measurement: S12 
! 
 2.200000000000000E10    2.733441942837089E-4   6.365610752254725E-4  
 2.202000000000000E10   -1.255848619621247E-4   6.254427717067301E-5  
 2.204000000000000E10   -1.180139603093267E-3  -1.191745031974278E-4  
 2.206000000000000E10   -2.160928997909650E-4   6.737522780895233E-4  
 2.208000000000000E10    1.363969640806317E-4  -1.120684555644402E-5  
 2.210000000000000E10   -1.045686512952671E-4  -4.918682971037924E-4  
 2.212000000000000E10   -6.103216437622905E-4   3.074765263590962E-4  
 2.214000000000000E10    3.447276249062270E-4   3.867006453219801E-4  
 2.216000000000000E10   -7.891561108408496E-5   4.355451164883561E-5  
 2.218000000000000E10   -5.475353682413697E-4  -1.719604770187289E-4  
 2.220000000000000E10   -4.944601678289473E-4   3.171353018842638E-4  
 2.222000000000000E10    2.168399951187894E-4   2.281447814311832E-4  
 2.224000000000000E10    1.054979293257929E-4  -2.479672548361123E-4  
 2.226000000000000E10   -2.715216251090169E-4  -3.355083026690409E-5  
 2.228000000000000E10   -2.255705294373911E-5   6.263461546041071E-4  
 2.230000000000000E10   -9.457791747990996E-5  -1.006272868835367E-4  
 2.232000000000000E10   -5.239171514404006E-5  -4.147979489061981E-4  
 2.234000000000000E10   -5.600581062026322E-4   1.902552139654290E-5  
 2.236000000000000E10    1.063591116690077E-4   1.310147199546918E-4  
 2.238000000000000E10    4.137520736549050E-4  -2.396835334366188E-4  
 2.240000000000000E10   -2.978049451485276E-4  -2.450203173793852E-4  
 2.242000000000000E10   -1.095226252800785E-4   2.532931976020336E-4  
 2.244000000000000E10    4.499796486925334E-4   2.828596552717499E-5  
 2.246000000000000E10    9.083002078114077E-5  -6.001372239552438E-4  
 2.248000000000000E10   -2.317100152140483E-4  -1.203844294650480E-4  
 2.250000000000000E10   -1.057152840076014E-4   1.929081481648609E-4  
 2.252000000000000E10    4.085156542714685E-4  -2.351310467929579E-5  
 2.254000000000000E10   -2.315175224794075E-4  -3.126990923192352E-4  
 2.256000000000000E10   -3.196673642378300E-4   1.532836031401530E-4  
 2.258000000000000E10   -9.908957872539759E-5   1.720454165479168E-4  
 2.260000000000000E10    2.578806306701154E-4  -3.259556833654642E-4  
 2.262000000000000E10    1.795408024918288E-4  -3.609518753364682E-4  
 2.264000000000000E10    6.185418169479817E-5   5.176304330234416E-5  
 2.266000000000000E10    2.653356350492686E-4   3.026530903298408E-4  
 2.268000000000000E10   -2.543012087699026E-4  -1.787779328878969E-4  
 2.270000000000000E10    2.793940075207502E-4   3.281740064267069E-4  
 2.272000000000000E10   -2.273955615237355E-4  -5.888128362130374E-5  
 2.274000000000000E10    6.609930424019694E-4  -4.674676529248245E-5  
 2.276000000000000E10   -2.698493772186339E-4  -9.282557584811002E-5  
 2.278000000000000E10    2.629779203289218E-7  -1.042934018187225E-4  
 2.280000000000000E10    4.221338022034615E-4   2.458695671521127E-4  
 2.282000000000000E10    8.556933025829494E-4  -1.240806886926293E-4  
 2.284000000000000E10    2.304288354935125E-4   1.161306718131527E-4  
 2.286000000000000E10   -2.920008846558631E-4   3.890698717441410E-4  
 2.288000000000000E10    3.848712367471308E-4   4.885664675384760E-4  
 2.290000000000000E10    1.208172834594734E-4  -7.680195994907990E-5  
 2.292000000000000E10   -7.869207911426202E-5   2.401764795649797E-4  
 2.294000000000000E10   -3.615208261180669E-4   2.191366656916216E-4  
 2.296000000000000E10    1.274507085327059E-4   2.011572360061109E-4  
 2.298000000000000E10    1.368966477457434E-4   1.930564467329532E-4  
 2.300000000000000E10    2.393386967014521E-4  -3.224048996344209E-4  
 2.302000000000000E10    3.045611629204359E-5  -8.524379518348724E-5  
 2.304000000000000E10    6.038988067302853E-5   1.383447379339486E-4  
 2.306000000000000E10   -1.044351010932587E-4   3.807339526247233E-4  
 2.308000000000000E10    4.331016389187425E-4   1.013616129057482E-4  
 2.310000000000000E10    3.023347235284746E-4   2.173795510316268E-4  
 2.312000000000000E10   -2.391767920926213E-4  -1.226844597113086E-5  
 2.314000000000000E10   -1.952040911419317E-4   2.897792146541178E-4  
 2.316000000000000E10   -3.423262678552419E-4   3.977304440923035E-4  
 2.318000000000000E10    6.955106509849429E-4   1.054173844750039E-5  
 2.320000000000000E10   -6.915110134286806E-5   2.586182672530413E-4  
 2.322000000000000E10   -3.795585944317281E-4  -4.316536651458591E-4  
 2.324000000000000E10    2.283151552546769E-4   2.670202811714262E-4  
 2.326000000000000E10   -6.648390990449116E-5   1.955081679625437E-4  
 2.328000000000000E10    2.179928706027567E-4   5.185678674024530E-5  
 2.330000000000000E10   -3.463078173808754E-4  -2.219834859715775E-4  
 2.332000000000000E10   -1.201245686388575E-4  -3.217094053979963E-4  
 2.334000000000000E10   -2.586883492767811E-4   1.945236144820228E-4  
 2.336000000000000E10    4.057227342855185E-4   2.030068208114244E-5  
 2.338000000000000E10    3.506175562506542E-5   8.758723561186343E-5  
 2.340000000000000E10   -1.056532710208558E-4  -2.910934854298830E-4  
 2.342000000000000E10   -1.290745713049546E-4   4.348861693870276E-4  
 2.344000000000000E10   -1.686961186351255E-4   3.755434299819171E-4  
 2.346000000000000E10    3.555757211870514E-5  -1.833266433095560E-4  
 2.348000000000000E10   -4.226534219924361E-4  -2.176373818656430E-4  
 2.350000000000000E10    1.136416976805776E-4  -6.166605162434280E-4  
 2.352000000000000E10   -5.314408917911351E-4   5.032958579249680E-4  
 2.354000000000000E10    8.685982902534306E-5  -2.655682037584484E-4  
 2.356000000000000E10    4.639953549485654E-4   8.793854067334905E-5  
 2.358000000000000E10   -4.709601926151663E-4  -1.626528392080218E-4  
 2.360000000000000E10   -2.499393594916910E-4  -2.330748429812957E-6  
 2.362000000000000E10   -1.450007111998275E-4   2.610551309771836E-4  
 2.364000000000000E10    3.598222392611206E-4  -9.692792809801176E-5  
 2.366000000000000E10    9.045306069310755E-5  -3.677145577967167E-4  
 2.368000000000000E10   -5.409050500020385E-4  -2.633361727930605E-4  
 2.370000000000000E10   -3.976825100835413E-4   3.953124396502972E-4  
 2.372000000000000E10    4.039197228848934E-4   2.302602078998461E-4  
 2.374000000000000E10    3.521598409861326E-4  -3.413619197090156E-5  
 2.376000000000000E10   -5.863406695425510E-4  -8.416750933974981E-4  
 2.378000000000000E10   -2.131146611645818E-4   2.001246903091669E-4  
 2.380000000000000E10   -1.941418304340914E-4   4.777638532686979E-4  
 2.382000000000000E10    5.533411167562008E-4  -4.997071300749667E-5  
 2.384000000000000E10   -3.499443992041051E-4  -1.423147041350603E-4  
 2.386000000000000E10   -1.864697551354766E-4  -6.233991007320583E-4  
 2.388000000000000E10   -2.942853898275644E-4   5.071889027021825E-4  
 2.390000000000000E10   -1.002047865767963E-4   3.934678388759494E-4  
 2.392000000000000E10    6.506713689304888E-4   3.859833814203739E-4  
 2.394000000000000E10    1.852632849477232E-4  -6.406125612556934E-4  
 2.396000000000000E10   -5.802866071462631E-4  -7.126804121071473E-5  
 2.398000000000000E10   -6.278153741732240E-4   4.359680751804262E-4  
 2.400000000000000E10    6.937527796253562E-4   4.412347916513681E-4  
 2.402000000000000E10    2.639137674123049E-4  -2.047811576630920E-4  
 2.404000000000000E10   -4.220199480187148E-4  -7.379782618954778E-4  
 2.406000000000000E10   -4.783376643899828E-4   3.167634713463485E-4  
 2.408000000000000E10   -9.361963020637631E-5   5.315494490787387E-4  
 2.410000000000000E10    7.946523837745190E-4  -1.368517259834334E-4  
 2.412000000000000E10    6.176269380375743E-5  -3.979038447141647E-4  
 2.414000000000000E10   -7.157708168961108E-4  -1.893885928438976E-4  
 2.416000000000000E10   -9.415816748514772E-5   2.622612228151411E-4  
 2.418000000000000E10   -1.604873614269309E-5   4.998892545700073E-4  
 2.420000000000000E10   -7.120088866940932E-6  -1.637452369323000E-4  
 2.422000000000000E10    1.262995647266507E-4  -4.029132833238691E-4  
 2.424000000000000E10   -6.534706335514784E-4  -1.362507027806714E-4  
 2.426000000000000E10   -2.587860508356243E-4  -8.530700870323926E-5  
 2.428000000000000E10    5.057608941569924E-4   5.414040060713887E-4  
 2.430000000000000E10    2.005284477490932E-4  -8.352147997356951E-4  
 2.432000000000000E10    8.672346302773804E-5  -4.419948090799153E-4  
 2.434000000000000E10   -8.036314975470305E-4   4.783155454788357E-4  
 2.436000000000000E10    2.984007296618074E-4   9.609972039470449E-5  
 2.438000000000000E10    6.472853419836611E-5   3.018858842551708E-4  
 2.440000000000000E10   -1.441963686374947E-4  -6.032744422554970E-4  
 2.442000000000000E10   -9.357655653730035E-4  -2.644728556333575E-5  
 2.444000000000000E10   -4.230036283843219E-4   4.081668885191903E-5  
 2.446000000000000E10    4.125961277168244E-4   5.206895293667913E-4  
 2.448000000000000E10   -2.390701265539974E-4  -6.600964115932584E-4  
 2.450000000000000E10    2.141995792044327E-4  -3.812130016740412E-4  
 2.452000000000000E10   -8.280247566290200E-4   4.801150935236365E-4  
 2.454000000000000E10    4.692763614002615E-4  -2.689499524421990E-4  
 2.456000000000000E10    1.796787400962785E-4   3.551276458892971E-4  
 2.458000000000000E10    2.098137483699247E-4  -4.128472937736660E-4  
 2.460000000000000E10   -1.180309209303232E-5  -1.094738108804449E-4  
 2.462000000000000E10   -4.460788622964174E-4  -1.699274143902585E-4  
 2.464000000000000E10    4.603083070833236E-4   5.831753369420767E-4  
 2.466000000000000E10    4.736061964649707E-4  -3.594209847506136E-4  
 2.468000000000000E10    3.782490675803274E-4  -5.691921105608344E-4  
 2.470000000000000E10   -5.785567336715758E-4  -5.132165388204157E-4  
 2.472000000000000E10    3.777747333515436E-4   5.629644729197025E-4  
 2.474000000000000E10    1.027756006806158E-4   4.209913895465434E-4  
 2.476000000000000E10    1.063052914105356E-3  -3.540833422448486E-4  
 2.478000000000000E10   -5.489997056429274E-5  -4.288496857043356E-4  
 2.480000000000000E10   -2.401627571089193E-4   3.089822130277753E-4  
 2.482000000000000E10    1.164014793175738E-5   3.867114428430796E-4  
 2.484000000000000E10    1.058668363839388E-3   2.237412991235033E-4  
 2.486000000000000E10    7.358158472925425E-5  -4.927737754769623E-4  
 2.488000000000000E10    1.976730418391526E-4  -3.703759648487903E-5  
 2.490000000000000E10   -3.412464284338057E-4   1.122636167565361E-4  
 2.492000000000000E10    4.815341380890459E-4   4.443373763933778E-4  
 2.494000000000000E10    1.311277883360162E-4   2.103700244333595E-4  
 2.496000000000000E10    6.126144435256720E-4  -9.295895142713562E-5  
 2.498000000000000E10   -5.350909123080783E-5  -3.678705834317952E-4  
 2.500000000000000E10    1.019409319269471E-4   5.055848159827292E-4  
 2.502000000000000E10   -5.660185343003832E-5   1.754679105943069E-4  
 2.504000000000000E10    8.155311807058752E-4   4.981228848919272E-4  
 2.506000000000000E10    3.492175164865330E-5  -3.117213200312108E-4  
 2.508000000000000E10   -1.846726954681799E-4   1.963313698070124E-4  
 2.510000000000000E10   -1.708200725261122E-4   1.132808756665327E-4  
 2.512000000000000E10    7.579371595056728E-5   7.933573215268552E-4  
 2.514000000000000E10    4.683554871007800E-4  -5.113977822475135E-4  
 2.516000000000000E10   -5.039690877310932E-4  -2.060457627521828E-4  
 2.518000000000000E10   -5.632861211779527E-5   5.521369166672230E-4  
 2.520000000000000E10   -1.074880492524244E-4  -3.961037145927548E-5  
 2.522000000000000E10    5.246452055871487E-4   3.867299528792501E-4  
 2.524000000000000E10   -4.920698120258749E-4  -6.200366769917309E-4  
 2.526000000000000E10   -2.983346348628402E-4   3.136692685075104E-4  
 2.528000000000000E10   -2.837108622770757E-4  -1.621229457668960E-4  
 2.530000000000000E10   -2.469663450028747E-4   3.559197357390076E-4  
 2.532000000000000E10   -5.600113581749611E-5  -3.015867550857365E-4  
 2.534000000000000E10   -3.666232805699110E-4  -2.480531111359596E-4  
 2.536000000000000E10   -5.894760761293583E-5  -8.960273589764256E-6  
 2.538000000000000E10   -2.340649807592854E-4  -8.946870366344228E-5  
 2.540000000000000E10    2.026445290539414E-4   2.804267278406769E-4  
 2.542000000000000E10   -6.034487159922719E-5  -4.437808529473841E-4  
 2.544000000000000E10    4.715799514087848E-5  -1.676549436524510E-4  
 2.546000000000000E10   -2.234002022305504E-4  -1.655416126595810E-4  
 2.548000000000000E10   -5.897330993320793E-5   4.212953790556639E-4  
 2.550000000000000E10    3.325022407807410E-4  -1.736297708703205E-4  
 2.552000000000000E10   -3.371705242898315E-4  -2.455182257108390E-4  
 2.554000000000000E10   -4.895664169453085E-4  -1.421006018063054E-4  
 2.556000000000000E10   -7.761376036796719E-5   3.266321145929396E-4  
 2.558000000000000E10    3.650259459391236E-4  -3.794874646700919E-4  
 2.560000000000000E10   -7.523730164393783E-5  -5.102483555674553E-4  
 2.562000000000000E10    1.447383110644296E-4  -1.057140980265103E-4  
 2.564000000000000E10    5.072583007859066E-5   3.088901576120406E-5  
 2.566000000000000E10    2.834573970176280E-4  -3.692274913191795E-5  
 2.568000000000000E10    3.540906182024628E-4  -1.245887779077748E-5  
 2.570000000000000E10   -6.528505036840215E-5   1.927988050738350E-4  
 2.572000000000000E10    1.775092969182879E-4   6.477409624494612E-5  
 2.574000000000000E10    1.111983001464978E-4   2.634951961226761E-4  
 2.576000000000000E10    1.030988423735835E-4   2.597362799861003E-5  
 2.578000000000000E10   -7.732307381047576E-7   1.041659052134492E-4  
 2.580000000000000E10    1.485302782384679E-4  -2.519137342460454E-4  
 2.582000000000000E10    4.469984924071468E-5  -2.579504325694870E-5  
 2.584000000000000E10    1.912115985760465E-4   1.517000491730869E-4  
 2.586000000000000E10    3.415053943172097E-4  -6.390815542545170E-5  
 2.588000000000000E10    1.234914234373719E-4  -8.777315088082105E-5  
 2.590000000000000E10   -6.090888564358465E-5   1.932515151565895E-4  
 2.592000000000000E10    1.697078914730810E-5   5.886164144612849E-4  
 2.594000000000000E10    4.684334271587431E-4   8.609502401668578E-5  
 2.596000000000000E10   -2.298819163115695E-4  -1.874013396445662E-4  
 2.598000000000000E10   -5.765358582721092E-5   2.199588016082998E-5  
 2.600000000000000E10   -3.181262582074851E-4   2.557833504397422E-4  
 2.602000000000000E10    8.123122097458690E-5   8.864842675393447E-5  
 2.604000000000000E10    1.297860289923847E-4  -9.304998093284667E-5  
 2.606000000000000E10   -1.209623369504698E-4   9.816760575631633E-5  
 2.608000000000000E10   -4.971714224666357E-4   5.845606938237324E-5  
 2.610000000000000E10    4.903956432826817E-4   3.996588930021972E-4  
 2.612000000000000E10   -1.219930636580102E-4   1.041768991854042E-4  
 2.614000000000000E10   -1.709460630081594E-4  -3.529242530930787E-4  
 2.616000000000000E10   -4.600182001013309E-4   2.804743708111346E-4  
 2.618000000000000E10   -1.440761116100475E-4  -8.661268111609388E-6  
 2.620000000000000E10    1.660707057453692E-4  -3.236817137803882E-4  
 2.622000000000000E10   -1.226513850269839E-4  -2.298051549587399E-4  
 2.624000000000000E10    2.698040625546128E-4   1.295330148423091E-4  
 2.626000000000000E10    4.293121310183778E-5  -2.259463326481637E-5  
 2.628000000000000E10    2.416640927549452E-5  -1.183154236059636E-4  
 2.630000000000000E10    3.936767825507559E-5   1.830091641750187E-4  
 2.632000000000000E10    4.204981960356236E-4  -2.145064900105353E-5  
 2.634000000000000E10   -3.891344531439245E-4  -4.807900695595890E-4  
 2.636000000000000E10   -4.724931568489410E-5  -3.990088880527765E-4  
 2.638000000000000E10   -7.500292849726975E-5   4.556899366434664E-4  
 2.640000000000000E10    1.888228871393949E-4  -2.444268611725420E-4  
 2.642000000000000E10    1.569513187860139E-5  -6.172715802676976E-4  
 2.644000000000000E10   -2.294795558555052E-4  -7.454852311639115E-5  
 2.646000000000000E10    1.825200452003628E-4   2.706978702917695E-4  
 2.648000000000000E10    4.452349967323244E-4  -2.184155455324799E-4  
 2.650000000000000E10    2.009827439906076E-4  -2.493727079126984E-4  
 2.652000000000000E10   -2.872125769499689E-4  -2.086179738398641E-4  
 2.654000000000000E10    5.460107349790633E-4   2.315795427421108E-4  
 2.656000000000000E10    8.546754543203861E-5   2.430558015475981E-5  
 2.658000000000000E10    3.679654037114233E-5  -6.890204967930913E-4  
 2.660000000000000E10    1.501642836956307E-4   3.709337906911969E-4  
 2.662000000000000E10    2.675308205652982E-4   6.377248791977763E-5  
 2.664000000000000E10    2.202701434725896E-4  -1.615064393263310E-4  
 2.666000000000000E10   -4.777252979693003E-5   2.357090852456167E-4  
 2.668000000000000E10    5.352704320102930E-4   1.493026211392134E-4  
 2.670000000000000E10    4.635254736058414E-4  -1.377379248879151E-5  
 2.672000000000000E10   -4.064970707986504E-4  -3.541330806910992E-4  
 2.674000000000000E10   -5.509107359102927E-5   2.047301823040471E-4  
 2.676000000000000E10    3.460616862867028E-4   4.830076650250703E-4  
 2.678000000000000E10    4.047422407893464E-5  -2.965652965940535E-4  
 2.680000000000000E10   -8.914416685001925E-5   2.795068212435581E-5  
 2.682000000000000E10   -2.831741003319621E-4   3.724601410795003E-4  
 2.684000000000000E10    3.211909788660705E-4   2.864253765437752E-4  
 2.686000000000000E10    2.514332009013742E-4  -1.364281633868814E-4  
 2.688000000000000E10   -1.971168239833787E-4  -2.945605956483632E-5  
 2.690000000000000E10   -2.148790081264451E-4   5.026907310821116E-4  
 2.692000000000000E10    3.893731918651611E-4   1.818813761929050E-4  
 2.694000000000000E10   -1.194627184304409E-4  -3.071253304369748E-4  
 2.696000000000000E10   -3.242809907533228E-4   7.480718340957537E-5  
 2.698000000000000E10    7.530017319368199E-5   5.909730098210275E-4  
 2.700000000000000E10   -4.622764390660450E-5  -2.511551138013601E-4  
 2.702000000000000E10   -5.914156790822744E-4   1.143581248470582E-4  
 2.704000000000000E10   -3.701834648381919E-4   6.439412391046062E-5  
 2.706000000000000E10    2.777066256385297E-4  -2.621546991576906E-5  
 2.708000000000000E10   -1.929403224494308E-4  -4.206603916827589E-4  
 2.710000000000000E10   -6.096183205954731E-4   3.127700983895920E-5  
 2.712000000000000E10   -2.601818123366684E-4   3.304930869489908E-4  
 2.714000000000000E10    1.660197740420699E-4   1.549461194372270E-5  
 2.716000000000000E10   -2.231028192909434E-4  -5.643477779813111E-4  
 2.718000000000000E10   -1.820798206608743E-4  -4.210765382595127E-6  
 2.720000000000000E10   -1.166060610557906E-4   4.713224479928613E-4  
 2.722000000000000E10    7.936250040074810E-5  -1.786393404472619E-4  
 2.724000000000000E10    1.564616250107065E-4  -3.673040482681245E-4  
 2.726000000000000E10   -4.104869731236249E-4   2.592246455606073E-4  
 2.728000000000000E10   -1.713774545351043E-4   3.722316250787117E-5  
 2.730000000000000E10    3.295087662991136E-4  -5.854421760886908E-4  
 2.732000000000000E10   -2.454490750096738E-4  -3.480582017800771E-5  
 2.734000000000000E10   -2.664387284312397E-4   1.703951857052743E-4  
 2.736000000000000E10    6.872969679534435E-4  -3.456171543803066E-4  
 2.738000000000000E10   -3.387438482604921E-5  -5.071357009001076E-4  
 2.740000000000000E10   -4.025501257274300E-4  -5.462224726215936E-5  
 2.742000000000000E10    5.449636373668909E-4  -1.049922066158615E-4  
 2.744000000000000E10    3.898644645232707E-4  -2.918289974331856E-4  
 2.746000000000000E10   -2.268601965624839E-4  -4.384167550597340E-4  
 2.748000000000000E10    2.474126522429287E-4   2.540397399570793E-4  
 2.750000000000000E10    2.486041048541665E-4   1.067079501808621E-4  
 2.752000000000000E10    4.081712686456740E-4  -3.040788578800857E-4  
 2.754000000000000E10   -2.117471740348265E-4  -2.322829095646739E-5  
 2.756000000000000E10   -2.736839269346092E-5   3.645037359092385E-4  
