#  HZ   S   RI   R     50.00 
! Rohde & Schwarz ZVA40 4Ports - Version 3.90 - 1145.1110k42 SN: 100403
! Date: 2023-10-04 09:27:47
! Measurement: S12 
! 
 2.200000000000000E10    7.191768963821232E-4   3.241237936890684E-5  
 2.202000000000000E10    1.952018064912409E-4  -4.014575970359147E-4  
 2.204000000000000E10   -3.640470677055419E-4   1.818240998545662E-4  
 2.206000000000000E10    2.155240217689425E-4   5.917534581385553E-4  
 2.208000000000000E10    1.803842314984649E-4  -1.543277467135340E-4  
 2.210000000000000E10    1.694546517683193E-5  -1.800171157810837E-4  
 2.212000000000000E10    1.261518773389980E-4  -1.011236745398492E-4  
 2.214000000000000E10    7.060523494146764E-4   5.824994877912104E-4  
 2.216000000000000E10    1.414895814377815E-4  -1.141170287155546E-4  
 2.218000000000000E10   -3.341520205140114E-4   1.065704782376997E-5  
 2.220000000000000E10   -5.246584769338369E-4   2.443625999148935E-4  
 2.222000000000000E10    4.187408194411546E-4  -1.593748456798494E-4  
 2.224000000000000E10    2.015242935158312E-4  -5.697067244909704E-4  
 2.226000000000000E10    2.069391339318827E-4  -4.484459932427853E-4  
 2.228000000000000E10    2.884306559280958E-5   2.354060416109860E-4  
 2.230000000000000E10    6.173021392896771E-4  -2.474180946592242E-4  
 2.232000000000000E10    3.951670078095049E-4  -1.517157652415335E-4  
 2.234000000000000E10    1.804398634703830E-4   5.225014756433666E-4  
 2.236000000000000E10    2.269642427563667E-4   9.336813673144206E-5  
 2.238000000000000E10   -1.558846270199865E-5  -1.985966373467818E-4  
 2.240000000000000E10   -6.934105767868459E-4   1.894569722935557E-4  
 2.242000000000000E10    2.015450882026926E-4   5.927388556301594E-4  
 2.244000000000000E10   -8.626926864963025E-5  -1.115717604989186E-4  
 2.246000000000000E10   -3.936928987968713E-4  -4.328281211201102E-4  
 2.248000000000000E10   -6.552273989655078E-4   4.507855046540499E-4  
 2.250000000000000E10    6.525902426801622E-5   3.549200191628188E-4  
 2.252000000000000E10   -6.554702122230083E-5   2.897024096455425E-4  
 2.254000000000000E10   -5.434441263787448E-4  -1.211267590406351E-4  
 2.256000000000000E10   -1.570969179738313E-4   6.633727462030947E-4  
 2.258000000000000E10    1.179207465611398E-4   1.765097549650818E-4  
 2.260000000000000E10    2.317317557753995E-4  -2.610478841233999E-4  
 2.262000000000000E10   -3.665347758214921E-4   3.857516858261079E-4  
 2.264000000000000E10    2.283242938574404E-4   5.320030613802373E-4  
 2.266000000000000E10    1.510488073108718E-4   3.084785421378911E-4  
 2.268000000000000E10   -2.011065225815401E-4  -6.513150292448700E-4  
 2.270000000000000E10   -7.477920007659122E-5   2.973987138830125E-4  
 2.272000000000000E10    5.745317903347313E-4  -2.329258422832936E-4  
 2.274000000000000E10    4.888952244073153E-4  -5.770532879978418E-4  
 2.276000000000000E10   -6.361637497320771E-4  -5.147433257661760E-4  
 2.278000000000000E10    4.839454195462167E-4   1.287901104660705E-4  
 2.280000000000000E10   -9.170753037324175E-5   4.129172521061264E-5  
 2.282000000000000E10    9.802239219425246E-5  -2.119499404216185E-4  
 2.284000000000000E10   -5.763436784036458E-4   8.284195791929960E-4  
 2.286000000000000E10    2.416280476609245E-4   2.072566130664200E-4  
 2.288000000000000E10   -3.463585453573614E-4  -1.058311536326073E-4  
 2.290000000000000E10   -7.003308855928481E-4  -4.378606972750276E-4  
 2.292000000000000E10   -3.984860377386212E-4   4.326162743382156E-4  
 2.294000000000000E10    1.270816719625145E-4  -2.866164140868932E-4  
 2.296000000000000E10    2.452675544191152E-4  -4.900517524220049E-4  
 2.298000000000000E10   -4.011300916317850E-4  -2.528559707570821E-4  
 2.300000000000000E10    2.008245501201600E-4  -8.323192446368921E-7  
 2.302000000000000E10    1.090443620341830E-4   8.922213601181284E-5  
 2.304000000000000E10   -1.000907650450245E-4  -8.207021892303601E-5  
 2.306000000000000E10   -3.092690894845873E-4   5.105729796923697E-4  
 2.308000000000000E10    1.102018504752778E-4   1.307167985942215E-5  
 2.310000000000000E10   -1.264543971046805E-4  -3.200162900611758E-4  
 2.312000000000000E10   -8.466097060590982E-4   4.222273855702952E-5  
 2.314000000000000E10   -3.522406332194805E-4   6.231309962458909E-4  
 2.316000000000000E10    3.065602213609964E-4  -2.550975477788597E-4  
 2.318000000000000E10   -2.339789789402857E-4  -5.357767222449184E-4  
 2.320000000000000E10   -1.724054163787514E-4  -7.790243398630992E-5  
 2.322000000000000E10    3.530050744302571E-4   8.193551184376702E-5  
 2.324000000000000E10    7.280459976755083E-4  -2.954830415546894E-4  
 2.326000000000000E10   -4.541247908491641E-4  -5.588728236034513E-4  
 2.328000000000000E10   -1.258587435586378E-4   1.728751667542383E-4  
 2.330000000000000E10    4.613356722984463E-4   2.963629958685488E-4  
 2.332000000000000E10    2.570711658336222E-4  -5.539189442060888E-4  
 2.334000000000000E10   -4.623226996045560E-4  -4.182637712801807E-5  
 2.336000000000000E10   -4.457128816284239E-4   1.041478390106931E-4  
 2.338000000000000E10    3.393800288904458E-4  -2.151319349650294E-4  
 2.340000000000000E10   -2.385602711001411E-4  -4.507346311584115E-4  
 2.342000000000000E10   -7.532778545282781E-5   1.470987481297925E-4  
 2.344000000000000E10    3.014753456227481E-4   3.159084008075297E-4  
 2.346000000000000E10    1.024520679493435E-4  -5.727047100663185E-4  
 2.348000000000000E10   -7.990780286490917E-4  -3.126286901533604E-4  
 2.350000000000000E10   -1.189882168546319E-4   4.556587082333863E-4  
 2.352000000000000E10    8.464215206913650E-4   2.179630246246234E-4  
 2.354000000000000E10    5.354682070901617E-5  -1.116008963435888E-3  
 2.356000000000000E10   -9.161147754639387E-4  -2.112689835485071E-4  
 2.358000000000000E10   -8.929758041631430E-5   5.809043650515378E-4  
 2.360000000000000E10    1.042023533955216E-3   1.390678517054766E-4  
 2.362000000000000E10    2.426725259283558E-4  -9.962827898561955E-4  
 2.364000000000000E10   -3.176561731379479E-4  -3.600007039494813E-4  
 2.366000000000000E10   -3.978592867497355E-4   5.795602919533849E-5  
 2.368000000000000E10    4.261384601704776E-4  -9.738360677147284E-5  
 2.370000000000000E10   -1.962287933565676E-4  -9.278594370698556E-5  
 2.372000000000000E10    3.142234927508980E-4  -3.060140443267301E-5  
 2.374000000000000E10    2.128563501173630E-4  -1.691555517027155E-4  
 2.376000000000000E10   -5.670253885909915E-4  -5.401669768616557E-4  
 2.378000000000000E10   -9.139078320004046E-4   5.984767340123653E-4  
 2.380000000000000E10    3.962794435210526E-4   6.001906585879624E-4  
 2.382000000000000E10    9.613728034310043E-4  -4.101678787264973E-4  
 2.384000000000000E10   -4.654337535612285E-4  -1.062816125340760E-3  
 2.386000000000000E10   -8.795799221843481E-4   8.052163175307214E-4  
 2.388000000000000E10    2.335161407245323E-4   1.031925319693983E-3  
 2.390000000000000E10    1.067051780410111E-3  -2.014056080952287E-4  
 2.392000000000000E10   -4.466880636755377E-4  -7.441336056217551E-4  
 2.394000000000000E10   -6.883580936118960E-4   5.434650302049704E-5  
 2.396000000000000E10    1.428193063475192E-4   6.733119953423739E-4  
 2.398000000000000E10    1.952283055288717E-4   1.051967046805657E-4  
 2.400000000000000E10    1.406006776960567E-4  -2.214159903815016E-4  
 2.402000000000000E10    1.582146069267765E-4  -8.646663627587259E-5  
 2.404000000000000E10   -1.750047813402489E-4  -1.100841909646988E-4  
 2.406000000000000E10   -5.667643854394555E-4   7.927517435746267E-5  
 2.408000000000000E10    2.617787686176598E-4   7.981430971994996E-4  
 2.410000000000000E10    4.649098555091769E-4   3.600488707888871E-4  
 2.412000000000000E10   -3.184953820891678E-4  -5.507173482328653E-4  
 2.414000000000000E10   -5.913993227295578E-4   6.974954885663465E-5  
 2.416000000000000E10   -2.817267959471792E-4   6.488864892162383E-4  
 2.418000000000000E10    5.028111045248807E-4   1.369763776892796E-5  
 2.420000000000000E10    8.778596384217963E-5  -5.608907085843384E-4  
 2.422000000000000E10   -6.499203736893833E-4  -3.582563076633960E-4  
 2.424000000000000E10   -1.108936194214039E-4   6.367557216435671E-4  
 2.426000000000000E10    6.747092120349407E-4   3.556704905349761E-4  
 2.428000000000000E10    2.984576276503503E-4  -2.864885318558663E-4  
 2.430000000000000E10   -6.110779941082001E-4  -4.001295601483434E-4  
 2.432000000000000E10    1.357009750790894E-4   4.320785228628665E-4  
 2.434000000000000E10   -1.640293776290491E-4   3.971396072302014E-4  
 2.436000000000000E10    7.336949056480080E-5  -2.658771409187466E-4  
 2.438000000000000E10    2.774328168015927E-4   9.072205284610391E-5  
 2.440000000000000E10   -2.414004120510072E-4  -4.365048953332007E-4  
 2.442000000000000E10   -6.428877240978181E-4  -3.707043651957065E-4  
 2.444000000000000E10    1.322002062806860E-4   4.732444940600544E-4  
 2.446000000000000E10    6.806005258113146E-4   2.409726148471236E-4  
 2.448000000000000E10    6.967401131987572E-4  -5.956492968834937E-4  
 2.450000000000000E10    2.286584640387446E-4  -1.443242945242673E-4  
 2.452000000000000E10   -5.144484457559884E-4   4.869505937676877E-4  
 2.454000000000000E10    6.934861885383725E-4   7.903188234195113E-4  
 2.456000000000000E10    8.490083273500204E-4   1.568851876072586E-4  
 2.458000000000000E10   -3.761152329389006E-4  -7.615473587065935E-4  
 2.460000000000000E10   -4.853267746511847E-4   1.046374891302548E-4  
 2.462000000000000E10   -2.579986721684691E-5   3.692899481393397E-4  
 2.464000000000000E10    3.868369094561786E-4  -2.972196089103818E-4  
 2.466000000000000E10    1.882251672213897E-4  -3.181044303346425E-4  
 2.468000000000000E10    2.422834950266406E-4  -1.385714713251218E-4  
 2.470000000000000E10    6.666851732006762E-6  -3.682039387058467E-4  
 2.472000000000000E10   -1.434682926628739E-4   2.990373759530485E-4  
 2.474000000000000E10    7.972383900778368E-5   7.743939058855176E-4  
 2.476000000000000E10    2.679705794434995E-4  -4.706179606728256E-5  
 2.478000000000000E10   -2.536917745601386E-4  -2.446113794576377E-4  
 2.480000000000000E10   -8.050277247093618E-4   1.538801298011094E-4  
 2.482000000000000E10   -3.434032551012933E-4   3.820350684691221E-4  
 2.484000000000000E10    3.409667115192860E-4   1.028436308843084E-4  
 2.486000000000000E10    3.955317370127887E-4  -2.885966387111694E-4  
 2.488000000000000E10   -3.920413655578159E-5  -2.596344857010990E-4  
 2.490000000000000E10   -1.683084410615265E-4   1.990593736991286E-4  
 2.492000000000000E10    4.366570792626590E-4   7.167790317907929E-5  
 2.494000000000000E10    3.390197816770524E-4   2.085837186314166E-4  
 2.496000000000000E10   -2.263771602883935E-4   3.819406629190780E-5  
 2.498000000000000E10   -2.318480255780742E-5   2.160745789296925E-4  
 2.500000000000000E10   -4.048409464303404E-4   3.334630164317787E-4  
 2.502000000000000E10   -3.158237668685615E-4   3.273940819781274E-4  
 2.504000000000000E10    1.116157654905692E-4   2.014663768932223E-4  
 2.506000000000000E10   -1.994382764678448E-4  -4.068868875037879E-4  
 2.508000000000000E10   -4.519485228229314E-4  -2.056317025562748E-4  
 2.510000000000000E10    1.781768369255588E-4   5.775848985649645E-4  
 2.512000000000000E10    6.030753720551729E-4   7.072945008985698E-4  
 2.514000000000000E10    8.809129212750122E-5   1.614239408809226E-5  
 2.516000000000000E10    3.276821007602848E-5   4.920018254779279E-4  
 2.518000000000000E10   -2.581494045443833E-4   6.556981825269759E-4  
 2.520000000000000E10   -4.450944834388793E-5   2.843964321073145E-4  
 2.522000000000000E10    1.201066625071690E-4   7.082428055582568E-5  
 2.524000000000000E10    2.669222703843843E-5  -5.238487501628697E-4  
 2.526000000000000E10   -1.565712882438675E-4  -2.217551373178139E-4  
 2.528000000000000E10    2.365722903050482E-4  -9.093346307054162E-5  
 2.530000000000000E10    1.762015599524602E-4   3.890037769451737E-4  
 2.532000000000000E10    3.589698462747037E-4   3.574190486688167E-5  
 2.534000000000000E10    4.942249506711960E-4  -4.466143145691603E-4  
 2.536000000000000E10   -4.361773899290711E-4  -1.692920632194728E-4  
 2.538000000000000E10   -4.948675996274687E-5   3.629555285442621E-4  
 2.540000000000000E10    7.651067571714521E-4   1.697106199571863E-4  
 2.542000000000000E10    4.005843366030604E-4  -6.407760665751994E-4  
 2.544000000000000E10    7.536309567512944E-5  -2.146528859157115E-4  
 2.546000000000000E10    2.572348457761109E-4   3.995656443294138E-4  
 2.548000000000000E10    6.548516685143113E-4   1.729437208268791E-4  
 2.550000000000000E10    5.383119569160044E-4  -1.857423048932105E-4  
 2.552000000000000E10    1.642321440158412E-4  -1.789105444913730E-4  
 2.554000000000000E10    3.110517282038927E-4  -1.223811850650236E-4  
 2.556000000000000E10    3.066052158828825E-4  -5.220576422289014E-4  
 2.558000000000000E10    2.666180662345141E-4  -4.418720491230488E-4  
 2.560000000000000E10    4.488400300033391E-4  -9.185059752780944E-5  
 2.562000000000000E10    6.004336173646152E-4  -5.680746835423634E-5  
 2.564000000000000E10    4.175785579718649E-4  -7.139240187825635E-5  
 2.566000000000000E10   -2.808411409205291E-6  -6.036354534444399E-5  
 2.568000000000000E10    1.927024859469384E-4   6.377767422236502E-4  
 2.570000000000000E10    9.854768723016605E-5  -6.244170799618587E-5  
 2.572000000000000E10   -3.277077339589596E-4  -6.577254389412701E-4  
 2.574000000000000E10   -5.657350993715227E-4  -2.440067910356447E-4  
 2.576000000000000E10    3.839049313683063E-4  -1.629064936423674E-4  
 2.578000000000000E10    4.577263025566936E-4  -4.499682981986553E-4  
 2.580000000000000E10   -1.551684836158529E-4  -6.307790172286332E-4  
 2.582000000000000E10    1.457352191209793E-4   5.636169807985425E-4  
 2.584000000000000E10    3.757571394089609E-4   3.508721711114049E-4  
 2.586000000000000E10   -6.283342372626066E-5  -9.489100921200588E-5  
 2.588000000000000E10   -9.912521345540881E-4   2.281024062540382E-4  
 2.590000000000000E10   -5.661203176714480E-4   2.703182981349528E-4  
 2.592000000000000E10   -5.046428414061666E-4  -3.786344677791931E-6  
 2.594000000000000E10   -2.714381262194365E-4  -3.997710300609469E-4  
 2.596000000000000E10   -5.468371673487127E-4  -3.113272541668266E-4  
 2.598000000000000E10   -2.491986379027367E-4   8.933726348914206E-5  
 2.600000000000000E10   -1.078385030268692E-4   4.825145879294723E-4  
 2.602000000000000E10   -1.762919418979436E-4  -5.029023668612354E-5  
 2.604000000000000E10   -3.441224107518792E-4   6.099044694565237E-4  
 2.606000000000000E10   -2.848143631126732E-4   6.604505470022559E-4  
 2.608000000000000E10   -5.007809377275407E-4  -2.487899910192937E-4  
 2.610000000000000E10   -9.307733271270990E-4   2.971833600895479E-5  
 2.612000000000000E10   -3.757787635549903E-4   4.117005737498403E-4  
 2.614000000000000E10    3.610701824072748E-4  -8.814666653051972E-4  
 2.616000000000000E10   -2.559049171395600E-4  -7.473019650205970E-4  
 2.618000000000000E10   -3.398958651814610E-4   3.671772719826549E-4  
 2.620000000000000E10    3.415727696847171E-4   5.749517004005611E-4  
 2.622000000000000E10   -1.852085551945493E-4   1.634772343095392E-4  
 2.624000000000000E10   -2.930469927377999E-4  -1.463151857024059E-4  
 2.626000000000000E10   -8.664068882353604E-4   9.149379911832511E-5  
 2.628000000000000E10   -3.188860137015581E-4   4.371638642624021E-4  
 2.630000000000000E10    3.236120683141053E-4  -3.865657490678132E-4  
 2.632000000000000E10    1.615567889530212E-4  -4.137377545703203E-4  
 2.634000000000000E10   -2.436364447930828E-4   1.482623047195375E-4  
 2.636000000000000E10    4.546721465885639E-4   1.012782813631930E-4  
 2.638000000000000E10    4.321910964790732E-4   1.598650997038931E-4  
 2.640000000000000E10   -2.360789076192305E-4   2.548503980506212E-4  
 2.642000000000000E10    3.637234040070325E-4   2.889043826144189E-4  
 2.644000000000000E10   -1.389281824231148E-4  -1.256879477296025E-4  
 2.646000000000000E10   -4.475318710319698E-4  -4.972893511876464E-4  
 2.648000000000000E10    5.585494727711193E-5   3.744591958820820E-4  
 2.650000000000000E10    5.863062688149512E-4  -4.005010414402932E-4  
 2.652000000000000E10    3.438255807850510E-4  -1.160596963018179E-3  
 2.654000000000000E10    2.008654291785206E-6  -1.160117390099913E-4  
 2.656000000000000E10   -4.693119080911856E-6   3.117444575764239E-4  
 2.658000000000000E10    6.029119249433279E-4  -4.291248114896007E-5  
 2.660000000000000E10    2.992802183143795E-4  -2.338477497687563E-4  
 2.662000000000000E10   -5.499868420884013E-4   3.273338370490819E-5  
 2.664000000000000E10   -1.147778239101172E-4   9.386855526827276E-5  
 2.666000000000000E10    1.742892927723005E-4   3.225334221497178E-4  
 2.668000000000000E10   -1.378510496579111E-4  -5.927452002651990E-4  
 2.670000000000000E10   -9.076956484932452E-5  -4.982852260582149E-4  
 2.672000000000000E10   -4.471759602893144E-4  -3.638920316006988E-4  
 2.674000000000000E10   -3.107003794866614E-5  -3.476518322713673E-4  
 2.676000000000000E10    6.626210961258039E-5  -7.836310396669433E-5  
 2.678000000000000E10    1.169140814454295E-4   3.946242213714868E-4  
 2.680000000000000E10    7.134085990401218E-6  -1.313152170041576E-4  
 2.682000000000000E10    1.086643123926478E-6  -1.905008393805474E-4  
 2.684000000000000E10   -7.066630641929805E-4   2.474393404554576E-4  
 2.686000000000000E10   -3.284611739218235E-4   2.343858504900709E-4  
 2.688000000000000E10   -1.384650968248025E-4  -9.703288014861755E-6  
 2.690000000000000E10   -2.671957190614194E-4  -3.408259944990277E-4  
 2.692000000000000E10   -8.013597689568996E-4   7.006156374700368E-5  
 2.694000000000000E10   -3.948959347326309E-4   3.701228124555200E-4  
 2.696000000000000E10    3.838408447336406E-4   2.069018082693219E-4  
 2.698000000000000E10    2.892709744628519E-4  -1.408837561029941E-4  
 2.700000000000000E10   -1.802712940843776E-4  -2.497216519259382E-5  
 2.702000000000000E10   -1.533558679511771E-4   6.611368153244257E-4  
 2.704000000000000E10    4.976130439899862E-4   5.948576726950705E-4  
 2.706000000000000E10   -1.528552093077451E-4   2.249252247565892E-5  
 2.708000000000000E10   -7.378265727311373E-4  -1.935870823217556E-4  
 2.710000000000000E10   -9.586965461494401E-5   4.247855686116964E-4  
 2.712000000000000E10   -1.278080162592232E-4   2.248027449240908E-4  
 2.714000000000000E10   -8.880235691322014E-5  -2.163955505238846E-4  
 2.716000000000000E10   -4.505405740928836E-5   1.392618560203118E-5  
 2.718000000000000E10    3.795212542172521E-4   1.228346809512004E-4  
 2.720000000000000E10    3.385371237527579E-4  -1.174831049866043E-5  
 2.722000000000000E10    1.938727218657732E-4   2.645583590492606E-4  
 2.724000000000000E10    2.834996557794511E-4   8.481817349093035E-5  
 2.726000000000000E10    4.113809263799340E-4   1.411970442859456E-4  
 2.728000000000000E10   -1.350486854789779E-4   2.608240538393147E-5  
 2.730000000000000E10   -1.879740884760395E-4   6.234909233171493E-5  
 2.732000000000000E10    1.655320229474455E-4   3.053120744880289E-4  
 2.734000000000000E10    4.890863783657551E-4  -2.856634091585875E-4  
 2.736000000000000E10    2.574738464318216E-4  -6.904377369210124E-4  
 2.738000000000000E10   -1.365334755973890E-4  -2.074879739666358E-4  
 2.740000000000000E10    3.608450642786920E-4   2.825493284035474E-4  
 2.742000000000000E10    5.592495435848832E-4  -3.406273026484996E-4  
 2.744000000000000E10   -4.633032585843466E-5  -3.293559420853853E-4  
 2.746000000000000E10   -4.137088544666767E-4  -1.010967025649734E-4  
 2.748000000000000E10    2.918776408478152E-5  -2.114387098117732E-5  
 2.750000000000000E10    2.531542559154332E-4   3.313563411211362E-6  
 2.752000000000000E10    6.247418059501797E-5  -5.484237772179768E-5  
 2.754000000000000E10    1.763618201948702E-4  -3.034045403182972E-5  
 2.756000000000000E10    4.677125252783299E-5  -2.748236584011465E-4  
