#  HZ   S   RI   R     50.00 
! Rohde & Schwarz ZVA40 4Ports - Version 3.90 - 1145.1110k42 SN: 100403
! Date: 2023-10-04 09:27:31
! Measurement: S12 
! 
 2.200000000000000E10    5.749316187575460E-4   3.448863863013685E-4  
 2.202000000000000E10    1.161311156465672E-4  -1.014176639728248E-3  
 2.204000000000000E10   -1.024106750264764E-3  -4.335930279921740E-4  
 2.206000000000000E10   -1.312649255851284E-4   8.591787773184478E-4  
 2.208000000000000E10    5.658351001329720E-4  -6.126915686763823E-4  
 2.210000000000000E10   -6.404270970961079E-5  -1.106286537833512E-3  
 2.212000000000000E10   -6.305770366452634E-4   1.841201301431283E-4  
 2.214000000000000E10    7.539755315519869E-4   4.230999329593033E-4  
 2.216000000000000E10    4.797086294274777E-4  -6.300456007011235E-4  
 2.218000000000000E10   -7.457550382241607E-4  -3.673298633657396E-4  
 2.220000000000000E10   -3.802606370300055E-4   5.037988303229213E-4  
 2.222000000000000E10    2.940558188129216E-4   1.765425113262609E-4  
 2.224000000000000E10   -1.722269225865603E-4  -9.413865045644343E-4  
 2.226000000000000E10   -6.418239208869636E-4  -9.650740685174242E-5  
 2.228000000000000E10    1.473268785048276E-4   6.280133384279907E-4  
 2.230000000000000E10    1.762400497682393E-4  -3.593015135265887E-4  
 2.232000000000000E10   -1.883521326817572E-4  -7.006406085565686E-4  
 2.234000000000000E10   -1.801820762921125E-4   5.346889956854284E-4  
 2.236000000000000E10    3.644407843239605E-5   2.482137351762503E-4  
 2.238000000000000E10    4.158055817242712E-4  -5.016694776713848E-4  
 2.240000000000000E10   -1.060223905369639E-3  -3.476105048321188E-4  
 2.242000000000000E10   -4.884735099039972E-4   3.236240881960839E-4  
 2.244000000000000E10    4.619570681825280E-4   1.691271318122745E-4  
 2.246000000000000E10   -1.252736838068813E-4  -1.072103274054825E-3  
 2.248000000000000E10   -7.868798566050828E-4  -5.865480125066824E-5  
 2.250000000000000E10    1.855735608842224E-4   6.005987524986267E-4  
 2.252000000000000E10    5.005679558962584E-4   3.905654884874821E-4  
 2.254000000000000E10   -2.866346621885896E-4  -4.500893410295248E-4  
 2.256000000000000E10   -3.542807826306671E-4   1.099746441468597E-3  
 2.258000000000000E10    1.780470774974674E-4   1.398168533341959E-4  
 2.260000000000000E10    3.670712176244706E-4  -2.992652589455247E-4  
 2.262000000000000E10   -8.095616940408945E-4   6.274481711443514E-5  
 2.264000000000000E10    6.187045364640653E-4   1.614476350368932E-4  
 2.266000000000000E10    9.753871709108353E-4   1.482123916503042E-4  
 2.268000000000000E10    4.389517125673592E-4  -8.405323023907840E-4  
 2.270000000000000E10    8.285378135042265E-5   6.418994162231684E-4  
 2.272000000000000E10    5.685774958692491E-4   3.074717824347317E-4  
 2.274000000000000E10    1.123120076954365E-3   3.327671729493886E-4  
 2.276000000000000E10   -2.946971508208662E-4  -4.170780885033310E-4  
 2.278000000000000E10    2.536756510380656E-4   2.677254669833928E-4  
 2.280000000000000E10    2.429991145618260E-4  -8.556830266570614E-7  
 2.282000000000000E10    1.250861329026520E-3  -3.263418620917946E-4  
 2.284000000000000E10   -4.194030188955367E-4  -2.489313192199916E-4  
 2.286000000000000E10    3.945932257920504E-4  -2.321430074516684E-4  
 2.288000000000000E10    1.158449682407081E-3  -6.469989602919668E-5  
 2.290000000000000E10    2.456988440826535E-4  -6.801097188144922E-4  
 2.292000000000000E10    1.916744367918000E-4   3.212463634554297E-4  
 2.294000000000000E10    8.055057842284441E-4   2.630715316627175E-4  
 2.296000000000000E10    5.803569802083075E-4  -2.817843342199922E-4  
 2.298000000000000E10   -7.188452291302383E-4  -2.313595032319427E-4  
 2.300000000000000E10    1.301299489568919E-4   1.731276570353657E-4  
 2.302000000000000E10    2.438416995573789E-4  -1.689046475803480E-4  
 2.304000000000000E10    1.113341422751546E-4  -1.171962241642177E-3  
 2.306000000000000E10   -8.319378684973344E-5   1.698935957392678E-4  
 2.308000000000000E10    3.906792553607374E-4  -1.194668438984081E-4  
 2.310000000000000E10    8.226485224440694E-4  -5.989417550154030E-4  
 2.312000000000000E10    3.869211286655627E-5  -6.835602689534426E-4  
 2.314000000000000E10   -1.413690624758601E-4   5.804995307698846E-4  
 2.316000000000000E10    4.452876455616206E-4   5.167962517589331E-4  
 2.318000000000000E10    6.947460933588445E-4  -3.214296302758157E-4  
 2.320000000000000E10   -5.353181040845811E-4  -3.777561360038817E-4  
 2.322000000000000E10   -5.959947593510151E-4  -6.975658834562637E-6  
 2.324000000000000E10    1.002881472231820E-4   3.375464439159259E-5  
 2.326000000000000E10   -1.309166982537136E-4  -6.115831783972681E-4  
 2.328000000000000E10    1.200316000904422E-5   1.724242174532265E-4  
 2.330000000000000E10   -6.509139348054305E-5   2.205268392572179E-4  
 2.332000000000000E10    3.316776128485799E-4  -3.995051083620638E-4  
 2.334000000000000E10   -7.560085505247116E-4   2.588182687759399E-4  
 2.336000000000000E10   -5.158873973414302E-4   8.719440666027367E-4  
 2.338000000000000E10    3.926291246898472E-4   4.409116227179766E-4  
 2.340000000000000E10   -3.742905391845852E-4  -4.737959825433791E-4  
 2.342000000000000E10   -9.986161021515727E-4   5.101948045194149E-4  
 2.344000000000000E10   -4.115938208997250E-4   8.907985175028443E-4  
 2.346000000000000E10    7.307236082851887E-4   2.803327806759626E-4  
 2.348000000000000E10   -2.696404699236155E-4  -5.687504308298230E-4  
 2.350000000000000E10   -1.482201332692057E-4   2.153525383619126E-5  
 2.352000000000000E10    4.628060196409933E-5   7.551070302724838E-4  
 2.354000000000000E10    4.658206889871508E-4   2.100571146002039E-4  
 2.356000000000000E10    2.859634332708083E-5   2.918813843280077E-4  
 2.358000000000000E10    8.788564446149394E-5   4.540701629593968E-4  
 2.360000000000000E10    2.242804912384599E-4   3.895554982591420E-4  
 2.362000000000000E10   -3.748825401999056E-4  -4.618181847035885E-4  
 2.364000000000000E10   -2.924725995399058E-4   6.668340065516532E-4  
 2.366000000000000E10    1.441970925952774E-5   7.530337315984070E-4  
 2.368000000000000E10    5.495016812346876E-4  -2.679423487279564E-4  
 2.370000000000000E10   -1.005393336527050E-3  -3.156849124934524E-4  
 2.372000000000000E10   -3.733603807631880E-4   7.961542578414083E-4  
 2.374000000000000E10    7.949768332764506E-4   8.042155532166362E-4  
 2.376000000000000E10    4.558413929771632E-4  -9.183352813124657E-4  
 2.378000000000000E10   -4.521876689977944E-4  -4.486505640670657E-4  
 2.380000000000000E10   -3.958459710702300E-4   5.112514481879771E-4  
 2.382000000000000E10    4.214861837681383E-4   6.313477642834187E-4  
 2.384000000000000E10    2.304769441252574E-4  -7.086715777404606E-4  
 2.386000000000000E10   -3.827277105301619E-4  -4.718923810287379E-5  
 2.388000000000000E10   -7.673235959373415E-4   2.720500633586198E-4  
 2.390000000000000E10    6.686319102300331E-5  -1.948503922903910E-4  
 2.392000000000000E10   -2.943059662356973E-4  -1.730080839479342E-5  
 2.394000000000000E10    8.902239642338827E-6  -4.665906308218837E-4  
 2.396000000000000E10    1.050267019309104E-4  -2.643925254233182E-4  
 2.398000000000000E10   -7.585510029457510E-4  -2.875107747968286E-4  
 2.400000000000000E10   -4.715824907179922E-4   3.093148698098958E-4  
 2.402000000000000E10    7.250658818520606E-4   8.671858813613653E-4  
 2.404000000000000E10    5.041625117883086E-4  -2.962303406093270E-4  
 2.406000000000000E10   -7.589242304675281E-4  -9.523302433080971E-4  
 2.408000000000000E10   -8.275719592347741E-4   6.322686094790697E-4  
 2.410000000000000E10    3.526896762195975E-4   1.132038189098239E-3  
 2.412000000000000E10    7.651543710380793E-4  -4.153974296059459E-4  
 2.414000000000000E10    2.897725244110916E-5  -6.741691613569856E-4  
 2.416000000000000E10   -7.729395874775946E-4   1.029589548124932E-4  
 2.418000000000000E10    5.129456258146092E-5   4.570231540128589E-4  
 2.420000000000000E10    4.838824097532779E-4   5.937105161137879E-4  
 2.422000000000000E10    2.297700411872938E-4  -3.007310442626476E-4  
 2.424000000000000E10    4.692425864050165E-5  -3.936798311769962E-4  
 2.426000000000000E10   -5.476945079863071E-4  -2.929762122221291E-4  
 2.428000000000000E10   -2.950234047602862E-4   2.562232548370957E-4  
 2.430000000000000E10    3.663128300104290E-4   2.575850812718272E-4  
 2.432000000000000E10    1.221767859533429E-3  -1.285166945308447E-4  
 2.434000000000000E10    1.922926312545314E-4  -6.321340333670378E-4  
 2.436000000000000E10   -2.289534895680845E-4  -2.419764496153221E-4  
 2.438000000000000E10   -2.385160769335926E-4   1.028416561894119E-3  
 2.440000000000000E10    6.788343307562172E-4   2.548207994550467E-4  
 2.442000000000000E10    8.571504731662571E-4  -6.497017457149923E-4  
 2.444000000000000E10   -9.551704861223698E-4  -9.169330005533993E-4  
 2.446000000000000E10   -5.097629036754370E-4   2.610486117191613E-4  
 2.448000000000000E10    6.262707756832242E-4  -9.557795419823378E-5  
 2.450000000000000E10    3.030342923011631E-4  -3.369609767105430E-4  
 2.452000000000000E10    1.293723762501031E-4  -5.959455156698823E-4  
 2.454000000000000E10    1.949830184457824E-4  -2.401553356321529E-4  
 2.456000000000000E10   -2.933567157015204E-4   9.563998901285231E-5  
 2.458000000000000E10    1.836593728512526E-4   2.235747961094603E-4  
 2.460000000000000E10    3.367420576978475E-4   5.517491372302175E-4  
 2.462000000000000E10   -2.168515202356502E-4  -2.844643313437700E-4  
 2.464000000000000E10   -4.817570443265140E-4  -1.342387113254517E-4  
 2.466000000000000E10   -5.898689851164818E-4   5.131589714437723E-4  
 2.468000000000000E10   -1.196774392155930E-4   2.113006339641288E-4  
 2.470000000000000E10    2.594538091216236E-4  -4.385526990517974E-4  
 2.472000000000000E10   -3.534055140335113E-4  -7.375850691460073E-4  
 2.474000000000000E10   -7.265371968969703E-4  -6.701439269818366E-5  
 2.476000000000000E10    1.361351496598218E-5   4.684878222178668E-4  
 2.478000000000000E10    7.070132996886969E-4  -2.357284247409552E-4  
 2.480000000000000E10   -1.262946898350492E-4  -7.051073480397463E-4  
 2.482000000000000E10   -7.007286767475307E-4   4.515284381341189E-4  
 2.484000000000000E10    5.374888496589847E-5   2.381204249104485E-4  
 2.486000000000000E10    2.026711008511484E-4   1.348641089862213E-4  
 2.488000000000000E10   -3.116056323051453E-4   2.340876526432112E-4  
 2.490000000000000E10    9.084349585464224E-5  -1.874612644314766E-4  
 2.492000000000000E10   -1.167595255537890E-4  -5.468782183015719E-5  
 2.494000000000000E10   -3.761098778340966E-4   3.924293268937618E-4  
 2.496000000000000E10    2.789545105770230E-4  -8.450782843283378E-6  
 2.498000000000000E10    7.844984065741301E-4  -2.421347453491762E-4  
 2.500000000000000E10   -2.537239051889628E-4  -1.210444388561882E-4  
 2.502000000000000E10   -1.222289720317349E-4  -5.941861672908999E-5  
 2.504000000000000E10    2.981384750455618E-4   8.055896032601595E-4  
 2.506000000000000E10    3.174055600538850E-4   2.996566472575069E-4  
 2.508000000000000E10    5.852195317856967E-4  -2.713202557060868E-4  
 2.510000000000000E10   -1.608791644684970E-4  -5.198484359425493E-5  
 2.512000000000000E10   -3.013131499756128E-4   2.246918447781354E-4  
 2.514000000000000E10    4.222613933961839E-4   4.861407796852291E-5  
 2.516000000000000E10    3.281082317698747E-4   3.630076753324829E-5  
 2.518000000000000E10    9.771384065970779E-5  -1.113530452130362E-4  
 2.520000000000000E10    7.117194472812116E-4  -2.660365717019886E-4  
 2.522000000000000E10    3.581058626878075E-5   4.568279473460279E-5  
 2.524000000000000E10    1.653913350310177E-4   1.717853883747011E-4  
 2.526000000000000E10    6.841897848062217E-4   4.846240699407645E-5  
 2.528000000000000E10    2.692604612093419E-4  -6.606789538636804E-4  
 2.530000000000000E10   -4.660983977373689E-4  -4.286544863134623E-4  
 2.532000000000000E10   -3.582763310987502E-4  -1.794877675820317E-6  
 2.534000000000000E10    3.643352247308940E-4   3.402084985282272E-5  
 2.536000000000000E10   -8.037764200707898E-5  -5.596620612777770E-4  
 2.538000000000000E10   -4.065007960889489E-4  -5.910213076276705E-5  
 2.540000000000000E10   -3.804699226748198E-4   3.548047970980406E-4  
 2.542000000000000E10    3.678478824440390E-4   7.745785114821047E-5  
 2.544000000000000E10   -2.725597878452390E-4   2.042311280092690E-5  
 2.546000000000000E10   -7.210464682430029E-4  -1.157936421805061E-4  
 2.548000000000000E10   -6.423031445592642E-4   2.048159512924030E-4  
 2.550000000000000E10   -4.623029381036758E-4   1.121130990213715E-4  
 2.552000000000000E10   -6.100740283727646E-4   3.533223934937269E-4  
 2.554000000000000E10   -2.854795311577618E-4   4.240981943439692E-4  
 2.556000000000000E10    5.544947271118872E-5   3.475957782939076E-4  
 2.558000000000000E10   -4.306393093429506E-4   2.025933790719137E-4  
 2.560000000000000E10   -5.101051065139473E-4   7.789571536704898E-4  
 2.562000000000000E10   -2.194630214944482E-4   5.403512623161078E-4  
 2.564000000000000E10   -3.584791265893728E-4  -2.064444415736944E-4  
 2.566000000000000E10   -8.805185789242387E-4   1.761665771482512E-4  
 2.568000000000000E10   -4.398964811116457E-4   7.582850521430373E-4  
 2.570000000000000E10    8.645546040497720E-5   2.576731494627893E-4  
 2.572000000000000E10    8.606244955444709E-5  -8.751744462642819E-5  
 2.574000000000000E10   -3.292402543593198E-4   1.130322780227289E-4  
 2.576000000000000E10   -2.494022483006120E-4   3.860262804664671E-4  
 2.578000000000000E10   -3.642631054390222E-5   2.410320157650858E-4  
 2.580000000000000E10    2.933180658146739E-4  -2.441354070015223E-7  
 2.582000000000000E10   -2.355582983000204E-4   1.101170564652421E-4  
 2.584000000000000E10   -1.440091000404209E-4  -1.272466470254585E-4  
 2.586000000000000E10    5.437972722575069E-4  -3.485495835775510E-5  
 2.588000000000000E10   -2.476242661941797E-5  -2.673919079825282E-4  
 2.590000000000000E10    1.590758038219065E-4  -1.756318524712697E-4  
 2.592000000000000E10    5.598998395726085E-4   1.821759215090424E-4  
 2.594000000000000E10    2.724851365201175E-4  -4.975175834260881E-4  
 2.596000000000000E10    5.533005605684593E-5  -1.467061156290583E-5  
 2.598000000000000E10    2.532287035137415E-4   2.436764625599608E-4  
 2.600000000000000E10    1.178452512249351E-4  -6.850013742223382E-4  
 2.602000000000000E10   -4.868732503382489E-5  -6.638503400608897E-4  
 2.604000000000000E10    7.876068411860615E-5   1.336366549367085E-4  
 2.606000000000000E10    3.600949421525002E-4  -3.352036874275655E-4  
 2.608000000000000E10    5.932808271609247E-4  -6.393187795765698E-4  
 2.610000000000000E10    1.962695823749527E-4  -2.477349480614066E-4  
 2.612000000000000E10   -3.812443901551887E-5   9.707039134809747E-5  
 2.614000000000000E10    6.003386806696653E-4  -1.727166236378253E-4  
 2.616000000000000E10    1.732355158310384E-4  -3.040486481040716E-4  
 2.618000000000000E10   -1.784223277354613E-4  -6.592309800907970E-4  
 2.620000000000000E10   -8.874724153429270E-5   1.515237090643495E-4  
 2.622000000000000E10   -7.061854603307438E-7  -6.035446131136268E-5  
 2.624000000000000E10    6.442973972298205E-4  -5.305404192768037E-4  
 2.626000000000000E10    2.890076139010489E-4   2.419893135083839E-4  
 2.628000000000000E10   -9.221196523867548E-5   1.720646396279335E-4  
 2.630000000000000E10    2.028688177233562E-4   2.765202370937914E-4  
 2.632000000000000E10   -9.204839443555102E-5   4.842918424401432E-4  
 2.634000000000000E10   -2.971972280647606E-4   3.905667399521917E-4  
 2.636000000000000E10   -2.274197322549298E-4  -2.467431186232716E-4  
 2.638000000000000E10   -4.023379879072309E-4   2.067477325908840E-4  
 2.640000000000000E10   -2.147861232515425E-4  -2.619158658490051E-5  
 2.642000000000000E10    5.093643558211625E-4   7.508441194659099E-5  
 2.644000000000000E10    1.127262075897306E-4   3.194134114892222E-5  
 2.646000000000000E10    2.700738259591162E-4  -3.905333287548274E-4  
 2.648000000000000E10    5.639083246933296E-5   6.410773494280875E-4  
 2.650000000000000E10   -3.691592137329280E-4   6.071193492971361E-4  
 2.652000000000000E10    2.853406767826527E-4   4.798513837158680E-4  
 2.654000000000000E10   -3.844349703285843E-4   1.919596252264455E-4  
 2.656000000000000E10   -8.401258965022862E-4  -1.426737144356594E-4  
 2.658000000000000E10   -4.167917359154671E-4   2.814762992784381E-4  
 2.660000000000000E10   -9.490833326708525E-5   2.270573459099978E-4  
 2.662000000000000E10   -8.904813148546964E-5  -2.147952764062211E-4  
 2.664000000000000E10    4.329759103711695E-4  -1.999249943764880E-4  
 2.666000000000000E10    2.105614839820191E-5   3.661646915134043E-4  
 2.668000000000000E10   -2.019578278122935E-5  -9.076059359358624E-5  
 2.670000000000000E10    3.601032367441803E-4   3.819869307335466E-4  
 2.672000000000000E10   -1.578840019647032E-4   2.284677320858464E-4  
 2.674000000000000E10    2.284782676724717E-4  -1.087357122742105E-5  
 2.676000000000000E10   -3.471417294349521E-4   2.200492308475077E-4  
 2.678000000000000E10   -3.711092576850206E-4   2.552428441049415E-6  
 2.680000000000000E10   -6.380039121722803E-5  -8.308409451274201E-5  
 2.682000000000000E10    3.906792262569070E-4  -1.066091790562496E-4  
 2.684000000000000E10   -1.492109295213595E-4  -6.576810264959931E-4  
 2.686000000000000E10    5.476983278640546E-5  -2.632447285577655E-4  
 2.688000000000000E10    2.559155400376767E-4   6.327671580947936E-4  
 2.690000000000000E10    1.932704035425559E-4  -1.267838815692812E-4  
 2.692000000000000E10    1.377679145662114E-4   2.935611519205850E-5  
 2.694000000000000E10   -5.661957547999919E-4   3.126778465230018E-4  
 2.696000000000000E10   -6.959040911169723E-5   1.786704960977659E-4  
 2.698000000000000E10    5.974618761683814E-5   1.714447716949508E-4  
 2.700000000000000E10   -1.304711040575057E-4  -3.741589025594294E-4  
 2.702000000000000E10   -4.293929669074714E-5  -2.886469592340291E-4  
 2.704000000000000E10    8.555277599953115E-5  -1.366388023598120E-4  
 2.706000000000000E10    4.555534906103276E-5  -2.208910882472992E-4  
 2.708000000000000E10    3.518904850352556E-4  -2.753279695753008E-4  
 2.710000000000000E10    2.066608722088859E-4   2.413467882433906E-4  
 2.712000000000000E10    2.837393549270928E-5  -2.216709799540695E-5  
 2.714000000000000E10   -4.454578083823435E-5   1.064638636307791E-4  
 2.716000000000000E10   -1.794088602764532E-4   3.375874657649547E-4  
 2.718000000000000E10   -1.187853558803909E-4   2.516735403332859E-4  
 2.720000000000000E10    2.656423603184521E-4  -3.308216400910169E-4  
 2.722000000000000E10   -3.171955177094787E-4  -6.080986931920052E-4  
 2.724000000000000E10   -1.722567976685241E-4  -1.235102536156774E-4  
 2.726000000000000E10    3.017032286152244E-4   2.982877776958048E-4  
 2.728000000000000E10    6.244120886549354E-4  -2.808626159094274E-4  
 2.730000000000000E10    2.013944176724181E-4  -8.472758054267615E-5  
 2.732000000000000E10   -3.002390440087766E-4   5.014061462134123E-4  
 2.734000000000000E10   -3.090775635428145E-8   4.724267346318811E-4  
 2.736000000000000E10    2.791354017972481E-5  -1.032546351780184E-4  
 2.738000000000000E10   -6.795811932533979E-4  -1.693666272331029E-4  
 2.740000000000000E10   -4.163500270806253E-4  -8.783411612967029E-5  
 2.742000000000000E10    2.488429017830640E-4  -3.591442655306310E-4  
 2.744000000000000E10   -2.712338755372912E-4  -4.143057449255139E-4  
 2.746000000000000E10   -5.063027856522240E-6  -2.883241395466030E-4  
 2.748000000000000E10    3.790122573263943E-4   3.492939576972276E-4  
 2.750000000000000E10    2.226939250249416E-4  -1.278629206353799E-4  
 2.752000000000000E10   -2.217058936366811E-4   7.268074114108458E-5  
 2.754000000000000E10   -5.541159189306200E-4   5.960249109193683E-4  
 2.756000000000000E10   -5.076269371784292E-5   2.266016672365367E-4  
