#  HZ   S   RI   R     50.00 
! Rohde & Schwarz ZVA40 4Ports - Version 3.90 - 1145.1110k42 SN: 100403
! Date: 2023-10-04 09:27:17
! Measurement: S12 
! 
 2.200000000000000E10    9.997739689424634E-4   5.383855896070600E-4  
 2.202000000000000E10    3.894871042575687E-4  -4.627381567843258E-4  
 2.204000000000000E10   -6.700690137222409E-4  -1.953903993126005E-4  
 2.206000000000000E10    1.926103577716276E-4   1.467643654905260E-3  
 2.208000000000000E10    9.319103555753827E-4   2.454406931065023E-4  
 2.210000000000000E10    2.958131371997297E-4  -6.750606698915362E-4  
 2.212000000000000E10   -5.067242891527712E-4   5.978315020911396E-4  
 2.214000000000000E10    3.141419147141278E-4   8.025847491808236E-4  
 2.216000000000000E10    5.404902622103691E-4  -2.971279027406126E-4  
 2.218000000000000E10    7.872007699916139E-6  -6.659945356659591E-4  
 2.220000000000000E10   -4.590302705764771E-4   5.275133298709989E-4  
 2.222000000000000E10    7.913555600680411E-4   3.776545927394182E-4  
 2.224000000000000E10    7.092188461683691E-4  -5.932083004154265E-4  
 2.226000000000000E10   -4.987464053556323E-4  -4.262950387783349E-4  
 2.228000000000000E10   -2.892643096856773E-4   8.688911329954863E-4  
 2.230000000000000E10    7.707052864134312E-4  -7.364827069977764E-6  
 2.232000000000000E10    3.634884196799249E-4  -8.653243421576917E-4  
 2.234000000000000E10   -8.314685546793044E-4   3.517661825753748E-4  
 2.236000000000000E10    3.962678601965308E-4   4.223423311486840E-4  
 2.238000000000000E10    9.062130702659488E-4  -2.670969988685101E-4  
 2.240000000000000E10   -5.720577901229262E-4  -5.392326856963337E-4  
 2.242000000000000E10   -6.895107071613893E-5   4.437911265995354E-4  
 2.244000000000000E10    3.572724235709757E-4   5.338541814126074E-4  
 2.246000000000000E10    2.105006715282798E-4  -7.382804760709405E-4  
 2.248000000000000E10   -4.961165250279009E-4   1.231847854796797E-4  
 2.250000000000000E10   -1.743719330988824E-4   4.084249667357653E-4  
 2.252000000000000E10    5.758778424933553E-4  -1.234947994817048E-4  
 2.254000000000000E10   -1.706565235508606E-4  -5.298926844261587E-4  
 2.256000000000000E10   -4.524126998148859E-4   4.194649809505791E-4  
 2.258000000000000E10    1.971008532564156E-5   4.911569994874299E-4  
 2.260000000000000E10    6.947803776711226E-4   5.222905201662798E-6  
 2.262000000000000E10   -6.503683398477733E-4  -2.472328196745366E-4  
 2.264000000000000E10   -5.950069171376526E-4   6.975728319957852E-4  
 2.266000000000000E10   -3.720710083143786E-6   8.997101685963571E-4  
 2.268000000000000E10    1.856373419286683E-4  -9.842215804383159E-4  
 2.270000000000000E10   -8.505522855557501E-4  -7.592271140310913E-5  
 2.272000000000000E10   -2.544126473367214E-4   3.983441565651447E-4  
 2.274000000000000E10    8.699906175024808E-4   4.561447349260561E-5  
 2.276000000000000E10   -2.619432925712317E-4  -4.934514872729778E-4  
 2.278000000000000E10    1.033676016959362E-4   6.275185151025653E-4  
 2.280000000000000E10    8.449317101622000E-5   4.587091098073870E-4  
 2.282000000000000E10    2.142828889191151E-4   2.199035861849552E-6  
 2.284000000000000E10   -9.602659847587347E-4   2.946927852462977E-4  
 2.286000000000000E10   -1.821314654080197E-4   2.433367335470393E-4  
 2.288000000000000E10    2.688146196305752E-4   3.608755359891802E-4  
 2.290000000000000E10   -3.120962064713240E-4  -8.511943742632866E-4  
 2.292000000000000E10   -4.182152333669365E-4   2.051446936093271E-4  
 2.294000000000000E10    9.709819278214127E-5   5.488613969646394E-4  
 2.296000000000000E10    5.456585204228759E-4  -9.932532702805474E-5  
 2.298000000000000E10   -4.067948320880532E-4  -4.759074363391846E-4  
 2.300000000000000E10   -5.058175884187222E-4   3.856598923448473E-4  
 2.302000000000000E10   -2.201850147685036E-4   9.661976364441216E-4  
 2.304000000000000E10    4.265769530320540E-5  -4.194507782813162E-4  
 2.306000000000000E10   -5.331206484697759E-4   1.299999858019874E-4  
 2.308000000000000E10   -6.286154384724796E-4   2.232618717243895E-4  
 2.310000000000000E10    4.799188172910363E-4   1.391133846482262E-4  
 2.312000000000000E10   -2.881163381971419E-4  -4.137049836572260E-4  
 2.314000000000000E10   -5.283884820528328E-4   2.358975470997393E-4  
 2.316000000000000E10    3.678597859106958E-4   6.143789505586028E-4  
 2.318000000000000E10    4.054733435623348E-4  -3.484525950625539E-4  
 2.320000000000000E10   -4.934826865792275E-4  -8.944112778408453E-6  
 2.322000000000000E10   -1.051493163686246E-4   3.432821540627629E-4  
 2.324000000000000E10    2.245421637780964E-4   3.040343290194869E-4  
 2.326000000000000E10   -8.941746636992320E-5  -4.141089157201350E-4  
 2.328000000000000E10   -4.362833569757640E-4  -5.417653937911382E-6  
 2.330000000000000E10   -3.396029060240835E-4   1.805099891498685E-4  
 2.332000000000000E10    6.810530903749168E-4  -5.605717306025326E-4  
 2.334000000000000E10    1.696449908195064E-4  -6.052419194020331E-4  
 2.336000000000000E10   -4.512278828769922E-4  -1.667921897023916E-4  
 2.338000000000000E10    1.983385882340372E-4   2.222330658696592E-4  
 2.340000000000000E10    6.026704795658588E-4  -1.409497926943004E-4  
 2.342000000000000E10   -4.036797909066081E-4  -5.135984392836690E-4  
 2.344000000000000E10   -3.708227886818349E-4  -8.273342973552644E-5  
 2.346000000000000E10    3.247405402362347E-4   2.497238456271589E-4  
 2.348000000000000E10    6.599580228794366E-5  -2.514012448955327E-4  
 2.350000000000000E10   -3.747795708477497E-4   1.445780653739348E-4  
 2.352000000000000E10    5.917330054217018E-5   5.439214874058962E-4  
 2.354000000000000E10    4.634986689779908E-4  -5.297012976370752E-4  
 2.356000000000000E10   -7.554118637926877E-4  -6.192686851136386E-4  
 2.358000000000000E10   -2.851377939805389E-4   5.088510806672275E-4  
 2.360000000000000E10    8.755488088354468E-4   2.682090271264315E-4  
 2.362000000000000E10    7.431560079567134E-4  -1.090065925382078E-3  
 2.364000000000000E10   -5.741594359278679E-4  -3.290900494903326E-4  
 2.366000000000000E10   -4.342496395111084E-4   1.219640180352144E-4  
 2.368000000000000E10    9.812681237235665E-4   2.449148450978100E-4  
 2.370000000000000E10    4.003378271590918E-4  -6.101292674429715E-4  
 2.372000000000000E10   -1.172929842141457E-4  -1.060148351825774E-3  
 2.374000000000000E10   -2.899294486269355E-4   3.385005693417043E-4  
 2.376000000000000E10    3.593596920836717E-4   9.056014823727310E-5  
 2.378000000000000E10    3.342244599480182E-4  -3.339860995765775E-4  
 2.380000000000000E10    2.459331008139998E-4  -3.739093372132629E-4  
 2.382000000000000E10    6.759865791536868E-4  -5.472131306305528E-4  
 2.384000000000000E10    4.766409983858466E-5  -8.781563956290484E-4  
 2.386000000000000E10   -5.227072688285261E-5   2.130436623701826E-4  
 2.388000000000000E10    3.724902926478535E-4   4.645213775802404E-4  
 2.390000000000000E10    1.252814778126776E-3  -7.258696132339537E-4  
 2.392000000000000E10   -3.421554283704609E-4  -6.466449121944606E-4  
 2.394000000000000E10   -6.018611602485180E-4  -2.211382816312835E-4  
 2.396000000000000E10    5.647472571581602E-4   6.879119318909943E-4  
 2.398000000000000E10    4.442806530278176E-4  -8.041164837777615E-4  
 2.400000000000000E10    2.615917765069753E-5  -1.029899576678872E-3  
 2.402000000000000E10   -9.982448536902666E-4  -2.172280437662266E-5  
 2.404000000000000E10   -3.498324949759990E-4   9.367855818709359E-5  
 2.406000000000000E10    3.194807213731110E-4   1.114161714212969E-4  
 2.408000000000000E10    8.866912685334683E-5  -2.371824812144041E-4  
 2.410000000000000E10   -6.523421034216881E-4  -3.899816365446895E-4  
 2.412000000000000E10   -2.047384186880663E-4  -4.895777237834409E-5  
 2.414000000000000E10   -4.916000762023032E-4   3.668678982648999E-4  
 2.416000000000000E10   -4.448421823326498E-4   2.331890573259443E-5  
 2.418000000000000E10    2.652445400599390E-4  -1.857825991464779E-4  
 2.420000000000000E10   -5.170822842046619E-4  -2.022328844759613E-4  
 2.422000000000000E10   -8.209419902414084E-4   1.495326432632282E-4  
 2.424000000000000E10    2.351317671127617E-4   1.408875104971230E-3  
 2.426000000000000E10    4.858858301304281E-4   5.137555417604744E-4  
 2.428000000000000E10   -1.414492144249380E-4  -3.654261236079037E-4  
 2.430000000000000E10   -9.953953558579087E-4   5.688061355613172E-4  
 2.432000000000000E10   -5.549266934394836E-4   1.320001552812755E-3  
 2.434000000000000E10    2.529227058403194E-4   3.212682786397636E-4  
 2.436000000000000E10    2.498447138350457E-4  -1.026796744554304E-4  
 2.438000000000000E10   -3.838307457044721E-4  -1.722821907605976E-4  
 2.440000000000000E10    2.057586534647271E-4   1.393136153637897E-5  
 2.442000000000000E10    2.774103777483106E-4   8.194409892894328E-4  
 2.444000000000000E10    6.632966105826199E-4   3.820862038992345E-4  
 2.446000000000000E10    7.283160230144858E-4   9.611003770260140E-5  
 2.448000000000000E10   -4.626962181646377E-4  -8.991113281808794E-5  
 2.450000000000000E10   -4.427460953593254E-4   2.475314831826836E-4  
 2.452000000000000E10   -6.752655281161424E-6   8.943551802076399E-4  
 2.454000000000000E10    5.687515949830413E-4   3.542961785569787E-4  
 2.456000000000000E10    6.619253545068204E-4  -9.051203378476203E-4  
 2.458000000000000E10   -2.105092862620950E-4  -8.071527117863298E-4  
 2.460000000000000E10   -3.038838331121951E-4   3.195989993400872E-4  
 2.462000000000000E10    1.211510738357902E-3   4.346686473581940E-4  
 2.464000000000000E10    1.253791968338192E-3   3.757392187253572E-5  
 2.466000000000000E10   -3.797232420765795E-5  -3.558520111255348E-4  
 2.468000000000000E10   -4.882039866060950E-5   2.437981020193547E-4  
 2.470000000000000E10    3.294518392067403E-4   4.582215624395758E-4  
 2.472000000000000E10    1.384980714647099E-4  -2.371557202422991E-4  
 2.474000000000000E10    1.639331458136439E-4  -4.680929705500603E-4  
 2.476000000000000E10    8.480782707920298E-5  -7.137895445339382E-4  
 2.478000000000000E10   -2.679739845916629E-4  -5.701683694496751E-4  
 2.480000000000000E10    2.038606617134064E-4   1.258454140042886E-4  
 2.482000000000000E10    4.544226976577193E-4   2.987017796840519E-5  
 2.484000000000000E10    6.813178770244122E-4  -3.191909054294229E-4  
 2.486000000000000E10   -4.077163976035081E-5   7.566266049252590E-6  
 2.488000000000000E10   -6.833733059465885E-4   1.487988993176259E-5  
 2.490000000000000E10   -5.031729961046949E-5   6.198578048497438E-4  
 2.492000000000000E10   -6.501336429209914E-6   5.659066955558956E-4  
 2.494000000000000E10   -3.452644159551710E-4  -5.038224626332521E-4  
 2.496000000000000E10   -7.035066955722868E-4  -1.085850817617029E-4  
 2.498000000000000E10   -4.403192433528602E-4   4.034145676996559E-4  
 2.500000000000000E10    1.023900476866402E-4  -5.419874287326820E-5  
 2.502000000000000E10   -1.206725482916227E-5  -4.455822636373341E-4  
 2.504000000000000E10   -3.214771641069092E-5   1.653533217904624E-5  
 2.506000000000000E10    3.273462061770260E-5  -1.304800971411169E-4  
 2.508000000000000E10   -2.708639076445252E-4   3.175294259563088E-4  
 2.510000000000000E10   -2.604838227853179E-4   6.450960063375533E-4  
 2.512000000000000E10    3.048086946364492E-4   1.642810966586694E-4  
 2.514000000000000E10   -4.541317175608128E-4  -1.440630148863420E-4  
 2.516000000000000E10   -7.207557791844010E-4   4.614652789314278E-5  
 2.518000000000000E10   -2.980819845106453E-4   4.038150946144015E-4  
 2.520000000000000E10    1.628189638722688E-4  -2.929057336586993E-5  
 2.522000000000000E10   -1.910435821628198E-4  -3.107033553533256E-4  
 2.524000000000000E10   -3.288897860329598E-4  -2.440794050926343E-4  
 2.526000000000000E10   -2.446787548251450E-4   2.698926837183535E-4  
 2.528000000000000E10    4.610903852153570E-4   1.837954187067226E-4  
 2.530000000000000E10    4.709931672550738E-4   2.224965573986992E-4  
 2.532000000000000E10   -4.165293066762388E-4  -1.247830514330417E-4  
 2.534000000000000E10   -5.525251617655158E-5   3.136586747132242E-4  
 2.536000000000000E10   -1.146617869380862E-4   4.675956442952156E-4  
 2.538000000000000E10   -4.907691618427634E-4  -9.201878128806129E-5  
 2.540000000000000E10   -2.967915497720242E-4  -2.511638158466667E-4  
 2.542000000000000E10   -6.009468052070588E-5   6.266473064897582E-5  
 2.544000000000000E10   -2.055299992207438E-4  -4.966462729498744E-4  
 2.546000000000000E10    1.776010030880570E-4  -2.967327309306711E-4  
 2.548000000000000E10    5.543815786950290E-4   1.273145171580836E-4  
 2.550000000000000E10    6.529581150971353E-4  -5.658121081069112E-4  
 2.552000000000000E10    8.604911272414029E-5  -2.595448859210592E-5  
 2.554000000000000E10   -1.716652332106605E-4   5.663661868311465E-4  
 2.556000000000000E10    3.194540331605822E-4   5.891149339731783E-5  
 2.558000000000000E10    2.710167027544230E-4   2.204151678597555E-5  
 2.560000000000000E10   -4.466922255232930E-4  -4.427851818036288E-4  
 2.562000000000000E10   -1.637502427911386E-4  -4.511140577960759E-4  
 2.564000000000000E10    3.263526887167245E-4   3.175203746650368E-4  
 2.566000000000000E10    4.777470312546939E-4  -7.544624968431890E-4  
 2.568000000000000E10    3.202593070454896E-4  -3.635343455243856E-4  
 2.570000000000000E10   -2.826456147886347E-5   1.027127073029988E-4  
 2.572000000000000E10    9.054231923073530E-4   8.182519377442077E-5  
 2.574000000000000E10    5.023799603804946E-4  -2.072006172966212E-4  
 2.576000000000000E10    2.601437445264310E-4  -1.171997573692352E-4  
 2.578000000000000E10    5.313345463946462E-4   7.029160769889131E-5  
 2.580000000000000E10    2.711771230679005E-4   9.240556209988426E-6  
 2.582000000000000E10   -9.249649156117812E-5   1.114727638196200E-4  
 2.584000000000000E10    5.059528048150241E-4  -3.798223042394966E-4  
 2.586000000000000E10    5.563757149502635E-4   4.286170951672830E-5  
 2.588000000000000E10   -2.876066428143531E-4  -2.465633442625403E-4  
 2.590000000000000E10    5.630903760902584E-4  -1.427198876626790E-4  
 2.592000000000000E10    4.470112617127597E-4  -4.421299672685564E-5  
 2.594000000000000E10    2.344713866477832E-4  -1.108471624320373E-4  
 2.596000000000000E10    7.210556941572577E-5   1.204971194965765E-4  
 2.598000000000000E10   -9.985212091123685E-5   1.704647584119812E-4  
 2.600000000000000E10    8.594765677116811E-5   2.075748489005491E-4  
 2.602000000000000E10    3.175913880113512E-4   9.446104741073214E-6  
 2.604000000000000E10   -6.555737345479429E-4   1.790561218513176E-4  
 2.606000000000000E10   -3.547906817402691E-4   3.994624057668261E-5  
 2.608000000000000E10    1.408721873303875E-4   2.550131175667048E-4  
 2.610000000000000E10   -8.629312651464716E-5  -7.930104038678110E-5  
 2.612000000000000E10   -1.150299940491095E-4  -2.849770826287568E-4  
 2.614000000000000E10   -1.519091310910881E-4   7.310134242288768E-5  
 2.616000000000000E10   -1.321601885138080E-4  -4.712791633210145E-5  
 2.618000000000000E10    4.638995960704051E-5  -7.247862959047779E-5  
 2.620000000000000E10   -1.173208947875537E-4   2.225568168796599E-4  
 2.622000000000000E10   -4.017033206764609E-4  -2.875859790947288E-4  
 2.624000000000000E10   -1.972047321032733E-4   1.264153543161228E-4  
 2.626000000000000E10   -6.978368037380278E-4   2.538707049097866E-4  
 2.628000000000000E10    1.433449233445572E-5  -3.531481779646128E-4  
 2.630000000000000E10   -3.923733311239630E-5  -1.935204199980944E-4  
 2.632000000000000E10   -6.690017180517316E-4  -3.752121119759977E-4  
 2.634000000000000E10   -1.670953352004290E-4  -1.694281672826037E-4  
 2.636000000000000E10    7.380259194178507E-5   3.995286533609033E-4  
 2.638000000000000E10   -3.406566611374728E-5   2.200005837948993E-4  
 2.640000000000000E10   -2.053988573607057E-4  -4.601791733875871E-4  
 2.642000000000000E10   -3.523221239447594E-4   2.247231750516221E-4  
 2.644000000000000E10   -4.274659149814397E-4   6.664907414233312E-5  
 2.646000000000000E10    5.469486932270229E-4   5.529019836103544E-5  
 2.648000000000000E10    5.618841532850638E-5  -8.412045281147584E-5  
 2.650000000000000E10   -1.526965352240950E-4  -6.598050240427256E-4  
 2.652000000000000E10   -5.287008752929978E-5   3.613033622968942E-4  
 2.654000000000000E10   -3.532597111188807E-5   2.517754619475454E-4  
 2.656000000000000E10    5.943843862041831E-4  -5.268762470223010E-4  
 2.658000000000000E10   -3.782409476116300E-5   1.063276286004111E-4  
 2.660000000000000E10   -3.798495745286346E-4   1.272379013244063E-4  
 2.662000000000000E10    2.007671282626689E-4  -1.314087276114151E-4  
 2.664000000000000E10    3.856802650261670E-4   2.175082336179912E-4  
 2.666000000000000E10   -1.170949544757605E-4  -2.016165490204003E-5  
 2.668000000000000E10    5.129324854351580E-4  -2.755689201876521E-4  
 2.670000000000000E10    9.804538422031328E-5   3.905544144799933E-5  
 2.672000000000000E10   -8.887448348104954E-5  -8.227361104218289E-5  
 2.674000000000000E10    5.315526505000889E-4   1.562967372592539E-4  
 2.676000000000000E10    2.443410630803555E-4   5.476427031680942E-4  
 2.678000000000000E10   -1.221555248775985E-5  -3.191374999005348E-4  
 2.680000000000000E10   -2.371317714278121E-5   2.783855779853184E-5  
 2.682000000000000E10   -2.594640536699444E-4   6.078014266677201E-4  
 2.684000000000000E10    3.393322404008359E-4  -9.368094470119104E-5  
 2.686000000000000E10    5.279128672555089E-4  -1.768126967363060E-4  
 2.688000000000000E10   -5.886478465981782E-4  -1.201194245368242E-4  
 2.690000000000000E10   -1.966625713976100E-4   1.344327320111916E-4  
 2.692000000000000E10    3.133199643343687E-4   4.469662089832127E-4  
 2.694000000000000E10   -7.470676064258441E-5  -1.706737675704062E-4  
 2.696000000000000E10   -1.810016547096893E-4   5.122339280205779E-5  
 2.698000000000000E10    1.447491085855290E-4   4.156163195148110E-4  
 2.700000000000000E10    1.437515602447093E-4  -7.803567132214084E-5  
 2.702000000000000E10    8.920735126594082E-5  -2.635012788232416E-5  
 2.704000000000000E10    2.391291491221637E-4   4.516253247857094E-4  
 2.706000000000000E10    4.304707690607756E-4  -1.910509017761797E-4  
 2.708000000000000E10    5.876197246834636E-5  -7.966822522575967E-6  
 2.710000000000000E10   -6.265068077482283E-4   3.741769469343126E-4  
 2.712000000000000E10    1.065512478817254E-4   3.913300752174109E-4  
 2.714000000000000E10    2.716018352657557E-4   1.223857689183205E-4  
 2.716000000000000E10   -4.977301578037441E-4  -4.654268268495798E-4  
 2.718000000000000E10   -1.192907875520177E-4   1.553658512420952E-4  
 2.720000000000000E10    3.887472848873586E-4   2.564896421972662E-4  
 2.722000000000000E10    3.675596090033650E-4  -1.946906850207597E-4  
 2.724000000000000E10   -4.062596126459539E-4  -1.627925084903836E-4  
 2.726000000000000E10   -2.219329180661589E-4   3.639793139882386E-4  
 2.728000000000000E10    1.980876986635849E-4   2.628558431752026E-4  
 2.730000000000000E10    2.017568112933077E-5  -1.697725092526525E-4  
 2.732000000000000E10   -3.755068173632026E-4   1.129046213463880E-4  
 2.734000000000000E10    1.153782723122276E-4   5.068825430498691E-6  
 2.736000000000000E10    3.704890259541571E-4  -1.728957722662017E-4  
 2.738000000000000E10   -9.194730955641717E-5  -2.612661919556558E-4  
 2.740000000000000E10   -7.866675150580704E-5   1.788339795893990E-5  
 2.742000000000000E10    5.698736058548093E-4   3.275291237514466E-4  
 2.744000000000000E10    4.815147622139193E-5  -3.130674012936652E-4  
 2.746000000000000E10   -3.977945016231388E-4  -3.345853765495122E-4  
 2.748000000000000E10   -1.189715840155259E-4   5.243953783065081E-4  
 2.750000000000000E10    3.266707062721252E-4  -8.677834557602182E-5  
 2.752000000000000E10    2.310258860234171E-4  -7.824572385288775E-4  
 2.754000000000000E10   -4.270160861779004E-4  -1.118851505452767E-4  
 2.756000000000000E10    2.243864582851529E-4   4.956020711688325E-5  
