#  HZ   S   RI   R     50.00 
! Rohde & Schwarz ZVA40 4Ports - Version 3.90 - 1145.1110k42 SN: 100403
! Date: 2023-10-04 09:27:00
! Measurement: S12 
! 
 2.200000000000000E10    4.795735294464976E-4   2.771290892269462E-4  
 2.202000000000000E10    5.924983997829258E-4  -4.760546435136348E-4  
 2.204000000000000E10   -6.068676011636853E-4  -8.857307257130742E-4  
 2.206000000000000E10   -1.437018654542044E-4   7.849172689020634E-4  
 2.208000000000000E10    4.898430779576302E-4   7.718835695413873E-5  
 2.210000000000000E10    3.259570512454957E-4  -9.489103686064482E-4  
 2.212000000000000E10   -5.064400611445308E-4   2.458764356561005E-4  
 2.214000000000000E10    3.446333575993776E-4   4.888583207502961E-4  
 2.216000000000000E10    7.668365142308176E-4  -7.350097876042128E-4  
 2.218000000000000E10   -1.620676193851978E-4  -9.072787943296135E-4  
 2.220000000000000E10   -6.129391840659082E-4   3.853209782391787E-4  
 2.222000000000000E10    7.378129521384835E-4  -5.560470890486613E-5  
 2.224000000000000E10    6.262367824092507E-4  -9.777200175449252E-4  
 2.226000000000000E10   -8.006924763321877E-4  -7.581038516946137E-4  
 2.228000000000000E10   -1.158999657491222E-5   5.089966580271721E-4  
 2.230000000000000E10    7.448769756592810E-4  -2.498600224498659E-4  
 2.232000000000000E10    3.075544373132289E-4  -7.871515699662268E-4  
 2.234000000000000E10   -7.445189985446632E-4   6.736348586855456E-5  
 2.236000000000000E10   -1.123239053413272E-4   3.404591407161206E-4  
 2.238000000000000E10    1.794811687432230E-4  -2.991390356328338E-4  
 2.240000000000000E10   -3.772819181904197E-4  -4.003592184744775E-4  
 2.242000000000000E10   -5.892333574593067E-4   4.852060519624502E-4  
 2.244000000000000E10    3.774393117055297E-4   2.666618092916906E-4  
 2.246000000000000E10    1.231419155374169E-4  -3.190321149304509E-4  
 2.248000000000000E10   -7.718544220551848E-4  -5.388504723669030E-5  
 2.250000000000000E10   -2.320704079465941E-4   8.051770273596048E-4  
 2.252000000000000E10    6.551552796736360E-4   3.795964003074914E-4  
 2.254000000000000E10   -3.022410674020648E-4  -4.802237090189010E-4  
 2.256000000000000E10   -7.060959469527006E-4   4.119429213460535E-4  
 2.258000000000000E10   -1.433415454812348E-4   5.945039447396994E-4  
 2.260000000000000E10    3.559275355655700E-4  -1.904314558487386E-4  
 2.262000000000000E10   -4.085269756615162E-4  -2.531388308852911E-4  
 2.264000000000000E10   -3.915523120667785E-4   6.691256421618164E-4  
 2.266000000000000E10    2.784039534162730E-4   5.085655720904470E-4  
 2.268000000000000E10    2.144390455214307E-4  -3.023324534296989E-4  
 2.270000000000000E10   -5.920540934312157E-5   2.618069120217115E-4  
 2.272000000000000E10    1.101427187677473E-4  -4.913323573418893E-5  
 2.274000000000000E10    5.474760546348989E-4   2.921916602645069E-4  
 2.276000000000000E10   -3.459938452579081E-4  -1.973154430743307E-4  
 2.278000000000000E10   -3.474268669378944E-5  -1.284987956751138E-4  
 2.280000000000000E10    1.731149823172018E-4   5.301010096445680E-4  
 2.282000000000000E10    7.044923841021955E-4   7.372712570941076E-5  
 2.284000000000000E10   -2.440454263705760E-4   7.306151383090764E-5  
 2.286000000000000E10    1.224059815285727E-4   5.681535694748163E-4  
 2.288000000000000E10    7.032889407128096E-4   8.139590499922633E-4  
 2.290000000000000E10    2.154731191694737E-4  -4.938112106174231E-4  
 2.292000000000000E10   -3.218366182409227E-4   1.122985850088298E-4  
 2.294000000000000E10   -1.002805001917295E-4   7.394695421680808E-4  
 2.296000000000000E10    6.359494291245937E-4   8.811832231003791E-5  
 2.298000000000000E10    6.360472616506741E-5  -7.980814552865923E-4  
 2.300000000000000E10    2.168647624785081E-4  -1.940081128850579E-4  
 2.302000000000000E10    2.634028496686369E-4  -9.781228982319590E-6  
 2.304000000000000E10    5.640349118039012E-4  -7.167987059801817E-4  
 2.306000000000000E10    5.039239767938852E-4   4.561793175525963E-4  
 2.308000000000000E10    5.421036985353567E-5  -3.045996709261090E-4  
 2.310000000000000E10    3.565890365280211E-4   1.027786202030256E-4  
 2.312000000000000E10   -4.832904669456184E-4  -5.958818292128854E-5  
 2.314000000000000E10   -1.592712505953386E-4  -2.022709086304531E-4  
 2.316000000000000E10   -1.348752120975405E-4   3.786606830544770E-4  
 2.318000000000000E10    3.300179087091237E-4  -6.684756372123957E-4  
 2.320000000000000E10   -2.795555337797850E-4  -8.239091839641333E-4  
 2.322000000000000E10   -3.089642559643835E-4  -1.976368366740644E-4  
 2.324000000000000E10    6.839882698841393E-4   3.719249507412314E-4  
 2.326000000000000E10    6.236449698917568E-4  -6.784527213312686E-4  
 2.328000000000000E10    3.291295433882624E-4  -2.937967947218567E-4  
 2.330000000000000E10   -4.372705589048564E-4   5.571428919211030E-4  
 2.332000000000000E10    4.393829149194062E-4   3.072124673053622E-4  
 2.334000000000000E10   -1.566632126923651E-4   3.419009444769472E-4  
 2.336000000000000E10   -3.964556381106377E-4   1.235481904586777E-4  
 2.338000000000000E10    7.325164915528148E-5  -2.112485235556960E-4  
 2.340000000000000E10   -4.701654252130538E-4  -5.302802892401815E-4  
 2.342000000000000E10   -9.280616650357842E-4   3.721507164300419E-5  
 2.344000000000000E10    2.985266619361937E-4   1.774060365278274E-4  
 2.346000000000000E10    3.661167575046420E-4  -1.936166663654149E-4  
 2.348000000000000E10   -6.960147293284535E-4  -6.921793101355434E-4  
 2.350000000000000E10   -5.295979208312929E-4   1.228497130796313E-4  
 2.352000000000000E10   -1.772493124008179E-4   6.608098628930748E-4  
 2.354000000000000E10    2.153875539079309E-4  -9.583729115547612E-5  
 2.356000000000000E10   -3.674200270324945E-4  -2.241780457552522E-4  
 2.358000000000000E10   -6.758645758964121E-4  -7.429625838994980E-5  
 2.360000000000000E10   -7.206264126580209E-5   4.335722478572279E-4  
 2.362000000000000E10    1.515191106591374E-4   2.023593551712111E-4  
 2.364000000000000E10   -2.794039028231055E-4   1.583998528076336E-4  
 2.366000000000000E10   -2.620383747853339E-4   2.095061354339123E-4  
 2.368000000000000E10   -7.771691161906347E-5   6.332952762022615E-4  
 2.370000000000000E10   -5.040405667386949E-4   4.688195476774126E-4  
 2.372000000000000E10   -1.610832259757444E-5   5.219618324190378E-4  
 2.374000000000000E10   -2.066167071461678E-4   4.797690489795059E-4  
 2.376000000000000E10   -3.403405717108399E-4  -5.655600689351559E-4  
 2.378000000000000E10   -4.791819083038718E-4   4.802904441021383E-4  
 2.380000000000000E10   -2.611466334201396E-4   6.103005143813789E-4  
 2.382000000000000E10    8.985269814729691E-4   2.208756486652419E-4  
 2.384000000000000E10   -1.373618288198486E-4   1.649897749302909E-4  
 2.386000000000000E10   -4.859720938839018E-4   6.760368123650551E-4  
 2.388000000000000E10   -2.605719200801104E-4   1.022407552227378E-3  
 2.390000000000000E10    3.811381175182760E-4   3.658681816887111E-4  
 2.392000000000000E10   -5.828516441397369E-4   3.162341090501286E-5  
 2.394000000000000E10   -7.717426051385701E-4  -2.262281777802855E-4  
 2.396000000000000E10   -5.496731610037386E-4   8.433251059614122E-4  
 2.398000000000000E10   -8.035155042307451E-5  -2.357715129619464E-5  
 2.400000000000000E10    9.899180149659514E-4  -1.602029515197501E-4  
 2.402000000000000E10   -3.274746704846621E-4  -1.419448526576161E-4  
 2.404000000000000E10    3.130263066850603E-4  -1.433059514965862E-4  
 2.406000000000000E10    4.735628608614206E-4   1.097773201763630E-3  
 2.408000000000000E10    2.378054341534153E-4   8.242486510425806E-4  
 2.410000000000000E10    8.533784421160817E-4   1.678362168604508E-4  
 2.412000000000000E10    2.074172698485199E-5  -2.644993073772639E-4  
 2.414000000000000E10   -6.628301925957203E-4   1.434853766113520E-4  
 2.416000000000000E10    4.169531530351378E-5   4.181725089438260E-4  
 2.418000000000000E10    1.022475073114038E-3   1.479844213463366E-4  
 2.420000000000000E10    2.727604587562382E-4  -8.030000026337802E-4  
 2.422000000000000E10   -8.682398765813559E-5  -8.938154205679894E-4  
 2.424000000000000E10   -2.759391500148922E-4   7.897954783402383E-4  
 2.426000000000000E10    2.570360666140914E-4   3.272664616815746E-4  
 2.428000000000000E10    1.162557513453066E-3  -5.907864397158846E-5  
 2.430000000000000E10    1.620650582481176E-4  -4.073949821759015E-4  
 2.432000000000000E10   -2.870166790671647E-4  -5.835350020788610E-4  
 2.434000000000000E10   -1.441029307898134E-4   4.952182061970234E-4  
 2.436000000000000E10    1.762653555488214E-4   3.842094738502055E-4  
 2.438000000000000E10    5.417283391579986E-4  -3.488272195681930E-4  
 2.440000000000000E10    3.268637374276295E-5  -4.619657411240041E-4  
 2.442000000000000E10   -7.980285445228219E-4  -3.562428464647383E-4  
 2.444000000000000E10    5.838057404616848E-6  -2.850738819688559E-4  
 2.446000000000000E10    6.309642340056598E-4   4.201913834549487E-4  
 2.448000000000000E10    3.094900457654148E-4  -8.072775090113282E-4  
 2.450000000000000E10    3.057316644117236E-4  -1.050064805895090E-3  
 2.452000000000000E10   -6.008169730193913E-4   4.413886636029929E-4  
 2.454000000000000E10    2.354203606955707E-4   1.787773653632030E-4  
 2.456000000000000E10    6.604701629839838E-4  -1.136604405473918E-4  
 2.458000000000000E10   -3.144615620840341E-4  -2.788496785797179E-4  
 2.460000000000000E10   -8.127807523123920E-4  -5.360296563594602E-5  
 2.462000000000000E10   -1.697320258244872E-4   1.449674746254459E-4  
 2.464000000000000E10   -4.604755085892975E-4   2.843285619746894E-4  
 2.466000000000000E10   -3.073982079513371E-4  -4.719980061054230E-4  
 2.468000000000000E10   -7.259097037604079E-5  -1.192779236589558E-4  
 2.470000000000000E10   -5.216335412114859E-4  -3.298998053651303E-4  
 2.472000000000000E10    2.260517976537813E-5   8.263501513283700E-5  
 2.474000000000000E10   -9.341980330646038E-5   6.896873819641769E-4  
 2.476000000000000E10    4.647927926271223E-5  -1.526869018562138E-4  
 2.478000000000000E10   -1.705622562440112E-4  -1.921539078466594E-4  
 2.480000000000000E10   -1.203576219268143E-3   2.788412384688854E-4  
 2.482000000000000E10   -7.599093369208276E-4   5.348807317204773E-4  
 2.484000000000000E10    1.452264841645956E-4   3.574813599698246E-4  
 2.486000000000000E10   -3.055268607567996E-4  -5.051439511589706E-4  
 2.488000000000000E10   -1.017351984046400E-3  -2.899325045291334E-4  
 2.490000000000000E10   -2.513595682103187E-4   5.351132713258266E-4  
 2.492000000000000E10    4.772151078213938E-5   3.233592724427581E-4  
 2.494000000000000E10    2.230711979791522E-4  -2.481030533090234E-4  
 2.496000000000000E10   -1.655777450650930E-4   1.986430143006146E-4  
 2.498000000000000E10   -3.087588993366808E-4   2.032968477578834E-4  
 2.500000000000000E10    1.371208345517516E-4   3.218322817701846E-4  
 2.502000000000000E10    8.900586544768885E-5   5.620435695163906E-4  
 2.504000000000000E10    2.805033000186086E-4  -8.989749767351896E-5  
 2.506000000000000E10    5.316383976605721E-5  -4.230918711982667E-4  
 2.508000000000000E10   -2.271352568641305E-4  -9.089577019949502E-7  
 2.510000000000000E10    2.354378666495904E-4  -1.754505065036938E-4  
 2.512000000000000E10    7.804015767760575E-4   1.249555789399892E-4  
 2.514000000000000E10    3.616258327383548E-4  -7.271594222402200E-5  
 2.516000000000000E10    2.914615615736693E-4  -4.216294037178159E-4  
 2.518000000000000E10   -5.593458263319917E-5   2.962083090096712E-4  
 2.520000000000000E10    1.953613245859742E-4   4.855904844589531E-4  
 2.522000000000000E10    6.133620627224445E-4  -2.201053284807131E-4  
 2.524000000000000E10   -9.707262506708503E-5  -5.376373301260173E-4  
 2.526000000000000E10   -4.034249868709594E-4  -1.665854360908270E-4  
 2.528000000000000E10    3.220088838133961E-4  -2.043531712843105E-4  
 2.530000000000000E10    1.685944444034249E-4   4.674829688156024E-5  
 2.532000000000000E10    4.490293213166297E-5  -5.495881778188050E-4  
 2.534000000000000E10    6.202691001817584E-4  -2.444389101583511E-4  
 2.536000000000000E10   -2.213622647104785E-4   1.804885687306523E-4  
 2.538000000000000E10   -2.128876803908497E-5   9.782335109775886E-5  
 2.540000000000000E10    3.773636708501726E-4   4.351756942924112E-4  
 2.542000000000000E10    2.196351852035150E-5   6.138440221548080E-5  
 2.544000000000000E10   -5.180400912649930E-4  -2.001480315811932E-4  
 2.546000000000000E10   -2.344021486351267E-4   2.141330478480086E-4  
 2.548000000000000E10   -2.448259328957647E-4   4.257441614754498E-4  
 2.550000000000000E10    1.162087792181410E-4  -3.171076823491603E-4  
 2.552000000000000E10   -2.487770107109100E-4  -2.420067612547427E-4  
 2.554000000000000E10   -4.918907070532441E-4   4.988128785043955E-5  
 2.556000000000000E10    1.529251167085022E-4   4.336644196882844E-4  
 2.558000000000000E10    4.558612999971956E-4   2.905783185269684E-4  
 2.560000000000000E10   -2.193466061726213E-4  -1.844013459049165E-4  
 2.562000000000000E10   -3.403585869818926E-4   2.533645310904831E-4  
 2.564000000000000E10   -1.203935607918538E-4   4.128285509068519E-4  
 2.566000000000000E10   -1.568763400427997E-4  -2.523408329579979E-4  
 2.568000000000000E10   -6.049960575182922E-5   1.215364609379321E-4  
 2.570000000000000E10   -4.266557225491852E-4   3.210114082321525E-4  
 2.572000000000000E10    1.333429008809617E-5   4.365119821159169E-5  
 2.574000000000000E10    6.668167043244466E-5   3.062783216591924E-4  
 2.576000000000000E10    8.056031219894067E-5   5.808589776279405E-5  
 2.578000000000000E10   -1.032114960253239E-5   3.204407112207264E-4  
 2.580000000000000E10   -3.251386515330523E-4   1.301082083955407E-4  
 2.582000000000000E10   -4.291166842449457E-4  -3.989308315794915E-4  
 2.584000000000000E10   -2.087064640363678E-4   2.473132099112263E-7  
 2.586000000000000E10   -9.384952863911167E-5  -6.036510603735223E-5  
 2.588000000000000E10   -7.215367804747075E-5  -5.563661106862128E-4  
 2.590000000000000E10    1.804634375730529E-4  -1.389818062307313E-4  
 2.592000000000000E10    1.223545114044100E-4   1.587192382430658E-4  
 2.594000000000000E10    2.519152767490596E-4  -1.502048398833722E-4  
 2.596000000000000E10   -1.264161837752909E-4  -2.568285271991044E-4  
 2.598000000000000E10   -5.632453830912709E-4  -1.831854460760951E-4  
 2.600000000000000E10   -9.487204079050571E-5   1.691081706667319E-5  
 2.602000000000000E10   -6.370156188495457E-5  -1.901421055663377E-4  
 2.604000000000000E10   -4.571314202621579E-4  -4.987777792848647E-4  
 2.606000000000000E10   -2.030378091149032E-4  -3.441945009399205E-4  
 2.608000000000000E10   -2.332947478862479E-4  -1.521711692475947E-5  
 2.610000000000000E10    3.459820072748698E-5   1.501680235378444E-4  
 2.612000000000000E10    2.635844284668565E-4  -4.425799852469936E-5  
 2.614000000000000E10   -1.455992460250855E-4  -1.998752704821527E-4  
 2.616000000000000E10   -2.811633457895368E-4   2.967354666907340E-4  
 2.618000000000000E10    1.657949178479612E-4   3.421440196689218E-4  
 2.620000000000000E10    1.244213672180194E-5   6.191899592522532E-5  
 2.622000000000000E10    1.370640529785305E-4  -3.001243458129466E-4  
 2.624000000000000E10    2.515701926313341E-4   3.240892965550302E-6  
 2.626000000000000E10    1.338481961283833E-4  -3.603670484153554E-5  
 2.628000000000000E10    3.130948171019554E-4  -2.776965266093612E-5  
 2.630000000000000E10    3.366848977748305E-4   5.104651208966970E-4  
 2.632000000000000E10    4.475617606658489E-4   1.470941933803260E-4  
 2.634000000000000E10    3.088337543886155E-4   2.678798628039658E-4  
 2.636000000000000E10    9.662984666647390E-5   2.908867318183184E-4  
 2.638000000000000E10    4.905544337816536E-4   6.673772004432976E-4  
 2.640000000000000E10    4.759813600685448E-4   3.302871191408485E-4  
 2.642000000000000E10    2.411041350569576E-4  -4.495067969401134E-6  
 2.644000000000000E10   -2.715582377277315E-4   5.428555305115879E-4  
 2.646000000000000E10    5.030374741181731E-4   6.043756729923189E-4  
 2.648000000000000E10    3.553244750946760E-4   3.462580498307943E-4  
 2.650000000000000E10    8.561946742702276E-5  -3.696082567330450E-4  
 2.652000000000000E10   -1.914954627864063E-4   8.358731429325417E-5  
 2.654000000000000E10    1.695271785138175E-4  -2.855346247088164E-5  
 2.656000000000000E10    7.149318116717041E-4   1.464741071686149E-4  
 2.658000000000000E10   -9.019947901833803E-5   2.037745580310002E-4  
 2.660000000000000E10   -1.745483459671959E-4   1.465128880226985E-4  
 2.662000000000000E10    2.895199577324092E-4   3.105541691184044E-4  
 2.664000000000000E10   -3.546240332070738E-4   1.751556410454214E-4  
 2.666000000000000E10   -4.860539047513157E-4  -1.921165239764378E-4  
 2.668000000000000E10   -1.604244316695258E-4  -1.363368210149929E-4  
 2.670000000000000E10   -7.207404269138351E-5  -4.001147462986410E-4  
 2.672000000000000E10   -3.084135823883116E-4  -6.574412691406906E-4  
 2.674000000000000E10    9.369896724820137E-5  -1.126529896282591E-4  
 2.676000000000000E10    3.775422519538552E-4  -5.601330121862702E-5  
 2.678000000000000E10    4.117928328923881E-4  -3.757917438633740E-4  
 2.680000000000000E10   -3.737587539944798E-4   2.797194174490869E-4  
 2.682000000000000E10   -2.145722683053464E-4   4.886208334937692E-4  
 2.684000000000000E10    1.427237002644688E-4   1.122962421504781E-4  
 2.686000000000000E10   -3.966458898503333E-4  -1.283245801459998E-4  
 2.688000000000000E10   -7.397932931780815E-4  -5.944348522461951E-4  
 2.690000000000000E10   -2.979965356644243E-4  -4.093256720807403E-4  
 2.692000000000000E10    2.420303353574127E-4  -2.842931135091931E-4  
 2.694000000000000E10    2.021374384639785E-4  -6.821062997914851E-4  
 2.696000000000000E10    2.454378409311175E-4  -5.916806403547525E-4  
 2.698000000000000E10    2.037481463048607E-4   1.193235948449001E-4  
 2.700000000000000E10    4.559826629702002E-5  -5.443740519694984E-5  
 2.702000000000000E10   -5.576366311288439E-5   1.134299745899625E-4  
 2.704000000000000E10   -2.419316588202491E-4  -4.641319901566021E-5  
 2.706000000000000E10    8.963341315393336E-6  -1.437871105736122E-4  
 2.708000000000000E10   -5.295134033076465E-4  -7.026214152574539E-4  
 2.710000000000000E10   -6.562039488926530E-4  -4.905848763883114E-4  
 2.712000000000000E10   -1.301623851759359E-4  -9.300100646214560E-5  
 2.714000000000000E10    5.262515624053776E-4  -4.731820954475552E-4  
 2.716000000000000E10   -1.348437217529863E-4  -5.605721380561590E-4  
 2.718000000000000E10   -2.331897703697905E-4   1.545454433653504E-4  
 2.720000000000000E10    3.605738456826657E-4   5.610104417428374E-4  
 2.722000000000000E10    3.560526238288730E-4  -2.363786006753799E-5  
 2.724000000000000E10   -2.640614111442119E-4  -2.547664334997535E-4  
 2.726000000000000E10   -3.954609273932874E-4   2.183500510000158E-5  
 2.728000000000000E10   -1.196120138047263E-4   2.765650569926947E-4  
 2.730000000000000E10   -3.271759778726846E-4  -2.388459397479892E-4  
 2.732000000000000E10   -2.322393556823954E-4  -3.058382426388562E-4  
 2.734000000000000E10   -1.180035469587892E-4   4.328018985688686E-4  
 2.736000000000000E10    4.225099110044539E-4   3.840193585347151E-6  
 2.738000000000000E10   -2.307621471118182E-4  -4.920777282677591E-4  
 2.740000000000000E10   -8.073598146438599E-4   4.724688478745520E-4  
 2.742000000000000E10    2.480967486917507E-5   6.605410017073154E-4  
 2.744000000000000E10    8.988389890873805E-5  -2.338782942388207E-4  
 2.746000000000000E10   -6.535790162160993E-4  -2.103826409438625E-4  
 2.748000000000000E10   -2.740574418567121E-4   5.722903879359365E-4  
 2.750000000000000E10    1.864066871348769E-4   2.074152725981548E-4  
 2.752000000000000E10    1.714400059427135E-5  -1.070371508831158E-4  
 2.754000000000000E10   -4.356521822046489E-4   1.677874679444358E-4  
 2.756000000000000E10    1.389518438372761E-4   4.862312925979495E-4  
