#  HZ   S   RI   R     50.00 
! Rohde & Schwarz ZVA40 4Ports - Version 3.90 - 1145.1110k42 SN: 100403
! Date: 2023-10-04 09:26:43
! Measurement: S12 
! 
 2.200000000000000E10    1.865512604126707E-4   4.898378392681480E-4  
 2.202000000000000E10   -3.613981825765222E-4  -3.419003041926771E-5  
 2.204000000000000E10   -8.890783064998686E-4   7.347185601247475E-5  
 2.206000000000000E10    8.424653060501441E-5   4.069794085808098E-4  
 2.208000000000000E10    1.625053555471823E-4  -2.096272073686123E-4  
 2.210000000000000E10   -1.952527964022011E-4  -3.090202226303518E-4  
 2.212000000000000E10   -4.190703039057553E-4   9.765834547579289E-4  
 2.214000000000000E10    4.500308132264763E-4   8.257124572992325E-4  
 2.216000000000000E10    1.328930811723694E-4   1.375823485432193E-4  
 2.218000000000000E10   -2.502499555703253E-4   3.629073908086866E-4  
 2.220000000000000E10   -6.674866890534759E-4   7.654096116311848E-4  
 2.222000000000000E10    3.306101716589183E-4   8.801761578070000E-5  
 2.224000000000000E10    1.332922838628292E-4   3.188888076692820E-4  
 2.226000000000000E10   -4.919974599033594E-4  -2.847503346856684E-4  
 2.228000000000000E10   -8.145664469338954E-5   6.070358213037252E-4  
 2.230000000000000E10    3.235414333175868E-4   1.268283085664734E-4  
 2.232000000000000E10    1.532454480184242E-4  -7.320514123421162E-5  
 2.234000000000000E10    6.586337258340791E-5   2.833985781762749E-4  
 2.236000000000000E10   -1.141916582128033E-4   6.159910117276013E-4  
 2.238000000000000E10    3.615008026827127E-4  -2.189858059864491E-4  
 2.240000000000000E10   -1.077197084669024E-4   2.938059333246201E-4  
 2.242000000000000E10   -5.897223018109798E-4   4.702646692749113E-4  
 2.244000000000000E10    4.299524007365108E-4  -3.756786463782191E-4  
 2.246000000000000E10    4.992758476873860E-5  -4.977286444045603E-4  
 2.248000000000000E10   -6.148770917207003E-4  -2.639167068991810E-4  
 2.250000000000000E10    3.867437771987170E-4   1.693763915682212E-4  
 2.252000000000000E10    5.543237202800810E-4  -2.101692552969325E-5  
 2.254000000000000E10   -2.542431175243110E-4  -5.095523083582521E-4  
 2.256000000000000E10    7.608574378537014E-5   3.927038051187992E-5  
 2.258000000000000E10    6.014718383084983E-5   6.500496529042721E-4  
 2.260000000000000E10    7.213744538603351E-5  -4.334702389314771E-4  
 2.262000000000000E10    1.010194318951108E-4  -2.676816075108945E-4  
 2.264000000000000E10   -3.410298959352076E-4   1.926319600897841E-5  
 2.266000000000000E10    1.499055651947856E-4  -3.585616359487176E-4  
 2.268000000000000E10    2.534985542297363E-4  -3.599692718125880E-5  
 2.270000000000000E10    1.287382110604085E-5   2.544130547903478E-4  
 2.272000000000000E10    6.144514773041010E-4   2.137630071956664E-4  
 2.274000000000000E10    3.842437581624836E-4   2.133501984644681E-4  
 2.276000000000000E10   -2.940570120699704E-4  -1.293568175242399E-6  
 2.278000000000000E10    1.880384079413489E-4   3.560306213330478E-4  
 2.280000000000000E10    4.870228876825422E-4   4.138540534768254E-4  
 2.282000000000000E10    5.603961762972176E-4  -5.919669056311250E-4  
 2.284000000000000E10    3.884091347572394E-5  -3.588978142943233E-4  
 2.286000000000000E10   -1.982550893444568E-4   1.501113874837756E-4  
 2.288000000000000E10    5.574597744271159E-4  -1.557742943987250E-4  
 2.290000000000000E10    5.503728752955794E-4  -3.469752846285701E-4  
 2.292000000000000E10    1.980149536393583E-4  -7.286676554940641E-5  
 2.294000000000000E10    1.472027506679297E-4  -4.976757190888748E-5  
 2.296000000000000E10    1.193304196931422E-4   3.806984168477356E-4  
 2.298000000000000E10    2.177702554035932E-4   8.288402023026720E-5  
 2.300000000000000E10    5.999455242999829E-5  -6.002017471473664E-5  
 2.302000000000000E10   -5.171857192181051E-4  -1.516928023193032E-4  
 2.304000000000000E10   -3.871327789966017E-4  -1.870789856184274E-4  
 2.306000000000000E10   -3.274933260399848E-5  -1.761249150149524E-4  
 2.308000000000000E10    3.964043280575424E-4  -2.719966578297317E-4  
 2.310000000000000E10    4.122831451240927E-4  -3.092976112384349E-4  
 2.312000000000000E10    3.412440419197083E-4   1.111382061935728E-6  
 2.314000000000000E10    3.574962101993151E-5   4.136966017540544E-4  
 2.316000000000000E10    1.240961573785171E-4   5.416182102635503E-4  
 2.318000000000000E10    3.939022426493466E-4   3.631593426689506E-4  
 2.320000000000000E10   -1.450967829441652E-4   2.525812851672526E-5  
 2.322000000000000E10   -4.514776810538024E-4   1.749264629324898E-4  
 2.324000000000000E10   -3.996439627371728E-4   2.471856132615358E-4  
 2.326000000000000E10    1.098263237508945E-4   3.234639298170805E-4  
 2.328000000000000E10   -2.311392745468766E-4   1.609940409252886E-5  
 2.330000000000000E10   -1.627549645490944E-4  -8.722791244508699E-5  
 2.332000000000000E10   -4.149204178247601E-4  -2.232200495200232E-5  
 2.334000000000000E10    3.237029304727912E-4   2.596257836557925E-4  
 2.336000000000000E10    1.771429961081594E-4   3.064167685806751E-4  
 2.338000000000000E10    3.779286635108292E-5  -1.102299302147003E-5  
 2.340000000000000E10   -2.282897476106882E-4   5.148784839548171E-4  
 2.342000000000000E10   -4.614186400431208E-5   4.484509991016239E-4  
 2.344000000000000E10    2.925907028838992E-4   3.115670988336206E-4  
 2.346000000000000E10   -1.247942709596828E-4  -3.823170118266717E-5  
 2.348000000000000E10   -5.301195778883994E-5  -2.109745837515220E-4  
 2.350000000000000E10   -1.238722325069830E-4  -2.428595907986164E-4  
 2.352000000000000E10    5.725751907448284E-5   4.880111955571920E-4  
 2.354000000000000E10    3.895321860909462E-4   2.747768885456026E-4  
 2.356000000000000E10    4.078609636053443E-4  -2.256386069348082E-4  
 2.358000000000000E10   -1.508276363892946E-5  -1.405436341883615E-4  
 2.360000000000000E10    1.644891599426046E-4   1.346652861684561E-4  
 2.362000000000000E10    2.750572748482227E-4   3.486216592136771E-4  
 2.364000000000000E10    5.521235289052129E-4  -4.874171863775700E-4  
 2.366000000000000E10    1.478945778217167E-4  -4.556299245450646E-4  
 2.368000000000000E10   -2.988340565934777E-4  -2.481133560650051E-4  
 2.370000000000000E10   -1.680775749264285E-4   1.960916706593707E-4  
 2.372000000000000E10    5.691401311196387E-4   1.333473483100534E-4  
 2.374000000000000E10    3.065282362513244E-4  -6.861824076622725E-4  
 2.376000000000000E10   -2.017955412156880E-4  -7.505710236728191E-4  
 2.378000000000000E10   -3.062582691200078E-4   1.093508399208076E-4  
 2.380000000000000E10   -1.960426743607968E-4   2.874926722142845E-4  
 2.382000000000000E10    6.819710251875222E-4  -2.950800408143550E-4  
 2.384000000000000E10   -5.703053830075078E-5  -4.767112259287387E-4  
 2.386000000000000E10   -4.341415769886226E-4  -6.983147468417883E-4  
 2.388000000000000E10   -1.697235129540786E-4   2.646858920343220E-4  
 2.390000000000000E10    2.623744512675330E-5  -8.599913417128846E-5  
 2.392000000000000E10    4.461346543394029E-4  -1.019982082652859E-4  
 2.394000000000000E10   -2.831516940204892E-5  -8.889200980775058E-4  
 2.396000000000000E10   -7.811111281625927E-4  -2.758734044618905E-4  
 2.398000000000000E10   -3.381914284545928E-4   2.310270501766354E-4  
 2.400000000000000E10    2.969437337014824E-4   2.948527107946575E-4  
 2.402000000000000E10   -5.965561285847798E-5  -4.979046061635017E-4  
 2.404000000000000E10   -5.224480992183089E-4  -6.767786107957363E-4  
 2.406000000000000E10   -6.952612893655896E-4   1.363108458463103E-4  
 2.408000000000000E10   -8.968493057182059E-5   1.691657234914601E-4  
 2.410000000000000E10    6.551141268573701E-4  -3.052297397516668E-4  
 2.412000000000000E10   -4.201937408652157E-4  -5.249324021860957E-4  
 2.414000000000000E10   -6.842951406724751E-4  -8.199377589335199E-6  
 2.416000000000000E10   -3.421571454964578E-4   3.987957607023418E-4  
 2.418000000000000E10   -1.195633158204146E-4   4.570563614834100E-4  
 2.420000000000000E10   -2.244865172542632E-4  -1.677550317253918E-4  
 2.422000000000000E10   -3.623680677264929E-4  -7.990605081431568E-5  
 2.424000000000000E10   -9.919038275256753E-4  -7.044713856885210E-5  
 2.426000000000000E10   -3.908264625351876E-4   6.399672711268067E-4  
 2.428000000000000E10    5.408290962805040E-5   1.416940795024857E-4  
 2.430000000000000E10    4.764832192449831E-5  -3.795953234657645E-4  
 2.432000000000000E10   -5.435512284748256E-4  -2.988049818668515E-4  
 2.434000000000000E10   -4.068649432156235E-4   6.158814067021012E-4  
 2.436000000000000E10   -6.553378625540063E-5   3.792041679844260E-4  
 2.438000000000000E10    3.837138065136969E-4   1.208506510010921E-4  
 2.440000000000000E10   -2.382253587711602E-4  -1.584283309057355E-4  
 2.442000000000000E10   -9.360089316032827E-4  -1.382955670123920E-4  
 2.444000000000000E10   -2.418551011942327E-4   8.189122308976948E-4  
 2.446000000000000E10    1.651259517529979E-4   6.503199692815542E-4  
 2.448000000000000E10   -3.842837941192556E-6  -2.728884865064174E-4  
 2.450000000000000E10   -4.946972476318479E-4  -1.231515780091286E-4  
 2.452000000000000E10   -3.313986817374826E-4   5.450175376608968E-4  
 2.454000000000000E10   -1.201105915242806E-4   2.294093719683588E-4  
 2.456000000000000E10    4.879663465544581E-4   1.214247749885544E-4  
 2.458000000000000E10    2.284402289660648E-4  -2.176713460357860E-4  
 2.460000000000000E10   -1.287119666812941E-4  -3.334349894430488E-4  
 2.462000000000000E10   -1.816015428630635E-4   4.354471748229116E-4  
 2.464000000000000E10    4.548586002783850E-5   6.893780082464218E-4  
 2.466000000000000E10    6.248847930692136E-4  -2.902835549321026E-4  
 2.468000000000000E10    1.170603936770931E-4  -4.627024172805250E-4  
 2.470000000000000E10   -7.998109795153141E-4  -4.711803048849106E-4  
 2.472000000000000E10    1.899670605780557E-4   2.846409333869815E-4  
 2.474000000000000E10    8.446823921985924E-4   2.681836776901037E-4  
 2.476000000000000E10    9.140139445662499E-4  -4.539584042504430E-4  
 2.478000000000000E10    1.553750189486891E-4  -5.903585115447640E-4  
 2.480000000000000E10   -6.809916521888226E-5   5.150853539817035E-4  
 2.482000000000000E10    3.252798342145979E-4   3.409704950172454E-4  
 2.484000000000000E10    8.177810814231634E-4  -1.061386046785628E-5  
 2.486000000000000E10    1.335998385911807E-4  -4.026490787509829E-4  
 2.488000000000000E10    5.031124237575568E-5  -2.853801997844130E-4  
 2.490000000000000E10   -1.332101674051955E-4   1.177147933049128E-4  
 2.492000000000000E10    5.204488988965750E-4   1.934537722263485E-4  
 2.494000000000000E10    8.469427120871842E-4  -4.652825373341329E-5  
 2.496000000000000E10    6.278387154452503E-4  -2.557204570621252E-4  
 2.498000000000000E10    3.261922029196285E-5   6.014839527779259E-5  
 2.500000000000000E10    9.188149124383926E-5   3.358185640536249E-4  
 2.502000000000000E10    2.836178464349359E-4   4.201967094559223E-4  
 2.504000000000000E10    5.165190086700022E-4   2.510452468413860E-4  
 2.506000000000000E10   -3.062394171138294E-5  -1.608557649888098E-4  
 2.508000000000000E10   -1.173853088403121E-4  -2.047242742264643E-4  
 2.510000000000000E10   -2.522587019484490E-4   3.202034567948431E-4  
 2.512000000000000E10    7.850646506994963E-4   1.051270301104523E-4  
 2.514000000000000E10    2.584586327429861E-4  -3.586257516872138E-4  
 2.516000000000000E10   -1.131281169364229E-4  -2.383702812949196E-4  
 2.518000000000000E10   -2.040765393758193E-4   6.062671309337020E-4  
 2.520000000000000E10    4.061600193381310E-4   2.631067472975701E-4  
 2.522000000000000E10   -4.867842653766275E-5   5.958775000181049E-5  
 2.524000000000000E10   -3.669448487926275E-4  -4.281629226170480E-4  
 2.526000000000000E10   -4.874626174569130E-4   9.597340977052227E-5  
 2.528000000000000E10   -2.902536944020540E-4  -2.134204842150211E-4  
 2.530000000000000E10    5.904905265197158E-5   1.311275846092030E-4  
 2.532000000000000E10    8.582667214795947E-5  -1.592855987837538E-4  
 2.534000000000000E10   -2.666980726644397E-4  -1.974874176084995E-4  
 2.536000000000000E10   -3.340084513183683E-4   1.671995123615488E-4  
 2.538000000000000E10   -2.433389599900693E-4   3.429927455727011E-4  
 2.540000000000000E10    2.273071550007444E-5   1.156774815171957E-4  
 2.542000000000000E10   -2.018097147811204E-4  -3.124053182546049E-4  
 2.544000000000000E10   -1.665851305006072E-4  -2.568775962572545E-4  
 2.546000000000000E10   -2.264876238768920E-4  -1.585357094882056E-4  
 2.548000000000000E10    3.171804128214717E-4   2.255376020912081E-4  
 2.550000000000000E10    2.049184258794412E-4  -3.114927094429731E-4  
 2.552000000000000E10    2.864368143491447E-4  -1.707424817141146E-4  
 2.554000000000000E10   -5.051815533079207E-4   2.453080378472805E-5  
 2.556000000000000E10    4.793097323272377E-4   1.471138239139691E-4  
 2.558000000000000E10   -2.020303945755586E-4  -3.878188435919583E-4  
 2.560000000000000E10   -1.760828017722815E-4  -5.924761062487960E-4  
 2.562000000000000E10   -8.617569255875424E-5  -2.272187412017956E-4  
 2.564000000000000E10    1.654989500821102E-5  -9.230493742506951E-5  
 2.566000000000000E10   -6.198169285198674E-5  -2.699772303458303E-4  
 2.568000000000000E10    1.071113001671620E-4  -2.579104912001640E-4  
 2.570000000000000E10   -2.557617553975433E-4   7.234766235342249E-5  
 2.572000000000000E10   -6.812845822423697E-5  -3.311974796815775E-5  
 2.574000000000000E10    2.292657336511184E-5  -6.758006929885596E-5  
 2.576000000000000E10    5.934326964052161E-6  -9.584668077877723E-6  
 2.578000000000000E10    5.854557093698531E-5  -6.938668229850009E-5  
 2.580000000000000E10    2.285594382556155E-4  -3.167205140925944E-4  
 2.582000000000000E10    2.252014237456024E-4  -2.263603346364107E-5  
 2.584000000000000E10    3.212835581507534E-4   3.115587169304490E-4  
 2.586000000000000E10    1.543068792670965E-4  -1.447746180929244E-4  
 2.588000000000000E10   -7.162665860960260E-5  -4.109279689146206E-5  
 2.590000000000000E10   -4.979341174475849E-4   8.057509694481269E-5  
 2.592000000000000E10   -1.105064729927108E-4   3.909356892108917E-4  
 2.594000000000000E10    1.563336991239339E-4  -1.509553985670209E-4  
 2.596000000000000E10   -1.213325012940913E-4  -4.545126284938306E-4  
 2.598000000000000E10    8.646025526104495E-5  -3.405839379411191E-5  
 2.600000000000000E10   -1.405612856615335E-4   3.783863212447614E-4  
 2.602000000000000E10    9.804809815250337E-5   2.548830234445632E-4  
 2.604000000000000E10    2.725247468333691E-4   1.583150005899370E-4  
 2.606000000000000E10   -5.699491011910141E-4   4.299647698644549E-4  
 2.608000000000000E10   -4.936869372613728E-4   5.146645125932992E-4  
 2.610000000000000E10    5.837175922351889E-5   5.125215975567699E-4  
 2.612000000000000E10   -5.840260928380303E-5  -1.235501549672335E-4  
 2.614000000000000E10   -2.866891736630350E-4  -3.021133888978511E-4  
 2.616000000000000E10   -2.532815778977238E-5   3.024440375156701E-4  
 2.618000000000000E10    3.627807018347085E-4   5.854966366314329E-5  
 2.620000000000000E10    2.108946209773421E-4  -8.835043263388798E-5  
 2.622000000000000E10    2.701547346077859E-4   4.085912369191647E-4  
 2.624000000000000E10    1.360413734801114E-4   3.720008826348931E-4  
 2.626000000000000E10    1.860492920968682E-4   3.281550598330796E-4  
 2.628000000000000E10    1.598877497599460E-5  -4.671724673244171E-5  
 2.630000000000000E10   -1.532987953396514E-4   1.000172414933331E-5  
 2.632000000000000E10    4.585656861308962E-4  -3.212415904272348E-4  
 2.634000000000000E10   -1.943831448443234E-4  -4.503553209360689E-4  
 2.636000000000000E10    5.346268517314456E-5  -5.861064419150353E-4  
 2.638000000000000E10    2.883054548874497E-4   2.902889682445675E-4  
 2.640000000000000E10    1.918101625051349E-4  -1.705024624243379E-4  
 2.642000000000000E10   -8.406094821111765E-6  -4.728933563455939E-4  
 2.644000000000000E10   -1.177648809971288E-4  -1.003080542432144E-4  
 2.646000000000000E10   -5.172233431949280E-5  -1.162898115580902E-4  
 2.648000000000000E10    2.883212000597268E-4  -6.014918326400220E-4  
 2.650000000000000E10   -3.712810575962067E-5  -5.757990293204784E-4  
 2.652000000000000E10   -9.387481259182096E-5  -5.228824447840452E-4  
 2.654000000000000E10    4.976938362233341E-4  -6.620836938964203E-5  
 2.656000000000000E10    8.229466766351834E-5  -3.121872141491622E-4  
 2.658000000000000E10   -1.942648814292625E-4  -5.832851747982204E-4  
 2.660000000000000E10   -1.439159404981183E-5  -1.760457525961101E-4  
 2.662000000000000E10    1.494432945037261E-4  -5.566060281125829E-5  
 2.664000000000000E10   -2.432496985420585E-4  -4.849352408200502E-4  
 2.666000000000000E10   -1.204469008371234E-4  -1.709713833406568E-4  
 2.668000000000000E10    9.520492312731221E-5   1.321002055192366E-4  
 2.670000000000000E10    1.701475557638332E-4  -3.175401070620865E-4  
 2.672000000000000E10   -2.570879587437958E-4  -1.546256244182587E-4  
 2.674000000000000E10   -4.030680574942380E-4   6.716000643791631E-5  
 2.676000000000000E10    3.866673796437681E-4   4.235271189827472E-4  
 2.678000000000000E10   -1.400305773131549E-4   1.999048254219815E-4  
 2.680000000000000E10   -3.815969976130873E-4  -2.115220122504979E-4  
 2.682000000000000E10   -4.087292763870210E-4   4.181954427622259E-4  
 2.684000000000000E10    1.136717473855242E-4   3.910646773874760E-4  
 2.686000000000000E10    3.763228232855909E-5  -2.899510436691344E-4  
 2.688000000000000E10   -4.133478505536914E-4  -3.951831604354084E-5  
 2.690000000000000E10   -2.230785466963425E-4   8.233499829657376E-4  
 2.692000000000000E10    1.697212137514725E-4   4.790898237843067E-4  
 2.694000000000000E10   -5.214394186623395E-4  -2.886545553337783E-5  
 2.696000000000000E10   -5.207164795137942E-4   6.896068807691336E-4  
 2.698000000000000E10   -1.258432712347712E-5   8.124515297822654E-4  
 2.700000000000000E10   -2.283407520735636E-4  -6.011590085108765E-5  
 2.702000000000000E10   -4.343667824286968E-4   3.899107105098665E-4  
 2.704000000000000E10    5.688822784577496E-5   6.373546202667058E-4  
 2.706000000000000E10    2.034922945313156E-4   5.668075755238533E-4  
 2.708000000000000E10   -3.102218033745885E-4  -1.714463141979650E-4  
 2.710000000000000E10   -1.681024150457233E-4   3.712764882948250E-4  
 2.712000000000000E10   -1.008205581456423E-4   9.659305796958506E-4  
 2.714000000000000E10    1.033626977005042E-4   2.352661249460653E-4  
 2.716000000000000E10   -1.382740156259388E-4  -6.215336179593578E-5  
 2.718000000000000E10   -1.674445229582489E-4   4.329283256083727E-4  
 2.720000000000000E10    9.822400897974148E-5   5.745195085182786E-4  
 2.722000000000000E10    4.618347738869488E-4   1.348710065940395E-4  
 2.724000000000000E10    2.185318153351545E-4  -9.789856994757429E-5  
 2.726000000000000E10    4.969121073372662E-5   5.046053556725383E-4  
 2.728000000000000E10    4.150186432525516E-4   4.414205614011735E-4  
 2.730000000000000E10    1.658508699620143E-4  -3.733304911293089E-4  
 2.732000000000000E10    1.744721521390602E-5   1.625988443265669E-5  
 2.734000000000000E10    2.237954468000680E-4   2.562035515438765E-4  
 2.736000000000000E10    6.402810104191303E-4  -4.750284715555608E-4  
 2.738000000000000E10    1.480607024859637E-4  -6.353855133056641E-4  
 2.740000000000000E10    2.466007135808468E-4  -6.762811244698241E-5  
 2.742000000000000E10    5.966184544377029E-4  -1.094841063604690E-4  
 2.744000000000000E10    3.880433214362711E-4  -3.701356763485819E-4  
 2.746000000000000E10   -1.701534929452464E-4  -6.513253902085125E-4  
 2.748000000000000E10    1.652042265050113E-4   4.589761738316156E-5  
 2.750000000000000E10    4.630097537301481E-4  -2.176146808778867E-4  
 2.752000000000000E10    5.912251654081047E-4  -6.554878782480955E-4  
 2.754000000000000E10    5.755581878474914E-5  -4.617998783942312E-4  
 2.756000000000000E10    1.955160696525127E-4   7.312191883102059E-5  
