#  HZ   S   RI   R     50.00 
! Rohde & Schwarz ZVA40 4Ports - Version 3.90 - 1145.1110k42 SN: 100403
! Date: 2023-10-04 09:26:28
! Measurement: S12 
! 
 2.200000000000000E10    4.855390579905361E-4  -5.766742979176343E-4  
 2.202000000000000E10    1.020097988657653E-5  -6.646882393397391E-4  
 2.204000000000000E10   -6.399206904461607E-5  -4.726323531940579E-4  
 2.206000000000000E10    4.394584975671023E-4   5.477291779243387E-5  
 2.208000000000000E10    1.543836988275871E-4  -3.078520530834794E-4  
 2.210000000000000E10    5.022361874580383E-4  -6.263802642934024E-4  
 2.212000000000000E10   -3.920655581168830E-5  -1.562854449730367E-4  
 2.214000000000000E10    1.677567488513887E-4  -6.967377848923206E-4  
 2.216000000000000E10    6.395173841156066E-4  -3.295674105174840E-4  
 2.218000000000000E10   -1.087114724214189E-4  -5.513194482773542E-4  
 2.220000000000000E10    6.036430713720620E-4  -6.887019844725728E-5  
 2.222000000000000E10    4.406525113154203E-4  -1.027627513394691E-4  
 2.224000000000000E10   -5.106128446641378E-5  -7.048298721201718E-4  
 2.226000000000000E10   -2.959507692139596E-4  -3.255481133237481E-4  
 2.228000000000000E10    4.750399966724217E-4  -1.926714758155868E-4  
 2.230000000000000E10    3.661880036816001E-4  -6.407676264643669E-4  
 2.232000000000000E10    6.210889114299789E-5  -9.015453979372978E-4  
 2.234000000000000E10   -1.352353283436969E-4   1.050903447321616E-4  
 2.236000000000000E10   -4.466488098842092E-5  -2.886234724428505E-4  
 2.238000000000000E10    3.150167176499963E-4  -3.523066698107868E-4  
 2.240000000000000E10   -1.396207371726632E-4  -2.142735502275173E-5  
 2.242000000000000E10   -9.253499592887238E-5  -3.236712072975934E-4  
 2.244000000000000E10   -3.447747803875245E-5   9.730516467243433E-5  
 2.246000000000000E10   -2.270728436997160E-4   3.048432699870318E-4  
 2.248000000000000E10    1.914085260068532E-6  -5.272410926409066E-4  
 2.250000000000000E10   -3.691164602059871E-5  -4.018725303467363E-5  
 2.252000000000000E10   -2.400049270363525E-4   6.935716373845935E-5  
 2.254000000000000E10    8.640697342343628E-5  -2.023534179897979E-4  
 2.256000000000000E10    2.377148339292035E-4   2.719686890486628E-4  
 2.258000000000000E10   -1.389044336974621E-4   2.745805068116169E-5  
 2.260000000000000E10    3.538676537573338E-4  -2.673742128536105E-4  
 2.262000000000000E10   -1.298713323194534E-4   4.500945506151766E-4  
 2.264000000000000E10   -3.438297135289758E-4   1.565928687341511E-4  
 2.266000000000000E10    3.338986425660551E-4   3.359284892212600E-4  
 2.268000000000000E10   -4.002162895631045E-4  -7.246769382618368E-5  
 2.270000000000000E10   -4.186247824691236E-4  -1.056808541761711E-4  
 2.272000000000000E10   -5.149494973011315E-4   6.454168669733917E-6  
 2.274000000000000E10   -1.959907676791772E-4  -1.874474983196706E-4  
 2.276000000000000E10   -2.688420936465263E-4  -5.076816887594760E-5  
 2.278000000000000E10    2.230482205050066E-4  -2.350727445445955E-4  
 2.280000000000000E10   -4.439293115865439E-4   3.645482938736677E-4  
 2.282000000000000E10   -4.242893774062395E-4  -2.159985888283700E-4  
 2.284000000000000E10    7.510534487664700E-5   6.084043998271227E-4  
 2.286000000000000E10   -5.918226670473814E-4  -2.767707519524265E-5  
 2.288000000000000E10   -3.631842846516520E-4   6.763463898096234E-5  
 2.290000000000000E10   -2.983334125019610E-4   4.349900700617582E-4  
 2.292000000000000E10    2.266319206682965E-4  -3.886193007929251E-5  
 2.294000000000000E10   -1.589939201949164E-4   3.717743311426602E-5  
 2.296000000000000E10   -1.056563487509266E-4  -1.415388578607235E-5  
 2.298000000000000E10   -2.215394488302991E-4   1.933497114805505E-4  
 2.300000000000000E10   -1.713217643555254E-4   1.499923673691228E-4  
 2.302000000000000E10    1.605430497875204E-6   1.808293891372159E-4  
 2.304000000000000E10   -1.897501206258312E-4  -3.357762761879712E-4  
 2.306000000000000E10   -7.580317469546571E-5  -1.391777477692813E-4  
 2.308000000000000E10   -5.514342919923365E-4  -1.873708824859932E-4  
 2.310000000000000E10    7.585803541587666E-5  -9.844320447882637E-5  
 2.312000000000000E10    1.235890958923847E-4   1.016936002997682E-4  
 2.314000000000000E10   -1.055279863066971E-4  -5.601039738394320E-4  
 2.316000000000000E10   -2.816855558194220E-4  -1.580656535224989E-4  
 2.318000000000000E10   -1.763857871992514E-4   5.371961742639542E-4  
 2.320000000000000E10    4.065440734848380E-4   3.861716832034290E-4  
 2.322000000000000E10    8.236800204031169E-5  -3.157645405735821E-4  
 2.324000000000000E10   -6.006292533129454E-4  -6.586888339370489E-4  
 2.326000000000000E10   -5.258101155050099E-4  -6.812080391682684E-5  
 2.328000000000000E10    1.624178694328293E-4  -2.106435567839071E-4  
 2.330000000000000E10   -1.744176115607843E-4  -6.361512932926416E-4  
 2.332000000000000E10    1.859161566244438E-4  -7.987073040567339E-4  
 2.334000000000000E10    3.214017851860263E-5  -3.219265781808645E-4  
 2.336000000000000E10   -2.396611962467432E-4  -2.089709887513891E-4  
 2.338000000000000E10    2.566926414147019E-4  -3.673898027045652E-5  
 2.340000000000000E10    6.194710294948891E-5   2.696369665500242E-5  
 2.342000000000000E10    1.394945720676333E-4   1.226321619469672E-4  
 2.344000000000000E10   -3.461182059254497E-4  -2.220755850430578E-4  
 2.346000000000000E10   -3.765914589166641E-4   2.773089508991689E-4  
 2.348000000000000E10    3.289818414486945E-5   3.532889822963625E-4  
 2.350000000000000E10    6.005572504363954E-4  -1.970915473066270E-4  
 2.352000000000000E10   -3.974194987677038E-4  -3.959843015763909E-4  
 2.354000000000000E10   -5.991033976897597E-4  -3.849187924060971E-4  
 2.356000000000000E10    1.071865553967655E-4   5.968296900391579E-4  
 2.358000000000000E10    4.768884391523898E-4  -2.969563356600702E-4  
 2.360000000000000E10    1.050601622409886E-5  -8.048924501053989E-4  
 2.362000000000000E10   -3.873832756653428E-4  -1.238652766915038E-4  
 2.364000000000000E10    2.411710447631776E-4   3.488190122880042E-4  
 2.366000000000000E10    2.185082557843998E-4   3.676404012367129E-4  
 2.368000000000000E10   -5.029260137234815E-5  -3.464624169282615E-4  
 2.370000000000000E10    1.723616296658292E-4   1.164302957477048E-4  
 2.372000000000000E10   -1.047500700224191E-4   1.063520758179948E-4  
 2.374000000000000E10   -8.864831761457026E-5   1.922539813676849E-4  
 2.376000000000000E10    3.342668424011208E-5   2.882814733311534E-4  
 2.378000000000000E10    2.446591970510781E-4  -2.879914063669276E-5  
 2.380000000000000E10   -1.922287337947637E-4  -5.476234946399927E-4  
 2.382000000000000E10   -4.845458606723696E-4  -4.649777547456324E-4  
 2.384000000000000E10   -1.020902054733597E-4   4.560764646157622E-4  
 2.386000000000000E10    6.187307881191373E-4  -1.793695264495909E-4  
 2.388000000000000E10    2.233355917269364E-4  -3.091344842687249E-4  
 2.390000000000000E10   -7.528808200731874E-4  -8.452396286884323E-6  
 2.392000000000000E10   -2.052366326097399E-4   8.393813041038811E-4  
 2.394000000000000E10    5.063486169092357E-4   5.563832237385213E-4  
 2.396000000000000E10    1.822437770897523E-4  -1.978743239305913E-4  
 2.398000000000000E10   -9.982350748032332E-4  -7.251694114529528E-6  
 2.400000000000000E10   -1.877055183285847E-4   6.615071906708181E-4  
 2.402000000000000E10    4.433380963746458E-4   2.936930686701089E-4  
 2.404000000000000E10   -3.319393363199197E-5  -3.643684904091060E-4  
 2.406000000000000E10    1.067967095877975E-4  -1.000735937850550E-4  
 2.408000000000000E10    8.953928772825748E-5   1.571800239617005E-4  
 2.410000000000000E10    1.756715064402670E-4   4.353173135314137E-4  
 2.412000000000000E10    2.822780224960297E-4   3.733594494406134E-4  
 2.414000000000000E10    7.693449733778834E-4   3.575886239559623E-6  
 2.416000000000000E10    4.630161856766790E-5  -5.544290179386735E-4  
 2.418000000000000E10   -4.611797048710287E-4   6.535815919050947E-5  
 2.420000000000000E10    4.947610068484210E-5   5.574383540078998E-4  
 2.422000000000000E10    6.175559828989208E-4   3.695241757668555E-4  
 2.424000000000000E10    6.912816315889359E-4  -5.186803173273802E-4  
 2.426000000000000E10   -1.198971222038381E-4  -5.002429243177176E-4  
 2.428000000000000E10   -3.688925644382834E-4   2.045578730758280E-4  
 2.430000000000000E10    8.615738479420543E-4   3.987789095845074E-4  
 2.432000000000000E10    7.052989676594734E-4  -3.585421654861420E-4  
 2.434000000000000E10   -1.462649670429528E-4  -6.411057547666133E-4  
 2.436000000000000E10   -1.477219047956169E-4  -1.754786208039150E-4  
 2.438000000000000E10    4.239231930114329E-4   2.886333386413753E-4  
 2.440000000000000E10    8.870664896676317E-5  -3.384173032827675E-4  
 2.442000000000000E10    2.901870757341385E-4  -2.501988783478737E-4  
 2.444000000000000E10    5.058297028881498E-5  -3.649904974736273E-4  
 2.446000000000000E10   -2.280046028317884E-4  -7.120862137526274E-4  
 2.448000000000000E10   -1.882931392174214E-4   1.418584433849901E-4  
 2.450000000000000E10    4.352845135144889E-4   6.903012399561703E-5  
 2.452000000000000E10    3.942547191400081E-4  -8.875338826328516E-4  
 2.454000000000000E10   -1.128674266510643E-4  -6.428618798963726E-4  
 2.456000000000000E10   -5.063362186774612E-4   1.332217216258869E-4  
 2.458000000000000E10   -1.140778549597599E-4  -1.558669282530900E-5  
 2.460000000000000E10    3.843191079795361E-4  -3.102558912360109E-5  
 2.462000000000000E10   -1.687227049842477E-4  -6.190077401697636E-4  
 2.464000000000000E10   -4.311053198762238E-4  -2.765789977274835E-4  
 2.466000000000000E10   -1.406206429237500E-4   6.626113317906857E-4  
 2.468000000000000E10    4.377985605970025E-4   4.880257474724203E-4  
 2.470000000000000E10    2.333509473828599E-4  -2.728899416979402E-4  
 2.472000000000000E10   -4.706932522822171E-4   2.980464196298271E-4  
 2.474000000000000E10   -5.705943913199008E-4   3.655005129985511E-4  
 2.476000000000000E10   -6.196483445819467E-5   1.139090090873651E-4  
 2.478000000000000E10    1.630799670238048E-4   4.381314211059362E-4  
 2.480000000000000E10    5.639096707454883E-5  -1.823871425585821E-4  
 2.482000000000000E10   -2.220364403910935E-4  -3.759581595659256E-4  
 2.484000000000000E10   -3.366944147273898E-4   2.103739825543016E-5  
 2.486000000000000E10    1.982248941203579E-4   4.429186810739338E-4  
 2.488000000000000E10    3.076545835938305E-4   5.572992085944861E-5  
 2.490000000000000E10   -1.094464751076885E-4  -2.646883949637413E-4  
 2.492000000000000E10   -5.846614949405193E-4   2.394114999333397E-4  
 2.494000000000000E10   -4.313179815653712E-4   8.324136724695563E-4  
 2.496000000000000E10    1.968800061149523E-4   3.453310637269169E-4  
 2.498000000000000E10    3.134556463919580E-4  -5.270237452350557E-4  
 2.500000000000000E10   -3.536646254360676E-4  -8.086086600087583E-4  
 2.502000000000000E10   -4.173822235316038E-4  -7.567991815449204E-6  
 2.504000000000000E10    5.318948533385992E-4   3.499413141980767E-4  
 2.506000000000000E10    5.804970278404653E-4  -4.204719734843820E-4  
 2.508000000000000E10    2.263883216073737E-4  -4.692658549174666E-4  
 2.510000000000000E10   -2.376046031713486E-4  -2.275151928188279E-4  
 2.512000000000000E10   -2.909246541094035E-5  -1.100295849028043E-4  
 2.514000000000000E10    1.914798340294510E-4  -2.202705218223855E-4  
 2.516000000000000E10    1.811073161661625E-4  -6.401372374966741E-4  
 2.518000000000000E10   -2.001046959776431E-5  -5.867198924534023E-4  
 2.520000000000000E10   -1.639333349885419E-4  -6.489977240562439E-4  
 2.522000000000000E10   -1.379328896291554E-4   1.614263164810836E-4  
 2.524000000000000E10    2.893058408517391E-4  -3.795477969106287E-4  
 2.526000000000000E10    2.941405691672117E-4  -3.218212514184415E-4  
 2.528000000000000E10   -6.129545508883894E-4  -4.973962204530835E-4  
 2.530000000000000E10   -4.051510477438569E-4  -1.951130834640935E-4  
 2.532000000000000E10   -5.005211569368839E-4   1.226183521794155E-4  
 2.534000000000000E10   -8.182490273611620E-5  -5.413772887550294E-4  
 2.536000000000000E10   -4.841221743845381E-5  -6.155576556921005E-4  
 2.538000000000000E10   -3.111289697699249E-4  -1.714576792437583E-4  
 2.540000000000000E10   -5.448039155453444E-4   4.009067197330296E-4  
 2.542000000000000E10    4.614906210917980E-4   4.365938366390765E-4  
 2.544000000000000E10    1.315296685788781E-4   3.214848402421922E-4  
 2.546000000000000E10   -6.164840306155384E-4   2.817234490066767E-4  
 2.548000000000000E10   -2.371241571381688E-4   8.021032554097474E-4  
 2.550000000000000E10   -2.455492794979364E-4   7.365406490862370E-4  
 2.552000000000000E10   -3.493408148642629E-4   2.811533922795206E-4  
 2.554000000000000E10    1.204870495712385E-4   3.350731858517975E-4  
 2.556000000000000E10   -9.331932960776612E-5   6.884892936795950E-4  
 2.558000000000000E10    2.109258930431679E-4   5.805972032248974E-4  
 2.560000000000000E10    7.175256032496691E-4   7.041934877634049E-4  
 2.562000000000000E10    3.231068840250373E-4   4.279051208868623E-4  
 2.564000000000000E10    5.944556323811412E-5   6.071969401091337E-4  
 2.566000000000000E10    1.485397078795359E-4   3.828963672276586E-4  
 2.568000000000000E10    6.548974779434502E-4   4.171965410932899E-4  
 2.570000000000000E10    1.592725748196244E-4   5.248040542937815E-4  
 2.572000000000000E10    3.434162354096770E-4  -1.519534707767889E-4  
 2.574000000000000E10    1.579978998051956E-4   1.352174294879660E-4  
 2.576000000000000E10    3.592419088818133E-4   2.271923440275714E-4  
 2.578000000000000E10    4.205283185001463E-4  -1.093997998395935E-4  
 2.580000000000000E10    1.376548316329718E-4  -9.316544492321555E-6  
 2.582000000000000E10   -1.426878297934309E-4  -1.625179174880032E-5  
 2.584000000000000E10   -3.043288234039210E-5  -1.251916255569086E-4  
 2.586000000000000E10    1.318379217991605E-4   7.127485150704160E-5  
 2.588000000000000E10    3.594857698772103E-4  -1.715187245281413E-4  
 2.590000000000000E10    1.839896867750213E-4  -8.952385542215779E-5  
 2.592000000000000E10   -1.438107137801126E-4  -9.785176371224225E-5  
 2.594000000000000E10    2.234511339338496E-4   7.391295366687700E-5  
 2.596000000000000E10    3.868029452860355E-4  -5.240231621428393E-5  
 2.598000000000000E10    1.799564197426662E-4  -1.649145851843059E-4  
 2.600000000000000E10   -3.298778901807964E-4  -2.834931365214288E-4  
 2.602000000000000E10    2.851975732482970E-4   7.617010123794898E-5  
 2.604000000000000E10    1.416945597156882E-4  -8.335200618603267E-6  
 2.606000000000000E10   -4.826798976864666E-5  -7.816649740561843E-4  
 2.608000000000000E10   -2.368853747611865E-4  -1.929498685058206E-4  
 2.610000000000000E10   -6.820308044552803E-5  -3.500028105918318E-5  
 2.612000000000000E10   -1.345782511634752E-4  -6.765466241631657E-5  
 2.614000000000000E10    1.398950844304636E-4  -3.168619005009532E-4  
 2.616000000000000E10   -1.183337953989394E-4  -5.348681224859320E-5  
 2.618000000000000E10   -1.998572843149304E-4  -3.470642259344459E-4  
 2.620000000000000E10   -6.542769551742822E-5  -2.528954937588424E-4  
 2.622000000000000E10   -1.369200326735154E-4  -2.635740202094894E-5  
 2.624000000000000E10    3.059851587750018E-4  -1.490014255978167E-4  
 2.626000000000000E10    1.296275295317173E-4  -1.884818630060181E-5  
 2.628000000000000E10   -1.923509262269363E-4  -4.185413490631618E-5  
 2.630000000000000E10   -4.045848527312046E-6   3.613988228607923E-4  
 2.632000000000000E10    5.606265040114522E-5   4.577238287311047E-4  
 2.634000000000000E10    4.427183012012392E-5  -2.245993673568592E-4  
 2.636000000000000E10   -4.464717640075833E-4  -5.408360739238560E-4  
 2.638000000000000E10   -3.373582148924470E-4   3.071012324653566E-4  
 2.640000000000000E10    1.405640705343103E-5   3.087124059675261E-5  
 2.642000000000000E10    3.780940605793148E-4  -5.025293794460595E-4  
 2.644000000000000E10   -1.948522694874555E-4  -3.670713340397924E-5  
 2.646000000000000E10   -2.190199011238292E-4   5.267009255476296E-4  
 2.648000000000000E10    1.752977404976264E-4   6.097830482758582E-4  
 2.650000000000000E10   -6.059390143491328E-4   1.977680803975090E-4  
 2.652000000000000E10   -4.098008503206074E-4   1.732148084556684E-4  
 2.654000000000000E10   -5.573529051616788E-4   4.742003511637449E-4  
 2.656000000000000E10   -3.120428882539272E-4  -4.284689784981310E-4  
 2.658000000000000E10   -1.688291667960584E-4   1.625292206881568E-4  
 2.660000000000000E10   -7.754913531243801E-5   5.732536665163934E-4  
 2.662000000000000E10    4.506955447141081E-4   1.215804295497946E-4  
 2.664000000000000E10    3.002511220984161E-4   1.839247706811875E-4  
 2.666000000000000E10   -8.414111653110012E-5   5.097485845908523E-4  
 2.668000000000000E10   -2.461495751049370E-4   5.001233075745404E-4  
 2.670000000000000E10    4.911534415441565E-5   3.788929316215217E-4  
 2.672000000000000E10   -2.792982268147171E-4  -2.709748514462262E-4  
 2.674000000000000E10   -4.324985493440181E-4  -9.692325693322346E-5  
 2.676000000000000E10    5.090616832603701E-5   3.175456949975342E-4  
 2.678000000000000E10   -1.479625916545047E-5  -4.121621896047145E-4  
 2.680000000000000E10    1.848599204095081E-4  -5.138991982676089E-4  
 2.682000000000000E10    2.662323531694710E-4   5.279726465232670E-4  
 2.684000000000000E10    3.041394520550966E-4   1.728142233332619E-4  
 2.686000000000000E10    3.794702643062919E-4  -3.791034978348762E-4  
 2.688000000000000E10   -6.465738351835171E-6   2.661493781488389E-4  
 2.690000000000000E10    1.802553015295416E-5   2.179983857786283E-4  
 2.692000000000000E10    3.179555060341954E-4  -3.848810447379947E-4  
 2.694000000000000E10    2.367491833865643E-4  -5.863116239197552E-4  
 2.696000000000000E10    1.879229675978422E-4  -3.839893324766308E-4  
 2.698000000000000E10    3.290788736194372E-4   1.652014543651603E-5  
 2.700000000000000E10    7.270298083312810E-4  -4.619052342604846E-4  
 2.702000000000000E10    4.224093281663954E-4  -6.864745519123972E-4  
 2.704000000000000E10   -6.441467121476308E-5  -2.236691943835467E-4  
 2.706000000000000E10    2.876393264159560E-4  -3.044770564883947E-4  
 2.708000000000000E10    3.300251555629075E-4  -7.000767509452999E-4  
 2.710000000000000E10   -6.370287883328274E-5  -3.143778303638101E-4  
 2.712000000000000E10   -3.858795098494738E-4  -5.713240898330696E-5  
 2.714000000000000E10    1.983373513212428E-4  -2.659391611814499E-4  
 2.716000000000000E10    3.293358022347093E-4  -3.906264610122889E-4  
 2.718000000000000E10   -1.953435566974804E-4  -2.260330074932426E-4  
 2.720000000000000E10   -1.653370272833854E-4  -6.980606849538162E-5  
 2.722000000000000E10    2.747395774349570E-4  -3.497046418488026E-4  
 2.724000000000000E10   -4.368085501482710E-5  -3.890257212333381E-4  
 2.726000000000000E10   -4.296822298783809E-4   2.133819907612633E-5  
 2.728000000000000E10   -6.883095193188638E-5  -9.615458111511543E-5  
 2.730000000000000E10    2.753854205366224E-4  -2.494997752364725E-4  
 2.732000000000000E10   -3.075227432418615E-4   6.643478263868019E-5  
 2.734000000000000E10   -4.577517102006823E-4   3.581871569622308E-4  
 2.736000000000000E10   -1.388704840792343E-4   3.680514637380838E-4  
 2.738000000000000E10   -2.183684118790552E-4  -1.140838357969187E-4  
 2.740000000000000E10   -9.413886582478881E-4  -1.774070824467344E-6  
 2.742000000000000E10   -5.268797394819558E-4   4.462912038434297E-4  
 2.744000000000000E10   -1.108088035834953E-4   3.376742824912071E-4  
 2.746000000000000E10   -2.740168129093945E-4  -4.402063786983490E-4  
 2.748000000000000E10   -4.457875038497150E-4   3.372372011654079E-4  
 2.750000000000000E10   -5.003738915547729E-4   4.135863273404539E-4  
 2.752000000000000E10    3.021994198206812E-4   2.418840012978762E-4  
 2.754000000000000E10   -5.021397373639047E-4   2.374547621002421E-4  
 2.756000000000000E10   -4.576513892970979E-4   4.579441447276622E-4  
