#  HZ   S   RI   R     50.00 
! Rohde & Schwarz ZVA40 4Ports - Version 3.90 - 1145.1110k42 SN: 100403
! Date: 2023-10-04 09:26:12
! Measurement: S12 
! 
 2.200000000000000E10   -2.445558202452958E-4  -1.709498756099492E-4  
 2.202000000000000E10   -2.590316216810606E-5  -5.091945786261931E-5  
 2.204000000000000E10   -2.665263600647450E-4   2.682736376300454E-4  
 2.206000000000000E10    1.045739991241135E-4  -4.081842780578882E-4  
 2.208000000000000E10   -2.056467783404514E-4  -2.615710254758596E-4  
 2.210000000000000E10   -2.649242815095931E-4   2.723058423725888E-5  
 2.212000000000000E10    5.968212499283254E-4   2.324850065633655E-4  
 2.214000000000000E10   -1.141180109698325E-4  -6.480003503384069E-5  
 2.216000000000000E10   -7.267608889378607E-4   3.374942461960018E-4  
 2.218000000000000E10   -3.000658471137285E-4   7.667168974876404E-4  
 2.220000000000000E10    5.312729626893997E-4   3.428401250857860E-4  
 2.222000000000000E10   -5.110473139211536E-4  -5.912256892770529E-4  
 2.224000000000000E10   -4.196412919554859E-4  -1.855968148447573E-4  
 2.226000000000000E10    3.905451649188763E-6   1.101756468415260E-3  
 2.228000000000000E10    4.252016660757363E-4  -5.648690785164945E-5  
 2.230000000000000E10    3.208440321031958E-4   2.416474853816908E-5  
 2.232000000000000E10   -7.179800304584205E-4   1.156641956185922E-4  
 2.234000000000000E10    7.335907139349729E-5   1.415176957380027E-4  
 2.236000000000000E10    8.565284224459902E-5   1.357627916149795E-4  
 2.238000000000000E10   -9.512280666967854E-5  -2.296680468134582E-4  
 2.240000000000000E10    5.192022945266217E-5  -1.784251508070156E-4  
 2.242000000000000E10   -8.482118573738262E-5  -4.175549111096188E-5  
 2.244000000000000E10   -5.447408766485751E-4   1.615229703020304E-4  
 2.246000000000000E10   -2.323309217899805E-6   2.131908986484632E-4  
 2.248000000000000E10    1.710085634840652E-4   4.760012379847467E-4  
 2.250000000000000E10   -3.665085532702506E-4   4.091087612323463E-5  
 2.252000000000000E10   -3.253568138461560E-4   1.847311068559066E-5  
 2.254000000000000E10   -3.224053361918777E-4   3.585995291359723E-4  
 2.256000000000000E10   -8.392496238229796E-5  -1.538431388325989E-5  
 2.258000000000000E10    1.207135210279375E-4  -3.585356171242893E-4  
 2.260000000000000E10   -5.513584983418696E-5  -1.230220223078504E-4  
 2.262000000000000E10   -6.384238804457709E-5   7.361227471847087E-5  
 2.264000000000000E10    1.086175107047893E-4   2.451914187986404E-4  
 2.266000000000000E10    3.596817841753364E-4   3.520765458233655E-4  
 2.268000000000000E10   -9.536473226035014E-5  -1.403549831593409E-4  
 2.270000000000000E10    1.065892502083443E-4  -1.503649400547147E-4  
 2.272000000000000E10   -5.349899875000119E-4   4.823839699383825E-4  
 2.274000000000000E10   -1.317298883805051E-4   2.849861048161984E-4  
 2.276000000000000E10    2.702627098187804E-4   1.221630664076656E-4  
 2.278000000000000E10   -1.193001080537215E-4  -7.678995607420802E-4  
 2.280000000000000E10   -1.917389017762616E-4  -1.608418533578515E-4  
 2.282000000000000E10   -9.366103040520102E-5   3.608829283621162E-4  
 2.284000000000000E10    8.881568210199475E-4   1.343638723483309E-4  
 2.286000000000000E10    3.702873946167529E-4  -2.205241617048159E-4  
 2.288000000000000E10    3.397484397282824E-5   1.562161342008039E-4  
 2.290000000000000E10   -2.698519092518836E-4   5.579018616117537E-4  
 2.292000000000000E10    4.687289474532008E-4   8.395973418373615E-5  
 2.294000000000000E10    2.198346192017198E-4  -8.529863407602534E-5  
 2.296000000000000E10    1.876896130852401E-4  -3.634466556832194E-4  
 2.298000000000000E10    3.469063958618790E-4   1.495573524152860E-4  
 2.300000000000000E10    1.048258782248013E-4  -2.544910530559719E-4  
 2.302000000000000E10    4.957661731168628E-4   3.236205084249377E-4  
 2.304000000000000E10    4.623673157766461E-4   4.703923768829554E-4  
 2.306000000000000E10    2.853902115020901E-4  -2.705665829125792E-4  
 2.308000000000000E10   -3.198482445441186E-4  -1.228731271112338E-4  
 2.310000000000000E10   -3.209832357242703E-4   5.095686065033078E-4  
 2.312000000000000E10    4.319351573940367E-4   3.525006177369505E-4  
 2.314000000000000E10    5.742232315242291E-4  -6.735037895850837E-4  
 2.316000000000000E10   -3.458485007286072E-4  -1.086618212866597E-4  
 2.318000000000000E10   -3.416209656279534E-4   1.935957989189774E-4  
 2.320000000000000E10    7.577248034067452E-4   3.994742583017796E-4  
 2.322000000000000E10    2.781530783977360E-4  -1.094468752853572E-4  
 2.324000000000000E10   -2.458985363773536E-6  -3.488738730084151E-4  
 2.326000000000000E10   -3.543898055795580E-4   3.332762862555683E-4  
 2.328000000000000E10    2.328831033082679E-4   8.974696538643912E-5  
 2.330000000000000E10   -1.388303098792676E-5  -9.495804260950536E-5  
 2.332000000000000E10   -3.561651974450797E-4  -3.489605442155153E-4  
 2.334000000000000E10   -9.962364129023626E-5  -2.762135991360992E-4  
 2.336000000000000E10   -3.854983660858125E-4  -4.911126452498138E-4  
 2.338000000000000E10   -2.542522561270744E-4   3.208347188774496E-4  
 2.340000000000000E10    1.952937600435689E-4   4.694796807598323E-4  
 2.342000000000000E10    7.413112907670438E-4   1.525549214420607E-5  
 2.344000000000000E10   -7.343234028667212E-4  -1.255549868801609E-4  
 2.346000000000000E10   -3.338106907904148E-4   5.274346913211048E-4  
 2.348000000000000E10    1.336429995717481E-4   1.172554912045598E-3  
 2.350000000000000E10    3.723292611539364E-4  -2.636546851135790E-4  
 2.352000000000000E10   -6.540321046486497E-4  -6.158194737508893E-4  
 2.354000000000000E10   -8.742189966142178E-4   3.326885052956641E-4  
 2.356000000000000E10    3.898722352460027E-4   6.128474487923086E-4  
 2.358000000000000E10    6.814456428401172E-4  -5.705652874894440E-4  
 2.360000000000000E10   -8.984540909295902E-5  -7.211845368146896E-4  
 2.362000000000000E10   -4.767996724694967E-4   8.656358841108158E-5  
 2.364000000000000E10    1.220275444211438E-4   3.282283141743392E-4  
 2.366000000000000E10    3.238580393372104E-5   2.976485120598227E-5  
 2.368000000000000E10   -1.859285257523879E-4  -6.627623806707561E-4  
 2.370000000000000E10   -2.649503585416824E-4  -2.395105257164687E-4  
 2.372000000000000E10   -6.154588190838695E-4  -3.812445793300867E-4  
 2.374000000000000E10   -3.698290965985507E-4  -1.165560388471931E-4  
 2.376000000000000E10    1.594655259395950E-5   3.820793062914163E-4  
 2.378000000000000E10    7.976170163601637E-4  -6.012993399053812E-4  
 2.380000000000000E10    3.127780655631796E-5  -5.739645566791296E-4  
 2.382000000000000E10   -6.477346178144217E-4   4.305532493162900E-4  
 2.384000000000000E10    2.532066137064248E-4   1.183058018796146E-3  
 2.386000000000000E10    7.005746592767537E-4  -3.154451042064466E-5  
 2.388000000000000E10   -4.807173900189810E-5  -8.954972145147622E-4  
 2.390000000000000E10   -1.183117972686887E-3  -1.220198973896913E-4  
 2.392000000000000E10    1.887679682113230E-4   5.800763028673828E-4  
 2.394000000000000E10    9.591440320946276E-4   2.697222225833684E-4  
 2.396000000000000E10    1.921051589306444E-4  -7.016076706349850E-4  
 2.398000000000000E10   -1.728443166939542E-4   1.917869376484305E-4  
 2.400000000000000E10    3.069324302487075E-4   4.997015348635614E-4  
 2.402000000000000E10    5.105937598273158E-4   6.881820736452937E-4  
 2.404000000000000E10   -9.230509749613702E-5   9.369073814013973E-5  
 2.406000000000000E10    3.298359806649387E-4   2.348135021748021E-4  
 2.408000000000000E10    6.008472701068968E-5   1.591328036738560E-4  
 2.410000000000000E10   -3.061837924178690E-4  -2.647645305842161E-4  
 2.412000000000000E10    1.218629040522501E-4   2.971976646222174E-4  
 2.414000000000000E10    7.911154534667730E-4   9.841200517257676E-5  
 2.416000000000000E10    4.530546430032700E-4  -8.210429805330932E-4  
 2.418000000000000E10   -1.184214343084022E-4  -3.875862457789481E-4  
 2.420000000000000E10   -1.505580621596891E-5   5.238691228441894E-4  
 2.422000000000000E10    6.461223820224404E-4   2.960044366773218E-4  
 2.424000000000000E10    4.972148453816772E-4  -6.584363291040063E-4  
 2.426000000000000E10   -5.077950772829354E-4  -2.280854096170515E-4  
 2.428000000000000E10   -4.474385059438646E-4   2.602825115900487E-4  
 2.430000000000000E10    5.319625488482416E-4   2.812604943756014E-4  
 2.432000000000000E10   -3.027087368536741E-4  -4.082807281520218E-4  
 2.434000000000000E10   -3.411099896766245E-4  -4.993313923478127E-4  
 2.436000000000000E10    8.584234819863923E-6   2.552838413976133E-4  
 2.438000000000000E10    1.878299735835753E-5  -4.995264134777244E-6  
 2.440000000000000E10    2.518726396374404E-4  -1.582125114509836E-4  
 2.442000000000000E10    2.216095745097846E-4   1.860067131929100E-4  
 2.444000000000000E10    5.970129132037982E-5   6.304823909886181E-5  
 2.446000000000000E10   -1.319931470789015E-4  -4.434634320205078E-5  
 2.448000000000000E10   -5.125104798935354E-4   6.778567912988365E-4  
 2.450000000000000E10   -1.885516103357077E-4   2.245647483505309E-4  
 2.452000000000000E10    3.877503913827241E-4  -4.029106639791280E-4  
 2.454000000000000E10   -7.290089270099998E-4  -5.550930509343743E-4  
 2.456000000000000E10   -8.594855316914618E-4  -1.374903367832303E-4  
 2.458000000000000E10    2.076912933262065E-4   3.691672754939646E-4  
 2.460000000000000E10    5.009947344660759E-4  -1.464173838030547E-4  
 2.462000000000000E10   -3.282503166701645E-4  -9.585655061528087E-4  
 2.464000000000000E10   -4.934880998916924E-4   2.900672552641481E-4  
 2.466000000000000E10   -3.700541274156421E-4   7.698221597820520E-4  
 2.468000000000000E10    3.704993578139693E-4   1.370156096527353E-4  
 2.470000000000000E10   -2.337083133170381E-4  -2.434476919006556E-4  
 2.472000000000000E10   -5.862385733053088E-4  -2.199065202148631E-4  
 2.474000000000000E10   -4.343641339801252E-4  -2.540831628721207E-4  
 2.476000000000000E10   -1.245897874468938E-4  -1.430055854143575E-4  
 2.478000000000000E10    4.545309056993574E-4   1.430475967936218E-4  
 2.480000000000000E10    5.322748911567032E-4  -5.298343021422625E-4  
 2.482000000000000E10   -6.746497820131481E-5  -1.797825389076024E-4  
 2.484000000000000E10   -1.195743680000305E-4   2.803141251206398E-4  
 2.486000000000000E10    4.603054840117693E-4   8.839272777549923E-4  
 2.488000000000000E10    5.319687770679593E-4   5.349691036826698E-6  
 2.490000000000000E10    5.227401197771542E-5  -5.272448761388660E-4  
 2.492000000000000E10   -7.777240825816989E-4   8.686231012688950E-6  
 2.494000000000000E10   -3.337950620334595E-4   5.013900226913393E-4  
 2.496000000000000E10    5.641494644805789E-4   1.770181552274153E-4  
 2.498000000000000E10    1.971615274669603E-4  -5.776053294539452E-4  
 2.500000000000000E10   -5.082876305095851E-4  -3.184082743246108E-4  
 2.502000000000000E10   -5.699677276425064E-4   3.895577974617481E-4  
 2.504000000000000E10    1.012173306662589E-4   3.063654876314104E-4  
 2.506000000000000E10    3.538549935910851E-4  -2.198585716541857E-4  
 2.508000000000000E10   -4.716985276900232E-4  -1.243856677319855E-4  
 2.510000000000000E10   -6.291767931543291E-4   5.478281309478916E-5  
 2.512000000000000E10   -2.104209561366588E-4   2.656012366060168E-4  
 2.514000000000000E10   -1.151465912698768E-4   5.217458237893879E-4  
 2.516000000000000E10    6.172597932163626E-5   1.916444889502600E-4  
 2.518000000000000E10   -1.785215717973188E-4  -1.775577402440831E-4  
 2.520000000000000E10   -5.437262007035315E-4   2.591753145679832E-4  
 2.522000000000000E10   -1.223892177222297E-4   7.468163385055959E-4  
 2.524000000000000E10    2.589476353023201E-4   4.268318007234484E-4  
 2.526000000000000E10   -4.727987470687367E-5  -2.057101937680272E-6  
 2.528000000000000E10   -3.418176493141800E-4  -4.914441888104193E-6  
 2.530000000000000E10   -1.377582520944998E-5   5.480906693264842E-4  
 2.532000000000000E10    2.655908465385437E-4   8.895377977751195E-4  
 2.534000000000000E10    6.161985802464187E-4   2.280416811117902E-4  
 2.536000000000000E10   -5.533013973035850E-5  -1.499400968896225E-4  
 2.538000000000000E10   -4.955437616445124E-4   2.208347577834502E-4  
 2.540000000000000E10    1.916256005642936E-4   6.277126958593726E-4  
 2.542000000000000E10    4.945202963426709E-4  -2.096997195621952E-5  
 2.544000000000000E10    1.732514792820439E-4  -3.623989468906075E-4  
 2.546000000000000E10    1.057091139955446E-4  -3.281075041741133E-4  
 2.548000000000000E10    4.870607808697969E-4  -2.744776720646769E-4  
 2.550000000000000E10    4.302918096072972E-4   2.292332646902651E-4  
 2.552000000000000E10    6.081566680222750E-4  -1.662082213442773E-4  
 2.554000000000000E10    5.733764264732599E-4  -5.002394900657237E-4  
 2.556000000000000E10   -2.515261876396835E-4  -1.071271544788033E-4  
 2.558000000000000E10    3.659164576674812E-5  -1.358853623969480E-4  
 2.560000000000000E10    4.430020926520228E-4  -3.579434705898166E-4  
 2.562000000000000E10    4.568530421238393E-4  -9.636147296987474E-4  
 2.564000000000000E10    1.829530810937285E-4  -7.043086225166917E-4  
 2.566000000000000E10    2.188866928918287E-4  -3.085857897531241E-4  
 2.568000000000000E10    5.617822753265500E-4  -4.713127564173192E-4  
 2.570000000000000E10    5.275750299915671E-4  -4.898959887214005E-4  
 2.572000000000000E10    1.631377817830071E-4  -5.035223439335823E-4  
 2.574000000000000E10   -1.594716595718637E-4  -1.556328061269596E-4  
 2.576000000000000E10    2.503167161194142E-5  -1.995778729906306E-4  
 2.578000000000000E10    1.868707477115095E-4  -1.789636153262109E-4  
 2.580000000000000E10   -5.763199442299083E-5  -3.596660681068897E-4  
 2.582000000000000E10   -2.134796377504244E-4  -4.712144436780363E-4  
 2.584000000000000E10   -1.515842595836148E-4  -9.783692803466693E-5  
 2.586000000000000E10   -2.189752012782265E-5   3.843988815788180E-5  
 2.588000000000000E10   -2.131718792952597E-5  -4.108862776774913E-5  
 2.590000000000000E10   -2.743321529123932E-4  -5.602680903393775E-5  
 2.592000000000000E10   -2.236839645775035E-4  -1.153145713033155E-4  
 2.594000000000000E10   -3.945407806895673E-4   1.384266361128539E-4  
 2.596000000000000E10    5.851458627148531E-5   1.017310132738203E-4  
 2.598000000000000E10    1.036972244037315E-4  -1.162567641586065E-4  
 2.600000000000000E10   -2.991836518049240E-4  -7.696834654780105E-5  
 2.602000000000000E10   -3.123401547782123E-4   5.354791646823287E-4  
 2.604000000000000E10   -2.616287092678249E-4   5.507820169441402E-4  
 2.606000000000000E10   -9.272467650589533E-6   1.640048285480589E-4  
 2.608000000000000E10   -6.042625755071640E-4   5.976806278340519E-4  
 2.610000000000000E10   -4.639996041078121E-4   1.987329014809802E-4  
 2.612000000000000E10   -1.293975128646707E-5   2.801817900035530E-4  
 2.614000000000000E10   -2.005249843932688E-4  -5.638828224618919E-5  
 2.616000000000000E10   -1.942291710292921E-4  -3.310985630378127E-5  
 2.618000000000000E10   -2.304781519342214E-4   2.267334202770144E-4  
 2.620000000000000E10   -3.428094714763574E-5   3.133086429443210E-4  
 2.622000000000000E10   -6.122428021626547E-5   2.917521924246103E-4  
 2.624000000000000E10   -2.493566134944558E-4   4.672991053666920E-4  
 2.626000000000000E10   -3.623247612267733E-4   2.457443624734879E-4  
 2.628000000000000E10   -1.665865602262784E-5  -1.069296995410696E-4  
 2.630000000000000E10   -4.411236441228539E-4   1.987293362617493E-4  
 2.632000000000000E10   -9.532189142191783E-5  -2.314128505531699E-5  
 2.634000000000000E10    2.743215009104461E-4  -1.653698273003101E-4  
 2.636000000000000E10   -8.233703556470573E-5   2.348626367165707E-5  
 2.638000000000000E10    1.364272611681372E-5  -1.134505946538411E-4  
 2.640000000000000E10    1.899251801660284E-4   4.275164683349431E-4  
 2.642000000000000E10   -1.045234894263558E-4  -8.789963430899661E-6  
 2.644000000000000E10   -1.029791092150845E-4  -1.350686798105016E-4  
 2.646000000000000E10   -2.998446288984269E-4   2.738604671321809E-4  
 2.648000000000000E10    2.929159381892532E-4  -1.368647790513933E-4  
 2.650000000000000E10    2.713488647714257E-4  -4.779459850396961E-4  
 2.652000000000000E10   -2.059021244349424E-5  -4.628777605830692E-5  
 2.654000000000000E10   -5.177657294552773E-5  -5.656861321767792E-5  
 2.656000000000000E10    4.382432089187205E-4   6.465273145295214E-6  
 2.658000000000000E10   -1.236391981365159E-4   2.892863703891635E-4  
 2.660000000000000E10   -2.828187425620854E-4  -2.208610967500135E-4  
 2.662000000000000E10    3.497243742458522E-4   1.125886628869921E-4  
 2.664000000000000E10    2.021120744757354E-4  -9.476036939304322E-5  
 2.666000000000000E10   -1.103606482502073E-4  -2.713606227189302E-4  
 2.668000000000000E10    9.448286436963826E-5   3.457527782302350E-5  
 2.670000000000000E10    3.797839162871242E-4   1.236391544807702E-4  
 2.672000000000000E10    2.263196511194110E-4  -3.073808329645544E-4  
 2.674000000000000E10   -5.831773523823358E-5   9.135481377597898E-5  
 2.676000000000000E10   -3.581366036087275E-4   2.634706906974316E-4  
 2.678000000000000E10    1.273685920750722E-4  -7.468534022336826E-5  
 2.680000000000000E10    9.806700836634263E-5   2.060842380160466E-4  
 2.682000000000000E10   -2.256857551401481E-4   1.792816183296964E-4  
 2.684000000000000E10   -3.556458250386640E-5  -3.494962948025204E-5  
 2.686000000000000E10    3.239526704419404E-4  -1.227397588081658E-4  
 2.688000000000000E10   -3.159474290441722E-4   1.940464717335999E-4  
 2.690000000000000E10    1.739676190481987E-5  -8.096460805973038E-5  
 2.692000000000000E10    1.716239203233272E-4   8.288400567835197E-5  
 2.694000000000000E10   -2.098671684507281E-4  -2.634881820995361E-4  
 2.696000000000000E10   -3.210958675481379E-4   2.399755321675912E-4  
 2.698000000000000E10   -2.634499978739768E-4   1.935480104293674E-4  
 2.700000000000000E10    2.719227632042021E-4  -1.666681200731546E-4  
 2.702000000000000E10   -1.264908059965819E-4  -4.979236982762814E-4  
 2.704000000000000E10   -7.028446998447180E-4  -1.659000554354861E-5  
 2.706000000000000E10   -1.604544377187267E-4   2.188952348660678E-4  
 2.708000000000000E10    9.223014785675332E-5   1.105939591070637E-4  
 2.710000000000000E10   -3.554282302502543E-4  -3.706306160893291E-4  
 2.712000000000000E10   -8.756312890909612E-4  -1.421669730916619E-5  
 2.714000000000000E10   -4.613226337824017E-4   1.066632466972806E-4  
 2.716000000000000E10    2.401045348960906E-4   1.094533145078458E-4  
 2.718000000000000E10   -2.022140979534015E-4  -1.379421883029863E-4  
 2.720000000000000E10    1.231868518516421E-4  -1.487853442085907E-4  
 2.722000000000000E10    1.324791664956138E-4   1.430424745194614E-4  
 2.724000000000000E10   -1.545266131870449E-4  -1.286646511289291E-5  
 2.726000000000000E10   -3.671464510262013E-4   3.512585535645485E-4  
 2.728000000000000E10    1.274463284062222E-4   1.571250759297982E-4  
 2.730000000000000E10    1.203294959850609E-4  -6.280057277763262E-5  
 2.732000000000000E10   -4.667799221351743E-4  -3.883235331159085E-4  
 2.734000000000000E10   -2.223460323875770E-4   1.285496109630913E-4  
 2.736000000000000E10    4.268405318725854E-4   2.138287673005834E-4  
 2.738000000000000E10    8.444114937447012E-4  -4.198643146082759E-4  
 2.740000000000000E10   -2.071328781312332E-4  -9.663708624430001E-5  
 2.742000000000000E10    2.299368134117685E-5   4.000811022706330E-4  
 2.744000000000000E10    6.794232176616788E-4   5.659647868014872E-4  
 2.746000000000000E10    4.559785593301058E-4  -2.238691013189964E-5  
 2.748000000000000E10   -1.189051326946355E-4   4.286320108803920E-5  
 2.750000000000000E10    2.765660428849515E-5   3.071359533350915E-4  
 2.752000000000000E10    6.488162907771766E-4   1.350764650851488E-4  
 2.754000000000000E10    6.223892560228705E-4  -3.001535078510642E-4  
 2.756000000000000E10    2.258936292491853E-4   2.407935971859843E-4  
