#  HZ   S   RI   R     50.00 
! Rohde & Schwarz ZVA40 4Ports - Version 3.90 - 1145.1110k42 SN: 100403
! Date: 2023-10-04 09:25:57
! Measurement: S12 
! 
 2.200000000000000E10   -7.893333677202463E-4  -5.349934799596667E-4  
 2.202000000000000E10   -3.297128423582763E-4   7.917757611721754E-4  
 2.204000000000000E10    4.197858797851950E-4   5.558119737543166E-4  
 2.206000000000000E10    5.167871713638306E-4  -1.055862056091428E-3  
 2.208000000000000E10   -4.935291945002973E-4  -1.201167688122951E-4  
 2.210000000000000E10   -6.066844216547906E-4   2.998319105245173E-4  
 2.212000000000000E10    5.829044966958463E-4   4.060538776684552E-4  
 2.214000000000000E10   -2.122504811268300E-4  -4.878742911387235E-4  
 2.216000000000000E10   -1.735640544211492E-4  -4.823996860068291E-4  
 2.218000000000000E10    1.893727858259808E-5   4.890984928351827E-5  
 2.220000000000000E10    2.876535872928798E-4  -2.155660622520372E-4  
 2.222000000000000E10   -2.048916503554210E-4  -2.080686826957390E-4  
 2.224000000000000E10    2.008532173931599E-4  -4.443645957508124E-5  
 2.226000000000000E10    3.077510918956250E-4   2.620708837639540E-4  
 2.228000000000000E10   -1.785786735126749E-4  -8.485356811434031E-4  
 2.230000000000000E10   -4.370094102341682E-4   3.075140557484701E-5  
 2.232000000000000E10   -2.183549368055537E-4   1.130270466092043E-4  
 2.234000000000000E10    7.399718160741031E-4  -3.967205120716244E-4  
 2.236000000000000E10   -6.930655945325270E-5  -6.918983417563140E-4  
 2.238000000000000E10   -3.842128207907081E-4  -3.098131273873150E-4  
 2.240000000000000E10    1.460846106056124E-4   6.135217263363302E-4  
 2.242000000000000E10    7.582191610708833E-4  -1.053145097102970E-4  
 2.244000000000000E10   -4.071877629030496E-4  -5.117864930070937E-4  
 2.246000000000000E10   -2.318713668501005E-4   6.425927949749166E-6  
 2.248000000000000E10    1.044217569869943E-4   5.314549780450761E-4  
 2.250000000000000E10   -3.722695691976696E-5   1.799533856683411E-5  
 2.252000000000000E10    8.332741708727554E-5  -4.199789545964450E-4  
 2.254000000000000E10   -3.061996176256798E-5   1.007175742415711E-4  
 2.256000000000000E10    1.985718554351479E-4  -4.911277792416513E-4  
 2.258000000000000E10    9.254171163775027E-5  -1.712693338049576E-4  
 2.260000000000000E10    9.427940676687285E-5   1.024880402837880E-4  
 2.262000000000000E10    4.281579749658704E-4  -4.451105196494609E-4  
 2.264000000000000E10    1.422921632183716E-4  -3.794114163611084E-4  
 2.266000000000000E10   -3.785932494793087E-4  -3.540697798598558E-4  
 2.268000000000000E10    2.865563874365762E-5   4.734177855425514E-5  
 2.270000000000000E10    3.357848327141255E-4  -3.183291992172599E-4  
 2.272000000000000E10   -3.057987851207145E-5  -6.783523131161928E-4  
 2.274000000000000E10   -3.383481525816023E-4  -4.249617923051119E-4  
 2.276000000000000E10   -2.282028872286901E-4   3.298086521681398E-4  
 2.278000000000000E10    1.845820661401376E-4  -4.919684142805636E-4  
 2.280000000000000E10    1.283988094655797E-4  -2.299961633980274E-4  
 2.282000000000000E10   -4.571940808091313E-4  -2.216528373537585E-4  
 2.284000000000000E10    1.254173985216767E-4   1.752232492435724E-5  
 2.286000000000000E10   -1.131784301833250E-4  -2.198891743319109E-4  
 2.288000000000000E10   -1.304731413256377E-4   9.199735359288752E-5  
 2.290000000000000E10    1.790430542314425E-4   1.143593181041069E-5  
 2.292000000000000E10    6.445946200983599E-5  -4.638353420887142E-4  
 2.294000000000000E10   -5.376910557970405E-4   3.939523958251812E-5  
 2.296000000000000E10   -2.565141185186803E-4   6.844387389719486E-4  
 2.298000000000000E10    5.286336527206004E-4   1.924503594636917E-4  
 2.300000000000000E10   -7.685304444748908E-5  -7.674125372432172E-4  
 2.302000000000000E10   -8.291814592666924E-4   1.863695615611505E-5  
 2.304000000000000E10   -3.809295885730535E-4   7.153609185479581E-4  
 2.306000000000000E10    4.727030755020678E-4   4.756633643410169E-5  
 2.308000000000000E10   -2.071308554150164E-4  -3.158091858495027E-4  
 2.310000000000000E10   -6.060209707356989E-4   7.024052138149273E-6  
 2.312000000000000E10   -3.082093899138272E-4   6.818270194344223E-4  
 2.314000000000000E10    2.365775726502761E-4   2.870523894671351E-4  
 2.316000000000000E10    2.588373026810587E-4   4.551449383143336E-4  
 2.318000000000000E10   -2.067286841338500E-4   1.925533142639324E-4  
 2.320000000000000E10    2.465553116053343E-4   6.166520506667439E-6  
 2.322000000000000E10   -5.903706914978102E-5   3.620456554926932E-4  
 2.324000000000000E10   -2.593990648165345E-4   4.964976105839014E-4  
 2.326000000000000E10    4.767030477523804E-4   4.844962386414409E-4  
 2.328000000000000E10    3.080493479501456E-4  -3.363518335390836E-4  
 2.330000000000000E10   -7.417412707582116E-4  -3.451580705586821E-4  
 2.332000000000000E10   -4.079837235622108E-4   7.184633868746460E-4  
 2.334000000000000E10    8.931441116146743E-4   5.930557963438332E-4  
 2.336000000000000E10    5.051295156590641E-4  -9.156675077974796E-4  
 2.338000000000000E10   -4.366937791928649E-4  -3.580233897082508E-4  
 2.340000000000000E10   -2.987080952152610E-4   1.026526675559580E-3  
 2.342000000000000E10    9.681809460744262E-4   8.629648946225643E-4  
 2.344000000000000E10    6.985211512073875E-4  -4.225710872560740E-4  
 2.346000000000000E10   -9.846527245827019E-5  -1.475992612540722E-4  
 2.348000000000000E10   -3.008448693435639E-4   6.322026601992548E-4  
 2.350000000000000E10    1.110754310502671E-4   1.640973932808265E-4  
 2.352000000000000E10    1.882936048787087E-4   1.485079410485923E-4  
 2.354000000000000E10   -1.115728664444760E-4  -9.384280565427616E-5  
 2.356000000000000E10    1.439550687791780E-4  -1.436397869838402E-4  
 2.358000000000000E10   -4.105327752768062E-5  -2.865699643734843E-4  
 2.360000000000000E10   -1.580754469614476E-4  -1.082952621800359E-5  
 2.362000000000000E10    4.261335707269609E-4   1.113443649956025E-4  
 2.364000000000000E10    6.848905468359590E-4  -4.172095796093345E-4  
 2.366000000000000E10   -4.415797011461109E-4  -7.504735840484500E-4  
 2.368000000000000E10   -3.949180536437780E-4   3.240490041207522E-4  
 2.370000000000000E10    4.854345170315355E-4   1.091919140890241E-3  
 2.372000000000000E10    8.115477394312620E-4  -3.826024185400456E-4  
 2.374000000000000E10   -3.384165174793452E-4  -6.614262238144875E-4  
 2.376000000000000E10   -9.474802645854652E-4   8.868307340890169E-4  
 2.378000000000000E10    4.377873265184462E-4   8.845838019624353E-4  
 2.380000000000000E10    7.774323457852006E-4  -2.933271171059459E-4  
 2.382000000000000E10   -4.667604807764292E-4  -7.562075043097138E-4  
 2.384000000000000E10   -5.387244164012373E-4   2.812922175507993E-4  
 2.386000000000000E10    1.366344513371587E-4   3.379598783794791E-4  
 2.388000000000000E10    8.711978443898261E-4  -1.076818807632662E-4  
 2.390000000000000E10   -1.283458987018094E-4  -1.349750964436680E-4  
 2.392000000000000E10    5.641523966914974E-5   1.865318481577560E-4  
 2.394000000000000E10   -2.600139705464244E-4   6.158612086437643E-4  
 2.396000000000000E10   -5.110964993946254E-4   3.450986114330590E-4  
 2.398000000000000E10    1.631795748835430E-4   7.007903186604381E-4  
 2.400000000000000E10    3.033979155588895E-4   3.669720317702740E-4  
 2.402000000000000E10   -3.927898942492902E-4  -4.662188584916294E-4  
 2.404000000000000E10   -6.186607643030584E-4   1.033597363857552E-4  
 2.406000000000000E10    5.115806707181037E-4   1.051331171765924E-3  
 2.408000000000000E10    8.051555487327278E-4  -3.819763951469213E-4  
 2.410000000000000E10    1.019004484987818E-4  -9.838895639404655E-4  
 2.412000000000000E10   -6.220018840394914E-4   2.159746509278193E-4  
 2.414000000000000E10    2.116602991009131E-4   6.993613787926734E-4  
 2.416000000000000E10    7.226379821076989E-4  -2.047658344963566E-4  
 2.418000000000000E10   -2.666386717464775E-4  -7.392909028567374E-4  
 2.420000000000000E10   -5.857880460098386E-4  -1.075522741302848E-4  
 2.422000000000000E10   -3.441715307417326E-5   2.749637933447957E-4  
 2.424000000000000E10   -3.112580452580005E-4  -1.350740640191361E-4  
 2.426000000000000E10    1.156445359811187E-4  -6.003410089761019E-4  
 2.428000000000000E10    1.210156915476546E-4  -5.219735248829238E-5  
 2.430000000000000E10    5.038069502916187E-5  -3.657680063042790E-4  
 2.432000000000000E10   -5.070603219792247E-4  -4.184607823844999E-4  
 2.434000000000000E10   -1.220587073476054E-4   3.000586584676057E-4  
 2.436000000000000E10    5.567189655266702E-4   2.465506840962917E-4  
 2.438000000000000E10    8.967375470092520E-5  -6.968055968172848E-4  
 2.440000000000000E10   -7.657877285964787E-4  -4.078381753060967E-4  
 2.442000000000000E10   -6.972381961531937E-4   6.808061152696610E-4  
 2.444000000000000E10    3.640797513071448E-4   4.195146902929992E-4  
 2.446000000000000E10    1.861285418272018E-4  -7.832389092072845E-4  
 2.448000000000000E10   -5.232512485235930E-4  -3.794223885051906E-4  
 2.450000000000000E10   -4.996166680939496E-4   2.251428813906387E-4  
 2.452000000000000E10    4.623130662366748E-4   5.681864568032324E-4  
 2.454000000000000E10    3.515145217534155E-4  -2.001430257223547E-4  
 2.456000000000000E10   -1.390571833326249E-5  -1.990673772525042E-4  
 2.458000000000000E10   -1.341453898930922E-4   2.387235726928338E-4  
 2.460000000000000E10   -1.759721053531393E-4   2.371882146690041E-4  
 2.462000000000000E10   -4.829453246202320E-5   2.018974919337779E-4  
 2.464000000000000E10    3.277729847468436E-4  -1.108619399019517E-4  
 2.466000000000000E10    3.373065919731744E-5  -2.972560469061136E-4  
 2.468000000000000E10   -3.002406810992397E-5  -5.285325460135937E-4  
 2.470000000000000E10    5.496167068486102E-5   9.603568469174206E-5  
 2.472000000000000E10    7.881861529313028E-4   1.112779937102459E-4  
 2.474000000000000E10    7.192050688900054E-4  -7.384463970083743E-5  
 2.476000000000000E10    2.477288362570107E-4  -3.880565927829593E-4  
 2.478000000000000E10   -5.241965118329972E-5   5.511664785444737E-4  
 2.480000000000000E10    3.234398900531232E-4   7.891577552072704E-4  
 2.482000000000000E10    7.332603563554585E-4   1.188249370898120E-5  
 2.484000000000000E10   -1.509268913650885E-4  -8.192177629098296E-4  
 2.486000000000000E10   -6.309078307822347E-4   6.393478543031961E-5  
 2.488000000000000E10    1.921438961289823E-4   2.436642971588299E-4  
 2.490000000000000E10    7.291135843843222E-4  -1.192467025248334E-4  
 2.492000000000000E10    4.102415114175528E-4  -4.833242273889482E-4  
 2.494000000000000E10   -6.583910726476461E-5  -1.719455030979589E-4  
 2.496000000000000E10   -1.529221190139651E-4   3.177754988428205E-4  
 2.498000000000000E10    2.951450005639345E-4   3.936343709938228E-4  
 2.500000000000000E10    1.602703414391726E-4   1.986170536838472E-4  
 2.502000000000000E10   -5.341821815818548E-5  -3.319559909868985E-4  
 2.504000000000000E10   -2.841213718056679E-4  -4.575822385959327E-4  
 2.506000000000000E10   -3.760909603442997E-4  -2.189980295952410E-4  
 2.508000000000000E10    5.972896542516537E-5  -8.425820851698518E-5  
 2.510000000000000E10    6.240509101189673E-4  -9.069470106624067E-4  
 2.512000000000000E10    2.861889697669540E-6  -6.482349126599729E-4  
 2.514000000000000E10   -6.863154703751206E-4  -4.509360296651721E-4  
 2.516000000000000E10    5.143418093211949E-5   3.040211740881205E-4  
 2.518000000000000E10    3.968184755649418E-4   7.321911834878847E-5  
 2.520000000000000E10    1.179590617539361E-4  -7.711646612733603E-4  
 2.522000000000000E10   -6.139125907793641E-4  -2.942338469438255E-4  
 2.524000000000000E10   -5.937736714258790E-4   1.884458761196584E-4  
 2.526000000000000E10    6.976640725042671E-5  -8.133287337841466E-5  
 2.528000000000000E10    6.784953438909724E-5  -3.568075771909207E-4  
 2.530000000000000E10   -2.186383499065414E-4  -4.662206338252872E-4  
 2.532000000000000E10   -2.130049397237599E-4  -1.893478183774278E-4  
 2.534000000000000E10   -1.549532753415406E-4   3.520741302054375E-4  
 2.536000000000000E10    1.663804141571745E-4   3.320158866699785E-4  
 2.538000000000000E10    3.297704970464110E-4  -2.675893774721772E-4  
 2.540000000000000E10    1.061429793480784E-4  -2.386529085924849E-4  
 2.542000000000000E10   -6.040239823050797E-4   1.714203244773671E-4  
 2.544000000000000E10   -5.631008207274135E-6   2.255299914395437E-4  
 2.546000000000000E10    2.736099122557789E-4  -1.742695349093992E-5  
 2.548000000000000E10    7.293179805856198E-5  -2.927433815784752E-4  
 2.550000000000000E10   -5.437000654637814E-4   8.090159826679155E-5  
 2.552000000000000E10   -4.768893413711339E-4   3.631764848250896E-4  
 2.554000000000000E10    6.258120411075652E-4   3.987718664575368E-4  
 2.556000000000000E10    2.869734016712755E-4   7.356223932220019E-7  
 2.558000000000000E10   -5.554660456255078E-4  -1.707558985799551E-4  
 2.560000000000000E10   -1.102096211980097E-4   5.968227633275092E-4  
 2.562000000000000E10    3.037493734154850E-4   4.794912529177964E-4  
 2.564000000000000E10   -1.304194756812649E-5  -7.898976764408872E-5  
 2.566000000000000E10   -2.956514945253730E-4   1.227960165124387E-4  
 2.568000000000000E10   -4.075359902344644E-4   4.081433871760964E-4  
 2.570000000000000E10    6.692732131341472E-5   4.344541521277279E-4  
 2.572000000000000E10   -3.162259963573888E-5   3.494671836961061E-4  
 2.574000000000000E10   -1.182271953439340E-4   2.829197619576007E-4  
 2.576000000000000E10   -6.716937059536576E-5   5.427006981335580E-4  
 2.578000000000000E10   -2.154132671421394E-4   5.298741743899882E-4  
 2.580000000000000E10   -4.764514742419124E-4   6.518041482195258E-4  
 2.582000000000000E10    2.269792603328824E-4   7.272659422596917E-5  
 2.584000000000000E10   -4.936819095746614E-5   2.133841735485476E-5  
 2.586000000000000E10   -7.492167642340064E-4   1.166464426205494E-4  
 2.588000000000000E10    1.154489800683223E-4   3.132915298920125E-4  
 2.590000000000000E10    4.210556653561071E-5   1.900813076645136E-4  
 2.592000000000000E10    1.444552181055769E-4  -3.043609613087028E-4  
 2.594000000000000E10   -3.280481905676425E-5   8.836523920763284E-5  
 2.596000000000000E10   -1.717221748549491E-4   3.472368407528848E-4  
 2.598000000000000E10    5.107356701046228E-4   2.646198263391852E-4  
 2.600000000000000E10    3.652212399174459E-5   4.129050284973346E-5  
 2.602000000000000E10   -5.746035603806377E-4  -1.793190021999180E-4  
 2.604000000000000E10   -4.228262332617305E-5   1.857036986621097E-4  
 2.606000000000000E10    3.987802483607084E-4  -1.381521142320707E-4  
 2.608000000000000E10    1.276666589546949E-4  -3.035229456145316E-4  
 2.610000000000000E10    2.690776600502431E-4  -7.909988926257938E-5  
 2.612000000000000E10    6.481017917394638E-4   1.422528730472550E-4  
 2.614000000000000E10    2.828913566190749E-4  -2.577675331849605E-4  
 2.616000000000000E10    1.773788244463503E-4  -2.727879327721894E-4  
 2.618000000000000E10    2.372227172600105E-4   1.771256575011648E-5  
 2.620000000000000E10    3.729783056769520E-4  -4.246900789439678E-4  
 2.622000000000000E10    2.514582884032279E-4  -3.140213084407151E-4  
 2.624000000000000E10    1.715178950689733E-4  -3.036828420590609E-4  
 2.626000000000000E10    5.779110942967236E-4  -3.936210414394736E-4  
 2.628000000000000E10    5.553186056204140E-4  -5.642556352540851E-4  
 2.630000000000000E10    1.409831893397495E-4  -1.834493450587615E-4  
 2.632000000000000E10    2.562015724834055E-4   1.852184323070105E-5  
 2.634000000000000E10    5.765884416177869E-4   1.760806662787218E-5  
 2.636000000000000E10    3.443093373789452E-5  -3.023085591848940E-4  
 2.638000000000000E10   -1.217471144627780E-4  -5.592828383669257E-4  
 2.640000000000000E10   -1.357027067570016E-4   1.211488270200789E-4  
 2.642000000000000E10    3.772930649574846E-4  -2.398010256001726E-4  
 2.644000000000000E10    6.229956052266061E-4  -5.075232475064695E-4  
 2.646000000000000E10    3.571220440790057E-5   2.457464142935351E-5  
 2.648000000000000E10    2.819789224304259E-4   7.229058974189684E-5  
 2.650000000000000E10    5.251341499388218E-4  -5.577690171776339E-5  
 2.652000000000000E10   -2.255561703350395E-4  -2.625931665534154E-5  
 2.654000000000000E10   -2.059464022750035E-4  -7.602690311614424E-5  
 2.656000000000000E10    2.714931724767666E-5   2.907629532273859E-4  
 2.658000000000000E10   -2.989828353747726E-4  -2.092795330099762E-4  
 2.660000000000000E10   -3.589667903725058E-4  -3.883235913235694E-4  
 2.662000000000000E10    4.291198274586350E-5   2.860218228306621E-4  
 2.664000000000000E10    1.520283549325541E-4   2.212338949902915E-5  
 2.666000000000000E10    2.446229336783290E-4  -8.057789818849415E-5  
 2.668000000000000E10   -1.086270799532940E-6   3.175250021740794E-4  
 2.670000000000000E10   -2.857308427337557E-4   2.510224585421383E-4  
 2.672000000000000E10   -1.207119930768386E-5   1.019143310259096E-4  
 2.674000000000000E10   -5.332292057573795E-4   9.832262003328651E-5  
 2.676000000000000E10   -6.678460049442947E-4  -2.018613595282659E-4  
 2.678000000000000E10    9.933185356203467E-5   2.456640140735544E-5  
 2.680000000000000E10   -1.223847648361698E-4   9.710810263641179E-5  
 2.682000000000000E10    5.798261918243952E-5  -1.949636061908677E-4  
 2.684000000000000E10   -2.513177969376557E-5   2.704715734580532E-5  
 2.686000000000000E10    4.675970412790775E-4   9.758487976796459E-6  
 2.688000000000000E10    9.320564277004451E-5  -2.162760501960293E-4  
 2.690000000000000E10   -6.879235297674313E-5   1.265435421373695E-4  
 2.692000000000000E10    1.292165106860921E-4   2.986458130180836E-4  
 2.694000000000000E10    3.389356133993715E-4  -1.946172706084326E-4  
 2.696000000000000E10   -1.880636591522489E-5  -2.327491529285908E-4  
 2.698000000000000E10   -2.913989301305264E-4  -1.124323607655242E-4  
 2.700000000000000E10    3.044475743081421E-4   1.519342331448570E-4  
 2.702000000000000E10    2.017717779381201E-4  -1.396711595589295E-4  
 2.704000000000000E10    3.645684773800895E-5  -4.384675121400505E-4  
 2.706000000000000E10   -4.030949639854953E-5  -2.320189814781770E-4  
 2.708000000000000E10    1.229388872161508E-4   1.903500960906968E-4  
 2.710000000000000E10    1.538786600576714E-4  -3.909283259417862E-4  
 2.712000000000000E10    3.764783032238483E-4   6.554981519002467E-5  
 2.714000000000000E10    4.054816599818878E-5  -2.046871122729499E-5  
 2.716000000000000E10    3.902727039530873E-4   1.576603390276432E-4  
 2.718000000000000E10    1.821475452743471E-4  -6.402825238183141E-5  
 2.720000000000000E10    1.709344360278919E-4   1.803251943783835E-4  
 2.722000000000000E10    3.961538823205046E-5   1.318179129157215E-4  
 2.724000000000000E10    1.157932056230493E-4  -4.139168595429510E-4  
 2.726000000000000E10   -4.260175046510994E-4  -3.012864035554230E-4  
 2.728000000000000E10    4.492960579227656E-5   1.920935028465465E-4  
 2.730000000000000E10    7.166925352066755E-4   2.678050950635225E-4  
 2.732000000000000E10    1.654348598094657E-4  -6.245896802283824E-4  
 2.734000000000000E10   -3.334503562655300E-4  -4.799228554475121E-5  
 2.736000000000000E10    5.123117080074735E-5   7.046074024401605E-4  
 2.738000000000000E10    4.575974016916007E-4   5.170177319087088E-4  
 2.740000000000000E10   -2.356909244554117E-4  -3.394118102733046E-4  
 2.742000000000000E10   -5.704005016013980E-4   5.860190140083432E-5  
 2.744000000000000E10   -5.950185004621744E-4   3.947340301238000E-4  
 2.746000000000000E10    8.008439181139693E-5  -4.433288995642215E-5  
 2.748000000000000E10   -2.457756781950593E-4  -1.396123116137460E-4  
 2.750000000000000E10   -1.136766950367019E-4   1.614141510799527E-4  
 2.752000000000000E10   -2.788094388961326E-5  -1.914199310704134E-5  
 2.754000000000000E10    1.204752970807022E-5  -1.944211689988151E-4  
 2.756000000000000E10   -2.552041260059923E-4   2.700573531910777E-4  
