#  HZ   S   RI   R     50.00 
! Rohde & Schwarz ZVA40 4Ports - Version 3.90 - 1145.1110k42 SN: 100403
! Date: 2023-10-04 09:25:40
! Measurement: S12 
! 
 2.200000000000000E10    5.228616064414382E-4  -5.865537677891552E-4  
 2.202000000000000E10   -3.330670006107539E-4  -6.804278818890452E-4  
 2.204000000000000E10   -4.714068782050163E-4  -2.279245818499476E-4  
 2.206000000000000E10    2.702073252294213E-4   4.808247012988431E-6  
 2.208000000000000E10   -4.764187615364790E-4  -6.062798784114420E-4  
 2.210000000000000E10   -2.609359034977388E-5  -1.807615190045908E-4  
 2.212000000000000E10    2.568672643974423E-4   5.363359814509749E-4  
 2.214000000000000E10    4.545708070509136E-4  -5.968165351077914E-4  
 2.216000000000000E10    1.027647158480249E-6  -1.166434303740971E-4  
 2.218000000000000E10   -5.415878258645535E-4   7.414259598590434E-4  
 2.220000000000000E10    8.880867389962077E-4   4.232188221067190E-4  
 2.222000000000000E10    2.244821953354403E-4  -5.267843371257186E-4  
 2.224000000000000E10   -8.760999189689755E-4  -3.947963996324688E-4  
 2.226000000000000E10   -4.788058868143708E-4   5.898847011849284E-4  
 2.228000000000000E10    7.683923467993736E-4   2.676947333384305E-4  
 2.230000000000000E10    2.681095502339304E-4  -6.022986490279436E-4  
 2.232000000000000E10   -3.251638554502279E-4  -1.832398265833035E-4  
 2.234000000000000E10   -5.267004235065542E-5   5.323395016603172E-4  
 2.236000000000000E10    8.321886707562953E-5   7.661706331418827E-5  
 2.238000000000000E10    2.831620622600894E-5  -5.692792547051795E-5  
 2.240000000000000E10   -5.047449958510697E-4   2.065748412860557E-4  
 2.242000000000000E10    1.478962367400527E-4  -1.229927584063262E-4  
 2.244000000000000E10   -1.729241776047275E-4  -1.623859570827335E-4  
 2.246000000000000E10   -5.713989958167076E-4   6.280460511334240E-4  
 2.248000000000000E10   -1.314136316068471E-4   4.919473431073129E-4  
 2.250000000000000E10    5.245496504358016E-5  -1.201565173687413E-4  
 2.252000000000000E10   -7.420296315103769E-4  -2.210533275501803E-4  
 2.254000000000000E10   -1.073851133696735E-3   4.076250770594925E-4  
 2.256000000000000E10    1.107842763303779E-4   8.544605807401240E-4  
 2.258000000000000E10    2.636751742102206E-4  -1.061703442246653E-4  
 2.260000000000000E10   -5.154961836524308E-4  -2.413420879747719E-4  
 2.262000000000000E10   -3.762973356060684E-4   7.634058711118996E-4  
 2.264000000000000E10    9.748890443006530E-5   9.884338360279799E-4  
 2.266000000000000E10    9.803707507671788E-5   9.719953959574923E-5  
 2.268000000000000E10   -1.401067274855450E-4   2.483086427673698E-4  
 2.270000000000000E10   -1.661506976233795E-4   1.733560930006206E-4  
 2.272000000000000E10    9.882533777272329E-5  -5.406686614151113E-5  
 2.274000000000000E10   -1.059607020579279E-4   2.950019843410701E-4  
 2.276000000000000E10   -5.167269591765944E-6   3.268300206400454E-4  
 2.278000000000000E10    7.121625239960849E-4  -2.936769305961207E-5  
 2.280000000000000E10   -2.165780024370179E-4   6.693113391520456E-5  
 2.282000000000000E10   -4.159635282121599E-4  -3.535057112458162E-5  
 2.284000000000000E10    3.654964966699481E-4   1.222432707436383E-3  
 2.286000000000000E10    3.024113539140672E-4  -1.424879301339388E-4  
 2.288000000000000E10   -4.532531966106035E-5  -1.727880298858509E-4  
 2.290000000000000E10   -7.680962444283068E-4   9.193491132464260E-5  
 2.292000000000000E10    4.379439051263034E-4   3.047664649784565E-4  
 2.294000000000000E10    5.941428244113922E-4  -2.282008208567277E-4  
 2.296000000000000E10    2.530788187868893E-4  -5.675135762430728E-4  
 2.298000000000000E10   -1.075858672265895E-4   1.004531150101684E-4  
 2.300000000000000E10    4.497923364397138E-4   9.144685463979840E-5  
 2.302000000000000E10   -1.550231536384672E-4   1.614066568436101E-4  
 2.304000000000000E10    2.000458480324596E-4  -1.779317681211978E-4  
 2.306000000000000E10    4.991224268451333E-4   1.385801733704284E-4  
 2.308000000000000E10   -4.008080868516117E-4  -6.774787325412035E-4  
 2.310000000000000E10    2.690689325390849E-5  -8.928834722610191E-5  
 2.312000000000000E10    1.304129255004227E-4   1.954880863195285E-4  
 2.314000000000000E10    9.002824081107974E-4  -3.772777563426644E-4  
 2.316000000000000E10   -2.564224705565721E-4  -8.814230095595121E-4  
 2.318000000000000E10   -1.437968312529847E-4   3.097754597547464E-5  
 2.320000000000000E10    3.754601930268109E-4   5.362906958907843E-4  
 2.322000000000000E10    5.488197784870863E-4  -2.129758941009641E-4  
 2.324000000000000E10   -4.180187825113535E-4  -6.022265879437327E-4  
 2.326000000000000E10   -7.611822802573443E-4  -4.048064874950796E-5  
 2.328000000000000E10    5.691057231160812E-5   3.309837484266609E-5  
 2.330000000000000E10    1.621765113668516E-4  -6.794707733206451E-4  
 2.332000000000000E10   -1.751969975885004E-4  -7.000062032602727E-4  
 2.334000000000000E10   -6.770026520825923E-4  -8.282418093585875E-6  
 2.336000000000000E10    4.976438140147366E-5   1.381916226819158E-4  
 2.338000000000000E10    2.385881380178034E-4  -1.124593472923152E-4  
 2.340000000000000E10   -4.107933491468430E-4  -2.771794388536364E-4  
 2.342000000000000E10    1.977374922716990E-4   1.206773158628494E-4  
 2.344000000000000E10   -4.285062459530309E-5  -1.618349779164419E-4  
 2.346000000000000E10   -3.987728850916028E-4   7.972464663907886E-5  
 2.348000000000000E10   -3.619788913056254E-4   4.492540028877556E-4  
 2.350000000000000E10    5.649055237881839E-4  -2.518351830076426E-4  
 2.352000000000000E10   -1.436046659364365E-5  -6.071602692827582E-4  
 2.354000000000000E10   -6.141405319795013E-4  -2.797858323901892E-4  
 2.356000000000000E10    3.427201882004738E-4   8.428366272710264E-4  
 2.358000000000000E10    8.795541943982244E-4  -1.131457902374677E-4  
 2.360000000000000E10    1.561900571687147E-4  -1.059556379914284E-3  
 2.362000000000000E10   -8.109851623885334E-4  -1.241343561559916E-4  
 2.364000000000000E10   -2.893440614570864E-5   6.767041631974280E-4  
 2.366000000000000E10    5.104438168928027E-4  -6.216661859070882E-5  
 2.368000000000000E10    1.133205369114876E-4  -7.359031587839127E-4  
 2.370000000000000E10   -1.024751923978329E-3  -4.023462242912501E-4  
 2.372000000000000E10   -4.356729550636374E-5   1.773755648173392E-4  
 2.374000000000000E10    1.121215391322039E-4   1.140447930083610E-4  
 2.376000000000000E10   -2.159290597774088E-4  -4.181319382041693E-4  
 2.378000000000000E10    3.250003283028491E-5  -3.085305506829172E-4  
 2.380000000000000E10   -3.862648154608905E-4  -3.033761749975383E-4  
 2.382000000000000E10   -4.235690284986049E-4  -5.966403841739520E-5  
 2.384000000000000E10   -7.385068602161482E-5   3.310637257527560E-4  
 2.386000000000000E10    3.439288993831724E-4   1.849535037763417E-4  
 2.388000000000000E10    4.022507346235216E-4  -4.085384425707161E-4  
 2.390000000000000E10   -7.734284154139459E-4  -2.678175515029579E-4  
 2.392000000000000E10   -2.758708142209798E-4   6.717561045661569E-4  
 2.394000000000000E10    8.030139724723995E-4   2.864666166715324E-4  
 2.396000000000000E10    4.424864018801600E-4  -6.942415493540466E-4  
 2.398000000000000E10   -6.069297087378800E-4   3.004318932653405E-5  
 2.400000000000000E10   -4.342133179306984E-4   6.304710404947400E-4  
 2.402000000000000E10    9.836755925789475E-4   2.347504196222872E-4  
 2.404000000000000E10    1.668393524596468E-4  -2.162834134651348E-4  
 2.406000000000000E10   -6.132801063358784E-4  -2.813615137711167E-4  
 2.408000000000000E10   -1.123300098697655E-4   4.033848526887596E-4  
 2.410000000000000E10    3.266113053541631E-4   3.935933054890484E-4  
 2.412000000000000E10    3.444982285145670E-4  -4.105015541426837E-4  
 2.414000000000000E10    3.508088120725006E-4  -1.795563439372927E-4  
 2.416000000000000E10    6.003613088978455E-5   1.969316508620977E-4  
 2.418000000000000E10    2.655588032212108E-4  -8.907947631087154E-5  
 2.420000000000000E10    2.398333599558100E-4   4.374829586595297E-4  
 2.422000000000000E10   -2.831918573065195E-5   4.434550355654210E-4  
 2.424000000000000E10    3.842211153823882E-4  -4.952134331688285E-4  
 2.426000000000000E10   -1.049639249686152E-4  -1.219244659296237E-4  
 2.428000000000000E10   -5.837690550833941E-4   5.857035866938531E-4  
 2.430000000000000E10    6.518113077618182E-4   2.949159825220704E-4  
 2.432000000000000E10    5.657681613229215E-4  -2.527487813495100E-4  
 2.434000000000000E10   -4.392230475787073E-4  -5.727614625357091E-4  
 2.436000000000000E10   -2.695319417398423E-4   4.188550810795277E-4  
 2.438000000000000E10    3.885423939209431E-4   4.359279118943960E-4  
 2.440000000000000E10    3.274644841440022E-4  -3.722898254636675E-4  
 2.442000000000000E10   -3.403105365578085E-4  -4.169516614638269E-4  
 2.444000000000000E10   -3.708919684868306E-4   1.462105410610093E-5  
 2.446000000000000E10   -2.854623016901314E-4   2.163691824534908E-4  
 2.448000000000000E10   -1.760787272360176E-4   1.935419277288020E-4  
 2.450000000000000E10   -2.173009270336479E-4   3.070686580031179E-5  
 2.452000000000000E10   -3.097183071076870E-4  -5.560409626923502E-4  
 2.454000000000000E10   -2.990707289427519E-4  -1.692896621534601E-4  
 2.456000000000000E10   -7.569243316538632E-4  -3.032976383110508E-5  
 2.458000000000000E10   -1.074972533388063E-4   4.274221737432526E-6  
 2.460000000000000E10    5.221663159318268E-4  -6.511851825052872E-5  
 2.462000000000000E10   -7.917459879536182E-5  -8.496012305840850E-4  
 2.464000000000000E10   -4.794153501279652E-4   4.961874583386816E-5  
 2.466000000000000E10   -2.920062688644975E-4   1.045066979713738E-3  
 2.468000000000000E10    7.146489224396646E-4   3.666604752652347E-4  
 2.470000000000000E10   -4.548278957372531E-5  -2.881491673178971E-4  
 2.472000000000000E10   -9.534772252663970E-4  -1.264183811144903E-5  
 2.474000000000000E10   -5.457618390209973E-4   4.550595767796040E-4  
 2.476000000000000E10    2.712323621381074E-4  -7.890874985605478E-5  
 2.478000000000000E10    1.228356122737750E-4  -2.716932212933898E-4  
 2.480000000000000E10    8.074230572674424E-5  -5.052963970229030E-4  
 2.482000000000000E10    1.562621037010104E-4  -1.871478161774576E-4  
 2.484000000000000E10   -7.728129276074469E-6  -8.679542952449992E-5  
 2.486000000000000E10    3.331564075779170E-4   9.337806841358542E-5  
 2.488000000000000E10   -1.667515971348621E-5   3.359346010256559E-5  
 2.490000000000000E10   -7.037733303150162E-5  -3.570897388271987E-4  
 2.492000000000000E10   -2.346119144931436E-4  -5.179458094062284E-5  
 2.494000000000000E10   -3.984552749898285E-4   2.171784144593403E-4  
 2.496000000000000E10    3.649916907306761E-4  -9.091805986827239E-5  
 2.498000000000000E10    2.513077924959362E-4  -4.161243268754333E-4  
 2.500000000000000E10   -3.382638387847692E-4  -4.460865748114884E-4  
 2.502000000000000E10   -5.528289329959080E-5   2.075335651170462E-4  
 2.504000000000000E10    3.860922879539430E-4   5.629357765428722E-4  
 2.506000000000000E10    1.496140466770157E-4  -3.242731618229300E-4  
 2.508000000000000E10   -3.176532627549022E-4  -4.282343725208193E-4  
 2.510000000000000E10   -2.673266280908138E-4   3.063670301344246E-4  
 2.512000000000000E10    1.175123543362133E-5   1.960351801244542E-4  
 2.514000000000000E10    3.536970179993659E-4  -1.566832652315497E-4  
 2.516000000000000E10   -1.751055824570358E-4  -2.019078056036960E-5  
 2.518000000000000E10   -1.670189667493105E-4  -1.701337314443663E-4  
 2.520000000000000E10   -3.096844739047810E-5   2.903503482230008E-4  
 2.522000000000000E10   -1.570365275256336E-4   4.549253208097071E-4  
 2.524000000000000E10   -7.968754653120413E-5  -3.769187605939806E-5  
 2.526000000000000E10   -1.767199864843860E-4   1.047720434144139E-4  
 2.528000000000000E10   -8.910621399991214E-4   1.078598434105516E-4  
 2.530000000000000E10   -4.444237856660038E-4   3.790980263147503E-4  
 2.532000000000000E10    2.783286618068814E-5   7.531063747592270E-4  
 2.534000000000000E10   -1.088005228666589E-4  -8.147649350576103E-5  
 2.536000000000000E10   -2.458949747961015E-4  -2.190646919189021E-4  
 2.538000000000000E10   -4.497308109421283E-4   8.856913773342967E-4  
 2.540000000000000E10   -4.324110341258347E-5   8.982551516965032E-4  
 2.542000000000000E10    4.451635759323835E-4   3.002899802595493E-6  
 2.544000000000000E10   -8.674810669617727E-5  -4.228061516187154E-5  
 2.546000000000000E10   -6.243915995582938E-4   4.122142854612321E-4  
 2.548000000000000E10    3.072550462093204E-4   4.759524017572403E-4  
 2.550000000000000E10    1.391734695062041E-4   1.273090892937034E-4  
 2.552000000000000E10    2.858726656995714E-4  -1.822335470933467E-4  
 2.554000000000000E10    2.521084097679704E-4   4.818575398530811E-4  
 2.556000000000000E10   -2.730760315898806E-4   3.448065035627224E-5  
 2.558000000000000E10    2.830409503076226E-4  -2.065155713353306E-4  
 2.560000000000000E10    3.108114178758115E-4   5.869976666872390E-5  
 2.562000000000000E10    2.734682639129460E-4  -2.283452777191997E-4  
 2.564000000000000E10    3.003698948305100E-4  -4.946963745169342E-4  
 2.566000000000000E10    3.074828055105172E-5  -8.591403457103297E-5  
 2.568000000000000E10    5.360629875212908E-4  -4.222461211611517E-5  
 2.570000000000000E10    6.881561130285263E-4  -4.082930681761354E-4  
 2.572000000000000E10   -1.190976836369373E-4  -6.187228136695921E-4  
 2.574000000000000E10    8.700062608113512E-5   7.925661338958889E-5  
 2.576000000000000E10    3.149195108562708E-4   1.545181003166363E-4  
 2.578000000000000E10    4.552696773316711E-4  -4.327435744926333E-4  
 2.580000000000000E10    3.392481085029431E-5  -6.833255756646395E-4  
 2.582000000000000E10   -6.370364280883223E-5  -4.172415719949640E-5  
 2.584000000000000E10    2.721804094107938E-6   1.941959635587409E-4  
 2.586000000000000E10    5.350515712052584E-4  -4.633719217963517E-4  
 2.588000000000000E10   -8.787913247942925E-5  -2.104880404658616E-4  
 2.590000000000000E10   -5.706434603780508E-4   8.160277502611280E-5  
 2.592000000000000E10    1.881687639979646E-4  -1.541584788355976E-5  
 2.594000000000000E10   -9.981793118640780E-5  -4.150656459387392E-4  
 2.596000000000000E10   -3.168548282701522E-4  -2.226666256319732E-4  
 2.598000000000000E10   -3.345390359754674E-5  -3.203798405593261E-5  
 2.600000000000000E10   -1.490499653300503E-5  -8.745882951188833E-5  
 2.602000000000000E10   -2.939091973530594E-5  -4.365324457467068E-6  
 2.604000000000000E10   -7.681889110244811E-5   6.061383173801005E-4  
 2.606000000000000E10   -2.751127176452428E-4   4.732932138722390E-4  
 2.608000000000000E10   -2.868215378839523E-4   8.380793588003144E-5  
 2.610000000000000E10   -3.050375380553305E-4   3.002510929945856E-4  
 2.612000000000000E10   -3.918338625226170E-4   4.867815587203950E-4  
 2.614000000000000E10   -5.216200952418149E-5  -1.450462877983227E-4  
 2.616000000000000E10   -1.245928142452613E-4  -1.377067819703370E-4  
 2.618000000000000E10   -4.541499365586788E-4   8.850293670548126E-5  
 2.620000000000000E10    1.395780564052984E-4   5.337580223567784E-4  
 2.622000000000000E10   -1.153673729277216E-4   2.304474473930895E-4  
 2.624000000000000E10   -4.667279717978090E-4  -2.081166021525860E-4  
 2.626000000000000E10   -5.232641706243157E-4   3.144765505567193E-4  
 2.628000000000000E10   -1.010580090223812E-4   2.009700983762741E-4  
 2.630000000000000E10   -5.513842097570887E-6  -2.628362562973052E-4  
 2.632000000000000E10   -2.814548788592219E-4  -3.655672189779580E-4  
 2.634000000000000E10   -2.221311115135904E-5   1.716154365567491E-4  
 2.636000000000000E10    2.518400433473289E-4  -8.769335545366630E-5  
 2.638000000000000E10    3.065642376895994E-4  -4.711688961833715E-5  
 2.640000000000000E10   -2.584272297099233E-4  -1.286385231651366E-4  
 2.642000000000000E10   -7.125195406842977E-5   1.189471513498575E-4  
 2.644000000000000E10   -6.532256520586088E-5   1.903379015857354E-4  
 2.646000000000000E10   -5.306560196913779E-4  -2.716127200983465E-4  
 2.648000000000000E10   -5.653933840221725E-5  -2.915948862209916E-4  
 2.650000000000000E10   -8.096700184978545E-5  -1.447098475182429E-4  
 2.652000000000000E10   -3.228419154766016E-5  -5.817662458866835E-4  
 2.654000000000000E10    8.713884017197415E-5  -3.098805609624833E-4  
 2.656000000000000E10   -2.571686345618218E-4  -1.186878434964456E-4  
 2.658000000000000E10    5.200054147280753E-4  -1.099751098081470E-4  
 2.660000000000000E10    1.689424098003656E-4   2.129464337485842E-5  
 2.662000000000000E10   -4.420773475430906E-4  -2.140465076081455E-4  
 2.664000000000000E10    1.258121919818223E-4   2.751930442173034E-4  
 2.666000000000000E10    3.536098811309785E-4  -1.327835489064455E-4  
 2.668000000000000E10   -1.866851671366021E-4  -3.626048855949193E-4  
 2.670000000000000E10   -1.262132718693465E-4  -1.484539534430951E-4  
 2.672000000000000E10    2.162411692552269E-4   2.855935017578304E-4  
 2.674000000000000E10    1.559920783620328E-4  -4.311890807002783E-4  
 2.676000000000000E10    2.392402820987627E-4  -1.356351858703420E-4  
 2.678000000000000E10   -3.013520326931030E-4   2.803165989462286E-4  
 2.680000000000000E10    3.973292186856270E-4   2.993066154886037E-4  
 2.682000000000000E10    2.943973522633314E-4  -4.910069037578069E-5  
 2.684000000000000E10   -8.877043001120910E-5  -6.275546184042469E-5  
 2.686000000000000E10   -2.105067251250148E-4   2.498731482774019E-4  
 2.688000000000000E10    2.191808598581702E-4   2.492498897481710E-4  
 2.690000000000000E10   -6.120244506746531E-5  -1.660974958213046E-4  
 2.692000000000000E10   -2.432138571748510E-4   1.712813536869362E-4  
 2.694000000000000E10    1.823248021537438E-4   6.228071870282292E-4  
 2.696000000000000E10    3.311071195639670E-4   2.453594061080366E-5  
 2.698000000000000E10   -1.084060495486483E-4  -1.627474557608366E-4  
 2.700000000000000E10   -3.238406497985125E-4   8.639122825115919E-5  
 2.702000000000000E10    8.116317076201085E-6   3.306882572360337E-4  
 2.704000000000000E10    1.858005853137001E-4  -2.570501819718629E-4  
 2.706000000000000E10   -3.595176094677299E-4   1.628079626243562E-4  
 2.708000000000000E10   -5.961003480479121E-4   1.523315295344219E-4  
 2.710000000000000E10    8.215328125515953E-5  -4.378764424473047E-5  
 2.712000000000000E10   -6.981383194215596E-4  -3.387186152394861E-4  
 2.714000000000000E10   -6.682343082502484E-4   3.497585566947237E-5  
 2.716000000000000E10   -4.966361666447483E-5   5.276352167129517E-4  
 2.718000000000000E10    4.278655687812716E-4  -3.750108298845589E-4  
 2.720000000000000E10   -5.971077916910872E-5  -3.682708193082362E-4  
 2.722000000000000E10   -3.700980450958014E-4   7.514785829698667E-5  
 2.724000000000000E10   -1.516640963927785E-6   4.738734278362244E-4  
 2.726000000000000E10    2.660122991073877E-4  -2.437639341223985E-4  
 2.728000000000000E10   -3.108175296802074E-4  -1.738611899781972E-5  
 2.730000000000000E10   -5.582391750067473E-4   2.043905406026170E-4  
 2.732000000000000E10    3.506312787067145E-4   1.488387351855636E-4  
 2.734000000000000E10    2.148377679986879E-4  -4.644153814297169E-4  
 2.736000000000000E10   -2.428533189231530E-4  -1.239963603438810E-4  
 2.738000000000000E10   -5.566803156398237E-5  -5.508045796887018E-5  
 2.740000000000000E10    4.147692525293678E-4   2.643663174239919E-5  
 2.742000000000000E10   -4.851474295719527E-5  -9.867417247733101E-5  
 2.744000000000000E10    8.552992949262261E-5   1.169511087937281E-4  
 2.746000000000000E10    2.418948133708909E-5   2.709570107981563E-4  
 2.748000000000000E10    1.263599551748484E-4  -2.333500015083700E-4  
 2.750000000000000E10   -3.412814403418452E-4   8.793924166639044E-7  
 2.752000000000000E10   -5.551302456296980E-5   1.739395956974477E-4  
 2.754000000000000E10    5.181789747439325E-4   1.317056885454804E-4  
 2.756000000000000E10    5.811256123706698E-4  -5.450484459288418E-4  
