#  HZ   S   RI   R     50.00 
! Rohde & Schwarz ZVA40 4Ports - Version 3.90 - 1145.1110k42 SN: 100403
! Date: 2023-10-04 09:25:22
! Measurement: S12 
! 
 2.200000000000000E10   -1.367081713397056E-4   9.715276974020526E-5  
 2.202000000000000E10   -2.316473983228207E-4  -2.237714943476021E-4  
 2.204000000000000E10   -6.658762576989830E-4   3.787476089200936E-5  
 2.206000000000000E10   -6.390525959432125E-5   2.382080128882080E-4  
 2.208000000000000E10    1.030632120091468E-4  -4.402294580359012E-4  
 2.210000000000000E10   -7.642805576324463E-4  -5.788288544863462E-4  
 2.212000000000000E10   -4.982376703992486E-4   7.099924259819090E-4  
 2.214000000000000E10    5.515068769454956E-4   1.607848244020715E-4  
 2.216000000000000E10    3.403610317036510E-4  -8.554789819754660E-4  
 2.218000000000000E10   -8.965056622400880E-4  -4.006555827800185E-4  
 2.220000000000000E10   -1.113270773203112E-4   1.088075572624803E-3  
 2.222000000000000E10    6.079484010115266E-4   4.544476687442511E-4  
 2.224000000000000E10    5.139326094649732E-4  -7.432829588651657E-4  
 2.226000000000000E10   -8.789235725998879E-4   1.282115263165906E-4  
 2.228000000000000E10   -5.190238589420915E-4   3.389011253602803E-4  
 2.230000000000000E10    5.790780996903777E-4   1.270787615794689E-4  
 2.232000000000000E10   -4.020806227345020E-4  -6.361036212183535E-4  
 2.234000000000000E10   -1.434216974303126E-4  -2.959872945211828E-4  
 2.236000000000000E10   -1.122105168178678E-4   2.394344628555700E-4  
 2.238000000000000E10   -5.245573629508726E-5  -3.053713880944997E-4  
 2.240000000000000E10    2.007291332120076E-4   5.341467913240194E-4  
 2.242000000000000E10    5.448745796456933E-4   4.746677877847105E-4  
 2.244000000000000E10    2.872916520573199E-4  -4.626541340257973E-5  
 2.246000000000000E10   -4.534296167548746E-4   4.528876161202788E-5  
 2.248000000000000E10   -3.419290587771684E-4   1.063380506820977E-3  
 2.250000000000000E10    4.400513425935060E-4   8.896019426174462E-4  
 2.252000000000000E10    4.400599573273212E-4  -2.580227446742356E-4  
 2.254000000000000E10   -4.721567675005645E-4  -2.476563677191734E-4  
 2.256000000000000E10   -3.572423302102834E-4   7.383124320767820E-4  
 2.258000000000000E10    7.894389564171433E-4   5.374677130021155E-4  
 2.260000000000000E10    5.497433012351394E-4   2.423237310722470E-5  
 2.262000000000000E10    2.393144241068512E-4  -7.981654925970361E-5  
 2.264000000000000E10    3.166051756124944E-4   8.460148237645626E-4  
 2.266000000000000E10    2.395278424955905E-4   3.905227640643716E-4  
 2.268000000000000E10    3.540823236107826E-4   2.076825039694086E-4  
 2.270000000000000E10    2.359938225708902E-4   3.628324775490910E-4  
 2.272000000000000E10    3.437201376073062E-4  -1.630943734198809E-4  
 2.274000000000000E10   -2.442956028971821E-4  -2.165445621358231E-4  
 2.276000000000000E10    8.770056592766196E-5  -2.095968666253611E-4  
 2.278000000000000E10    8.844464900903404E-4   2.813012979459018E-4  
 2.280000000000000E10    8.302468922920525E-4  -5.335782188922167E-4  
 2.282000000000000E10    2.547497861087322E-4  -2.722992503549904E-4  
 2.284000000000000E10   -1.254766684724018E-4   3.055011620745063E-4  
 2.286000000000000E10    4.927213885821402E-4   3.461820015218109E-4  
 2.288000000000000E10    3.023198514711112E-4   4.179523602942936E-5  
 2.290000000000000E10    1.213506984640844E-4  -5.468730232678354E-4  
 2.292000000000000E10   -3.636479959823191E-4   9.104266791837290E-5  
 2.294000000000000E10   -2.135064860340208E-4  -2.528045733924955E-4  
 2.296000000000000E10    2.371814771322534E-4   2.884630703192670E-5  
 2.298000000000000E10   -5.020232833885530E-7  -2.847775467671454E-4  
 2.300000000000000E10    2.877946244552732E-4  -3.340213443152607E-4  
 2.302000000000000E10   -4.032801662106067E-4  -1.565362472319976E-4  
 2.304000000000000E10   -2.778697817120701E-4   1.377151202177629E-4  
 2.306000000000000E10    2.054044016404077E-4   1.744115434121341E-4  
 2.308000000000000E10    2.492610074114054E-4  -5.891535547561944E-4  
 2.310000000000000E10   -4.487790865823627E-4  -3.544244100339711E-4  
 2.312000000000000E10   -5.556874093599618E-4  -1.107587740989402E-4  
 2.314000000000000E10   -2.761615542112850E-5   5.793758318759501E-4  
 2.316000000000000E10    1.047756522893906E-4  -5.738954059779644E-4  
 2.318000000000000E10   -2.215142449131236E-4  -4.049291892442852E-4  
 2.320000000000000E10   -7.520412327721715E-4  -1.572094042785466E-4  
 2.322000000000000E10    3.117806627415121E-4   9.572220733389258E-5  
 2.324000000000000E10    1.250325003638864E-4   2.625647757668048E-4  
 2.326000000000000E10   -2.289979311171919E-4  -4.654008953366429E-4  
 2.328000000000000E10   -4.131950263399631E-4  -1.432086537533905E-5  
 2.330000000000000E10   -5.681280745193362E-4   3.699937369674444E-4  
 2.332000000000000E10   -4.143589176237583E-4   4.105242987861857E-5  
 2.334000000000000E10    1.049649217748083E-4  -7.937748887343332E-5  
 2.336000000000000E10    1.469660492148250E-4  -3.090661994065158E-5  
 2.338000000000000E10   -3.816043026745319E-4  -2.624077606014907E-4  
 2.340000000000000E10   -2.130779757862911E-4   3.895608824677765E-4  
 2.342000000000000E10    2.377910277573392E-4   5.993036320433021E-4  
 2.344000000000000E10    3.827401960734278E-4  -7.660787377972156E-5  
 2.346000000000000E10   -3.018500865437090E-5  -4.212966305203736E-4  
 2.348000000000000E10   -6.268672877922654E-4   1.375653082504869E-4  
 2.350000000000000E10   -9.522316395305097E-5   6.718442309647799E-4  
 2.352000000000000E10    4.525771655607969E-4   5.333046374289552E-6  
 2.354000000000000E10   -2.496255328878760E-4  -6.969739333726466E-4  
 2.356000000000000E10   -9.252494201064110E-4  -8.635853737359867E-5  
 2.358000000000000E10   -2.148338535334915E-4   3.310999891255051E-4  
 2.360000000000000E10    2.834030892699957E-4  -2.327431138837710E-4  
 2.362000000000000E10    2.980533754453063E-4  -8.378371712751687E-4  
 2.364000000000000E10   -1.297764829359949E-4  -9.731328464113176E-5  
 2.366000000000000E10   -1.921872317325324E-4  -1.988812800846063E-5  
 2.368000000000000E10    2.585560723673552E-4   8.704360516276211E-5  
 2.370000000000000E10   -5.180810330784880E-5  -1.466287794755772E-4  
 2.372000000000000E10    4.203154458082281E-5  -2.471863699611276E-4  
 2.374000000000000E10   -2.473917847964913E-4  -1.535278424853459E-4  
 2.376000000000000E10   -1.778011210262775E-4  -2.302617358509451E-4  
 2.378000000000000E10    1.643099240027368E-4   1.263543090317398E-4  
 2.380000000000000E10    2.829841396305710E-4  -4.089727299287915E-4  
 2.382000000000000E10   -1.662343420321122E-4  -6.738199735991657E-4  
 2.384000000000000E10   -3.518367011565715E-4  -3.980618494097143E-4  
 2.386000000000000E10   -1.428442483302206E-4   3.859190619550645E-4  
 2.388000000000000E10    5.507238674908876E-4  -5.512578718480654E-5  
 2.390000000000000E10   -1.521628582850099E-4  -5.287310923449695E-4  
 2.392000000000000E10   -9.233225719071925E-4  -2.805481381074060E-5  
 2.394000000000000E10   -3.249105648137629E-4   1.034891931340098E-3  
 2.396000000000000E10    2.719133335631341E-4   2.355698597966693E-5  
 2.398000000000000E10    7.400679169222713E-5  -5.941664567217231E-4  
 2.400000000000000E10   -7.419330067932606E-4  -2.108301996486262E-4  
 2.402000000000000E10   -2.962912549264729E-4   4.316939157433808E-4  
 2.404000000000000E10    1.697355037322268E-5  -1.179500613943674E-4  
 2.406000000000000E10    1.333853433607146E-4  -5.732592544518411E-4  
 2.408000000000000E10   -2.740607596933842E-4  -1.153361081378534E-4  
 2.410000000000000E10    4.069102942594327E-6  -1.959270739462227E-4  
 2.412000000000000E10   -9.956675057765096E-5   3.184019296895713E-4  
 2.414000000000000E10   -2.430936874588952E-4   3.549303219188005E-4  
 2.416000000000000E10    3.393226070329547E-4  -2.429332198516931E-5  
 2.418000000000000E10    1.348872410744662E-5  -5.357225309126079E-4  
 2.420000000000000E10   -6.291157915256918E-4   1.000983393169008E-4  
 2.422000000000000E10   -2.206938370363787E-4   6.545893265865743E-4  
 2.424000000000000E10    6.842811126261950E-4   5.726214731112123E-4  
 2.426000000000000E10    4.353915865067393E-4  -3.646232653409243E-4  
 2.428000000000000E10   -3.212488663848490E-4  -2.095562194881495E-5  
 2.430000000000000E10   -8.333560253959149E-5   7.353630498982966E-4  
 2.432000000000000E10    5.276506417430937E-4   5.394497420638800E-4  
 2.434000000000000E10    6.505127530544996E-4  -3.172340802848339E-4  
 2.436000000000000E10   -7.322624878725037E-5   2.085301239276305E-4  
 2.438000000000000E10   -1.844019789132290E-5   2.666862274054438E-4  
 2.440000000000000E10    3.184712550137192E-4   5.099559202790260E-4  
 2.442000000000000E10   -1.222139107994735E-4  -8.336288738064468E-5  
 2.444000000000000E10    3.057053836528212E-4  -2.152656234102324E-4  
 2.446000000000000E10   -8.634018013253808E-5  -1.011513304547407E-4  
 2.448000000000000E10   -2.969384368043393E-4  -2.180579031119123E-4  
 2.450000000000000E10    1.374036073684692E-4   1.033152730087750E-4  
 2.452000000000000E10    5.415605264715850E-4   3.785116132348776E-4  
 2.454000000000000E10    1.706107723293826E-4   1.358900335617364E-4  
 2.456000000000000E10   -3.737502556759864E-4  -3.816791868302971E-4  
 2.458000000000000E10   -4.637107194866985E-4   5.232441471889615E-4  
 2.460000000000000E10   -2.180623559979722E-4   3.416194813326001E-4  
 2.462000000000000E10    2.849919546861202E-4  -4.105318221263588E-4  
 2.464000000000000E10   -6.256146589294076E-4  -2.728181425482035E-4  
 2.466000000000000E10   -4.112982715014368E-4  -2.179005241487175E-4  
 2.468000000000000E10    1.900304632727057E-4   4.205888253636658E-4  
 2.470000000000000E10   -6.921063322806731E-5   3.671946979011409E-5  
 2.472000000000000E10    4.355083001428284E-5  -3.182395303156227E-4  
 2.474000000000000E10   -2.077041281154379E-4   1.231116184499115E-4  
 2.476000000000000E10   -4.422329366207123E-4   1.939309004228562E-4  
 2.478000000000000E10   -1.696915569482371E-4   3.827922919299454E-4  
 2.480000000000000E10   -1.529085420770571E-4   7.903145888121799E-5  
 2.482000000000000E10   -3.301322285551578E-4  -1.887664548121393E-4  
 2.484000000000000E10   -4.081396036781371E-4  -3.656467306427658E-4  
 2.486000000000000E10   -1.857848692452535E-4  -1.134627018473111E-4  
 2.488000000000000E10    3.964852294302546E-5   1.347903744317591E-4  
 2.490000000000000E10    5.567560438066721E-4  -3.331481711938977E-4  
 2.492000000000000E10   -5.212186351855053E-6  -3.947025979869068E-4  
 2.494000000000000E10   -2.280595654156059E-4  -1.043851443682797E-5  
 2.496000000000000E10   -7.815020944690332E-5   6.812728825025260E-4  
 2.498000000000000E10    2.486841403879225E-4  -2.868360897991806E-4  
 2.500000000000000E10    6.764874706277624E-5  -5.320498603396118E-4  
 2.502000000000000E10   -5.283264326862991E-4  -2.388305729255080E-4  
 2.504000000000000E10   -2.345412940485403E-4   1.466929679736495E-4  
 2.506000000000000E10    4.204316937830299E-4   4.313604949857108E-5  
 2.508000000000000E10   -2.847377982106991E-5  -2.086959866574034E-4  
 2.510000000000000E10   -1.387019801768474E-5  -4.760402080137283E-4  
 2.512000000000000E10    2.702368947211653E-4   2.789660356938839E-4  
 2.514000000000000E10   -5.109961057314649E-5   2.337556798011065E-4  
 2.516000000000000E10    3.376257081981748E-4   4.601919135893695E-5  
 2.518000000000000E10    4.213360080029815E-4   2.262709313072264E-4  
 2.520000000000000E10   -6.968194793444127E-5  -2.609341208881233E-5  
 2.522000000000000E10   -2.036674413830042E-4  -4.060930677951546E-6  
 2.524000000000000E10    2.050760231213644E-4   5.449107266031206E-4  
 2.526000000000000E10    2.328589762328193E-4   3.153273719362915E-4  
 2.528000000000000E10    5.353311426006258E-4  -5.516251549124718E-4  
 2.530000000000000E10   -5.828131179441698E-5   5.974412124487571E-5  
 2.532000000000000E10   -4.027585091535002E-4   4.105325206182897E-4  
 2.534000000000000E10    7.945278193801642E-4   3.848397172987461E-4  
 2.536000000000000E10    6.004429887980223E-4   1.228761830134317E-4  
 2.538000000000000E10   -2.266311348648742E-4  -3.079875023104250E-4  
 2.540000000000000E10   -1.486737019149587E-4   4.748327482957393E-4  
 2.542000000000000E10    3.478823346085846E-4   5.219413433223963E-4  
 2.544000000000000E10    2.862138499040157E-4  -2.676397707546130E-5  
 2.546000000000000E10    9.739865345181897E-5   4.450175038073212E-5  
 2.548000000000000E10   -2.995768045366276E-5   2.389508299529553E-4  
 2.550000000000000E10    2.413139154668897E-4   7.960021321196109E-5  
 2.552000000000000E10    3.726163995452225E-4   2.259142202092335E-4  
 2.554000000000000E10    1.807647640816867E-4   1.280331198358908E-4  
 2.556000000000000E10    2.935708907898516E-4  -8.514708315487951E-5  
 2.558000000000000E10    1.876891474239528E-4   3.989472170360386E-4  
 2.560000000000000E10   -2.456873480696231E-4   4.647979803849012E-4  
 2.562000000000000E10    3.562440979294479E-4  -5.884683559997939E-5  
 2.564000000000000E10    2.022027547354810E-5   3.451676093391143E-6  
 2.566000000000000E10   -4.031261196359992E-4  -2.472584310453385E-4  
 2.568000000000000E10    1.342542236670852E-4   2.008124865824357E-4  
 2.570000000000000E10    2.670859976205975E-4   2.175285626435652E-4  
 2.572000000000000E10    2.848680014722049E-4  -4.161752876825631E-4  
 2.574000000000000E10   -3.416243998799473E-4  -2.845190465450287E-4  
 2.576000000000000E10   -1.262321165995672E-4   1.384061615681276E-4  
 2.578000000000000E10    4.435399314388633E-4  -3.410849240026437E-5  
 2.580000000000000E10   -1.239624689333141E-4  -6.438388954848051E-4  
 2.582000000000000E10   -4.011083801742643E-4  -4.546744748950005E-4  
 2.584000000000000E10   -2.689173270482570E-4  -2.333381053176709E-5  
 2.586000000000000E10    4.502942028921098E-4  -1.873079163488001E-4  
 2.588000000000000E10    1.659309491515160E-4  -5.137900006957352E-4  
 2.590000000000000E10   -1.692580553935841E-4  -3.927237412426621E-4  
 2.592000000000000E10    1.838032330852002E-4  -9.682973177405074E-5  
 2.594000000000000E10    1.472052390454337E-4  -1.576610375195742E-4  
 2.596000000000000E10   -1.820355973904952E-4  -5.978230183245614E-5  
 2.598000000000000E10   -1.348123041680083E-4  -1.523991522844881E-4  
 2.600000000000000E10    2.148413623217493E-4   1.164343848358840E-4  
 2.602000000000000E10   -3.497837315080687E-5  -2.481997653376311E-4  
 2.604000000000000E10   -2.085276501020417E-4  -3.768487658817321E-5  
 2.606000000000000E10    4.116965865250677E-4   7.966507837409154E-5  
 2.608000000000000E10    4.433244757819921E-4   2.442437689751387E-4  
 2.610000000000000E10   -7.601433026138693E-5  -2.198867587139830E-4  
 2.612000000000000E10   -4.717426199931651E-4   1.319827715633437E-4  
 2.614000000000000E10    1.461024803575128E-4   3.245070693083108E-4  
 2.616000000000000E10    2.421096141915768E-4  -1.041678624460474E-4  
 2.618000000000000E10   -2.922185231000185E-4  -4.452420689631254E-4  
 2.620000000000000E10   -3.301530668977648E-4   2.502463757991791E-4  
 2.622000000000000E10   -6.730556924594566E-5   2.873729099519551E-4  
 2.624000000000000E10    3.779093676712364E-4  -2.354280695726629E-5  
 2.626000000000000E10   -4.682788567151874E-4   4.677432298194617E-5  
 2.628000000000000E10   -5.609768559224904E-4   3.737555525731295E-4  
 2.630000000000000E10    8.642006287118420E-5   6.145771476440132E-4  
 2.632000000000000E10   -2.382836646575015E-5  -5.964386946288869E-5  
 2.634000000000000E10   -5.382676026783884E-4  -3.907206337316893E-5  
 2.636000000000000E10   -3.676689229905605E-4   3.185188325005584E-5  
 2.638000000000000E10    1.497362536611036E-4  -2.630471499287523E-5  
 2.640000000000000E10   -8.703970524948090E-5  -8.640176383778453E-5  
 2.642000000000000E10   -1.284782338188961E-4  -3.531584661686793E-5  
 2.644000000000000E10    1.272233112104004E-5   3.904261393472552E-4  
 2.646000000000000E10    1.693717495072633E-4  -1.428716495865956E-4  
 2.648000000000000E10    4.085582622792572E-5  -9.723386756377295E-5  
 2.650000000000000E10   -5.614963010884821E-4   1.350768434349448E-4  
 2.652000000000000E10   -7.375118730124086E-5   4.477051697904244E-5  
 2.654000000000000E10   -8.863794937497005E-5  -4.470686253625900E-4  
 2.656000000000000E10   -3.284464764874429E-4  -2.684554201550782E-4  
 2.658000000000000E10   -4.186823207419366E-4   3.371814673300833E-4  
 2.660000000000000E10    2.252666490676347E-6  -3.362824791111052E-4  
 2.662000000000000E10   -1.327954232692719E-4  -1.704040332697332E-4  
 2.664000000000000E10   -5.003386759199202E-4  -1.043516531353816E-4  
 2.666000000000000E10    9.068519284483045E-5   2.431040920782834E-4  
 2.668000000000000E10    1.979471198865213E-5  -3.398105618543923E-4  
 2.670000000000000E10   -9.468361531617120E-5  -5.019132513552904E-4  
 2.672000000000000E10   -2.984556485898793E-4   1.641123235458508E-4  
 2.674000000000000E10    2.476362569723278E-4   8.196826092898846E-5  
 2.676000000000000E10    5.102237992105074E-6  -1.168628004961647E-4  
 2.678000000000000E10   -5.938424874329940E-5  -2.444781130179763E-4  
 2.680000000000000E10   -2.438980882288888E-4   2.411367167951539E-4  
 2.682000000000000E10    3.521304170135409E-4   1.415162114426494E-4  
 2.684000000000000E10    1.805005158530548E-4  -2.893838391173631E-4  
 2.686000000000000E10   -2.235118299722672E-4  -3.498886653687805E-4  
 2.688000000000000E10   -2.500747214071453E-4   3.060743329115212E-4  
 2.690000000000000E10    5.251508555375040E-4  -4.542815077002160E-5  
 2.692000000000000E10    2.429574087727815E-4   5.604006582871079E-5  
 2.694000000000000E10   -3.829888883046806E-4  -2.622941101435572E-4  
 2.696000000000000E10    6.164018850540742E-5   5.921674892306328E-4  
 2.698000000000000E10    8.107890607789159E-5  -5.098201654618606E-5  
 2.700000000000000E10    1.816049625631422E-4  -6.705841224174947E-5  
 2.702000000000000E10   -3.864801547024399E-4   4.315070982556790E-4  
 2.704000000000000E10    5.934398504905403E-4   2.383298706263304E-4  
 2.706000000000000E10    2.682062222447712E-5  -2.076871023746207E-4  
 2.708000000000000E10    5.162741945241578E-5  -1.075089894584380E-4  
 2.710000000000000E10    6.170173583086580E-5   9.731424506753683E-4  
 2.712000000000000E10    2.179589937441051E-4   1.194060241687112E-4  
 2.714000000000000E10   -1.899992785183713E-4   1.745093177305535E-4  
 2.716000000000000E10   -4.187139857094735E-4   3.520884201861918E-4  
 2.718000000000000E10    9.412849612999708E-5   6.063532200641930E-4  
 2.720000000000000E10    1.570454769534990E-4  -3.250880108680576E-4  
 2.722000000000000E10   -2.284396032337099E-4  -6.823562580393627E-5  
 2.724000000000000E10   -2.751109423115850E-4   1.433138822903857E-4  
 2.726000000000000E10    3.864726750180125E-4   6.765791913494468E-4  
 2.728000000000000E10    2.701876219362021E-4  -1.043960801325738E-4  
 2.730000000000000E10   -1.119076187023893E-4  -4.240383077558363E-6  
 2.732000000000000E10   -6.339697865769267E-4   7.972755702212453E-4  
 2.734000000000000E10    4.223631403874606E-4   6.019724532961845E-4  
 2.736000000000000E10   -1.626632438274100E-4  -3.712863835971803E-4  
 2.738000000000000E10   -3.849997592624277E-4  -5.894260175409727E-5  
 2.740000000000000E10   -2.190085215261206E-4   3.376716049388051E-4  
 2.742000000000000E10    6.404284504242241E-4  -4.089190333615989E-4  
 2.744000000000000E10    4.805932985618711E-5  -6.097152072470635E-5  
 2.746000000000000E10   -3.938476947951131E-5  -3.765430301427841E-5  
 2.748000000000000E10    3.361639101058245E-4   2.165728656109422E-4  
 2.750000000000000E10    2.504505682736635E-4  -3.250028239563108E-4  
 2.752000000000000E10   -1.244197919731960E-4   2.044398861471564E-4  
 2.754000000000000E10   -1.517468044767156E-4   2.807405544444919E-4  
 2.756000000000000E10    6.020304281264544E-4   2.707514431676827E-5  
