#  HZ   S   RI   R     50.00 
! Rohde & Schwarz ZVA40 4Ports - Version 3.90 - 1145.1110k42 SN: 100403
! Date: 2023-10-04 09:25:05
! Measurement: S12 
! 
 2.200000000000000E10    9.845069143921137E-4  -1.639499969314784E-4  
 2.202000000000000E10    1.727195776766166E-4  -8.993263472802937E-4  
 2.204000000000000E10   -1.133635523729026E-3  -1.567249273648486E-4  
 2.206000000000000E10    2.447783772367984E-4   4.227681492920965E-4  
 2.208000000000000E10    9.683595271781087E-4  -4.638999816961587E-4  
 2.210000000000000E10    3.044503500859719E-5  -1.529517234303057E-3  
 2.212000000000000E10   -7.422587368637323E-4   2.167865604860708E-4  
 2.214000000000000E10    3.687624484882690E-5   7.195370271801949E-4  
 2.216000000000000E10    1.041803159750998E-3  -2.179712464567274E-5  
 2.218000000000000E10   -1.659169938648120E-4  -2.487828314770013E-4  
 2.220000000000000E10   -7.325610495172441E-4   2.081575075862929E-4  
 2.222000000000000E10    1.063783929566853E-4   1.516175543656573E-4  
 2.224000000000000E10    5.377932102419436E-4  -2.155227266484872E-4  
 2.226000000000000E10   -6.512550171464682E-4  -2.246437943540514E-4  
 2.228000000000000E10    4.019288753625006E-4  -2.059140824712813E-4  
 2.230000000000000E10    5.358029156923294E-4  -1.646425807848573E-4  
 2.232000000000000E10   -4.102598468307406E-4  -7.332526729442179E-4  
 2.234000000000000E10    2.151559456251562E-4   6.654540775343776E-4  
 2.236000000000000E10    1.461388019379228E-4   5.446978029794991E-4  
 2.238000000000000E10    5.468917661346495E-4  -1.080598332919180E-3  
 2.240000000000000E10   -5.044838762842119E-4  -6.634247256442905E-5  
 2.242000000000000E10   -8.176513365469873E-4   5.033177440054715E-4  
 2.244000000000000E10    5.961587303318083E-4  -8.663088374305517E-5  
 2.246000000000000E10    1.211008566315286E-4  -5.626502097584307E-4  
 2.248000000000000E10   -8.879298693500459E-4  -5.032723420299590E-4  
 2.250000000000000E10   -1.590208848938346E-4   2.730987034738064E-4  
 2.252000000000000E10    1.075806503649801E-4  -2.665639840415679E-5  
 2.254000000000000E10    2.215125423390418E-4  -5.923389107920229E-4  
 2.256000000000000E10   -2.731568238232285E-4  -2.622845349833369E-4  
 2.258000000000000E10   -4.083875101059675E-4  -2.761106879916042E-4  
 2.260000000000000E10   -4.160490061622113E-4   3.002277026098454E-6  
 2.262000000000000E10   -3.380753332749009E-5  -2.054580836556852E-4  
 2.264000000000000E10    2.036045189015567E-4   8.475522190565243E-5  
 2.266000000000000E10   -2.339510829187930E-4  -7.642001728527248E-4  
 2.268000000000000E10   -2.047531161224470E-4  -2.739854062383529E-5  
 2.270000000000000E10   -5.085948505438864E-4   4.049369017593563E-4  
 2.272000000000000E10    6.148502579890192E-4   5.630330633721314E-5  
 2.274000000000000E10   -3.617772381403484E-5   2.304438748979010E-5  
 2.276000000000000E10   -3.856359689962119E-4  -5.430144956335425E-4  
 2.278000000000000E10   -1.100387598853558E-4   5.001375684514642E-4  
 2.280000000000000E10    6.344731809804216E-5   3.039993462152779E-4  
 2.282000000000000E10    5.838252764078789E-5  -6.409989146050066E-5  
 2.284000000000000E10   -1.514574105385691E-4  -3.816402459051460E-4  
 2.286000000000000E10   -2.293117431690916E-4   2.548008924350143E-4  
 2.288000000000000E10   -4.813666164409369E-4  -1.433960278518498E-5  
 2.290000000000000E10    4.111157904844731E-4   6.888958523632027E-7  
 2.292000000000000E10   -1.325553603237495E-4   4.019756161142141E-4  
 2.294000000000000E10    6.553454295499250E-5  -6.155931623652577E-4  
 2.296000000000000E10    1.707568662823178E-5   3.567022213246673E-4  
 2.298000000000000E10   -4.590827156789601E-4   4.865896480623633E-4  
 2.300000000000000E10    4.158011579420418E-4   2.504375588614494E-4  
 2.302000000000000E10   -1.948892168002203E-4  -1.415155857102945E-4  
 2.304000000000000E10   -6.619344349019229E-4   9.484182373853400E-5  
 2.306000000000000E10   -3.088831144850701E-4   5.132915102876723E-4  
 2.308000000000000E10    1.201078412123025E-4   3.624683304224163E-4  
 2.310000000000000E10   -1.662011054577306E-4   5.072296335129067E-5  
 2.312000000000000E10    8.317980973515660E-5  -3.865869366563857E-4  
 2.314000000000000E10   -1.004910373012535E-4   2.769946004264057E-4  
 2.316000000000000E10   -2.822638198267669E-4   3.900610608980060E-4  
 2.318000000000000E10    5.670830723829567E-4   6.390448543243110E-4  
 2.320000000000000E10    9.140642941929400E-5  -1.003649049380329E-5  
 2.322000000000000E10   -9.024194878293201E-5   1.085724361473694E-4  
 2.324000000000000E10   -5.143746384419501E-4   4.045795940328389E-4  
 2.326000000000000E10   -2.395513147348538E-4   2.039575920207426E-4  
 2.328000000000000E10    4.268024058546871E-4   1.579845702508465E-4  
 2.330000000000000E10    1.155967183876783E-4  -4.573979240376502E-4  
 2.332000000000000E10   -3.085711796302348E-4  -4.021807981189340E-4  
 2.334000000000000E10   -1.380253379466012E-4   3.544540086295456E-4  
 2.336000000000000E10    4.405975923873484E-4   2.607471251394600E-4  
 2.338000000000000E10    5.229802918620408E-4  -2.590219664853066E-4  
 2.340000000000000E10    3.351529448991641E-5  -6.893013051012531E-5  
 2.342000000000000E10   -4.334005352575332E-4   4.496609326452017E-4  
 2.344000000000000E10    4.258027765899897E-4   6.246515549719334E-4  
 2.346000000000000E10    3.340229741297662E-4   3.506809589453042E-4  
 2.348000000000000E10   -4.953903844580054E-4  -3.518270677886903E-4  
 2.350000000000000E10   -3.865170292556286E-4  -7.232977077364922E-5  
 2.352000000000000E10   -1.660860143601894E-4   2.263950591441244E-4  
 2.354000000000000E10    2.934698131866753E-4   1.724422618281096E-4  
 2.356000000000000E10    2.515778760425746E-4  -3.785415610764176E-4  
 2.358000000000000E10    2.127304614987224E-4  -1.675493404036388E-4  
 2.360000000000000E10   -3.626202815212309E-4   2.099784469464794E-4  
 2.362000000000000E10    1.253006394108525E-5   1.114770129788667E-4  
 2.364000000000000E10    2.112636284437031E-4   4.470266867429018E-4  
 2.366000000000000E10   -7.937305781524628E-5  -5.179767613299191E-4  
 2.368000000000000E10   -3.189392155036330E-4  -1.680601271800697E-4  
 2.370000000000000E10   -5.822801031172276E-4   2.418773801764473E-4  
 2.372000000000000E10    4.355282871983945E-4   2.182895259466022E-4  
 2.374000000000000E10    3.923092735931277E-4  -1.154518977273256E-4  
 2.376000000000000E10   -2.280208864249289E-4  -4.863243666477501E-4  
 2.378000000000000E10   -6.627864786423743E-4   1.467679685447365E-4  
 2.380000000000000E10    1.191536430269480E-4   9.824979351833463E-4  
 2.382000000000000E10    3.067367943003774E-4   2.067487657768652E-4  
 2.384000000000000E10   -2.230483514722437E-4  -1.813447743188590E-4  
 2.386000000000000E10   -5.533787771128118E-4   4.296649422030896E-4  
 2.388000000000000E10    3.545442450558767E-5   3.802104038186371E-4  
 2.390000000000000E10    1.530032459413633E-4   1.128143480855215E-6  
 2.392000000000000E10    4.582905094139278E-4   7.162075053201988E-5  
 2.394000000000000E10    1.057670015143231E-4  -4.060129140270874E-5  
 2.396000000000000E10   -1.388139498885721E-4   1.983900801860727E-5  
 2.398000000000000E10    4.792625259142369E-4   6.551844417117536E-4  
 2.400000000000000E10    1.560601522214711E-4   2.226271317340434E-4  
 2.402000000000000E10    4.461432108655572E-4  -1.453325676266104E-4  
 2.404000000000000E10   -2.280428161611781E-4   3.507468863972463E-5  
 2.406000000000000E10   -5.412095924839377E-4   3.500343882478774E-4  
 2.408000000000000E10    3.750820178538561E-4   2.517456305213273E-4  
 2.410000000000000E10    5.039853276684880E-4  -4.027629911433905E-4  
 2.412000000000000E10    4.266472842573421E-6  -6.325310096144676E-4  
 2.414000000000000E10    1.241081918124110E-4  -1.462685322621837E-4  
 2.416000000000000E10    4.968543653376401E-4   8.424396510235965E-4  
 2.418000000000000E10    7.733198581263423E-4  -1.194793730974197E-4  
 2.420000000000000E10    4.631674382835627E-4  -3.586887032724917E-4  
 2.422000000000000E10   -4.841365735046566E-4   5.262757185846567E-4  
 2.424000000000000E10    1.617987727513537E-4   4.219898837618530E-4  
 2.426000000000000E10    6.515543791465461E-4   9.158154716715217E-5  
 2.428000000000000E10    1.465566747356206E-4  -5.145836621522903E-4  
 2.430000000000000E10   -7.754575199214742E-5  -6.184212979860604E-4  
 2.432000000000000E10   -1.188336536870338E-4  -2.012892218772322E-4  
 2.434000000000000E10    2.056579978670925E-4  -1.750059600453824E-4  
 2.436000000000000E10    4.321525047998875E-4  -1.784478372428566E-4  
 2.438000000000000E10    2.715292503125966E-4  -5.149390781298280E-4  
 2.440000000000000E10   -3.999872933491133E-5  -9.048708307091147E-5  
 2.442000000000000E10   -4.848940588999540E-4  -2.165485784644261E-4  
 2.444000000000000E10    3.529101013555192E-5   2.271996054332703E-4  
 2.446000000000000E10    1.540040684631094E-4  -1.599138777237386E-4  
 2.448000000000000E10   -3.012045344803482E-4  -7.511927979066968E-4  
 2.450000000000000E10   -7.206273148767650E-4  -3.917430003639311E-4  
 2.452000000000000E10   -2.381929662078619E-4  -3.964098868891597E-5  
 2.454000000000000E10    2.037909143837169E-4  -1.970965095097199E-4  
 2.456000000000000E10    1.954335311893374E-4  -7.538031204603612E-4  
 2.458000000000000E10   -1.150039388448931E-4  -4.103341489098966E-4  
 2.460000000000000E10   -3.556154842954129E-5   6.405009480658919E-5  
 2.462000000000000E10    1.232835929840803E-4   6.241989904083312E-4  
 2.464000000000000E10    2.347910049138591E-4   3.606650570873171E-4  
 2.466000000000000E10   -2.953589864773676E-5  -2.685591753106564E-4  
 2.468000000000000E10   -3.004206519108266E-4   1.206890447065234E-4  
 2.470000000000000E10   -3.274549089837819E-4   3.166328533552587E-4  
 2.472000000000000E10    1.330337399849668E-4   2.934156800620258E-4  
 2.474000000000000E10    1.906053075799719E-4  -2.461692747601774E-5  
 2.476000000000000E10    1.353504922008142E-5  -4.041330830659717E-4  
 2.478000000000000E10   -3.303785924799740E-4   1.050656719598919E-4  
 2.480000000000000E10   -2.280285698361695E-4   6.656587938778102E-4  
 2.482000000000000E10    3.370272461324930E-4   4.110468435101211E-4  
 2.484000000000000E10    4.000507469754666E-4  -5.099505142425187E-5  
 2.486000000000000E10   -2.726240782067180E-4   2.539690467528999E-4  
 2.488000000000000E10   -3.548003442119807E-4   5.430812016129494E-4  
 2.490000000000000E10    3.401808862690814E-5   4.624241264536977E-4  
 2.492000000000000E10    3.478269791230559E-4   3.180276689818129E-5  
 2.494000000000000E10    1.512512535555288E-4  -6.271085294429213E-5  
 2.496000000000000E10   -2.013013872783631E-4   2.521352143958211E-4  
 2.498000000000000E10    4.391499969642609E-4   1.250315981451422E-4  
 2.500000000000000E10    2.240758185507730E-4   2.460073446854949E-4  
 2.502000000000000E10    4.371363320387900E-4   1.196966477436945E-4  
 2.504000000000000E10    4.037438193336129E-4   2.758544542302843E-5  
 2.506000000000000E10   -1.678882108535618E-4   9.870660869637504E-5  
 2.508000000000000E10   -4.116553755011410E-4   2.628667862154543E-4  
 2.510000000000000E10    2.296437160111964E-4   6.874015525681898E-5  
 2.512000000000000E10    3.618016125983559E-5  -7.007866952335462E-5  
 2.514000000000000E10   -5.008747102692723E-4  -6.926819332875311E-4  
 2.516000000000000E10   -5.644155899062753E-4   3.409890632610768E-4  
 2.518000000000000E10   -1.704262649582233E-5   1.623019343242049E-4  
 2.520000000000000E10    7.502969237975776E-4  -2.328559203306213E-4  
 2.522000000000000E10   -3.696792991831899E-4  -4.511202860157937E-4  
 2.524000000000000E10   -5.513267242349684E-4  -1.213588766404428E-4  
 2.526000000000000E10   -3.298766969237477E-4   3.529827517922968E-4  
 2.528000000000000E10    2.780553186312318E-4  -1.771240495145321E-4  
 2.530000000000000E10   -5.017679650336504E-4  -4.325558838900179E-4  
 2.532000000000000E10   -7.029330008663237E-4  -5.352656589820981E-4  
 2.534000000000000E10   -2.131533110514283E-4  -1.213053692481481E-4  
 2.536000000000000E10   -1.399715838488191E-4  -3.922511241398752E-4  
 2.538000000000000E10   -1.578488627274055E-5  -3.941534087061882E-4  
 2.540000000000000E10   -2.802938797685783E-5  -1.896666653919965E-4  
 2.542000000000000E10   -4.793724292539991E-5  -2.774929162114859E-4  
 2.544000000000000E10   -2.917524216172751E-5  -6.126794323790819E-5  
 2.546000000000000E10    1.432742283213884E-5   1.096477426472120E-4  
 2.548000000000000E10    1.719016145216301E-4  -3.382666545803659E-5  
 2.550000000000000E10   -3.002784214913845E-4  -3.583192010410130E-4  
 2.552000000000000E10   -5.640601157210767E-4  -3.353773499839008E-4  
 2.554000000000000E10    6.419850979000330E-5   1.964034745469689E-4  
 2.556000000000000E10    2.832679601851851E-4  -3.098587039858103E-4  
 2.558000000000000E10    3.606734098866582E-4  -6.164860096760094E-4  
 2.560000000000000E10   -3.909790830221027E-4  -2.422729885438457E-4  
 2.562000000000000E10    2.232622937299311E-4   3.426186449360102E-4  
 2.564000000000000E10    5.324341473169625E-4   4.087469424121082E-4  
 2.566000000000000E10    4.653238647733815E-5  -5.826237611472607E-4  
 2.568000000000000E10   -2.820913796313107E-4   1.758335129125044E-4  
 2.570000000000000E10    1.200760671054013E-4   4.829315003007650E-4  
 2.572000000000000E10    4.813158011529595E-4   1.376075379084796E-4  
 2.574000000000000E10    3.123892238363624E-4  -3.378231485839933E-4  
 2.576000000000000E10    2.151485387003049E-4   1.005690719466656E-4  
 2.578000000000000E10    5.420840898295865E-5   3.588793915696442E-4  
 2.580000000000000E10    2.064036671072245E-4   4.087333218194544E-5  
 2.582000000000000E10    1.397505548084155E-4   1.865877275122330E-4  
 2.584000000000000E10   -8.242105832323432E-5   1.322489406447858E-4  
 2.586000000000000E10   -1.893295702757314E-4   1.079412322724238E-5  
 2.588000000000000E10   -2.347450790693983E-4   7.719895074842498E-5  
 2.590000000000000E10   -2.155737893190235E-4   1.504558313172311E-4  
 2.592000000000000E10    3.806378517765552E-4   6.586914969375357E-5  
 2.594000000000000E10   -1.047014120558742E-5  -1.272764056921005E-4  
 2.596000000000000E10   -1.792000111890957E-4  -9.241245425073430E-5  
 2.598000000000000E10    5.155823964742012E-5   6.298624793998897E-4  
 2.600000000000000E10    2.318923216080293E-4   1.930381549755111E-4  
 2.602000000000000E10   -5.766145477537066E-5  -2.390894951531664E-4  
 2.604000000000000E10   -5.989938508719206E-4   1.263919257326052E-4  
 2.606000000000000E10   -2.519142872188240E-4   5.540206329897046E-4  
 2.608000000000000E10    1.913320884341374E-4   1.566430000821129E-4  
 2.610000000000000E10    3.978414497396443E-6  -3.089790116064251E-4  
 2.612000000000000E10   -1.490935974288732E-4   7.939615170471370E-5  
 2.614000000000000E10    1.072137310984545E-4   4.000493790954351E-4  
 2.616000000000000E10    3.963777271565050E-4   2.155108813894913E-5  
 2.618000000000000E10   -2.797704109980259E-5  -3.668722638394684E-4  
 2.620000000000000E10   -3.351277264300734E-4   5.487166345119476E-5  
 2.622000000000000E10   -1.502611266914755E-4   5.186618182051461E-6  
 2.624000000000000E10    3.520430473145098E-4  -2.591643533378374E-5  
 2.626000000000000E10    2.226594369858503E-4  -1.630436745472252E-4  
 2.628000000000000E10    2.576155529823154E-4  -3.200494684278965E-4  
 2.630000000000000E10    2.508131437934935E-4   1.329521765001118E-4  
 2.632000000000000E10    6.282216781983152E-5  -2.067271125270054E-4  
 2.634000000000000E10    2.206593489972875E-4   1.056021792464890E-4  
 2.636000000000000E10   -7.651366468053311E-5   1.785788190318272E-4  
 2.638000000000000E10    3.124976356048137E-4   8.516707021044567E-5  
 2.640000000000000E10   -2.743651275523007E-4  -1.205312510137446E-4  
 2.642000000000000E10    5.637659796775552E-6   1.732243836158887E-4  
 2.644000000000000E10    6.884032336529344E-5   4.573180631268770E-4  
 2.646000000000000E10    5.218925070948899E-4  -2.623593027237803E-4  
 2.648000000000000E10    1.066803233698010E-4   3.355316584929824E-4  
 2.650000000000000E10    3.614835077314638E-5   2.430912136333063E-4  
 2.652000000000000E10    4.796909342985600E-4   5.571444053202868E-4  
 2.654000000000000E10    2.664554922375828E-4   2.718618452490773E-5  
 2.656000000000000E10   -3.510618262225762E-5  -1.244437444256619E-4  
 2.658000000000000E10   -4.005816590506584E-4  -1.290858654101612E-5  
 2.660000000000000E10    4.087365814484656E-4   5.385415861383081E-4  
 2.662000000000000E10    7.080124487401918E-5  -6.146776286186650E-5  
 2.664000000000000E10    1.649108889978379E-4  -8.041213004617021E-5  
 2.666000000000000E10   -3.661321243271232E-4   4.418143071234226E-4  
 2.668000000000000E10    2.409578446531668E-4   3.711190220201388E-5  
 2.670000000000000E10    3.979345422067127E-7  -3.899418152286671E-5  
 2.672000000000000E10   -5.809110007248819E-4  -1.603059208719060E-4  
 2.674000000000000E10   -4.290243377909064E-4   2.997888659592718E-4  
 2.676000000000000E10    3.441972658038139E-4  -1.022192300297320E-4  
 2.678000000000000E10    2.144958125427365E-4  -2.777430927380920E-5  
 2.680000000000000E10   -4.982866230420768E-4   9.030289947986603E-5  
 2.682000000000000E10    3.041387244593352E-4   4.667088796850294E-4  
 2.684000000000000E10   -9.115339344134554E-5   3.206703695468605E-5  
 2.686000000000000E10   -3.603204968385398E-4  -5.797719131805934E-5  
 2.688000000000000E10   -7.773785619065166E-4   2.859864907804877E-4  
 2.690000000000000E10   -6.260632653720677E-5   7.708557677688077E-5  
 2.692000000000000E10   -2.040707040578127E-4  -3.095005522482097E-4  
 2.694000000000000E10   -1.541637902846560E-4  -4.229169280733913E-4  
 2.696000000000000E10   -4.370127862785012E-4   3.501549654174596E-4  
 2.698000000000000E10    6.527364021167159E-4  -4.326440102886409E-4  
 2.700000000000000E10    1.506318949395791E-4  -1.429771509720013E-4  
 2.702000000000000E10   -3.497327270451933E-4  -1.612325140740722E-4  
 2.704000000000000E10    4.947301349602640E-4   3.006358747370541E-4  
 2.706000000000000E10    3.408610937185586E-4  -3.499967278912664E-4  
 2.708000000000000E10   -2.901491534430534E-4  -5.087103927507997E-4  
 2.710000000000000E10   -2.045903675025329E-4   5.406721538747661E-5  
 2.712000000000000E10    5.964569863863289E-4   1.914011518238112E-4  
 2.714000000000000E10    5.048125167377293E-4  -6.160822813399136E-4  
 2.716000000000000E10    1.231699279742315E-4  -4.018273320980370E-4  
 2.718000000000000E10    8.163495658664033E-5   4.520459915511310E-4  
 2.720000000000000E10    8.084540604613721E-4   1.080879083019681E-4  
 2.722000000000000E10    2.969541237689555E-4  -3.444746544118971E-4  
 2.724000000000000E10   -4.140290839131922E-4  -2.525650197640061E-4  
 2.726000000000000E10   -3.251830348744988E-4   3.122170455753803E-4  
 2.728000000000000E10    5.907982122153044E-4  -3.265636623837054E-4  
 2.730000000000000E10   -1.282392768189311E-4  -3.819047560682520E-5  
 2.732000000000000E10    4.118374636163935E-5  -3.895556146744639E-4  
 2.734000000000000E10    5.677329609170556E-4   3.953715495299548E-4  
 2.736000000000000E10    4.407340020406991E-5  -3.303890989627689E-4  
 2.738000000000000E10   -3.509452217258513E-4   1.665919116931036E-4  
 2.740000000000000E10   -4.152649125899188E-5   1.752335228957236E-4  
 2.742000000000000E10    5.514096119441092E-4   5.271023837849498E-5  
 2.744000000000000E10   -5.107926554046571E-4  -4.253119113855064E-4  
 2.746000000000000E10   -2.203611511504278E-4   1.725378206174355E-5  
 2.748000000000000E10   -8.912252087611705E-5   1.437278842786327E-4  
 2.750000000000000E10    5.796952173113823E-4  -3.280632954556495E-4  
 2.752000000000000E10   -3.001504519488663E-4  -3.024927864316851E-4  
 2.754000000000000E10    1.162922999355942E-4   1.584560668561608E-4  
 2.756000000000000E10    3.150358097627759E-4   6.079722079448402E-4  
