#  HZ   S   RI   R     50.00 
! Rohde & Schwarz ZVA40 4Ports - Version 3.90 - 1145.1110k42 SN: 100403
! Date: 2023-10-04 09:24:45
! Measurement: S12 
! 
 2.200000000000000E10    1.504468527855352E-4   5.279964534565806E-4  
 2.202000000000000E10    4.611834010574967E-4   7.905645179562271E-5  
 2.204000000000000E10   -4.791830724570900E-4  -3.976647567469627E-4  
 2.206000000000000E10   -1.019725004880456E-5   2.103169827023521E-4  
 2.208000000000000E10   -1.055196262313984E-4   2.890354953706265E-4  
 2.210000000000000E10    3.093414416071028E-4  -4.584426060318947E-4  
 2.212000000000000E10    4.642140993382782E-5   4.676716343965381E-4  
 2.214000000000000E10    6.563125498360023E-5  -4.224450094625354E-4  
 2.216000000000000E10    3.244054969400168E-4  -4.262184666004032E-4  
 2.218000000000000E10   -4.262727161403745E-4  -1.815117320802528E-5  
 2.220000000000000E10    1.909457205329090E-4   3.298386000096798E-4  
 2.222000000000000E10    3.394850064069033E-4  -1.951394551724661E-5  
 2.224000000000000E10   -1.732433011056855E-4  -3.210655413568020E-4  
 2.226000000000000E10   -9.351563057862222E-4   3.686396230477840E-4  
 2.228000000000000E10   -5.998854248900898E-6   7.735850522294641E-4  
 2.230000000000000E10    5.158416461199522E-4  -3.367275930941105E-4  
 2.232000000000000E10   -9.910477092489600E-5  -8.585424511693418E-4  
 2.234000000000000E10   -7.873353897593916E-4   2.524291921872646E-4  
 2.236000000000000E10    2.749917912296951E-4   1.075521140592173E-4  
 2.238000000000000E10    9.308037697337568E-4  -1.379525492666289E-4  
 2.240000000000000E10    1.739571889629588E-4   5.700339443137636E-6  
 2.242000000000000E10   -2.577968989498913E-4   8.037424413487315E-5  
 2.244000000000000E10    1.666285679675639E-4   1.632211933610961E-4  
 2.246000000000000E10   -1.166680158348754E-4   3.603252698667347E-4  
 2.248000000000000E10   -1.936039770953357E-4  -2.319869090570137E-4  
 2.250000000000000E10    3.042771422769874E-4   7.827679655747488E-5  
 2.252000000000000E10   -5.460035172291100E-4  -2.131479413947091E-4  
 2.254000000000000E10   -1.166640358860605E-4   2.431118673484889E-6  
 2.256000000000000E10    1.479692000430077E-4   3.359416150487959E-4  
 2.258000000000000E10    4.348426009528339E-4  -1.669041812419891E-4  
 2.260000000000000E10   -2.326735411770642E-4   3.704042455865420E-6  
 2.262000000000000E10   -3.244040708523244E-4   3.226529806852341E-4  
 2.264000000000000E10   -3.255108604207635E-4   7.735774270258844E-4  
 2.266000000000000E10    3.408028715057299E-5   2.346464316360652E-4  
 2.268000000000000E10    1.309478011535248E-5  -1.779193407855928E-4  
 2.270000000000000E10   -6.937031284905970E-4  -2.147184131899849E-4  
 2.272000000000000E10    4.901657666778192E-5   1.964274561032653E-4  
 2.274000000000000E10   -2.930908813141286E-4   2.004061097977683E-4  
 2.276000000000000E10    5.231947870925069E-4  -3.094109706580639E-4  
 2.278000000000000E10    5.580783181358129E-5   2.883977867895737E-5  
 2.280000000000000E10   -3.437394043430686E-4  -4.432764544617385E-4  
 2.282000000000000E10   -2.071527269436047E-4   3.630257851909846E-4  
 2.284000000000000E10    1.731258671497926E-4   1.596875663381070E-4  
 2.286000000000000E10    1.764361513778567E-4  -5.485497531481087E-4  
 2.288000000000000E10   -1.465776877012104E-4  -4.141847311984748E-4  
 2.290000000000000E10   -9.085222700377926E-5   1.485901157138869E-4  
 2.292000000000000E10    1.397186133544892E-4   6.338940875139087E-5  
 2.294000000000000E10    5.728591349907219E-4  -6.035635597072542E-4  
 2.296000000000000E10   -1.201012855744921E-4  -1.193450880236924E-4  
 2.298000000000000E10   -1.349547092104331E-4  -1.727173657855019E-4  
 2.300000000000000E10    3.366908640600741E-4   9.411696373717859E-5  
 2.302000000000000E10   -2.074787771562114E-4  -4.333353717811406E-5  
 2.304000000000000E10    3.534720162861049E-4  -5.036591319367290E-4  
 2.306000000000000E10    1.455303863622248E-4  -2.344142994843423E-4  
 2.308000000000000E10   -2.175960689783096E-4  -6.047168280929327E-4  
 2.310000000000000E10    6.394448064384051E-6  -3.876967093674466E-5  
 2.312000000000000E10    2.085758169414476E-4  -1.552294270368293E-4  
 2.314000000000000E10    5.253162235021591E-4  -1.931889564730227E-4  
 2.316000000000000E10   -4.697499389294535E-4  -7.024615770205855E-4  
 2.318000000000000E10   -3.779133839998394E-4   4.152711699134670E-5  
 2.320000000000000E10   -6.399499397957698E-5   4.302052257116884E-4  
 2.322000000000000E10    3.336993977427483E-4  -1.938757050083950E-4  
 2.324000000000000E10   -3.406047471798956E-4  -2.940858248621225E-4  
 2.326000000000000E10   -5.105601740069687E-4   2.590993826743215E-4  
 2.328000000000000E10    2.785931428661570E-5   5.919285467825830E-4  
 2.330000000000000E10    3.264331317041069E-4   2.731381300691282E-6  
 2.332000000000000E10    2.276579289173242E-5   4.167332008364610E-5  
 2.334000000000000E10   -1.970830344362184E-4  -4.764951881952584E-5  
 2.336000000000000E10    1.931709994096309E-4   3.326652586110868E-5  
 2.338000000000000E10    9.738829248817638E-5   4.957063938491046E-4  
 2.340000000000000E10    2.805193944368511E-4   3.150233533233404E-4  
 2.342000000000000E10    9.838618279900402E-5  -1.036882167682052E-4  
 2.344000000000000E10   -1.307885686401278E-4  -7.672884385101497E-5  
 2.346000000000000E10   -4.201973497401923E-4   5.171011434867978E-4  
 2.348000000000000E10    1.810552566894330E-5  -1.283898163819686E-4  
 2.350000000000000E10    5.938680260442197E-4   1.190265538753010E-4  
 2.352000000000000E10   -2.288977411808446E-4  -2.219258167315275E-4  
 2.354000000000000E10   -1.988150615943596E-4   5.050076288171113E-5  
 2.356000000000000E10   -1.668387703830376E-4   6.447536288760603E-4  
 2.358000000000000E10    5.763667286373675E-4   7.710025965934619E-5  
 2.360000000000000E10    9.781524568097666E-5  -7.712705992162228E-4  
 2.362000000000000E10   -3.260066441725940E-4  -4.553239850793034E-4  
 2.364000000000000E10    2.425274215056561E-5   4.445853992365301E-4  
 2.366000000000000E10    5.936125526204705E-4  -1.522067032055929E-4  
 2.368000000000000E10    3.282350080553442E-4  -2.329588023712859E-4  
 2.370000000000000E10   -4.410032706800848E-4  -3.502441686578095E-4  
 2.372000000000000E10   -2.097140823025256E-4   2.237330190837383E-4  
 2.374000000000000E10   -2.012949844356626E-4   4.018379258923233E-4  
 2.376000000000000E10   -3.976346124545671E-5  -3.613214066717774E-4  
 2.378000000000000E10   -1.396362349623814E-4  -4.104999825358391E-4  
 2.380000000000000E10   -6.536150467582047E-4  -3.174417652189732E-4  
 2.382000000000000E10   -3.824020095635206E-4   6.949977978365496E-5  
 2.384000000000000E10    3.395595995243639E-4   2.211250102845952E-4  
 2.386000000000000E10    2.028675371548161E-4  -4.125309933442622E-4  
 2.388000000000000E10   -9.186898387270048E-5  -2.475770306773484E-4  
 2.390000000000000E10   -4.114115727134049E-4   3.013894020114094E-4  
 2.392000000000000E10   -7.411453407257795E-5   2.678394666872919E-4  
 2.394000000000000E10    4.793584812432528E-4  -1.774692063918337E-4  
 2.396000000000000E10   -2.023247507167980E-4  -6.917594000697136E-4  
 2.398000000000000E10   -8.246169891208410E-4  -3.177729959134013E-4  
 2.400000000000000E10   -4.586079448927194E-4   4.821821494260803E-5  
 2.402000000000000E10    5.355129833333194E-4  -2.988982669194229E-5  
 2.404000000000000E10   -9.841839346336201E-5  -8.442311664111912E-4  
 2.406000000000000E10   -4.378529847599566E-4  -5.122191505506635E-4  
 2.408000000000000E10   -9.620768832974136E-5   6.066182977519929E-4  
 2.410000000000000E10    6.838423723820597E-5   2.008884621318430E-4  
 2.412000000000000E10    2.606902562547475E-4  -2.296888269484043E-4  
 2.414000000000000E10   -1.779276644811034E-4   4.446605089469813E-5  
 2.416000000000000E10   -6.866498151794076E-4  -1.568951993249357E-4  
 2.418000000000000E10   -2.705631486605853E-4  -4.517239722190425E-5  
 2.420000000000000E10    5.898772724322043E-5   3.994916041847318E-4  
 2.422000000000000E10   -1.788478948583361E-5  -2.116320101777092E-4  
 2.424000000000000E10    1.709915522951633E-4  -6.254171603359282E-4  
 2.426000000000000E10   -3.940084425266832E-4   2.401880046818405E-4  
 2.428000000000000E10   -1.131142107624328E-5   8.770576096139848E-5  
 2.430000000000000E10    9.253845782950521E-4   2.065564331132919E-4  
 2.432000000000000E10   -2.130600332748145E-4  -1.898439950309694E-4  
 2.434000000000000E10   -5.182361346669495E-4  -5.180260050110519E-4  
 2.436000000000000E10   -2.695015864446759E-4   6.689521251246333E-4  
 2.438000000000000E10    2.388745924690738E-4  -6.166465027490631E-5  
 2.440000000000000E10    1.744043547660112E-4  -6.018951535224915E-4  
 2.442000000000000E10   -7.164938142523170E-4  -1.767498615663499E-4  
 2.444000000000000E10   -8.204932237276807E-5   2.231298713013530E-4  
 2.446000000000000E10    2.243375784019008E-4   3.852648369502276E-4  
 2.448000000000000E10    1.503434941696469E-5   3.893381290254183E-5  
 2.450000000000000E10   -3.906574056600221E-5  -2.216491411672905E-4  
 2.452000000000000E10   -9.976480214390904E-5   1.731060547172092E-5  
 2.454000000000000E10   -1.054692693287507E-4   3.544264764059335E-4  
 2.456000000000000E10   -8.272447303170338E-5   1.081800110114273E-5  
 2.458000000000000E10    8.618138235760853E-5  -7.029771950328723E-5  
 2.460000000000000E10   -2.664040948729962E-4  -8.306169911520556E-5  
 2.462000000000000E10    7.672660285606980E-5   1.434839577996172E-5  
 2.464000000000000E10    2.702614619920496E-5   6.784163997508586E-4  
 2.466000000000000E10    2.216361463069916E-4   3.637087647803128E-4  
 2.468000000000000E10    2.647255605552346E-4   7.767140050418675E-5  
 2.470000000000000E10   -3.782934800256044E-4   6.785016012145206E-5  
 2.472000000000000E10   -6.301967659965158E-4   6.101357867009938E-4  
 2.474000000000000E10    5.496313679032028E-5   2.614423865452409E-4  
 2.476000000000000E10    4.182550474070013E-4   9.363785466121044E-6  
 2.478000000000000E10   -3.477641439530999E-4  -3.253440954722464E-4  
 2.480000000000000E10    1.543756516184658E-4   1.142840701504611E-4  
 2.482000000000000E10    3.172591095790267E-4   4.313656245358288E-4  
 2.484000000000000E10    5.630310624837875E-4  -6.153242429718375E-5  
 2.486000000000000E10    2.365885156905279E-4  -1.838415773818269E-4  
 2.488000000000000E10   -8.236488793045282E-5  -1.954126782948151E-4  
 2.490000000000000E10    9.742192196426913E-5   2.100286801578477E-4  
 2.492000000000000E10    2.736116002779454E-4   2.066902670776472E-4  
 2.494000000000000E10    1.902551011880860E-4  -6.934899283805862E-5  
 2.496000000000000E10    3.423467569518834E-4  -1.491097937105224E-4  
 2.498000000000000E10    2.790932921925560E-5  -1.368186640320346E-4  
 2.500000000000000E10   -4.639098769985139E-4  -1.383977069053799E-4  
 2.502000000000000E10    3.836281248368323E-4   2.002215915126726E-4  
 2.504000000000000E10    5.261541809886694E-4  -3.750071846297942E-5  
 2.506000000000000E10    1.655100350035355E-4  -5.235394928604364E-4  
 2.508000000000000E10   -2.749630075413734E-4  -3.032787062693387E-4  
 2.510000000000000E10    5.095766755403020E-5   4.203291900921613E-4  
 2.512000000000000E10    6.322485860437155E-4   2.526190946809948E-4  
 2.514000000000000E10    6.296916399151087E-4  -4.632055351976305E-4  
 2.516000000000000E10   -5.109534249641001E-4   7.400760659947991E-5  
 2.518000000000000E10   -2.947583270724863E-4   2.192938118241727E-4  
 2.520000000000000E10    3.503710904624313E-4   3.412355144973844E-4  
 2.522000000000000E10   -1.346338831353933E-4  -1.444407098460943E-4  
 2.524000000000000E10   -1.338167785434052E-4  -3.372170613147318E-4  
 2.526000000000000E10   -1.959824112418573E-5  -5.250918911769986E-5  
 2.528000000000000E10    1.325680059380829E-4  -1.326337660429999E-4  
 2.530000000000000E10    5.205240086070262E-5   1.626078301342204E-4  
 2.532000000000000E10    3.653310704976320E-4   2.661880280356854E-4  
 2.534000000000000E10    3.565101360436529E-5   9.395907545695081E-5  
 2.536000000000000E10   -3.509022644720972E-4   1.243393489858136E-4  
 2.538000000000000E10   -4.680478305090219E-4   7.966998964548111E-4  
 2.540000000000000E10    5.705359217245132E-5   5.083458963781595E-4  
 2.542000000000000E10    6.662968371529132E-5  -2.440819953335449E-4  
 2.544000000000000E10   -5.447803414426744E-4  -2.900967083405703E-4  
 2.546000000000000E10   -5.572175723500550E-4   2.037592057604343E-4  
 2.548000000000000E10    6.308616138994694E-4   4.795754211954773E-4  
 2.550000000000000E10    4.609641619026661E-4  -1.883804507087916E-4  
 2.552000000000000E10   -2.437937218928710E-4  -5.681285983882844E-4  
 2.554000000000000E10   -2.489606849849224E-4   9.716950589790940E-4  
 2.556000000000000E10    7.474528956663562E-6   6.178881158120930E-4  
 2.558000000000000E10    4.625830624718219E-4  -2.112680085701868E-4  
 2.560000000000000E10   -4.206640587653965E-4  -1.671988575253636E-4  
 2.562000000000000E10   -3.201753715984523E-4   5.297142251947662E-6  
 2.564000000000000E10   -2.430482163617853E-5  -3.058415313716978E-5  
 2.566000000000000E10    4.832666309084743E-4  -4.889240371994674E-4  
 2.568000000000000E10    1.272311346838251E-4  -1.482233437855030E-5  
 2.570000000000000E10   -1.088666758732870E-4   1.858567702583969E-5  
 2.572000000000000E10    2.208885707659647E-4   2.252750418847427E-4  
 2.574000000000000E10    1.159355160780251E-4   8.237479778472334E-5  
 2.576000000000000E10   -9.256874909624457E-5   2.110309869749472E-4  
 2.578000000000000E10   -2.580118889454752E-4  -4.944145330227912E-4  
 2.580000000000000E10   -3.803335130214691E-5  -6.543092895299196E-4  
 2.582000000000000E10   -1.052361621987075E-4  -2.169313229387626E-4  
 2.584000000000000E10    1.561079407110810E-4  -2.263290080009028E-4  
 2.586000000000000E10    5.169522482901812E-4  -4.865323426201940E-4  
 2.588000000000000E10    7.682755676796660E-5  -4.505373653955758E-4  
 2.590000000000000E10   -5.810577931697480E-5  -3.168861439917237E-5  
 2.592000000000000E10    3.797272511292249E-4   3.155630547553301E-4  
 2.594000000000000E10    2.277036401210353E-4  -3.905352205038071E-4  
 2.596000000000000E10   -3.013633249793202E-5  -5.586671177297831E-4  
 2.598000000000000E10   -7.778996223350987E-5   1.951591548277065E-4  
 2.600000000000000E10    1.399169850628823E-4  -1.095078187063336E-5  
 2.602000000000000E10    5.845876294188201E-4  -2.203241747338325E-4  
 2.604000000000000E10    9.475733531871811E-5  -2.776667133730371E-5  
 2.606000000000000E10   -1.270655775442720E-4   1.530197041574866E-4  
 2.608000000000000E10    3.497175930533558E-5   1.696779945632443E-4  
 2.610000000000000E10    2.762684016488493E-4   9.374794171890244E-5  
 2.612000000000000E10   -3.882177697960287E-4   2.689687607926317E-5  
 2.614000000000000E10   -2.246380608994514E-4  -3.184064698871225E-4  
 2.616000000000000E10   -9.993925777962431E-5   2.988484629895538E-4  
 2.618000000000000E10   -2.445753780193627E-4  -1.633920473977923E-4  
 2.620000000000000E10    8.320621418533847E-5   1.263330341316760E-4  
 2.622000000000000E10   -3.308358136564493E-4   1.545125560369343E-4  
 2.624000000000000E10   -3.536150907166302E-4   1.988432923099026E-4  
 2.626000000000000E10   -1.712457160465419E-4   4.186971927993000E-4  
 2.628000000000000E10    1.694592501735315E-4   1.211292474181391E-4  
 2.630000000000000E10   -3.428537456784397E-4  -4.010103657492437E-5  
 2.632000000000000E10   -1.423711946699768E-4  -3.365721786394715E-4  
 2.634000000000000E10   -1.418720785295591E-4   3.906165948137641E-4  
 2.636000000000000E10   -1.118855725508183E-4  -1.195718359667808E-4  
 2.638000000000000E10    2.753605367615819E-4   2.340594801353291E-4  
 2.640000000000000E10   -3.321685362607241E-4  -8.560301648685709E-5  
 2.642000000000000E10   -1.037194670061581E-4   1.742598760756664E-5  
 2.644000000000000E10   -4.032882279716432E-4   4.011982236988843E-4  
 2.646000000000000E10    2.123220328940079E-4  -2.805828808050137E-5  
 2.648000000000000E10   -2.208094956586137E-4  -3.480055893305689E-4  
 2.650000000000000E10   -1.596280926605687E-4  -3.425285976845771E-4  
 2.652000000000000E10   -1.343550102319568E-4   2.184032346121967E-4  
 2.654000000000000E10    6.456378614529967E-4  -2.028562157647684E-4  
 2.656000000000000E10    3.028843202628195E-4  -7.467185059795156E-5  
 2.658000000000000E10   -2.139849384548143E-4  -2.504672447685152E-4  
 2.660000000000000E10    5.641627649310976E-5   7.825325592420995E-4  
 2.662000000000000E10    2.666288055479527E-4  -1.277617557207122E-4  
 2.664000000000000E10    4.118449214729480E-5  -1.385623327223584E-4  
 2.666000000000000E10   -3.523699415381998E-4  -3.584574442356825E-4  
 2.668000000000000E10    4.729751090053469E-4  -3.722073961398564E-5  
 2.670000000000000E10    2.392224996583536E-4  -1.755897537805140E-4  
 2.672000000000000E10    3.533920389600098E-4  -2.205904456786811E-4  
 2.674000000000000E10   -2.578472049208358E-5   6.843639857834205E-5  
 2.676000000000000E10    3.874326066579670E-4   1.559007068863139E-4  
 2.678000000000000E10   -1.969910663319752E-4   1.006901293294504E-4  
 2.680000000000000E10    1.197698002215475E-4  -6.825260061305016E-5  
 2.682000000000000E10    4.944425018038601E-5   3.357472305651754E-4  
 2.684000000000000E10    3.945925273001194E-4  -4.002540663350374E-4  
 2.686000000000000E10    2.742061333265156E-4  -2.117621770594269E-4  
 2.688000000000000E10   -1.068643323378637E-4  -8.725537918508053E-5  
 2.690000000000000E10    5.231720278970897E-4   3.427311021368951E-4  
 2.692000000000000E10    3.880596777889878E-4  -4.180820542387664E-4  
 2.694000000000000E10    9.986964869312942E-5   2.139044954674318E-5  
 2.696000000000000E10   -3.557485470082611E-4   1.954802137333900E-4  
 2.698000000000000E10    3.612654400058091E-4  -1.443550627300283E-5  
 2.700000000000000E10   -1.928539713844657E-4  -2.871449978556484E-4  
 2.702000000000000E10   -1.432406133972108E-4  -3.839993732981384E-4  
 2.704000000000000E10   -2.461910844431259E-5   1.765789784258232E-4  
 2.706000000000000E10    2.760633360594511E-4  -1.341058523394167E-4  
 2.708000000000000E10   -3.622559015639126E-4  -6.497129215858877E-4  
 2.710000000000000E10   -3.598861221689731E-4   1.319793082075194E-4  
 2.712000000000000E10   -5.010057939216495E-4   6.239071954041719E-4  
 2.714000000000000E10    3.547367232386023E-4  -2.191183739341795E-4  
 2.716000000000000E10   -5.048159509897232E-4   2.350477006984875E-5  
 2.718000000000000E10   -5.635452689602971E-4  -2.371231821598485E-4  
 2.720000000000000E10    1.905855751829222E-4   3.436370461713523E-4  
 2.722000000000000E10   -6.277994543779641E-5  -6.233577150851488E-4  
 2.724000000000000E10   -2.708832325879484E-4  -3.738428058568388E-4  
 2.726000000000000E10   -3.513051779009402E-4   1.194222495541908E-4  
 2.728000000000000E10    1.810111134545878E-4   2.127450134139508E-4  
 2.730000000000000E10   -3.324165008962154E-4  -3.056769201066345E-4  
 2.732000000000000E10   -1.424537549610250E-5   9.946095815394074E-5  
 2.734000000000000E10   -2.849363663699478E-4   1.970685843843967E-4  
 2.736000000000000E10    2.841769019141793E-4  -4.255090898368508E-4  
 2.738000000000000E10   -5.413219332695007E-4   3.602241849876009E-5  
 2.740000000000000E10   -7.879563781898469E-5   1.176503719761968E-4  
 2.742000000000000E10    2.355055767111480E-4   4.002839268650860E-4  
 2.744000000000000E10    4.483566590351984E-5  -4.088761925231665E-4  
 2.746000000000000E10   -4.240851267240942E-4   1.243670849362388E-4  
 2.748000000000000E10   -1.395641156705096E-4   4.527030396275222E-4  
 2.750000000000000E10    6.016077823005617E-4   4.728883504867554E-4  
 2.752000000000000E10    1.908875274239108E-4  -6.123580387793481E-4  
 2.754000000000000E10   -3.422943409532309E-4   2.610673254821450E-4  
 2.756000000000000E10   -1.711890363367274E-4   5.319908377714455E-4  
