#  HZ   S   RI   R     50.00 
! Rohde & Schwarz ZVA40 4Ports - Version 3.90 - 1145.1110k42 SN: 100403
! Date: 2023-10-04 09:24:30
! Measurement: S12 
! 
 2.200000000000000E10   -6.546493386849761E-4  -1.849352543104033E-6  
 2.202000000000000E10   -2.436543036310468E-5   2.214382257079706E-4  
 2.204000000000000E10   -7.746270421193913E-5  -2.745811798376963E-5  
 2.206000000000000E10    1.590703323017806E-4  -2.929744077846408E-4  
 2.208000000000000E10   -1.594554632902145E-4  -8.199101430363953E-4  
 2.210000000000000E10   -6.164079240988940E-5  -5.603898898698390E-4  
 2.212000000000000E10    7.740025466773659E-5   2.082965947920457E-4  
 2.214000000000000E10    5.901946569792926E-4  -4.160389071330428E-4  
 2.216000000000000E10    3.710928140208125E-4  -6.451019435189664E-4  
 2.218000000000000E10   -6.035382393747568E-4  -3.690804878715426E-4  
 2.220000000000000E10   -5.171453231014311E-4   6.170991109684110E-4  
 2.222000000000000E10   -5.336588583304547E-5   4.583301197271794E-4  
 2.224000000000000E10    8.149578206939623E-5  -3.545727522578090E-4  
 2.226000000000000E10   -5.194016848690808E-4  -2.398949145572260E-4  
 2.228000000000000E10   -4.391206311993301E-4   4.261694994056597E-5  
 2.230000000000000E10    2.523111106711440E-5   1.103768154280260E-4  
 2.232000000000000E10    5.763779045082629E-4   3.103409835603088E-4  
 2.234000000000000E10    1.765076449373737E-4  -7.386762445094064E-5  
 2.236000000000000E10    3.353065403643996E-4  -2.388247230555862E-4  
 2.238000000000000E10   -3.721532411873341E-4   2.412375615676865E-4  
 2.240000000000000E10    4.369209054857492E-4   2.732783905230463E-4  
 2.242000000000000E10    6.039059371687472E-4   1.680374989518896E-4  
 2.244000000000000E10    1.737793063512072E-4  -5.221797036938369E-4  
 2.246000000000000E10   -1.236079988302663E-4  -6.978763849474490E-5  
 2.248000000000000E10   -1.533182658022270E-4   3.317770606372505E-4  
 2.250000000000000E10    6.741714896634221E-4   1.098919019568712E-4  
 2.252000000000000E10    6.471603410318494E-5  -4.376663418952376E-4  
 2.254000000000000E10   -1.598040107637644E-4  -2.100520359817892E-4  
 2.256000000000000E10   -2.452420303598046E-4   1.155282079707831E-4  
 2.258000000000000E10    4.058532358612865E-4   3.195922181475908E-5  
 2.260000000000000E10    1.770071830833331E-4  -7.001122867222875E-5  
 2.262000000000000E10    1.688657066551969E-4  -4.310177755542100E-4  
 2.264000000000000E10    5.222417530603707E-5   1.302256277995184E-4  
 2.266000000000000E10   -3.466707130428404E-4  -5.011230678064749E-5  
 2.268000000000000E10    2.143765887012705E-4   2.717870811466128E-4  
 2.270000000000000E10    3.458490828052163E-4  -2.777480403892696E-5  
 2.272000000000000E10   -4.316264676162973E-5  -5.564021412283182E-4  
 2.274000000000000E10   -2.893910859711468E-4   2.524414448998869E-4  
 2.276000000000000E10    4.185775178484619E-4   3.808402689173818E-4  
 2.278000000000000E10    4.451572021935135E-4   7.827392255421728E-5  
 2.280000000000000E10   -3.371651400811970E-4  -5.505748558789492E-4  
 2.282000000000000E10   -1.348051882814616E-4   1.039305789163336E-5  
 2.284000000000000E10   -4.791885730810463E-4   2.413817273918539E-4  
 2.286000000000000E10    1.364701165584847E-4  -1.671145873842761E-4  
 2.288000000000000E10   -6.765403668396175E-5   1.945741387316957E-4  
 2.290000000000000E10   -4.154296766500920E-4   4.918011109111831E-5  
 2.292000000000000E10   -7.158621156122536E-5   1.080767469829880E-4  
 2.294000000000000E10   -3.675818734336644E-4   4.626915324479342E-5  
 2.296000000000000E10   -5.635655907099135E-5   4.454141599126160E-4  
 2.298000000000000E10    5.947224053670652E-5   1.261160505237058E-4  
 2.300000000000000E10   -7.594819908263162E-5   2.741238859016448E-4  
 2.302000000000000E10   -7.251067436300218E-4   4.968283465132117E-4  
 2.304000000000000E10    1.089290381059982E-4   4.374750133138150E-4  
 2.306000000000000E10    1.877230970421806E-4   4.892246215604246E-4  
 2.308000000000000E10   -2.755046261881944E-5  -4.653034557122737E-4  
 2.310000000000000E10   -2.966520260088146E-4   2.373035822529346E-4  
 2.312000000000000E10   -1.953785103978589E-4   4.691107606049627E-4  
 2.314000000000000E10    4.822605114895850E-4  -1.889716222649440E-4  
 2.316000000000000E10   -2.366179105592892E-4  -2.487224701326340E-4  
 2.318000000000000E10   -1.672874641371891E-4   2.262850175611675E-4  
 2.320000000000000E10   -2.290858101332560E-4   5.066425073891878E-4  
 2.322000000000000E10    2.335774770472199E-4   4.631415504263714E-5  
 2.324000000000000E10   -1.530502631794661E-4   9.545234934194014E-5  
 2.326000000000000E10   -2.700980621739291E-5  -1.016878886730410E-4  
 2.328000000000000E10   -1.383501657983288E-4   1.935002946993336E-4  
 2.330000000000000E10   -2.327014371985570E-4  -2.185017801821232E-4  
 2.332000000000000E10    5.293491267366335E-5   1.013347136904486E-4  
 2.334000000000000E10    2.580426807980984E-4  -2.070537302643061E-4  
 2.336000000000000E10    3.819349221885204E-4  -2.352368464926258E-4  
 2.338000000000000E10   -2.699695469345897E-4  -4.462377110030502E-4  
 2.340000000000000E10    1.659547997405753E-4   1.839952601585537E-4  
 2.342000000000000E10    5.430006422102451E-4   1.250701316166669E-4  
 2.344000000000000E10    4.588243318721652E-4  -6.075340788811445E-4  
 2.346000000000000E10   -4.487264959607273E-4  -3.310872998554260E-4  
 2.348000000000000E10   -2.954001829493791E-4   1.858603936852887E-4  
 2.350000000000000E10    3.578817122615874E-4   3.884641919285059E-4  
 2.352000000000000E10    6.646678230026737E-5  -6.700264639221132E-4  
 2.354000000000000E10   -2.678313467185944E-4  -5.207976209931076E-4  
 2.356000000000000E10   -3.943171759601682E-4   1.317729766014963E-4  
 2.358000000000000E10    1.894423767225817E-4   2.334413584321737E-4  
 2.360000000000000E10   -3.112291597062722E-5  -2.196699933847413E-4  
 2.362000000000000E10   -1.313292159466073E-4  -3.417983243707568E-4  
 2.364000000000000E10   -4.059689235873520E-4  -2.969222077808809E-5  
 2.366000000000000E10   -3.770579060073942E-4  -4.360787715995684E-5  
 2.368000000000000E10   -9.560327453073114E-5  -1.317989426752320E-5  
 2.370000000000000E10    2.172278182115406E-4  -2.380341611569747E-4  
 2.372000000000000E10    9.831197530729696E-5  -4.100580117665231E-4  
 2.374000000000000E10   -4.054709861520678E-4  -3.569496620912105E-4  
 2.376000000000000E10   -1.025043457048014E-4   2.969544148072600E-4  
 2.378000000000000E10    2.926953020505607E-4   3.885330224875361E-4  
 2.380000000000000E10    1.866060192696750E-4  -3.790884511545301E-4  
 2.382000000000000E10   -6.541642360389233E-4  -5.894263813388534E-5  
 2.384000000000000E10   -7.194028585217893E-4   6.871337536722422E-4  
 2.386000000000000E10    2.574447134975344E-4   7.279467536136508E-4  
 2.388000000000000E10    3.465227200649679E-4  -1.923247182276100E-4  
 2.390000000000000E10   -5.358775961212814E-4  -1.203626670758240E-4  
 2.392000000000000E10   -2.411071909591556E-4   6.659033824689686E-4  
 2.394000000000000E10    6.796333473175764E-4   7.465479429811239E-4  
 2.396000000000000E10    2.449158928357065E-4   3.668508143164218E-4  
 2.398000000000000E10   -1.867713763203938E-5   1.396606385242194E-4  
 2.400000000000000E10   -1.273861271329224E-4   4.797448054887354E-4  
 2.402000000000000E10   -1.648981196922250E-5   4.042158252559602E-4  
 2.404000000000000E10    9.712566679809243E-5   3.778514510486275E-4  
 2.406000000000000E10    2.610357187222689E-4   1.891145948320627E-4  
 2.408000000000000E10    8.466756844427437E-5  -1.401965855620801E-4  
 2.410000000000000E10   -3.473357355687767E-4  -2.703795034904033E-4  
 2.412000000000000E10    2.341374929528683E-4   5.145624163560569E-4  
 2.414000000000000E10    4.797528381459415E-4   2.972028451040387E-4  
 2.416000000000000E10    5.645176861435175E-4  -5.774289602413774E-4  
 2.418000000000000E10   -4.579038359224796E-4   1.255711395060644E-4  
 2.420000000000000E10   -1.993701298488304E-4   6.693593459203839E-4  
 2.422000000000000E10    6.651649600826204E-4   6.767945014871657E-4  
 2.424000000000000E10    3.569895925465971E-4  -5.032254266552627E-4  
 2.426000000000000E10   -3.353063657414168E-4  -2.445809950586408E-4  
 2.428000000000000E10   -2.397569624008611E-4   3.964863135479391E-4  
 2.430000000000000E10    6.583348149433732E-4   3.544620703905821E-4  
 2.432000000000000E10    3.372505889274180E-4  -3.698132059071213E-4  
 2.434000000000000E10   -1.655957603361458E-4  -4.918649792671204E-4  
 2.436000000000000E10   -9.365029109176248E-5   1.581065444042906E-4  
 2.438000000000000E10   -9.914128168020397E-5   4.289569915272296E-5  
 2.440000000000000E10    8.219831943279132E-5  -5.555135794566013E-5  
 2.442000000000000E10   -8.234964479925111E-5  -1.246228639502078E-4  
 2.444000000000000E10   -1.744801011227537E-5  -2.357516641495749E-4  
 2.446000000000000E10   -4.320039588492364E-4  -8.239821181632578E-5  
 2.448000000000000E10   -4.928475245833397E-4   1.157606166088954E-4  
 2.450000000000000E10    7.156124047469348E-5   1.928545389091596E-4  
 2.452000000000000E10   -5.091640923637897E-5  -6.441320292651653E-4  
 2.454000000000000E10   -3.212048031855375E-4  -2.954261726699770E-4  
 2.456000000000000E10   -5.786158726550639E-4   1.265326427528635E-4  
 2.458000000000000E10    3.008591011166573E-4   3.116544394288212E-5  
 2.460000000000000E10    3.284171398263425E-4  -1.733525132294744E-4  
 2.462000000000000E10   -2.989233471453190E-4  -3.979776520282030E-4  
 2.464000000000000E10   -4.109030123800039E-4   3.317163209430873E-4  
 2.466000000000000E10    2.075142110697925E-4   5.656938301399350E-4  
 2.468000000000000E10    3.668100689537823E-4  -2.467278864060063E-5  
 2.470000000000000E10   -2.158862625947222E-4  -4.056612669955939E-4  
 2.472000000000000E10   -3.730802272912115E-4   1.169879760709591E-4  
 2.474000000000000E10   -2.874621941373334E-6   1.902551884995773E-4  
 2.476000000000000E10    3.366057644598186E-4   1.840097247622907E-4  
 2.478000000000000E10   -6.194796151248738E-5   2.135949216608424E-5  
 2.480000000000000E10    3.950992686441168E-5   3.842641308438033E-5  
 2.482000000000000E10   -3.643747186288238E-5   1.275290269404650E-4  
 2.484000000000000E10   -5.954041625955142E-6   2.657866571098566E-4  
 2.486000000000000E10   -1.641206290514674E-5   2.739148912951350E-4  
 2.488000000000000E10    3.485526831354946E-4   5.625495032290928E-5  
 2.490000000000000E10    1.031148931360804E-4  -5.369851714931428E-5  
 2.492000000000000E10   -1.643014402361587E-4   2.100796154991258E-5  
 2.494000000000000E10   -1.940023357747123E-4   3.992374404333532E-4  
 2.496000000000000E10    6.759869866073132E-4   2.749859704636037E-4  
 2.498000000000000E10   -2.137929550372064E-4  -3.576171875465661E-4  
 2.500000000000000E10   -2.999180287588388E-4  -2.052972849924117E-4  
 2.502000000000000E10   -1.637599234527443E-5   7.323856116272509E-4  
 2.504000000000000E10    4.040670755784959E-4   2.029841853072867E-4  
 2.506000000000000E10    3.652144223451614E-4  -3.105720970779657E-4  
 2.508000000000000E10   -3.714253834914416E-4  -1.008830895443680E-5  
 2.510000000000000E10   -1.128028816310689E-4   2.163018652936444E-4  
 2.512000000000000E10    1.859695184975863E-4   1.321956660831347E-4  
 2.514000000000000E10    2.039488608716056E-4  -2.193401087424718E-5  
 2.516000000000000E10   -3.055823617614806E-4   6.412320362869650E-5  
 2.518000000000000E10    1.241338759427890E-4  -1.231568894581869E-4  
 2.520000000000000E10    1.318880385952070E-4   6.846393807791174E-5  
 2.522000000000000E10    7.951152656460181E-5  -1.081329173757695E-4  
 2.524000000000000E10    2.475868095643818E-4  -2.638954902067781E-4  
 2.526000000000000E10   -3.164641384501010E-5  -1.063007584889419E-4  
 2.528000000000000E10   -5.884636193513870E-4  -4.880784545093775E-4  
 2.530000000000000E10   -2.406246057944372E-4   1.993337536987383E-5  
 2.532000000000000E10    7.154406193876639E-5   3.583533107303083E-4  
 2.534000000000000E10    2.861439133994281E-4  -7.188267190940678E-4  
 2.536000000000000E10   -2.527266333345324E-4  -6.634021992795169E-4  
 2.538000000000000E10   -4.219846741762012E-4   1.026874524541199E-4  
 2.540000000000000E10    4.374463169369847E-4   3.695173363666982E-4  
 2.542000000000000E10    3.674296604003757E-4  -4.346260393504053E-4  
 2.544000000000000E10   -8.003242692211643E-5  -2.794754109345377E-4  
 2.546000000000000E10   -5.496592493727803E-4   2.950642956420779E-4  
 2.548000000000000E10    1.659333065617830E-4   3.269179142080247E-4  
 2.550000000000000E10   -1.187723537441343E-4   1.053369705914520E-4  
 2.552000000000000E10    1.687040494289249E-4  -4.208620812278241E-4  
 2.554000000000000E10    7.258162804646418E-5  -7.688549521844834E-5  
 2.556000000000000E10   -2.762018120847642E-4  -7.065847603371367E-5  
 2.558000000000000E10    5.509538459591568E-4  -2.506285964045674E-4  
 2.560000000000000E10    1.280876458622515E-4   3.642455558292568E-4  
 2.562000000000000E10    2.504857184248976E-5  -1.014635708997957E-4  
 2.564000000000000E10   -3.979995381087065E-5  -1.033454464050010E-4  
 2.566000000000000E10   -4.756594425998628E-4   1.103753893403336E-4  
 2.568000000000000E10   -2.938413817901164E-4   2.296193415531889E-4  
 2.570000000000000E10    3.237041892134585E-5  -2.690400579012930E-4  
 2.572000000000000E10   -1.593838678672910E-4  -6.586608942598105E-4  
 2.574000000000000E10   -6.455372786149383E-4  -6.739109085174277E-5  
 2.576000000000000E10   -9.026084444485605E-5   4.038714978378266E-4  
 2.578000000000000E10    5.121325375512242E-4   1.668764452915639E-4  
 2.580000000000000E10   -1.624718715902418E-4  -2.223813062300906E-4  
 2.582000000000000E10   -7.421028567478061E-4   3.380817652214319E-4  
 2.584000000000000E10   -3.804878506343812E-4   6.844358285889030E-4  
 2.586000000000000E10    7.972336607053876E-5   6.501257303170860E-5  
 2.588000000000000E10   -2.137785922968760E-4  -4.268671036697924E-4  
 2.590000000000000E10   -7.438019383698702E-4  -1.219073674292304E-4  
 2.592000000000000E10   -1.672657235758379E-4   1.493063609814271E-4  
 2.594000000000000E10    2.559897257015109E-4   1.315691624768078E-4  
 2.596000000000000E10    9.640134521760047E-5  -1.952532038558275E-4  
 2.598000000000000E10   -1.220501289935783E-4   1.094340113922954E-4  
 2.600000000000000E10   -1.052038351190276E-4   2.664505736902356E-4  
 2.602000000000000E10    1.936480985023081E-4   2.536616520956159E-4  
 2.604000000000000E10   -1.619832910364494E-4   2.924756845459342E-4  
 2.606000000000000E10   -6.372715870384127E-5  -8.675086428411305E-5  
 2.608000000000000E10   -6.024448521202430E-5   1.258363772649318E-4  
 2.610000000000000E10   -2.299572370247915E-4   4.400094258016907E-5  
 2.612000000000000E10   -8.139396413753275E-6   1.152035547420383E-4  
 2.614000000000000E10    6.641688523814082E-4  -2.968045591842383E-4  
 2.616000000000000E10   -6.242429662961513E-5  -3.287888539489359E-4  
 2.618000000000000E10   -2.132027148036286E-4  -3.833101072814316E-4  
 2.620000000000000E10    4.022413631901145E-4   8.151702058967203E-5  
 2.622000000000000E10    1.897147158160806E-4  -4.104503896087408E-4  
 2.624000000000000E10    6.407363689504564E-4  -3.272038302384317E-4  
 2.626000000000000E10   -5.312616849550977E-5  -2.489236358087510E-4  
 2.628000000000000E10    2.638212463352829E-4   1.421632914571092E-4  
 2.630000000000000E10    5.097805988043547E-4   1.420064654666930E-4  
 2.632000000000000E10    6.063728942535818E-4  -1.435740705346689E-4  
 2.634000000000000E10   -2.194815315306187E-4  -6.860098801553249E-5  
 2.636000000000000E10   -2.480814600858139E-6  -4.098781573702581E-5  
 2.638000000000000E10    1.469539711251855E-4   1.717393752187491E-4  
 2.640000000000000E10    2.411411987850443E-4  -5.355812027119100E-4  
 2.642000000000000E10    2.573532401584089E-4  -3.235296171624214E-4  
 2.644000000000000E10   -5.128312477609143E-5  -1.006858383334475E-6  
 2.646000000000000E10    2.034796343650669E-4   3.078394220210612E-4  
 2.648000000000000E10    4.097027995157987E-4   1.639904949115589E-4  
 2.650000000000000E10    2.085860469378531E-4  -7.332178029173520E-6  
 2.652000000000000E10   -3.084486525040120E-4  -1.048553385771811E-4  
 2.654000000000000E10   -1.043483462126460E-5   1.419366744812578E-4  
 2.656000000000000E10   -2.732326684053987E-4  -3.480604209471494E-5  
 2.658000000000000E10    8.051603799685836E-5  -3.184999222867191E-4  
 2.660000000000000E10   -2.080970443785191E-4   1.727893104543909E-4  
 2.662000000000000E10   -4.797751171281561E-5   1.664375304244459E-6  
 2.664000000000000E10   -9.306141873821616E-5   2.464277204126120E-4  
 2.666000000000000E10    1.868740801000968E-4   2.583734458312392E-4  
 2.668000000000000E10   -2.488905156496912E-4   3.175031160935760E-4  
 2.670000000000000E10   -4.800779861398041E-4  -4.625395231414586E-4  
 2.672000000000000E10   -5.640421295538545E-4  -1.407568561262451E-5  
 2.674000000000000E10   -3.698798827826977E-4   5.232923649600707E-5  
 2.676000000000000E10    2.346699329791591E-4   1.016725000226870E-4  
 2.678000000000000E10   -2.698288299143314E-4  -3.813056391663849E-4  
 2.680000000000000E10   -1.393207348883152E-4   2.797010820358992E-4  
 2.682000000000000E10   -1.694043312454596E-4   4.334738478064537E-4  
 2.684000000000000E10    2.631462120916694E-4   1.519314100733027E-4  
 2.686000000000000E10   -4.461907956283540E-4  -6.055976700736210E-5  
 2.688000000000000E10   -4.773997643496841E-4   6.584372749784961E-5  
 2.690000000000000E10   -3.581694036256522E-4   2.085862652165815E-4  
 2.692000000000000E10    1.000815245788544E-4  -5.374019383452833E-4  
 2.694000000000000E10   -2.821165544446558E-4  -2.747691760305315E-4  
 2.696000000000000E10    3.801709226536332E-6   1.895801506179851E-5  
 2.698000000000000E10    1.525366405985551E-5   1.446162787033245E-4  
 2.700000000000000E10    3.767891903407872E-4  -4.078254278283566E-4  
 2.702000000000000E10   -1.816607109503821E-4   9.099710587179288E-5  
 2.704000000000000E10   -2.194050175603479E-4   2.525846321077552E-5  
 2.706000000000000E10    3.384243464097381E-4   9.264957770938054E-5  
 2.708000000000000E10   -1.241212303284556E-4  -5.802172818221152E-4  
 2.710000000000000E10   -1.485471584601328E-4   2.188038051826879E-4  
 2.712000000000000E10   -3.620623610913754E-4   1.828321837820113E-4  
 2.714000000000000E10    6.631511496379972E-4  -4.230092963553034E-5  
 2.716000000000000E10   -3.929006925318390E-4   4.565961717162281E-5  
 2.718000000000000E10    9.568080713506788E-5   1.270392240257934E-4  
 2.720000000000000E10    1.057040863088332E-4   4.159274394623935E-4  
 2.722000000000000E10    1.429109106538817E-4  -5.325262463884428E-5  
 2.724000000000000E10   -3.518419980537146E-4   4.751855158247054E-4  
 2.726000000000000E10    5.864283230039291E-5   8.149006316671148E-5  
 2.728000000000000E10    3.384215815458447E-4   3.771334595512599E-4  
 2.730000000000000E10   -1.882867800304666E-4  -2.839757071342319E-4  
 2.732000000000000E10   -2.078531979350373E-4   4.904862726107240E-4  
 2.734000000000000E10    1.520003424957395E-4   5.298241158016026E-4  
 2.736000000000000E10    4.187396552879363E-4   3.275488270446658E-4  
 2.738000000000000E10   -4.202729905955494E-4  -5.583357997238636E-4  
 2.740000000000000E10   -2.495148510206491E-4   3.964065981563181E-4  
 2.742000000000000E10   -8.335596794495359E-5   1.831287663662806E-4  
 2.744000000000000E10    6.429298664443195E-4  -4.858010215684772E-4  
 2.746000000000000E10   -5.456987419165671E-4  -2.887397713493556E-4  
 2.748000000000000E10   -3.159356710966677E-4   2.752688305918127E-4  
 2.750000000000000E10    3.964248171541840E-4   4.089781432412565E-4  
 2.752000000000000E10    3.399348643142730E-4  -2.334338641958311E-4  
 2.754000000000000E10   -4.746676713693887E-4  -1.758537837304175E-4  
 2.756000000000000E10    7.751616067253053E-5   1.069164718501270E-4  
