#  HZ   S   RI   R     50.00 
! Rohde & Schwarz ZVA40 4Ports - Version 3.90 - 1145.1110k42 SN: 100403
! Date: 2023-10-04 09:24:13
! Measurement: S12 
! 
 2.200000000000000E10   -5.107737888465636E-5  -2.808496647048742E-4  
 2.202000000000000E10   -3.923288313671947E-4   5.026547587476671E-4  
 2.204000000000000E10    1.244009326910600E-4   7.238802500069141E-4  
 2.206000000000000E10    5.978971967124380E-5   1.069202480721287E-4  
 2.208000000000000E10    2.948064684460405E-5  -3.130029945168644E-4  
 2.210000000000000E10   -5.978699191473424E-4   2.412715839454904E-4  
 2.212000000000000E10   -5.496803205460310E-4   3.144587390124798E-4  
 2.214000000000000E10    1.627853926038370E-4   1.503935927757993E-4  
 2.216000000000000E10    1.800939644454047E-4  -2.730307460296899E-4  
 2.218000000000000E10    1.001705168164335E-4  -3.527395019773394E-4  
 2.220000000000000E10   -4.199569521006197E-4  -1.032600994221866E-4  
 2.222000000000000E10    1.925284741446376E-4   3.373856307007372E-4  
 2.224000000000000E10    6.153273279778659E-4   6.199185154400766E-4  
 2.226000000000000E10    4.375727730803192E-4  -3.601621720008552E-4  
 2.228000000000000E10   -5.284991348162293E-4  -2.338375052204356E-4  
 2.230000000000000E10   -6.859120330773294E-4   4.883758956566453E-4  
 2.232000000000000E10    1.879056799225509E-4   5.299195181578398E-4  
 2.234000000000000E10    2.638527075760067E-4  -6.709537119604647E-4  
 2.236000000000000E10   -3.337004163768143E-4  -7.439721375703812E-4  
 2.238000000000000E10   -7.046511163935065E-4   3.478993676253595E-5  
 2.240000000000000E10    4.124480765312910E-4   2.258910535601899E-4  
 2.242000000000000E10    4.424322396516800E-4  -1.294651447096840E-4  
 2.244000000000000E10    1.969466247828677E-4  -5.855915951542556E-4  
 2.246000000000000E10   -1.817743468564004E-4   1.121461027651094E-4  
 2.248000000000000E10    1.639861002331600E-4   1.738378341542557E-4  
 2.250000000000000E10    3.501869214233011E-4   9.483606845606118E-5  
 2.252000000000000E10   -1.515054609626532E-4  -5.437756772153080E-5  
 2.254000000000000E10    2.892877273552585E-5  -2.284079964738339E-4  
 2.256000000000000E10    2.299208972544875E-5  -3.259688382968307E-4  
 2.258000000000000E10   -3.975243307650089E-4  -2.441621036268771E-4  
 2.260000000000000E10    3.461893938947469E-4   1.992921315832064E-4  
 2.262000000000000E10    6.625897367484868E-4  -5.349692073650658E-4  
 2.264000000000000E10    1.397957021254115E-5  -7.340853335335851E-4  
 2.266000000000000E10   -6.019478896632791E-4   6.057049540686421E-5  
 2.268000000000000E10    6.165072409203276E-5   7.171294419094920E-4  
 2.270000000000000E10    3.150402626488358E-4  -6.474449037341401E-5  
 2.272000000000000E10   -3.141232882626355E-4  -7.687789620831609E-4  
 2.274000000000000E10   -4.971797461621463E-4  -6.368129834299907E-5  
 2.276000000000000E10   -5.336852627806366E-4   2.337485493626446E-4  
 2.278000000000000E10    6.427338230423629E-4  -5.547188920900226E-4  
 2.280000000000000E10    1.842432684497908E-4  -5.716377636417747E-4  
 2.282000000000000E10    1.476062752772123E-4  -1.471902651246637E-4  
 2.284000000000000E10    1.207710665767081E-4   1.547528227092698E-4  
 2.286000000000000E10    3.020642325282097E-4  -1.215708034578711E-4  
 2.288000000000000E10    1.278280542464927E-4   2.622509782668203E-4  
 2.290000000000000E10    2.775206667138264E-6  -3.853593370877206E-4  
 2.292000000000000E10   -1.190787734230980E-4  -1.931682927533984E-4  
 2.294000000000000E10   -4.843629430979490E-4  -4.037570615764707E-4  
 2.296000000000000E10    3.846799954771996E-4  -2.808832141454332E-5  
 2.298000000000000E10    1.905252574943006E-4   8.284099021693692E-5  
 2.300000000000000E10    2.359514037379995E-4  -7.423982024192810E-4  
 2.302000000000000E10   -3.549083194229752E-4   1.661519490880892E-4  
 2.304000000000000E10    9.631777356844395E-5   5.434777704067528E-4  
 2.306000000000000E10    4.675645323004574E-4   1.608026504982263E-4  
 2.308000000000000E10   -1.697110019449610E-5  -4.031429416500032E-4  
 2.310000000000000E10   -1.815752330003306E-4   2.466480364091694E-4  
 2.312000000000000E10   -1.084528848878108E-4   3.718996595125645E-5  
 2.314000000000000E10    5.798209458589554E-4   1.788173904060386E-5  
 2.316000000000000E10   -1.258103729924187E-4  -2.311455755261704E-4  
 2.318000000000000E10    1.327927166130394E-4  -2.419590600766242E-4  
 2.320000000000000E10    1.323350879829377E-4   1.421345950802788E-4  
 2.322000000000000E10   -2.070042319246568E-5  -5.320031414157711E-5  
 2.324000000000000E10   -2.147298218915239E-4   1.647950557526201E-4  
 2.326000000000000E10    2.902401611208916E-4   3.412482910789549E-4  
 2.328000000000000E10   -2.351162402192131E-4   1.378106389893219E-4  
 2.330000000000000E10   -4.767471109516919E-4  -1.374551211483777E-4  
 2.332000000000000E10   -1.262716541532427E-4   6.300726090557873E-4  
 2.334000000000000E10    2.481226983945817E-4   1.322921452810988E-4  
 2.336000000000000E10    3.765287983696908E-4  -3.584052028600127E-4  
 2.338000000000000E10   -4.315713304094970E-4   4.514860120252706E-5  
 2.340000000000000E10   -1.213181894854643E-4   5.515760858543217E-4  
 2.342000000000000E10    6.593294092454016E-4   4.396768636070192E-4  
 2.344000000000000E10    2.462778356857598E-4  -3.896906855516136E-4  
 2.346000000000000E10   -5.625390331260860E-4  -1.128545773099177E-4  
 2.348000000000000E10   -1.511976297479123E-4   3.777320089284331E-4  
 2.350000000000000E10    2.296669990755618E-4  -1.231914029631298E-5  
 2.352000000000000E10   -1.365192292723805E-4  -4.973671166226268E-4  
 2.354000000000000E10   -2.336632023798302E-4  -1.365962452837266E-5  
 2.356000000000000E10   -2.738442562986165E-4   5.272162889013998E-5  
 2.358000000000000E10   -1.011458807624877E-4  -1.894585730042309E-4  
 2.360000000000000E10   -1.632153580430895E-4   2.360632497584447E-4  
 2.362000000000000E10    2.082510764012113E-4   3.140329499728978E-5  
 2.364000000000000E10    1.110200682887808E-4  -1.499957434134558E-4  
 2.366000000000000E10   -5.128682241775096E-4   1.302661985391751E-4  
 2.368000000000000E10    7.952729356475174E-5   4.694128583651036E-4  
 2.370000000000000E10    4.910387797281146E-4   6.085874047130346E-4  
 2.372000000000000E10    2.487853344064206E-4  -6.247148266993463E-4  
 2.374000000000000E10   -4.027796967420727E-4  -1.263628655578941E-4  
 2.376000000000000E10   -2.632845134939998E-4   7.322473684325814E-4  
 2.378000000000000E10    6.050303927622736E-4   2.152617962565273E-4  
 2.380000000000000E10    4.479513154365122E-4  -2.713764260988683E-4  
 2.382000000000000E10   -4.743114695884287E-4  -3.197269979864359E-4  
 2.384000000000000E10   -3.529356035869569E-4   5.182944005355239E-4  
 2.386000000000000E10    3.823167353402823E-4   5.232838448137045E-4  
 2.388000000000000E10    9.491825767327100E-5  -5.799356731586158E-4  
 2.390000000000000E10   -2.051999181276187E-4   1.177307422040030E-5  
 2.392000000000000E10   -8.899437671061605E-5   3.998888132628053E-4  
 2.394000000000000E10    2.016818507399876E-5   5.750362470280379E-5  
 2.396000000000000E10    3.801790444413200E-5   3.575285518309102E-5  
 2.398000000000000E10    2.983233134727925E-4   1.008469334919937E-4  
 2.400000000000000E10    4.722954181488603E-4  -5.308531035552733E-5  
 2.402000000000000E10   -3.330795880174264E-5  -3.962427435908467E-4  
 2.404000000000000E10    1.884307130239904E-5   5.066273733973503E-4  
 2.406000000000000E10    6.154889124445617E-4   2.986815816257149E-4  
 2.408000000000000E10    3.310367173980922E-4  -7.700736168771982E-4  
 2.410000000000000E10   -4.112894239369780E-4  -9.932635293807834E-5  
 2.412000000000000E10   -2.391060261288658E-4   3.464434121269733E-4  
 2.414000000000000E10    7.980409427545965E-4   3.486178466118872E-4  
 2.416000000000000E10    2.521602436900139E-4  -6.522064213640988E-4  
 2.418000000000000E10   -5.523588042706251E-4  -3.347875317558646E-4  
 2.420000000000000E10   -7.085975084919483E-6   3.870188375003636E-4  
 2.422000000000000E10    6.078261067159474E-4   2.907969465013593E-4  
 2.424000000000000E10    2.741760981734842E-4  -4.592316981870681E-4  
 2.426000000000000E10    1.601866279088426E-5  -1.678252301644534E-4  
 2.428000000000000E10   -2.954556548502296E-4   3.877699200529605E-4  
 2.430000000000000E10   -7.365551573457196E-5   3.330391336930916E-5  
 2.432000000000000E10    1.359437446808443E-4   8.798477210802957E-5  
 2.434000000000000E10   -5.656281427945942E-5  -2.401143865427002E-4  
 2.436000000000000E10   -3.015228139702231E-5  -2.957625547423959E-4  
 2.438000000000000E10   -1.984181290026754E-4  -1.643403084017336E-4  
 2.440000000000000E10    1.232544891536236E-4  -3.710263263201341E-5  
 2.442000000000000E10    8.104468724923208E-5   3.549188550096005E-4  
 2.444000000000000E10    3.552234265953302E-4  -3.428570635151118E-4  
 2.446000000000000E10   -4.741956363432109E-4  -1.108011856558733E-4  
 2.448000000000000E10   -2.877273072954267E-4   7.054753950797021E-4  
 2.450000000000000E10    2.278538013342768E-4   5.860048695467413E-4  
 2.452000000000000E10    1.668856857577339E-4  -2.085621381411329E-4  
 2.454000000000000E10   -6.654574535787106E-4  -3.848350315820426E-4  
 2.456000000000000E10   -7.515914621762931E-4   4.407344094943255E-4  
 2.458000000000000E10    3.423029847908765E-4   5.037041264586151E-4  
 2.460000000000000E10    2.487983729224652E-4  -4.434678412508220E-4  
 2.462000000000000E10   -3.155907907057554E-4  -5.290637491270900E-4  
 2.464000000000000E10   -1.366420110571198E-5   6.311385077424347E-4  
 2.466000000000000E10    2.729379730226356E-6   4.579753731377423E-4  
 2.468000000000000E10    3.874620015267283E-4  -1.776381250238046E-4  
 2.470000000000000E10   -2.178664144594222E-4  -1.600310060894117E-4  
 2.472000000000000E10   -4.877325845882297E-4   9.037394920596853E-5  
 2.474000000000000E10   -1.211972194141708E-4   2.982541082019452E-5  
 2.476000000000000E10   -9.878293349174783E-5  -1.834940776461735E-4  
 2.478000000000000E10    1.006629390758462E-4   5.483489439939149E-5  
 2.480000000000000E10    4.316346894484013E-4  -1.682274305494502E-4  
 2.482000000000000E10    2.337925980100408E-4  -1.331929233856499E-4  
 2.484000000000000E10   -1.567567815072835E-4   2.621051862661261E-5  
 2.486000000000000E10    4.971883608959615E-4   2.817559288814664E-4  
 2.488000000000000E10    2.621876192279160E-4  -2.493877545930445E-4  
 2.490000000000000E10   -4.543770774034783E-5  -5.835440242663026E-4  
 2.492000000000000E10   -2.967864274978638E-4   2.700120967347175E-5  
 2.494000000000000E10    3.183252993039787E-4   6.787553138565272E-5  
 2.496000000000000E10    8.428868604823947E-4  -3.503603802528232E-4  
 2.498000000000000E10    1.292024098802358E-4  -6.657202611677349E-4  
 2.500000000000000E10   -3.038863360416144E-5  -8.320812048623338E-5  
 2.502000000000000E10   -4.538907887763344E-6   2.439382078591734E-4  
 2.504000000000000E10    4.728159692604095E-4  -4.394575807964429E-5  
 2.506000000000000E10    1.042198855429888E-4  -4.972451133653522E-4  
 2.508000000000000E10   -1.694043021416292E-4  -2.231051039416343E-4  
 2.510000000000000E10   -1.202383282361552E-4  -1.576913782628253E-4  
 2.512000000000000E10    3.082379407715052E-5  -3.692321188282222E-4  
 2.514000000000000E10   -2.331747236894444E-5  -3.632500011008233E-4  
 2.516000000000000E10    1.588300656294450E-4  -8.886272553354502E-5  
 2.518000000000000E10    5.461266846396029E-5  -5.276036608847790E-5  
 2.520000000000000E10   -2.148182393284515E-4  -3.224699757993221E-4  
 2.522000000000000E10   -2.804242831189185E-4   4.694731615018100E-4  
 2.524000000000000E10   -1.971306191990152E-4   4.127726715523750E-4  
 2.526000000000000E10    2.113160007866100E-4  -5.775190948043019E-5  
 2.528000000000000E10   -7.390001555904746E-4  -1.894084271043539E-4  
 2.530000000000000E10   -2.957313845399767E-4   5.198798608034849E-4  
 2.532000000000000E10    1.848826650530100E-4   2.402025565970689E-4  
 2.534000000000000E10    5.390141814132221E-5  -2.023122215177864E-4  
 2.536000000000000E10   -3.017825947608799E-4   3.567940439097583E-5  
 2.538000000000000E10   -7.037127215880901E-5   3.454535908531398E-4  
 2.540000000000000E10    1.656448584981263E-4   5.699663888663054E-4  
 2.542000000000000E10    1.450360869057477E-4  -1.905358658405021E-4  
 2.544000000000000E10   -3.494194970699027E-5  -2.051629417110235E-4  
 2.546000000000000E10   -4.523054813034833E-4   2.704410871956497E-4  
 2.548000000000000E10    1.033624284900725E-4   9.089777449844405E-5  
 2.550000000000000E10    1.872941502369940E-4  -8.951363270170987E-5  
 2.552000000000000E10    2.082375431200489E-6  -3.616190515458584E-4  
 2.554000000000000E10   -2.553014783188701E-4   7.143800030462444E-5  
 2.556000000000000E10   -6.611708522541449E-5  -5.163127570995130E-5  
 2.558000000000000E10    1.720852160360664E-4  -1.137623112299480E-4  
 2.560000000000000E10    6.780879630241543E-5   3.525523352436721E-4  
 2.562000000000000E10    2.941184175142553E-5  -5.581068107858300E-4  
 2.564000000000000E10   -2.762959047686309E-4  -1.754645054461435E-4  
 2.566000000000000E10   -6.532190600410104E-4   5.128370248712599E-4  
 2.568000000000000E10    2.601607120595872E-4   1.869444386102259E-4  
 2.570000000000000E10    2.000865788431838E-4  -1.808583328966051E-4  
 2.572000000000000E10   -4.265471943654120E-4  -1.579063828103244E-4  
 2.574000000000000E10   -6.715547642670572E-4   2.933407085947692E-4  
 2.576000000000000E10    2.815079933498055E-4   2.133621892426163E-4  
 2.578000000000000E10    6.111730472184718E-4  -2.268940152134746E-4  
 2.580000000000000E10   -3.731640172190964E-4  -3.393217921257019E-4  
 2.582000000000000E10   -3.115245490334928E-4   1.808628730941564E-4  
 2.584000000000000E10    1.389398967148736E-4   4.939460777677596E-4  
 2.586000000000000E10    1.988691365113482E-4  -1.063633899320848E-4  
 2.588000000000000E10   -1.304187317145988E-4  -1.798804296413437E-4  
 2.590000000000000E10   -6.009330973029137E-4   2.218566805822775E-4  
 2.592000000000000E10    4.412946873344481E-5   1.181834959425032E-4  
 2.594000000000000E10   -4.507405537879095E-5   4.263818118488416E-5  
 2.596000000000000E10   -1.857395982369781E-4  -1.246582105522975E-4  
 2.598000000000000E10    4.531606682576239E-4   1.817908050725237E-4  
 2.600000000000000E10    4.819658352062106E-5   1.005029989755712E-4  
 2.602000000000000E10   -4.685239691752940E-4   3.338526294101030E-4  
 2.604000000000000E10    2.239213208667934E-4   5.854213959537447E-4  
 2.606000000000000E10    2.973556402139366E-4   3.124666691292077E-4  
 2.608000000000000E10   -4.171234322711825E-4  -2.087554457830265E-4  
 2.610000000000000E10   -2.511840721126646E-4   1.893221487989649E-4  
 2.612000000000000E10   -2.176636598960613E-6   4.834620340261608E-4  
 2.614000000000000E10    2.417573414277285E-4  -2.228354860562831E-4  
 2.616000000000000E10    5.614644578599837E-6  -2.759558265097439E-4  
 2.618000000000000E10   -1.609587889106479E-5   3.620671122916974E-5  
 2.620000000000000E10   -1.323996111750603E-4   3.302887489553541E-4  
 2.622000000000000E10    4.077120102010667E-4   4.559469743981026E-5  
 2.624000000000000E10   -7.143088441807777E-5  -1.257433032151312E-4  
 2.626000000000000E10   -3.229005669709295E-4  -2.963125007227063E-4  
 2.628000000000000E10    6.352288619382307E-5   3.031930828001350E-4  
 2.630000000000000E10    2.005028909479734E-5  -2.475112851243466E-4  
 2.632000000000000E10    1.570721215102822E-4  -1.542506797704846E-4  
 2.634000000000000E10   -1.151897522504441E-4  -3.298234660178423E-4  
 2.636000000000000E10   -1.418530882801861E-4  -4.301083754398860E-5  
 2.638000000000000E10   -2.632826217450202E-4  -2.465988800395280E-4  
 2.640000000000000E10    3.221402876079083E-4  -2.147070481441915E-4  
 2.642000000000000E10   -3.321173135191202E-4  -2.539560082368553E-4  
 2.644000000000000E10    1.131119643105194E-4  -2.106574102072045E-4  
 2.646000000000000E10   -4.537302811513655E-5   5.931925988988951E-5  
 2.648000000000000E10    3.742794797290117E-4  -1.152470067609102E-4  
 2.650000000000000E10    3.815208619926125E-4  -9.545630746288225E-5  
 2.652000000000000E10    6.681339436909184E-5  -5.500497645698488E-4  
 2.654000000000000E10   -1.101780726457946E-4   2.381037629675120E-4  
 2.656000000000000E10    2.547742624301463E-4   1.632396888453513E-4  
 2.658000000000000E10    5.197569771553390E-5   6.287670112214983E-5  
 2.660000000000000E10   -2.022393891820684E-4  -2.664559578988701E-4  
 2.662000000000000E10    1.160162355517969E-4   2.834870829246938E-4  
 2.664000000000000E10    1.291981170652434E-4  -1.602334523340687E-4  
 2.666000000000000E10    4.913794691674411E-4   3.237074997741729E-5  
 2.668000000000000E10   -2.056022203760222E-4  -2.319437335245311E-4  
 2.670000000000000E10    4.236658278387040E-4  -8.676387369632721E-5  
 2.672000000000000E10   -1.992386096389964E-4   4.330342344474047E-4  
 2.674000000000000E10    1.182187552331016E-4   2.237113658338785E-4  
 2.676000000000000E10   -3.080760870943777E-5   1.353368570562452E-4  
 2.678000000000000E10   -9.056919225258753E-6  -1.325296616414562E-4  
 2.680000000000000E10   -2.482488052919507E-4   2.007066505029798E-4  
 2.682000000000000E10    2.857719955500215E-4   1.213009818457067E-4  
 2.684000000000000E10    1.959910878213123E-4   2.098871045745909E-4  
 2.686000000000000E10    2.998736163135618E-4  -4.343570908531547E-4  
 2.688000000000000E10   -5.587216219282709E-5   2.759812341537327E-4  
 2.690000000000000E10   -2.560568682383746E-4   2.592917735455558E-5  
 2.692000000000000E10    4.520465445239097E-4   3.296675276942551E-4  
 2.694000000000000E10   -2.084832958644256E-4  -3.604569646995515E-4  
 2.696000000000000E10   -2.837733482010663E-4   1.985061826417223E-4  
 2.698000000000000E10   -4.526259435806423E-4   2.843633119482547E-4  
 2.700000000000000E10    5.694648716598749E-4   1.662893555476330E-5  
 2.702000000000000E10   -5.364280077628791E-4  -1.573650370119140E-4  
 2.704000000000000E10    4.727533087134361E-5  -1.904604141600430E-4  
 2.706000000000000E10   -2.057937817880884E-4   3.605746605899185E-4  
 2.708000000000000E10    1.588567465660162E-5  -3.630041901487857E-4  
 2.710000000000000E10   -1.660142879700288E-4   1.713396522973198E-5  
 2.712000000000000E10    1.070260987034999E-4   5.973005318082869E-5  
 2.714000000000000E10    1.001992932287976E-4  -3.686247146106325E-5  
 2.716000000000000E10    4.846093361265957E-5  -4.100992227904499E-4  
 2.718000000000000E10    1.841628109104931E-4   3.768288879655302E-4  
 2.720000000000000E10    2.782171941362321E-4   9.612505527911708E-5  
 2.722000000000000E10    5.442354595288634E-4   1.123582187574357E-4  
 2.724000000000000E10   -2.920835104305297E-4  -4.225091252010316E-4  
 2.726000000000000E10    5.381537630455568E-5   5.519480691873469E-5  
 2.728000000000000E10   -2.782030787784606E-4   2.235392603324726E-4  
 2.730000000000000E10    1.272364170290530E-4  -4.680220445152372E-4  
 2.732000000000000E10    1.603468945177156E-6  -5.983822848065756E-5  
 2.734000000000000E10    2.818048524204642E-4  -1.725138281472027E-4  
 2.736000000000000E10    2.499753609299660E-4  -1.788548688637093E-4  
 2.738000000000000E10    2.984477323479950E-4  -1.840885815909132E-4  
 2.740000000000000E10    8.258617890533060E-5   5.269037210382521E-4  
 2.742000000000000E10    3.636982291936874E-4   1.648744218982756E-4  
 2.744000000000000E10    1.184030843432993E-4   2.586671616882086E-4  
 2.746000000000000E10   -4.385284555610269E-4  -2.653301926329732E-4  
 2.748000000000000E10   -5.403951581683941E-5   4.974494222551584E-4  
 2.750000000000000E10    9.631532884668559E-5   1.720969521556981E-5  
 2.752000000000000E10    4.039641062263399E-4  -3.026364138349891E-4  
 2.754000000000000E10   -1.543085818411782E-4  -3.533494018483907E-4  
 2.756000000000000E10    1.712933590169996E-4   3.302138939034194E-4  
