#  HZ   S   RI   R     50.00 
! Rohde & Schwarz ZVA40 4Ports - Version 3.90 - 1145.1110k42 SN: 100403
! Date: 2023-10-04 09:23:50
! Measurement: S12 
! 
 2.200000000000000E10    1.604266144568101E-4   1.034380034070637E-6  
 2.202000000000000E10   -8.956886449595913E-5  -1.523953105788678E-4  
 2.204000000000000E10    5.304668957251124E-5  -4.054301825817674E-4  
 2.206000000000000E10   -6.225764518603683E-4  -3.574363072402775E-4  
 2.208000000000000E10    7.882557838456705E-5   4.392614937387407E-4  
 2.210000000000000E10    4.374651180114597E-4  -3.213849049643613E-5  
 2.212000000000000E10   -5.517453973880038E-5  -9.431064827367663E-4  
 2.214000000000000E10   -8.505830192007124E-4   1.095050320145674E-4  
 2.216000000000000E10   -3.781068080570549E-4   7.407346856780350E-4  
 2.218000000000000E10    7.641889969818294E-4   3.657146298792213E-4  
 2.220000000000000E10    2.263446367578581E-4  -4.982387763448060E-4  
 2.222000000000000E10   -7.176840445026755E-4  -8.018384687602520E-5  
 2.224000000000000E10   -2.498741669114679E-4   7.426938973367214E-4  
 2.226000000000000E10    4.685159365180880E-4   5.224921624176204E-4  
 2.228000000000000E10    1.065590477082878E-4  -3.382301947567612E-4  
 2.230000000000000E10   -2.170594671042636E-4  -5.083966243546456E-5  
 2.232000000000000E10   -7.766290218569338E-5   2.712479326874018E-4  
 2.234000000000000E10    3.535725409165025E-4   2.531894424464554E-4  
 2.236000000000000E10    1.922062947414815E-4   5.476492151501589E-5  
 2.238000000000000E10    9.279736696043983E-5   2.811210870277137E-4  
 2.240000000000000E10   -7.861721678636968E-5  -2.383104583714157E-4  
 2.242000000000000E10   -3.198181511834264E-4  -1.092806705855764E-4  
 2.244000000000000E10   -3.740702231880277E-4   6.740851094946265E-4  
 2.246000000000000E10    6.702021346427500E-4   2.683964703464881E-5  
 2.248000000000000E10    6.729983142577112E-4  -5.166262853890657E-4  
 2.250000000000000E10   -1.052352250553668E-3  -2.424308186164126E-4  
 2.252000000000000E10   -3.855650720652193E-4   7.542659877799451E-4  
 2.254000000000000E10    9.064425830729306E-4   4.930062568746507E-4  
 2.256000000000000E10    1.702278532320634E-4  -7.670944323763251E-4  
 2.258000000000000E10   -7.844112114980817E-4  -4.064873501192778E-4  
 2.260000000000000E10   -3.083887568209320E-4   5.045791040174663E-4  
 2.262000000000000E10    4.745349579025060E-4   8.809794962871820E-5  
 2.264000000000000E10    4.564159316942096E-4  -5.933214561082423E-4  
 2.266000000000000E10   -4.694671370089054E-4  -1.551660243421793E-4  
 2.268000000000000E10   -1.766306668287143E-4   9.342905832454562E-5  
 2.270000000000000E10    3.688497235998511E-4   2.447941806167364E-4  
 2.272000000000000E10   -3.006408951478079E-5  -1.186531903840660E-6  
 2.274000000000000E10    1.031700594467111E-4   7.353944965871051E-5  
 2.276000000000000E10   -6.185789970913902E-5   4.108786015422083E-5  
 2.278000000000000E10   -1.736366830300540E-4  -2.276164013892412E-4  
 2.280000000000000E10   -2.031215553870425E-4   5.169297801330686E-4  
 2.282000000000000E10    2.184773984481581E-5   2.672866976354271E-4  
 2.284000000000000E10    2.287375100422651E-4  -2.105086023220792E-4  
 2.286000000000000E10   -4.087912675458938E-4  -5.562898004427552E-4  
 2.288000000000000E10   -3.708249132614583E-4   6.572869024239481E-4  
 2.290000000000000E10    3.322816337458789E-4   4.430425178725272E-4  
 2.292000000000000E10    7.832676637917757E-4  -4.352045070845634E-4  
 2.294000000000000E10   -5.331517895683646E-4  -3.399690322112292E-4  
 2.296000000000000E10   -2.824548282660544E-4   4.172461631242186E-4  
 2.298000000000000E10    2.772011503111571E-4   3.409920027479529E-4  
 2.300000000000000E10    3.332407504785806E-4  -4.386914370115846E-4  
 2.302000000000000E10   -1.280075375689194E-4   9.905004117172211E-5  
 2.304000000000000E10   -1.308031933149323E-4   2.326289977645502E-4  
 2.306000000000000E10    2.371729206060991E-4   3.784965665545315E-4  
 2.308000000000000E10   -5.201795647735708E-5  -6.879490683786571E-5  
 2.310000000000000E10    5.441309258458205E-5   2.325442183064297E-4  
 2.312000000000000E10   -1.156552098109387E-4   1.641421404201537E-4  
 2.314000000000000E10   -2.118050906574354E-4  -1.569515297887847E-4  
 2.316000000000000E10   -4.374830459710211E-4   2.012518234550953E-4  
 2.318000000000000E10    2.065667795250192E-4   6.155355367809534E-5  
 2.320000000000000E10    9.938727453118190E-5  -3.424181777518243E-4  
 2.322000000000000E10   -1.149327654275112E-4  -4.735075635835528E-4  
 2.324000000000000E10   -2.935091615654528E-4   1.354238920612261E-4  
 2.326000000000000E10    3.837229160126299E-4   2.920319384429604E-4  
 2.328000000000000E10    2.721231139730662E-4  -2.447588776703924E-4  
 2.330000000000000E10   -3.249086439609528E-4  -4.281669680494815E-4  
 2.332000000000000E10   -3.404137678444386E-4   6.053214892745018E-4  
 2.334000000000000E10   -5.390051956055686E-5   1.091259109671228E-4  
 2.336000000000000E10    1.670859201112762E-4  -4.588144365698099E-4  
 2.338000000000000E10   -3.796167147811502E-4  -6.066520654712804E-5  
 2.340000000000000E10   -9.299733937950805E-5  -2.094332157867029E-4  
 2.342000000000000E10    3.668779681902379E-4  -1.470649876864627E-4  
 2.344000000000000E10    1.528223510831595E-4  -3.570505650714040E-4  
 2.346000000000000E10   -1.396326115354896E-4  -4.520001675700769E-5  
 2.348000000000000E10    3.522990737110376E-4   2.212486579082906E-4  
 2.350000000000000E10    7.312279922189191E-5  -2.600358857307583E-4  
 2.352000000000000E10   -2.930120681412518E-4   1.031008578138426E-4  
 2.354000000000000E10    2.163454191759229E-4   3.570170083548874E-4  
 2.356000000000000E10    1.527385466033593E-4  -2.228050288977101E-4  
 2.358000000000000E10   -6.005954346619546E-4  -5.036164657212794E-4  
 2.360000000000000E10   -4.304267349652946E-4   6.584654911421239E-4  
 2.362000000000000E10    8.672934200149030E-5   3.391401842236519E-4  
 2.364000000000000E10    3.745309659279883E-4  -3.182544314768165E-4  
 2.366000000000000E10   -3.029157232958823E-4  -3.333899367135018E-4  
 2.368000000000000E10   -3.492851974442601E-4   9.043622412718833E-5  
 2.370000000000000E10    1.187161760753952E-4   5.832077004015446E-4  
 2.372000000000000E10    4.285564064048231E-4  -2.997051342390478E-4  
 2.374000000000000E10    6.067738650017418E-5  -1.072545783245005E-4  
 2.376000000000000E10   -3.716133360285312E-4   3.637370245996863E-4  
 2.378000000000000E10    7.626096339663491E-5   4.824680509045720E-4  
 2.380000000000000E10   -2.056533267023042E-4  -2.381520607741550E-5  
 2.382000000000000E10   -1.711012300802395E-4   2.035719444393180E-5  
 2.384000000000000E10   -1.364492200082168E-4   1.248026455868967E-5  
 2.386000000000000E10   -4.903239314444363E-4  -5.569584900513291E-4  
 2.388000000000000E10   -5.061128758825362E-4  -3.948616358684376E-5  
 2.390000000000000E10    1.536478666821495E-4   3.756728838197887E-4  
 2.392000000000000E10    6.193690351210535E-4  -3.784948494285345E-4  
 2.394000000000000E10   -3.330895851831883E-4  -6.681600352749229E-4  
 2.396000000000000E10   -5.253397976048291E-4   4.754759138450027E-4  
 2.398000000000000E10    4.333869437687099E-4   9.316460345871747E-4  
 2.400000000000000E10    4.644542059395462E-4  -1.120089873438701E-4  
 2.402000000000000E10   -9.374056826345623E-4  -5.111382342875004E-4  
 2.404000000000000E10   -7.143291295506060E-4   3.431375371292234E-4  
 2.406000000000000E10    3.035035624634475E-4   5.815135082229972E-4  
 2.408000000000000E10    4.814998537767679E-4  -6.228452548384666E-4  
 2.410000000000000E10   -6.077357284084428E-6  -5.044938880018890E-4  
 2.412000000000000E10   -3.872909001074731E-4  -2.002782421186566E-4  
 2.414000000000000E10    2.382241509621963E-4   3.899007569998503E-4  
 2.416000000000000E10    4.445872327778488E-4   3.541689511621371E-5  
 2.418000000000000E10    1.526594278402627E-4  -2.208170626545325E-4  
 2.420000000000000E10   -1.285667385673150E-4   6.253836545511149E-6  
 2.422000000000000E10   -2.252242848044261E-4   3.793647556449287E-5  
 2.424000000000000E10   -5.091500934213400E-4   1.715352409519255E-4  
 2.426000000000000E10    2.528127224650234E-4   2.398392462055199E-5  
 2.428000000000000E10    1.635915541555733E-4  -2.959280100185424E-4  
 2.430000000000000E10   -3.520106838550419E-4  -6.874328828416765E-4  
 2.432000000000000E10   -2.256006264360622E-4   2.995065005961806E-4  
 2.434000000000000E10    9.649934509070590E-5   7.041948265396059E-4  
 2.436000000000000E10    5.903158453293145E-4  -2.849914890248328E-4  
 2.438000000000000E10   -4.381990293040872E-4  -6.349321920424700E-4  
 2.440000000000000E10   -6.270822486840189E-4   1.981054956559092E-4  
 2.442000000000000E10   -2.222272014478222E-4   6.883416208438575E-4  
 2.444000000000000E10    3.928700461983681E-4  -5.449784293887205E-5  
 2.446000000000000E10   -3.170318668708205E-4  -2.771443978417665E-4  
 2.448000000000000E10   -2.925011212937534E-4   1.895502282422967E-5  
 2.450000000000000E10   -2.183367541874759E-5   6.999432807788253E-4  
 2.452000000000000E10    3.037972492165864E-4   2.651455870363861E-4  
 2.454000000000000E10    1.764854387147352E-4  -3.036968992091715E-4  
 2.456000000000000E10   -2.244344505015761E-4   2.256145671708509E-4  
 2.458000000000000E10   -5.235570133663714E-4   3.520570171531290E-4  
 2.460000000000000E10    9.110533574130386E-5   1.963283575605601E-4  
 2.462000000000000E10    2.514723455533385E-4   1.029434715746902E-4  
 2.464000000000000E10    5.365065590012819E-5  -1.248758198926225E-4  
 2.466000000000000E10    8.823301322991028E-5  -2.644657797645778E-4  
 2.468000000000000E10    1.513735769549385E-4   3.435704638832249E-5  
 2.470000000000000E10    3.558343159966171E-4   4.099724756088108E-4  
 2.472000000000000E10    7.082187221385539E-4  -6.524774653371424E-5  
 2.474000000000000E10    1.985574490390718E-4  -7.027316769381287E-6  
 2.476000000000000E10   -4.242054710630328E-4   4.027752147521824E-4  
 2.478000000000000E10    3.096019499935210E-4   7.503483211621642E-4  
 2.480000000000000E10    3.078555746469647E-4  -3.932454274035990E-5  
 2.482000000000000E10   -2.035640500253066E-4  -3.593880974221975E-4  
 2.484000000000000E10   -8.185131591744721E-4  -1.428058312740177E-4  
 2.486000000000000E10   -1.823536731535569E-4   5.009852466173470E-4  
 2.488000000000000E10    2.902678679674864E-4   8.723484643269330E-5  
 2.490000000000000E10    2.139749703928828E-4  -5.874197231605649E-4  
 2.492000000000000E10   -4.133943002671003E-4   2.103134174831212E-4  
 2.494000000000000E10   -2.734706213232130E-4   6.522919284179807E-4  
 2.496000000000000E10    2.140709402738139E-4   1.536248164484277E-4  
 2.498000000000000E10   -1.602150441613048E-4  -1.083659008145332E-4  
 2.500000000000000E10   -4.473791632335633E-4   1.092335514840670E-4  
 2.502000000000000E10   -3.292848414275795E-4   1.023937729769386E-4  
 2.504000000000000E10   -1.496358891017735E-4   2.086000313283876E-4  
 2.506000000000000E10   -1.323876640526578E-4  -1.041072100633755E-4  
 2.508000000000000E10    2.892116317525506E-4   4.256161628291011E-5  
 2.510000000000000E10   -2.582426532171667E-4   1.086990305338986E-4  
 2.512000000000000E10   -4.245426680427045E-4  -9.130479156738147E-5  
 2.514000000000000E10   -5.458234809339047E-4   3.441122826188803E-4  
 2.516000000000000E10    2.424367557978258E-4   4.322818422224373E-4  
 2.518000000000000E10   -5.720371700590476E-5  -2.652558614499867E-4  
 2.520000000000000E10   -3.653005987871438E-4  -5.070290062576532E-4  
 2.522000000000000E10   -4.554795450530946E-4   5.682031624019146E-4  
 2.524000000000000E10   -1.814165625546593E-5   2.330409333808348E-4  
 2.526000000000000E10    2.214028354501352E-4  -8.803908713161945E-5  
 2.528000000000000E10   -3.714495687745512E-4  -3.244892868679017E-4  
 2.530000000000000E10   -4.515732289291918E-4   1.460404164390639E-4  
 2.532000000000000E10    9.970268729375675E-5   4.900821368210018E-4  
 2.534000000000000E10    4.515390610322356E-4   4.613695637090132E-5  
 2.536000000000000E10    1.927868652273901E-5  -3.843091544695199E-4  
 2.538000000000000E10    1.211373819387518E-4   9.107599180424586E-5  
 2.540000000000000E10   -7.802288746461272E-5   6.207647857081611E-6  
 2.542000000000000E10    2.399804070591927E-4   3.939525049645454E-5  
 2.544000000000000E10    4.107823770027608E-4   1.678481494309381E-4  
 2.546000000000000E10    4.367790461401455E-5   1.238713775819633E-5  
 2.548000000000000E10   -7.492881195503287E-6  -1.927882549352944E-4  
 2.550000000000000E10    5.638076981995255E-5   2.833847538568080E-4  
 2.552000000000000E10    1.059321220964193E-4   4.928390262648463E-4  
 2.554000000000000E10    3.496998688206077E-4  -2.928986505139619E-4  
 2.556000000000000E10    6.504149496322498E-5  -3.899120783898979E-4  
 2.558000000000000E10   -4.998714430257678E-4   1.824975624913350E-4  
 2.560000000000000E10    1.776550197973847E-4   2.083804720314220E-4  
 2.562000000000000E10    4.016558232251555E-4  -2.895273501053453E-4  
 2.564000000000000E10    4.135960625717416E-5  -3.296310896985233E-4  
 2.566000000000000E10   -5.425206618383527E-4   1.210670452564955E-4  
 2.568000000000000E10    1.295939873671159E-4   3.444786416366696E-4  
 2.570000000000000E10    4.731187655124813E-4   1.663826988078654E-4  
 2.572000000000000E10   -6.160606426419690E-5  -2.706519444473088E-4  
 2.574000000000000E10   -4.322625682107173E-5  -6.033681711414829E-5  
 2.576000000000000E10    1.274927344638854E-4   2.723664219956845E-4  
 2.578000000000000E10    3.287002618890256E-4  -1.697957923170179E-4  
 2.580000000000000E10   -4.808499943464994E-5   8.105836968752556E-6  
 2.582000000000000E10   -5.692783815902658E-6  -5.979051275062375E-5  
 2.584000000000000E10    1.428218092769384E-4   1.175676952698268E-4  
 2.586000000000000E10   -1.633293140912429E-4  -2.300061605637893E-4  
 2.588000000000000E10    9.678001515567303E-5   7.371113315457478E-5  
 2.590000000000000E10    4.161263059359044E-4  -1.043568845489062E-4  
 2.592000000000000E10    5.806787885376252E-5  -2.785098331514746E-4  
 2.594000000000000E10   -2.380917430855334E-4   2.299081970704719E-4  
 2.596000000000000E10    2.911580959334970E-4   1.668115874053910E-4  
 2.598000000000000E10    6.115165888331831E-4  -4.269122655387037E-5  
 2.600000000000000E10   -7.379776070592925E-5  -4.913626471534371E-4  
 2.602000000000000E10   -4.660999693442136E-4  -1.325904304394499E-4  
 2.604000000000000E10    1.024427183438093E-4   3.708206058945507E-4  
 2.606000000000000E10    2.290221746079624E-4   7.377701695077121E-5  
 2.608000000000000E10    7.068416744004935E-5  -6.011200603097677E-4  
 2.610000000000000E10   -5.445774149848148E-5   1.451790740247816E-4  
 2.612000000000000E10    1.176467549157678E-6   2.982874866575003E-4  
 2.614000000000000E10    3.955719876103103E-4  -2.025641588261351E-4  
 2.616000000000000E10    1.269382191821933E-4  -2.673470298759639E-4  
 2.618000000000000E10   -7.615325739607215E-5  -4.736448772746371E-6  
 2.620000000000000E10    6.207224942045286E-5  -2.709626569412649E-4  
 2.622000000000000E10    1.842376950662583E-4  -5.068714926892426E-6  
 2.624000000000000E10   -4.620581967174076E-5  -1.118662185035646E-4  
 2.626000000000000E10    4.559741646517068E-4  -2.082801802316681E-4  
 2.628000000000000E10   -2.137417468475178E-4  -2.083788131130859E-4  
 2.630000000000000E10   -6.357573874993250E-5  -9.406777098774910E-5  
 2.632000000000000E10    2.018855593632907E-4   2.055664081126452E-4  
 2.634000000000000E10    1.815856958273798E-4  -4.297673585824668E-4  
 2.636000000000000E10   -3.525783540681005E-4  -3.121257177554071E-4  
 2.638000000000000E10   -1.522848906461150E-4  -1.896690082503483E-4  
 2.640000000000000E10   -8.143220475176349E-5   6.897523999214172E-4  
 2.642000000000000E10   -8.897963562048972E-5  -2.142685261787847E-4  
 2.644000000000000E10   -1.013189976220019E-4   3.324249337310903E-5  
 2.646000000000000E10   -6.944451597519219E-4   1.623249554540962E-4  
 2.648000000000000E10    1.540013327030465E-4   3.122847410850227E-4  
 2.650000000000000E10   -1.714270765660331E-4   1.384514616802335E-4  
 2.652000000000000E10    5.118674016557634E-5  -1.389489625580609E-4  
 2.654000000000000E10   -4.769004590343684E-4   1.809975947253406E-4  
 2.656000000000000E10    1.194922442664392E-4  -1.620405819267035E-4  
 2.658000000000000E10   -3.753526252694428E-4   4.250668280292302E-4  
 2.660000000000000E10    2.655594435054809E-4  -2.779210917651653E-4  
 2.662000000000000E10    4.463839286472648E-5   2.892644261009991E-4  
 2.664000000000000E10   -3.273636975791305E-4  -2.599823346827179E-4  
 2.666000000000000E10    2.343985979678109E-4   4.969760775566101E-4  
 2.668000000000000E10    9.207077528117225E-5  -5.664520358550362E-5  
 2.670000000000000E10    9.312217298429459E-5  -1.216745367855765E-4  
 2.672000000000000E10   -2.596911217551678E-4  -2.069589099846780E-4  
 2.674000000000000E10    7.580783858429641E-5   3.336346126161516E-4  
 2.676000000000000E10   -3.302426775917411E-4   1.478994527133182E-4  
 2.678000000000000E10    4.689627094194293E-4  -1.709790813038126E-4  
 2.680000000000000E10   -4.154640482738614E-4  -9.760161628946662E-5  
 2.682000000000000E10   -3.870557338814251E-5   1.818273740354925E-4  
 2.684000000000000E10    1.411316916346550E-4   8.575442188885063E-5  
 2.686000000000000E10    4.450514388736337E-4  -6.602191715501249E-4  
 2.688000000000000E10   -1.930365397129208E-4  -4.907757102046162E-6  
 2.690000000000000E10    9.833661897573620E-5  -2.617829304654151E-4  
 2.692000000000000E10    2.234522980870679E-4   3.694728657137603E-4  
 2.694000000000000E10   -1.722965243970975E-4  -4.918634658679366E-4  
 2.696000000000000E10    3.608393599279225E-4   2.553006925154477E-4  
 2.698000000000000E10   -9.731895261211321E-5  -1.310405059484765E-4  
 2.700000000000000E10    1.912203151732683E-4  -1.201785125886090E-4  
 2.702000000000000E10   -2.768885460682213E-4  -1.637455425225198E-4  
 2.704000000000000E10    2.014134224737063E-4   2.092751383315772E-4  
 2.706000000000000E10   -6.756951188435778E-5  -2.131284563802183E-4  
 2.708000000000000E10    1.239964622072876E-4  -1.663178409216926E-4  
 2.710000000000000E10   -4.749913641717285E-4   2.346968685742468E-4  
 2.712000000000000E10    1.947588170878589E-4   2.447115548420698E-4  
 2.714000000000000E10   -1.360518945148215E-4   2.375920303165913E-4  
 2.716000000000000E10   -1.789771158655640E-5  -1.374175189994276E-4  
 2.718000000000000E10   -5.222313920967281E-4   3.389402991160750E-4  
 2.720000000000000E10    2.284154033986852E-4   1.849982436397113E-5  
 2.722000000000000E10    1.427704992238432E-4  -3.157118044327945E-5  
 2.724000000000000E10   -3.001137229148299E-4  -4.036249301861972E-4  
 2.726000000000000E10   -2.011890901485458E-4   5.243444466032088E-4  
 2.728000000000000E10   -2.175906265620142E-4  -6.757120718248189E-5  
 2.730000000000000E10    6.204313103808090E-5   1.861192577052862E-4  
 2.732000000000000E10   -4.973614122718573E-4   5.287534804665484E-6  
 2.734000000000000E10   -9.453437814954668E-5   1.211554699693807E-4  
 2.736000000000000E10   -1.639009569771588E-4  -2.573420642875135E-4  
 2.738000000000000E10   -8.153894304996356E-5  -3.167106187902391E-4  
 2.740000000000000E10   -5.470110336318612E-4  -1.037989641190507E-4  
 2.742000000000000E10    3.567958483472467E-4   1.504739775555208E-4  
 2.744000000000000E10   -2.695919538382441E-4  -2.287571987835690E-4  
 2.746000000000000E10    1.982903195312247E-4  -2.501909038983285E-4  
 2.748000000000000E10   -3.387261240277439E-4   5.084386211819947E-4  
 2.750000000000000E10    1.167226364486851E-4  -1.148509836639278E-4  
 2.752000000000000E10    2.045023284154013E-4   3.102744231000543E-4  
 2.754000000000000E10   -2.725255326367915E-4  -3.988713724538684E-4  
 2.756000000000000E10   -2.481766860000789E-4  -8.634754340164363E-5  
