#  HZ   S   RI   R     50.00 
! Rohde & Schwarz ZVA40 4Ports - Version 3.90 - 1145.1110k42 SN: 100403
! Date: 2023-10-04 09:23:30
! Measurement: S12 
! 
 2.200000000000000E10   -6.591955316253007E-4   6.748178275302053E-4  
 2.202000000000000E10    6.970381364226341E-4   3.735177451744676E-4  
 2.204000000000000E10    6.684658001177013E-4  -9.961419273167849E-4  
 2.206000000000000E10   -8.774053421802819E-4  -1.030998653732240E-3  
 2.208000000000000E10   -6.180148338899016E-4   7.029425469227135E-4  
 2.210000000000000E10    4.792755935341120E-4   5.606661434285343E-4  
 2.212000000000000E10    3.356639936100692E-4  -8.533444488421083E-4  
 2.214000000000000E10   -7.120073423720896E-4  -6.210413412190974E-4  
 2.216000000000000E10   -5.214288830757141E-4   5.489952163770795E-4  
 2.218000000000000E10    3.592531429603696E-4   3.405195020604879E-4  
 2.220000000000000E10    2.818543580360711E-4  -1.176667865365744E-4  
 2.222000000000000E10   -5.261292099021375E-4  -5.076158686279086E-6  
 2.224000000000000E10    1.745905901771039E-4   2.354707394260913E-4  
 2.226000000000000E10    2.674123679753393E-4   1.668943441472948E-4  
 2.228000000000000E10   -3.340360708534718E-4  -7.694923988310620E-5  
 2.230000000000000E10    4.106537380721420E-4   6.863246089778841E-4  
 2.232000000000000E10    7.263243314810097E-4  -5.477952654473484E-4  
 2.234000000000000E10   -1.170975447166711E-4  -6.183391669765115E-4  
 2.236000000000000E10   -6.821535644121468E-4   3.601893549785018E-4  
 2.238000000000000E10    6.436486728489399E-4   7.694078958593309E-4  
 2.240000000000000E10    8.671489194966853E-4  -6.932026008144021E-4  
 2.242000000000000E10   -3.948078665416688E-4  -7.229619659483433E-4  
 2.244000000000000E10   -9.603950311429799E-4   6.054178811609745E-4  
 2.246000000000000E10    6.115428404882550E-4   3.254771290812641E-4  
 2.248000000000000E10    5.253041745163500E-4  -3.781547129619867E-4  
 2.250000000000000E10   -1.058361725881696E-3  -1.039932016283274E-3  
 2.252000000000000E10   -6.963414489291608E-5   1.118102663895115E-4  
 2.254000000000000E10    1.999285450438038E-4   2.243946073576808E-4  
 2.256000000000000E10    3.256896161474288E-4  -3.788652829825878E-4  
 2.258000000000000E10   -1.158548111561686E-4  -1.389157259836793E-4  
 2.260000000000000E10   -8.991125650936738E-5   2.295187005074695E-4  
 2.262000000000000E10   -1.612340129213408E-4  -3.278317308286205E-5  
 2.264000000000000E10   -2.087429602397606E-4   1.350298698525876E-4  
 2.266000000000000E10   -8.237243309849873E-5   5.446902359835804E-4  
 2.268000000000000E10    2.523175789974630E-4  -2.411735331406817E-4  
 2.270000000000000E10   -1.583957928232849E-4  -2.312636643182486E-4  
 2.272000000000000E10   -8.283610222861171E-4   3.074069391004741E-4  
 2.274000000000000E10    2.080605627270415E-4   6.441343575716019E-4  
 2.276000000000000E10    4.424540093168616E-4  -7.319262749660993E-6  
 2.278000000000000E10   -1.765351044014096E-4  -6.076763384044170E-4  
 2.280000000000000E10   -6.757205701433122E-4   4.103838582523167E-4  
 2.282000000000000E10    6.184668563946616E-6   8.074959041550756E-4  
 2.284000000000000E10    6.605093949474394E-4  -1.105223491322249E-4  
 2.286000000000000E10   -2.566347247920930E-4  -6.333591300062835E-4  
 2.288000000000000E10   -4.459019110072404E-4   6.969435489736497E-4  
 2.290000000000000E10   -1.735988480504602E-4   4.836834559682757E-4  
 2.292000000000000E10    3.051248495467007E-4  -1.940828806255013E-4  
 2.294000000000000E10   -5.630789019051008E-5   2.376191987423226E-4  
 2.296000000000000E10   -2.162355085602030E-4  -2.388342109043151E-4  
 2.298000000000000E10    2.141973709512968E-5   2.186960728067788E-6  
 2.300000000000000E10   -1.234623487107456E-4   8.145797619363293E-5  
 2.302000000000000E10    2.726023667491972E-4   2.248171076644212E-4  
 2.304000000000000E10    3.992778656538576E-4  -8.150665962602943E-5  
 2.306000000000000E10   -4.645195440389216E-5  -4.124682527617551E-5  
 2.308000000000000E10   -5.118534318171442E-4   1.894567831186578E-4  
 2.310000000000000E10    2.181274321628735E-4   4.088800051249564E-4  
 2.312000000000000E10    3.971806145273149E-4   1.271643996005878E-4  
 2.314000000000000E10   -1.205560984089971E-4  -6.742516998201609E-4  
 2.316000000000000E10   -3.197984187863767E-4   5.332630826160312E-4  
 2.318000000000000E10   -9.249847789760679E-5   5.897043738514185E-4  
 2.320000000000000E10    6.966803921386600E-4  -1.843673671828583E-4  
 2.322000000000000E10    4.424643066158751E-6  -4.619497631210834E-4  
 2.324000000000000E10   -4.978612996637821E-4   2.738435869105160E-4  
 2.326000000000000E10    2.900201943702996E-4   3.787001187447459E-4  
 2.328000000000000E10    4.600608081091195E-4  -8.388612332055345E-5  
 2.330000000000000E10   -1.710353099042550E-4  -1.308052451349795E-4  
 2.332000000000000E10   -5.580493962042965E-5   1.836342999013141E-4  
 2.334000000000000E10   -8.836144843371585E-5   1.966965064639226E-4  
 2.336000000000000E10   -6.463196041295305E-5  -1.176879668491893E-4  
 2.338000000000000E10   -5.013291593058966E-5   2.830229932442308E-4  
 2.340000000000000E10    1.058996931533329E-4  -1.548351719975472E-4  
 2.342000000000000E10   -3.331168773001991E-5  -3.867888299282640E-4  
 2.344000000000000E10   -3.510946989990771E-4   1.602988777449355E-4  
 2.346000000000000E10    2.673325652722269E-4   2.045238506980240E-4  
 2.348000000000000E10    5.860606906935573E-4  -1.151959440903738E-4  
 2.350000000000000E10   -3.475158882793039E-5  -3.165079688187689E-4  
 2.352000000000000E10   -2.500663977116346E-4   2.483611751813442E-4  
 2.354000000000000E10   -2.303796354681253E-4   2.435811911709607E-4  
 2.356000000000000E10    3.726937575265765E-4   3.946620854549110E-4  
 2.358000000000000E10   -2.634256961755455E-4  -1.295471884077415E-4  
 2.360000000000000E10   -5.802538944408298E-4   2.849975717253983E-4  
 2.362000000000000E10   -2.482725540176034E-4   4.386848886497319E-4  
 2.364000000000000E10    4.180935793556273E-4  -3.729481832124293E-4  
 2.366000000000000E10   -1.429968542652205E-4  -1.219702098751441E-4  
 2.368000000000000E10   -7.344687037402764E-5   1.619075737835374E-5  
 2.370000000000000E10    4.610584001056850E-4   3.219309146516025E-4  
 2.372000000000000E10    2.020460087805986E-4  -7.236140663735569E-5  
 2.374000000000000E10    2.186199526477139E-5   4.315598052926362E-4  
 2.376000000000000E10    2.356959157623351E-4   3.808425099123269E-4  
 2.378000000000000E10    2.407889405731112E-4  -2.035172219621018E-4  
 2.380000000000000E10   -5.402935785241425E-4   9.509697702014819E-5  
 2.382000000000000E10    2.498747780919075E-4   5.218959995545447E-4  
 2.384000000000000E10    1.947681594174355E-4  -3.449741780059412E-5  
 2.386000000000000E10    7.739674038020894E-5  -5.985954194329679E-4  
 2.388000000000000E10   -3.466634079813957E-4   2.502972492948175E-4  
 2.390000000000000E10    2.526637690607458E-4   5.028754239901900E-4  
 2.392000000000000E10    7.632886990904808E-4   1.418327065039193E-5  
 2.394000000000000E10   -1.472559088142589E-4  -4.204667056910694E-4  
 2.396000000000000E10   -1.521459344075993E-4   1.496348122600466E-4  
 2.398000000000000E10    2.488747413735837E-4   5.514679942280054E-4  
 2.400000000000000E10    4.690965870395303E-4   4.158422234468162E-5  
 2.402000000000000E10   -1.518796489108354E-4  -5.322395591065288E-4  
 2.404000000000000E10   -1.752678072080016E-4   1.344849297311157E-4  
 2.406000000000000E10   -9.662193770054728E-5   9.377770766150206E-5  
 2.408000000000000E10    2.303655783180147E-4  -1.730825024424121E-4  
 2.410000000000000E10    1.638341491343454E-4   2.490359183866531E-4  
 2.412000000000000E10    3.055562046938576E-5  -1.631822378840298E-4  
 2.414000000000000E10    1.260305289179087E-4  -5.255566065898165E-5  
 2.416000000000000E10   -3.852530207950622E-4   2.156606933567673E-4  
 2.418000000000000E10    6.122705235611647E-5   3.765064175240696E-4  
 2.420000000000000E10    2.593097742646933E-4   2.387724634900224E-5  
 2.422000000000000E10   -1.926785043906421E-4  -5.354314344003797E-4  
 2.424000000000000E10   -6.274529732763767E-4   3.735533391591162E-5  
 2.426000000000000E10   -8.994353993330151E-5   6.681014201603830E-4  
 2.428000000000000E10    2.733982109930366E-4  -1.793838964658789E-5  
 2.430000000000000E10    1.408106327289715E-4  -7.870302652008832E-4  
 2.432000000000000E10   -4.919401835650206E-4  -9.420439891982824E-5  
 2.434000000000000E10   -3.513614647090435E-4   5.450664903037250E-4  
 2.436000000000000E10    6.264554685913026E-4  -1.098625580198132E-4  
 2.438000000000000E10    2.030518808169290E-4  -2.937693207059056E-4  
 2.440000000000000E10   -7.482714718207717E-4  -4.542180104181171E-4  
 2.442000000000000E10   -2.378937497269362E-4   4.600010288413614E-4  
 2.444000000000000E10    8.432837057625875E-5   2.576813567429781E-4  
 2.446000000000000E10    3.157460596412420E-4  -2.777097979560494E-4  
 2.448000000000000E10    8.428270666627213E-5  -3.647770499810576E-4  
 2.450000000000000E10   -3.511939721647650E-4   1.177493977593258E-4  
 2.452000000000000E10   -1.832382404245436E-4   9.159596083918586E-5  
 2.454000000000000E10    3.883624740410596E-4   1.520762161817402E-4  
 2.456000000000000E10    6.926945206942037E-5   1.707136980257928E-4  
 2.458000000000000E10    3.919152004527859E-5  -4.777788708452135E-4  
 2.460000000000000E10   -2.519469417165965E-4   2.117453841492534E-4  
 2.462000000000000E10   -4.714645911008120E-4   4.583926347550005E-4  
 2.464000000000000E10    7.272378425113857E-4   5.186631096876226E-5  
 2.466000000000000E10    2.241147740278393E-4  -4.805900098290294E-4  
 2.468000000000000E10   -4.859317268710583E-4  -3.608202678151429E-4  
 2.470000000000000E10   -1.089166980818845E-4   3.532094997353852E-4  
 2.472000000000000E10    7.629048195667565E-4   3.270660527050495E-4  
 2.474000000000000E10    6.914388359291479E-5  -4.079256032127887E-4  
 2.476000000000000E10   -4.163035191595554E-4  -4.877589526586235E-4  
 2.478000000000000E10   -2.984583552461118E-4   4.116150666959584E-4  
 2.480000000000000E10    5.128727207193151E-5   7.230762275867164E-5  
 2.482000000000000E10    2.550343051552773E-4  -4.471675201784819E-4  
 2.484000000000000E10   -3.505602653604001E-4  -2.692190173547715E-4  
 2.486000000000000E10   -1.558250805828720E-4  -1.740084007906262E-5  
 2.488000000000000E10   -4.416540105012246E-5   2.250544057460502E-4  
 2.490000000000000E10    3.742103581316769E-5   2.041404695773963E-5  
 2.492000000000000E10    4.556562635116279E-5  -2.327086258446798E-4  
 2.494000000000000E10   -1.644816948100925E-4   9.893669630400837E-5  
 2.496000000000000E10   -1.459759514546022E-4   3.833407026831992E-5  
 2.498000000000000E10    7.548262510681525E-5   1.914906169986352E-4  
 2.500000000000000E10   -9.187506657326594E-5   2.323072549188510E-4  
 2.502000000000000E10    2.717835886869580E-4  -7.758146239211783E-5  
 2.504000000000000E10   -1.773223484633490E-4  -6.915396079421043E-5  
 2.506000000000000E10   -8.173459355020896E-5   2.979820128530264E-4  
 2.508000000000000E10    5.348554113879800E-4   4.191388725303114E-4  
 2.510000000000000E10    2.738916664384306E-4  -3.259333316236734E-4  
 2.512000000000000E10   -1.377751596010057E-5   3.286460196250118E-5  
 2.514000000000000E10   -1.975136256078258E-4   4.350648086983711E-4  
 2.516000000000000E10    4.619881219696254E-4   1.167485097539611E-4  
 2.518000000000000E10    4.897274193353951E-4  -2.153239765902981E-4  
 2.520000000000000E10    5.701086411136203E-5  -1.856288145063445E-4  
 2.522000000000000E10    7.029455900919857E-6   1.512814487796277E-4  
 2.524000000000000E10    4.920614301227033E-4   2.856970240827650E-4  
 2.526000000000000E10    3.725055430550128E-4  -7.363469921983779E-5  
 2.528000000000000E10   -2.021614636760205E-4   8.750191773287952E-5  
 2.530000000000000E10   -1.008795079542324E-4   1.143437693826854E-4  
 2.532000000000000E10   -2.300430423929356E-5   1.856018789112568E-4  
 2.534000000000000E10   -1.614855573279783E-4   1.415909173374530E-5  
 2.536000000000000E10    1.520300284028053E-4  -8.031781180761755E-5  
 2.538000000000000E10   -1.777171273715794E-4  -3.309881431050599E-4  
 2.540000000000000E10   -1.020619129121769E-5  -4.756846756208688E-4  
 2.542000000000000E10    2.191284002037719E-4   1.254691451322287E-4  
 2.544000000000000E10    7.216340600280091E-5   1.181014522444457E-4  
 2.546000000000000E10    2.604633918963373E-4  -1.972795726032928E-4  
 2.548000000000000E10   -9.267804853152484E-5  -3.550228720996529E-4  
 2.550000000000000E10   -4.919150378555059E-4   2.327996189706028E-4  
 2.552000000000000E10   -2.173796528950334E-4   1.365946227451786E-4  
 2.554000000000000E10    2.362074301345274E-4  -3.382280119694769E-4  
 2.556000000000000E10   -1.929138234118000E-4  -5.138382548466325E-4  
 2.558000000000000E10   -5.571859655901790E-4  -3.985642688348889E-4  
 2.560000000000000E10    1.595469439052977E-5  -1.728999050101265E-4  
 2.562000000000000E10    3.075136337429285E-4  -6.369932089000940E-5  
 2.564000000000000E10    1.644544972805306E-4  -4.034728044643998E-4  
 2.566000000000000E10   -3.417622356209904E-4  -3.535134601406753E-5  
 2.568000000000000E10   -1.718958810670301E-4   1.449668052373454E-4  
 2.570000000000000E10    7.782153988955542E-5   1.991228346014395E-4  
 2.572000000000000E10   -1.855272421380505E-4  -2.509529585950077E-4  
 2.574000000000000E10   -1.591913751326501E-4  -1.864803780335933E-4  
 2.576000000000000E10   -1.901152863865718E-4  -2.763276861514896E-4  
 2.578000000000000E10   -1.028171536745504E-4   5.856340067111887E-5  
 2.580000000000000E10   -4.177917435299605E-5   2.106152242049575E-4  
 2.582000000000000E10    3.426593902986497E-4  -1.608674501767382E-4  
 2.584000000000000E10    9.212051372742280E-5   1.525707630207762E-4  
 2.586000000000000E10   -2.228699013357982E-4   2.234774874523282E-4  
 2.588000000000000E10   -2.316269237780944E-4   4.311642551328987E-4  
 2.590000000000000E10    2.426290884613991E-4   1.990679593291134E-4  
 2.592000000000000E10   -2.209241793025285E-4  -3.931166429538280E-5  
 2.594000000000000E10   -2.491898776497692E-4  -2.331284631509334E-4  
 2.596000000000000E10    6.947508518351242E-5   4.970824229530990E-4  
 2.598000000000000E10    1.580651442054659E-4  -1.729630457703024E-4  
 2.600000000000000E10    2.635202545206994E-4  -1.282046578126028E-4  
 2.602000000000000E10   -1.466657558921725E-4   2.610953524708748E-4  
 2.604000000000000E10    3.237963755964302E-5   1.824376231525093E-4  
 2.606000000000000E10   -8.018701578293985E-7  -1.368625271425117E-5  
 2.608000000000000E10    7.942364027258009E-5   1.423445792170242E-4  
 2.610000000000000E10   -8.255284774350002E-5  -3.507969813654199E-5  
 2.612000000000000E10    1.620195689611137E-4  -3.553833521436900E-4  
 2.614000000000000E10   -1.852211134973913E-4   1.424708316335455E-4  
 2.616000000000000E10    1.906184334075078E-4  -1.278897252632305E-4  
 2.618000000000000E10    2.329068811377510E-4   1.070486396201886E-4  
 2.620000000000000E10   -2.189834049204364E-4  -3.089572128374130E-4  
 2.622000000000000E10   -1.130323435063474E-4   2.082939172396436E-4  
 2.624000000000000E10   -2.515600644983351E-4  -1.507652723375941E-5  
 2.626000000000000E10    1.471492141718045E-4   1.399458851665258E-4  
 2.628000000000000E10    3.597601244109683E-5  -5.181507440283895E-4  
 2.630000000000000E10   -3.627092883107252E-5   1.250815694220364E-5  
 2.632000000000000E10   -4.705793107859790E-4   4.370137321529910E-5  
 2.634000000000000E10    4.251197970006615E-4  -3.890291554853320E-4  
 2.636000000000000E10   -5.289795444696210E-5  -1.884215598693118E-4  
 2.638000000000000E10   -3.889332292601466E-4  -2.331058931304142E-4  
 2.640000000000000E10   -2.475414075888693E-4   5.817101919092238E-5  
 2.642000000000000E10    1.835512812249363E-4  -3.703205729834735E-4  
 2.644000000000000E10   -2.910414768848568E-4   3.576642120606266E-5  
 2.646000000000000E10   -4.277683729014825E-6  -2.756334724836052E-4  
 2.648000000000000E10   -1.043984957505018E-4   8.914341015042737E-5  
 2.650000000000000E10   -4.415157309267670E-4  -2.150031068595126E-4  
 2.652000000000000E10    1.522494712844491E-4   2.975699026137590E-4  
 2.654000000000000E10   -3.176621103193611E-4  -2.395595220150426E-4  
 2.656000000000000E10   -2.536668944230769E-5  -2.252076519653201E-4  
 2.658000000000000E10   -3.597212198656052E-4   7.572627509944141E-5  
 2.660000000000000E10    2.106933097820729E-4  -1.909237471409142E-5  
 2.662000000000000E10    1.243495898961555E-5   2.254553837701678E-4  
 2.664000000000000E10    2.155040128855035E-4  -4.073663512826897E-5  
 2.666000000000000E10   -2.299516490893439E-4   5.563025843002833E-5  
 2.668000000000000E10    6.574194412678480E-5   2.795368491206318E-4  
 2.670000000000000E10   -3.032804306712933E-5   2.101386780850589E-4  
 2.672000000000000E10    5.659212547470816E-5  -4.784996854141355E-4  
 2.674000000000000E10   -5.272171692922711E-4   3.046536003239453E-4  
 2.676000000000000E10   -1.192089039250277E-4  -1.984949631150812E-4  
 2.678000000000000E10    4.483182274270803E-4   3.672386810649186E-4  
 2.680000000000000E10   -1.971907040569931E-4  -5.231304021435790E-5  
 2.682000000000000E10    2.005666319746524E-4  -3.617552238210919E-6  
 2.684000000000000E10   -1.787839573808014E-5   3.186682006344199E-4  
 2.686000000000000E10    1.447949907742441E-4   2.601202577352524E-4  
 2.688000000000000E10   -3.353533102199435E-4  -6.009896969771944E-5  
 2.690000000000000E10    1.379459572490305E-4   6.578090687980875E-5  
 2.692000000000000E10   -4.909033887088299E-4   1.193570278701372E-4  
 2.694000000000000E10   -7.662977441214025E-5  -8.796699694357812E-5  
 2.696000000000000E10   -9.268374560633674E-5   1.029385311994702E-4  
 2.698000000000000E10    3.335504152346402E-4  -8.779088966548443E-5  
 2.700000000000000E10   -2.224428753834218E-4   1.633008214412257E-4  
 2.702000000000000E10    3.968891542172059E-5   1.495584001531825E-4  
 2.704000000000000E10    1.260026692762040E-5   5.015251226723194E-4  
 2.706000000000000E10   -2.356855657126289E-5  -2.923993451986462E-4  
 2.708000000000000E10   -1.592232365510427E-5   3.289725864306092E-4  
 2.710000000000000E10   -4.149462038185448E-4  -4.014842561446130E-4  
 2.712000000000000E10    2.616634883452207E-4   4.481023643165827E-5  
 2.714000000000000E10    1.333115069428459E-4  -2.225334465038031E-4  
 2.716000000000000E10    5.035944632254541E-4  -2.887648588512093E-4  
 2.718000000000000E10   -2.336837042093976E-6  -9.217140177497640E-5  
 2.720000000000000E10    6.396753014996648E-4  -5.301130659063347E-5  
 2.722000000000000E10    1.990826131077483E-4  -1.125485432567075E-4  
 2.724000000000000E10    1.557890354888514E-4  -2.059939579339698E-4  
 2.726000000000000E10   -2.497618843335658E-4   9.674294415162876E-5  
 2.728000000000000E10    2.432622422929853E-4  -1.419750333297998E-4  
 2.730000000000000E10   -1.291026419494301E-4   7.494215242331848E-5  
 2.732000000000000E10    1.298052666243166E-4  -3.801480634137988E-4  
 2.734000000000000E10    6.043341272743419E-5   2.921746345236898E-4  
 2.736000000000000E10    2.319764462299645E-4  -3.152767894789577E-4  
 2.738000000000000E10    1.827905653044581E-4  -1.636922024772503E-5  
 2.740000000000000E10   -4.770810846821405E-5  -1.086682605091482E-4  
 2.742000000000000E10    2.875280042644590E-4   3.551532863639295E-4  
 2.744000000000000E10    2.502814750187099E-4  -7.038165495032445E-5  
 2.746000000000000E10    3.090831451117992E-4  -6.443019810831174E-5  
 2.748000000000000E10   -5.071068881079555E-4   1.011087369988672E-4  
 2.750000000000000E10    2.007241564569995E-4   4.119725781492889E-4  
 2.752000000000000E10   -3.638386624515988E-5   1.037370675476268E-4  
 2.754000000000000E10   -5.439292635855964E-6  -4.147430008742958E-4  
 2.756000000000000E10   -3.481514286249876E-4   2.311533753527328E-4  
