#  HZ   S   RI   R     50.00 
! Rohde & Schwarz ZVA40 4Ports - Version 3.90 - 1145.1110k42 SN: 100403
! Date: 2023-10-04 09:23:13
! Measurement: S12 
! 
 2.200000000000000E10   -4.606216680258513E-4  -6.354582728818059E-5  
 2.202000000000000E10    5.088527686893940E-4   5.510475966730155E-5  
 2.204000000000000E10    3.922426549252123E-4  -4.759510338772088E-4  
 2.206000000000000E10   -3.309532476123422E-4  -3.898887662217021E-4  
 2.208000000000000E10    8.750132838031277E-5   8.534285007044673E-4  
 2.210000000000000E10    9.422809234820306E-4   9.746749128680676E-5  
 2.212000000000000E10   -2.824202238116413E-4  -7.452989812009037E-4  
 2.214000000000000E10   -1.417901134118438E-3   1.961920497706160E-4  
 2.216000000000000E10    1.466337998863310E-4   1.284459955058992E-3  
 2.218000000000000E10    9.680402581579983E-4  -2.811519079841673E-4  
 2.220000000000000E10   -3.957398876082152E-4  -9.806222515180707E-4  
 2.222000000000000E10   -1.216255826875567E-3   3.003183519467711E-4  
 2.224000000000000E10    3.805405285675079E-4   1.220304751768708E-3  
 2.226000000000000E10    1.076203421689570E-3  -6.214465975062922E-5  
 2.228000000000000E10   -2.454407222103328E-4  -4.750711959786713E-4  
 2.230000000000000E10   -8.501361007802188E-4   8.094948716461659E-4  
 2.232000000000000E10    4.655163502320647E-4   7.993082981556654E-4  
 2.234000000000000E10    6.816462264396250E-4  -1.816465082811192E-4  
 2.236000000000000E10   -5.366507102735341E-4  -1.854664442362264E-4  
 2.238000000000000E10   -4.062417065142654E-5   3.750816977117211E-4  
 2.240000000000000E10    2.331798314116895E-4   2.137814408342820E-5  
 2.242000000000000E10   -2.084148036374245E-5  -2.469110186211765E-4  
 2.244000000000000E10   -4.273572994861752E-5   2.462292322888970E-4  
 2.246000000000000E10    7.307102787308395E-4  -1.343183103017509E-4  
 2.248000000000000E10    8.310678822454065E-5  -7.202861597761512E-4  
 2.250000000000000E10   -8.149392087943852E-4  -4.852307320106775E-4  
 2.252000000000000E10    2.382864186074585E-4   1.001295633614063E-3  
 2.254000000000000E10    8.755341987125576E-4  -1.676547253737226E-5  
 2.256000000000000E10   -1.107436037273146E-4  -1.194342854432762E-3  
 2.258000000000000E10   -1.299042836762965E-3   1.586339494679123E-4  
 2.260000000000000E10    1.028534679790027E-4   5.387205746956170E-4  
 2.262000000000000E10    6.398363620974124E-4  -3.217890625819564E-4  
 2.264000000000000E10   -4.008000541944057E-4  -9.909828659147024E-4  
 2.266000000000000E10   -8.383183740079403E-4   2.992561785504222E-4  
 2.268000000000000E10    3.643050149548799E-5   5.442845285870135E-4  
 2.270000000000000E10    1.315199478995055E-4   1.553016918478534E-4  
 2.272000000000000E10   -4.006529634352773E-4  -2.215896092820913E-4  
 2.274000000000000E10   -4.446315288078040E-4   6.841678987257183E-5  
 2.276000000000000E10   -2.369180001551285E-4   3.520167374517769E-4  
 2.278000000000000E10   -3.159558036713861E-5  -2.638636797200888E-4  
 2.280000000000000E10   -1.388809905620292E-4   4.563506809063256E-4  
 2.282000000000000E10    2.617794089019299E-4   2.760026109172031E-5  
 2.284000000000000E10    2.690074616111815E-4  -3.244146355427802E-4  
 2.286000000000000E10   -5.562438745982945E-4   6.830926577094942E-5  
 2.288000000000000E10   -3.709196244017221E-5   6.919998559169471E-4  
 2.290000000000000E10    4.830548132304102E-4  -5.711637641070411E-5  
 2.292000000000000E10    8.842479473969434E-6  -8.019576198421419E-4  
 2.294000000000000E10   -7.701247814111412E-4   1.071727165253833E-4  
 2.296000000000000E10   -9.804310684558004E-5   3.791868803091347E-4  
 2.298000000000000E10    7.944198441691697E-4  -7.983276009326801E-5  
 2.300000000000000E10   -3.414160746615380E-4  -7.586899446323514E-4  
 2.302000000000000E10   -5.541221471503377E-4   3.227298293495551E-5  
 2.304000000000000E10   -1.679520355537534E-4   5.204083281569183E-4  
 2.306000000000000E10    2.554882375989109E-4   3.974772334913723E-5  
 2.308000000000000E10   -3.247246422688477E-5   6.587774259969592E-5  
 2.310000000000000E10   -3.255430492572486E-4   1.531855959910899E-4  
 2.312000000000000E10   -2.569483767729253E-4   3.865343169309199E-4  
 2.314000000000000E10    1.345613563898951E-4   8.765477832639590E-5  
 2.316000000000000E10   -2.119600103469566E-4   3.115196013823152E-4  
 2.318000000000000E10   -1.444503141101450E-4  -8.541384158888832E-5  
 2.320000000000000E10    3.235075564589351E-4  -1.538879587315023E-4  
 2.322000000000000E10   -2.673034905456007E-4   1.123868514696369E-6  
 2.324000000000000E10    7.751976227154955E-5   4.234739753883332E-4  
 2.326000000000000E10    4.123834951315075E-4   9.777897503226996E-5  
 2.328000000000000E10    9.637658513383940E-5  -3.146823437418789E-4  
 2.330000000000000E10   -6.906580529175699E-4   9.299867087975144E-5  
 2.332000000000000E10   -5.271297050057910E-5   5.606625345535576E-4  
 2.334000000000000E10    2.152996312361211E-4   1.161869222414680E-4  
 2.336000000000000E10   -1.530474546598271E-4  -6.805247976444662E-4  
 2.338000000000000E10   -5.294321454130113E-4  -9.956267604138702E-5  
 2.340000000000000E10   -9.206234972225502E-5   2.834254119079560E-4  
 2.342000000000000E10    4.491237050388008E-4  -2.811303711496294E-4  
 2.344000000000000E10   -5.390256046666764E-5  -4.112392198294401E-4  
 2.346000000000000E10   -2.679296358110150E-6   2.635267810546793E-5  
 2.348000000000000E10    2.761935174930841E-4   1.748736103763804E-4  
 2.350000000000000E10   -3.012105116795283E-5   3.631159052019939E-5  
 2.352000000000000E10   -3.785702283494175E-4   5.389685156842461E-6  
 2.354000000000000E10    9.251575647795107E-6  -8.410964073846117E-5  
 2.356000000000000E10   -4.914979581371881E-5   9.199729538522661E-5  
 2.358000000000000E10   -3.781662089750171E-4   5.927690654061735E-5  
 2.360000000000000E10   -3.196647230652161E-5   2.178929571527988E-4  
 2.362000000000000E10    7.223105785669759E-5  -1.141837201430462E-4  
 2.364000000000000E10    4.155893984716386E-4  -1.056525434250943E-4  
 2.366000000000000E10   -2.899387036450207E-4   3.390708297956735E-4  
 2.368000000000000E10   -1.436570746591315E-4   2.596932463347912E-4  
 2.370000000000000E10    3.519045712891966E-4   5.911823245696724E-4  
 2.372000000000000E10    1.158219092758372E-4  -4.112533351872116E-4  
 2.374000000000000E10   -1.396559237036854E-4   3.611806823755615E-5  
 2.376000000000000E10   -1.938879722729325E-4   2.676452277228236E-4  
 2.378000000000000E10    6.042419699952006E-4  -1.503268285887316E-4  
 2.380000000000000E10    9.134884749073535E-5  -3.284154227003455E-4  
 2.382000000000000E10   -3.633491869550198E-4   9.957115980796516E-5  
 2.384000000000000E10    1.370680547552183E-4   1.951042504515499E-4  
 2.386000000000000E10    2.903367567341775E-4  -2.920099941547960E-4  
 2.388000000000000E10   -3.770667535718530E-4   1.269598578801379E-4  
 2.390000000000000E10    2.165095065720379E-4   2.710740373004228E-4  
 2.392000000000000E10    1.128143121604808E-4   2.024630157393403E-5  
 2.394000000000000E10   -1.827772211981937E-4  -3.180921194143593E-4  
 2.396000000000000E10    2.019062594627030E-5   1.672074431553483E-4  
 2.398000000000000E10    2.566293987911195E-4  -1.207246100420889E-6  
 2.400000000000000E10    1.578414958203211E-4  -3.457336279097945E-4  
 2.402000000000000E10   -2.673213311936706E-4  -1.277736591873691E-4  
 2.404000000000000E10   -1.097187805498834E-6   4.025969246868044E-4  
 2.406000000000000E10    1.638647372601554E-4   6.426543404813856E-5  
 2.408000000000000E10    1.493560848757625E-4  -1.667323958827183E-4  
 2.410000000000000E10   -5.460753454826772E-4  -7.926980288175400E-6  
 2.412000000000000E10   -2.143778692698106E-4  -6.773462700948585E-6  
 2.414000000000000E10    1.687610929366201E-4   3.731957349373261E-6  
 2.416000000000000E10   -1.318557333434001E-4  -3.708275035023689E-4  
 2.418000000000000E10   -3.459883446339518E-4  -1.653751969570294E-4  
 2.420000000000000E10   -2.054055512417108E-4   2.381405356572941E-4  
 2.422000000000000E10    3.619019116740674E-4   1.570051244925708E-4  
 2.424000000000000E10    2.008106675930321E-4  -1.818527016439475E-5  
 2.426000000000000E10   -1.956835621967912E-4   1.001383498078212E-4  
 2.428000000000000E10   -1.868304389063269E-4   3.034842484339606E-5  
 2.430000000000000E10   -1.274556852877140E-4   3.132841666229069E-4  
 2.432000000000000E10   -2.967281616292894E-4   1.961540983757004E-4  
 2.434000000000000E10    2.168826758861542E-4  -4.553535109153017E-5  
 2.436000000000000E10    1.873262954177335E-5  -2.587342169135809E-4  
 2.438000000000000E10   -3.178510232828558E-4   8.818042988423258E-5  
 2.440000000000000E10   -3.490237577352673E-5   1.492525043431670E-4  
 2.442000000000000E10    5.838286597281694E-4   3.464946930762380E-4  
 2.444000000000000E10   -1.242767939402256E-5  -2.668167871888727E-4  
 2.446000000000000E10   -3.935558488592506E-4   6.284850678639486E-5  
 2.448000000000000E10   -1.123979309340939E-4   5.576710682362318E-4  
 2.450000000000000E10    4.632830678019673E-4   5.465604481287301E-4  
 2.452000000000000E10    3.753211058210582E-4  -3.491484094411135E-4  
 2.454000000000000E10   -2.646672364789993E-4  -3.157378814648837E-4  
 2.456000000000000E10   -5.162971792742610E-4   3.657417255453765E-4  
 2.458000000000000E10    5.543808802030981E-4   4.298086278140545E-4  
 2.460000000000000E10    4.783131589647383E-4   9.113682608585805E-5  
 2.462000000000000E10   -1.227284956257790E-4  -5.787714035250247E-4  
 2.464000000000000E10   -3.021778184120194E-6   3.161134663969278E-4  
 2.466000000000000E10   -8.392838208237663E-5   6.120832404121757E-4  
 2.468000000000000E10    3.519808815326542E-4  -2.010340540437028E-4  
 2.470000000000000E10    1.465852983528748E-4  -2.512940845917910E-4  
 2.472000000000000E10    2.062997009488754E-5  -8.022790279937908E-5  
 2.474000000000000E10   -1.187655579997227E-4  -1.694545208010823E-4  
 2.476000000000000E10    1.861245254985988E-4   3.128151365672238E-5  
 2.478000000000000E10    5.439622909761965E-4   1.289146894123405E-5  
 2.480000000000000E10    4.370431997813284E-4  -5.147339543327689E-4  
 2.482000000000000E10   -2.943276776932180E-4  -2.757192123681307E-4  
 2.484000000000000E10   -3.377158136572689E-4   2.195937850046903E-4  
 2.486000000000000E10    4.047878319397569E-4   2.611309464555234E-4  
 2.488000000000000E10    1.666808238951489E-4  -4.310134681873024E-4  
 2.490000000000000E10   -7.065011886879802E-4  -5.028404993936420E-4  
 2.492000000000000E10   -4.585688875522465E-4   8.749735570745543E-5  
 2.494000000000000E10    3.517745062708855E-4   2.478133537806571E-4  
 2.496000000000000E10   -6.710549314448144E-6  -6.179633201099932E-4  
 2.498000000000000E10   -1.930277503561229E-4  -5.224419146543369E-5  
 2.500000000000000E10   -4.033975710626692E-4   2.575410326244310E-5  
 2.502000000000000E10   -1.112810859922320E-4   4.416686715558171E-4  
 2.504000000000000E10    7.246684981510043E-5   2.234440180473030E-4  
 2.506000000000000E10   -2.138826239388436E-4  -2.882681201299420E-6  
 2.508000000000000E10   -5.113044753670692E-4   2.506247255951166E-4  
 2.510000000000000E10   -2.641267783474177E-4   1.991444296436384E-4  
 2.512000000000000E10   -1.010977211990394E-4   1.808977685868740E-4  
 2.514000000000000E10   -1.917809131555259E-4   1.805558131309226E-4  
 2.516000000000000E10    8.550201891921461E-5   1.162610487881466E-6  
 2.518000000000000E10    7.977835048222914E-5   1.354346750304103E-4  
 2.520000000000000E10   -2.703950740396977E-4   2.422551333438605E-4  
 2.522000000000000E10    1.545991399325430E-4   3.684737894218415E-4  
 2.524000000000000E10    2.543846785556525E-4   2.670983376447111E-4  
 2.526000000000000E10   -3.469541552476585E-4  -7.559540244983509E-5  
 2.528000000000000E10   -2.852304605767131E-4   4.132202302571386E-4  
 2.530000000000000E10    1.227340108016506E-4   3.169042756780982E-4  
 2.532000000000000E10    2.139332937076688E-4  -2.701925986912102E-4  
 2.534000000000000E10    3.374670268385671E-5  -3.384630254004151E-4  
 2.536000000000000E10    9.147288801614195E-5   1.222397258970887E-4  
 2.538000000000000E10    3.102472401224077E-4  -2.916080484283157E-5  
 2.540000000000000E10    4.711353103630245E-4   6.972144910832867E-5  
 2.542000000000000E10    1.392663543811068E-4   5.249892710708082E-4  
 2.544000000000000E10   -1.612005435163155E-4  -1.523496757727116E-4  
 2.546000000000000E10    1.213927243952639E-4   2.076954988297075E-4  
 2.548000000000000E10    1.615959627088159E-5   6.928112270543352E-5  
 2.550000000000000E10    6.545847281813622E-5  -2.414306363789365E-4  
 2.552000000000000E10   -5.628023791359738E-5  -1.889677077997476E-4  
 2.554000000000000E10    5.575390605372377E-5  -1.117649117077235E-5  
 2.556000000000000E10    1.943032693816349E-4   4.242030627210625E-5  
 2.558000000000000E10    1.821134937927127E-4   2.211476676166058E-4  
 2.560000000000000E10    3.903608303517103E-4   1.329073129454628E-4  
 2.562000000000000E10   -1.006812599371187E-4  -6.612958532059565E-5  
 2.564000000000000E10   -3.085518546868116E-4   2.787311095744371E-4  
 2.566000000000000E10   -4.592440745909698E-5   5.173911340534687E-4  
 2.568000000000000E10    2.283778012497351E-4  -9.395652159582824E-5  
 2.570000000000000E10   -1.799683523131535E-4  -2.699390170164406E-4  
 2.572000000000000E10   -2.332234435016289E-4  -8.068019269558135E-6  
 2.574000000000000E10    2.552564837969840E-4   2.915890363510698E-4  
 2.576000000000000E10    3.290421736892313E-4   1.573227928020060E-4  
 2.578000000000000E10   -4.501765943132341E-5  -1.282692483073333E-5  
 2.580000000000000E10   -4.496081965044141E-4   9.075465641217306E-5  
 2.582000000000000E10    3.086754077230580E-5   3.661716182250530E-4  
 2.584000000000000E10   -8.501420234097168E-5   2.507906756363809E-4  
 2.586000000000000E10    5.058056103734998E-6  -1.182479463750497E-4  
 2.588000000000000E10   -2.407111605862156E-4  -3.567166277207434E-4  
 2.590000000000000E10    1.394898426951841E-4   9.664639219408855E-5  
 2.592000000000000E10   -1.436000165995210E-4   2.158671704819426E-4  
 2.594000000000000E10    3.655728651210666E-4   2.468197781126946E-4  
 2.596000000000000E10    1.372684346279129E-4   4.105773405171931E-4  
 2.598000000000000E10    5.666793367709033E-5  -3.205135872121900E-4  
 2.600000000000000E10   -2.870726748369634E-4   4.684839805122465E-4  
 2.602000000000000E10   -3.263618273194879E-4   1.369266246911138E-4  
 2.604000000000000E10    3.508124209474772E-4  -1.936664921231568E-4  
 2.606000000000000E10    2.400780977040995E-5  -2.988771302625537E-4  
 2.608000000000000E10   -2.213865227531642E-4  -6.768875027773902E-5  
 2.610000000000000E10   -4.299527063267306E-5  -4.577663639793173E-5  
 2.612000000000000E10    6.614273879677057E-4   2.290423726662993E-4  
 2.614000000000000E10   -7.976773486007005E-5  -1.652946957619861E-4  
 2.616000000000000E10    5.840760877617868E-6  -1.885911478893831E-4  
 2.618000000000000E10   -1.009161496767774E-4   3.147735551465303E-4  
 2.620000000000000E10    8.277245797216892E-5  -3.308804298285395E-4  
 2.622000000000000E10   -6.675552140222862E-5   2.052289491984993E-4  
 2.624000000000000E10    3.174282028339803E-5  -3.360885602887720E-4  
 2.626000000000000E10    9.620048513170332E-5  -1.269890199182555E-4  
 2.628000000000000E10    1.646076416363940E-4  -1.155795398517512E-4  
 2.630000000000000E10    1.635169755900279E-4   3.343568241689354E-4  
 2.632000000000000E10   -8.577293192502111E-5  -2.628324727993459E-4  
 2.634000000000000E10    4.637521924450994E-4  -1.272889949177625E-5  
 2.636000000000000E10   -4.045663808938116E-4   9.219045023201034E-5  
 2.638000000000000E10    1.678666303632781E-4   7.261498103616759E-5  
 2.640000000000000E10    2.717153802223038E-5   1.488576672272757E-4  
 2.642000000000000E10    4.781574534717947E-5  -1.370832324028015E-4  
 2.644000000000000E10   -4.975213087163866E-4  -1.974282786250114E-4  
 2.646000000000000E10   -6.270486483117566E-5   1.245051680598408E-4  
 2.648000000000000E10    1.060453214449808E-4   3.415527680772357E-5  
 2.650000000000000E10    1.811477704904974E-4  -6.408487679436803E-4  
 2.652000000000000E10   -2.208629157394171E-4   3.968719465774484E-5  
 2.654000000000000E10    1.593007618794218E-4   9.143441275227815E-5  
 2.656000000000000E10    3.716560895554721E-4   2.126945910276845E-4  
 2.658000000000000E10   -2.162731107091531E-4  -1.294136018259451E-4  
 2.660000000000000E10   -3.119327402600902E-6   2.177870919695124E-4  
 2.662000000000000E10   -2.014295023400337E-4   1.324097538599744E-4  
 2.664000000000000E10    5.416286512627266E-5   2.121603174600750E-4  
 2.666000000000000E10    1.134458398155402E-5  -3.040083392988890E-4  
 2.668000000000000E10    1.691688958089799E-4  -1.284694008063525E-4  
 2.670000000000000E10   -1.668690092628822E-4  -1.516293705208227E-4  
 2.672000000000000E10    3.595366433728486E-4  -5.332442015060224E-5  
 2.674000000000000E10    7.151187310228124E-5  -8.337641338584945E-5  
 2.676000000000000E10    1.262412843061611E-4  -7.672100764466450E-5  
 2.678000000000000E10   -3.456937556620687E-4   4.821779439225793E-4  
 2.680000000000000E10   -3.209450733265840E-5  -7.748744246782735E-5  
 2.682000000000000E10   -1.696901454124600E-4   1.195798758999445E-4  
 2.684000000000000E10   -4.942444502376020E-5  -2.182908501708880E-4  
 2.686000000000000E10   -1.585718127898872E-4  -2.783719392027706E-4  
 2.688000000000000E10   -2.121673896908760E-4  -7.581606041640043E-4  
 2.690000000000000E10    2.512919891159982E-4   1.473424927098677E-4  
 2.692000000000000E10    3.455498954281211E-4  -3.033690445590764E-4  
 2.694000000000000E10    2.074240328511223E-4  -1.730705989757553E-4  
 2.696000000000000E10   -3.293788176961243E-4  -8.496638474753127E-5  
 2.698000000000000E10    2.230890677310526E-4   3.797977115027607E-4  
 2.700000000000000E10   -5.202495958656073E-4   6.458122516050935E-5  
 2.702000000000000E10    2.472225169185549E-4  -1.166994115919806E-4  
 2.704000000000000E10   -2.650415117386729E-4  -1.902194926515222E-4  
 2.706000000000000E10    1.404340728186071E-4  -1.944439427461475E-4  
 2.708000000000000E10    9.716653585201129E-5   2.322158397873864E-4  
 2.710000000000000E10    3.389900375623256E-4  -4.607563314493746E-4  
 2.712000000000000E10    8.052941120695323E-5   2.772255975287408E-4  
 2.714000000000000E10    2.949767986137886E-5   1.541162928333506E-4  
 2.716000000000000E10    1.884103694465011E-4   4.240964190103114E-4  
 2.718000000000000E10   -1.252824877155945E-4  -2.842264948412776E-4  
 2.720000000000000E10    8.752946450840682E-5   4.256094325683080E-5  
 2.722000000000000E10   -3.951367980334908E-4  -3.841790312435478E-4  
 2.724000000000000E10   -1.465895275032381E-5  -1.280640717595816E-4  
 2.726000000000000E10   -2.226027427241206E-4   1.189198519568890E-5  
 2.728000000000000E10    2.135039394488558E-4   2.428581501590088E-4  
 2.730000000000000E10   -2.232196129625663E-4   3.783594002015889E-5  
 2.732000000000000E10    8.822274685371667E-5   1.579491217853501E-4  
 2.734000000000000E10   -6.450985092669725E-4   2.812611346598715E-4  
 2.736000000000000E10    1.330152590526268E-4   2.916483208537102E-5  
 2.738000000000000E10   -1.435013564332621E-5  -5.337656693882309E-5  
 2.740000000000000E10   -2.190056402469054E-4  -3.244767431169748E-4  
 2.742000000000000E10   -8.201025775633752E-5   1.560521195642650E-4  
 2.744000000000000E10    2.233300256193616E-5  -1.743246539263055E-4  
 2.746000000000000E10   -1.433955330867320E-4   7.178258238127455E-5  
 2.748000000000000E10    6.330164615064859E-5  -6.327827577479184E-5  
 2.750000000000000E10   -1.527936983620748E-4   4.094904288649559E-4  
 2.752000000000000E10   -5.311935456120409E-5  -3.065974451601505E-4  
 2.754000000000000E10    2.829472214216366E-5   3.317862501717173E-5  
 2.756000000000000E10   -5.594062968157232E-4  -5.494282595464028E-5  
