#  HZ   S   RI   R     50.00 
! Rohde & Schwarz ZVA40 4Ports - Version 3.90 - 1145.1110k42 SN: 100403
! Date: 2023-10-04 09:22:52
! Measurement: S12 
! 
 2.200000000000000E10   -3.006174520123750E-4  -8.998824632726610E-4  
 2.202000000000000E10   -7.936694892123342E-4   4.522253293544054E-4  
 2.204000000000000E10    8.113242802210152E-4   6.534134736284614E-4  
 2.206000000000000E10    5.642913165502250E-4  -1.016335445456207E-3  
 2.208000000000000E10   -8.253461564891040E-4  -7.200714317150414E-4  
 2.210000000000000E10   -3.692185273393989E-4   1.208388595841825E-3  
 2.212000000000000E10    9.277872741222382E-4   7.282007572939619E-5  
 2.214000000000000E10    5.190183292143047E-4  -6.872173980809748E-4  
 2.216000000000000E10   -1.326117198914290E-3  -1.765597262419760E-4  
 2.218000000000000E10   -6.524584750877693E-5   8.663006592541933E-4  
 2.220000000000000E10    8.803269010968506E-4   5.315029993653297E-4  
 2.222000000000000E10    9.164436050923541E-5  -9.545418433845043E-4  
 2.224000000000000E10   -6.238906062208116E-4   2.390897134318948E-5  
 2.226000000000000E10    3.316115180496126E-4   6.673836032859981E-4  
 2.228000000000000E10    4.259444540366530E-4  -3.921649476978928E-4  
 2.230000000000000E10   -1.269414351554588E-4  -1.365064090350643E-4  
 2.232000000000000E10   -1.896075082186144E-5   7.929526618681848E-4  
 2.234000000000000E10    3.210568684153259E-4   5.028298983233981E-5  
 2.236000000000000E10   -1.935992913786322E-4  -4.366516077425331E-4  
 2.238000000000000E10   -9.314932394772768E-4   5.059441900812089E-4  
 2.240000000000000E10    7.274106028489769E-4   5.090703489258885E-4  
 2.242000000000000E10    1.041499548591673E-3  -7.387324003502727E-4  
 2.244000000000000E10   -1.031381776556373E-3  -7.648592581972480E-4  
 2.246000000000000E10   -4.874571459367871E-4   8.151403744705021E-4  
 2.248000000000000E10    1.120378961786628E-3   9.538290323689580E-4  
 2.250000000000000E10    6.318097002804279E-4  -1.017305534332991E-3  
 2.252000000000000E10   -8.673370466567576E-4  -5.141941364854574E-4  
 2.254000000000000E10   -7.176283979788423E-4   7.544438703916967E-4  
 2.256000000000000E10    5.663080955855548E-4   4.768519429489970E-4  
 2.258000000000000E10    3.558203752618283E-4  -6.998982862569392E-4  
 2.260000000000000E10   -5.079036927781999E-4  -4.050061688758433E-4  
 2.262000000000000E10   -4.029707051813602E-4   2.513738872949034E-4  
 2.264000000000000E10    4.015538725070655E-4   2.095459058182314E-4  
 2.266000000000000E10    1.304368197452277E-4  -1.989703596336767E-4  
 2.268000000000000E10   -1.563044934300706E-4   3.769150498555973E-5  
 2.270000000000000E10    2.808621502481401E-4   2.778776688501239E-4  
 2.272000000000000E10   -1.123386682593264E-4  -4.767579957842827E-4  
 2.274000000000000E10   -6.243356619961560E-4   1.084916148101911E-4  
 2.276000000000000E10    1.023576114675961E-4   5.131734069436789E-4  
 2.278000000000000E10    3.336380468681455E-4  -4.081266524735838E-4  
 2.280000000000000E10   -4.614416393451393E-4  -9.244718239642680E-4  
 2.282000000000000E10   -7.587376167066395E-4   3.047834252356552E-5  
 2.284000000000000E10    3.906851925421506E-4   5.993609665893018E-4  
 2.286000000000000E10    9.094256092794240E-4  -6.016651168465614E-4  
 2.288000000000000E10   -4.195877700112760E-4  -4.860144690610468E-4  
 2.290000000000000E10   -8.028412703424692E-4   5.235109128989279E-4  
 2.292000000000000E10    1.725945039652288E-4   5.073535139672458E-4  
 2.294000000000000E10    3.725941060110927E-4  -2.659372694324702E-4  
 2.296000000000000E10   -6.490272062364966E-5  -4.605052236001939E-4  
 2.298000000000000E10   -6.259509827941656E-4  -1.690147291810717E-5  
 2.300000000000000E10    1.405665534548461E-4   3.266751009505242E-4  
 2.302000000000000E10    4.485792014747858E-4   1.227520842803642E-4  
 2.304000000000000E10   -4.182555494480766E-5  -3.134281432721764E-4  
 2.306000000000000E10   -2.321945212315768E-4   2.431923494441435E-4  
 2.308000000000000E10   -3.044036857318133E-4  -8.067692760960199E-6  
 2.310000000000000E10    2.381514641456306E-4   1.689320051809773E-4  
 2.312000000000000E10    1.645830316476804E-8   3.078833688050509E-4  
 2.314000000000000E10    4.548619326669723E-4  -2.003887784667313E-4  
 2.316000000000000E10   -2.790007856674492E-4  -2.884962013922632E-4  
 2.318000000000000E10   -2.586264454293996E-4   2.522286376915872E-4  
 2.320000000000000E10    2.709867258090526E-4   6.211599102243781E-4  
 2.322000000000000E10    6.502389442175627E-4  -2.975735405925661E-4  
 2.324000000000000E10   -3.577018214855343E-4  -5.461298496811651E-5  
 2.326000000000000E10   -3.824728773906827E-4   3.273690526839346E-4  
 2.328000000000000E10    3.350650367792696E-4   5.617879214696586E-4  
 2.330000000000000E10    2.459205861669034E-4  -2.551139186834917E-5  
 2.332000000000000E10   -1.558582298457623E-4  -1.704949681879953E-4  
 2.334000000000000E10   -2.585218753665686E-4   1.721099979477003E-4  
 2.336000000000000E10    1.131535682361573E-4   4.956608754582703E-4  
 2.338000000000000E10    3.453682074905373E-5   6.517616566270590E-5  
 2.340000000000000E10    6.917064456501976E-5  -5.400201916927472E-5  
 2.342000000000000E10   -2.951482310891151E-4   3.633869055192918E-4  
 2.344000000000000E10    2.301066851941869E-4   2.808253339026123E-4  
 2.346000000000000E10    5.078041431261227E-5  -7.548226130893454E-5  
 2.348000000000000E10    1.633937645237893E-4   1.803432242013514E-4  
 2.350000000000000E10    1.482524967286736E-4   6.040719381417148E-5  
 2.352000000000000E10    1.339397422270849E-4  -4.299174179323018E-4  
 2.354000000000000E10    8.022767360671423E-6   1.807577646104619E-4  
 2.356000000000000E10   -3.314078639959917E-5  -9.900705481413752E-5  
 2.358000000000000E10    1.805124484235421E-4  -3.257888602092862E-4  
 2.360000000000000E10   -8.481842996843625E-6  -3.785273293033242E-4  
 2.362000000000000E10   -1.120378656196408E-4  -2.184169716201723E-4  
 2.364000000000000E10    9.450538345845416E-5   1.951686317624990E-5  
 2.366000000000000E10    9.925224003382027E-5  -3.622843069024384E-4  
 2.368000000000000E10   -2.267362433485687E-4  -3.563701757229865E-4  
 2.370000000000000E10   -1.635341031942517E-4   3.547066298779100E-4  
 2.372000000000000E10    6.291142926784232E-5   1.324237673543394E-4  
 2.374000000000000E10    3.123122733086348E-4  -1.893095322884619E-4  
 2.376000000000000E10   -1.907729456434026E-4  -2.332739240955561E-4  
 2.378000000000000E10   -1.141891552833840E-4   8.478805102640763E-5  
 2.380000000000000E10   -2.207031684520189E-5   6.724949344061315E-5  
 2.382000000000000E10   -5.467419396154583E-5  -2.783410018309951E-4  
 2.384000000000000E10   -5.391739978222176E-5  -1.484840759076178E-4  
 2.386000000000000E10   -8.712705312063918E-5  -1.442804932594299E-4  
 2.388000000000000E10    1.676815591054037E-4   3.566620216588490E-5  
 2.390000000000000E10   -7.758301217108965E-5   8.070877083810046E-5  
 2.392000000000000E10    1.243329315911979E-4  -3.437771010794677E-5  
 2.394000000000000E10   -7.691689825151116E-5  -1.032328145811334E-4  
 2.396000000000000E10   -2.991262590512633E-4  -8.605878974776715E-5  
 2.398000000000000E10   -2.710442640818656E-4   1.484469830757007E-4  
 2.400000000000000E10   -2.507752506062388E-4   1.677050022408366E-4  
 2.402000000000000E10    1.009467741823755E-4  -4.254294981365092E-5  
 2.404000000000000E10   -7.802658365108073E-5  -1.012490611174144E-4  
 2.406000000000000E10   -8.967552275862545E-5   2.169625531678321E-6  
 2.408000000000000E10    1.700207067187876E-4   1.346717035630718E-4  
 2.410000000000000E10    3.138708125334233E-4   9.637829498387873E-5  
 2.412000000000000E10   -1.123697875300422E-4  -7.646433368790895E-5  
 2.414000000000000E10   -5.106307071400806E-5   8.299385808641091E-5  
 2.416000000000000E10   -1.027053585858084E-4   1.897844340419397E-4  
 2.418000000000000E10   -2.898505481425673E-4  -9.976977889891714E-5  
 2.420000000000000E10    1.174788849311881E-4   1.062574083334766E-4  
 2.422000000000000E10    1.767558715073392E-4  -1.849081018008292E-4  
 2.424000000000000E10    1.222893624799326E-4  -3.008410567417741E-4  
 2.426000000000000E10   -1.433783618267626E-4   2.297072351211682E-4  
 2.428000000000000E10    1.029190389090218E-5   1.612250198377296E-4  
 2.430000000000000E10    2.334746677661315E-4   2.917244455602486E-5  
 2.432000000000000E10   -7.617395749548450E-5   1.894784218166024E-4  
 2.434000000000000E10   -4.366126959212124E-4   7.183891284512356E-5  
 2.436000000000000E10   -1.256982504855841E-4   2.482628951838706E-5  
 2.438000000000000E10    2.859328233171254E-4   1.949279248947278E-4  
 2.440000000000000E10    9.325524297310039E-5  -2.731666609179229E-4  
 2.442000000000000E10   -1.403526694048196E-4  -9.796881204238161E-5  
 2.444000000000000E10   -1.379783061565831E-4   3.760358667932451E-4  
 2.446000000000000E10    2.472761261742562E-4   1.767570211086422E-4  
 2.448000000000000E10    1.823454804252833E-4  -2.544483868405223E-5  
 2.450000000000000E10   -5.766627728007734E-4   1.892072323244065E-4  
 2.452000000000000E10   -2.880087413359433E-4   9.315422357758507E-5  
 2.454000000000000E10   -1.120567831094377E-4   1.337119756499305E-4  
 2.456000000000000E10   -2.557592233642936E-4  -1.284370955545455E-4  
 2.458000000000000E10   -2.263943169964477E-4  -2.176711132051423E-4  
 2.460000000000000E10   -3.000637298100628E-5   2.088794572046027E-4  
 2.462000000000000E10    2.299506595591083E-4   1.187006419058889E-4  
 2.464000000000000E10    3.558745374903083E-4   3.793340001720935E-4  
 2.466000000000000E10    2.902471169363707E-4   2.650732058100402E-4  
 2.468000000000000E10   -1.161067775683478E-4   1.043398297042586E-4  
 2.470000000000000E10   -2.589900977909565E-4   2.163842436857522E-4  
 2.472000000000000E10   -2.631410316098481E-4   2.243583148811013E-4  
 2.474000000000000E10   -8.370941941393539E-6  -1.349786616628990E-4  
 2.476000000000000E10   -3.849841959890910E-5  -5.039204261265695E-4  
 2.478000000000000E10   -3.917317080777139E-4   4.415735747897998E-5  
 2.480000000000000E10    2.099346456816420E-4   2.863030822481960E-4  
 2.482000000000000E10    9.020238067023456E-4  -2.069733309326693E-4  
 2.484000000000000E10    4.240037014824338E-5  -3.479752922430635E-4  
 2.486000000000000E10   -3.486581845209003E-4   5.046108344686218E-5  
 2.488000000000000E10    8.239000453613699E-5   4.315172263886780E-4  
 2.490000000000000E10    2.078538236673921E-4   3.764674693229608E-5  
 2.492000000000000E10   -1.082670059986413E-4  -1.835499424487352E-4  
 2.494000000000000E10   -6.977965822443366E-4  -4.902994260191917E-4  
 2.496000000000000E10   -5.767350012320094E-5   2.629266818985343E-4  
 2.498000000000000E10    1.040623901644722E-4  -1.458093029214069E-4  
 2.500000000000000E10    1.774693955667317E-4  -3.222047234885395E-4  
 2.502000000000000E10    7.212971831904724E-5  -4.360774983069859E-5  
 2.504000000000000E10   -2.236607397207990E-4  -9.744912676978856E-5  
 2.506000000000000E10   -3.016952832695097E-4  -5.861667887074873E-5  
 2.508000000000000E10   -4.492380321607925E-5   3.113810962531716E-4  
 2.510000000000000E10    7.106566772563383E-5  -2.510056365281344E-4  
 2.512000000000000E10   -3.247919084969908E-4  -6.033991812728345E-4  
 2.514000000000000E10   -5.109896301291883E-4  -1.609278660907876E-5  
 2.516000000000000E10    1.717034756438807E-4   3.979880420956761E-4  
 2.518000000000000E10    4.971008747816086E-4  -1.606146979611367E-4  
 2.520000000000000E10    1.501591614214703E-4  -3.092521801590920E-4  
 2.522000000000000E10   -4.028268449474126E-4   3.522080951370299E-4  
 2.524000000000000E10   -9.612384019419551E-5   3.463507164269686E-4  
 2.526000000000000E10    1.759903170750476E-5   6.458970019593835E-4  
 2.528000000000000E10   -3.641686053015292E-4  -2.818409702740610E-4  
 2.530000000000000E10   -4.251795471645892E-4  -1.727689668769017E-4  
 2.532000000000000E10   -6.338083767332137E-4   3.051657113246620E-4  
 2.534000000000000E10   -6.166347884573042E-5   9.951306128641591E-5  
 2.536000000000000E10    3.992425336036831E-4  -1.085157637135126E-4  
 2.538000000000000E10    1.176177975139581E-4  -1.809585519367829E-4  
 2.540000000000000E10   -8.177615382010117E-5  -9.581341873854399E-5  
 2.542000000000000E10    2.577524865046144E-4   2.764159580692649E-4  
 2.544000000000000E10    2.633517397043761E-5   4.027559189125896E-4  
 2.546000000000000E10    5.811745722894557E-5  -7.011295383563265E-5  
 2.548000000000000E10    1.829814282245934E-4  -1.971624733414501E-4  
 2.550000000000000E10   -6.134509458206594E-4  -1.466166304453509E-5  
 2.552000000000000E10   -1.934028296091128E-5   3.938221925636753E-5  
 2.554000000000000E10    5.488047027029097E-4   8.324690861627460E-5  
 2.556000000000000E10    1.003139477688819E-4  -3.022649034392089E-4  
 2.558000000000000E10    6.842367292847484E-5  -1.322371554124402E-5  
 2.560000000000000E10    1.879007613752037E-4   2.799216599669308E-4  
 2.562000000000000E10    1.717755949357525E-4   9.203431545756757E-5  
 2.564000000000000E10    1.536302588647232E-4  -1.091821177396923E-4  
 2.566000000000000E10   -1.198135651065968E-4   4.667086977860890E-5  
 2.568000000000000E10   -3.987633099313825E-4   9.388356556883082E-5  
 2.570000000000000E10    2.807201235555112E-4  -2.481430965417530E-5  
 2.572000000000000E10    3.171057614963502E-4  -3.311936961836182E-5  
 2.574000000000000E10    1.243861042894423E-4  -1.718020939733833E-4  
 2.576000000000000E10    2.035752550000325E-4   2.592588425613940E-4  
 2.578000000000000E10    2.560627472121269E-4   2.931403832917567E-5  
 2.580000000000000E10   -2.179065813834313E-5   3.566773666534573E-4  
 2.582000000000000E10   -2.727870014496148E-4   3.562740675988607E-5  
 2.584000000000000E10    1.195493969134986E-4   4.812368133570999E-4  
 2.586000000000000E10   -4.522085946518928E-4  -4.497934060054831E-5  
 2.588000000000000E10    5.881043762201443E-6   6.706209387630224E-5  
 2.590000000000000E10   -9.591638081474230E-5   1.392685953760520E-4  
 2.592000000000000E10    2.969572960864753E-4  -3.322893171571195E-4  
 2.594000000000000E10   -1.045172757585533E-4   1.145102360169403E-4  
 2.596000000000000E10    2.498558569641318E-5  -1.246141182491556E-4  
 2.598000000000000E10   -2.712532659643330E-5   1.776674325810745E-4  
 2.600000000000000E10    2.246210933662951E-4  -5.416242638602853E-4  
 2.602000000000000E10   -1.963593385880813E-4   2.647898218128830E-4  
 2.604000000000000E10   -5.149809876456857E-4  -6.284206756390631E-5  
 2.606000000000000E10    3.878042625728995E-4   5.682877963408828E-5  
 2.608000000000000E10   -6.738780211890116E-5  -1.383486378472298E-4  
 2.610000000000000E10    2.551740726630669E-5   8.468807209283114E-5  
 2.612000000000000E10   -2.430679160170257E-4   1.608287420822308E-4  
 2.614000000000000E10    4.469604173209518E-4  -2.453281194902957E-4  
 2.616000000000000E10   -3.092217593803071E-5   1.013479486573488E-4  
 2.618000000000000E10    1.219536061398685E-4  -1.585702266311273E-4  
 2.620000000000000E10   -5.350306673790328E-5  -1.238344411831349E-4  
 2.622000000000000E10    1.663325383560732E-4  -2.774304593913257E-4  
 2.624000000000000E10    9.614907321520150E-5   3.121234767604619E-4  
 2.626000000000000E10    3.382287104614079E-4  -1.998230291064829E-4  
 2.628000000000000E10    3.537992306519300E-4   1.728907518554479E-4  
 2.630000000000000E10   -6.455611128330929E-6  -1.710431097308174E-4  
 2.632000000000000E10   -1.515095354989171E-4   1.573041954543442E-4  
 2.634000000000000E10    1.986776624107733E-4  -8.074197830865160E-5  
 2.636000000000000E10    3.974729625042528E-4  -2.609436924103648E-4  
 2.638000000000000E10   -1.825889048632234E-4  -4.418680036906153E-4  
 2.640000000000000E10   -8.574606908950955E-5   1.458947081118822E-4  
 2.642000000000000E10    5.304060759954155E-4   4.981480014976114E-5  
 2.644000000000000E10    5.476225633174181E-4   5.389731086324900E-5  
 2.646000000000000E10   -4.989938461221755E-4  -8.265415999630932E-6  
 2.648000000000000E10    1.614548236830160E-4   2.476540685165674E-4  
 2.650000000000000E10   -1.021911521092989E-4   1.843962818384171E-4  
 2.652000000000000E10    3.326757359900512E-5  -2.377657074248418E-4  
 2.654000000000000E10   -2.519591071177274E-4  -2.556155668571591E-4  
 2.656000000000000E10   -6.442925950977951E-5  -4.226616001687944E-4  
 2.658000000000000E10   -4.991828463971615E-4   3.905147314071655E-4  
 2.660000000000000E10    3.295638307463378E-4  -3.960106114391238E-4  
 2.662000000000000E10    1.352984982077032E-4   1.134658668888733E-4  
 2.664000000000000E10   -1.388823293382302E-4  -2.880120300687850E-4  
 2.666000000000000E10    1.496627082815394E-4   2.691279805731028E-4  
 2.668000000000000E10   -2.505931188352406E-4  -4.394102870719507E-5  
 2.670000000000000E10    1.566572464071214E-4   1.152147524408065E-4  
 2.672000000000000E10   -1.142655601142906E-4  -1.112967656808905E-4  
 2.674000000000000E10   -1.985310082091019E-4  -1.738011051202193E-4  
 2.676000000000000E10   -4.345434135757387E-4  -1.418049032508861E-5  
 2.678000000000000E10    6.080447928979993E-4   2.628616057336330E-4  
 2.680000000000000E10   -1.069488862412982E-4   2.082610881188884E-4  
 2.682000000000000E10    1.564369449624792E-4  -3.966661170125008E-4  
 2.684000000000000E10   -3.976210718974471E-4   3.577833413146436E-4  
 2.686000000000000E10    1.937209308380261E-4  -1.023656004690565E-4  
 2.688000000000000E10    1.470176357543096E-4   4.070871364092454E-5  
 2.690000000000000E10   -4.796171197085641E-5  -6.366728339344263E-4  
 2.692000000000000E10   -2.454674977343530E-4   1.977346837520599E-4  
 2.694000000000000E10    3.098730303463526E-5   9.146929369308054E-5  
 2.696000000000000E10    5.742535577155650E-4   2.950061752926558E-4  
 2.698000000000000E10   -1.974924316527904E-6  -2.818866923917085E-4  
 2.700000000000000E10    2.998767195094843E-5   8.498187526129186E-5  
 2.702000000000000E10   -3.804067964665592E-4   9.228663111571223E-5  
 2.704000000000000E10    2.959449484478682E-4  -3.649600257631391E-4  
 2.706000000000000E10   -2.964346786029637E-4  -3.540248435456306E-4  
 2.708000000000000E10    1.083942843251862E-4  -2.966343017760664E-4  
 2.710000000000000E10    1.744971377775073E-4   2.907336784119252E-5  
 2.712000000000000E10    3.171408898197115E-4  -1.513139432063326E-4  
 2.714000000000000E10    1.295089441555319E-5   2.808818244375289E-4  
 2.716000000000000E10    2.991356595885009E-4   1.172183401649818E-4  
 2.718000000000000E10   -5.059345130575821E-5   2.384061663178727E-4  
 2.720000000000000E10   -8.190948574338108E-5  -1.675961393630132E-4  
 2.722000000000000E10   -2.956177013402339E-5   2.729834523051977E-4  
 2.724000000000000E10   -1.250663190148771E-4  -1.606784353498370E-4  
 2.726000000000000E10    1.997699437197298E-4  -2.732686116360128E-4  
 2.728000000000000E10   -4.106249834876508E-4  -9.522053733235225E-5  
 2.730000000000000E10   -2.674741335795261E-5   1.631729246582836E-4  
 2.732000000000000E10    3.235850308556110E-4  -4.228081525070593E-5  
 2.734000000000000E10    1.351415412500501E-4  -1.089346478693187E-4  
 2.736000000000000E10   -4.678158729802817E-4  -9.778726234799251E-5  
 2.738000000000000E10    3.642665251391009E-5   2.117023177561350E-5  
 2.740000000000000E10   -1.512488415755797E-5   2.854385238606483E-4  
 2.742000000000000E10   -2.088133769575506E-4  -4.126932471990585E-4  
 2.744000000000000E10   -2.721303899306804E-4  -2.634544216562063E-4  
 2.746000000000000E10   -2.472755659255199E-5   2.442363766022027E-4  
 2.748000000000000E10    1.422772620571777E-4   1.641035050852224E-4  
 2.750000000000000E10    1.741442392813042E-4  -3.554080903995782E-4  
 2.752000000000000E10   -3.405216848477721E-4   4.139440425205976E-4  
 2.754000000000000E10    1.128367803175934E-4  -1.045660537783988E-4  
 2.756000000000000E10    3.485230845399201E-4   9.757762018125504E-5  
