#  HZ   S   RI   R     50.00 
! Rohde & Schwarz ZVA40 4Ports - Version 3.90 - 1145.1110k42 SN: 100403
! Date: 2023-10-04 09:22:36
! Measurement: S12 
! 
 2.200000000000000E10    2.899494138546288E-4  -5.465665017254651E-4  
 2.202000000000000E10   -9.806791786104441E-4  -4.623755812644959E-4  
 2.204000000000000E10   -1.214195799548179E-4   9.191716671921313E-4  
 2.206000000000000E10    1.165371271781623E-3   2.064015279756859E-5  
 2.208000000000000E10    2.111745852744207E-4  -1.071751932613552E-3  
 2.210000000000000E10   -6.372186471708119E-4  -1.619250397197902E-4  
 2.212000000000000E10    2.237005101051182E-4   8.664070046506822E-4  
 2.214000000000000E10    5.840677767992020E-4  -4.796333087142557E-4  
 2.216000000000000E10   -4.474145243875682E-4  -7.603637059219182E-4  
 2.218000000000000E10   -5.492952186614275E-4   2.790518628899008E-4  
 2.220000000000000E10    4.212325729895383E-4  -2.752621412582812E-6  
 2.222000000000000E10   -7.137745706131682E-5  -8.746714447624981E-4  
 2.224000000000000E10   -1.017052913084626E-3   1.179085575131467E-5  
 2.226000000000000E10    3.597159520722926E-4   5.919659161008894E-4  
 2.228000000000000E10    1.095123472623527E-3  -4.865774826612324E-4  
 2.230000000000000E10   -6.940653547644615E-4  -6.196017493493855E-4  
 2.232000000000000E10   -7.090491126291454E-4   9.009130881167948E-4  
 2.234000000000000E10    8.224481134675443E-4   9.762390982359648E-4  
 2.236000000000000E10    7.814570562914014E-5  -7.018193136900663E-4  
 2.238000000000000E10   -9.974171407520771E-4  -3.479842271190137E-4  
 2.240000000000000E10   -4.207903402857482E-4   8.343236404471099E-4  
 2.242000000000000E10    5.080382106825709E-4   2.848750737030059E-4  
 2.244000000000000E10    2.445134741719812E-4  -9.040461736731231E-4  
 2.246000000000000E10   -5.852665053680539E-4   2.868062874767929E-4  
 2.248000000000000E10   -1.668748882366344E-4   1.118779298849404E-3  
 2.250000000000000E10    9.795419173315167E-4   3.010796208400279E-4  
 2.252000000000000E10   -2.069043403025717E-4  -1.893232838483527E-4  
 2.254000000000000E10   -7.165192510001361E-4   4.570021701510996E-4  
 2.256000000000000E10    1.635942753637210E-4   5.923584685660899E-4  
 2.258000000000000E10   -3.494439297355712E-4  -3.615034511312842E-4  
 2.260000000000000E10   -4.641900886781514E-4  -3.492691612336785E-4  
 2.262000000000000E10    4.612680277205072E-5   4.561778914649040E-4  
 2.264000000000000E10    4.853773280046880E-4  -2.363532548770309E-4  
 2.266000000000000E10   -1.196334633277729E-4  -3.563714271876961E-4  
 2.268000000000000E10   -6.598613108508289E-4   6.112286355346441E-4  
 2.270000000000000E10    4.586019786074758E-4   6.706946878693998E-4  
 2.272000000000000E10    5.484798457473517E-4  -5.978282424621284E-4  
 2.274000000000000E10   -7.139336667023599E-4  -3.594715672079474E-4  
 2.276000000000000E10   -6.488385843113065E-4   5.081077106297016E-4  
 2.278000000000000E10    5.015118513256311E-4   5.389994475990534E-4  
 2.280000000000000E10    1.569321029819548E-4  -5.725011578761041E-4  
 2.282000000000000E10   -1.227189059136435E-4  -9.219901985488832E-4  
 2.284000000000000E10   -2.868400188162923E-4   3.135222359560430E-4  
 2.286000000000000E10    3.453305107541382E-4   4.565589479170740E-4  
 2.288000000000000E10    2.012638287851587E-4  -3.270431770943105E-4  
 2.290000000000000E10   -3.953684936277568E-4  -2.270819677505642E-4  
 2.292000000000000E10   -5.303713260218501E-4   2.329262060811743E-4  
 2.294000000000000E10    2.388407592661679E-4   6.071754228287318E-7  
 2.296000000000000E10    1.439431071048603E-4  -2.960009151138365E-4  
 2.298000000000000E10   -3.179988998454064E-4  -2.478044480085373E-4  
 2.300000000000000E10    3.416342078708112E-4  -1.716730912448838E-4  
 2.302000000000000E10   -1.124828413594514E-4  -3.835296229226515E-5  
 2.304000000000000E10   -1.244419308932265E-5   8.574579260312021E-5  
 2.306000000000000E10    2.404091210337356E-4   2.080358244711533E-4  
 2.308000000000000E10    2.372622548136860E-4  -3.289924061391503E-4  
 2.310000000000000E10   -1.013679284369573E-4  -2.866529976017773E-4  
 2.312000000000000E10   -2.707006642594934E-4   2.755795430857688E-4  
 2.314000000000000E10    6.278372020460665E-4   6.304063717834652E-4  
 2.316000000000000E10    6.981706828810275E-4  -3.415471001062542E-4  
 2.318000000000000E10   -1.474503806093708E-4  -4.181427648290992E-4  
 2.320000000000000E10   -4.300923028495163E-4   5.022904369980097E-4  
 2.322000000000000E10    7.175682694651187E-4   6.386651075445116E-4  
 2.324000000000000E10    4.310034855734557E-4  -4.237630055285990E-4  
 2.326000000000000E10   -2.174752444261685E-4  -5.729499389417470E-4  
 2.328000000000000E10   -4.812209517695010E-4   1.686137256911025E-4  
 2.330000000000000E10    1.401554472977296E-4   2.346010587643832E-4  
 2.332000000000000E10    5.664507625624538E-4  -6.621468492085114E-5  
 2.334000000000000E10    3.792153729591519E-4  -3.066793724428862E-4  
 2.336000000000000E10    1.588189479662105E-4  -2.274914440931752E-4  
 2.338000000000000E10    1.608401071280241E-4   8.410173904849216E-5  
 2.340000000000000E10    3.232297895010561E-4   4.827556549571455E-4  
 2.342000000000000E10    1.930935250129551E-4  -3.210524027963402E-6  
 2.344000000000000E10   -2.180680603487417E-4  -1.607819867786020E-4  
 2.346000000000000E10   -3.625249664764851E-4  -5.006479841540568E-5  
 2.348000000000000E10   -1.754878903739154E-4   2.351057773921639E-4  
 2.350000000000000E10   -9.937641880242154E-5  -1.090753812604817E-6  
 2.352000000000000E10    3.466736234258860E-4  -4.789321974385530E-4  
 2.354000000000000E10   -4.835068830288947E-4  -4.057654587086290E-4  
 2.356000000000000E10   -2.275776496389881E-4   6.335744546959177E-5  
 2.358000000000000E10    3.129404212813824E-4   2.686169464141130E-4  
 2.360000000000000E10    6.408285844372585E-5  -6.444856408052146E-4  
 2.362000000000000E10   -2.549056080169976E-4  -4.052486328873783E-4  
 2.364000000000000E10   -6.759580573998392E-4   8.054563659243286E-5  
 2.366000000000000E10   -4.997399082640186E-5   2.174819092033431E-4  
 2.368000000000000E10    1.084506875486113E-4  -3.964266215916723E-4  
 2.370000000000000E10   -5.559321725741029E-4  -3.179032646585256E-4  
 2.372000000000000E10   -4.627527669072151E-4  -1.999022351810709E-4  
 2.374000000000000E10   -2.066517627099529E-4   2.937788958661258E-4  
 2.376000000000000E10   -5.497972015291452E-4  -1.775356795405969E-4  
 2.378000000000000E10   -2.272744604852051E-4   4.605162030202337E-5  
 2.380000000000000E10   -6.540658650919795E-4   8.021730900509283E-5  
 2.382000000000000E10   -2.493308275006712E-4  -1.250180357601494E-4  
 2.384000000000000E10   -3.929041849914938E-4   1.317512942478061E-4  
 2.386000000000000E10   -1.460335770389065E-4   5.983803930575959E-5  
 2.388000000000000E10   -1.337951543973759E-4   1.739728759275749E-6  
 2.390000000000000E10   -1.359754678560421E-4   6.562013004440814E-5  
 2.392000000000000E10   -3.088969388045371E-4   4.139198281336576E-4  
 2.394000000000000E10    1.723039313219488E-4  -1.163415072369389E-4  
 2.396000000000000E10    2.879635030694772E-5   1.424969377694652E-4  
 2.398000000000000E10   -4.566116840578616E-4   1.307146740145981E-4  
 2.400000000000000E10    1.542000391054899E-4   4.986170679330826E-4  
 2.402000000000000E10    2.004248926823493E-5   1.056871915352531E-4  
 2.404000000000000E10   -5.627790073958749E-7  -5.184765905141830E-5  
 2.406000000000000E10   -2.706068335101008E-4   4.178483213763684E-4  
 2.408000000000000E10    2.194859234805335E-6   2.139892967534252E-5  
 2.410000000000000E10    2.326298126718029E-4   8.837420318741351E-5  
 2.412000000000000E10    1.898532500490546E-4   1.376511936541647E-4  
 2.414000000000000E10    1.135718484874815E-4   8.641962267574854E-6  
 2.416000000000000E10    3.193978336639702E-4   2.517341636121273E-4  
 2.418000000000000E10    4.433032008819282E-4   5.680955946445465E-4  
 2.420000000000000E10    2.672340488061309E-4   3.038521754206158E-5  
 2.422000000000000E10    3.134836151730269E-4   2.366261032875627E-4  
 2.424000000000000E10   -7.955102773848921E-5   2.656375290825963E-4  
 2.426000000000000E10    3.583644502214156E-5   8.735718438401818E-5  
 2.428000000000000E10    2.930643968284130E-4   1.726368354866281E-4  
 2.430000000000000E10    5.031284331380448E-7  -1.703979360172525E-4  
 2.432000000000000E10    3.260673111071810E-5  -1.323516335105524E-4  
 2.434000000000000E10    5.167807466932572E-5  -1.018290731735760E-5  
 2.436000000000000E10   -6.722634861944243E-5  -1.371774123981595E-4  
 2.438000000000000E10    1.117760548368096E-4  -2.283203684783075E-5  
 2.440000000000000E10    2.579753345344216E-4  -6.344702342175879E-6  
 2.442000000000000E10   -2.083444560412318E-4   5.788811904494651E-5  
 2.444000000000000E10   -2.161548327421770E-4   8.714986324775964E-5  
 2.446000000000000E10    5.482288543134928E-5   3.695221384987235E-4  
 2.448000000000000E10   -3.160971755278297E-5   2.515416708774865E-4  
 2.450000000000000E10    3.826284228125587E-5  -1.703258749330416E-4  
 2.452000000000000E10   -1.552152680233121E-4   2.130875509465113E-5  
 2.454000000000000E10   -1.212476490763947E-4   7.895331509644166E-5  
 2.456000000000000E10    2.396365453023464E-4   2.759934868663549E-4  
 2.458000000000000E10    1.400352921336889E-4   1.165718422271311E-4  
 2.460000000000000E10   -1.351023674942553E-4  -6.506521458504722E-5  
 2.462000000000000E10    1.000465053948574E-4  -6.720628152834252E-5  
 2.464000000000000E10   -1.574844063725323E-4   5.407888093031943E-4  
 2.466000000000000E10    1.062195369740948E-4   7.206836016848683E-5  
 2.468000000000000E10    3.652103478088975E-4   6.536504952237010E-5  
 2.470000000000000E10   -4.386175714898855E-4  -1.583789999131113E-4  
 2.472000000000000E10   -3.695203631650657E-4   1.927217090269551E-4  
 2.474000000000000E10    2.055338991340250E-4   2.868791343644261E-4  
 2.476000000000000E10    2.615647681523114E-4   2.032187039731070E-4  
 2.478000000000000E10    8.469418389722705E-6  -1.279091811738908E-4  
 2.480000000000000E10   -2.666536311153323E-4   2.715545706450939E-4  
 2.482000000000000E10   -3.061335883103311E-4   4.736299160867930E-4  
 2.484000000000000E10    4.274235107004643E-5  -3.756295700441115E-5  
 2.486000000000000E10   -1.598788512637839E-4  -7.439035834977403E-5  
 2.488000000000000E10   -1.908637932501733E-4  -1.841637567849830E-4  
 2.490000000000000E10   -1.276937255170196E-4  -6.809129445173312E-6  
 2.492000000000000E10    1.537259086035192E-4   2.278941828990355E-4  
 2.494000000000000E10    1.438835897715762E-4   1.230173074873164E-4  
 2.496000000000000E10    3.420215798541904E-4  -1.425310911145061E-4  
 2.498000000000000E10   -1.138880688813515E-4   4.748820356326178E-5  
 2.500000000000000E10   -4.368288209661841E-4   8.684919157531112E-5  
 2.502000000000000E10    2.268917451146990E-4   3.302949189674109E-4  
 2.504000000000000E10    7.962658128235489E-5  -2.830399316735566E-4  
 2.506000000000000E10   -1.244868617504835E-4  -3.631327417679131E-4  
 2.508000000000000E10   -3.101735492236912E-4   1.077814013115130E-4  
 2.510000000000000E10    7.869116961956024E-5   2.541359572205693E-4  
 2.512000000000000E10    3.856974071823061E-4  -2.858158259186894E-4  
 2.514000000000000E10    8.919329411583021E-5  -4.506691184360534E-4  
 2.516000000000000E10   -2.810071164276451E-4   9.571612463332713E-5  
 2.518000000000000E10   -3.403970913495868E-5   2.792016603052616E-4  
 2.520000000000000E10    4.514005267992616E-4  -1.765213710314129E-5  
 2.522000000000000E10   -1.322309544775635E-4  -2.865448768716306E-4  
 2.524000000000000E10   -2.252649719594047E-4  -1.381043839501217E-4  
 2.526000000000000E10    6.240467337192968E-5   9.889915236271918E-5  
 2.528000000000000E10    1.282747980440036E-4  -8.247554433182813E-6  
 2.530000000000000E10    1.859633193816990E-4  -8.668489317642525E-5  
 2.532000000000000E10   -1.064122770912945E-4   1.838936295825988E-4  
 2.534000000000000E10   -2.330212591914460E-4   2.611061208881438E-4  
 2.536000000000000E10    5.948291072854772E-5   2.129376225639135E-4  
 2.538000000000000E10    3.158131730742753E-4   2.297576720593497E-4  
 2.540000000000000E10   -7.251119768625358E-6  -2.621393105073366E-5  
 2.542000000000000E10   -1.272279332624748E-4  -2.906833251472563E-4  
 2.544000000000000E10   -2.855987986549735E-5   3.019740397576243E-4  
 2.546000000000000E10    3.004649188369513E-4  -4.649646598409163E-6  
 2.548000000000000E10    3.183438093401492E-4  -1.216021628351882E-4  
 2.550000000000000E10   -1.827533269533888E-4  -2.226583019364625E-4  
 2.552000000000000E10   -8.493365021422505E-5   4.460570926312357E-4  
 2.554000000000000E10    2.219587768195197E-4   2.540868881624192E-4  
 2.556000000000000E10    5.397512577474117E-4  -1.069846257450990E-4  
 2.558000000000000E10    1.855995833466295E-5  -2.489964826963842E-4  
 2.560000000000000E10   -1.083215465769172E-5  -1.560225246066693E-5  
 2.562000000000000E10    2.783310483209789E-4   1.206549350172281E-4  
 2.564000000000000E10    3.702707763295621E-4  -1.782777835614979E-4  
 2.566000000000000E10    1.210053051181603E-5  -2.965160529129207E-4  
 2.568000000000000E10    8.736016025068238E-5  -8.760548371355981E-5  
 2.570000000000000E10   -7.533762982347980E-5   3.011587832588702E-4  
 2.572000000000000E10    2.653400006238371E-4  -1.949943107319996E-4  
 2.574000000000000E10    2.009586751228198E-4  -6.508208753075451E-5  
 2.576000000000000E10   -9.492276149103418E-5  -2.255198924103752E-4  
 2.578000000000000E10    1.239792909473181E-4  -1.682401634752750E-4  
 2.580000000000000E10    1.810013200156391E-4  -2.202925970777869E-4  
 2.582000000000000E10    3.110731777269393E-4   2.895343641284853E-4  
 2.584000000000000E10   -1.985679773497395E-5  -2.211567480117083E-4  
 2.586000000000000E10    2.665498468559235E-4  -3.257071075495333E-4  
 2.588000000000000E10   -4.290300130378455E-4   6.986527296248823E-5  
 2.590000000000000E10    1.831821864470840E-4   2.471384068485349E-4  
 2.592000000000000E10    2.641625760588795E-4   7.746535266051069E-5  
 2.594000000000000E10   -2.674924144230317E-5  -4.976138588972390E-4  
 2.596000000000000E10   -2.282227360410616E-4   1.321350864600390E-4  
 2.598000000000000E10    2.200854578404687E-5   2.139814168913290E-4  
 2.600000000000000E10    1.744179753586650E-4   6.952972762519494E-5  
 2.602000000000000E10   -1.842423080233857E-4  -3.957869485020638E-4  
 2.604000000000000E10    5.352606240194291E-5   5.097509711049497E-4  
 2.606000000000000E10   -1.764308835845441E-4   2.200560120400041E-4  
 2.608000000000000E10    1.900254719657823E-4  -7.054705929476768E-5  
 2.610000000000000E10   -1.592311600688845E-4   5.168594070710242E-4  
 2.612000000000000E10    1.594177447259426E-4   1.625556760700420E-4  
 2.614000000000000E10   -1.768589572748169E-5   1.687913572823163E-5  
 2.616000000000000E10   -1.022128053591587E-4  -4.449791231309064E-5  
 2.618000000000000E10   -1.234995143022388E-4  -4.879063635598868E-5  
 2.620000000000000E10    9.764290007296950E-5   1.515737239969894E-4  
 2.622000000000000E10    9.203382069244981E-5  -9.365563892060891E-5  
 2.624000000000000E10    1.776347780833021E-4  -2.228700468549505E-4  
 2.626000000000000E10    9.018213313538581E-5   2.945471787825227E-4  
 2.628000000000000E10    3.474167606327683E-4   1.923067320603877E-4  
 2.630000000000000E10    2.274442376801744E-4  -4.627270027413033E-5  
 2.632000000000000E10    4.701681064034347E-6   3.624025339377113E-5  
 2.634000000000000E10   -1.153485864051618E-4   5.035613430663943E-4  
 2.636000000000000E10   -3.595629459596239E-5  -3.692792379297316E-4  
 2.638000000000000E10   -2.721459895838052E-4   7.498900231439620E-5  
 2.640000000000000E10   -4.356439458206296E-4   1.386700023431331E-4  
 2.642000000000000E10    4.019811458420008E-4  -3.968198871007189E-5  
 2.644000000000000E10   -1.310962834395468E-4  -2.031046897172928E-4  
 2.646000000000000E10    3.137577150482684E-4   1.149483578046784E-4  
 2.648000000000000E10   -1.483939995523542E-4   2.920595288742334E-4  
 2.650000000000000E10    2.591229276731610E-4  -1.235650561284274E-4  
 2.652000000000000E10   -6.701925303786993E-5   9.325244900537655E-5  
 2.654000000000000E10    6.914082405273803E-6  -2.647147048264742E-4  
 2.656000000000000E10   -8.571419311920181E-5   1.314462278969586E-4  
 2.658000000000000E10    1.691359211690724E-4  -3.098635643254966E-4  
 2.660000000000000E10    1.828528620535508E-4   1.863071956904605E-4  
 2.662000000000000E10   -5.239321762928739E-5  -2.457472728565335E-4  
 2.664000000000000E10    4.263167502358556E-4   8.474386413581669E-5  
 2.666000000000000E10   -4.671488932217471E-5  -1.875681919045746E-4  
 2.668000000000000E10    9.472016972722486E-5   4.732502202386968E-5  
 2.670000000000000E10   -2.507578756194562E-4  -2.721589225984644E-5  
 2.672000000000000E10    2.765604585874826E-4  -2.105877501890063E-4  
 2.674000000000000E10   -3.446161281317473E-4  -1.171031617559493E-4  
 2.676000000000000E10   -3.821710197371431E-5   1.014353547361679E-4  
 2.678000000000000E10    1.264759521291126E-5   1.710426295176148E-4  
 2.680000000000000E10    5.133325466886163E-4  -3.899147559423000E-4  
 2.682000000000000E10   -1.238497643498704E-4   2.888816816266626E-4  
 2.684000000000000E10   -7.822894986020401E-5  -2.844289410859346E-4  
 2.686000000000000E10    5.692232298315503E-5   3.820250567514449E-4  
 2.688000000000000E10   -1.267902407562360E-4  -1.000422198558226E-4  
 2.690000000000000E10    3.004610698553734E-5   2.452193293720484E-4  
 2.692000000000000E10   -4.531302838586271E-4  -2.284905931446701E-4  
 2.694000000000000E10    3.110801044385880E-4   3.590078267734498E-5  
 2.696000000000000E10   -3.970212492276914E-5   1.745258632581681E-4  
 2.698000000000000E10    3.708179865498096E-4  -2.335437056899536E-5  
 2.700000000000000E10    1.388895325362682E-4  -2.602958411443979E-4  
 2.702000000000000E10    2.931192284449935E-4  -6.056787606212311E-5  
 2.704000000000000E10   -8.909251482691616E-5   1.330229133600369E-4  
 2.706000000000000E10    3.403511655051261E-4   4.811416147276759E-5  
 2.708000000000000E10   -1.523100072517991E-4  -3.723684494616464E-5  
 2.710000000000000E10    2.431654429528862E-4  -3.389645717106760E-4  
 2.712000000000000E10   -3.865519465762191E-5   1.620935945538804E-4  
 2.714000000000000E10   -8.335477468790487E-5   1.548227010061964E-5  
 2.716000000000000E10    3.430531069170684E-4   3.478775033727288E-4  
 2.718000000000000E10    2.160148287657648E-4  -2.787765697576106E-4  
 2.720000000000000E10    1.625308068469167E-4  -5.559428973356262E-5  
 2.722000000000000E10   -1.438794279238209E-4   1.871919957920909E-4  
 2.724000000000000E10    1.948783174157143E-4   1.975776540348306E-4  
 2.726000000000000E10    6.480794399976730E-5  -2.467173908371478E-4  
 2.728000000000000E10    4.049257768201642E-5  -2.263979404233396E-4  
 2.730000000000000E10   -6.623796070925891E-4   1.964534167200327E-4  
 2.732000000000000E10    8.949289622250944E-5   3.229494031984359E-4  
 2.734000000000000E10    4.457280738279223E-4  -1.205723965540528E-4  
 2.736000000000000E10   -4.399680983624421E-5  -2.425666752969846E-4  
 2.738000000000000E10   -4.139171505812556E-4   1.388805103488267E-4  
 2.740000000000000E10    1.414870348526165E-4   4.841107875108719E-5  
 2.742000000000000E10    2.722412136790808E-5   1.983738684430136E-6  
 2.744000000000000E10    1.982883259188384E-5  -3.424677415750921E-4  
 2.746000000000000E10   -2.280596090713516E-4   7.800235471222550E-5  
 2.748000000000000E10   -2.498278627172113E-5  -3.095484571531415E-4  
 2.750000000000000E10    2.013891062233597E-4  -1.069065619958565E-4  
 2.752000000000000E10   -8.750196138862521E-5  -1.924280222738162E-4  
 2.754000000000000E10    9.461355512030423E-5  -1.316103007411584E-4  
 2.756000000000000E10    1.677143009146676E-4  -1.483851228840649E-4  
