#  HZ   S   RI   R     50.00 
! Rohde & Schwarz ZVA40 4Ports - Version 3.90 - 1145.1110k42 SN: 100403
! Date: 2023-10-04 09:21:57
! Measurement: S12 
! 
 2.200000000000000E10   -3.331312909722328E-4  -8.341983193531632E-4  
 2.202000000000000E10   -4.927451955154538E-4   6.571137928403914E-4  
 2.204000000000000E10    6.902706227265298E-4   3.813967341557145E-4  
 2.206000000000000E10    4.376140714157373E-4  -6.171285640448332E-4  
 2.208000000000000E10   -9.136986918747425E-4  -1.760550658218563E-4  
 2.210000000000000E10    2.771808940451592E-4   6.998046883381903E-4  
 2.212000000000000E10    5.949516198597848E-4  -5.147203773958609E-5  
 2.214000000000000E10   -3.680250301840715E-5  -7.468763506039977E-4  
 2.216000000000000E10   -8.386655244976282E-4   5.984230083413422E-4  
 2.218000000000000E10    5.028921295888722E-4   4.111842426937074E-4  
 2.220000000000000E10    3.942614130210131E-4  -5.411331658251584E-4  
 2.222000000000000E10   -8.804596727713943E-4  -4.278487467672676E-4  
 2.224000000000000E10   -3.329244209453464E-4   9.704457479529083E-4  
 2.226000000000000E10    8.054497302509844E-4   1.854753500083461E-4  
 2.228000000000000E10    1.135006968979724E-4  -8.345030364580452E-4  
 2.230000000000000E10   -1.101279282011092E-3  -5.201307430979796E-5  
 2.232000000000000E10    2.804458781611174E-4   1.050864229910076E-3  
 2.234000000000000E10    7.350223022513092E-4  -3.192074946127832E-4  
 2.236000000000000E10   -4.611641634255648E-4  -9.279637015424669E-4  
 2.238000000000000E10   -9.195064194500446E-4   4.430223780218512E-4  
 2.240000000000000E10    2.470856125000864E-4   5.830127629451454E-4  
 2.242000000000000E10    4.531092708930373E-4  -4.242318391334266E-4  
 2.244000000000000E10   -2.714678994379938E-4  -5.248707020655274E-4  
 2.246000000000000E10   -6.381716812029481E-4   5.499775870703161E-4  
 2.248000000000000E10    3.557755262590945E-4   4.336640122346580E-4  
 2.250000000000000E10    1.707194169284776E-4  -3.349259204696864E-4  
 2.252000000000000E10   -5.597026320174336E-4  -1.585615973453969E-4  
 2.254000000000000E10   -3.506464418023825E-5   4.372498951852322E-4  
 2.256000000000000E10    2.877798106055707E-4  -2.584960893727839E-4  
 2.258000000000000E10   -2.695797011256218E-4  -2.498356043361127E-4  
 2.260000000000000E10   -6.822650902904570E-5   3.250290756113827E-4  
 2.262000000000000E10    5.750088603235781E-4   1.478802005294710E-4  
 2.264000000000000E10    1.530781155452132E-4  -6.031213561072946E-4  
 2.266000000000000E10   -6.245202384889126E-4  -7.546794950030744E-5  
 2.268000000000000E10    1.112075260607526E-4   9.061510208994150E-4  
 2.270000000000000E10    8.197879651561379E-4  -2.430048771202564E-4  
 2.272000000000000E10   -1.210225818795152E-4  -1.040088711306453E-3  
 2.274000000000000E10   -1.002646517008543E-3   2.259578177472577E-4  
 2.276000000000000E10    3.499507147353143E-4   6.632689619436860E-4  
 2.278000000000000E10    7.893728907220066E-4  -5.876854993402958E-4  
 2.280000000000000E10   -3.623112861532718E-4  -6.983680068515241E-4  
 2.282000000000000E10   -9.437356493435800E-4   2.369312824157532E-6  
 2.284000000000000E10    3.641527728177607E-4   5.995800602249801E-4  
 2.286000000000000E10    2.482214476913214E-4  -4.121680685784668E-4  
 2.288000000000000E10   -6.333921337500215E-4  -2.893708879128099E-4  
 2.290000000000000E10   -3.278642543591559E-4   5.276422016322613E-4  
 2.292000000000000E10    1.085812982637435E-4  -2.068986796075478E-4  
 2.294000000000000E10   -8.660870662424713E-5  -5.433906917460263E-4  
 2.296000000000000E10   -3.877720446325839E-4   9.264994878321886E-5  
 2.298000000000000E10   -4.757878195960075E-5   2.423809200990945E-4  
 2.300000000000000E10    7.520887447753921E-5  -3.137645835522562E-4  
 2.302000000000000E10   -5.654836422763765E-4   1.831733679864556E-4  
 2.304000000000000E10   -3.881953598465771E-4   5.518827820196748E-4  
 2.306000000000000E10    4.741243319585919E-4   4.004230868304148E-5  
 2.308000000000000E10   -2.747752587310970E-4  -4.302016750443727E-4  
 2.310000000000000E10   -5.615926347672939E-4  -1.574932102812454E-4  
 2.312000000000000E10   -1.591039472259581E-4   5.908563034608960E-4  
 2.314000000000000E10    5.089597543701530E-4  -4.610196046996862E-4  
 2.316000000000000E10   -1.500170037616044E-4  -6.714457995258272E-4  
 2.318000000000000E10   -4.807384975720197E-4   6.191920419951202E-6  
 2.320000000000000E10    1.224805891979486E-4   5.403168033808470E-4  
 2.322000000000000E10    3.997515595983714E-4  -3.808464098256081E-4  
 2.324000000000000E10   -8.059554238570854E-5  -2.177491987822577E-4  
 2.326000000000000E10   -6.770791369490326E-4   9.679707727627829E-5  
 2.328000000000000E10    1.163704801001586E-4   1.786364155123010E-4  
 2.330000000000000E10   -1.557887007948011E-4   1.488308480475098E-4  
 2.332000000000000E10   -2.927038003690541E-4  -1.654270745348185E-4  
 2.334000000000000E10    1.214481962961145E-4  -2.790684811770916E-5  
 2.336000000000000E10    6.549181853188202E-5  -3.612688451539725E-4  
 2.338000000000000E10   -4.994625924155116E-4  -2.176923590013757E-5  
 2.340000000000000E10    2.230956743005663E-4   1.215448646689765E-4  
 2.342000000000000E10    3.933926345780492E-4   1.566522696521133E-4  
 2.344000000000000E10   -1.671042409725487E-4  -3.904601908288896E-4  
 2.346000000000000E10   -3.924404445569962E-4   7.662481948500499E-5  
 2.348000000000000E10   -3.937801011488773E-6   5.717017338611186E-4  
 2.350000000000000E10    5.636786809191108E-4   4.401983460411429E-5  
 2.352000000000000E10    6.188135739648715E-5  -3.897022397723049E-4  
 2.354000000000000E10   -4.484687233343720E-4   2.170464140363038E-4  
 2.356000000000000E10    5.436384890344925E-5   4.487513797357678E-4  
 2.358000000000000E10    6.863335147500038E-4   1.042787043843418E-4  
 2.360000000000000E10   -1.770332746673375E-4  -4.888238036073744E-4  
 2.362000000000000E10   -3.896274429280311E-4  -1.343997719231993E-4  
 2.364000000000000E10   -3.106018630205654E-5   4.977491335012019E-4  
 2.366000000000000E10    1.644354051677510E-4   2.050347393378615E-4  
 2.368000000000000E10    1.236694661201909E-4  -1.301177981076762E-4  
 2.370000000000000E10   -1.063036979758181E-4  -3.075792483286932E-5  
 2.372000000000000E10   -1.853057183325291E-4   5.482132473844104E-5  
 2.374000000000000E10   -4.430990884429775E-5   1.806458749342710E-4  
 2.376000000000000E10   -4.177457958576269E-5   1.198276731884107E-4  
 2.378000000000000E10    6.033420868334360E-5  -1.339660229859874E-4  
 2.380000000000000E10    5.590421642409638E-5  -1.167319715023041E-4  
 2.382000000000000E10   -6.356409867294133E-4   2.803115639835596E-4  
 2.384000000000000E10   -4.376047945697792E-5   2.346904511796311E-4  
 2.386000000000000E10    4.402800695970655E-4  -1.222270948346704E-4  
 2.388000000000000E10   -2.449626917950809E-4  -6.014378741383553E-4  
 2.390000000000000E10   -6.227188277989626E-4  -1.128272651840234E-5  
 2.392000000000000E10   -2.223735282314010E-5   5.412122700363398E-4  
 2.394000000000000E10    3.616139292716980E-4   2.941067032224964E-5  
 2.396000000000000E10    4.160889511695132E-5  -6.300651002675295E-4  
 2.398000000000000E10   -4.982185782864690E-4   3.950997488573194E-4  
 2.400000000000000E10    1.492779665568378E-5   3.514377458486706E-4  
 2.402000000000000E10    4.477859183680266E-4  -2.277814783155918E-4  
 2.404000000000000E10   -3.136558225378394E-4  -8.177343261195347E-5  
 2.406000000000000E10   -2.867293078452349E-4   1.619434187887237E-4  
 2.408000000000000E10    1.669431640038965E-6   1.782645704224706E-4  
 2.410000000000000E10    2.733614237513393E-4  -3.940123497159220E-5  
 2.412000000000000E10   -3.399911511223763E-4  -9.187057730741799E-5  
 2.414000000000000E10   -1.286397455260158E-4   1.870954001788050E-4  
 2.416000000000000E10    2.249288809252903E-4   2.421220560790971E-4  
 2.418000000000000E10   -3.893583925673738E-5  -3.594236040953547E-4  
 2.420000000000000E10   -1.616946101421490E-4   1.966735144378617E-4  
 2.422000000000000E10   -1.869412226369605E-4   2.076392847811803E-4  
 2.424000000000000E10    2.458469825796783E-4  -9.482003952143714E-5  
 2.426000000000000E10   -2.642856852617115E-4  -2.158163697458804E-4  
 2.428000000000000E10   -2.092874783556908E-4   6.337106697174022E-6  
 2.430000000000000E10    1.222594801220112E-5  -1.771698589436710E-4  
 2.432000000000000E10    1.409224933013320E-4  -3.521451144479215E-4  
 2.434000000000000E10   -4.663513100240380E-4   2.249482895422261E-5  
 2.436000000000000E10    1.963250251719728E-4  -1.320459996350110E-4  
 2.438000000000000E10    7.237518002511933E-5  -3.300656680949032E-4  
 2.440000000000000E10   -2.520284324418753E-4  -5.786220426671207E-4  
 2.442000000000000E10   -3.262093814555556E-4   6.001109723001719E-4  
 2.444000000000000E10    2.730429696384817E-4   5.971239806967787E-5  
 2.446000000000000E10    3.244870167691261E-4  -4.408317909110338E-4  
 2.448000000000000E10   -7.349191000685096E-4  -3.971660917159170E-4  
 2.450000000000000E10   -4.745540791191161E-4   7.021976634860039E-4  
 2.452000000000000E10    6.423227023333311E-5   1.551711902720854E-4  
 2.454000000000000E10    3.586216480471194E-4  -7.567754946649075E-4  
 2.456000000000000E10   -9.654932655394077E-4  -2.481708070263267E-4  
 2.458000000000000E10   -3.523212217260152E-4   4.665255837608129E-4  
 2.460000000000000E10    2.445056743454188E-4   5.504990112967789E-4  
 2.462000000000000E10    9.490187221672386E-5  -7.306002662517130E-4  
 2.464000000000000E10   -2.828315773513168E-4   7.582699618069455E-5  
 2.466000000000000E10   -3.304842684883624E-4   4.133167094551027E-4  
 2.468000000000000E10    4.780837916769087E-4   2.014697820413858E-4  
 2.470000000000000E10   -9.375598892802373E-5   9.797813254408538E-5  
 2.472000000000000E10   -5.186049747862853E-5   2.790865837596357E-4  
 2.474000000000000E10   -2.564007590990514E-4   2.712873974815011E-4  
 2.476000000000000E10    1.050111532094888E-4   1.972632308024913E-4  
 2.478000000000000E10   -3.418654960114509E-4   5.143761518411338E-4  
 2.480000000000000E10    3.843917511403561E-4   2.358603378525004E-4  
 2.482000000000000E10    3.359679249115288E-4  -1.999897940550000E-4  
 2.484000000000000E10   -3.917926806025207E-4  -3.280281671322882E-4  
 2.486000000000000E10    6.447819760069251E-5   6.432101363316178E-4  
 2.488000000000000E10    3.301508841104806E-4   3.739773528650403E-4  
 2.490000000000000E10    4.154188791289926E-4  -5.053724162280560E-4  
 2.492000000000000E10   -5.150383803993464E-4  -2.435918395349290E-5  
 2.494000000000000E10   -3.481029707472771E-4   7.414430147036910E-4  
 2.496000000000000E10    9.219070780090988E-4   3.114434948656708E-4  
 2.498000000000000E10    3.066046920139343E-4  -6.144916405901313E-4  
 2.500000000000000E10   -6.997779710218310E-4   1.965067058335990E-4  
 2.502000000000000E10    1.067983976099640E-5   4.488402046263218E-4  
 2.504000000000000E10    7.912709843367338E-4   1.839368778746575E-4  
 2.506000000000000E10   -3.118436434306204E-4  -5.643810727633536E-4  
 2.508000000000000E10   -2.038316742982715E-4   1.140477979788557E-4  
 2.510000000000000E10    8.266777876997367E-5   5.386581178754568E-4  
 2.512000000000000E10    2.725097292568535E-4  -5.557234981097281E-4  
 2.514000000000000E10   -3.427631745580584E-4   7.019558688625693E-5  
 2.516000000000000E10   -3.749087918549776E-4   1.406309165759012E-4  
 2.518000000000000E10    4.742121964227408E-4  -1.814210554584861E-4  
 2.520000000000000E10   -3.802538049058057E-5  -2.368052373640239E-4  
 2.522000000000000E10   -3.448408679105341E-4  -7.669871411053464E-5  
 2.524000000000000E10   -1.044695673044771E-4   1.481311483075842E-4  
 2.526000000000000E10    2.621368621475995E-4  -6.764406862203032E-5  
 2.528000000000000E10   -3.958891320507973E-4  -2.897668746300042E-4  
 2.530000000000000E10   -5.338509799912572E-5   5.278000026009977E-5  
 2.532000000000000E10    1.962438836926594E-4   1.767452486092225E-4  
 2.534000000000000E10    9.526134090265259E-5  -4.282563168089837E-4  
 2.536000000000000E10    1.295594556722790E-4  -4.815451393369585E-5  
 2.538000000000000E10    3.125840739812702E-4   3.874410758726299E-4  
 2.540000000000000E10    3.054580010939390E-4  -1.391701371176168E-4  
 2.542000000000000E10   -5.210285962675698E-5  -3.057365247514099E-4  
 2.544000000000000E10   -3.779651888180524E-5   1.662120048422366E-4  
 2.546000000000000E10    2.619004517327994E-4   2.654663694556803E-4  
 2.548000000000000E10    3.469084331300110E-4  -2.236464642919600E-4  
 2.550000000000000E10   -3.628311969805509E-4  -2.616483834572136E-4  
 2.552000000000000E10    1.145160422311164E-4   1.237602991750464E-4  
 2.554000000000000E10    3.844042948912829E-4  -4.835122672375292E-5  
 2.556000000000000E10   -1.052833904395811E-4  -4.439621989149600E-4  
 2.558000000000000E10   -2.321899810340256E-4  -8.490485015499871E-6  
 2.560000000000000E10    1.547329011373222E-4   1.802687038434669E-4  
 2.562000000000000E10    2.958386030513793E-4  -3.510686801746488E-4  
 2.564000000000000E10   -2.665760985109955E-4  -1.724060130072758E-4  
 2.566000000000000E10   -1.939574576681480E-4   1.603208365850151E-4  
 2.568000000000000E10    1.532457536086440E-4   4.436769231688231E-4  
 2.570000000000000E10    3.246330015826970E-5  -3.865236940328032E-4  
 2.572000000000000E10   -1.356384018436074E-4  -3.907959762727842E-5  
 2.574000000000000E10   -3.503558691591024E-4   2.149108040612191E-4  
 2.576000000000000E10    2.036742080235854E-4  -1.026899408316240E-4  
 2.578000000000000E10   -2.277882958878763E-5  -3.295092319604009E-4  
 2.580000000000000E10   -1.071971564670093E-4  -2.311460411874577E-4  
 2.582000000000000E10   -2.272455312777311E-4   2.066945453407243E-4  
 2.584000000000000E10    9.980571485357359E-5  -3.001533914357424E-4  
 2.586000000000000E10   -2.213734551332891E-4   4.071311559528112E-5  
 2.588000000000000E10   -2.200910821557045E-4  -2.319519699085504E-4  
 2.590000000000000E10    8.925570728024468E-5   2.725662779994309E-4  
 2.592000000000000E10   -4.165431600995362E-4  -2.686767547857016E-4  
 2.594000000000000E10   -6.309444870566949E-5   1.326351630268619E-4  
 2.596000000000000E10   -1.083358147297986E-4   2.748729602899402E-4  
 2.598000000000000E10    2.592520322650671E-4  -3.159129410050809E-4  
 2.600000000000000E10   -3.842865990009159E-4   1.586637154105119E-5  
 2.602000000000000E10   -1.389880781061947E-4   4.229797341395170E-4  
 2.604000000000000E10    2.218956942670047E-4   2.369155117776245E-4  
 2.606000000000000E10    2.482734562363476E-4  -4.158137890044600E-4  
 2.608000000000000E10   -3.274339833296835E-4   9.218876220984384E-5  
 2.610000000000000E10   -4.089364301762544E-5   2.137875126209110E-4  
 2.612000000000000E10    4.278554406482726E-4   5.056794034317136E-4  
 2.614000000000000E10    2.244532224722207E-4  -1.782897888915613E-4  
 2.616000000000000E10    1.446265523554757E-4  -2.133771486114711E-4  
 2.618000000000000E10   -7.509899296564981E-5   1.416930608684197E-4  
 2.620000000000000E10    1.729797513689846E-4   8.034663915168494E-5  
 2.622000000000000E10    2.685349318198860E-4   1.340448798146099E-4  
 2.624000000000000E10    1.724255125736818E-4   1.978381806111429E-5  
 2.626000000000000E10    3.705708149936982E-5   1.358861336484551E-4  
 2.628000000000000E10    1.699192071100697E-4   1.499246427556500E-4  
 2.630000000000000E10    1.993133337236941E-4   1.226809254148975E-4  
 2.632000000000000E10    3.053296823054552E-4  -9.944499470293522E-5  
 2.634000000000000E10    2.660269674379379E-4  -7.554731564596295E-5  
 2.636000000000000E10   -1.067101111402735E-4  -2.068442263407633E-4  
 2.638000000000000E10    5.896213770029135E-5   5.106646858621389E-5  
 2.640000000000000E10    1.558927324367687E-4   2.071400958811864E-4  
 2.642000000000000E10    2.499588299542666E-4  -5.168452044017613E-4  
 2.644000000000000E10    6.676671182503924E-5  -2.852469624485821E-4  
 2.646000000000000E10   -1.084915784304030E-4   7.640818512300029E-5  
 2.648000000000000E10    3.274048503953964E-4  -4.918087506666780E-5  
 2.650000000000000E10    2.269890101160854E-4  -2.805098192766309E-4  
 2.652000000000000E10   -1.117274296120741E-4  -1.269201165996492E-4  
 2.654000000000000E10   -1.957950735231862E-4  -1.198473255499266E-4  
 2.656000000000000E10    1.482232473790646E-4  -4.155229544267058E-5  
 2.658000000000000E10   -1.822962803998962E-4  -1.220474441652186E-4  
 2.660000000000000E10   -1.926399418152869E-4  -3.306360449641943E-4  
 2.662000000000000E10   -1.903069787658751E-4   1.441811182303354E-4  
 2.664000000000000E10    4.740559234051034E-5  -4.718423951999284E-5  
 2.666000000000000E10    9.784498251974583E-5  -1.486347027821466E-4  
 2.668000000000000E10   -6.245040276553482E-5  -2.864765156118665E-5  
 2.670000000000000E10    4.372563125798479E-5   1.547012070659548E-4  
 2.672000000000000E10    6.364967703120783E-5  -9.286308340961114E-5  
 2.674000000000000E10   -6.629976269323379E-5   8.575434185331687E-5  
 2.676000000000000E10   -3.424183232709765E-4   8.946347224991769E-5  
 2.678000000000000E10    2.771009749267250E-4   1.877589238574728E-4  
 2.680000000000000E10    2.219037196482532E-5   1.206555971293710E-4  
 2.682000000000000E10    8.620844164397568E-5  -3.220977960154414E-4  
 2.684000000000000E10   -5.525999586097896E-5   7.000902769505046E-6  
 2.686000000000000E10   -2.114369999617338E-5   5.439413507701829E-5  
 2.688000000000000E10    1.837045710999519E-4  -2.572110097389668E-4  
 2.690000000000000E10   -2.957586730190087E-5  -9.785333531908691E-5  
 2.692000000000000E10   -2.650300448294729E-4   1.497368066338822E-4  
 2.694000000000000E10    2.236262516817078E-4  -2.529578050598502E-4  
 2.696000000000000E10   -1.470180432079360E-4   9.288543515140191E-5  
 2.698000000000000E10    1.418650354025886E-4   1.177250760520110E-5  
 2.700000000000000E10    1.678462722338736E-4   1.851043634815142E-5  
 2.702000000000000E10   -1.069037316483446E-4  -1.115691193263046E-4  
 2.704000000000000E10   -2.163107710657641E-4   1.890041894512251E-4  
 2.706000000000000E10   -5.582250014413148E-5  -5.927427628193982E-5  
 2.708000000000000E10    3.787589957937598E-5   5.156862971489318E-5  
 2.710000000000000E10   -2.821847738232464E-4  -1.644736621528864E-4  
 2.712000000000000E10   -7.725220348220319E-5   1.707792107481509E-4  
 2.714000000000000E10   -1.593579509062693E-4   2.973240043502301E-4  
 2.716000000000000E10    2.374861214775592E-4   4.715877366834320E-5  
 2.718000000000000E10   -1.575818350829650E-5  -1.955044717760757E-5  
 2.720000000000000E10   -6.634959572693333E-5  -1.365020125376759E-5  
 2.722000000000000E10   -1.233816437888891E-4   1.402425841661170E-4  
 2.724000000000000E10    2.266923693241552E-4   3.233320967410691E-5  
 2.726000000000000E10   -2.794432220980525E-4  -2.026749098149594E-5  
 2.728000000000000E10   -5.001725512556732E-4  -2.264595241285861E-5  
 2.730000000000000E10    2.229567762697116E-4   2.817127679008991E-4  
 2.732000000000000E10    1.378840388497338E-4   2.392969327047467E-5  
 2.734000000000000E10   -1.121709658491454E-7  -2.465502184350044E-4  
 2.736000000000000E10    3.886104605044238E-5   1.540243392810226E-4  
 2.738000000000000E10    4.376620636321604E-4   1.493987510912120E-4  
 2.740000000000000E10    8.555575186619535E-5   1.417556341039017E-4  
 2.742000000000000E10   -6.039915206201840E-6  -9.860490536084399E-5  
 2.744000000000000E10    2.525123079522018E-7   2.434310736134648E-4  
 2.746000000000000E10    1.322644966421649E-4   1.283970195800066E-4  
 2.748000000000000E10    2.721294731600210E-5   1.263070444110781E-4  
 2.750000000000000E10   -1.325668290519388E-5  -6.133243005024269E-5  
 2.752000000000000E10    2.550842182245106E-4   1.837003219407052E-4  
 2.754000000000000E10    3.174688754370436E-5   1.802965707611293E-4  
 2.756000000000000E10    1.661173882894218E-4  -2.476978988852352E-4  
