#  HZ   S   RI   R     50.00 
! Rohde & Schwarz ZVA40 4Ports - Version 3.90 - 1145.1110k42 SN: 100403
! Date: 2023-10-04 09:21:40
! Measurement: S12 
! 
 2.200000000000000E10   -2.341274666832760E-4  -3.763561253435910E-4  
 2.202000000000000E10   -2.465137513354421E-4   6.643002270720899E-4  
 2.204000000000000E10    6.042901659384370E-4   4.343161417637020E-4  
 2.206000000000000E10   -3.058654328924604E-6  -7.677943794988096E-4  
 2.208000000000000E10   -6.141256890259683E-4  -1.241554418811575E-4  
 2.210000000000000E10    1.838092721300200E-4   9.029908105731010E-4  
 2.212000000000000E10    1.041886047460139E-3  -3.308751038275659E-4  
 2.214000000000000E10   -1.408874231856316E-4  -9.212367585860193E-4  
 2.216000000000000E10   -9.874267270788550E-4   4.134437185712159E-4  
 2.218000000000000E10    6.161371129564941E-4   1.020808937028050E-3  
 2.220000000000000E10    7.016598829068244E-4  -2.651933464221656E-4  
 2.222000000000000E10   -6.854568491689861E-4  -7.730816141702235E-4  
 2.224000000000000E10   -8.319542394019663E-4   6.057559512555599E-4  
 2.226000000000000E10    7.015633163973689E-4   4.937686608172953E-4  
 2.228000000000000E10    3.048832295462489E-4  -9.637681068852544E-4  
 2.230000000000000E10   -6.559008616022766E-4  -2.964683226309717E-4  
 2.232000000000000E10   -2.542157599236816E-4   8.602744201198220E-4  
 2.234000000000000E10    8.054230129346252E-4   4.630306193575962E-6  
 2.236000000000000E10   -4.393141134642065E-4  -4.014715377707034E-4  
 2.238000000000000E10   -5.097306566312909E-4   2.710462722461671E-4  
 2.240000000000000E10    3.375328378751874E-4   6.472482928074896E-4  
 2.242000000000000E10    1.311241358052939E-4  -4.802297917194665E-4  
 2.244000000000000E10   -6.293432670645416E-4  -2.589508949313313E-4  
 2.246000000000000E10   -1.383036724291742E-4   4.284953756723553E-4  
 2.248000000000000E10    5.932531785219908E-4   2.925461158156395E-4  
 2.250000000000000E10   -1.416760205756873E-4  -9.627209510654211E-4  
 2.252000000000000E10   -7.760084117762744E-4  -1.401119225192815E-4  
 2.254000000000000E10   -1.444391382392496E-4   6.132402340881527E-4  
 2.256000000000000E10    8.804744575172663E-4  -4.727870982605964E-4  
 2.258000000000000E10   -6.594271399080753E-4  -8.826450794003904E-4  
 2.260000000000000E10   -7.920459611341357E-4   3.383636067155749E-4  
 2.262000000000000E10    5.911180633120239E-4   7.051922730170190E-4  
 2.264000000000000E10    6.533306441269815E-4  -6.291657919064164E-4  
 2.266000000000000E10   -7.437135209329426E-4  -4.304491158109158E-4  
 2.268000000000000E10   -5.373806925490499E-4   6.916233105584979E-4  
 2.270000000000000E10    7.020525517873466E-4   7.462110952474177E-4  
 2.272000000000000E10   -3.297039802419022E-5  -8.358748746104538E-4  
 2.274000000000000E10   -8.996807737275958E-4  -4.045228997711092E-4  
 2.276000000000000E10   -2.154819812858477E-4   7.353379623964429E-4  
 2.278000000000000E10    9.166887030005455E-4  -2.110251080011949E-4  
 2.280000000000000E10   -3.887136335833930E-5  -7.063661469146609E-4  
 2.282000000000000E10   -6.288123549893498E-4  -4.719392163679004E-4  
 2.284000000000000E10    2.774140739347786E-4   4.318615538068116E-4  
 2.286000000000000E10    6.128275999799371E-4  -1.260980207007378E-4  
 2.288000000000000E10   -9.087979560717940E-4  -3.490354574751109E-4  
 2.290000000000000E10   -4.446032471605577E-5   5.368060665205121E-4  
 2.292000000000000E10    4.104836843907833E-4   2.109721972374246E-4  
 2.294000000000000E10   -2.830489829648286E-4  -6.998972967267036E-4  
 2.296000000000000E10   -2.709740074351430E-4   2.631053503137082E-4  
 2.298000000000000E10    1.885844831122086E-4   5.035266513004899E-4  
 2.300000000000000E10    5.056897643953562E-4  -3.280316595919430E-4  
 2.302000000000000E10   -3.323747951071709E-4  -2.592923992779106E-4  
 2.304000000000000E10   -4.001701308880001E-4   7.921906071715057E-4  
 2.306000000000000E10    4.206690355204046E-4   1.465203968109563E-4  
 2.308000000000000E10    8.585162140661851E-5  -5.549881025217474E-4  
 2.310000000000000E10   -8.061869302764535E-4  -1.034077067743056E-4  
 2.312000000000000E10   -3.049894003197551E-4   3.148824325762689E-4  
 2.314000000000000E10    7.115874323062599E-4   8.002505637705326E-5  
 2.316000000000000E10   -2.195306296925992E-4  -6.568713579326868E-4  
 2.318000000000000E10   -3.278965596109629E-4  -9.605339073459618E-6  
 2.320000000000000E10    2.599427261884557E-6   6.186264799907804E-4  
 2.322000000000000E10    3.575300506781787E-4  -4.688698973041028E-4  
 2.324000000000000E10   -2.532758517190814E-4  -1.322837197221816E-4  
 2.326000000000000E10   -4.423613136168569E-4   2.203152107540518E-4  
 2.328000000000000E10    3.400464775040746E-4   2.499936672393233E-4  
 2.330000000000000E10    3.428798809181899E-4  -3.651712031569332E-4  
 2.332000000000000E10   -3.244034596718848E-4  -4.585247370414436E-5  
 2.334000000000000E10   -1.384059578413144E-4   2.777492336463183E-4  
 2.336000000000000E10    6.568966200575233E-4   7.469622505595908E-5  
 2.338000000000000E10   -1.333915424766019E-4  -4.850059922318906E-4  
 2.340000000000000E10   -3.711441531777382E-4   1.296410482609645E-4  
 2.342000000000000E10    1.490126451244578E-4   5.927623715251684E-4  
 2.344000000000000E10    4.296876140870154E-4  -3.533826966304332E-4  
 2.346000000000000E10   -2.229527890449390E-4  -2.227877557743341E-4  
 2.348000000000000E10   -3.310169558972120E-4   3.613324952311814E-4  
 2.350000000000000E10    3.435038088355213E-4   1.360899041173980E-4  
 2.352000000000000E10    1.974628103198484E-4  -2.387239510426298E-4  
 2.354000000000000E10   -1.244474842678756E-4   8.968110341811553E-5  
 2.356000000000000E10    4.926661131321453E-5   2.153363166144118E-4  
 2.358000000000000E10    3.640095528680831E-4   1.443922337784898E-5  
 2.360000000000000E10   -1.555923663545400E-4  -4.203444113954902E-4  
 2.362000000000000E10   -3.585662925615907E-4   1.130779583036201E-5  
 2.364000000000000E10    1.961135858437046E-4   8.630581578472629E-5  
 2.366000000000000E10    3.321190888527781E-4  -2.739902993198484E-4  
 2.368000000000000E10   -1.178331513074227E-4  -2.685856452444568E-5  
 2.370000000000000E10   -2.555156825110316E-4   1.883729855762795E-4  
 2.372000000000000E10    2.062209678115323E-4   5.220660750637762E-5  
 2.374000000000000E10    1.072999748430448E-5  -1.427677198080346E-4  
 2.376000000000000E10   -5.862950347363949E-4  -2.226182405138388E-4  
 2.378000000000000E10    7.033877045614645E-5   1.486295077484101E-4  
 2.380000000000000E10   -4.549704954115441E-6  -2.603011671453714E-4  
 2.382000000000000E10   -5.096337990835309E-4  -3.113302809651941E-4  
 2.384000000000000E10   -4.591512551996857E-4   1.118931759265252E-4  
 2.386000000000000E10    3.006380575243384E-4   1.691893412498757E-4  
 2.388000000000000E10    6.350015610223636E-5  -4.223648284096271E-4  
 2.390000000000000E10   -2.803063543979079E-4  -5.243008490651846E-4  
 2.392000000000000E10   -2.147925988538191E-4   5.703632486984134E-4  
 2.394000000000000E10    4.324681940488517E-4  -6.656126788584516E-5  
 2.396000000000000E10    3.434739483054727E-4  -2.489314938429743E-4  
 2.398000000000000E10   -6.691925809718669E-4  -2.035659999819472E-4  
 2.400000000000000E10   -7.795991405146197E-5   4.024688678327948E-4  
 2.402000000000000E10    2.060767583316192E-4   4.051099313073792E-5  
 2.404000000000000E10    3.702763351611793E-4  -3.000115102622658E-4  
 2.406000000000000E10   -2.994252135977149E-4   4.094113683095202E-5  
 2.408000000000000E10    1.796248034224846E-5   3.755005309358239E-4  
 2.410000000000000E10    2.248234886792488E-5   3.453305689617991E-4  
 2.412000000000000E10    1.333451655227691E-4  -2.548756019677967E-4  
 2.414000000000000E10   -6.786792800994590E-5   3.224536776542664E-4  
 2.416000000000000E10   -1.124604968936183E-4  -1.874731096904725E-4  
 2.418000000000000E10    4.306363553041592E-5  -4.179171810392290E-5  
 2.420000000000000E10   -1.291412918362767E-4  -3.815592663158895E-6  
 2.422000000000000E10    3.934898995794356E-4   8.216322021326050E-5  
 2.424000000000000E10    9.426668839296326E-5  -5.322464276105166E-4  
 2.426000000000000E10   -2.350686263525859E-4  -6.525072240037844E-5  
 2.428000000000000E10   -3.145132795907557E-4   3.241963859181851E-4  
 2.430000000000000E10    7.400086033158004E-4   4.960629303241149E-5  
 2.432000000000000E10    2.794364409055561E-4  -6.149871624074876E-4  
 2.434000000000000E10   -4.464371595531702E-4  -4.701035504695028E-4  
 2.436000000000000E10   -3.608638944569975E-4   4.759127623401582E-4  
 2.438000000000000E10    4.681663995143026E-4  -3.514418858685531E-5  
 2.440000000000000E10    2.795760810840875E-4  -6.058058934286237E-4  
 2.442000000000000E10   -8.163106977008283E-4  -3.712598117999733E-4  
 2.444000000000000E10   -2.867272705771029E-4   4.197942616883665E-4  
 2.446000000000000E10    2.947272441815585E-4   7.687920151511207E-5  
 2.448000000000000E10    5.260054967948236E-5  -4.833724524360150E-4  
 2.450000000000000E10   -6.281108944676817E-4  -1.156060898210853E-4  
 2.452000000000000E10    4.633273056242615E-5   1.816132717067376E-4  
 2.454000000000000E10    6.026815390214324E-5  -4.599263047566637E-5  
 2.456000000000000E10   -2.133857633452863E-4  -5.293017602525652E-4  
 2.458000000000000E10   -2.161411393899471E-4   2.948088804259896E-4  
 2.460000000000000E10    1.152090990217403E-4   1.125037597375922E-4  
 2.462000000000000E10    1.592256594449282E-4  -3.265801351517439E-4  
 2.464000000000000E10   -3.439677529968321E-4   1.210917835123837E-4  
 2.466000000000000E10    3.109717217739672E-4   3.194448072463274E-4  
 2.468000000000000E10    6.217339250724763E-5  -1.911869912873954E-4  
 2.470000000000000E10   -2.174978144466877E-4  -8.427233115071431E-5  
 2.472000000000000E10   -2.576501283328980E-4   5.638221628032625E-4  
 2.474000000000000E10    3.567271633073688E-4  -8.237190922955051E-5  
 2.476000000000000E10    8.138470002450049E-5  -1.894163142424077E-4  
 2.478000000000000E10   -5.555366515181959E-4   2.856405262718909E-5  
 2.480000000000000E10    4.212696221657097E-4   6.400171550922096E-4  
 2.482000000000000E10    2.394390903646126E-4  -1.616466906853020E-4  
 2.484000000000000E10    5.922649870626628E-5  -4.899366758763790E-4  
 2.486000000000000E10   -6.176157039590180E-4   4.401405458338559E-4  
 2.488000000000000E10    6.611892604269087E-4   3.575210575945675E-4  
 2.490000000000000E10    3.839860728476197E-4  -2.678660966921598E-4  
 2.492000000000000E10   -3.270359884481877E-4  -6.768141174688935E-4  
 2.494000000000000E10   -2.343065716559067E-4   7.784790359437466E-4  
 2.496000000000000E10    5.675277789123356E-4  -6.160830253065797E-6  
 2.498000000000000E10    6.062389584258199E-4  -5.675421562045813E-4  
 2.500000000000000E10   -5.420457455329597E-4  -1.737778511596844E-4  
 2.502000000000000E10   -2.194023545598611E-4   1.982340618269518E-4  
 2.504000000000000E10    3.880994336213917E-4   9.129672980634496E-5  
 2.506000000000000E10    2.052423951681703E-4  -5.471254698932171E-4  
 2.508000000000000E10   -2.971815411001444E-4  -2.724383084569126E-4  
 2.510000000000000E10   -1.100043446058407E-4   4.169369640294462E-5  
 2.512000000000000E10   -2.469341852702200E-4  -1.272283116122708E-4  
 2.514000000000000E10   -6.794912769692019E-5  -3.053406544495374E-4  
 2.516000000000000E10   -1.574536581756547E-4   1.890909479698166E-4  
 2.518000000000000E10    1.249232591362670E-4  -2.843467518687248E-4  
 2.520000000000000E10   -1.933746243594214E-4  -1.863510115072131E-4  
 2.522000000000000E10   -4.716865951195359E-4   4.674143565353006E-4  
 2.524000000000000E10    2.259852772112936E-4   2.301364293089137E-4  
 2.526000000000000E10    3.398440021555871E-4  -1.298673741985112E-4  
 2.528000000000000E10   -9.564702631905675E-4  -2.549742639530450E-4  
 2.530000000000000E10   -2.906266017816961E-4   8.347511175088584E-5  
 2.532000000000000E10    2.996393304783851E-4   3.504756896290928E-4  
 2.534000000000000E10    2.480651710357051E-5  -4.701865254901350E-4  
 2.536000000000000E10   -2.798373170662671E-4  -2.970862842630595E-4  
 2.538000000000000E10   -5.488280294230208E-5   3.921426250599325E-4  
 2.540000000000000E10    4.237329412717372E-4   1.094266408472322E-4  
 2.542000000000000E10    1.295590191148222E-4  -4.024262889288366E-4  
 2.544000000000000E10   -2.800687507260591E-4   2.896590740419924E-4  
 2.546000000000000E10   -4.836176231037825E-5   1.568524457979947E-4  
 2.548000000000000E10    2.876577491406351E-4   1.676380343269557E-4  
 2.550000000000000E10   -4.020328633487225E-4  -4.821647962671705E-5  
 2.552000000000000E10   -2.164630859624594E-5   3.074889245908707E-4  
 2.554000000000000E10    1.496656914241612E-4   2.693516435101628E-4  
 2.556000000000000E10    6.552426930284128E-5  -3.318407980259508E-4  
 2.558000000000000E10   -2.610482042655349E-4   1.784454216249287E-4  
 2.560000000000000E10    1.716954575385898E-4   2.440341631881893E-4  
 2.562000000000000E10    2.619506849441677E-4   1.459346531191841E-4  
 2.564000000000000E10   -7.622397970408201E-5  -2.921597333624959E-4  
 2.566000000000000E10   -2.478187961969525E-4   3.212046285625547E-4  
 2.568000000000000E10    6.782470791222295E-6   5.080460687167943E-5  
 2.570000000000000E10    3.995763545390219E-4   1.363918727292912E-5  
 2.572000000000000E10   -3.730372991412878E-4  -5.408057404565625E-5  
 2.574000000000000E10    1.121665627579205E-4   2.252551785204560E-4  
 2.576000000000000E10    2.150727959815413E-4   3.170797717757523E-4  
 2.578000000000000E10   -2.928737194451969E-5  -2.965666062664241E-4  
 2.580000000000000E10   -3.899306466337293E-4  -1.918904899866902E-6  
 2.582000000000000E10    2.977018302772194E-4   3.085131756961346E-4  
 2.584000000000000E10   -9.206377580994740E-5  -1.404400391038507E-4  
 2.586000000000000E10   -3.235475160181522E-4  -3.741401596926153E-4  
 2.588000000000000E10   -8.221488678827882E-5   7.134766201488674E-4  
 2.590000000000000E10   -9.135699656326324E-6  -1.691972283879295E-4  
 2.592000000000000E10    2.575227117631584E-4  -3.349789767526090E-4  
 2.594000000000000E10   -4.745816113427281E-4  -1.023693548631854E-4  
 2.596000000000000E10   -8.130433343467303E-6   6.106053479015827E-5  
 2.598000000000000E10    2.815846237353981E-4  -5.985008101561107E-5  
 2.600000000000000E10   -2.980848948936909E-4  -2.773487067315728E-4  
 2.602000000000000E10   -4.238395777065307E-4  -5.513262294698507E-5  
 2.604000000000000E10    2.793997919070534E-5   2.133098023477942E-4  
 2.606000000000000E10    7.100095535861328E-5   6.797332753194496E-5  
 2.608000000000000E10   -1.756463461788371E-4  -3.764216671697795E-4  
 2.610000000000000E10   -7.940792784211226E-6   3.525436331983656E-4  
 2.612000000000000E10    2.120689168805257E-4   1.419865438947454E-4  
 2.614000000000000E10    2.355184697080404E-4  -1.045603930833750E-4  
 2.616000000000000E10   -6.502331962110475E-5   1.288633211515844E-4  
 2.618000000000000E10   -4.767005520989187E-6   1.287058330490254E-5  
 2.620000000000000E10    8.307246025651693E-5  -1.597758637217339E-5  
 2.622000000000000E10    3.202942389179952E-5  -9.007245535030961E-5  
 2.624000000000000E10    2.268054668093100E-4   2.465844227117486E-5  
 2.626000000000000E10    2.442474651616067E-4   1.953306764335139E-6  
 2.628000000000000E10    1.341699535259977E-4   2.576435690571088E-5  
 2.630000000000000E10   -5.571556539507583E-5  -4.474755769479089E-5  
 2.632000000000000E10    3.296139184385538E-4  -1.373077830066904E-4  
 2.634000000000000E10    2.349657734157518E-4  -1.749425719026476E-4  
 2.636000000000000E10   -1.867945829872042E-4  -4.197281959932298E-4  
 2.638000000000000E10   -7.211789488792419E-5  -5.653970947605558E-5  
 2.640000000000000E10    1.214033545693383E-4   8.332333527505398E-5  
 2.642000000000000E10    1.481215003877878E-4  -1.132348188548349E-4  
 2.644000000000000E10   -2.374150499235839E-4  -2.776448964141309E-4  
 2.646000000000000E10   -6.595786544494331E-5   1.124457921832800E-4  
 2.648000000000000E10    1.400154433213174E-4   9.318524098489434E-5  
 2.650000000000000E10    2.781361981760711E-4   6.519484304590151E-5  
 2.652000000000000E10   -2.878207887988538E-4  -1.410635159118101E-4  
 2.654000000000000E10   -3.675553598441184E-4  -7.854721479816362E-5  
 2.656000000000000E10    2.476804729667492E-5   2.421283279545605E-4  
 2.658000000000000E10   -1.623114440008067E-5  -2.900635263358709E-5  
 2.660000000000000E10    2.150594264094252E-5  -8.313813304994255E-5  
 2.662000000000000E10   -1.966780546354130E-4  -4.794005872099660E-5  
 2.664000000000000E10   -7.130784797482193E-5   2.928330213762820E-4  
 2.666000000000000E10    7.495754834963009E-5   8.131744834827259E-5  
 2.668000000000000E10    1.271146811632207E-5  -6.879601278342307E-5  
 2.670000000000000E10   -2.354038006160408E-4  -1.210050104418770E-4  
 2.672000000000000E10   -1.942095404956490E-4  -1.067011908162385E-4  
 2.674000000000000E10   -6.719036900904030E-5   1.509520225226879E-4  
 2.676000000000000E10    8.592852827860043E-5  -1.332528045168147E-4  
 2.678000000000000E10    1.113469443225768E-5  -1.864758814917877E-4  
 2.680000000000000E10   -8.389837603317574E-5  -6.406267493730411E-5  
 2.682000000000000E10    2.214960695710033E-4   1.387198281008750E-4  
 2.684000000000000E10    1.391512341797352E-4   1.866093080025166E-4  
 2.686000000000000E10    2.058537938864902E-4  -1.259930722881109E-4  
 2.688000000000000E10    4.833218190469779E-5   7.270308560691774E-5  
 2.690000000000000E10    6.322768604150042E-5   1.154528654296883E-4  
 2.692000000000000E10   -1.118260770454072E-4   1.937570341397077E-4  
 2.694000000000000E10   -1.501242513768375E-5   2.423514233669266E-4  
 2.696000000000000E10    1.822623598854989E-4   1.941767841344699E-4  
 2.698000000000000E10   -1.790203095879406E-4  -5.302090721670538E-5  
 2.700000000000000E10    2.894314457080327E-5   2.096112148137763E-4  
 2.702000000000000E10    2.317800681339577E-5   9.375325316796079E-5  
 2.704000000000000E10    8.018983498914167E-5   3.568131069187075E-5  
 2.706000000000000E10   -2.529532648622990E-4  -3.118913446087390E-5  
 2.708000000000000E10   -6.090771785238758E-5  -1.419497275492176E-4  
 2.710000000000000E10    9.603312355466187E-5   1.638603571336716E-4  
 2.712000000000000E10    2.522921386116650E-5  -1.846900886448566E-5  
 2.714000000000000E10   -5.143375528859906E-5  -2.333425509277731E-4  
 2.716000000000000E10   -4.577679646899924E-5   1.965026458492503E-4  
 2.718000000000000E10    5.178713036002591E-5  -2.217754372395575E-4  
 2.720000000000000E10    8.325670205522329E-5  -2.544963790569454E-4  
 2.722000000000000E10   -1.073683597496711E-4   1.170678515336476E-4  
 2.724000000000000E10    2.077363460557535E-4  -1.113988837460056E-4  
 2.726000000000000E10    2.900083927670494E-5  -3.288187435828149E-4  
 2.728000000000000E10   -3.913064429070801E-4   6.987643428146839E-5  
 2.730000000000000E10    4.215942681184970E-5   1.505753316450864E-4  
 2.732000000000000E10    5.501226405613124E-4  -8.648591028759256E-5  
 2.734000000000000E10   -1.124732661992312E-4  -1.403087662765756E-4  
 2.736000000000000E10   -2.339420752832666E-4  -5.042811972089112E-5  
 2.738000000000000E10    2.161930024158210E-4   4.803376505151391E-4  
 2.740000000000000E10    1.383275957778096E-5   4.314858597354032E-5  
 2.742000000000000E10   -2.005696842388716E-5  -3.214235766790807E-4  
 2.744000000000000E10   -3.640604554675520E-4   1.413596874044742E-5  
 2.746000000000000E10   -3.362851202837192E-5   1.901194045785815E-4  
 2.748000000000000E10    1.887216421891935E-5   1.271913351956755E-4  
 2.750000000000000E10    2.244697299147447E-7  -1.254350627277745E-5  
 2.752000000000000E10   -1.650206249905750E-4  -4.432195419212803E-5  
 2.754000000000000E10    3.207086119800806E-4   6.851247599115595E-5  
 2.756000000000000E10   -2.832926475093700E-5   1.035301684169099E-4  
