#  HZ   S   RI   R     50.00 
! Rohde & Schwarz ZVA40 4Ports - Version 3.90 - 1145.1110k42 SN: 100403
! Date: 2023-10-04 09:21:26
! Measurement: S12 
! 
 2.200000000000000E10   -3.473334072623402E-4  -6.774440407752991E-4  
 2.202000000000000E10   -4.963583778589964E-4   2.482487179804593E-4  
 2.204000000000000E10    2.157040289603174E-4   4.688424814958125E-4  
 2.206000000000000E10    4.851796838920564E-4  -7.467057439498603E-4  
 2.208000000000000E10   -8.587155025452375E-4  -3.005218459293246E-4  
 2.210000000000000E10   -1.368535740766674E-4   4.052268632221967E-4  
 2.212000000000000E10    7.431637495756149E-4   3.902442113030702E-4  
 2.214000000000000E10    4.203105054330081E-4  -8.066291920840740E-4  
 2.216000000000000E10   -7.180147804319859E-4  -1.071345686796121E-4  
 2.218000000000000E10   -2.541466965340078E-4   6.938736187294126E-4  
 2.220000000000000E10    5.672631668858230E-4   4.466930113267154E-5  
 2.222000000000000E10   -2.881913969758898E-4  -6.835365784354508E-4  
 2.224000000000000E10   -5.414413753896952E-4   4.516611224971712E-4  
 2.226000000000000E10    2.856941719073802E-4   2.021547988988459E-4  
 2.228000000000000E10    3.883546742144972E-4  -4.230539198033512E-4  
 2.230000000000000E10   -9.630505810491741E-4  -8.973212970886380E-5  
 2.232000000000000E10    2.358368074055761E-4   5.667392979376018E-4  
 2.234000000000000E10    6.453222013078630E-4   1.679567844803387E-7  
 2.236000000000000E10    3.631198342191055E-5  -8.346494287252426E-4  
 2.238000000000000E10   -6.325428257696331E-4   3.792874340433627E-4  
 2.240000000000000E10    4.428079992067069E-4   8.624214096926153E-4  
 2.242000000000000E10    7.806862704455853E-4  -4.042551154270768E-4  
 2.244000000000000E10   -5.323903751559556E-4  -8.951906929723918E-4  
 2.246000000000000E10   -5.567719344981015E-4   6.714892224408686E-4  
 2.248000000000000E10    4.489529819693416E-4   5.974257364869118E-4  
 2.250000000000000E10    6.937554571777582E-4  -8.279293542727828E-4  
 2.252000000000000E10   -8.378018974326551E-4  -2.517735993023962E-4  
 2.254000000000000E10   -3.446295158937573E-4   5.833837203681469E-4  
 2.256000000000000E10    7.810032111592591E-4   3.070733800996095E-4  
 2.258000000000000E10    1.319675357080996E-4  -8.791146101430059E-4  
 2.260000000000000E10   -4.727802006527782E-4  -5.184010660741478E-6  
 2.262000000000000E10    1.811662950785831E-4   7.000940386205912E-4  
 2.264000000000000E10    7.311035296879709E-4  -2.149341453332454E-4  
 2.266000000000000E10   -1.505899708718061E-4  -5.460721440613270E-4  
 2.268000000000000E10   -2.286469534737989E-4   5.229141679592431E-4  
 2.270000000000000E10    2.981167926918715E-4   4.917393671348691E-4  
 2.272000000000000E10    3.384788287803531E-4  -8.015197818167508E-4  
 2.274000000000000E10   -5.223610787652433E-4   1.540395533083938E-5  
 2.276000000000000E10   -9.681622759671882E-5   4.400935722514987E-4  
 2.278000000000000E10    8.073011995293200E-4   6.298879452515394E-5  
 2.280000000000000E10   -1.080583897419274E-4  -8.946523303166032E-4  
 2.282000000000000E10   -5.921338452026248E-4  -2.058481331914663E-4  
 2.284000000000000E10    2.640312886796892E-4   8.385257679037750E-4  
 2.286000000000000E10    7.010896806605160E-4  -4.046238609589636E-4  
 2.288000000000000E10   -8.711850969120860E-4  -5.969830090180039E-4  
 2.290000000000000E10   -5.597007111646235E-4   6.465937476605177E-4  
 2.292000000000000E10    2.991992223542184E-4   4.103111277800053E-4  
 2.294000000000000E10    4.647214664146304E-4  -6.389514310285449E-4  
 2.296000000000000E10   -7.997137727215886E-4  -9.196144674206153E-5  
 2.298000000000000E10   -4.187884042039514E-4   2.894689387176186E-4  
 2.300000000000000E10    7.909547421149910E-4   4.337875870987773E-4  
 2.302000000000000E10    6.620182102778927E-5  -5.381521186791360E-4  
 2.304000000000000E10   -5.055940710008144E-4   1.734587131068111E-4  
 2.306000000000000E10    1.398998283548281E-4   5.583544261753559E-4  
 2.308000000000000E10    3.930974053218961E-4   5.307306128088385E-5  
 2.310000000000000E10   -4.093894385732710E-4  -3.536297881510109E-4  
 2.312000000000000E10   -3.000833094120026E-4   2.303957880940288E-4  
 2.314000000000000E10    3.207913541700691E-4   2.253979764645919E-4  
 2.316000000000000E10    3.388171899132431E-4  -5.555030074901879E-4  
 2.318000000000000E10   -4.879127955064178E-4  -1.101578309317119E-4  
 2.320000000000000E10    1.050354112521745E-4   4.039897758048028E-4  
 2.322000000000000E10    3.797967801801860E-4  -1.153326156781986E-4  
 2.324000000000000E10   -3.111222176812589E-4  -4.513898165896535E-4  
 2.326000000000000E10   -2.323240769328550E-4   2.012679906329140E-4  
 2.328000000000000E10    2.489667385816574E-4   1.230300986208022E-4  
 2.330000000000000E10    2.027551090577617E-4  -3.154341538902372E-4  
 2.332000000000000E10   -3.367680183146149E-4  -3.092224651481956E-4  
 2.334000000000000E10   -5.087506724521518E-5   3.850139037240297E-4  
 2.336000000000000E10    2.556990948505700E-4   2.807868295349181E-4  
 2.338000000000000E10    1.774565316736698E-4  -5.244131316430867E-4  
 2.340000000000000E10   -1.910324644995853E-4   7.247876783367246E-5  
 2.342000000000000E10   -2.211805167462444E-6   4.583590489346534E-4  
 2.344000000000000E10    4.363043699413538E-4  -9.789064642973244E-5  
 2.346000000000000E10   -1.501892111264169E-4  -1.512996241217479E-4  
 2.348000000000000E10   -5.388685967773199E-4   3.131680132355541E-4  
 2.350000000000000E10    2.116292453138158E-4   6.166957900859416E-4  
 2.352000000000000E10    2.865852438844740E-4   2.866009526769631E-5  
 2.354000000000000E10   -4.112455353606492E-4  -8.143431477947161E-5  
 2.356000000000000E10   -6.924729677848518E-5   6.227630074135959E-4  
 2.358000000000000E10    8.045195718295872E-4   2.163467434002087E-4  
 2.360000000000000E10    1.418085157638416E-4  -4.287371702957898E-4  
 2.362000000000000E10   -3.428491472732276E-4  -1.262518781004474E-4  
 2.364000000000000E10   -6.275836767599685E-6   6.817976245656610E-4  
 2.366000000000000E10    5.695188301615417E-4  -1.164019486168400E-4  
 2.368000000000000E10    1.012039720080793E-4  -4.307306953705847E-4  
 2.370000000000000E10   -3.441486624069512E-4   1.680947607383132E-4  
 2.372000000000000E10    2.177805727114901E-4   4.724812461063266E-4  
 2.374000000000000E10    1.702163717709482E-4  -5.942266216152348E-5  
 2.376000000000000E10   -7.158837979659438E-5  -1.984056434594095E-4  
 2.378000000000000E10   -4.094828036613762E-4   2.614691329654306E-4  
 2.380000000000000E10    1.105484989238903E-5  -3.796503733610734E-5  
 2.382000000000000E10   -2.826968848239631E-4  -2.179907605750486E-4  
 2.384000000000000E10   -5.938973481534049E-5  -4.915173631161451E-4  
 2.386000000000000E10   -3.087173172389157E-5   2.288184332428500E-4  
 2.388000000000000E10   -7.653576176380739E-5  -4.229089536238462E-4  
 2.390000000000000E10   -2.215419408457819E-5  -1.759529259288684E-4  
 2.392000000000000E10   -1.160270039690659E-4   3.543291823007166E-4  
 2.394000000000000E10    2.260394976474345E-4   2.582876477390528E-4  
 2.396000000000000E10    1.091842932510190E-4  -5.053823697380722E-4  
 2.398000000000000E10   -3.096392611041665E-4   8.702438935870305E-5  
 2.400000000000000E10   -4.818500019609928E-4   2.877399674616754E-4  
 2.402000000000000E10    5.231378600001335E-4  -2.584286266937852E-4  
 2.404000000000000E10   -3.238049685023725E-4  -2.377022319706157E-4  
 2.406000000000000E10   -4.717623523902148E-4  -1.796022697817534E-4  
 2.408000000000000E10    2.586906484793872E-4   3.320607065688819E-4  
 2.410000000000000E10    2.658907033037394E-4  -2.757539041340351E-4  
 2.412000000000000E10    1.311561027250718E-5  -3.504808992147446E-4  
 2.414000000000000E10   -1.650615740800276E-4   8.559042908018455E-5  
 2.416000000000000E10    4.304019093979150E-4   3.091484541073442E-4  
 2.418000000000000E10    2.196584246121347E-4  -5.989066557958722E-4  
 2.420000000000000E10   -1.055446919053793E-4  -1.132168181356974E-4  
 2.422000000000000E10   -3.470389056019485E-4   4.601024847943336E-4  
 2.424000000000000E10    7.090985309332609E-4   2.644095957293757E-6  
 2.426000000000000E10    3.848609776468948E-5  -2.367320412304252E-4  
 2.428000000000000E10   -4.206607991363853E-4  -3.809957706835121E-4  
 2.430000000000000E10    3.106564690824598E-4   6.147006643004715E-4  
 2.432000000000000E10    4.709767817985266E-4  -2.881939326471183E-5  
 2.434000000000000E10    2.477515372447670E-4  -4.702383885160089E-4  
 2.436000000000000E10   -3.805107553489506E-4   2.103263796016108E-5  
 2.438000000000000E10    1.757175778038800E-4   1.920134236570448E-4  
 2.440000000000000E10    3.098440938629210E-4  -2.011986944125965E-4  
 2.442000000000000E10    4.614361023413949E-5  -1.325646153418347E-4  
 2.444000000000000E10   -1.318522845394909E-4  -9.153958671959117E-6  
 2.446000000000000E10    8.027364674489945E-5  -3.115511208306998E-4  
 2.448000000000000E10   -1.347377838101238E-4   3.361698327353224E-5  
 2.450000000000000E10   -1.272107911063358E-4  -4.638696555048227E-5  
 2.452000000000000E10    3.816592216026038E-4  -9.661020158091560E-5  
 2.454000000000000E10   -9.664423123467714E-5  -4.431673442013562E-4  
 2.456000000000000E10   -4.256364481989294E-4  -1.556154602440074E-4  
 2.458000000000000E10   -2.620166051201522E-4   5.853369948454201E-4  
 2.460000000000000E10    5.375652108341456E-4   1.663783041294664E-4  
 2.462000000000000E10    3.315763751743361E-5  -6.536663859151304E-4  
 2.464000000000000E10   -6.911588716320694E-4   1.327020145254210E-4  
 2.466000000000000E10   -4.437008174136281E-4   7.880065822973847E-4  
 2.468000000000000E10    7.314300746656954E-4   1.246391329914331E-4  
 2.470000000000000E10    2.869184027076699E-5  -3.616183530539274E-4  
 2.472000000000000E10   -9.027773630805314E-4  -1.566075807204470E-4  
 2.474000000000000E10    2.102362050209194E-4   6.150213885121048E-4  
 2.476000000000000E10    5.610275547951460E-4   1.081673181033693E-4  
 2.478000000000000E10    7.964885298861191E-5  -4.679282719735056E-4  
 2.480000000000000E10   -3.434321843087673E-4   3.110048419330269E-4  
 2.482000000000000E10    1.789444104360882E-5   2.648133377078921E-4  
 2.484000000000000E10    2.379127836320549E-4  -4.785332566825673E-5  
 2.486000000000000E10   -1.231577334692702E-4  -5.159663851372898E-5  
 2.488000000000000E10    3.578798496164382E-4   2.244727947982028E-4  
 2.490000000000000E10    1.576630456838757E-4  -1.159639941761270E-4  
 2.492000000000000E10   -1.361769245704636E-4   1.374834391754121E-4  
 2.494000000000000E10   -2.165745245292783E-4   4.989501903764904E-4  
 2.496000000000000E10    4.553829494398087E-4  -1.002181234071031E-4  
 2.498000000000000E10   -1.121870009228587E-4  -1.756701240083203E-4  
 2.500000000000000E10   -4.385879728943110E-4  -1.474998134654015E-4  
 2.502000000000000E10    2.691515546757728E-4   2.292110148118809E-4  
 2.504000000000000E10    4.080908547621220E-4  -4.361706669442356E-4  
 2.506000000000000E10    2.176355337724090E-4  -4.462795041035861E-4  
 2.508000000000000E10   -2.588719071354717E-4   3.012329580087680E-5  
 2.510000000000000E10    5.127062322571874E-4   1.900257921079174E-4  
 2.512000000000000E10    5.469902534969151E-4  -2.620343875605613E-4  
 2.514000000000000E10   -1.184797656605952E-4  -3.334915381856263E-4  
 2.516000000000000E10   -1.224228326464072E-4   5.418194341473281E-4  
 2.518000000000000E10    3.890914376825094E-4   2.189884398831055E-4  
 2.520000000000000E10    7.991131860762835E-5  -4.321190353948623E-4  
 2.522000000000000E10   -2.402432583039627E-4  -2.399416407570243E-4  
 2.524000000000000E10   -8.225774945458397E-5   2.589800569694489E-4  
 2.526000000000000E10    2.793501771520823E-4   2.063173815258779E-5  
 2.528000000000000E10   -9.859193960437551E-5  -5.127452895976603E-4  
 2.530000000000000E10   -3.892273816745728E-4   1.454391349398065E-5  
 2.532000000000000E10   -4.576350329443812E-5   3.204044187441468E-4  
 2.534000000000000E10    5.345958015823271E-6   4.500197610468604E-5  
 2.536000000000000E10   -1.196019584313035E-4  -3.789984621107578E-4  
 2.538000000000000E10    8.009259909158573E-5   4.397504089865834E-4  
 2.540000000000000E10    4.023977817269042E-5   3.847153493552469E-5  
 2.542000000000000E10    3.203804371878505E-4  -1.521450758446008E-4  
 2.544000000000000E10   -1.265480968868360E-4   2.327853144379333E-4  
 2.546000000000000E10    2.250438701594248E-4   2.239646273665130E-4  
 2.548000000000000E10    3.450543736107647E-4  -2.337007317692041E-4  
 2.550000000000000E10   -2.095201634801924E-4  -2.031295844062697E-5  
 2.552000000000000E10   -2.179646398872137E-4   4.205977311357856E-4  
 2.554000000000000E10    5.296178278513253E-4  -6.541118636960164E-5  
 2.556000000000000E10    2.415519848000258E-4  -1.545830455143005E-4  
 2.558000000000000E10   -2.954796655103564E-4  -3.541736223269254E-4  
 2.560000000000000E10    2.391737216385081E-4   3.288634179625660E-4  
 2.562000000000000E10    2.623528707772493E-4  -2.896995574701577E-4  
 2.564000000000000E10    1.908274862216786E-4  -4.794660781044513E-4  
 2.566000000000000E10   -1.929619029397145E-4  -1.755912671796978E-5  
 2.568000000000000E10    2.645705826580524E-4   1.204304498969577E-4  
 2.570000000000000E10    2.700851182453334E-4  -2.856572973541915E-4  
 2.572000000000000E10    1.177878875751048E-4  -2.740040654316545E-4  
 2.574000000000000E10   -3.445831534918398E-4   2.363186358707026E-4  
 2.576000000000000E10    2.606347843538970E-4  -3.165137604810298E-4  
 2.578000000000000E10   -1.837383169913665E-4  -2.116864052368328E-4  
 2.580000000000000E10   -3.940369060728699E-4  -1.546176063129678E-4  
 2.582000000000000E10    9.482761379331350E-5   4.805455973837525E-4  
 2.584000000000000E10    2.123824961017817E-4  -2.076018281513825E-4  
 2.586000000000000E10   -2.107098262058571E-4  -3.531022812239826E-4  
 2.588000000000000E10   -4.097672645002604E-4   3.478332655504346E-4  
 2.590000000000000E10    1.600581890670583E-4   4.302882589399815E-4  
 2.592000000000000E10    4.453088877198752E-6  -2.761567011475563E-4  
 2.594000000000000E10   -3.364667063578963E-4  -1.265303872060031E-4  
 2.596000000000000E10   -2.986647014040500E-4   2.337181213079020E-4  
 2.598000000000000E10    2.296342281624675E-4   5.172901637706673E-6  
 2.600000000000000E10   -2.898802677009371E-6  -2.064225845970213E-4  
 2.602000000000000E10   -2.252487320220098E-4  -9.984186908695847E-5  
 2.604000000000000E10   -5.670666359947063E-5   2.475849178154022E-4  
 2.606000000000000E10   -1.324740296695381E-4   1.734259712975472E-4  
 2.608000000000000E10   -2.632405958138406E-4   1.097321219276637E-4  
 2.610000000000000E10    2.609995135571808E-4   3.039512084797025E-4  
 2.612000000000000E10    1.456273312214762E-4   1.506957778474316E-4  
 2.614000000000000E10    5.770106508862227E-5  -2.502385759726167E-4  
 2.616000000000000E10   -2.157570852432400E-4   5.069901817478240E-5  
 2.618000000000000E10    1.453619188396260E-4   3.276048810221255E-4  
 2.620000000000000E10    2.275261795148253E-4  -2.839561420842074E-5  
 2.622000000000000E10   -1.369496167171747E-4  -3.880105214193463E-4  
 2.624000000000000E10    5.477214472193737E-6   9.144109208136797E-5  
 2.626000000000000E10    1.374451967421919E-4   2.409873413853347E-4  
 2.628000000000000E10    3.731882607098669E-4   6.423362719942816E-6  
 2.630000000000000E10    1.293340028496459E-4  -3.349322942085564E-4  
 2.632000000000000E10   -1.811696733966528E-6   4.388642992125824E-5  
 2.634000000000000E10   -5.622661046800204E-5   9.696943743620068E-5  
 2.636000000000000E10    4.226109303999692E-4  -1.810229005059227E-4  
 2.638000000000000E10   -1.712585944915190E-4  -3.908063081325963E-5  
 2.640000000000000E10   -1.131773533415981E-4  -1.939915273396764E-5  
 2.642000000000000E10   -8.055784564930946E-5   3.461848245933652E-4  
 2.644000000000000E10    1.163574779639021E-4  -2.476496229064651E-5  
 2.646000000000000E10    1.967177668120712E-4  -5.921703632338904E-5  
 2.648000000000000E10    1.524853869341314E-4  -5.598021743935533E-5  
 2.650000000000000E10   -2.137610681529623E-5   3.398687795197475E-6  
 2.652000000000000E10    4.144870399613865E-5  -1.578716037329286E-4  
 2.654000000000000E10    3.690730591188185E-5  -4.048554728797171E-6  
 2.656000000000000E10   -4.004830600479181E-7  -3.596212482079864E-4  
 2.658000000000000E10   -2.957400465675164E-5   1.052044244715944E-4  
 2.660000000000000E10   -3.496236240607686E-5   1.693153753876686E-4  
 2.662000000000000E10    2.865856513381004E-4  -3.091237449552864E-4  
 2.664000000000000E10    1.054304993886035E-5  -1.757525751600042E-4  
 2.666000000000000E10    2.901590050896630E-5   5.355336270440603E-6  
 2.668000000000000E10    6.902962195454165E-5  -8.006823918549344E-5  
 2.670000000000000E10   -1.530617300886661E-4  -2.737750182859600E-4  
 2.672000000000000E10   -1.213919022120535E-4   9.518399019725621E-5  
 2.674000000000000E10   -1.170738178188913E-4   1.240907731698826E-4  
 2.676000000000000E10   -9.537050209473819E-5  -1.483764790464193E-4  
 2.678000000000000E10    2.392802525719162E-5   1.582762779435143E-4  
 2.680000000000000E10   -6.764519639546052E-5   2.035528887063265E-4  
 2.682000000000000E10    6.811329512856901E-5  -6.952186959097162E-5  
 2.684000000000000E10    1.920603681355715E-4  -1.048689155140892E-4  
 2.686000000000000E10    7.586528954561800E-5   1.130171076511033E-4  
 2.688000000000000E10    1.583445846335962E-4  -3.038496652152389E-5  
 2.690000000000000E10    2.134155220119283E-4  -1.567839644849300E-4  
 2.692000000000000E10   -1.567037397762761E-4  -2.170097141060978E-4  
 2.694000000000000E10   -4.417607124196366E-5   3.219243444618769E-5  
 2.696000000000000E10   -6.544512871187180E-5   2.144268510164693E-4  
 2.698000000000000E10   -6.412713992176577E-5  -2.029941824730486E-4  
 2.700000000000000E10   -4.323526809457690E-5   5.059606337454170E-5  
 2.702000000000000E10   -1.842234923969954E-4   1.382020127493888E-4  
 2.704000000000000E10    1.698427804512903E-4  -1.710330107016489E-4  
 2.706000000000000E10    6.678514910163358E-5  -3.392071812413633E-4  
 2.708000000000000E10   -1.045081735355780E-4  -1.538536525913514E-5  
 2.710000000000000E10   -2.032302290899679E-5   1.116687271860428E-4  
 2.712000000000000E10    2.359798818361014E-4  -1.446960368411965E-6  
 2.714000000000000E10    7.913164881756529E-5   6.849103374406695E-5  
 2.716000000000000E10    7.808703230693936E-5  -1.534210459794849E-4  
 2.718000000000000E10    1.666423486312851E-4   2.229332894785330E-4  
 2.720000000000000E10    4.760888623422943E-5  -2.019973908318207E-4  
 2.722000000000000E10   -3.427961200941354E-5  -1.439212792320177E-4  
 2.724000000000000E10   -1.740868465276435E-4   1.132325705839321E-4  
 2.726000000000000E10    1.097208587452769E-4  -2.605604095151648E-5  
 2.728000000000000E10   -4.213183729007142E-6  -1.098799039027654E-4  
 2.730000000000000E10   -1.473398733651266E-4   9.523794869892299E-5  
 2.732000000000000E10   -4.607266600942239E-5  -3.038500290131196E-5  
 2.734000000000000E10    2.656495198607445E-4  -3.335094515932724E-5  
 2.736000000000000E10   -5.492574928211980E-5   1.080217480193824E-4  
 2.738000000000000E10   -2.038492821156979E-4  -3.031624946743250E-4  
 2.740000000000000E10    1.428720279363915E-4   2.648040244821459E-4  
 2.742000000000000E10    1.101974557968788E-4  -1.513524912297726E-4  
 2.744000000000000E10    1.180819745059125E-4  -2.366658591199666E-4  
 2.746000000000000E10   -1.003201614366844E-4   1.741136220516637E-4  
 2.748000000000000E10    8.069894829532132E-5  -1.080428482964635E-4  
 2.750000000000000E10    1.163333799922839E-4   1.293714594794437E-4  
 2.752000000000000E10   -7.258662662934512E-6   9.008336928673089E-5  
 2.754000000000000E10    2.195809211116284E-4   9.979122114600614E-5  
 2.756000000000000E10    7.880172051955015E-5  -1.357588043902069E-4  
