#  HZ   S   RI   R     50.00 
! Rohde & Schwarz ZVA40 4Ports - Version 3.90 - 1145.1110k42 SN: 100403
! Date: 2023-10-04 09:21:11
! Measurement: S12 
! 
 2.200000000000000E10   -6.232099985936657E-5  -4.196664667688310E-4  
 2.202000000000000E10   -5.471008480526507E-4   2.800672373268753E-4  
 2.204000000000000E10    3.395733947400004E-4   3.941853647120297E-4  
 2.206000000000000E10    5.545738385990262E-4  -4.571201570797712E-4  
 2.208000000000000E10   -4.749451763927937E-4  -3.849178319796920E-4  
 2.210000000000000E10   -2.304780791746453E-4   4.284183087293059E-4  
 2.212000000000000E10    4.503511008806527E-4   3.920217859558761E-4  
 2.214000000000000E10    2.895220823120326E-4  -5.535043892450631E-4  
 2.216000000000000E10   -3.992385463789105E-4  -1.172344855149277E-4  
 2.218000000000000E10    9.838156529440312E-7   6.303009577095509E-4  
 2.220000000000000E10    2.684968349058181E-4   2.201923780376092E-4  
 2.222000000000000E10    1.667434553382918E-4  -4.378852609079331E-4  
 2.224000000000000E10   -5.894213682040572E-4   1.431144919479266E-4  
 2.226000000000000E10   -1.482263032812625E-4   4.427530511748046E-4  
 2.228000000000000E10    1.354695414192975E-4  -1.873400324257091E-4  
 2.230000000000000E10   -4.523595562204719E-4  -2.491293125785887E-4  
 2.232000000000000E10   -2.157731796614826E-4   3.066043718717992E-4  
 2.234000000000000E10    3.433368692640215E-4   1.184316715807654E-4  
 2.236000000000000E10    1.270285283681005E-4  -3.087210934609175E-4  
 2.238000000000000E10   -2.523567236494273E-4  -5.978161425446160E-5  
 2.240000000000000E10    9.225337271345779E-5   8.017142536118627E-4  
 2.242000000000000E10    3.859561984427273E-4  -5.441246321424842E-5  
 2.244000000000000E10   -1.669230405241251E-4  -3.596181632019579E-4  
 2.246000000000000E10   -6.535627762787044E-4   5.047803861089051E-4  
 2.248000000000000E10    4.776729037985206E-4   5.019084201194346E-4  
 2.250000000000000E10    5.646584322676063E-4  -3.462073800619692E-4  
 2.252000000000000E10   -6.035976693965495E-4  -4.996942006982863E-4  
 2.254000000000000E10   -2.915557124651969E-4   5.573129747062922E-4  
 2.256000000000000E10    5.949924234300852E-4   1.402495545335114E-4  
 2.258000000000000E10    3.889960062224418E-4  -5.234562559053302E-4  
 2.260000000000000E10   -6.082953186705709E-4  -1.743600441841409E-4  
 2.262000000000000E10    5.564281309489161E-5   2.399583609076217E-4  
 2.264000000000000E10    4.938807687722147E-4  -6.242831295821816E-5  
 2.266000000000000E10   -1.146346476161853E-4  -3.665513067971915E-4  
 2.268000000000000E10   -2.118827542290092E-4   2.657331351656467E-4  
 2.270000000000000E10    4.580236854963005E-4   1.842916244640946E-4  
 2.272000000000000E10    7.060865027597174E-5  -2.534564409870654E-4  
 2.274000000000000E10   -5.500264815054834E-4  -4.199923205305822E-5  
 2.276000000000000E10   -1.013060900731944E-4   7.750702789053321E-4  
 2.278000000000000E10    5.709950346499682E-4  -2.103419101331383E-4  
 2.280000000000000E10   -1.326376514043659E-4  -3.939000016544014E-4  
 2.282000000000000E10   -6.938237929716706E-4  -4.265454481355846E-4  
 2.284000000000000E10    3.827611217275262E-4   6.494394619949162E-4  
 2.286000000000000E10    4.799218149855733E-4  -5.440700988401659E-5  
 2.288000000000000E10   -2.061790000880137E-4  -7.004544604569674E-4  
 2.290000000000000E10   -6.762060802429915E-4   5.159841966815293E-4  
 2.292000000000000E10    3.046562196686864E-4   5.549682537093759E-4  
 2.294000000000000E10    3.470696392469108E-4  -5.371149745769799E-4  
 2.296000000000000E10   -5.077564856037498E-4  -5.833406466990709E-4  
 2.298000000000000E10   -4.762929747812450E-4   4.196670779492706E-4  
 2.300000000000000E10    4.961506347171962E-4   1.534663606435061E-4  
 2.302000000000000E10    1.789249945431948E-4  -2.902575943153352E-4  
 2.304000000000000E10   -3.131011908408254E-4  -1.393113634549081E-4  
 2.306000000000000E10    3.630487190093845E-4   5.329595878720284E-4  
 2.308000000000000E10    9.031729132402688E-5  -5.202543252380565E-5  
 2.310000000000000E10   -1.010030027828179E-4  -1.485941029386595E-4  
 2.312000000000000E10   -7.155995990615338E-5   3.625001700129360E-4  
 2.314000000000000E10    4.042079090140760E-4   1.167224013443047E-6  
 2.316000000000000E10   -3.606792233767919E-7  -4.861941852141172E-4  
 2.318000000000000E10   -1.971335004782304E-4  -9.774326463229954E-5  
 2.320000000000000E10   -7.185485446825624E-5   4.525643307715654E-4  
 2.322000000000000E10    3.105814976152033E-4  -2.979932469315827E-4  
 2.324000000000000E10   -2.473094791639596E-4  -2.691179397515953E-4  
 2.326000000000000E10   -7.209921604953706E-4   5.111180362291634E-4  
 2.328000000000000E10    3.366733144503087E-4   5.368095589801669E-4  
 2.330000000000000E10    2.466414589434862E-4  -1.232174545293674E-4  
 2.332000000000000E10   -4.783257318194956E-4  -3.183309454470873E-4  
 2.334000000000000E10   -2.177829883294180E-4   2.754528541117907E-4  
 2.336000000000000E10    3.102589107584208E-4   2.770950377453119E-4  
 2.338000000000000E10    3.900548326782882E-4  -5.730193806812167E-4  
 2.340000000000000E10   -4.387823864817619E-4  -1.600325631443411E-4  
 2.342000000000000E10   -1.327694189967588E-5   5.199834122322500E-4  
 2.344000000000000E10    5.916160298511386E-4  -7.296271178347524E-6  
 2.346000000000000E10    4.214356886222959E-5  -2.085808082483709E-4  
 2.348000000000000E10   -4.585075948853046E-4   1.963754184544087E-4  
 2.350000000000000E10    9.657188638811931E-5   3.198379126843065E-4  
 2.352000000000000E10    3.006060724146664E-4   7.330085645662621E-5  
 2.354000000000000E10   -4.597631923388690E-4  -3.135364095214754E-4  
 2.356000000000000E10   -6.044471228960902E-5   1.607161539141089E-4  
 2.358000000000000E10    7.525044202338904E-5   2.033788478001952E-4  
 2.360000000000000E10    8.073846402112395E-5  -3.747026203200221E-4  
 2.362000000000000E10   -3.274903428973630E-5   6.859244604129344E-5  
 2.364000000000000E10   -6.506522186100483E-5   8.038819214561954E-5  
 2.366000000000000E10    1.385094656143338E-4   1.289074862143025E-4  
 2.368000000000000E10    2.734986446739640E-5  -6.498415314126760E-5  
 2.370000000000000E10   -1.023728837026283E-4   5.192442404222675E-5  
 2.372000000000000E10   -1.544037331768777E-5   1.793897972675040E-4  
 2.374000000000000E10    1.130541204474866E-4  -1.391779187542852E-5  
 2.376000000000000E10   -3.156982711516321E-4  -2.460112154949457E-4  
 2.378000000000000E10   -2.778256603050977E-4  -8.786387297732290E-6  
 2.380000000000000E10   -2.214409505540971E-6  -8.630361662653741E-6  
 2.382000000000000E10   -1.023786026053131E-4  -3.961665497627109E-4  
 2.384000000000000E10   -4.953216994181275E-4  -3.675965490401723E-5  
 2.386000000000000E10   -1.655914238654077E-4   1.818665332393721E-4  
 2.388000000000000E10    4.416962474351749E-5   1.788580993888900E-4  
 2.390000000000000E10   -2.990088541992009E-4  -4.076306067872793E-4  
 2.392000000000000E10   -4.612616903614253E-4   4.721707664430141E-4  
 2.394000000000000E10    1.368928496958688E-4   3.599604533519596E-4  
 2.396000000000000E10    2.555605024099350E-4  -2.231049584224820E-4  
 2.398000000000000E10   -8.671603864058852E-4   5.851564492331818E-5  
 2.400000000000000E10    4.879013795289211E-5   5.503622815012932E-4  
 2.402000000000000E10    3.428005438763648E-4   3.407166223041713E-4  
 2.404000000000000E10    3.456625199760310E-5  -7.076548645272851E-4  
 2.406000000000000E10   -8.036141516640782E-4   2.211847604485229E-4  
 2.408000000000000E10    2.394382318016142E-4   4.171338223386556E-4  
 2.410000000000000E10    5.359219503588975E-4   6.445255712606013E-5  
 2.412000000000000E10   -9.828805923461914E-5  -6.751322071067989E-4  
 2.414000000000000E10   -1.714993122732267E-4   1.734011311782524E-4  
 2.416000000000000E10   -8.830129081616178E-5   5.337938782759011E-4  
 2.418000000000000E10    6.091265822760761E-4  -1.352521794615313E-4  
 2.420000000000000E10   -1.547293504700065E-4   9.213821613229811E-5  
 2.422000000000000E10   -3.347407327964902E-4   2.210810926044360E-4  
 2.424000000000000E10    6.626476078963606E-7   4.700019198935479E-4  
 2.426000000000000E10    3.119913744740188E-4   1.287417835555971E-4  
 2.428000000000000E10    1.124447953770869E-4  -3.585986974030675E-8  
 2.430000000000000E10    9.402925206813961E-5  -7.340248703258112E-5  
 2.432000000000000E10    1.911781146191061E-4   1.046085071720881E-5  
 2.434000000000000E10   -1.142153341788799E-4  -8.856179192662239E-5  
 2.436000000000000E10    5.182408494874835E-4   1.261533616343513E-4  
 2.438000000000000E10    1.178503880510107E-4   3.710492455866188E-5  
 2.440000000000000E10    4.829973113373853E-5  -5.890487809665501E-4  
 2.442000000000000E10   -2.855760103557259E-4   3.461531305219978E-4  
 2.444000000000000E10   -1.590211031725630E-4   3.193013544660062E-4  
 2.446000000000000E10    3.484988992568106E-4  -2.986907784361392E-4  
 2.448000000000000E10   -3.378820547368377E-4  -4.078823258168995E-4  
 2.450000000000000E10   -5.761875654570758E-4   2.128391133737750E-5  
 2.452000000000000E10    1.759251608746126E-5   4.336786805652082E-4  
 2.454000000000000E10    3.507057263050228E-4  -1.683030859567225E-4  
 2.456000000000000E10   -4.002426285296679E-4  -3.612387226894498E-4  
 2.458000000000000E10   -3.582691424526274E-4   1.086066113202833E-4  
 2.460000000000000E10   -3.965636278735474E-5   5.174905527383089E-4  
 2.462000000000000E10    1.569678861415014E-4  -3.165287780575454E-4  
 2.464000000000000E10   -2.023143315454945E-4   2.532404905650765E-4  
 2.466000000000000E10   -3.611122374422848E-4   5.814767791889608E-4  
 2.468000000000000E10    5.817428464069963E-4   2.620379964355379E-4  
 2.470000000000000E10   -1.271176879527047E-4  -8.797111513558775E-5  
 2.472000000000000E10   -3.901431045960635E-4   2.536093525122851E-4  
 2.474000000000000E10   -4.175113645032980E-5   7.199156680144370E-4  
 2.476000000000000E10    1.756653218762949E-4   5.263246566755697E-5  
 2.478000000000000E10   -3.339009999763221E-4   7.609133172081783E-5  
 2.480000000000000E10   -2.086185559164733E-4   3.430781944189221E-4  
 2.482000000000000E10    9.146183583652601E-5   3.763237327802926E-4  
 2.484000000000000E10    3.947817822336219E-5  -2.587991475593299E-4  
 2.486000000000000E10    1.092409729608335E-4   1.779808080755174E-4  
 2.488000000000000E10    9.023670281749219E-5   4.247874676366337E-5  
 2.490000000000000E10   -9.997774759540334E-5   1.210847913171165E-4  
 2.492000000000000E10    7.258437108248472E-5   2.773368905764073E-4  
 2.494000000000000E10    3.387862816452980E-4   2.649262605700642E-4  
 2.496000000000000E10    4.122899845242500E-4  -1.971733436221257E-4  
 2.498000000000000E10   -2.862240071408451E-4  -3.807133471127600E-4  
 2.500000000000000E10   -1.067614648491144E-4   2.691630797926337E-4  
 2.502000000000000E10    6.488053477369249E-4   4.411348782014102E-4  
 2.504000000000000E10    3.602106880862266E-4  -3.464816254563630E-4  
 2.506000000000000E10   -3.271411114837974E-4  -3.104295756202191E-4  
 2.508000000000000E10   -3.625812532845885E-4   1.276744587812573E-4  
 2.510000000000000E10    1.521870290162042E-4   3.261625242885202E-4  
 2.512000000000000E10    5.239995662122965E-4  -5.008158623240888E-4  
 2.514000000000000E10   -2.403982362011448E-4  -3.260799567215145E-4  
 2.516000000000000E10   -5.066852900199592E-4   9.747962758410722E-5  
 2.518000000000000E10    2.825401898007840E-4   4.327000933699310E-4  
 2.520000000000000E10    1.295682741329074E-4  -2.008615847444162E-4  
 2.522000000000000E10   -5.842393147759140E-5  -3.085296193603426E-4  
 2.524000000000000E10   -3.959608438890427E-4   2.983226440846920E-4  
 2.526000000000000E10    7.125595584511757E-5   3.202804946340621E-4  
 2.528000000000000E10   -8.443663682555780E-5   1.203190549858846E-4  
 2.530000000000000E10   -1.637283858144656E-4  -5.321893331711181E-5  
 2.532000000000000E10   -2.271322446176782E-4   2.779032220132649E-4  
 2.534000000000000E10   -7.335382542805746E-5  -4.379972233437002E-5  
 2.536000000000000E10   -1.244285522261635E-4   2.564337046351284E-4  
 2.538000000000000E10    1.016060050460510E-4   7.243184518301860E-5  
 2.540000000000000E10    1.732041710056365E-4  -4.719179560197517E-5  
 2.542000000000000E10   -3.933200787287206E-4  -2.319416380487382E-4  
 2.544000000000000E10    1.771486568031833E-4   4.804710333701223E-4  
 2.546000000000000E10    4.398486271384172E-5   9.860627324087545E-5  
 2.548000000000000E10    3.585187369026244E-4  -3.564645885489881E-4  
 2.550000000000000E10   -3.435356775298715E-4  -1.917549816425890E-4  
 2.552000000000000E10    2.892278098443057E-5   2.364838437642902E-4  
 2.554000000000000E10    2.855474594980478E-4   2.289499389007688E-4  
 2.556000000000000E10    2.410665183560923E-4  -6.675061304122210E-4  
 2.558000000000000E10   -1.368185185128823E-4   9.502995817456394E-5  
 2.560000000000000E10   -4.123371400055476E-5   2.815379411913455E-4  
 2.562000000000000E10    4.950886941514909E-4  -2.122311161656398E-5  
 2.564000000000000E10    1.895578748190019E-6  -5.240963073447347E-4  
 2.566000000000000E10   -3.512963594403118E-4   2.012651530094445E-4  
 2.568000000000000E10   -4.634257038560463E-6   3.102120535913855E-4  
 2.570000000000000E10    2.734350855462253E-4  -1.742450112942606E-4  
 2.572000000000000E10   -3.344292344991118E-4  -1.942674280144274E-4  
 2.574000000000000E10   -8.156701369443908E-5   9.385540033690631E-5  
 2.576000000000000E10    1.579932577442378E-4   1.158050072262995E-4  
 2.578000000000000E10   -4.406233711051755E-5  -2.802866802085191E-4  
 2.580000000000000E10   -2.762665972113609E-4  -9.206427057506517E-5  
 2.582000000000000E10    7.159681990742683E-5   2.139172574970871E-4  
 2.584000000000000E10   -7.239802926051198E-6  -1.054881868185476E-4  
 2.586000000000000E10   -2.696889896469656E-5  -1.509041321696714E-4  
 2.588000000000000E10   -5.329617124516517E-5   2.913378411903977E-4  
 2.590000000000000E10    2.023156184804975E-6   1.781283062882721E-4  
 2.592000000000000E10   -3.534722736731055E-7  -9.406204480910674E-5  
 2.594000000000000E10   -3.012959496118128E-4   1.396206207573414E-4  
 2.596000000000000E10   -1.028065817081370E-4   3.325229627080262E-4  
 2.598000000000000E10    3.279178054071963E-4   1.375657739117742E-4  
 2.600000000000000E10   -1.396278239553794E-4  -3.310495230834931E-4  
 2.602000000000000E10   -2.637162688188255E-4   1.448916009394452E-4  
 2.604000000000000E10    2.125011669704691E-4   3.807157336268574E-4  
 2.606000000000000E10    9.081799362320453E-5  -1.688657939666882E-4  
 2.608000000000000E10   -3.309183230157942E-4  -9.566419612383470E-5  
 2.610000000000000E10   -9.793517529033124E-5   3.293706395197660E-4  
 2.612000000000000E10    3.555346047505736E-4   2.246842195745558E-4  
 2.614000000000000E10   -2.028668131970335E-5  -3.454838588368148E-4  
 2.616000000000000E10   -4.801111208507791E-5  -4.017009632661939E-5  
 2.618000000000000E10   -8.106121094897389E-5   6.289537122938782E-5  
 2.620000000000000E10    4.135604249313474E-4   5.944664735579863E-5  
 2.622000000000000E10   -2.105434687109664E-4  -2.109555498464033E-4  
 2.624000000000000E10   -1.704555143078324E-5   7.694779924349859E-5  
 2.626000000000000E10    2.694606082513928E-4   3.613731241784990E-4  
 2.628000000000000E10    2.854037738870829E-4  -2.233410632470623E-4  
 2.630000000000000E10   -1.959564979188144E-4  -1.515754120191559E-4  
 2.632000000000000E10    4.524209725786932E-5   2.256181323900819E-4  
 2.634000000000000E10    1.979531225515530E-4   2.487474703229964E-4  
 2.636000000000000E10    2.184923796448857E-4  -3.497888392303139E-4  
 2.638000000000000E10   -1.557971845613793E-4   8.026510477066040E-5  
 2.640000000000000E10   -2.396304771536961E-4   4.115190677111968E-5  
 2.642000000000000E10    5.037572118453682E-4  -2.711285844725353E-7  
 2.644000000000000E10    6.487061909865588E-5  -1.344173797406256E-4  
 2.646000000000000E10   -2.437278271827381E-5  -1.435325393686071E-4  
 2.648000000000000E10    2.541666617617011E-4  -2.811046442730003E-6  
 2.650000000000000E10   -3.248752182116732E-5   3.074258347623982E-5  
 2.652000000000000E10   -8.547848119633272E-5   1.084242103388533E-4  
 2.654000000000000E10    1.403259375365451E-4   2.387942731729709E-5  
 2.656000000000000E10   -2.476450463291258E-4  -2.082267310470343E-4  
 2.658000000000000E10   -3.093153063673526E-4  -1.446691458113492E-4  
 2.660000000000000E10   -1.473650772823021E-4   3.595708403736353E-4  
 2.662000000000000E10    7.404093776131049E-5   3.208168345736340E-5  
 2.664000000000000E10   -6.666289209533716E-6  -2.270068507641554E-4  
 2.666000000000000E10   -1.569114683661610E-4   1.319349121331470E-5  
 2.668000000000000E10   -1.890697785711382E-5   1.466121757403016E-4  
 2.670000000000000E10    5.066981975687668E-5   5.967285324004479E-5  
 2.672000000000000E10    1.255909137398703E-5  -4.089255526196212E-5  
 2.674000000000000E10   -1.605423603905365E-4   1.049662096193060E-4  
 2.676000000000000E10   -2.872614422813058E-4   1.460209459764883E-4  
 2.678000000000000E10    1.031658248393796E-4   1.937402266776189E-4  
 2.680000000000000E10    2.196669665863738E-4  -1.346883072983474E-5  
 2.682000000000000E10    2.301743661519140E-4  -7.178196392487735E-5  
 2.684000000000000E10    2.598030732769985E-5  -3.257206117268652E-6  
 2.686000000000000E10   -1.407047675456852E-4  -9.008898632600904E-5  
 2.688000000000000E10    7.943059608805925E-5   1.891858119051904E-4  
 2.690000000000000E10    1.389926619594917E-4  -5.620101364911534E-5  
 2.692000000000000E10   -8.799565694062039E-5  -4.007095121778548E-4  
 2.694000000000000E10   -3.168119001202285E-4   1.394683786202222E-4  
 2.696000000000000E10    8.975948003353551E-5   3.221624938305467E-4  
 2.698000000000000E10    2.297354512847960E-4  -9.030814544530585E-5  
 2.700000000000000E10    1.746517809806392E-4  -2.314024022780359E-4  
 2.702000000000000E10   -2.156124246539548E-4   1.354874548269436E-4  
 2.704000000000000E10    1.438886556570651E-5   1.403726782882586E-4  
 2.706000000000000E10    3.704795090015978E-4  -1.905956196424086E-5  
 2.708000000000000E10   -1.760318991728127E-4  -3.500492603052408E-4  
 2.710000000000000E10   -2.143908059224486E-4  -3.711681711138226E-5  
 2.712000000000000E10   -3.360721166245639E-5   2.787369012366980E-4  
 2.714000000000000E10    4.506334516918287E-5   4.103047103853896E-5  
 2.716000000000000E10   -5.756452810601331E-5   1.467918482376263E-4  
 2.718000000000000E10    6.885521725052968E-5  -6.831796781625599E-5  
 2.720000000000000E10    1.901983159768861E-5   4.440677003003657E-5  
 2.722000000000000E10    5.539064659387805E-6  -8.732725109439343E-5  
 2.724000000000000E10    5.369570862967521E-5   3.151781857013702E-5  
 2.726000000000000E10    1.258370612049475E-4  -8.115379023365676E-5  
 2.728000000000000E10    6.344998837448657E-5  -1.665792660787702E-4  
 2.730000000000000E10   -1.139397645602003E-4   1.146904833149165E-4  
 2.732000000000000E10    1.965761766768992E-4   1.154139044956537E-5  
 2.734000000000000E10    2.487630408722907E-4   1.917978224810213E-4  
 2.736000000000000E10   -9.184241935145110E-5  -1.476295001339167E-4  
 2.738000000000000E10   -2.726807178987656E-5  -7.647263555554673E-5  
 2.740000000000000E10   -6.145133374957368E-5   2.851985918823630E-4  
 2.742000000000000E10    1.442591164959595E-4   3.158886829623953E-5  
 2.744000000000000E10    7.469681440852583E-5  -2.635011333040893E-4  
 2.746000000000000E10   -1.026058453135192E-4   4.863807043875568E-5  
 2.748000000000000E10    5.116272222949192E-5   1.959068758878857E-4  
 2.750000000000000E10    3.416319959796965E-4  -9.979205060517415E-5  
 2.752000000000000E10    1.476831585023319E-5   1.048299163812771E-4  
 2.754000000000000E10    3.510376336635090E-5  -6.535358352266485E-6  
 2.756000000000000E10    4.171685432083905E-4   1.431145064998418E-4  
