#  HZ   S   RI   R     50.00 
! Rohde & Schwarz ZVA40 4Ports - Version 3.90 - 1145.1110k42 SN: 100403
! Date: 2023-10-04 09:20:48
! Measurement: S12 
! 
 2.200000000000000E10   -3.397579712327570E-4  -2.952890936285257E-4  
 2.202000000000000E10   -2.037688391283155E-4  -2.791202678054106E-5  
 2.204000000000000E10    5.558269185712561E-5   1.924960524775088E-4  
 2.206000000000000E10    1.892861764645204E-4  -2.752630971372128E-4  
 2.208000000000000E10   -2.647956425789744E-4  -3.103342023678124E-4  
 2.210000000000000E10   -1.682132715359330E-4   1.456474565202370E-4  
 2.212000000000000E10    9.505183697910979E-5   4.326076305005699E-4  
 2.214000000000000E10    1.772237446857616E-4  -4.181401163805276E-4  
 2.216000000000000E10   -2.982547448482364E-4   2.626159111969173E-4  
 2.218000000000000E10   -1.325358025496826E-4   4.376595898065716E-4  
 2.220000000000000E10    4.298911371733993E-4  -1.522041020507459E-5  
 2.222000000000000E10   -1.227203210873995E-5  -3.457839484326541E-4  
 2.224000000000000E10   -5.949953920207918E-4   1.418320607626811E-4  
 2.226000000000000E10    6.508528167614713E-5   3.042882017325610E-4  
 2.228000000000000E10    4.404029168654233E-4  -2.606979396659881E-4  
 2.230000000000000E10   -3.996275481767952E-4  -3.547357046045363E-4  
 2.232000000000000E10   -3.816468815784901E-4   3.356321540195495E-4  
 2.234000000000000E10    4.516454937402159E-4   2.921894483733922E-4  
 2.236000000000000E10    6.662346277153119E-5  -4.007987445220351E-4  
 2.238000000000000E10   -4.086769476998597E-4  -2.467321173753589E-4  
 2.240000000000000E10   -1.432170392945409E-4   5.324012017808855E-4  
 2.242000000000000E10    1.953876344487071E-4   2.897613449022174E-4  
 2.244000000000000E10   -1.898883783724159E-5  -2.553598314989358E-4  
 2.246000000000000E10   -2.463633718434721E-4   1.069134814315476E-4  
 2.248000000000000E10   -1.037631882354617E-4   3.872349916491658E-4  
 2.250000000000000E10    2.159607975045219E-4   7.435607585648540E-6  
 2.252000000000000E10    6.800300616305322E-5  -3.169336123391986E-4  
 2.254000000000000E10   -3.324998542666435E-4   5.091752609587275E-5  
 2.256000000000000E10    4.205133591312915E-4   1.655304367886856E-4  
 2.258000000000000E10    1.549308508401737E-4  -2.707487437874079E-4  
 2.260000000000000E10   -2.538977714721113E-4  -1.154549026978202E-4  
 2.262000000000000E10    1.831299596233293E-4   5.839149234816432E-4  
 2.264000000000000E10    4.854127182625234E-4  -3.237940518374671E-6  
 2.266000000000000E10   -2.874874917324632E-4  -3.455892147030681E-4  
 2.268000000000000E10   -4.963945248164237E-4   3.605562960729003E-4  
 2.270000000000000E10    2.505896554794163E-4   6.696788477711380E-4  
 2.272000000000000E10    2.635871933307499E-4  -3.319667303003371E-4  
 2.274000000000000E10   -2.550922799855471E-4  -2.036480727838352E-4  
 2.276000000000000E10   -3.804819716606289E-4   3.826566971838474E-4  
 2.278000000000000E10    7.982788956724107E-4   2.344843233004212E-4  
 2.280000000000000E10    7.362109317909926E-5  -3.405815223231912E-4  
 2.282000000000000E10   -2.414596674498171E-4  -2.733409346546978E-4  
 2.284000000000000E10    1.344258907920448E-5   4.880188789684326E-4  
 2.286000000000000E10    3.465640766080469E-4  -3.504674532450736E-5  
 2.288000000000000E10   -5.781328654848039E-4  -6.149889668449760E-5  
 2.290000000000000E10   -1.785903150448576E-4   1.308589125983417E-4  
 2.292000000000000E10    2.087727480102330E-4   1.437047612853348E-4  
 2.294000000000000E10    6.144220969872549E-5  -7.527092238888145E-4  
 2.296000000000000E10   -1.343326584901661E-4  -8.261011680588126E-5  
 2.298000000000000E10   -1.263160520466045E-4   6.027243944117799E-5  
 2.300000000000000E10    5.430844030342996E-4  -2.219252201030031E-4  
 2.302000000000000E10   -4.463976656552404E-4  -3.499092126730830E-4  
 2.304000000000000E10   -3.402870788704604E-4   2.409690059721470E-4  
 2.306000000000000E10    2.893090277211741E-5   4.488222766667604E-4  
 2.308000000000000E10    3.402015718165785E-4  -3.097450826317072E-4  
 2.310000000000000E10   -5.147411720827222E-4  -4.889342817477882E-4  
 2.312000000000000E10   -6.017153500579298E-4   3.976954030804336E-5  
 2.314000000000000E10    4.493333399295807E-4   6.268211873248220E-4  
 2.316000000000000E10    3.657758061308414E-4  -5.467092851176858E-4  
 2.318000000000000E10   -2.826379786711186E-4  -4.231859929859638E-4  
 2.320000000000000E10   -3.887443162966520E-4   5.436281207948923E-4  
 2.322000000000000E10    6.064138724468648E-4   1.281114673474804E-4  
 2.324000000000000E10    8.368300768779591E-5  -4.135689232498407E-4  
 2.326000000000000E10   -5.692114355042577E-4   2.136215916834772E-4  
 2.328000000000000E10    3.154297519358806E-5   1.404734939569607E-4  
 2.330000000000000E10    1.732964592520148E-4   6.624012894462794E-5  
 2.332000000000000E10   -1.723405730444938E-4  -2.918820973718539E-5  
 2.334000000000000E10    6.188105908222497E-5   2.180051233153790E-4  
 2.336000000000000E10    3.009592473972589E-4   2.721215423662216E-4  
 2.338000000000000E10    2.241040783701465E-4  -1.212392671732232E-4  
 2.340000000000000E10   -2.364538813708350E-4   6.518499867524952E-5  
 2.342000000000000E10    2.049118338618428E-4   3.904349287040532E-4  
 2.344000000000000E10    9.119354945141822E-5  -1.408064563293010E-4  
 2.346000000000000E10    1.754384138621390E-4  -1.452819269616157E-4  
 2.348000000000000E10   -4.592828336171806E-4   8.097128011286259E-5  
 2.350000000000000E10    1.215830779983662E-4   1.522764359833673E-4  
 2.352000000000000E10   -5.201200110604987E-6   2.131278451997787E-4  
 2.354000000000000E10   -1.799714664230123E-4  -2.029477764153853E-4  
 2.356000000000000E10   -1.575985370436683E-4   6.314917118288577E-5  
 2.358000000000000E10    3.754422505153343E-5   1.527258791611530E-5  
 2.360000000000000E10    1.048160047503188E-4  -1.824268110794947E-4  
 2.362000000000000E10   -1.319713774137199E-4  -1.614680804777890E-4  
 2.364000000000000E10    7.441661000484601E-5   1.386522344546393E-4  
 2.366000000000000E10    2.558206615503877E-4  -3.157285755150951E-5  
 2.368000000000000E10    2.826088748406619E-4  -7.408810051856563E-5  
 2.370000000000000E10   -3.375467204023153E-4   2.085438791255001E-5  
 2.372000000000000E10    4.333578981459141E-4   3.252976166550070E-4  
 2.374000000000000E10    3.419008571654558E-4  -1.619779795873910E-4  
 2.376000000000000E10   -3.083005140069872E-4  -4.223125288262963E-4  
 2.378000000000000E10   -4.780728486366570E-4   1.848237734520808E-4  
 2.380000000000000E10    3.555443545337766E-4   1.764524495229125E-4  
 2.382000000000000E10    2.053818316198885E-4  -1.628025929676369E-4  
 2.384000000000000E10   -1.043486845446751E-4  -6.514459964819253E-4  
 2.386000000000000E10   -3.677307686302811E-4   3.824484592769295E-4  
 2.388000000000000E10    3.208864363841713E-4  -1.258366391994059E-4  
 2.390000000000000E10    3.049689985346049E-4  -1.709047355689108E-4  
 2.392000000000000E10   -7.091612787917256E-4  -2.314057201147080E-4  
 2.394000000000000E10   -3.771716001210734E-5   4.053429584018886E-4  
 2.396000000000000E10    9.256011981051415E-5   1.412417477695271E-4  
 2.398000000000000E10   -4.055041790707037E-5  -1.991440658457577E-4  
 2.400000000000000E10   -6.041442393325269E-4   1.436572783859447E-4  
 2.402000000000000E10    5.384870746638626E-5   1.584930869285017E-4  
 2.404000000000000E10    8.460670505883172E-5   1.080764923244715E-4  
 2.406000000000000E10   -2.760932547971606E-4   1.369925448670983E-4  
 2.408000000000000E10    1.451704738428816E-4   3.818530531134456E-4  
 2.410000000000000E10    2.405016311968211E-5   1.312195763603086E-6  
 2.412000000000000E10   -6.446259794756770E-5  -4.381847247714177E-5  
 2.414000000000000E10   -5.976664033369161E-5   4.183179116807878E-4  
 2.416000000000000E10    2.549896016716957E-4   1.315150002483279E-4  
 2.418000000000000E10    4.353356052888557E-5  -1.046199613483623E-4  
 2.420000000000000E10   -5.144652095623314E-4   7.578602435387438E-6  
 2.422000000000000E10   -7.345787162194029E-5   3.203375381417573E-4  
 2.424000000000000E10    2.472841006238014E-4  -7.825744978617877E-5  
 2.426000000000000E10   -1.617615998839028E-5  -5.542910075746477E-4  
 2.428000000000000E10   -4.211596969980747E-4   1.829885586630553E-4  
 2.430000000000000E10    2.380410878686234E-4   1.688347983872518E-4  
 2.432000000000000E10    5.150822107680142E-4  -1.480993232689798E-4  
 2.434000000000000E10   -1.100281733670272E-4  -5.151021177880466E-4  
 2.436000000000000E10   -5.715173319913447E-4   1.567806466482580E-4  
 2.438000000000000E10    1.532380520075094E-5   2.832783502526581E-4  
 2.440000000000000E10    4.087747656740248E-4  -2.161004667868838E-4  
 2.442000000000000E10   -6.612536963075399E-4  -3.312792105134577E-4  
 2.444000000000000E10   -2.207924553658813E-4   7.206737791420892E-5  
 2.446000000000000E10   -8.298382454086095E-5   1.741142477840185E-4  
 2.448000000000000E10    3.312947228550911E-4  -3.463397151790559E-4  
 2.450000000000000E10   -2.351721923332661E-4  -1.338281163043575E-5  
 2.452000000000000E10    5.829835208714940E-5  -9.371829037263524E-6  
 2.454000000000000E10    6.158445467008278E-5   2.066249871859327E-4  
 2.456000000000000E10   -7.477110921172425E-5  -1.175603028968908E-4  
 2.458000000000000E10    2.550192220951431E-5   1.439549087081105E-4  
 2.460000000000000E10   -2.067676832666621E-4  -2.986089966725558E-4  
 2.462000000000000E10   -1.429991534678266E-4   1.658413821132854E-4  
 2.464000000000000E10   -3.767150337807834E-4   1.984838163480163E-4  
 2.466000000000000E10    1.914879394462332E-4   2.006992144742981E-5  
 2.468000000000000E10    1.098727661883459E-4  -4.522946983342990E-5  
 2.470000000000000E10   -3.335871151648462E-4   4.826191798201762E-5  
 2.472000000000000E10   -1.507983979536220E-4   4.614705394487828E-4  
 2.474000000000000E10    1.310623483732343E-4   1.534741168143228E-4  
 2.476000000000000E10    2.418816729914397E-4   4.807353252544999E-5  
 2.478000000000000E10   -4.496006877161562E-4  -2.173664543079212E-4  
 2.480000000000000E10   -6.207606202224270E-5   2.856103819794953E-4  
 2.482000000000000E10    2.689469838514924E-4   1.961142697837204E-4  
 2.484000000000000E10    2.030365576501936E-4  -4.407585365697742E-4  
 2.486000000000000E10   -2.485466829966754E-4   1.378349770675413E-5  
 2.488000000000000E10    4.800122042070143E-5   2.239903406007215E-4  
 2.490000000000000E10    3.930444654542953E-4   1.587995370755380E-6  
 2.492000000000000E10   -1.314970577368513E-4  -2.780828217510134E-4  
 2.494000000000000E10   -2.202429750468582E-4   3.221518418285996E-4  
 2.496000000000000E10    1.553011243231595E-4   1.991522440221161E-4  
 2.498000000000000E10    2.203145850216970E-4  -2.869522722903639E-4  
 2.500000000000000E10   -3.694156475830823E-4   1.830651890486479E-4  
 2.502000000000000E10   -2.404904807917774E-4   8.378615166293457E-5  
 2.504000000000000E10    1.596388028701767E-5   2.290033589815721E-4  
 2.506000000000000E10    5.248020897852257E-5  -2.744301455095410E-4  
 2.508000000000000E10   -8.414880721829832E-5  -2.278687607031316E-4  
 2.510000000000000E10   -1.145558708230965E-4  -9.249329741578549E-5  
 2.512000000000000E10    3.992877827840857E-5   1.078734112525126E-5  
 2.514000000000000E10   -2.806070733640809E-5  -1.192891504615545E-4  
 2.516000000000000E10    3.845083847409114E-5   4.827116936212406E-5  
 2.518000000000000E10   -2.755855675786734E-4  -2.886306901928037E-4  
 2.520000000000000E10   -2.302124194102362E-4  -1.021303251036443E-4  
 2.522000000000000E10   -8.031026663957164E-5   4.278340202290565E-4  
 2.524000000000000E10    2.505884913261980E-4  -1.249807337444508E-5  
 2.526000000000000E10   -2.213006700912956E-5  -9.780814434634522E-5  
 2.528000000000000E10   -6.745714927092195E-4  -1.933199382619932E-4  
 2.530000000000000E10   -1.228352484758943E-4   5.555909592658281E-4  
 2.532000000000000E10    3.425721661187708E-4   3.222473897039890E-4  
 2.534000000000000E10   -1.458448150515324E-5  -4.242968861944974E-4  
 2.536000000000000E10   -3.856731927953661E-4  -2.248397504445165E-4  
 2.538000000000000E10    3.565979932318442E-5   5.739218904636800E-4  
 2.540000000000000E10    5.217153811827302E-4   1.441625354345888E-4  
 2.542000000000000E10    3.826320171356201E-4  -4.218556859996170E-4  
 2.544000000000000E10   -4.487637779675424E-4  -7.987613207660615E-5  
 2.546000000000000E10   -1.839128672145307E-4   4.241287242621183E-4  
 2.548000000000000E10    4.742499149870127E-4   4.326211637817323E-4  
 2.550000000000000E10    3.817995457211509E-5  -1.859300973592326E-4  
 2.552000000000000E10   -3.844908496830612E-4  -2.704826183617115E-4  
 2.554000000000000E10   -1.365704374620691E-4   3.406986361369491E-4  
 2.556000000000000E10    2.718660980463028E-4   8.624865586170927E-5  
 2.558000000000000E10    4.378161247586832E-5  -2.468954480718821E-4  
 2.560000000000000E10   -4.141976751270704E-5  -3.910920713678934E-5  
 2.562000000000000E10    8.437625365331769E-5  -2.801674709189683E-4  
 2.564000000000000E10   -2.031761978287250E-4  -2.651152899488807E-4  
 2.566000000000000E10   -2.109324414050207E-4  -4.245503441779874E-5  
 2.568000000000000E10    2.182918397011235E-4  -1.028205224429257E-4  
 2.570000000000000E10    6.327774462988600E-5  -2.769591228570789E-4  
 2.572000000000000E10   -4.150179738644511E-4  -1.751962263369933E-4  
 2.574000000000000E10   -1.871291715360712E-5   1.212457500514574E-4  
 2.576000000000000E10    3.987157833762467E-4  -6.020033470122144E-5  
 2.578000000000000E10   -1.523203682154417E-4  -3.497471916489303E-4  
 2.580000000000000E10   -4.079098289366812E-4  -5.809221329400316E-5  
 2.582000000000000E10   -2.674105926416814E-4   2.178516151616350E-4  
 2.584000000000000E10    3.211002040188760E-4  -9.699595830170438E-5  
 2.586000000000000E10   -3.305143909528852E-4  -5.438834195956588E-4  
 2.588000000000000E10   -4.761164309456945E-4   1.633811625652015E-4  
 2.590000000000000E10   -3.463780740275979E-5   1.163786873803474E-4  
 2.592000000000000E10    1.303522003581747E-4  -2.972680958919227E-4  
 2.594000000000000E10   -3.562469792086631E-4   3.674413528642617E-5  
 2.596000000000000E10   -1.507022534497082E-4  -5.613307803287171E-5  
 2.598000000000000E10    1.429568947060034E-4   1.304376201005653E-4  
 2.600000000000000E10   -1.872891880339012E-4  -1.498852652730420E-4  
 2.602000000000000E10   -3.058428410440683E-4   1.280046708416194E-4  
 2.604000000000000E10    7.805521454429254E-5   1.400914188707247E-4  
 2.606000000000000E10    2.039825858446420E-6   1.496062614023686E-4  
 2.608000000000000E10   -2.906631270889193E-4  -2.261303015984595E-4  
 2.610000000000000E10   -8.470873581245542E-6   1.769173832144588E-4  
 2.612000000000000E10    6.851609941804782E-5   1.489382120780647E-4  
 2.614000000000000E10    2.715053269639611E-4  -3.473542165011168E-4  
 2.616000000000000E10   -1.769501832313836E-4   6.827829201938584E-5  
 2.618000000000000E10   -1.205140051752096E-5   3.560950281098485E-4  
 2.620000000000000E10    1.166435758932494E-4   1.110076264012605E-4  
 2.622000000000000E10    2.537078580644447E-5  -2.715768059715629E-4  
 2.624000000000000E10   -3.121318586636335E-4   3.832104848697782E-4  
 2.626000000000000E10    2.746027021203190E-4  -1.458086990169250E-5  
 2.628000000000000E10    2.863305271603167E-4  -5.271779446047731E-5  
 2.630000000000000E10   -3.207881818525493E-4  -1.793005503714085E-4  
 2.632000000000000E10    1.078050918295048E-4   2.206178323831409E-4  
 2.634000000000000E10    3.746126021724194E-4  -7.569920126115903E-5  
 2.636000000000000E10    8.666299254400656E-5  -3.012668166775256E-4  
 2.638000000000000E10   -2.784435346256942E-4   3.281089084339328E-5  
 2.640000000000000E10    2.352559968130663E-4   2.638125442899764E-4  
 2.642000000000000E10   -3.836379255517386E-5  -1.252923102583736E-4  
 2.644000000000000E10    8.128843910526484E-5  -2.424715494271368E-4  
 2.646000000000000E10   -1.952233724296093E-4   1.294028334086761E-4  
 2.648000000000000E10    1.076083572115749E-4   1.019053379422985E-4  
 2.650000000000000E10    1.630566694075242E-4  -2.350589638808742E-4  
 2.652000000000000E10   -2.156434056814760E-4  -1.343585317954421E-4  
 2.654000000000000E10   -1.581987889949232E-4   1.706210168777034E-4  
 2.656000000000000E10    1.585442223586142E-4  -8.688221896591131E-6  
 2.658000000000000E10    3.266652856837027E-5  -1.086358461179771E-4  
 2.660000000000000E10   -2.471678308211267E-4   5.847723878105171E-5  
 2.662000000000000E10   -1.265456521650776E-4   1.892605941975489E-4  
 2.664000000000000E10    1.138103471021168E-4   1.895421405606612E-6  
 2.666000000000000E10    1.025747769745067E-4  -3.108314194832929E-5  
 2.668000000000000E10   -1.347005891148001E-4  -1.591113832546398E-4  
 2.670000000000000E10    2.172955464629922E-5   8.255778811872006E-5  
 2.672000000000000E10    6.472275708802044E-5  -9.408495679963380E-5  
 2.674000000000000E10    9.517832222627476E-5   5.656260327668861E-5  
 2.676000000000000E10   -1.371865218970925E-4  -9.150903679255862E-6  
 2.678000000000000E10    1.325147750321776E-4   1.122981702792458E-4  
 2.680000000000000E10   -1.588744926266372E-4   1.990675227716565E-4  
 2.682000000000000E10    1.794187264749780E-4  -2.074227268167306E-5  
 2.684000000000000E10    1.850287371780723E-4   3.745254434761591E-5  
 2.686000000000000E10   -1.390892866766080E-4  -2.219936432084069E-4  
 2.688000000000000E10   -3.078355221077800E-4   4.072696901857853E-5  
 2.690000000000000E10    8.582490409025922E-5   6.556447624461725E-5  
 2.692000000000000E10    8.664876077091321E-5   7.616332823090488E-6  
 2.694000000000000E10   -1.277181145269424E-4  -5.572039517574012E-4  
 2.696000000000000E10    7.509743591072038E-5   2.697993295441847E-5  
 2.698000000000000E10    5.740476626669988E-5   1.836130686569959E-4  
 2.700000000000000E10    2.689632237888873E-4   3.869792180921650E-6  
 2.702000000000000E10    2.196818604716100E-5  -1.286113547394052E-4  
 2.704000000000000E10    3.452530290815048E-5  -1.182301048174850E-6  
 2.706000000000000E10   -3.764611028600484E-5  -4.697928306995891E-5  
 2.708000000000000E10    1.109135337173939E-4   8.079518920567352E-6  
 2.710000000000000E10   -3.156912498525344E-5   7.466048555215821E-5  
 2.712000000000000E10    5.403336763265543E-5  -1.521460217190906E-4  
 2.714000000000000E10   -8.896013605408371E-5   1.516103511676192E-4  
 2.716000000000000E10   -6.236992339836434E-5   1.639855618122965E-4  
 2.718000000000000E10    1.794291165424511E-4   2.587807248346508E-4  
 2.720000000000000E10    2.448300947435200E-4  -1.232150825671852E-4  
 2.722000000000000E10   -1.037993715726771E-4  -2.810459409374744E-4  
 2.724000000000000E10   -3.973785496782512E-4   2.833637699950486E-4  
 2.726000000000000E10    1.248122280230746E-4   3.723035624716431E-4  
 2.728000000000000E10    2.717795177886728E-5  -1.033381413435563E-4  
 2.730000000000000E10   -9.826455061556771E-5  -1.062686133082025E-4  
 2.732000000000000E10   -1.875952875707299E-4   2.532366197556257E-4  
 2.734000000000000E10   -4.699675628216937E-5   1.602906704647467E-4  
 2.736000000000000E10    1.525458210380748E-4  -6.782191485399380E-5  
 2.738000000000000E10   -1.819711760617793E-4  -3.486467467155308E-4  
 2.740000000000000E10   -1.923498930409551E-4  -5.884291113034124E-6  
 2.742000000000000E10   -9.133778803516179E-5   8.156901458278298E-5  
 2.744000000000000E10    8.866930875228718E-5  -1.199757898575626E-4  
 2.746000000000000E10   -3.489138543955050E-5   2.399865479674190E-5  
 2.748000000000000E10   -2.178652794100344E-4   5.052681808592752E-5  
 2.750000000000000E10    7.675361121073365E-5  -2.418859367026016E-5  
 2.752000000000000E10    9.232556476490572E-5  -5.031514592701569E-5  
 2.754000000000000E10   -2.233570194221102E-5   6.500246672658250E-5  
 2.756000000000000E10    2.684766950551421E-4   1.074618994607590E-4  
