#  HZ   S   RI   R     50.00 
! Rohde & Schwarz ZVA40 4Ports - Version 3.90 - 1145.1110k42 SN: 100403
! Date: 2023-10-04 09:20:26
! Measurement: S12 
! 
 2.200000000000000E10   -2.997648552991450E-4   5.977588443784043E-5  
 2.202000000000000E10    2.939772821264342E-5   3.679374931380153E-4  
 2.204000000000000E10    4.331083036959171E-4  -2.029844181379303E-4  
 2.206000000000000E10    3.292960755061358E-4  -4.210985498502851E-4  
 2.208000000000000E10   -4.746662161778659E-4  -1.203769861604087E-4  
 2.210000000000000E10    1.627013261895627E-4   3.622432122938335E-4  
 2.212000000000000E10    6.702214595861733E-4  -7.852325506974012E-5  
 2.214000000000000E10    2.047031739493832E-4  -5.606277845799923E-4  
 2.216000000000000E10   -4.671899660024792E-4  -1.176351070171222E-4  
 2.218000000000000E10    8.744248771108687E-5   4.805764474440366E-4  
 2.220000000000000E10    1.948223653016612E-4  -2.806244765451993E-6  
 2.222000000000000E10   -1.624923061172012E-5  -5.073428619652987E-4  
 2.224000000000000E10   -3.653508902061731E-4   9.983572090277448E-5  
 2.226000000000000E10   -8.781180076766759E-5  -1.591385516803712E-4  
 2.228000000000000E10    1.818336459109560E-4   6.413376922864700E-6  
 2.230000000000000E10   -1.078885616152547E-4  -1.560815871926025E-4  
 2.232000000000000E10    1.219482510350645E-4  -1.678223197814077E-4  
 2.234000000000000E10   -7.173475296440302E-6   2.784518583212048E-4  
 2.236000000000000E10    2.190663071814925E-4  -6.971810944378376E-5  
 2.238000000000000E10    2.167393358831760E-5   7.635763176949695E-5  
 2.240000000000000E10   -1.058411071426235E-4   2.937142853625119E-4  
 2.242000000000000E10    1.629381440579891E-4   7.737226042081602E-6  
 2.244000000000000E10   -1.820784091250971E-4  -2.767160476651043E-4  
 2.246000000000000E10   -2.117983822245151E-4   2.793478779494762E-4  
 2.248000000000000E10   -2.035152101598214E-5   1.145498026744463E-4  
 2.250000000000000E10    1.408817188348621E-4  -1.699626882327721E-4  
 2.252000000000000E10   -4.138910153415054E-4  -2.471279367455281E-5  
 2.254000000000000E10   -3.464395558694378E-5   2.642533800099045E-4  
 2.256000000000000E10    2.158442366635427E-4   3.094010753557086E-4  
 2.258000000000000E10    1.082438830053434E-4  -3.088231605943292E-4  
 2.260000000000000E10   -4.200841358397156E-4   1.488167181378231E-4  
 2.262000000000000E10   -1.356505672447383E-4   3.236249613109976E-4  
 2.264000000000000E10    4.515217151492834E-4   3.116132866125554E-4  
 2.266000000000000E10    1.610948675079271E-4  -4.156477516517043E-4  
 2.268000000000000E10   -1.050674327416346E-4   2.422952966298908E-4  
 2.270000000000000E10   -4.606587390298955E-5   4.425814549904317E-4  
 2.272000000000000E10    5.878096562810242E-4  -2.987537300214171E-5  
 2.274000000000000E10   -3.119862521998584E-4  -2.105724415741861E-4  
 2.276000000000000E10   -1.767287758411840E-4   1.669358898652718E-4  
 2.278000000000000E10    1.256012474186719E-4  -2.327411493752152E-5  
 2.280000000000000E10    1.046881807269529E-4  -5.648954538628459E-4  
 2.282000000000000E10   -2.315364836249501E-4  -1.096838095691055E-4  
 2.284000000000000E10    2.844054542947561E-4   1.311432570219040E-4  
 2.286000000000000E10    2.615659323055297E-4  -3.569745967979543E-5  
 2.288000000000000E10   -3.096516302321106E-4  -2.969138440676034E-4  
 2.290000000000000E10   -4.895766323897988E-5   3.512487164698541E-4  
 2.292000000000000E10    1.534479524707422E-4   2.811079029925168E-4  
 2.294000000000000E10    4.763909964822233E-4  -3.669016587082297E-4  
 2.296000000000000E10   -3.372640640009195E-4  -1.048061858455185E-5  
 2.298000000000000E10    5.858063013874926E-5   1.990714008570649E-5  
 2.300000000000000E10    5.151195218786597E-4   2.098919940181077E-4  
 2.302000000000000E10   -8.160141442203894E-5  -4.662410647142679E-4  
 2.304000000000000E10   -3.876620321534574E-4   8.738067117519677E-5  
 2.306000000000000E10    4.493998858379200E-6   3.383276634849608E-4  
 2.308000000000000E10    2.340879873372614E-4   5.084990698378533E-5  
 2.310000000000000E10   -2.010145544772968E-4  -3.707664727699012E-4  
 2.312000000000000E10   -9.575855801813304E-5  -1.326569763477892E-4  
 2.314000000000000E10   -6.865034083602950E-5   2.770521095953882E-4  
 2.316000000000000E10    5.937940659350716E-5  -2.814242616295815E-4  
 2.318000000000000E10    2.384311083005741E-4  -6.016293627908453E-5  
 2.320000000000000E10   -2.273561221954878E-5  -8.810433064354584E-5  
 2.322000000000000E10    2.357723860768601E-4  -2.503622963558883E-4  
 2.324000000000000E10   -1.348825462628156E-4   6.693532213830622E-6  
 2.326000000000000E10    1.815460200305097E-5   8.202854951377958E-5  
 2.328000000000000E10    6.341578409774229E-5  -1.263783778995276E-4  
 2.330000000000000E10    1.182437044917606E-4  -1.942285744007677E-4  
 2.332000000000000E10   -2.650355163495988E-4   6.654915341641754E-5  
 2.334000000000000E10    4.907202310278080E-5   1.750974188325927E-4  
 2.336000000000000E10    2.487401943653822E-4   3.544996725395322E-4  
 2.338000000000000E10   -3.669446232379414E-5  -4.037013859488070E-4  
 2.340000000000000E10   -9.639679046813399E-5  -2.131981273123529E-5  
 2.342000000000000E10   -4.527235068962909E-5   5.920456605963409E-4  
 2.344000000000000E10    4.689168126787990E-4  -4.320675725466572E-5  
 2.346000000000000E10    1.158297600341030E-4  -2.446697617415339E-4  
 2.348000000000000E10   -2.560901921242476E-4   1.119226071750745E-4  
 2.350000000000000E10    4.625419751391746E-5   4.440203192643821E-4  
 2.352000000000000E10    4.146781866438687E-4   9.409269296156708E-6  
 2.354000000000000E10   -1.880456693470478E-4  -2.843442198354751E-4  
 2.356000000000000E10   -1.774489792296663E-4   9.569938265485689E-5  
 2.358000000000000E10    2.236880391137675E-4   1.827154192142189E-4  
 2.360000000000000E10    2.775581087917090E-4  -3.243578248657286E-4  
 2.362000000000000E10    9.565900836605579E-5  -2.583165769465268E-4  
 2.364000000000000E10   -6.252465391298756E-5  -9.945694910129532E-5  
 2.366000000000000E10    3.440111177042127E-4  -1.089657143893419E-5  
 2.368000000000000E10    2.288620089530014E-5  -1.871890999609605E-4  
 2.370000000000000E10    5.648862861562520E-5  -7.044256926747039E-5  
 2.372000000000000E10   -6.346955342451111E-5   1.830905384849757E-4  
 2.374000000000000E10    6.557455344591290E-5  -7.467989780707285E-5  
 2.376000000000000E10   -2.845769449777436E-5  -3.967930970247835E-4  
 2.378000000000000E10   -3.573095018509775E-4  -5.608723149634898E-4  
 2.380000000000000E10   -1.274380338145420E-5   6.950881652301177E-5  
 2.382000000000000E10    4.980523954145610E-5  -4.087557026650757E-4  
 2.384000000000000E10    1.082578164641745E-4  -6.928974180482328E-4  
 2.386000000000000E10   -3.159480547765270E-5  -1.215496449731290E-4  
 2.388000000000000E10    1.449935807613656E-4  -1.225778687512502E-4  
 2.390000000000000E10   -1.076554472092539E-4  -2.688300737645477E-4  
 2.392000000000000E10    9.786260488908738E-5   1.466539742978057E-5  
 2.394000000000000E10    8.979493577498943E-5   4.674068986787461E-5  
 2.396000000000000E10    8.924949361244217E-5  -3.441687731537968E-4  
 2.398000000000000E10   -4.157295334152877E-4   6.820247654104605E-5  
 2.400000000000000E10   -1.851458073360845E-4   3.470978117547929E-4  
 2.402000000000000E10    7.045122911222279E-4   1.475871395086870E-4  
 2.404000000000000E10   -2.329433482373133E-4  -3.212567826267332E-4  
 2.406000000000000E10   -5.327578401193023E-4   1.661882270127535E-4  
 2.408000000000000E10    3.404892049729824E-4   6.097765872254968E-4  
 2.410000000000000E10    4.817443259526044E-4  -3.315327921882272E-5  
 2.412000000000000E10    1.066747154254699E-5  -6.012083031237125E-4  
 2.414000000000000E10   -4.042547661811113E-4   2.224241688963957E-5  
 2.416000000000000E10    3.712212128448300E-5   8.070141193456948E-4  
 2.418000000000000E10    6.099991733208299E-4  -1.270325446967036E-4  
 2.420000000000000E10    6.308101728791371E-5  -1.028850165312178E-4  
 2.422000000000000E10   -5.997806438244879E-4   2.011177566600964E-4  
 2.424000000000000E10    3.104084753431380E-4   1.395508297719061E-4  
 2.426000000000000E10    5.389699435909279E-5   8.222230826504529E-5  
 2.428000000000000E10   -1.259938580915332E-4  -4.286544572096318E-4  
 2.430000000000000E10    5.249629612080753E-5   2.541878202464432E-4  
 2.432000000000000E10   -1.503926523582777E-5   5.999759741825983E-5  
 2.434000000000000E10    1.746832131175324E-4  -2.142821176676080E-4  
 2.436000000000000E10   -2.363279418204911E-5   1.348073856206611E-4  
 2.438000000000000E10    9.403898729942739E-5   8.268317469628528E-5  
 2.440000000000000E10   -9.887672058539465E-5  -2.705024089664221E-4  
 2.442000000000000E10   -1.442651118850336E-4   9.518149454379454E-5  
 2.444000000000000E10    1.938272180268541E-5   2.105430321535096E-4  
 2.446000000000000E10    1.351651299046353E-4  -5.201199674047530E-4  
 2.448000000000000E10   -1.897464098874480E-4  -2.357059711357579E-4  
 2.450000000000000E10   -2.744510129559785E-4  -3.085640491917729E-4  
 2.452000000000000E10    4.939982318319380E-4   2.330876450287178E-4  
 2.454000000000000E10    2.038791899394710E-5  -1.790809474186972E-4  
 2.456000000000000E10   -1.674873783485964E-4  -4.398499731905758E-4  
 2.458000000000000E10   -2.354443422518671E-4   1.367438817396760E-4  
 2.460000000000000E10    7.506536348955706E-5   6.957982259336859E-5  
 2.462000000000000E10    1.065410615410656E-4  -2.743095683399588E-4  
 2.464000000000000E10   -4.582703113555908E-4  -3.706441202666611E-4  
 2.466000000000000E10   -1.272176305064932E-4   4.352018295321614E-4  
 2.468000000000000E10    2.715817827265710E-4  -1.036109370033955E-5  
 2.470000000000000E10    3.222493396606296E-4  -1.996857899939641E-4  
 2.472000000000000E10   -4.367412766441703E-4   5.300246266415343E-5  
 2.474000000000000E10    4.677467586589046E-5   3.869329812005162E-4  
 2.476000000000000E10    3.120194014627487E-4   2.490922342985869E-4  
 2.478000000000000E10    2.059978760371450E-5  -1.715234393486753E-4  
 2.480000000000000E10   -5.014943599235266E-5   3.073987900279462E-4  
 2.482000000000000E10    8.781761425780132E-5  -1.696601975709200E-5  
 2.484000000000000E10    2.312303113285452E-4   7.879899203544483E-5  
 2.486000000000000E10    7.843594357836992E-5  -1.835275384109991E-6  
 2.488000000000000E10    3.454983234405518E-4   6.221577496035025E-5  
 2.490000000000000E10    3.947469667764381E-5  -1.607995509402826E-4  
 2.492000000000000E10    2.454719215165824E-4   1.150064344983548E-4  
 2.494000000000000E10    1.656313834246248E-4   3.735163772944361E-4  
 2.496000000000000E10    2.497230889275670E-4  -2.971473440993577E-4  
 2.498000000000000E10   -1.112156096496619E-4  -1.597969239810482E-4  
 2.500000000000000E10   -5.314935151545797E-6  -4.006415110779926E-5  
 2.502000000000000E10    4.054270393680781E-4   3.271169771323912E-5  
 2.504000000000000E10    1.631635968806222E-4  -4.376775177661330E-4  
 2.506000000000000E10   -2.434208909107838E-6  -1.820577599573880E-4  
 2.508000000000000E10   -2.459633979015052E-4   1.312078666160232E-6  
 2.510000000000000E10    2.430443564662710E-4   2.033108467003331E-4  
 2.512000000000000E10    1.556127244839445E-4  -4.729174834210426E-4  
 2.514000000000000E10   -2.293105499120429E-4  -2.855202183127403E-4  
 2.516000000000000E10   -4.938381025567651E-4   2.571268705651164E-4  
 2.518000000000000E10    3.539758035913110E-4  -9.287606371799484E-5  
 2.520000000000000E10    6.086494977353141E-5  -2.966280735563487E-4  
 2.522000000000000E10   -3.482750908005983E-4  -1.500190264778212E-4  
 2.524000000000000E10   -7.246241148095578E-5   2.545975148677826E-4  
 2.526000000000000E10    2.110956847900525E-4  -2.105580497300252E-4  
 2.528000000000000E10   -2.401964884484187E-4  -1.669270859565586E-4  
 2.530000000000000E10   -5.671484977938235E-4  -5.895185677218251E-5  
 2.532000000000000E10    2.152447414118797E-4   2.559509885031730E-4  
 2.534000000000000E10   -4.616863589035347E-5  -1.019408809952438E-4  
 2.536000000000000E10   -3.400801142561249E-5  -1.395168510498479E-4  
 2.538000000000000E10    9.426692849956453E-5   5.139830318512395E-5  
 2.540000000000000E10    1.342056057183072E-4  -8.611771590949502E-6  
 2.542000000000000E10    3.882117744069547E-5  -6.642647349508479E-5  
 2.544000000000000E10    1.013513610814698E-4   4.460755371837877E-5  
 2.546000000000000E10    5.654938286170363E-5  -1.044375603669323E-4  
 2.548000000000000E10   -6.624064553761855E-6  -1.394094288116321E-4  
 2.550000000000000E10   -1.377172593493015E-4   1.920629874803126E-4  
 2.552000000000000E10    9.845121530815959E-5   1.270311913685873E-4  
 2.554000000000000E10    1.564112462801859E-4   9.583236533217132E-5  
 2.556000000000000E10   -4.515296313911676E-5  -4.271405341569334E-4  
 2.558000000000000E10   -2.120548597304151E-4   1.068730198312551E-4  
 2.560000000000000E10    1.779103622538969E-4   3.568291431292892E-4  
 2.562000000000000E10    4.159526142757386E-4  -2.095268137054518E-4  
 2.564000000000000E10   -7.890014967415482E-5  -5.554286763072014E-4  
 2.566000000000000E10   -3.047068021260202E-4   3.640857466962189E-4  
 2.568000000000000E10    2.849060983862728E-4   4.309433279559016E-4  
 2.570000000000000E10    7.116021588444710E-4  -2.698415191844106E-4  
 2.572000000000000E10   -3.286046558059752E-4  -4.633138887584209E-4  
 2.574000000000000E10   -2.693296701181680E-4   3.521783801261336E-4  
 2.576000000000000E10    2.734985610004515E-4   3.789941838476807E-4  
 2.578000000000000E10    1.945517433341593E-4  -2.243792405351996E-4  
 2.580000000000000E10   -3.352640487719327E-4  -4.289920034352690E-4  
 2.582000000000000E10   -1.720733853289858E-4   2.288078394485638E-4  
 2.584000000000000E10    4.044406523462385E-5  -6.447538180509582E-5  
 2.586000000000000E10   -1.077177330444101E-5  -2.948641777038574E-4  
 2.588000000000000E10   -1.688248012214899E-4   5.530183989321813E-5  
 2.590000000000000E10   -2.752020191110205E-5  -1.646614982746542E-4  
 2.592000000000000E10   -7.278221892192960E-5  -1.532684473204427E-5  
 2.594000000000000E10   -3.081590693909675E-5   6.618996849283576E-5  
 2.596000000000000E10    4.305095717427321E-5   2.552858495619148E-4  
 2.598000000000000E10    2.253920974908397E-4  -1.973832695512101E-4  
 2.600000000000000E10   -1.237825490534306E-4  -1.427898532710969E-4  
 2.602000000000000E10   -3.649836580734700E-4   1.130962409661152E-4  
 2.604000000000000E10    3.633684536907822E-4   5.162538727745414E-4  
 2.606000000000000E10    1.745018234942108E-4   5.938463073107414E-5  
 2.608000000000000E10    8.210480154957622E-5  -2.150753716705367E-4  
 2.610000000000000E10   -2.277272433275357E-4   1.139233136200346E-4  
 2.612000000000000E10    1.970759185496718E-4   3.204949316568673E-4  
 2.614000000000000E10    1.302335440414026E-4  -2.715096925385296E-4  
 2.616000000000000E10   -4.205803998047486E-5  -2.324163069715723E-4  
 2.618000000000000E10   -1.193586649606004E-4   1.642117713345215E-4  
 2.620000000000000E10    9.752013284014538E-5  -9.420729475095868E-5  
 2.622000000000000E10    7.635178008058574E-6  -4.273241574992426E-5  
 2.624000000000000E10   -2.298266481375322E-4  -1.362694456474856E-4  
 2.626000000000000E10    1.519794750493020E-4   1.050688515533693E-4  
 2.628000000000000E10   -7.664909207960591E-5  -1.719654210319277E-5  
 2.630000000000000E10   -2.305390953551978E-4  -1.018068433040753E-4  
 2.632000000000000E10    1.226262884301832E-5   6.479778676293790E-5  
 2.634000000000000E10    7.446268136845902E-5  -3.329133733132039E-6  
 2.636000000000000E10   -1.189313479699194E-5  -4.124880360905081E-4  
 2.638000000000000E10   -4.727670748252422E-4  -5.558277189265937E-5  
 2.640000000000000E10   -2.659695455804467E-4   2.081301208818331E-4  
 2.642000000000000E10    4.116645141039044E-4  -4.865278606303036E-5  
 2.644000000000000E10   -1.427524694008753E-4  -3.262811223976314E-4  
 2.646000000000000E10   -3.618736227508634E-4  -1.720230648061261E-4  
 2.648000000000000E10    2.635940327309072E-4   3.044674231205136E-4  
 2.650000000000000E10    1.495436445111409E-4  -2.308265356987249E-5  
 2.652000000000000E10   -1.970547891687602E-4  -2.590800868347287E-4  
 2.654000000000000E10   -1.950969635799993E-5  -8.721461927052587E-5  
 2.656000000000000E10    1.618370879441500E-4   2.663711202330887E-4  
 2.658000000000000E10    9.304811101173982E-5  -8.544993761461228E-5  
 2.660000000000000E10   -1.463570661144331E-4   9.645293175708503E-5  
 2.662000000000000E10    4.329528564994689E-6   1.772903924575076E-4  
 2.664000000000000E10    1.768308575265110E-4   1.084977338905446E-4  
 2.666000000000000E10   -1.788015797501430E-4  -1.417344028595835E-4  
 2.668000000000000E10   -1.252960646525025E-4   2.744781959336251E-4  
 2.670000000000000E10    5.955947926850058E-5   4.215967783238739E-5  
 2.672000000000000E10    1.521245285402983E-4  -1.796293799998239E-4  
 2.674000000000000E10   -5.137231783010066E-4  -2.539452361816075E-5  
 2.676000000000000E10    1.797831828298513E-5   2.033351920545101E-4  
 2.678000000000000E10    1.219170881086029E-4   3.885541809722781E-4  
 2.680000000000000E10   -2.747377493506065E-6  -6.901146844029427E-5  
 2.682000000000000E10    1.229842164320871E-4   9.638458141125739E-5  
 2.684000000000000E10    1.676053798291832E-4   1.398882450303063E-4  
 2.686000000000000E10    3.759049577638507E-4  -1.963552494999021E-5  
 2.688000000000000E10    7.137308421079069E-5  -2.077992685372010E-4  
 2.690000000000000E10   -1.030615239869803E-4   1.029322520480491E-4  
 2.692000000000000E10   -1.188908572657965E-4  -3.917335561709479E-5  
 2.694000000000000E10    2.288039977429435E-4   9.561765909893438E-5  
 2.696000000000000E10   -1.514130271971226E-4  -2.701524354051799E-4  
 2.698000000000000E10    1.458210026612505E-4  -9.689036232884973E-5  
 2.700000000000000E10   -1.772805699147284E-4   1.613651111256331E-4  
 2.702000000000000E10    1.289811189053580E-4  -3.431645745877177E-5  
 2.704000000000000E10    1.098455322789960E-4   1.221578277181834E-4  
 2.706000000000000E10   -4.948418427375145E-5  -1.463428488932550E-4  
 2.708000000000000E10    2.142621269740630E-6   1.917505323945079E-5  
 2.710000000000000E10    1.190016992040910E-4  -8.231001265812665E-5  
 2.712000000000000E10   -7.291235669981688E-5   3.045914054382592E-4  
 2.714000000000000E10   -5.822519960929640E-5  -5.373797466745600E-5  
 2.716000000000000E10    9.671464067650959E-5   2.528448749217205E-5  
 2.718000000000000E10    2.927376408479177E-5  -5.029583553550765E-5  
 2.720000000000000E10    1.215155352838337E-4   1.796780270524323E-4  
 2.722000000000000E10    2.367290435358882E-4  -4.966131746186875E-5  
 2.724000000000000E10    1.254053768207086E-5  -3.487421781755984E-4  
 2.726000000000000E10   -2.164787438232452E-4   1.529241999378428E-4  
 2.728000000000000E10    1.712986340862699E-5   4.004376532975584E-4  
 2.730000000000000E10    2.027980663115159E-4  -5.256794793240260E-6  
 2.732000000000000E10    1.071577498805709E-4  -1.532577734906226E-4  
 2.734000000000000E10   -2.148980274796486E-4   4.009341646451503E-4  
 2.736000000000000E10    2.119422424584627E-4   1.016525930026546E-4  
 2.738000000000000E10    2.743585500866175E-4  -7.980702503118664E-5  
 2.740000000000000E10   -5.494920333148912E-5  -1.892390719149262E-4  
 2.742000000000000E10   -3.178093465976417E-4  -1.528340799268335E-4  
 2.744000000000000E10    1.245287130586803E-4   4.345346314948984E-5  
 2.746000000000000E10    5.297884490573779E-5  -1.911764411488548E-4  
 2.748000000000000E10    7.498489139834419E-5  -1.223679573740810E-4  
 2.750000000000000E10   -1.795910502551124E-4  -5.940953269600868E-5  
 2.752000000000000E10    2.420699456706643E-5  -4.854608414461836E-5  
 2.754000000000000E10    1.217372409882955E-4   1.627252931939438E-4  
 2.756000000000000E10   -1.306039757764665E-5   2.142752055078745E-5  
