#  HZ   S   RI   R     50.00 
! Rohde & Schwarz ZVA40 4Ports - Version 3.90 - 1145.1110k42 SN: 100403
! Date: 2023-10-04 09:20:06
! Measurement: S12 
! 
 2.200000000000000E10   -4.181146214250475E-4   1.000594784272835E-4  
 2.202000000000000E10    1.039958078763448E-4   1.755235862219706E-4  
 2.204000000000000E10    3.748292801901698E-4   3.052668762393296E-4  
 2.206000000000000E10   -2.081585989799351E-4  -5.430185119621456E-4  
 2.208000000000000E10   -1.809868263080716E-4  -9.154158760793507E-5  
 2.210000000000000E10    2.456511720083654E-4   4.784903139807284E-4  
 2.212000000000000E10    2.186380588682368E-4   7.969285070430487E-5  
 2.214000000000000E10    7.010801346041262E-5  -1.869593543233350E-4  
 2.216000000000000E10    1.918913221743424E-5   4.476311369217001E-5  
 2.218000000000000E10    4.744717443827540E-5   1.190340335597284E-4  
 2.220000000000000E10    2.065093758574221E-5  -2.405646373517811E-4  
 2.222000000000000E10   -7.612416084157303E-5   1.630134793231264E-4  
 2.224000000000000E10   -1.880273775896058E-4  -1.541115634609014E-4  
 2.226000000000000E10   -2.600053812784609E-5  -3.181633946951479E-4  
 2.228000000000000E10   -2.820015943143517E-4  -1.588964514667168E-4  
 2.230000000000000E10   -8.406597044086084E-5   2.077993558486924E-4  
 2.232000000000000E10    1.417984312865883E-4   1.196477824123576E-4  
 2.234000000000000E10    1.590298343217000E-4  -5.444918642751873E-4  
 2.236000000000000E10   -2.836739877238870E-4  -1.532636088086292E-4  
 2.238000000000000E10   -2.697843010537326E-4   1.993484474951401E-4  
 2.240000000000000E10    5.625128396786749E-4   2.910585317295045E-4  
 2.242000000000000E10   -5.030027750763111E-5  -2.114258240908384E-4  
 2.244000000000000E10   -2.374009200138971E-4  -1.765905326465145E-4  
 2.246000000000000E10   -2.720985212363303E-4   4.412343841977418E-4  
 2.248000000000000E10    2.443309058435261E-4   1.763845357345417E-4  
 2.250000000000000E10    1.182398045784794E-4  -3.825149033218622E-4  
 2.252000000000000E10   -2.145923645002767E-4  -3.399653360247612E-4  
 2.254000000000000E10   -1.839956821640953E-4   2.762241638265550E-4  
 2.256000000000000E10    2.323847147636116E-4   1.788715162547305E-4  
 2.258000000000000E10   -3.431091681704857E-5  -6.131149712018669E-5  
 2.260000000000000E10   -1.669101475272328E-4  -1.937143824761733E-4  
 2.262000000000000E10    1.374131970806047E-4   4.509655700530857E-4  
 2.264000000000000E10    1.874580775620416E-4   3.132846322841942E-4  
 2.266000000000000E10    3.268104337621480E-4  -1.353901461698115E-4  
 2.268000000000000E10   -1.973390026250854E-4   1.991289464058355E-4  
 2.270000000000000E10    2.054715441772714E-4   9.548864909447730E-5  
 2.272000000000000E10    1.019982300931588E-5   5.652534309774637E-5  
 2.274000000000000E10   -1.614959764992818E-4   8.743253420107067E-5  
 2.276000000000000E10    4.498567068367265E-5   2.624075568746775E-4  
 2.278000000000000E10    2.157142007490620E-4  -4.353235635790043E-5  
 2.280000000000000E10   -7.520578947151080E-5   4.058438935317099E-5  
 2.282000000000000E10   -2.756050380412489E-4  -1.627093297429383E-5  
 2.284000000000000E10    4.803455085493624E-4   2.991882502101362E-4  
 2.286000000000000E10    8.580244320910424E-5  -1.969219592865557E-4  
 2.288000000000000E10   -1.500271609984338E-4  -1.983203401323408E-4  
 2.290000000000000E10   -9.067322935152333E-6   2.969469933304936E-4  
 2.292000000000000E10    2.725289377849549E-4   5.745098314946517E-5  
 2.294000000000000E10    1.038624905049801E-4  -4.438303585629910E-4  
 2.296000000000000E10   -2.209730882896110E-4  -1.129974843934178E-4  
 2.298000000000000E10    1.419731852365658E-4   3.320539544802159E-4  
 2.300000000000000E10    2.429618180030957E-4  -1.618415408302099E-4  
 2.302000000000000E10    3.079990710830316E-5  -1.614804932614788E-4  
 2.304000000000000E10   -1.011687272693962E-4   1.866753882495686E-4  
 2.306000000000000E10    1.687397889327258E-4  -5.157967825653032E-5  
 2.308000000000000E10    1.624023934709840E-5  -1.959959627129138E-5  
 2.310000000000000E10   -1.864559162640944E-4  -2.967642503790557E-4  
 2.312000000000000E10    3.351573104737327E-5   1.110717639676295E-4  
 2.314000000000000E10    1.300856674788520E-4   3.688022479764186E-5  
 2.316000000000000E10    2.557795778557193E-5  -2.235002466477454E-4  
 2.318000000000000E10   -2.011319011216983E-4   1.677997061051428E-4  
 2.320000000000000E10    1.748548093019053E-4   2.257670712424442E-4  
 2.322000000000000E10    2.396251802565530E-4  -6.404270243365318E-5  
 2.324000000000000E10   -2.944421430584043E-4  -1.018350740196183E-4  
 2.326000000000000E10   -2.419437660137191E-4   2.214064006693661E-4  
 2.328000000000000E10    1.923971285577864E-4   5.006684659747407E-5  
 2.330000000000000E10   -7.236321835080162E-5   2.783472837109002E-6  
 2.332000000000000E10   -4.417798772919923E-4  -1.401594545313856E-5  
 2.334000000000000E10    1.080513902707025E-4   4.021807108074427E-4  
 2.336000000000000E10    2.910548355430365E-4   2.037896629190072E-4  
 2.338000000000000E10    2.281104389112443E-4  -3.135288134217262E-4  
 2.340000000000000E10   -3.434701065998524E-4   1.287596824113280E-4  
 2.342000000000000E10   -5.485690053319559E-5   3.532265836838633E-4  
 2.344000000000000E10    5.185643094591796E-4   5.536821117857471E-5  
 2.346000000000000E10    1.452899305149913E-4   2.480004150129389E-5  
 2.348000000000000E10   -3.598171751946211E-4   4.322313179727644E-5  
 2.350000000000000E10    1.467584515921772E-4   3.110502730123699E-4  
 2.352000000000000E10    6.373361247824505E-5   3.059722948819399E-4  
 2.354000000000000E10    1.780326056177728E-5  -3.888098872266710E-4  
 2.356000000000000E10    1.364464114885777E-4  -3.401318963369704E-6  
 2.358000000000000E10   -1.663098664721474E-4  -5.131179204909131E-5  
 2.360000000000000E10    3.826842876151204E-4  -5.600044096354395E-5  
 2.362000000000000E10    2.168140781577677E-4  -6.067863068892621E-5  
 2.364000000000000E10    1.198989775730297E-4   8.972051000455394E-5  
 2.366000000000000E10    7.525555702159181E-5  -3.952167026000097E-5  
 2.368000000000000E10    9.304312698077411E-5  -1.531212474219501E-4  
 2.370000000000000E10   -2.494953223504126E-4   1.195468648802489E-4  
 2.372000000000000E10    1.547346182633191E-4  -5.900629548705183E-5  
 2.374000000000000E10    1.393239217577502E-4  -2.130607754224911E-4  
 2.376000000000000E10   -3.070419188588858E-4  -3.412714868318290E-4  
 2.378000000000000E10   -1.669924240559340E-4   4.738578572869301E-4  
 2.380000000000000E10    2.580680593382567E-4  -2.665776701178402E-4  
 2.382000000000000E10   -1.952481979969889E-4  -4.724273167084903E-4  
 2.384000000000000E10   -4.431621637195349E-4  -1.016510723275133E-4  
 2.386000000000000E10    5.898401286685839E-5   3.202642546966672E-4  
 2.388000000000000E10    2.636726712808013E-4   8.488418825436384E-5  
 2.390000000000000E10    1.348890800727531E-4  -2.917344972956926E-4  
 2.392000000000000E10   -4.292533849366009E-4  -3.485062188701704E-5  
 2.394000000000000E10    1.075015461537987E-4   4.977396456524730E-4  
 2.396000000000000E10    2.682416525203735E-4  -3.095042775385082E-4  
 2.398000000000000E10   -1.983161637326703E-4  -2.152157831005752E-4  
 2.400000000000000E10   -3.769464674405754E-4   6.923830255800567E-7  
 2.402000000000000E10    2.342330699320883E-4   2.739123883657157E-4  
 2.404000000000000E10    3.558824246283621E-4  -1.140954773291014E-4  
 2.406000000000000E10   -1.537404314149171E-4  -3.766033041756600E-4  
 2.408000000000000E10   -7.704985910095274E-5   3.043796168640256E-4  
 2.410000000000000E10    5.695681902579963E-4   2.158758288715035E-4  
 2.412000000000000E10    2.505747834220529E-4  -2.319149061804637E-4  
 2.414000000000000E10   -1.549796870676801E-4  -1.337121066171676E-4  
 2.416000000000000E10    1.693147205514833E-4   5.956175737082958E-4  
 2.418000000000000E10    3.152967547066510E-4   2.736226633714978E-5  
 2.420000000000000E10    6.199581548571587E-5  -7.608936721226201E-5  
 2.422000000000000E10   -1.919531787279993E-4  -7.973557512741536E-5  
 2.424000000000000E10    3.164854715578258E-4   1.004624573397450E-4  
 2.426000000000000E10   -2.575168909970671E-4  -4.732063098344952E-5  
 2.428000000000000E10    1.173878481495194E-4   4.774773697135970E-5  
 2.430000000000000E10    5.071221385151148E-4   1.103057802538388E-4  
 2.432000000000000E10    1.128201038227417E-4  -3.947040822822601E-4  
 2.434000000000000E10   -5.953577929176390E-4  -1.427872484782711E-4  
 2.436000000000000E10    1.164126151707023E-4  -7.068092236295342E-5  
 2.438000000000000E10    5.157031700946391E-4  -8.310035627800971E-5  
 2.440000000000000E10    2.087897883029655E-5  -8.831510203890503E-4  
 2.442000000000000E10   -6.823902949690819E-4   6.944905180716887E-5  
 2.444000000000000E10    4.081706356373616E-5   4.693595983553678E-4  
 2.446000000000000E10    6.663080421276391E-4  -1.694612292340025E-4  
 2.448000000000000E10   -2.569678763393313E-4  -6.608060793951154E-4  
 2.450000000000000E10   -5.604937905445695E-4   1.230209727509646E-5  
 2.452000000000000E10   -8.501271804561839E-5   6.331691402010620E-4  
 2.454000000000000E10    4.154824127908796E-4  -5.359807983040810E-5  
 2.456000000000000E10   -2.312427968718112E-4  -5.567769985646009E-4  
 2.458000000000000E10   -4.961469094268978E-4  -7.541850209236145E-5  
 2.460000000000000E10   -1.912273437483236E-4   4.248273908160627E-4  
 2.462000000000000E10    1.426662347512320E-4   4.386580712889554E-6  
 2.464000000000000E10    1.497394259786233E-4   3.371354978298768E-5  
 2.466000000000000E10   -1.218318575411104E-4  -9.821052663028240E-5  
 2.468000000000000E10   -1.283848087041406E-5   7.204291705420474E-6  
 2.470000000000000E10   -3.061088791582733E-4   5.032551707699895E-4  
 2.472000000000000E10    2.383809187449515E-4   1.617015223018825E-4  
 2.474000000000000E10    3.971301484853029E-4  -5.509725815500133E-5  
 2.476000000000000E10   -3.004630561918020E-4  -1.339402633249165E-8  
 2.478000000000000E10   -4.092523595318198E-4   5.600216099992394E-4  
 2.480000000000000E10    3.704088157974184E-4   4.429919354151934E-4  
 2.482000000000000E10    2.322967775398865E-4  -1.450437994208187E-4  
 2.484000000000000E10   -1.479891070630401E-4  -3.318744420539588E-4  
 2.486000000000000E10   -1.455945603083819E-4   5.429236334748566E-4  
 2.488000000000000E10    3.025378973688930E-4   3.966004878748208E-4  
 2.490000000000000E10    5.940938717685640E-4  -1.640683185542002E-4  
 2.492000000000000E10    8.678489393787459E-5  -2.894715580623597E-4  
 2.494000000000000E10   -8.028552838368341E-5   1.652379287406802E-4  
 2.496000000000000E10    2.748252300079912E-4   2.447284059599042E-4  
 2.498000000000000E10    4.708560300059617E-4  -2.271747798658907E-4  
 2.500000000000000E10   -1.094789331546053E-4  -2.563256130088121E-4  
 2.502000000000000E10   -2.720821357797831E-4   8.493648783769459E-5  
 2.504000000000000E10    2.718840260058641E-4   1.606483419891447E-4  
 2.506000000000000E10   -4.183130295132287E-5  -1.511402660980821E-4  
 2.508000000000000E10   -5.944636723143049E-5  -5.561564103118144E-5  
 2.510000000000000E10   -5.458788564283168E-6  -6.387724715750665E-5  
 2.512000000000000E10   -2.087719185510650E-4  -3.109294339083135E-4  
 2.514000000000000E10   -2.080901467707008E-4  -1.038312693708576E-4  
 2.516000000000000E10    1.669650664553046E-4   3.838590419036336E-5  
 2.518000000000000E10    1.364548661513254E-4  -2.753697845037095E-5  
 2.520000000000000E10   -2.887127047870308E-4  -2.221935428678989E-4  
 2.522000000000000E10    8.424963743891567E-5   9.659740317147225E-5  
 2.524000000000000E10    9.516482532490045E-5   1.231019705301151E-4  
 2.526000000000000E10   -1.858163013821468E-4  -2.636210410855711E-4  
 2.528000000000000E10   -3.378367691766471E-4   9.441221482120454E-5  
 2.530000000000000E10   -5.676779437635560E-6   3.928246587747708E-5  
 2.532000000000000E10    1.751815143506974E-4   1.714785757940263E-4  
 2.534000000000000E10   -2.738585753832012E-4  -2.205700438935310E-4  
 2.536000000000000E10   -5.173548561288044E-5  -5.936151865171269E-6  
 2.538000000000000E10    1.033112494042143E-4   3.591416752897203E-4  
 2.540000000000000E10    2.235231659142301E-4  -1.271235087187961E-4  
 2.542000000000000E10   -1.366082869935781E-4  -1.353907719021663E-4  
 2.544000000000000E10   -8.187082858057693E-5   3.180009080097079E-4  
 2.546000000000000E10    6.613610457861796E-5   4.135899944230914E-4  
 2.548000000000000E10    4.495702451094985E-4  -1.411095145158470E-4  
 2.550000000000000E10   -1.779944723239169E-4   7.835571159375832E-5  
 2.552000000000000E10   -3.926196222892031E-5   4.156733630225062E-4  
 2.554000000000000E10    3.971442056354135E-4   2.694209979381412E-4  
 2.556000000000000E10    3.149688127450645E-4  -5.091497587272897E-5  
 2.558000000000000E10   -1.441707572666928E-4  -7.155041203077417E-6  
 2.560000000000000E10   -1.998457009904087E-4   3.486484056338668E-4  
 2.562000000000000E10    4.229924816172570E-4  -5.187285205465742E-5  
 2.564000000000000E10   -1.447055692551658E-4  -4.022782377433032E-4  
 2.566000000000000E10   -1.959772198460996E-4   1.926047989400104E-4  
 2.568000000000000E10    1.428556151950033E-5   4.526367993094027E-4  
 2.570000000000000E10    1.755132689140737E-4  -1.988201693166047E-4  
 2.572000000000000E10   -2.843647089321166E-4  -1.416324666934088E-4  
 2.574000000000000E10   -1.745588961057365E-4  -1.034161050483817E-5  
 2.576000000000000E10    4.051538126077503E-4   1.642318384256214E-4  
 2.578000000000000E10   -9.886287443805486E-5  -3.201724903192371E-4  
 2.580000000000000E10   -1.981738168979064E-4  -1.147264920291491E-4  
 2.582000000000000E10   -4.577102299663238E-5   2.776143373921514E-4  
 2.584000000000000E10   -1.205327521347499E-6  -9.754206257639453E-5  
 2.586000000000000E10   -2.602644672151655E-4  -1.996085920836777E-4  
 2.588000000000000E10   -2.191232633776963E-4   1.749838247633306E-6  
 2.590000000000000E10    5.906976366532035E-5   8.036704093683511E-5  
 2.592000000000000E10    1.693346421234310E-4  -2.526635362301022E-4  
 2.594000000000000E10   -3.769351460505277E-4  -6.059909537725616E-6  
 2.596000000000000E10    2.024175591941457E-5   1.868118706624955E-4  
 2.598000000000000E10    2.506691962480545E-4  -5.251637412584387E-5  
 2.600000000000000E10   -3.722768742591143E-4  -4.653132054954767E-4  
 2.602000000000000E10   -3.279584343545139E-4   8.062017150223255E-5  
 2.604000000000000E10    1.116068779083435E-5   3.451288794167340E-4  
 2.606000000000000E10    3.303088597021997E-4  -6.130280235083774E-5  
 2.608000000000000E10   -1.832331618061289E-4  -1.551895547891036E-4  
 2.610000000000000E10   -2.261269837617874E-4   1.499105655966559E-5  
 2.612000000000000E10    9.772866178536788E-5   4.420107288751751E-4  
 2.614000000000000E10    3.888444625772536E-4  -1.246896135853604E-4  
 2.616000000000000E10    7.593756890855730E-5  -2.635433920659125E-4  
 2.618000000000000E10   -2.956731477752328E-4   2.580031869001687E-4  
 2.620000000000000E10    2.427068538963795E-4   3.890781663358212E-4  
 2.622000000000000E10    3.102444461546838E-4  -8.044744754442945E-5  
 2.624000000000000E10   -1.840640288719442E-5  -8.106004679575563E-5  
 2.626000000000000E10   -7.677084795432165E-5   6.467544153565541E-5  
 2.628000000000000E10   -7.142921731428942E-6   1.877789036370814E-4  
 2.630000000000000E10    1.461750944145024E-4  -4.398217060952447E-5  
 2.632000000000000E10   -1.151518063124968E-5  -3.910870509571396E-5  
 2.634000000000000E10   -2.259613893329515E-6   1.390381476085167E-5  
 2.636000000000000E10    1.027432226692326E-4  -2.529577432142105E-5  
 2.638000000000000E10   -3.193495213054121E-4  -1.201294289785437E-4  
 2.640000000000000E10    1.643928590056021E-5   2.090012421831489E-4  
 2.642000000000000E10    1.358439185423777E-4  -8.805788638710510E-6  
 2.644000000000000E10    2.825527044478804E-4  -1.770825911080465E-4  
 2.646000000000000E10   -3.061392926611006E-4   6.874024256831035E-5  
 2.648000000000000E10    1.922434021253139E-4   3.399422857910395E-4  
 2.650000000000000E10    4.157212388236076E-4   6.615989696001634E-5  
 2.652000000000000E10    9.084642806556076E-5  -1.961021771421656E-4  
 2.654000000000000E10   -1.644663134356961E-4  -1.130811288021505E-4  
 2.656000000000000E10    3.250183362979442E-5   3.305435893707909E-5  
 2.658000000000000E10    1.998938678298146E-4   1.695840328466147E-4  
 2.660000000000000E10    5.804242027807050E-5  -1.746284106047824E-4  
 2.662000000000000E10    8.565067400922999E-5  -2.795358159346506E-5  
 2.664000000000000E10   -1.211878916365095E-4   1.281742356695759E-6  
 2.666000000000000E10    1.962155074579641E-4   5.984459494356997E-5  
 2.668000000000000E10   -6.622532964684069E-5   9.408549885847606E-6  
 2.670000000000000E10    9.731741738505662E-5  -3.542394915712066E-5  
 2.672000000000000E10   -5.278009848552756E-5  -1.044908058247529E-4  
 2.674000000000000E10   -1.334377448074520E-4  -1.980586603167467E-5  
 2.676000000000000E10   -2.901162661146373E-4   1.288640778511763E-4  
 2.678000000000000E10    3.339837130624801E-4  -5.831869202665985E-6  
 2.680000000000000E10   -4.367995279608294E-5  -3.503930565784685E-5  
 2.682000000000000E10   -7.339168951148167E-5  -2.921405539382249E-4  
 2.684000000000000E10    5.218888873059768E-6   3.668974968604744E-4  
 2.686000000000000E10    1.129225274780765E-4  -6.509582453873009E-5  
 2.688000000000000E10    1.367258373647928E-4  -2.721818746067584E-4  
 2.690000000000000E10   -3.691249876283109E-4  -2.166986814700067E-4  
 2.692000000000000E10   -1.665946329012513E-4   5.342425720300525E-5  
 2.694000000000000E10    1.603668060852215E-4  -2.299034349562135E-5  
 2.696000000000000E10   -3.597742397687398E-5  -1.695183746051043E-4  
 2.698000000000000E10   -2.791552396956831E-4  -3.065209893975407E-4  
 2.700000000000000E10    8.072987111518160E-5  -5.459842941490933E-5  
 2.702000000000000E10   -1.163639462902211E-4   1.698206324363127E-4  
 2.704000000000000E10   -1.083521601685789E-5  -5.867802974535152E-5  
 2.706000000000000E10   -2.694419526960701E-5   1.057747576851398E-4  
 2.708000000000000E10   -2.684118226170540E-4   4.157202056376264E-6  
 2.710000000000000E10   -3.020173171535134E-4   2.212019171565771E-5  
 2.712000000000000E10   -1.685182796791196E-4   1.605614961590618E-4  
 2.714000000000000E10   -4.593712947098538E-5   4.780491144629195E-5  
 2.716000000000000E10    1.270237248718331E-6  -6.067075446480885E-5  
 2.718000000000000E10   -1.286670449189842E-4  -1.457695907447487E-4  
 2.720000000000000E10   -2.000941749429330E-4   1.451657881261781E-4  
 2.722000000000000E10    2.322363434359431E-4   1.608342863619328E-4  
 2.724000000000000E10    1.136902792495675E-4  -2.189977822126821E-4  
 2.726000000000000E10   -2.085679734591395E-4  -1.408878451911733E-4  
 2.728000000000000E10   -2.758004411589354E-4   1.162461921921931E-4  
 2.730000000000000E10    2.501211383787449E-5   4.400826292112470E-4  
 2.732000000000000E10    1.690649369265884E-4  -8.513572538504377E-5  
 2.734000000000000E10   -2.005917194765061E-4  -4.486810576054268E-5  
 2.736000000000000E10   -2.880267857108265E-4   2.297389874001965E-4  
 2.738000000000000E10    2.155856491299346E-4   2.393812610534951E-4  
 2.740000000000000E10    2.673782546480652E-5  -1.703404996078461E-4  
 2.742000000000000E10   -3.664919131551869E-5  -1.275895774597302E-4  
 2.744000000000000E10   -2.248153214168269E-5   5.938390586379683E-6  
 2.746000000000000E10    2.686041625565849E-5  -7.891826680861414E-5  
 2.748000000000000E10    3.856919647660106E-5  -1.213638970511966E-4  
 2.750000000000000E10   -1.506133121438325E-4   1.420906628482044E-4  
 2.752000000000000E10    1.188677379104774E-5  -1.111447854782455E-4  
 2.754000000000000E10   -1.007450409815647E-4  -1.612541818758473E-4  
 2.756000000000000E10   -4.654871736420319E-5   1.741429296089336E-4  
