#  HZ   S   RI   R     50.00 
! Rohde & Schwarz ZVA40 4Ports - Version 3.90 - 1145.1110k42 SN: 100403
! Date: 2023-10-04 09:19:33
! Measurement: S12 
! 
 2.200000000000000E10   -4.742650780826807E-4   1.133806472353172E-5  
 2.202000000000000E10    1.069219215423800E-4   4.897196413367055E-5  
 2.204000000000000E10    4.263196606189013E-4   3.060178132727742E-4  
 2.206000000000000E10   -1.083828828996047E-4  -5.502396961674094E-4  
 2.208000000000000E10   -2.167846687370911E-4  -1.814729912439361E-4  
 2.210000000000000E10    2.014640049310401E-4   3.893234534189105E-4  
 2.212000000000000E10    3.261354868300259E-4  -5.367364428821020E-5  
 2.214000000000000E10    2.572891571617220E-5  -2.784408570732921E-4  
 2.216000000000000E10   -6.163944635773078E-5   2.419486918370239E-6  
 2.218000000000000E10   -1.978522050194442E-5   3.583936995710246E-5  
 2.220000000000000E10   -4.958112185704522E-5  -1.341313909506425E-4  
 2.222000000000000E10   -2.109444467350841E-4   7.552273746114224E-5  
 2.224000000000000E10   -1.375896681565791E-4  -2.636656863614917E-4  
 2.226000000000000E10   -6.741515971953049E-5  -2.692095877137035E-4  
 2.228000000000000E10   -2.419933007331565E-4  -4.135765266255476E-5  
 2.230000000000000E10    7.009102409938350E-5   1.772764953784645E-4  
 2.232000000000000E10    1.349399099126458E-4   1.444245572201908E-4  
 2.234000000000000E10    6.700997619191185E-5  -4.659049736801535E-4  
 2.236000000000000E10   -3.370405465830118E-4  -1.742856838973239E-4  
 2.238000000000000E10   -2.518028195481747E-4   2.404858678346500E-4  
 2.240000000000000E10    4.121662932448089E-4   3.975909494329244E-4  
 2.242000000000000E10   -1.538123615318909E-4  -2.990443899761885E-4  
 2.244000000000000E10   -2.718593168538064E-4  -2.590066869743168E-4  
 2.246000000000000E10   -3.141259658150375E-4   5.309060215950012E-4  
 2.248000000000000E10    3.495490818750113E-4   1.584796555107459E-4  
 2.250000000000000E10    3.237440250813961E-5  -3.808634355664253E-4  
 2.252000000000000E10   -3.046517667826265E-4  -3.587228711694479E-4  
 2.254000000000000E10   -1.113742400775664E-4   1.973179460037500E-4  
 2.256000000000000E10    3.720101085491478E-4   1.716792176011950E-4  
 2.258000000000000E10   -1.931847037894841E-8  -1.056143300957046E-4  
 2.260000000000000E10   -2.258414169773459E-4  -2.376805641688407E-4  
 2.262000000000000E10    6.774139183107764E-5   3.115559520665556E-4  
 2.264000000000000E10    8.769460691837594E-5   2.790045400615782E-4  
 2.266000000000000E10    3.459118597675115E-4  -4.204303331789561E-5  
 2.268000000000000E10   -2.636720018927008E-4   1.986753341043368E-4  
 2.270000000000000E10    1.582834520377219E-4   1.275481045013294E-4  
 2.272000000000000E10    1.183997010230087E-4   1.345562195638195E-4  
 2.274000000000000E10   -1.868840045062825E-4   3.712458783411421E-5  
 2.276000000000000E10    1.326712517766282E-4   2.829335862770677E-4  
 2.278000000000000E10    2.634215343277901E-4  -3.494688280625269E-5  
 2.280000000000000E10    4.051627547596581E-5  -2.559971653681714E-5  
 2.282000000000000E10   -1.842697238316760E-4  -4.898183033219539E-5  
 2.284000000000000E10    4.193293279968202E-4   3.024469187948853E-4  
 2.286000000000000E10    1.054533349815756E-4  -2.148796920664609E-4  
 2.288000000000000E10   -1.250455388799310E-4  -3.376443928573281E-4  
 2.290000000000000E10   -1.082170856534503E-4   3.618962946347892E-4  
 2.292000000000000E10    3.684483526740223E-4  -2.716099152166862E-5  
 2.294000000000000E10    1.779957674443722E-4  -4.951576702296734E-4  
 2.296000000000000E10   -2.735612506512553E-4  -1.633005012990907E-4  
 2.298000000000000E10    1.612055348232389E-4   2.735377347562462E-4  
 2.300000000000000E10    3.041377931367606E-4  -1.509693101979792E-4  
 2.302000000000000E10    5.053805944044143E-5  -2.756575995590538E-4  
 2.304000000000000E10   -1.223881990881637E-4   6.880649016238749E-5  
 2.306000000000000E10    1.655814266996458E-4  -3.646532377388212E-6  
 2.308000000000000E10    3.033690882148221E-5  -1.266494655283168E-4  
 2.310000000000000E10   -2.120310091413558E-4  -1.939095091074705E-4  
 2.312000000000000E10    3.424267197260633E-5   8.662704931339249E-5  
 2.314000000000000E10    1.331911480519921E-4  -1.075308682629839E-4  
 2.316000000000000E10    5.230484748608433E-5  -2.242964546894655E-4  
 2.318000000000000E10   -1.945729309227318E-4   1.476340257795528E-4  
 2.320000000000000E10    1.749543007463217E-4   2.152696688426659E-4  
 2.322000000000000E10    2.415246563032270E-4  -4.083252133568749E-5  
 2.324000000000000E10   -2.923785650637001E-4  -9.292312461184338E-5  
 2.326000000000000E10   -8.661882748128846E-5   2.552724909037352E-4  
 2.328000000000000E10    1.537175412522629E-4  -2.464459248585627E-5  
 2.330000000000000E10   -5.395655534812249E-5  -4.383064151625149E-5  
 2.332000000000000E10   -3.483785840217024E-4  -1.132082834374160E-4  
 2.334000000000000E10    8.655233978061006E-5   4.562104295473546E-4  
 2.336000000000000E10    2.889747265726328E-4   1.100249864975922E-4  
 2.338000000000000E10    1.762589527061209E-4  -3.902446478605270E-4  
 2.340000000000000E10   -2.820842491928488E-4   1.823863422032446E-4  
 2.342000000000000E10    1.153195444203448E-5   2.365351101616398E-4  
 2.344000000000000E10    4.053653974551708E-4  -4.772904503624886E-5  
 2.346000000000000E10    1.753282413119450E-4  -4.673838702728972E-5  
 2.348000000000000E10   -3.598568437155336E-4   9.665911784395576E-5  
 2.350000000000000E10    1.770078233676031E-4   2.581875596661121E-4  
 2.352000000000000E10    2.960720739793032E-4   4.080894868820906E-4  
 2.354000000000000E10   -9.632363071432337E-5  -3.933843981940299E-4  
 2.356000000000000E10    1.365392672596499E-4  -5.715260704164393E-5  
 2.358000000000000E10   -3.961920810979791E-5  -7.940034265629947E-5  
 2.360000000000000E10    4.305365437176079E-4  -3.606451718951576E-5  
 2.362000000000000E10    2.599923755042255E-4  -8.817556954454631E-5  
 2.364000000000000E10    1.347505603916943E-4   1.130224918597378E-4  
 2.366000000000000E10    1.485643588239327E-4  -2.477368980180472E-5  
 2.368000000000000E10    1.521395024610683E-4  -1.103732356568798E-4  
 2.370000000000000E10   -1.920321228681132E-4   1.373707200400531E-4  
 2.372000000000000E10    2.404891274636611E-4  -6.760845280950889E-5  
 2.374000000000000E10    1.118477157433517E-4  -2.575105463620275E-4  
 2.376000000000000E10   -1.866756792878732E-4  -2.670926915016025E-4  
 2.378000000000000E10   -1.931602892000228E-4   4.066108376719058E-4  
 2.380000000000000E10    1.879571791505441E-4  -2.323859225725755E-4  
 2.382000000000000E10   -1.322964089922607E-4  -5.286373198032379E-4  
 2.384000000000000E10   -5.081471172161400E-4  -1.583058037795126E-4  
 2.386000000000000E10    8.978012192528695E-5   4.403184575494379E-4  
 2.388000000000000E10    2.924738801084459E-4  -2.028609924309421E-5  
 2.390000000000000E10    2.899192986660637E-5  -3.058172296732664E-4  
 2.392000000000000E10   -3.336991649121046E-4  -6.054533969290787E-6  
 2.394000000000000E10    1.776180288288742E-4   3.695249324664474E-4  
 2.396000000000000E10    2.300417836522684E-4  -2.382667007623240E-4  
 2.398000000000000E10   -1.255488168681040E-4  -3.181869105901569E-4  
 2.400000000000000E10   -3.581511846277863E-4   7.359704341070028E-6  
 2.402000000000000E10    2.977809926960617E-4   2.726974489632994E-4  
 2.404000000000000E10    3.173004952259362E-4  -1.674441591603681E-4  
 2.406000000000000E10   -7.519453356508166E-5  -2.458503586240113E-4  
 2.408000000000000E10   -9.390466584591195E-5   1.738262508297339E-4  
 2.410000000000000E10    4.268909979145974E-4   3.200438513886184E-4  
 2.412000000000000E10    2.913044882006943E-4  -1.803052728064358E-4  
 2.414000000000000E10   -1.283446035813540E-4  -1.555256749270484E-4  
 2.416000000000000E10    1.474766904721037E-4   5.672021652571857E-4  
 2.418000000000000E10    3.397441178094596E-4   4.516089757089503E-5  
 2.420000000000000E10   -1.068397295966861E-6  -2.540860259614419E-5  
 2.422000000000000E10   -9.727128781378269E-5  -8.386632543988526E-5  
 2.424000000000000E10    3.691696329042316E-4  -1.136772698373534E-5  
 2.426000000000000E10   -3.352234198246151E-4   5.082011557533406E-5  
 2.428000000000000E10    1.660159614402801E-4  -1.398999302182347E-5  
 2.430000000000000E10    4.513026215136051E-4   6.390001362888143E-5  
 2.432000000000000E10    5.964704541838728E-5  -4.072084848303348E-4  
 2.434000000000000E10   -5.594173562712967E-4  -1.212127244798467E-4  
 2.436000000000000E10    6.331406621029601E-5  -7.034191366983578E-5  
 2.438000000000000E10    5.078382673673332E-4  -1.556631323182955E-4  
 2.440000000000000E10   -7.113470201147720E-5  -8.103436557576060E-4  
 2.442000000000000E10   -6.500561139546335E-4   7.747706695226952E-5  
 2.444000000000000E10    9.947510989150032E-6   4.735403344966471E-4  
 2.446000000000000E10    6.294136983342469E-4  -1.638959220144898E-4  
 2.448000000000000E10   -2.288652904098854E-4  -7.645360310561955E-4  
 2.450000000000000E10   -5.281470948830247E-4   1.519173747510649E-5  
 2.452000000000000E10   -6.021965600666590E-5   6.439884309656918E-4  
 2.454000000000000E10    3.519842866808176E-4  -1.211194903589785E-4  
 2.456000000000000E10   -1.748262584442273E-4  -6.063813343644142E-4  
 2.458000000000000E10   -4.736017435789108E-4  -1.206244050990790E-4  
 2.460000000000000E10   -2.076966629829258E-4   4.598542291205376E-4  
 2.462000000000000E10    1.053791420417838E-4  -5.901477925362997E-5  
 2.464000000000000E10    1.426783856004477E-4   1.477374753449112E-4  
 2.466000000000000E10   -1.194190772366710E-4  -1.602224365342408E-4  
 2.468000000000000E10   -7.391091639874503E-5   9.356172813568264E-5  
 2.470000000000000E10   -1.943622919498012E-4   5.514341755770147E-4  
 2.472000000000000E10    2.229002711828798E-4   6.030224540154450E-5  
 2.474000000000000E10    4.414439608808607E-4  -7.124468538677320E-5  
 2.476000000000000E10   -3.911918902304024E-4  -7.645491132279858E-5  
 2.478000000000000E10   -3.632052103057504E-4   6.123952334746718E-4  
 2.480000000000000E10    4.277413827367127E-4   4.132715112064034E-4  
 2.482000000000000E10    1.965127739822492E-4  -1.407706440659240E-4  
 2.484000000000000E10   -1.173090859083459E-4  -2.764932869467884E-4  
 2.486000000000000E10   -1.622148993192241E-4   5.385693511925638E-4  
 2.488000000000000E10    2.672738628461957E-4   4.147317958995700E-4  
 2.490000000000000E10    6.422576843760908E-4  -1.107685093302280E-4  
 2.492000000000000E10    6.481906893895939E-5  -3.527153749018908E-4  
 2.494000000000000E10   -9.455885447096080E-5   1.368180382996798E-4  
 2.496000000000000E10    3.025822516065091E-4   2.201873430749402E-4  
 2.498000000000000E10    4.399553290568292E-4  -2.399692748440430E-4  
 2.500000000000000E10   -6.334693898679689E-5  -2.035979414358735E-4  
 2.502000000000000E10   -2.570323995314539E-4   5.279526158119552E-5  
 2.504000000000000E10    2.092800714308396E-4   1.153564589913003E-4  
 2.506000000000000E10   -5.693688581231982E-5  -2.176237612729892E-4  
 2.508000000000000E10   -4.256363899912685E-5  -4.762482785736211E-5  
 2.510000000000000E10   -3.355635999469087E-5  -4.956030170433223E-5  
 2.512000000000000E10   -1.066294789779931E-4  -2.424592676106840E-4  
 2.514000000000000E10   -2.334264427190647E-4  -7.494597230106592E-5  
 2.516000000000000E10    2.019223175011575E-4  -9.615089220460504E-5  
 2.518000000000000E10    1.752567477524281E-4   2.141647200915031E-5  
 2.520000000000000E10   -7.861424819566310E-5  -3.766105219256133E-4  
 2.522000000000000E10    3.727021248778328E-5   1.502464001532644E-4  
 2.524000000000000E10    1.253569644177333E-4   6.842319999122992E-5  
 2.526000000000000E10   -1.313684188062325E-4  -3.497095021884888E-4  
 2.528000000000000E10   -2.671168185770512E-4   8.737538155401126E-5  
 2.530000000000000E10   -2.792702673559688E-7  -6.490584200946614E-5  
 2.532000000000000E10    1.661746355239302E-4   2.063656138489023E-4  
 2.534000000000000E10   -2.219000161858276E-4  -2.146494225598872E-4  
 2.536000000000000E10   -5.663669435307384E-5  -3.412903606658801E-5  
 2.538000000000000E10    7.339802687056363E-5   4.504775570239872E-4  
 2.540000000000000E10    1.312276290263981E-4  -1.742303138598800E-4  
 2.542000000000000E10   -1.687613839749247E-4  -1.453450095141307E-4  
 2.544000000000000E10   -4.210179758956656E-5   2.435150527162477E-4  
 2.546000000000000E10    1.646764430915937E-4   3.416882536839694E-4  
 2.548000000000000E10    3.900982846971601E-4  -1.285557391383918E-5  
 2.550000000000000E10   -1.758399885147810E-4  -3.340425246278755E-5  
 2.552000000000000E10   -7.365056808339432E-5   4.646029265131801E-4  
 2.554000000000000E10    4.660912381950766E-4   3.174360608682036E-4  
 2.556000000000000E10    3.097119333688170E-4  -1.401559275109321E-4  
 2.558000000000000E10   -2.039670798694715E-4   1.379422174068168E-4  
 2.560000000000000E10   -1.935602776939049E-4   3.135595179628581E-4  
 2.562000000000000E10    4.151960019953549E-4   2.755056993919425E-5  
 2.564000000000000E10   -1.544571423437446E-4  -3.677470085676760E-4  
 2.566000000000000E10   -9.509403025731444E-5   2.129097410943359E-4  
 2.568000000000000E10   -2.178367822125438E-6   4.594555939547718E-4  
 2.570000000000000E10    2.130111533915624E-4  -1.606159348739311E-4  
 2.572000000000000E10   -1.811985566746444E-4  -3.236962584196590E-5  
 2.574000000000000E10   -1.966984418686479E-4  -3.783259307965636E-5  
 2.576000000000000E10    3.562514611985534E-4   2.018609375227243E-4  
 2.578000000000000E10   -1.082737344404450E-5  -3.416010586079210E-4  
 2.580000000000000E10   -2.174977853428572E-4  -1.722094893921167E-4  
 2.582000000000000E10   -9.823227446759120E-5   2.000071835936979E-4  
 2.584000000000000E10   -3.608016413636506E-5  -1.964099501492456E-4  
 2.586000000000000E10   -2.585274050943553E-4  -2.149286738131195E-4  
 2.588000000000000E10   -1.882102515082806E-4  -1.343767071375623E-4  
 2.590000000000000E10    3.217579796910286E-5   5.767611582996324E-5  
 2.592000000000000E10    8.024637645576149E-5  -1.910167629830539E-4  
 2.594000000000000E10   -4.040686180815101E-4   8.588124183006585E-5  
 2.596000000000000E10   -3.408200063859113E-5   1.137963190558367E-4  
 2.598000000000000E10    2.055710938293487E-4  -8.775567403063178E-5  
 2.600000000000000E10   -2.272385172545910E-4  -3.778499085456133E-4  
 2.602000000000000E10   -3.306499274913222E-4   6.355905952659668E-6  
 2.604000000000000E10   -1.404930935677839E-5   3.413507074583322E-4  
 2.606000000000000E10    2.859238011296839E-4  -7.349651423282921E-5  
 2.608000000000000E10   -1.656523818382993E-4  -2.434204070596024E-4  
 2.610000000000000E10   -3.191682044416666E-4   1.041942232404836E-4  
 2.612000000000000E10    2.454229688737541E-4   2.952982322312892E-4  
 2.614000000000000E10    3.668331191875041E-4  -1.632279308978468E-4  
 2.616000000000000E10   -2.917180609074421E-5  -1.832357229432091E-4  
 2.618000000000000E10   -2.893155906349421E-4   1.365820644423366E-4  
 2.620000000000000E10    1.987872674362734E-4   4.703660670202225E-4  
 2.622000000000000E10    3.358262474648655E-4  -9.337040683021769E-5  
 2.624000000000000E10   -1.216087403008714E-4  -1.128555049945135E-5  
 2.626000000000000E10   -1.177885133074597E-4  -3.202240986865945E-5  
 2.628000000000000E10    7.580085366498679E-5   3.085248172283173E-4  
 2.630000000000000E10    1.136502542067319E-4  -4.944896136294119E-5  
 2.632000000000000E10    2.403540202067234E-5  -3.162900839015492E-6  
 2.634000000000000E10   -1.434407022316009E-5   4.956298289471306E-5  
 2.636000000000000E10    1.793065457604826E-4  -3.260705170760048E-6  
 2.638000000000000E10   -2.719720359891653E-4  -9.863771992968395E-5  
 2.640000000000000E10   -1.759483711794019E-5   1.812377595342696E-4  
 2.642000000000000E10    1.509060530224815E-4  -5.037552546127699E-5  
 2.644000000000000E10    2.255049330415204E-4  -1.734866527840495E-4  
 2.646000000000000E10   -2.207162760896608E-4   9.469484211876988E-6  
 2.648000000000000E10    2.050599141512066E-4   2.891059848479927E-4  
 2.650000000000000E10    3.098428132943809E-4   5.408829747466371E-5  
 2.652000000000000E10    6.177048635436222E-5  -2.027574082603678E-4  
 2.654000000000000E10   -1.864804071374238E-4  -1.346609788015485E-4  
 2.656000000000000E10   -1.758686994435266E-5   5.629014412988909E-5  
 2.658000000000000E10    1.704130263533443E-4   1.585186837473884E-4  
 2.660000000000000E10    9.595273877494037E-5  -2.631021197885275E-4  
 2.662000000000000E10    4.967343193129636E-5   2.977662370540202E-5  
 2.664000000000000E10   -4.964366235071793E-5   2.958842014777474E-5  
 2.666000000000000E10    3.289752930868417E-4   6.359175313264132E-5  
 2.668000000000000E10   -1.467325637349859E-4   7.527373236371204E-5  
 2.670000000000000E10    8.742234058445320E-5  -1.765762572176755E-4  
 2.672000000000000E10   -9.387228783452883E-5   2.831508027156815E-5  
 2.674000000000000E10   -1.373133563902229E-4  -7.581013051094487E-5  
 2.676000000000000E10   -1.618141977814958E-4   2.178088616346940E-4  
 2.678000000000000E10    3.174724115524441E-4  -9.373506145493593E-6  
 2.680000000000000E10    9.023386519402266E-5  -1.884400990093127E-5  
 2.682000000000000E10   -1.332702231593430E-4  -2.523071016184986E-4  
 2.684000000000000E10    1.137938306783326E-5   3.102902846876532E-4  
 2.686000000000000E10    1.697650441201404E-4  -6.253392348298803E-5  
 2.688000000000000E10    4.147814252064563E-5  -2.623425389174372E-4  
 2.690000000000000E10   -2.807086566463113E-4  -2.119882701663300E-4  
 2.692000000000000E10   -2.578905259724706E-4   2.684684659470804E-5  
 2.694000000000000E10    8.354972669621930E-5  -5.574160240939818E-5  
 2.696000000000000E10    8.996675023809075E-5  -3.620116694946773E-5  
 2.698000000000000E10   -1.060357899405062E-4  -4.714903479907662E-4  
 2.700000000000000E10    4.139281827519881E-6   1.628046811674722E-5  
 2.702000000000000E10   -2.732011853368022E-5   7.176545477705076E-5  
 2.704000000000000E10   -8.965947927208617E-5  -1.284924510400742E-4  
 2.706000000000000E10    2.069794027192984E-5   6.712896720273420E-5  
 2.708000000000000E10   -2.464234421495348E-4  -7.271553477039561E-5  
 2.710000000000000E10   -2.919494290836155E-4   3.119200982837356E-6  
 2.712000000000000E10   -1.767455396475270E-4   2.116096729878336E-4  
 2.714000000000000E10    3.290121821919456E-5   1.195773729705252E-4  
 2.716000000000000E10    1.296136615565047E-4  -1.845309452619404E-4  
 2.718000000000000E10   -1.656048843869939E-4  -1.541282254038379E-4  
 2.720000000000000E10   -6.741939432686195E-5   1.581661053933203E-4  
 2.722000000000000E10    2.925420412793756E-4   1.241132995346561E-4  
 2.724000000000000E10    1.335867564193904E-4  -2.533070219215006E-4  
 2.726000000000000E10   -1.692463702056557E-4  -1.391462283208966E-4  
 2.728000000000000E10   -2.967026666738093E-4   1.118958170991391E-4  
 2.730000000000000E10    1.875863672466949E-4   3.330690087750554E-4  
 2.732000000000000E10    2.115796232828870E-4  -1.717289560474455E-4  
 2.734000000000000E10   -1.591496984474361E-4  -8.103887375909835E-5  
 2.736000000000000E10   -2.237547450931743E-4   1.972381287487224E-4  
 2.738000000000000E10    1.566625142004341E-4   1.560439850436524E-4  
 2.740000000000000E10    4.960459409630857E-5  -1.416739687556401E-4  
 2.742000000000000E10   -9.389497427036986E-5  -2.041257685050368E-4  
 2.744000000000000E10   -1.180746039608493E-4   9.965100616682321E-5  
 2.746000000000000E10   -8.391918527195230E-5  -4.485037061385810E-5  
 2.748000000000000E10   -1.021509378915653E-4  -6.156752351671457E-5  
 2.750000000000000E10   -1.365704956697300E-4   2.263257629238069E-4  
 2.752000000000000E10   -3.629557613749057E-5  -4.326593989389949E-5  
 2.754000000000000E10   -1.339596346952021E-4  -7.014189759502187E-5  
 2.756000000000000E10    5.824901745654643E-5   1.512513117631897E-4  
