#  HZ   S   RI   R     50.00 
! Rohde & Schwarz ZVA40 4Ports - Version 3.90 - 1145.1110k42 SN: 100403
! Date: 2023-10-04 09:19:12
! Measurement: S12 
! 
 2.200000000000000E10   -6.833928055129945E-4  -2.975222887471318E-4  
 2.202000000000000E10   -5.569966106122593E-6   4.608567105606198E-4  
 2.204000000000000E10    5.791730945929885E-4  -4.407957894727588E-4  
 2.206000000000000E10   -1.145431378972717E-4  -6.596645689569414E-4  
 2.208000000000000E10   -6.432490772567689E-4   1.918538619065657E-4  
 2.210000000000000E10    4.427336971275508E-4   1.735985133564100E-4  
 2.212000000000000E10    3.734033671207726E-4  -2.857989456970245E-4  
 2.214000000000000E10   -3.928223450202495E-4  -5.125692696310580E-4  
 2.216000000000000E10   -6.544005827890942E-6   4.794830165337771E-4  
 2.218000000000000E10    3.396821266505867E-4   1.407602685503662E-4  
 2.220000000000000E10    9.988852070819121E-6  -3.140811168123037E-4  
 2.222000000000000E10   -1.644210278755054E-4  -8.839130168780685E-5  
 2.224000000000000E10    1.992978941416368E-4   9.140686415776145E-6  
 2.226000000000000E10   -2.928157664427999E-5  -3.802820865530521E-4  
 2.228000000000000E10   -1.766303175827488E-4  -3.797532117459923E-4  
 2.230000000000000E10   -1.673304213909432E-4   2.965576713904738E-4  
 2.232000000000000E10    1.931684091687203E-4  -2.545900060795248E-4  
 2.234000000000000E10    1.676109095569700E-4  -1.779627200448886E-4  
 2.236000000000000E10   -4.133086185902357E-4  -2.843702386599034E-4  
 2.238000000000000E10   -1.506023545516655E-4   1.948572898982093E-4  
 2.240000000000000E10    1.870984124252573E-4  -5.756751306762453E-6  
 2.242000000000000E10    3.126088995486498E-5  -3.949699748773128E-4  
 2.244000000000000E10   -3.394653031136841E-4  -1.717018494673539E-5  
 2.246000000000000E10   -5.379133654059842E-5   2.298526960657910E-4  
 2.248000000000000E10    1.923908566823229E-4   1.968778087757528E-4  
 2.250000000000000E10   -4.123255052945751E-7  -1.853892754297704E-4  
 2.252000000000000E10   -2.516041859053075E-4   9.189745469484478E-5  
 2.254000000000000E10    4.441119017428719E-5   2.569805365055800E-4  
 2.256000000000000E10    2.780350332614034E-4  -9.193448931910098E-5  
 2.258000000000000E10   -5.528739347937517E-5  -1.320701994700357E-4  
 2.260000000000000E10   -3.988678508903831E-5   4.891092539764941E-4  
 2.262000000000000E10    1.279065763810650E-4  -2.114250819431618E-4  
 2.264000000000000E10   -1.991948693103041E-6  -6.897845742059872E-5  
 2.266000000000000E10   -3.360113769304007E-4   1.700339344097301E-4  
 2.268000000000000E10    3.461053420323879E-4   3.167804388795048E-4  
 2.270000000000000E10    1.771389943314716E-4  -5.662132025463507E-5  
 2.272000000000000E10   -1.231692731380463E-4  -2.971826761495322E-4  
 2.274000000000000E10   -3.048019716516137E-4   4.617170779965818E-4  
 2.276000000000000E10    2.313628210686147E-4   7.455908053088933E-5  
 2.278000000000000E10    3.689461736939848E-4  -2.619755978230387E-4  
 2.280000000000000E10   -4.486932302825153E-4  -2.256743900943548E-4  
 2.282000000000000E10   -3.870415384881198E-4  -1.347624674963299E-5  
 2.284000000000000E10    3.552613197825849E-4   1.667886826908216E-4  
 2.286000000000000E10    1.955084735527635E-4  -2.584835747256875E-4  
 2.288000000000000E10   -4.319316649343818E-4  -1.720172585919499E-4  
 2.290000000000000E10   -1.329665974481031E-4   2.327188703930005E-4  
 2.292000000000000E10    3.456578124314547E-4   3.235747863072902E-5  
 2.294000000000000E10    1.158910308731720E-4  -2.380696969339624E-4  
 2.296000000000000E10   -1.272361987503246E-4  -2.222066686954349E-4  
 2.298000000000000E10   -9.035803668666631E-5   2.078024408547208E-4  
 2.300000000000000E10    7.233527139760554E-5   1.869678817456588E-5  
 2.302000000000000E10   -1.662192807998508E-4   5.426088318927214E-5  
 2.304000000000000E10   -1.945115654962137E-4   5.815405529574491E-5  
 2.306000000000000E10    1.255790702998638E-4   1.800517202354968E-4  
 2.308000000000000E10   -1.443880028091371E-4  -1.136896826210432E-4  
 2.310000000000000E10   -9.733528713695705E-5  -3.172374817950185E-6  
 2.312000000000000E10    1.907714431581553E-5   2.780755748972297E-4  
 2.314000000000000E10    3.990542609244585E-4  -1.948800309037324E-5  
 2.316000000000000E10   -1.867449900601059E-4  -2.708675456233323E-4  
 2.318000000000000E10    6.222182491910644E-6   2.188523794757202E-4  
 2.320000000000000E10    1.840526529122144E-4   2.746499667409807E-4  
 2.322000000000000E10    1.455301826354116E-4  -4.646580782718957E-4  
 2.324000000000000E10   -4.140784440096468E-4   6.087941437726840E-5  
 2.326000000000000E10   -2.106468309648335E-4   5.376395420171320E-4  
 2.328000000000000E10    4.028432886116207E-4  -1.160832907771692E-4  
 2.330000000000000E10   -5.656410212395713E-5  -2.691458794288337E-4  
 2.332000000000000E10   -2.946932218037546E-4   3.861771256197244E-5  
 2.334000000000000E10   -5.229468570178142E-6   3.833637747447938E-4  
 2.336000000000000E10    4.036360478494316E-4   1.012557841022499E-4  
 2.338000000000000E10   -1.938640489242971E-4  -3.818399272859097E-4  
 2.340000000000000E10   -1.200769838760607E-4   2.732439606916159E-4  
 2.342000000000000E10    1.492914743721485E-4   2.353639283683151E-4  
 2.344000000000000E10    3.923819458577782E-4  -2.518562541808933E-4  
 2.346000000000000E10   -6.167290121084079E-5  -1.797784061636776E-4  
 2.348000000000000E10   -2.774667809717357E-4   1.987769792322069E-4  
 2.350000000000000E10    1.633030478842557E-4   2.162825549021363E-4  
 2.352000000000000E10    3.614525776356459E-4  -2.790176949929446E-4  
 2.354000000000000E10   -2.755000605247915E-4  -1.763812520039210E-6  
 2.356000000000000E10   -1.388830132782459E-4  -1.413795689586550E-4  
 2.358000000000000E10   -4.854723010794260E-5   8.803798118606210E-5  
 2.360000000000000E10   -9.632168803364039E-5  -2.491159248165786E-4  
 2.362000000000000E10   -5.389497891883366E-5  -8.755517046665773E-5  
 2.364000000000000E10   -2.964863379020244E-4   2.468705642968416E-4  
 2.366000000000000E10    3.025306505151093E-4  -2.673774433787912E-4  
 2.368000000000000E10   -2.293615398230031E-4   1.487211557105184E-4  
 2.370000000000000E10   -2.880241081584245E-4   2.498342364560813E-4  
 2.372000000000000E10    3.609166888054460E-4   1.141520624514669E-5  
 2.374000000000000E10    8.310295925184619E-6  -3.212120791431516E-4  
 2.376000000000000E10   -5.537581164389849E-4  -8.034689926716965E-6  
 2.378000000000000E10   -1.354524283669889E-4   3.195842436980456E-4  
 2.380000000000000E10    1.418541505699977E-4  -4.119667210034095E-5  
 2.382000000000000E10   -8.920554682845250E-5  -4.505786928348243E-4  
 2.384000000000000E10   -3.263184044044465E-4  -2.279493055539206E-4  
 2.386000000000000E10   -5.379114372772165E-5   3.535643627401441E-4  
 2.388000000000000E10    3.820186830125749E-4  -4.156029535806738E-5  
 2.390000000000000E10    8.197672286769375E-5  -4.581231914926320E-4  
 2.392000000000000E10   -4.473430453799665E-4  -2.407762804068625E-5  
 2.394000000000000E10   -5.627575228572823E-5   4.174066998530179E-4  
 2.396000000000000E10    1.990232267417014E-4   1.046521065291017E-4  
 2.398000000000000E10   -2.081198908854276E-4  -4.350224917288870E-4  
 2.400000000000000E10   -5.150403012521565E-4  -1.433003490092233E-5  
 2.402000000000000E10   -1.865243029897101E-5   2.030703471973538E-4  
 2.404000000000000E10    2.112482034135610E-4  -1.127591531258076E-4  
 2.406000000000000E10   -1.606618752703071E-4   4.191242260276340E-5  
 2.408000000000000E10    2.402857790002599E-4  -1.333052068730467E-6  
 2.410000000000000E10    2.257105734315701E-5   2.685650542844087E-4  
 2.412000000000000E10   -1.639950824028347E-5  -7.466661918442696E-5  
 2.414000000000000E10    3.692989994306117E-4   4.410527762956917E-4  
 2.416000000000000E10    4.006479866802692E-4   5.316733586369082E-5  
 2.418000000000000E10   -2.525612944737077E-4  -4.031017597299069E-4  
 2.420000000000000E10   -4.427444364409894E-4   2.228218363597989E-4  
 2.422000000000000E10    1.688590273261070E-4   4.035635211039335E-4  
 2.424000000000000E10    5.939165130257607E-4  -5.718717002309859E-4  
 2.426000000000000E10   -5.879580203327350E-5  -4.458487092051655E-4  
 2.428000000000000E10   -4.120678640902042E-4   2.627542417030782E-4  
 2.430000000000000E10    5.137687548995018E-4   4.092712770216167E-4  
 2.432000000000000E10    3.665736876428127E-4  -2.070010523311794E-4  
 2.434000000000000E10   -3.857332339975983E-4  -4.142179968766868E-4  
 2.436000000000000E10   -4.631868505384773E-4   3.525279462337494E-4  
 2.438000000000000E10    1.239288831129670E-4   1.400034234393388E-4  
 2.440000000000000E10    3.137982566840947E-4  -4.427183303050697E-4  
 2.442000000000000E10   -5.334893357940018E-4  -2.909898757934570E-4  
 2.444000000000000E10   -3.040094452444464E-4   3.198938793502748E-4  
 2.446000000000000E10    9.069793304661289E-5   8.447326399618760E-5  
 2.448000000000000E10    1.301624433835968E-4  -3.110454708803445E-4  
 2.450000000000000E10   -3.512010734993964E-4  -1.045186145347543E-4  
 2.452000000000000E10   -3.691116580739617E-5   1.851222041295841E-4  
 2.454000000000000E10   -1.410224649589509E-4  -4.446992898010649E-5  
 2.456000000000000E10   -9.523548942524940E-5  -2.158156275982037E-4  
 2.458000000000000E10    1.638996327528730E-4  -5.172995588509366E-5  
 2.460000000000000E10   -2.367221313761547E-4   3.931507671950385E-5  
 2.462000000000000E10   -2.079328405670822E-4  -6.916536221979186E-5  
 2.464000000000000E10    1.501655206084251E-4   3.426641633268446E-4  
 2.466000000000000E10    3.571593551896513E-4   9.825854067457840E-5  
 2.468000000000000E10   -1.266272010980174E-4  -3.403596347197890E-4  
 2.470000000000000E10   -2.170246298192069E-4   5.894612331758253E-5  
 2.472000000000000E10   -7.896622264524922E-5   5.052043707109988E-4  
 2.474000000000000E10    5.453766207210720E-4  -2.250270190415904E-4  
 2.476000000000000E10   -1.313773391302675E-4  -2.917178790085018E-4  
 2.478000000000000E10   -4.755216650664806E-4   9.365632286062464E-5  
 2.480000000000000E10    5.110231577418745E-4   5.275194416753948E-4  
 2.482000000000000E10    4.199700197204948E-4  -1.477947662351653E-4  
 2.484000000000000E10    4.768709186464548E-5  -7.073807064443827E-4  
 2.486000000000000E10   -4.155162896495313E-4   2.779861679300666E-4  
 2.488000000000000E10    3.376920358277857E-4   4.954367759637535E-4  
 2.490000000000000E10    5.767342518083751E-4  -1.611512998351827E-4  
 2.492000000000000E10    3.739856083484483E-6  -4.643837746698409E-4  
 2.494000000000000E10   -2.411835885141045E-4   4.108232678845525E-4  
 2.496000000000000E10    9.894873801385984E-5   3.997482708655298E-4  
 2.498000000000000E10    3.623876546043903E-4   9.861055150395259E-5  
 2.500000000000000E10    1.312634958594572E-5  -2.301207568962127E-4  
 2.502000000000000E10   -1.638412941247225E-4  -6.434873648686335E-5  
 2.504000000000000E10   -2.456750662531704E-4   2.476236550137401E-4  
 2.506000000000000E10    5.773463635705411E-5   1.134552294388413E-4  
 2.508000000000000E10    1.845775113906711E-4   8.922297274693847E-5  
 2.510000000000000E10   -3.748133167391643E-5  -3.612610453274101E-4  
 2.512000000000000E10   -1.887013786472380E-4  -2.065855951514095E-4  
 2.514000000000000E10   -2.302634966326878E-4   2.348370471736416E-4  
 2.516000000000000E10    1.945886906469241E-4   2.390269073657692E-4  
 2.518000000000000E10    2.103580482071266E-4  -2.229924139101058E-4  
 2.520000000000000E10   -6.137306918390095E-4  -2.837628708221018E-4  
 2.522000000000000E10   -3.983346396125853E-4   1.412955462001264E-4  
 2.524000000000000E10    8.230596722569317E-5   8.164472819771618E-5  
 2.526000000000000E10    1.280552824027836E-4  -3.613997832871974E-4  
 2.528000000000000E10   -5.608633509837091E-4  -3.345043805893511E-4  
 2.530000000000000E10   -4.084264801349491E-4   1.363163464702666E-4  
 2.532000000000000E10    2.774256863631308E-4   2.401672682026401E-4  
 2.534000000000000E10    1.043572847265750E-4  -5.841304664500058E-4  
 2.536000000000000E10   -3.648139827419072E-4  -9.248607966583222E-5  
 2.538000000000000E10   -3.420571738388389E-4   1.853472640505061E-4  
 2.540000000000000E10    3.204547101631761E-4   7.361346069956198E-5  
 2.542000000000000E10    2.957940751002752E-6  -2.941556449513882E-4  
 2.544000000000000E10   -1.550557062728331E-4  -6.145974475657567E-5  
 2.546000000000000E10    1.323633914580569E-4   1.458441111026332E-4  
 2.548000000000000E10    3.520256432238966E-4  -1.221566199092194E-4  
 2.550000000000000E10   -1.836433511925861E-4  -1.553243200760335E-4  
 2.552000000000000E10   -8.818440983304754E-5   8.057271770667285E-6  
 2.554000000000000E10    1.661623682593927E-4   1.933852181537077E-4  
 2.556000000000000E10    3.141056367894635E-5  -3.170156924170442E-5  
 2.558000000000000E10   -6.069340815884061E-5  -5.610705920844339E-5  
 2.560000000000000E10    1.297887065447867E-4   2.229104757134337E-5  
 2.562000000000000E10   -5.811610390082933E-5  -1.318218419328332E-4  
 2.564000000000000E10   -6.441302684834227E-5  -2.041170810116455E-4  
 2.566000000000000E10   -6.023451351211406E-5   6.131888221716508E-5  
 2.568000000000000E10   -1.213239102071384E-5  -1.916506444104016E-4  
 2.570000000000000E10    8.175687980838120E-5   1.757927566359285E-5  
 2.572000000000000E10   -1.340690942015499E-4   2.235896536149085E-4  
 2.574000000000000E10    4.358976730145514E-5   6.735908391419798E-5  
 2.576000000000000E10    1.027084945235401E-4  -1.466293178964406E-4  
 2.578000000000000E10   -2.369099820498377E-4  -4.280285429558717E-5  
 2.580000000000000E10   -3.733377670869231E-4   1.626170997042209E-4  
 2.582000000000000E10    2.001795073738322E-4   3.623406810220331E-4  
 2.584000000000000E10    4.964469917467795E-5  -2.846326424332801E-5  
 2.586000000000000E10   -2.686595544219017E-4  -3.044370096176863E-4  
 2.588000000000000E10   -2.711006090976298E-4   5.567819462157786E-4  
 2.590000000000000E10    2.053843054454774E-4   2.603229077067226E-4  
 2.592000000000000E10    1.809525710996240E-4  -2.541010035201907E-4  
 2.594000000000000E10   -3.645886317826808E-4   8.812917076284066E-5  
 2.596000000000000E10   -1.658834953559563E-4   3.693389298859984E-4  
 2.598000000000000E10    3.226434055250138E-4  -3.621670839493163E-5  
 2.600000000000000E10    1.397463438479463E-5  -2.187227364629507E-4  
 2.602000000000000E10   -4.165282298345119E-4  -7.399678725050762E-5  
 2.604000000000000E10    1.726220070850104E-4   2.916941302828491E-4  
 2.606000000000000E10    1.579144445713610E-4   1.386441872455180E-4  
 2.608000000000000E10   -1.458070328226313E-4  -1.252171059604734E-4  
 2.610000000000000E10   -2.226780088676605E-5   2.651846152730286E-4  
 2.612000000000000E10   -6.633018347201869E-5   1.402190682711080E-4  
 2.614000000000000E10    8.777729090070352E-5  -1.644492876948789E-4  
 2.616000000000000E10   -1.090385048883036E-4   7.731044024694711E-5  
 2.618000000000000E10   -3.669653096949332E-6   1.707236660877243E-4  
 2.620000000000000E10    3.989071119576693E-4   3.734301935764961E-5  
 2.622000000000000E10    3.114993887720630E-5  -1.658052497077733E-4  
 2.624000000000000E10   -1.322119787801057E-4   9.059387957677245E-5  
 2.626000000000000E10    1.394727005390450E-4   6.306479190243408E-5  
 2.628000000000000E10    3.326085279695690E-4  -1.346257049590349E-4  
 2.630000000000000E10   -6.499220035038889E-5  -3.209392016287893E-4  
 2.632000000000000E10   -5.561554280575365E-5  -2.176732959924266E-5  
 2.634000000000000E10    1.657390384934843E-4   2.382121419941541E-5  
 2.636000000000000E10    1.643433352001011E-4  -3.270699235145003E-4  
 2.638000000000000E10    5.293167123454623E-5   4.737221752293408E-5  
 2.640000000000000E10   -3.250323061365634E-5   5.509418770088814E-5  
 2.642000000000000E10    2.523246803320944E-4   1.638994726818055E-4  
 2.644000000000000E10    1.185809924209025E-5  -1.336617569904774E-4  
 2.646000000000000E10   -2.092252543661743E-4  -2.840627566911280E-4  
 2.648000000000000E10    3.015604488609824E-5   2.351253351662308E-4  
 2.650000000000000E10    3.380847338121384E-4  -1.264497768715955E-6  
 2.652000000000000E10    9.196031896863133E-5  -1.264445163542405E-4  
 2.654000000000000E10   -2.195708948420361E-4  -1.785099011613056E-4  
 2.656000000000000E10   -2.012158074649051E-4   1.019557457766496E-4  
 2.658000000000000E10    5.043687269790098E-5  -9.938123548636213E-5  
 2.660000000000000E10    1.820140023482963E-4  -1.309947110712528E-4  
 2.662000000000000E10   -2.922075218521059E-4  -3.641442526713945E-5  
 2.664000000000000E10    7.550885493401438E-5   5.987945769447833E-5  
 2.666000000000000E10    1.607767626410350E-4  -8.266400254797190E-5  
 2.668000000000000E10    9.433948434889317E-5  -1.377714797854424E-4  
 2.670000000000000E10   -1.044721138896421E-4   1.537564821774140E-5  
 2.672000000000000E10   -1.699243002803996E-4  -1.278109120903537E-4  
 2.674000000000000E10    8.043672278290615E-5   1.280413562199101E-4  
 2.676000000000000E10   -7.543074752902612E-5  -3.770733746932820E-5  
 2.678000000000000E10   -8.239189628511667E-5  -6.555345316883177E-5  
 2.680000000000000E10    1.017568210954778E-4   1.222520368173719E-4  
 2.682000000000000E10    8.588905620854348E-5  -1.535417832201347E-4  
 2.684000000000000E10   -2.285058435518295E-4   8.034492930164561E-5  
 2.686000000000000E10    2.697461168281734E-4  -6.225720426300541E-5  
 2.688000000000000E10    3.532463551891851E-6  -5.762970249634236E-5  
 2.690000000000000E10   -1.647450117161498E-4  -2.211885730503127E-4  
 2.692000000000000E10   -2.914861252065748E-4   4.389249806990847E-5  
 2.694000000000000E10    1.581142350914888E-5   2.731787571974564E-5  
 2.696000000000000E10    3.432613448239863E-5  -2.209413796663284E-4  
 2.698000000000000E10   -3.075619169976562E-4  -2.480175171513110E-4  
 2.700000000000000E10   -2.361065853619948E-4   1.137074068537913E-4  
 2.702000000000000E10    2.734106383286417E-4   9.259391663363203E-5  
 2.704000000000000E10    2.531646168790758E-4  -2.421283279545605E-4  
 2.706000000000000E10   -2.859029336832464E-4  -1.705703325569630E-4  
 2.708000000000000E10   -2.935818338301033E-4   1.832555135479197E-4  
 2.710000000000000E10    8.574178355047479E-5   1.031372157740407E-4  
 2.712000000000000E10    1.560231794428546E-5   6.919560109963641E-5  
 2.714000000000000E10   -2.583519089967012E-4  -8.645753950986546E-6  
 2.716000000000000E10    1.381267211399972E-4  -5.496418816619553E-5  
 2.718000000000000E10   -1.892488762678113E-5  -8.438685472356156E-5  
 2.720000000000000E10    2.899978790082969E-5  -6.213722372194752E-5  
 2.722000000000000E10   -2.575262624304742E-5  -3.413680315134116E-5  
 2.724000000000000E10    1.398607419105247E-4  -2.576597580628004E-5  
 2.726000000000000E10   -5.402458191383630E-5  -1.123869442380965E-4  
 2.728000000000000E10   -1.609792525414378E-4   1.541894307592884E-4  
 2.730000000000000E10    1.827141386456788E-4   3.313224297016859E-4  
 2.732000000000000E10    2.411264431430027E-4  -8.904424248612486E-6  
 2.734000000000000E10   -1.308140199398622E-4  -3.608390397857875E-5  
 2.736000000000000E10   -3.136884479317814E-4   3.718077496159822E-4  
 2.738000000000000E10    2.885939902625978E-4   1.638285029912368E-4  
 2.740000000000000E10    4.177620576228946E-5   8.071482443483546E-5  
 2.742000000000000E10   -2.282458444824442E-4  -2.185873163398355E-4  
 2.744000000000000E10    6.832661892985925E-5   2.321029569429811E-5  
 2.746000000000000E10   -9.765726645127870E-6   1.992108154809102E-4  
 2.748000000000000E10    9.464500180911273E-5   3.003901383635821E-6  
 2.750000000000000E10    2.411021705484018E-4   1.221887214342132E-4  
 2.752000000000000E10   -6.358167593134567E-5  -1.081332593457773E-4  
 2.754000000000000E10    6.523831689264625E-5   9.829718328546733E-5  
 2.756000000000000E10    2.166863123420626E-4   1.971986057469621E-4  
