#  HZ   S   RI   R     50.00 
! Rohde & Schwarz ZVA40 4Ports - Version 3.90 - 1145.1110k42 SN: 100403
! Date: 2023-10-04 09:03:15
! Measurement: S12 
! 
 2.200000000000000E10   -7.814109558239579E-4  -4.287046613171697E-5  
 2.202000000000000E10   -2.468771126586944E-4   8.134167874231935E-4  
 2.204000000000000E10    7.210330804809928E-4   6.864160241093487E-6  
 2.206000000000000E10   -4.878830513916910E-4  -7.878535543568432E-4  
 2.208000000000000E10   -6.364609580487013E-4   2.494529471732676E-4  
 2.210000000000000E10    8.382825399166904E-6   3.211707517039031E-4  
 2.212000000000000E10    5.335189052857459E-4  -3.741695836652070E-4  
 2.214000000000000E10   -5.178397987037897E-4  -2.333157317480072E-4  
 2.216000000000000E10   -5.040001633460634E-5   2.947033135569654E-5  
 2.218000000000000E10    3.224533866159618E-4   3.631111758295447E-4  
 2.220000000000000E10   -1.997736399061978E-4  -3.175290476065129E-4  
 2.222000000000000E10   -2.206723584095016E-4   1.849186082836241E-4  
 2.224000000000000E10   -3.399953129701316E-5   1.969189470401034E-4  
 2.226000000000000E10    1.553013862576336E-4  -2.262859925394878E-4  
 2.228000000000000E10   -1.464979577576742E-4  -4.772918182425201E-4  
 2.230000000000000E10   -3.755413636099547E-4   3.394838495296426E-5  
 2.232000000000000E10    2.347650006413460E-4   1.980628003366292E-4  
 2.234000000000000E10    5.012603942304850E-4  -4.333748947829008E-4  
 2.236000000000000E10   -4.481701762415469E-4  -2.268992975587025E-4  
 2.238000000000000E10   -1.623019779799506E-4   5.319492192938924E-4  
 2.240000000000000E10    3.606882819440216E-4   4.068239941261709E-4  
 2.242000000000000E10    2.679676690604538E-4  -3.993690188508481E-4  
 2.244000000000000E10   -6.760510732419789E-4  -1.289272331632674E-4  
 2.246000000000000E10   -1.328522048424929E-4   3.910856903530657E-4  
 2.248000000000000E10    4.386701621115208E-4   1.398429012624547E-4  
 2.250000000000000E10    3.470294586804812E-6  -3.443838795647025E-4  
 2.252000000000000E10   -2.230674581369385E-4   3.219174104742706E-4  
 2.254000000000000E10    7.090136932674795E-5   2.254155988339335E-4  
 2.256000000000000E10    3.716438659466803E-4  -1.056364853866398E-4  
 2.258000000000000E10   -2.103118022205308E-4  -9.990792750613764E-5  
 2.260000000000000E10   -1.953973987838253E-4   3.645133110694587E-4  
 2.262000000000000E10    2.896059595514089E-4   1.218182369484566E-4  
 2.264000000000000E10   -2.247248194180429E-4  -2.967522596009076E-4  
 2.266000000000000E10   -3.085068310610950E-4  -3.825126259471290E-5  
 2.268000000000000E10    2.500577538739890E-4   5.304949008859694E-4  
 2.270000000000000E10    2.839460794348270E-4  -1.631563354749233E-4  
 2.272000000000000E10   -4.006557355751284E-5  -1.853544818004593E-4  
 2.274000000000000E10   -3.500960883684456E-4   3.107829543296248E-4  
 2.276000000000000E10    3.780788683798164E-4   2.794522442854941E-4  
 2.278000000000000E10    4.238508699927479E-4  -3.158447216264904E-4  
 2.280000000000000E10   -6.400267920980696E-6  -2.615235571283847E-4  
 2.282000000000000E10   -4.118042415939272E-4   1.327118079643697E-4  
 2.284000000000000E10    4.607358132489026E-4  -1.384497591061518E-4  
 2.286000000000000E10    1.406791125191376E-4  -2.341257495572791E-4  
 2.288000000000000E10   -3.949258243665099E-4  -1.732702658046037E-4  
 2.290000000000000E10    9.322052937932313E-5   3.337085945531726E-4  
 2.292000000000000E10    5.441869725473225E-4  -1.574959314893931E-4  
 2.294000000000000E10    1.069094359991141E-4  -4.423389327712357E-4  
 2.296000000000000E10   -4.028868570458144E-4   3.072056861128658E-4  
 2.298000000000000E10    3.446122864261270E-4   2.762345247901976E-4  
 2.300000000000000E10    4.371191316749901E-4  -3.232622693758458E-4  
 2.302000000000000E10   -5.563959130086005E-4   6.524661330331583E-6  
 2.304000000000000E10   -1.871579006547108E-4   4.748805076815188E-4  
 2.306000000000000E10    4.111189045943320E-4   1.225792220793665E-4  
 2.308000000000000E10   -5.930933548370376E-5  -2.333416923647746E-4  
 2.310000000000000E10   -4.985402920283377E-4  -2.109869528794661E-4  
 2.312000000000000E10    7.664950680918992E-5   2.786342811305076E-4  
 2.314000000000000E10    4.524881951510906E-4  -1.781429600669071E-4  
 2.316000000000000E10   -9.759431850397959E-5  -6.681731902062893E-4  
 2.318000000000000E10   -2.439621603116393E-4   5.063738717581146E-5  
 2.320000000000000E10    2.861382381524891E-4   4.177236405666918E-4  
 2.322000000000000E10    3.541063633747399E-4  -4.321679007261992E-4  
 2.324000000000000E10   -2.996801340486854E-4  -1.302665186813101E-4  
 2.326000000000000E10   -2.638842561282218E-4   3.179410123266280E-4  
 2.328000000000000E10    3.301184624433518E-4   1.033609078149311E-4  
 2.330000000000000E10    5.147943011252210E-5  -3.586261009331793E-4  
 2.332000000000000E10   -3.264559491071850E-4   5.560212957789190E-5  
 2.334000000000000E10    2.585651527624577E-4   2.243984927190468E-4  
 2.336000000000000E10    4.727630002889782E-4  -1.947616838151589E-4  
 2.338000000000000E10   -6.621715147048235E-5  -3.837428230326623E-4  
 2.340000000000000E10   -1.477873593103141E-4   2.493335923645645E-4  
 2.342000000000000E10    2.755034947767854E-4   3.308550221845508E-4  
 2.344000000000000E10    3.373811487108469E-4  -4.219447146169841E-4  
 2.346000000000000E10   -1.417117746314034E-4  -8.824382530292496E-5  
 2.348000000000000E10   -1.914875610964373E-4   1.531463640276343E-4  
 2.350000000000000E10    3.363066934980452E-4   4.835603135688871E-7  
 2.352000000000000E10    1.535227347631007E-4  -3.933941188734025E-4  
 2.354000000000000E10   -2.114119415637106E-4  -1.562344841659069E-4  
 2.356000000000000E10   -7.489596464438364E-5   1.351303508272395E-4  
 2.358000000000000E10    2.070164337055758E-4   3.122791167697869E-5  
 2.360000000000000E10    4.581068424158730E-6  -2.624154440127313E-4  
 2.362000000000000E10   -1.560026721563190E-4   1.391671776218573E-5  
 2.364000000000000E10   -8.203570905607194E-5   1.175703218905255E-4  
 2.366000000000000E10    3.198373306076974E-4  -2.154073590645567E-4  
 2.368000000000000E10   -2.081353741232306E-4  -2.591887023299933E-4  
 2.370000000000000E10   -1.530548324808478E-4   2.103733131662011E-4  
 2.372000000000000E10    3.255585033912212E-4  -8.297063686768524E-6  
 2.374000000000000E10   -1.481154322391376E-5  -4.013985744677484E-4  
 2.376000000000000E10   -5.637668073177338E-4  -3.825266321655363E-5  
 2.378000000000000E10    1.049334241542965E-4   2.889269962906838E-4  
 2.380000000000000E10   -1.325772609561682E-5  -3.339504182804376E-4  
 2.382000000000000E10   -3.754489298444241E-4  -3.305514692328870E-4  
 2.384000000000000E10   -3.264058032073081E-4   2.503056603018194E-4  
 2.386000000000000E10    1.434571186109679E-5   1.487593399360776E-4  
 2.388000000000000E10    3.478508151602000E-4  -3.825917083304375E-4  
 2.390000000000000E10   -4.907223628833890E-4  -2.152047527488321E-4  
 2.392000000000000E10   -3.588941035559401E-5   4.610286850947887E-4  
 2.394000000000000E10    2.785361430142075E-4   4.776717396453023E-4  
 2.396000000000000E10    2.187351055908948E-4  -2.086733147734776E-4  
 2.398000000000000E10   -5.582797457464039E-4  -1.170025825558696E-5  
 2.400000000000000E10   -1.857582683442161E-4   3.439200518187136E-4  
 2.402000000000000E10    5.067728925496340E-4   2.372141461819410E-4  
 2.404000000000000E10    3.592027351260185E-4  -3.363951109349728E-4  
 2.406000000000000E10   -3.490729723125696E-4  -1.368343218928203E-4  
 2.408000000000000E10    1.365977223031223E-4   5.165799520909786E-4  
 2.410000000000000E10    6.358432001434267E-4   7.239136175485328E-5  
 2.412000000000000E10   -3.915203342330642E-5  -4.697030526585877E-4  
 2.414000000000000E10   -1.205656444653869E-4  -5.731236160499975E-5  
 2.416000000000000E10    4.853879363508895E-5   4.756031266879290E-4  
 2.418000000000000E10    2.492321946192533E-4  -3.214451717212796E-4  
 2.420000000000000E10    3.096696673310362E-5  -3.507249130052514E-5  
 2.422000000000000E10   -4.469096311368048E-4   2.404112592557794E-6  
 2.424000000000000E10    5.077745299786329E-4  -1.138291190727614E-4  
 2.426000000000000E10    1.179388709715568E-4  -2.049582981271669E-4  
 2.428000000000000E10   -1.160280589829199E-4  -2.173028624383733E-4  
 2.430000000000000E10    4.007361421827227E-4  -5.990065255900845E-5  
 2.432000000000000E10    1.111120873247273E-4  -1.773335388861597E-4  
 2.434000000000000E10   -2.192176034441218E-4   1.520887326478260E-5  
 2.436000000000000E10    6.473413668572903E-5   1.046643810695969E-4  
 2.438000000000000E10    3.717613872140646E-4  -2.339266648050398E-4  
 2.440000000000000E10   -1.569504238432273E-4  -4.806275537703186E-4  
 2.442000000000000E10   -3.217397024855018E-4   2.174522960558534E-4  
 2.444000000000000E10    3.199796483386308E-4   3.571749548427761E-4  
 2.446000000000000E10    4.806977813132107E-4  -1.931462902575731E-4  
 2.448000000000000E10   -3.839429118670523E-4  -3.730474272742868E-4  
 2.450000000000000E10   -4.645345616154373E-4   1.810287067200989E-4  
 2.452000000000000E10    2.155479742214084E-4   4.576015053316951E-4  
 2.454000000000000E10    3.111181140411645E-4  -1.075641921488568E-4  
 2.456000000000000E10   -4.063749220222235E-4  -3.942800976801664E-4  
 2.458000000000000E10   -2.323848457308486E-4   6.450380897149444E-5  
 2.460000000000000E10    1.629882754059508E-4   5.077129462733865E-4  
 2.462000000000000E10    1.222757855430245E-4  -1.995746570173651E-4  
 2.464000000000000E10    7.974316395120695E-5  -7.796246791258454E-5  
 2.466000000000000E10   -1.893688895506784E-4   1.687550975475460E-4  
 2.468000000000000E10   -9.639684139983729E-5   1.973512407857925E-4  
 2.470000000000000E10    2.446561993565410E-4   2.890084870159626E-4  
 2.472000000000000E10    2.665529609657824E-4  -3.651269362308085E-4  
 2.474000000000000E10   -2.944040716101881E-5   2.210158527304884E-6  
 2.476000000000000E10   -9.352785127703100E-5   1.199379112222232E-4  
 2.478000000000000E10    1.620729599380866E-4   2.167655184166506E-4  
 2.480000000000000E10    5.677402368746698E-4   6.478682189481333E-5  
 2.482000000000000E10    1.312875974690542E-4  -2.320646162843332E-4  
 2.484000000000000E10   -4.479166527744383E-4   4.998557415092364E-5  
 2.486000000000000E10   -3.154718569930992E-6   3.578949545044452E-4  
 2.488000000000000E10    3.267340944148600E-4   9.805746230995283E-6  
 2.490000000000000E10    2.372371964156628E-4  -5.739508778788149E-4  
 2.492000000000000E10   -3.842973674181849E-4  -1.400893379468471E-4  
 2.494000000000000E10   -1.437810278730467E-4   2.398847427684814E-4  
 2.496000000000000E10    6.719572702422738E-4   1.585441932547838E-4  
 2.498000000000000E10    1.979797962121666E-4  -5.229724338278174E-4  
 2.500000000000000E10   -2.322287473361939E-4  -3.012402739841491E-4  
 2.502000000000000E10   -3.664745308924466E-4   2.073563955491409E-4  
 2.504000000000000E10    1.999537053052336E-4   9.088010119739920E-5  
 2.506000000000000E10    3.065510536544025E-4  -1.278874551644549E-4  
 2.508000000000000E10   -2.995911636389792E-4  -2.403524122200906E-4  
 2.510000000000000E10   -3.270282177254558E-4  -2.124691309290938E-5  
 2.512000000000000E10   -3.607714825193398E-5   2.841641799022909E-5  
 2.514000000000000E10    1.192106356029399E-4  -3.925177225028165E-5  
 2.516000000000000E10   -1.143575427704491E-4  -1.639190159039572E-4  
 2.518000000000000E10   -3.619633935159072E-5  -6.289422890404239E-5  
 2.520000000000000E10   -1.057511399267241E-4   3.060966846533120E-4  
 2.522000000000000E10    5.415156192611903E-5  -6.010877768858336E-5  
 2.524000000000000E10    9.645646787248552E-5  -1.998840452870354E-4  
 2.526000000000000E10   -3.541686164680868E-4  -2.254723949590698E-4  
 2.528000000000000E10   -2.801042282953858E-4   2.153247332898900E-4  
 2.530000000000000E10    6.089536782383220E-6   3.395628591533750E-4  
 2.532000000000000E10    3.312446933705360E-4  -2.284606853208970E-5  
 2.534000000000000E10   -2.677332668099552E-4  -2.395465999143198E-4  
 2.536000000000000E10   -4.598336818162352E-4   6.414702511392534E-5  
 2.538000000000000E10    1.844686921685934E-4   5.475190700963140E-4  
 2.540000000000000E10    1.942367816809565E-4  -2.010363095905632E-5  
 2.542000000000000E10   -2.074027870548889E-4  -3.248527646064758E-4  
 2.544000000000000E10   -5.771010764874518E-4   1.856917951954529E-4  
 2.546000000000000E10    2.154320973204449E-4   3.495140990708023E-4  
 2.548000000000000E10    2.673143171705306E-4  -2.563530579209328E-4  
 2.550000000000000E10   -1.987183350138366E-4  -2.635119308251888E-4  
 2.552000000000000E10   -4.089087306056172E-4   2.950349298771471E-4  
 2.554000000000000E10    2.849464653991163E-4   1.589700696058571E-4  
 2.556000000000000E10    2.280654880451039E-4  -2.917605161201209E-4  
 2.558000000000000E10   -3.061532916035503E-4  -2.316519967280328E-4  
 2.560000000000000E10   -1.325462017121026E-5   2.747664984781295E-4  
 2.562000000000000E10    1.267272600671277E-4  -2.080462763842661E-5  
 2.564000000000000E10    1.622330601094291E-4  -2.258360909763724E-4  
 2.566000000000000E10   -9.338528616353869E-5  -1.969968980120029E-5  
 2.568000000000000E10   -1.067708581103943E-4  -6.385808228515089E-5  
 2.570000000000000E10    6.944230699446052E-5   1.373860577587038E-4  
 2.572000000000000E10    6.253710307646543E-5   2.199778973590583E-4  
 2.574000000000000E10    3.056896821362898E-5  -2.673219569260255E-5  
 2.576000000000000E10   -1.914427411975339E-5  -6.777697853976861E-5  
 2.578000000000000E10   -2.422623074380681E-4  -9.542901534587145E-5  
 2.580000000000000E10   -9.664758545113728E-5   1.753678370732814E-4  
 2.582000000000000E10    2.774340391624719E-4   2.667029912117869E-4  
 2.584000000000000E10   -6.933812983334065E-5  -2.043875574599952E-4  
 2.586000000000000E10   -2.175402914872393E-4   6.117727753007785E-5  
 2.588000000000000E10   -9.178841537504923E-6   4.007986281067133E-4  
 2.590000000000000E10    4.745340629597195E-5   2.258857857668772E-4  
 2.592000000000000E10    9.758483429322951E-6  -3.858710406348109E-4  
 2.594000000000000E10   -2.830498851835728E-4   1.569257001392543E-4  
 2.596000000000000E10   -1.003432480501942E-4   3.472590469755232E-4  
 2.598000000000000E10    4.262767615728080E-4   7.593585905851796E-5  
 2.600000000000000E10   -1.477740261179861E-5  -3.251527377869934E-4  
 2.602000000000000E10   -2.406279236311093E-4   9.554061398375779E-5  
 2.604000000000000E10    1.476124889450148E-4   1.213490031659603E-4  
 2.606000000000000E10    2.341946674278006E-4   1.771795359672979E-4  
 2.608000000000000E10   -1.990743912756443E-4   3.108259625150822E-5  
 2.610000000000000E10    7.111550803529099E-5   7.858690514694899E-5  
 2.612000000000000E10    3.347890378790908E-5   1.401321933371946E-4  
 2.614000000000000E10    7.223062857519835E-5  -2.821966518240515E-5  
 2.616000000000000E10    5.846844942425378E-5  -1.751321251504123E-4  
 2.618000000000000E10    1.577122748130933E-5  -2.363869571126998E-4  
 2.620000000000000E10    2.138973068213090E-4   3.485781780909747E-5  
 2.622000000000000E10    1.646157179493457E-4  -1.753747637849301E-4  
 2.624000000000000E10   -1.253156806342304E-4   1.796907163225114E-4  
 2.626000000000000E10    2.188483631471172E-4   3.274741402492509E-7  
 2.628000000000000E10    4.634775905287825E-5   1.694800448603928E-4  
 2.630000000000000E10   -2.731894710450433E-5  -4.907523907604627E-5  
 2.632000000000000E10    1.903838856378570E-4  -8.417158096563071E-5  
 2.634000000000000E10   -2.261605695821345E-4  -1.943896495504305E-4  
 2.636000000000000E10   -7.972945604706183E-5  -1.199373728013597E-4  
 2.638000000000000E10    6.674438918707892E-5   4.448778418009169E-5  
 2.640000000000000E10    2.351795410504565E-4  -1.962933893082663E-4  
 2.642000000000000E10   -1.148266310337931E-4  -2.258816239191219E-4  
 2.644000000000000E10    1.134244375862181E-4   8.276151493191719E-5  
 2.646000000000000E10    3.197627665940672E-5   2.408621949143708E-4  
 2.648000000000000E10    1.367405930068344E-4  -1.891411520773545E-4  
 2.650000000000000E10    1.259853615920292E-5   5.176560807740316E-5  
 2.652000000000000E10   -1.708426279947162E-4  -7.061100041028112E-5  
 2.654000000000000E10    2.027120644925162E-4  -1.468334521632642E-4  
 2.656000000000000E10   -6.136008323665010E-6  -5.464430159918265E-6  
 2.658000000000000E10    1.555001945234835E-4  -1.268125342903659E-4  
 2.660000000000000E10    8.497042290400714E-5  -5.885856444365345E-5  
 2.662000000000000E10   -2.537054824642837E-4   1.689525197434705E-5  
 2.664000000000000E10    2.096881216857582E-4   1.755045959725976E-4  
 2.666000000000000E10    2.593372773844749E-4   7.890312554081902E-5  
 2.668000000000000E10   -1.823107450036332E-4  -2.455320209264755E-4  
 2.670000000000000E10   -2.425399143248797E-4  -6.025466973369476E-6  
 2.672000000000000E10   -6.170322012621909E-5   6.930242670932785E-5  
 2.674000000000000E10    3.583395737223327E-4  -1.343383773928508E-4  
 2.676000000000000E10   -1.572699984535575E-4  -4.336855490691960E-4  
 2.678000000000000E10   -2.702458295971155E-4  -2.946364838862792E-5  
 2.680000000000000E10    3.890582956955768E-5   4.543265094980598E-4  
 2.682000000000000E10    4.735013935714960E-4   5.338970368029550E-5  
 2.684000000000000E10    1.242165017174557E-4  -3.515327116474509E-4  
 2.686000000000000E10   -4.052571021020412E-4  -1.594014756847173E-4  
 2.688000000000000E10    9.629507076169830E-6   2.339362690690905E-4  
 2.690000000000000E10    2.908663191192318E-5   8.367729265046364E-7  
 2.692000000000000E10   -1.212547795148566E-4  -4.277166735846549E-4  
 2.694000000000000E10   -2.767459664028138E-4   5.540130587178282E-5  
 2.696000000000000E10   -4.298337807995267E-5   2.213038678746671E-4  
 2.698000000000000E10    9.758686064742506E-5  -5.579261778621003E-5  
 2.700000000000000E10    3.659370486275293E-5   2.417919313302264E-4  
 2.702000000000000E10    1.010828200378455E-4  -1.034343222272582E-4  
 2.704000000000000E10   -9.745012903294992E-6  -2.356794284423813E-4  
 2.706000000000000E10   -3.997414605692029E-4   3.407483382034116E-5  
 2.708000000000000E10   -4.141405588597991E-5   2.105319581460208E-4  
 2.710000000000000E10    2.243045455543324E-4  -1.215014563058503E-4  
 2.712000000000000E10   -3.228909918107092E-4  -2.931904164142907E-4  
 2.714000000000000E10   -5.245545762591064E-4   8.513079228578135E-5  
 2.716000000000000E10    1.853096473496407E-4   4.959026700817049E-4  
 2.718000000000000E10    4.666825407184660E-4  -2.083469589706510E-4  
 2.720000000000000E10   -4.353580152383074E-6  -3.365149896126241E-4  
 2.722000000000000E10   -2.484561118762940E-4   4.014192090835422E-4  
 2.724000000000000E10    1.591905456734821E-4   1.568898005643860E-4  
 2.726000000000000E10    1.537609059596434E-4  -1.894460147013888E-4  
 2.728000000000000E10   -1.724374014884234E-4  -2.831454039551318E-4  
 2.730000000000000E10   -2.306001551914960E-4   2.405098639428616E-4  
 2.732000000000000E10    1.391279511153698E-4   8.859435911290348E-5  
 2.734000000000000E10    3.771703923121095E-4   5.316452006809413E-5  
 2.736000000000000E10   -5.431921817944385E-5  -2.706221421249211E-4  
 2.738000000000000E10   -1.657606917433441E-4   5.679540845449083E-5  
 2.740000000000000E10   -6.454015965573490E-5   1.817803859012201E-4  
 2.742000000000000E10    1.437871105736122E-5  -1.805765932658687E-4  
 2.744000000000000E10   -2.004682901315391E-4  -9.246632544090971E-5  
 2.746000000000000E10   -1.292357337661088E-4   1.143223344115540E-4  
 2.748000000000000E10    6.776106147299288E-7  -8.764289668761194E-5  
 2.750000000000000E10    1.192720083054155E-4  -2.427215622446965E-5  
 2.752000000000000E10   -2.783447052934207E-5   1.805491338018328E-4  
 2.754000000000000E10    2.175760309910402E-4   8.107024041237310E-5  
 2.756000000000000E10    1.971728925127536E-4   5.208742368267849E-5  
