#  HZ   S   RI   R     50.00 
! Rohde & Schwarz ZVA40 4Ports - Version 3.90 - 1145.1110k42 SN: 100403
! Date: 2023-10-04 09:02:56
! Measurement: S12 
! 
 2.200000000000000E10   -3.770352632272989E-4  -2.570013457443565E-4  
 2.202000000000000E10   -3.854383539874107E-4   5.271362024359405E-4  
 2.204000000000000E10    2.537810942158103E-4   2.984391467180103E-4  
 2.206000000000000E10    1.502515515312553E-4  -2.904063730966300E-4  
 2.208000000000000E10   -1.159805688075721E-4  -1.451618009014055E-4  
 2.210000000000000E10    1.107416755985469E-4   6.238464993657544E-5  
 2.212000000000000E10    2.781870134640485E-4   4.878369509242475E-6  
 2.214000000000000E10    6.248101271921769E-5  -8.509198232786730E-5  
 2.216000000000000E10   -1.826058542064857E-5   4.036771424580365E-4  
 2.218000000000000E10    3.573904104996473E-4  -4.298933617974399E-6  
 2.220000000000000E10   -3.511288959998637E-4  -8.858006185619161E-5  
 2.222000000000000E10   -3.161483036819845E-4   1.997662184294313E-4  
 2.224000000000000E10    3.222365630790591E-4   6.528007797896862E-4  
 2.226000000000000E10    1.861413038568571E-4  -4.844292125198990E-4  
 2.228000000000000E10   -3.024233155883849E-4  -4.748905193991959E-4  
 2.230000000000000E10   -4.187215527053922E-4   6.714008632116020E-4  
 2.232000000000000E10    4.234937368892133E-4   5.314286681823432E-4  
 2.234000000000000E10    2.323477820027620E-4  -5.296621820889413E-4  
 2.236000000000000E10   -4.061810031998903E-4  -3.601685748435557E-4  
 2.238000000000000E10   -2.082409046124667E-4   3.365131851751357E-4  
 2.240000000000000E10    3.340035909786820E-4   2.952641225419939E-4  
 2.242000000000000E10    3.425920149311423E-4  -1.468220143578947E-4  
 2.244000000000000E10   -2.953467192128301E-4  -6.811221828684211E-5  
 2.246000000000000E10   -2.501024573575705E-4   3.817786055151373E-4  
 2.248000000000000E10    3.843794111162424E-4   2.851809549611062E-4  
 2.250000000000000E10    1.736477279337123E-4  -4.955738768330775E-5  
 2.252000000000000E10   -3.004770842380822E-4   5.980835339869373E-5  
 2.254000000000000E10   -9.090857929550111E-5   5.436431456473656E-5  
 2.256000000000000E10    3.411432262510061E-4  -2.786764707707334E-5  
 2.258000000000000E10   -1.525511615909636E-4  -1.936934422701597E-4  
 2.260000000000000E10   -6.973987183300778E-5   1.275260437978432E-4  
 2.262000000000000E10    2.902595733758062E-4   1.592701009940356E-4  
 2.264000000000000E10    4.474207526072860E-4  -3.244545368943363E-4  
 2.266000000000000E10   -4.857275343965739E-4  -1.635157095734030E-4  
 2.268000000000000E10   -5.680934555130079E-5   5.028983578085899E-4  
 2.270000000000000E10    4.617355007212609E-4   1.051763465511613E-4  
 2.272000000000000E10   -4.937517951475456E-5  -3.054917615372688E-4  
 2.274000000000000E10   -4.275644314475358E-4   1.512452145107091E-4  
 2.276000000000000E10    1.644189615035430E-4   5.611511296592653E-4  
 2.278000000000000E10    4.829518147744238E-4  -1.172317133750767E-4  
 2.280000000000000E10   -2.551779034547508E-4  -4.227233584970236E-4  
 2.282000000000000E10   -2.739847986958921E-4   1.028402039082721E-5  
 2.284000000000000E10    3.603301884140819E-4   1.368266093777493E-4  
 2.286000000000000E10    1.363938790746033E-4  -3.711120516527444E-4  
 2.288000000000000E10   -1.460676285205409E-4   1.077507913578302E-4  
 2.290000000000000E10    1.494554308010265E-4   2.221941686002538E-4  
 2.292000000000000E10    1.399829488946125E-4  -1.532912428956479E-4  
 2.294000000000000E10   -1.358756853733212E-4  -3.920361632481217E-4  
 2.296000000000000E10   -1.194456126540899E-4   1.367177173960954E-4  
 2.298000000000000E10    2.606149064376950E-4   2.133328962372616E-4  
 2.300000000000000E10    1.886098325485364E-4  -2.708926622290164E-4  
 2.302000000000000E10   -2.528948825784028E-4  -2.258229797007516E-4  
 2.304000000000000E10   -1.469301514589461E-5   3.759578394237906E-4  
 2.306000000000000E10    2.143155870726332E-4  -3.105742143816315E-5  
 2.308000000000000E10   -5.811190203530714E-5  -3.874170652125031E-4  
 2.310000000000000E10   -5.480196559801698E-4   9.262379899155349E-5  
 2.312000000000000E10   -4.587306466419250E-5   2.880248357541859E-4  
 2.314000000000000E10    4.736275295726955E-4  -8.217136200983077E-5  
 2.316000000000000E10   -3.731368342414498E-4  -3.711500321514905E-4  
 2.318000000000000E10   -3.656399785540998E-4   1.792059774743393E-4  
 2.320000000000000E10    4.095014592166990E-4   2.845768176484853E-4  
 2.322000000000000E10    3.348655591253191E-4  -2.185923513025045E-4  
 2.324000000000000E10   -3.320415271446109E-4  -2.568389463704079E-4  
 2.326000000000000E10   -2.066728047793731E-4   5.973048973828554E-4  
 2.328000000000000E10    1.497863413533196E-4   5.059216346126050E-5  
 2.330000000000000E10   -3.994237340521067E-5  -1.839490287238732E-4  
 2.332000000000000E10   -4.480979696381837E-4   1.706613693386316E-5  
 2.334000000000000E10    8.740663906792179E-5   2.845618000719696E-4  
 2.336000000000000E10    5.029979511164129E-4  -5.283471909933724E-5  
 2.338000000000000E10   -9.591799607733265E-5  -3.444371104706079E-4  
 2.340000000000000E10   -3.602053329814225E-4   1.803217019187287E-4  
 2.342000000000000E10    2.027153968811035E-4   2.418273070361465E-4  
 2.344000000000000E10    2.529102494008839E-4  -2.343429223401472E-4  
 2.346000000000000E10   -1.792008552001789E-4  -4.081378574483097E-4  
 2.348000000000000E10   -2.296593884238973E-4   1.771687821019441E-4  
 2.350000000000000E10    1.983887923415750E-4   8.162987069226801E-5  
 2.352000000000000E10    9.545790817355737E-5  -2.159419091185555E-4  
 2.354000000000000E10   -5.279972683638334E-4  -6.157816096674651E-5  
 2.356000000000000E10    1.814045244827867E-4   9.411749488208443E-5  
 2.358000000000000E10    1.199130128952675E-4  -3.202610241714865E-5  
 2.360000000000000E10   -2.660757745616138E-4  -3.499469603411853E-4  
 2.362000000000000E10    5.203520049690269E-5   1.244850864168257E-4  
 2.364000000000000E10    2.765929966699332E-4   9.499517182121053E-5  
 2.366000000000000E10    1.886226091301069E-4  -3.082713228650391E-4  
 2.368000000000000E10   -1.302215059695300E-5   2.424262202112004E-4  
 2.370000000000000E10   -7.664300210308284E-5   3.591049462556839E-4  
 2.372000000000000E10    3.904289915226400E-4  -2.636433928273618E-4  
 2.374000000000000E10   -1.747275091474876E-4  -3.242153325118125E-4  
 2.376000000000000E10   -5.646886420436204E-4   9.199226042255759E-5  
 2.378000000000000E10    1.122232497436926E-4   5.176397971808910E-4  
 2.380000000000000E10    1.596337388036773E-4   3.826300962828100E-5  
 2.382000000000000E10   -7.285556057468057E-5  -3.770800249185413E-4  
 2.384000000000000E10   -3.893867542501539E-4   6.798267713747919E-5  
 2.386000000000000E10   -6.490139980996901E-7   2.874850470107049E-4  
 2.388000000000000E10    3.145807713735849E-4  -3.980897963629104E-5  
 2.390000000000000E10   -9.992232662625611E-5  -4.547020944301039E-4  
 2.392000000000000E10   -4.145123239140958E-4   2.923735883086920E-4  
 2.394000000000000E10    2.010472817346454E-4   3.132008423563093E-4  
 2.396000000000000E10    3.564011421985924E-4   2.582092929515056E-5  
 2.398000000000000E10   -3.189380804542452E-4   4.714872193289921E-5  
 2.400000000000000E10   -3.472267708275467E-4   4.739529322250746E-5  
 2.402000000000000E10    2.995343675138429E-5   1.404754002578557E-4  
 2.404000000000000E10    2.892019110731781E-4  -1.475699391448870E-4  
 2.406000000000000E10   -1.439040643163025E-4   2.158387942472473E-4  
 2.408000000000000E10    1.037850306602195E-4  -1.413696154486388E-4  
 2.410000000000000E10    4.854942744714208E-5   7.859999459469691E-5  
 2.412000000000000E10   -1.179570244858041E-4  -2.624826447572559E-5  
 2.414000000000000E10    1.944235118571669E-4   1.602206320967525E-4  
 2.416000000000000E10    1.360807509627193E-4  -7.460398774128407E-5  
 2.418000000000000E10   -2.202809992013499E-4  -2.778909984044731E-4  
 2.420000000000000E10   -2.296907332492992E-4   2.997508272528648E-4  
 2.422000000000000E10    4.499365240917541E-5   2.988678752444685E-4  
 2.424000000000000E10    4.396520380396396E-4  -5.227760993875563E-4  
 2.426000000000000E10   -3.730392108991509E-6  -5.529517657123506E-4  
 2.428000000000000E10   -2.316964528290555E-4   3.026778576895595E-4  
 2.430000000000000E10    4.475408641155809E-4   2.548450429458171E-4  
 2.432000000000000E10    4.695841635111719E-4  -4.129332955926657E-4  
 2.434000000000000E10   -4.233881772961468E-4  -4.569873563013971E-4  
 2.436000000000000E10   -4.592534969560802E-4   2.823733375407755E-4  
 2.438000000000000E10    2.488668251316994E-4   2.315038582310081E-4  
 2.440000000000000E10    2.213645930169150E-4  -6.877912674099207E-4  
 2.442000000000000E10   -3.841816505882889E-4  -2.753910375759006E-4  
 2.444000000000000E10   -4.649237962439656E-4   1.421866181772202E-4  
 2.446000000000000E10    1.387487282045186E-5  -1.055566099239513E-4  
 2.448000000000000E10    1.298661227338016E-4  -1.248658954864368E-4  
 2.450000000000000E10   -2.232826955150813E-4  -2.656517899595201E-4  
 2.452000000000000E10   -2.041305997408927E-4  -4.199447721475735E-5  
 2.454000000000000E10   -9.652956214267761E-5   1.329820952378213E-4  
 2.456000000000000E10   -2.369114554312546E-5   3.444564572419040E-5  
 2.458000000000000E10   -1.913006271934137E-4  -4.374794661998749E-5  
 2.460000000000000E10   -2.594595716800541E-4  -1.003451106953435E-4  
 2.462000000000000E10   -1.084573232219555E-4   9.370235056849197E-5  
 2.464000000000000E10    4.567457290249877E-5   3.299383097328246E-4  
 2.466000000000000E10    6.941466563148424E-5  -3.259285222156905E-5  
 2.468000000000000E10   -5.552460424951278E-5  -1.765444321790710E-4  
 2.470000000000000E10   -3.664053801912814E-4   1.349319791188464E-4  
 2.472000000000000E10   -1.215475567732938E-4   2.535399107728154E-4  
 2.474000000000000E10    4.715250979643315E-4  -1.273835223400965E-4  
 2.476000000000000E10   -2.205497548857238E-5  -2.706091618165374E-4  
 2.478000000000000E10   -6.016153492964804E-4   2.334076998522505E-4  
 2.480000000000000E10    2.067505265586078E-4   3.107046359218657E-4  
 2.482000000000000E10    1.740669249556959E-4   2.115650568157435E-4  
 2.484000000000000E10   -2.278443571412936E-5  -3.905383055098355E-4  
 2.486000000000000E10   -3.083259507548064E-4   8.876996434992179E-5  
 2.488000000000000E10    1.322908792644739E-4   1.540607190690935E-4  
 2.490000000000000E10    3.696302592288703E-4   1.493515883339569E-4  
 2.492000000000000E10    1.666632670094259E-5  -4.185704747214913E-4  
 2.494000000000000E10   -8.770056592766196E-5   1.682475267443806E-4  
 2.496000000000000E10   -1.333876280114055E-4   2.410316956229508E-4  
 2.498000000000000E10    3.016975824721158E-4   3.691878227982670E-4  
 2.500000000000000E10    1.299732539337128E-4  -2.701423363760114E-4  
 2.502000000000000E10   -7.631216476511327E-7  -2.798257628455758E-4  
 2.504000000000000E10   -2.978882403112948E-4   2.398803480900824E-4  
 2.506000000000000E10    2.016924117924646E-4  -2.668924753379542E-5  
 2.508000000000000E10    3.477378340903670E-4  -1.815905998228118E-4  
 2.510000000000000E10    4.547347634797916E-5  -3.192235308233649E-4  
 2.512000000000000E10   -2.191940875491127E-4  -1.489401038270444E-4  
 2.514000000000000E10    2.310417767148465E-5   2.719702606555075E-4  
 2.516000000000000E10    2.967316540889442E-4   3.040737356059253E-4  
 2.518000000000000E10    2.591821539681405E-4  -4.024087102152407E-4  
 2.520000000000000E10   -3.752817865461111E-4  -9.532472176942974E-5  
 2.522000000000000E10   -2.085982559947297E-4   4.272432124707848E-4  
 2.524000000000000E10    2.181347954319790E-4   3.715348793775775E-5  
 2.526000000000000E10    3.534841744112782E-5  -2.597452257759869E-4  
 2.528000000000000E10   -3.000233555212617E-4  -1.724242320051417E-4  
 2.530000000000000E10   -2.763177326414734E-4   1.766161440173164E-4  
 2.532000000000000E10    3.247941494919360E-4   4.772272368427366E-4  
 2.534000000000000E10    3.464555193204433E-4  -3.416204417590052E-4  
 2.536000000000000E10   -6.470363587141037E-5  -1.191033079521731E-4  
 2.538000000000000E10   -2.899223763961345E-4   3.564419166650623E-4  
 2.540000000000000E10    3.259893273934722E-4   3.246507549192756E-4  
 2.542000000000000E10    3.047453355975449E-4   4.821693437406793E-5  
 2.544000000000000E10   -4.404225819598651E-6  -1.965914998436347E-4  
 2.546000000000000E10   -3.256062336731702E-4  -1.922502451634500E-5  
 2.548000000000000E10    1.718744751997292E-4   3.313998458907008E-4  
 2.550000000000000E10    1.570529566379264E-4   8.874397462932393E-5  
 2.552000000000000E10    1.212648348882794E-4  -3.398243861738592E-4  
 2.554000000000000E10   -6.968115485506132E-5   9.176199091598392E-5  
 2.556000000000000E10   -2.781594521366060E-4   2.606598136480898E-4  
 2.558000000000000E10    2.849197189789265E-4   1.923257223097608E-4  
 2.560000000000000E10    1.779788872227073E-4  -2.626692876219750E-4  
 2.562000000000000E10   -8.178871939890087E-5  -2.619916922412813E-4  
 2.564000000000000E10   -2.351998700760305E-4   8.252925908891484E-5  
 2.566000000000000E10    1.221299899043515E-4   1.486524852225557E-4  
 2.568000000000000E10    3.149677067995071E-4  -2.685422077775002E-4  
 2.570000000000000E10    1.443271903553978E-4  -3.963571507483721E-4  
 2.572000000000000E10   -1.649505429668352E-4   1.475076860515401E-4  
 2.574000000000000E10    2.522290742490441E-4   2.390898735029623E-4  
 2.576000000000000E10    4.181410768069327E-4  -3.168464754708111E-4  
 2.578000000000000E10   -2.520726702641696E-4  -1.736287231324241E-4  
 2.580000000000000E10   -5.111123318783939E-4   2.680614707060158E-4  
 2.582000000000000E10    3.783017164096236E-4   2.116866671713069E-4  
 2.584000000000000E10    2.815343395923264E-5  -3.302679688204080E-4  
 2.586000000000000E10   -2.985462779179215E-4  -2.937618119176477E-4  
 2.588000000000000E10   -6.131669942988083E-5   9.402407158631831E-5  
 2.590000000000000E10    9.885849431157112E-5   4.044651359436102E-5  
 2.592000000000000E10    2.487196761649102E-4   2.181490526709240E-5  
 2.594000000000000E10    5.594691174337640E-5  -1.599102688487619E-4  
 2.596000000000000E10   -9.045511251315475E-5   2.049088216153905E-4  
 2.598000000000000E10    3.356162551426678E-6   1.009673724183813E-4  
 2.600000000000000E10    1.310760853812099E-4   1.609340870345477E-5  
 2.602000000000000E10   -9.864338062470779E-5  -1.777902361936867E-4  
 2.604000000000000E10   -1.852960558608174E-4  -1.608423044672236E-4  
 2.606000000000000E10   -1.460519706597552E-4   2.260665060020983E-4  
 2.608000000000000E10   -1.530257577542216E-5   1.084506438928656E-4  
 2.610000000000000E10    9.872832742985338E-5  -3.449622090556659E-5  
 2.612000000000000E10   -9.169656550511718E-5  -1.749489165376872E-4  
 2.614000000000000E10   -1.941768277902156E-4   7.499436469515786E-5  
 2.616000000000000E10    4.445864760782570E-5   2.523944422136992E-4  
 2.618000000000000E10    1.513550814706832E-4  -2.471329571562819E-5  
 2.620000000000000E10   -1.304116885876283E-4  -3.728892479557544E-4  
 2.622000000000000E10   -4.285133327357471E-4   1.148284718510695E-4  
 2.624000000000000E10    1.293325185542926E-4   2.478101814631373E-4  
 2.626000000000000E10    8.907276787795126E-5  -1.216932578245178E-4  
 2.628000000000000E10    1.869625339168124E-5  -3.707560535985977E-4  
 2.630000000000000E10   -1.317304850090295E-4   9.326686995336786E-5  
 2.632000000000000E10   -6.671027949778363E-5   1.600426621735096E-4  
 2.634000000000000E10    4.114744660910219E-4  -1.066510012606159E-4  
 2.636000000000000E10   -9.711841266835108E-5  -1.555311464471743E-4  
 2.638000000000000E10   -3.271517343819141E-4  -4.958432691637427E-5  
 2.640000000000000E10    1.523128303233534E-4   2.551855577621609E-4  
 2.642000000000000E10   -6.186330665514106E-6   4.489146704145242E-6  
 2.644000000000000E10   -2.863759436877444E-5  -1.473510019422974E-5  
 2.646000000000000E10   -1.757361897034571E-4   6.606990064028651E-5  
 2.648000000000000E10   -3.288403968326747E-5   7.916259346529841E-5  
 2.650000000000000E10    7.352307147812098E-5  -1.380751200485975E-4  
 2.652000000000000E10    1.196414741571061E-4   2.959759876830503E-5  
 2.654000000000000E10   -2.369512185396161E-5  -1.792160037439317E-4  
 2.656000000000000E10   -2.455202047713101E-4  -5.138570850249380E-5  
 2.658000000000000E10   -8.720791811356321E-5   1.722024899208918E-4  
 2.660000000000000E10    1.768010406522080E-4   1.567703002365306E-4  
 2.662000000000000E10   -1.521701924502850E-4  -1.599910174263641E-4  
 2.664000000000000E10   -2.010248572332785E-4   3.703641777974553E-5  
 2.666000000000000E10   -2.079772275465075E-5   1.624953874852508E-4  
 2.668000000000000E10    9.327191219199449E-5   2.161086013074964E-4  
 2.670000000000000E10   -3.192807780578733E-4  -1.633727806620300E-4  
 2.672000000000000E10   -3.290178137831390E-4   1.119233638746664E-4  
 2.674000000000000E10    4.665975211537443E-5   3.307898587081581E-4  
 2.676000000000000E10    1.952548191184178E-4  -1.135146376327612E-4  
 2.678000000000000E10   -1.020282434183173E-4  -1.527133717900142E-4  
 2.680000000000000E10   -8.834712934913114E-5   2.293694560648873E-4  
 2.682000000000000E10    2.946826571132988E-4   1.666800089878961E-4  
 2.684000000000000E10    1.273146190214902E-4  -1.509402936790139E-4  
 2.686000000000000E10   -8.129015623126179E-5   7.980621012393385E-5  
 2.688000000000000E10   -1.113464604713954E-4   2.975089046231005E-5  
 2.690000000000000E10   -1.210980917676352E-4   4.144276317674667E-5  
 2.692000000000000E10   -2.355728502152488E-4   4.605844151228666E-5  
 2.694000000000000E10    8.568767952965573E-5   1.849887194111943E-4  
 2.696000000000000E10   -8.047586015891284E-5  -1.492584124207497E-4  
 2.698000000000000E10   -2.583461755421013E-4  -7.663096766918898E-6  
 2.700000000000000E10    1.554162881802768E-4   2.495527733117342E-4  
 2.702000000000000E10    4.471279098652303E-4   9.227731061400846E-5  
 2.704000000000000E10    1.596630136191379E-5  -2.451383043080568E-4  
 2.706000000000000E10   -2.697899180930108E-4   7.714956882409751E-5  
 2.708000000000000E10   -7.891311543062329E-5   2.703076752368361E-4  
 2.710000000000000E10    4.444657533895224E-4   2.339663624297828E-4  
 2.712000000000000E10   -7.734098289802205E-6  -1.527267595520243E-4  
 2.714000000000000E10   -3.555716830305755E-4  -1.048545382218435E-4  
 2.716000000000000E10    2.638450314407237E-5   3.599325136747211E-4  
 2.718000000000000E10    5.405382253229618E-4   1.034524757415056E-4  
 2.720000000000000E10    8.432591130258516E-5  -3.544507198967040E-4  
 2.722000000000000E10   -3.514552954584360E-4  -1.953397440956906E-4  
 2.724000000000000E10   -1.726311456877738E-4   5.143687594681978E-4  
 2.726000000000000E10    2.855620405171067E-4   6.963418854866177E-5  
 2.728000000000000E10   -7.472929428331554E-5  -2.481595147401094E-4  
 2.730000000000000E10   -3.049327642656863E-4   4.904301385977306E-5  
 2.732000000000000E10    3.772496711462736E-5   3.887964703608304E-4  
 2.734000000000000E10    2.219331363448873E-4   1.041775176418014E-4  
 2.736000000000000E10    1.184529901365750E-5  -2.341860999877099E-5  
 2.738000000000000E10   -2.410903252894059E-4   1.658772816881537E-5  
 2.740000000000000E10   -3.849245331366547E-5   3.955491411034018E-5  
 2.742000000000000E10   -1.124815316870809E-4   1.355581480311230E-5  
 2.744000000000000E10    6.109029345680028E-5   3.211740704500699E-6  
 2.746000000000000E10    1.723495370242745E-4  -1.166248694062233E-4  
 2.748000000000000E10   -6.974596180953085E-5  -7.851130067138001E-5  
 2.750000000000000E10   -4.178635663265595E-6   1.880097079265397E-5  
 2.752000000000000E10    2.016265934798867E-4   1.866687380243093E-4  
 2.754000000000000E10    1.804129424272105E-4   1.182623091153801E-4  
 2.756000000000000E10    2.082674473058432E-4  -1.546478451928124E-4  
