#  HZ   S   RI   R     50.00 
! Rohde & Schwarz ZVA40 4Ports - Version 3.90 - 1145.1110k42 SN: 100403
! Date: 2023-10-04 09:02:38
! Measurement: S12 
! 
 2.200000000000000E10    3.635435859905556E-5   4.436400195118040E-4  
 2.202000000000000E10    1.333299442194402E-4   3.705200215335935E-4  
 2.204000000000000E10    2.324021770618856E-4  -2.869126328732818E-4  
 2.206000000000000E10   -3.786242450587452E-4  -1.116986459237523E-4  
 2.208000000000000E10   -2.741797516137012E-6   2.665750507730991E-4  
 2.210000000000000E10    2.472143387421966E-4   1.143539338954724E-5  
 2.212000000000000E10    4.945601103827357E-4  -3.804783045779914E-4  
 2.214000000000000E10   -4.226460296195000E-4  -1.616085355635732E-4  
 2.216000000000000E10   -3.861137520289049E-5   2.615860430523753E-4  
 2.218000000000000E10    5.496458034031093E-4   1.708928903099150E-4  
 2.220000000000000E10    1.506597327534109E-4  -4.452992288861424E-4  
 2.222000000000000E10   -4.019385378342122E-4  -1.444284407625673E-5  
 2.224000000000000E10   -4.624072462320328E-4   6.452844827435911E-4  
 2.226000000000000E10    3.203719388693571E-4   2.025024878093973E-4  
 2.228000000000000E10    1.050507635227405E-4  -6.305622518993914E-4  
 2.230000000000000E10   -3.611586580518633E-4  -1.731957163428888E-4  
 2.232000000000000E10   -2.366134431213141E-4   4.826082440558821E-4  
 2.234000000000000E10    6.408336339518428E-4  -1.014216195471818E-5  
 2.236000000000000E10    9.331322507932782E-5  -4.012162098661065E-4  
 2.238000000000000E10   -4.474233719520271E-4  -2.330066636204720E-4  
 2.240000000000000E10   -1.255761744687334E-4   5.950865452177823E-4  
 2.242000000000000E10    1.627709425520152E-4   1.017114700516686E-4  
 2.244000000000000E10   -3.467345595709048E-5  -3.761809493880719E-4  
 2.246000000000000E10   -1.153230041381903E-4   5.570691428147256E-5  
 2.248000000000000E10   -2.039051469182596E-4   2.183974575018510E-4  
 2.250000000000000E10    1.649966725381091E-5   1.153503471869044E-4  
 2.252000000000000E10   -1.563632540637627E-4   9.341324766865000E-5  
 2.254000000000000E10    8.913183410186321E-5   3.879045834764838E-5  
 2.256000000000000E10   -3.361049948580330E-6  -1.180760446004570E-4  
 2.258000000000000E10   -2.635474666021764E-4   1.199904460236212E-7  
 2.260000000000000E10   -6.234207103261724E-5   3.949346428271383E-4  
 2.262000000000000E10    4.317804996389896E-4  -4.049883500556462E-5  
 2.264000000000000E10    2.424978265480604E-5  -2.270179538754746E-4  
 2.266000000000000E10   -3.612998698372394E-4  -1.070956568582915E-4  
 2.268000000000000E10    8.057310333242640E-5   4.903729422949255E-4  
 2.270000000000000E10    3.735257487278432E-4  -1.960158806468826E-5  
 2.272000000000000E10    2.511507773306221E-4  -3.415200335439295E-4  
 2.274000000000000E10   -6.266457494348288E-4  -2.312489959876984E-5  
 2.276000000000000E10   -5.714693543268368E-5   4.360467719379813E-4  
 2.278000000000000E10    4.149685846641660E-4   6.568829849129543E-5  
 2.280000000000000E10    1.883014338091016E-4  -3.817421384155750E-4  
 2.282000000000000E10   -2.851807221304625E-4  -1.095713523682207E-4  
 2.284000000000000E10    4.060394530824851E-6   8.153299131663516E-5  
 2.286000000000000E10    3.298417723271996E-4  -2.586779555713292E-5  
 2.288000000000000E10   -7.085481774993241E-5  -2.875578938983381E-4  
 2.290000000000000E10   -2.983199665322900E-4   1.978122018044815E-4  
 2.292000000000000E10   -3.707121550178272E-6   1.311485102633014E-4  
 2.294000000000000E10    2.609367220429704E-5  -3.103962226305157E-4  
 2.296000000000000E10   -2.421655517537147E-4   5.864271224709228E-5  
 2.298000000000000E10    1.339447044301778E-4   5.721983688999899E-5  
 2.300000000000000E10    1.098546199500561E-4  -2.327891561435536E-4  
 2.302000000000000E10   -5.051002372056246E-4  -3.072295512538403E-4  
 2.304000000000000E10   -2.296162565471605E-4   4.591027100104839E-4  
 2.306000000000000E10    3.417214902583510E-4   1.832462294260040E-4  
 2.308000000000000E10   -1.096490668714978E-4  -3.702960384543985E-4  
 2.310000000000000E10   -5.565609899349511E-4  -2.211468963650987E-4  
 2.312000000000000E10   -1.757246063789353E-4   5.250728572718799E-4  
 2.314000000000000E10    4.562067042570561E-4  -2.354541211389005E-4  
 2.316000000000000E10   -1.379367458866909E-4  -4.779946466442198E-4  
 2.318000000000000E10   -2.630585513543338E-4  -9.855709504336119E-5  
 2.320000000000000E10    4.588699448504485E-5   2.178843424189836E-4  
 2.322000000000000E10    3.969053504988551E-4   3.257608113926835E-5  
 2.324000000000000E10   -1.425339996785624E-5  -1.231282658409327E-4  
 2.326000000000000E10   -1.220370613737032E-4   3.045193443540484E-4  
 2.328000000000000E10    1.148000374087133E-4   8.880843961378560E-5  
 2.330000000000000E10   -1.398047752445564E-4  -7.681777788093314E-5  
 2.332000000000000E10   -1.819450990296900E-4  -7.031731365714222E-5  
 2.334000000000000E10    2.283628709847108E-4  -1.088146309484728E-4  
 2.336000000000000E10   -1.445973248337396E-5  -3.341522533446550E-4  
 2.338000000000000E10    2.080945250781952E-6  -7.248528709169477E-5  
 2.340000000000000E10    2.160692565666977E-5   2.847301075235009E-4  
 2.342000000000000E10    9.760195825947449E-5   8.169376815203577E-5  
 2.344000000000000E10   -5.542962753679603E-5  -1.525146653875709E-4  
 2.346000000000000E10   -4.049991548527032E-4   1.450170530006290E-4  
 2.348000000000000E10   -5.412878090282902E-5   2.801727969199419E-4  
 2.350000000000000E10    6.753084744559601E-5  -2.122367441188544E-4  
 2.352000000000000E10   -3.975708023062907E-5  -2.981366124004126E-4  
 2.354000000000000E10   -3.255145275034010E-4   2.227847435278818E-4  
 2.356000000000000E10    1.076484404620715E-4   9.136314474744722E-5  
 2.358000000000000E10    2.459640381857753E-4  -3.407923795748502E-4  
 2.360000000000000E10   -1.776028948370367E-4  -3.856973489746451E-4  
 2.362000000000000E10   -2.430705353617668E-5   2.354890784772579E-5  
 2.364000000000000E10    2.303863147972152E-4  -3.410248609725386E-5  
 2.366000000000000E10    9.090623643714935E-5  -4.171734035480768E-4  
 2.368000000000000E10   -8.460339449811727E-5  -1.432208518963307E-4  
 2.370000000000000E10   -8.928856550483033E-5   1.472484000260010E-4  
 2.372000000000000E10    1.312852546107024E-4   9.673514432506636E-5  
 2.374000000000000E10   -4.198097303742543E-5  -2.825685369316489E-4  
 2.376000000000000E10   -3.460443986114115E-4  -8.931064076023176E-5  
 2.378000000000000E10   -1.684136368567124E-4   1.348623336525634E-4  
 2.380000000000000E10   -1.774389602360316E-5  -1.127782888943330E-4  
 2.382000000000000E10   -3.733234188985080E-4  -2.466641017235816E-4  
 2.384000000000000E10   -2.450342290103436E-4  -2.778986527118832E-4  
 2.386000000000000E10    1.010161868180148E-4   2.551605939515866E-5  
 2.388000000000000E10    9.256386874767486E-6   6.904707788635278E-6  
 2.390000000000000E10   -7.454476144630462E-5   1.852739806054160E-4  
 2.392000000000000E10    4.297362465877086E-5   8.270759281003848E-5  
 2.394000000000000E10   -9.498144936515018E-5  -1.395992003381252E-4  
 2.396000000000000E10   -3.020453441422433E-4   2.959566481877118E-4  
 2.398000000000000E10   -5.882449841010384E-5  -3.606485552154481E-5  
 2.400000000000000E10    7.959178765304387E-5  -3.105427895206958E-4  
 2.402000000000000E10   -1.593429042259231E-4  -2.269671531394124E-4  
 2.404000000000000E10   -1.619259710423648E-4   1.724610192468390E-4  
 2.406000000000000E10    7.797186117386445E-5   7.273841038113460E-5  
 2.408000000000000E10    1.870292035164312E-4  -8.284484647447243E-5  
 2.410000000000000E10   -1.416782324668020E-4   1.669454068178311E-4  
 2.412000000000000E10   -2.944084699265659E-4  -1.253103255294263E-4  
 2.414000000000000E10    1.204501531901769E-4   3.650148573797196E-4  
 2.416000000000000E10    3.370212507434189E-4  -1.284425961785018E-4  
 2.418000000000000E10   -1.471923897042871E-4  -3.816624230239540E-4  
 2.420000000000000E10   -3.841463476419449E-4   1.992090401472524E-4  
 2.422000000000000E10    1.823089551180601E-4   4.040781641378999E-4  
 2.424000000000000E10    3.448562929406762E-4   6.457966810557991E-5  
 2.426000000000000E10   -9.161310299532488E-5  -4.676088283304125E-4  
 2.428000000000000E10   -3.006156475748867E-4   2.166140620829538E-4  
 2.430000000000000E10    4.170754400547594E-4   4.838791792280972E-4  
 2.432000000000000E10    3.989172982983291E-4  -3.785367007367313E-4  
 2.434000000000000E10   -1.284301833948121E-4  -3.224646206945181E-4  
 2.436000000000000E10   -1.338361762464047E-4   1.270015345653519E-4  
 2.438000000000000E10    1.469549752073363E-4   3.021584416273981E-4  
 2.440000000000000E10    1.325546181760728E-4  -8.712114504305646E-5  
 2.442000000000000E10   -5.221766332397237E-5  -1.833419955801219E-4  
 2.444000000000000E10    2.989887616422493E-5   1.601487747393549E-5  
 2.446000000000000E10   -2.948806795757264E-4  -7.515372271882370E-5  
 2.448000000000000E10   -9.976418368751183E-5   1.396644220221788E-4  
 2.450000000000000E10    1.318232389166951E-4   4.004251604783349E-5  
 2.452000000000000E10    5.794188109575771E-5  -4.559198278002441E-4  
 2.454000000000000E10   -2.476264780852944E-4  -1.188690366689116E-4  
 2.456000000000000E10   -6.744526035618037E-5   2.747889666352421E-4  
 2.458000000000000E10    4.074168391525745E-4   2.850946621038020E-4  
 2.460000000000000E10    1.556143542984501E-4  -3.121877089142799E-4  
 2.462000000000000E10   -2.610922965686768E-4  -2.695613075047731E-4  
 2.464000000000000E10   -1.899571943795309E-4   4.771489184349775E-4  
 2.466000000000000E10    1.922773808473721E-4   1.739100698614493E-4  
 2.468000000000000E10    2.690723340492696E-4  -2.770224527921528E-4  
 2.470000000000000E10   -3.178635088261217E-4  -3.107679658569396E-4  
 2.472000000000000E10   -1.644903386477381E-4   3.386322059668601E-4  
 2.474000000000000E10    2.304927766090259E-4   5.247842636890709E-4  
 2.476000000000000E10    2.514130028430373E-4  -2.205150522058830E-4  
 2.478000000000000E10   -2.582532943051774E-6   2.447376027703285E-5  
 2.480000000000000E10   -3.165215020999312E-4   2.061735867755488E-4  
 2.482000000000000E10    3.234736796002835E-4   3.880486474372447E-4  
 2.484000000000000E10    1.778586738510057E-4  -2.094215160468593E-4  
 2.486000000000000E10   -1.689794589765370E-5  -2.560741850174964E-4  
 2.488000000000000E10   -1.891567808343098E-5   2.517139182600658E-5  
 2.490000000000000E10    1.329607039224356E-4   2.299852931173518E-4  
 2.492000000000000E10    3.181376960128546E-4   3.031862142961472E-4  
 2.494000000000000E10    3.524541098158807E-4  -1.170443501905538E-4  
 2.496000000000000E10    1.311837149842177E-5  -4.934713433613069E-5  
 2.498000000000000E10   -1.291476364713162E-4  -2.671533547982108E-5  
 2.500000000000000E10   -5.035927188146161E-6   3.559425531420857E-4  
 2.502000000000000E10    1.678482367424294E-4  -7.875908340793103E-5  
 2.504000000000000E10    3.749682946363464E-5  -3.972030826844275E-4  
 2.506000000000000E10   -3.081072354689241E-4   1.834197319112718E-4  
 2.508000000000000E10    7.729931530775502E-5   4.851067205891013E-4  
 2.510000000000000E10    4.420430341269821E-4  -3.187199399690144E-5  
 2.512000000000000E10   -1.364883792120963E-4  -3.156093007419258E-4  
 2.514000000000000E10   -3.588268591556698E-4  -4.184410499874502E-6  
 2.516000000000000E10    8.534869994036853E-5   4.258608678355813E-4  
 2.518000000000000E10    2.550823555793613E-4  -1.569563901284710E-4  
 2.520000000000000E10    1.395699509885162E-4  -2.484098076820374E-4  
 2.522000000000000E10   -2.447497972752899E-4  -7.239700062200427E-5  
 2.524000000000000E10    3.670655496534891E-5   2.726738457567990E-4  
 2.526000000000000E10    1.331825478700921E-4   2.489603939466178E-4  
 2.528000000000000E10    2.142129524145275E-4  -3.736164071597159E-4  
 2.530000000000000E10   -1.641956041567028E-4   1.072679733624682E-4  
 2.532000000000000E10   -2.280499174958095E-4   2.002496476052329E-4  
 2.534000000000000E10    1.252561633009464E-4   4.172013723291457E-4  
 2.536000000000000E10    1.634312793612480E-4  -2.163900062441826E-4  
 2.538000000000000E10   -1.064807656803168E-5  -1.580849202582613E-4  
 2.540000000000000E10   -3.310411120764911E-4   3.736038052011281E-4  
 2.542000000000000E10    2.732938155531883E-4   1.448461262043566E-4  
 2.544000000000000E10    3.323974669910967E-4  -5.515721204574220E-5  
 2.546000000000000E10   -1.148426235886291E-5  -4.567093274090439E-4  
 2.548000000000000E10   -1.240234851138666E-4  -6.602095527341589E-5  
 2.550000000000000E10    2.400312041572761E-5   2.504850272089243E-4  
 2.552000000000000E10    5.145885515958071E-4   7.904315862106159E-5  
 2.554000000000000E10    2.534846134949476E-4  -5.084517179057002E-4  
 2.556000000000000E10   -3.620466450229287E-4  -2.208327496191487E-4  
 2.558000000000000E10   -2.343663654755801E-4   3.449349314905703E-4  
 2.560000000000000E10    3.278346848674119E-4   3.110170364379883E-4  
 2.562000000000000E10    1.821028708945960E-4  -5.737030296586454E-4  
 2.564000000000000E10   -4.937373450957239E-4  -2.989961649291217E-4  
 2.566000000000000E10   -3.364587901160121E-4   3.534131974447519E-4  
 2.568000000000000E10    3.527422086335719E-4   9.456936095375568E-5  
 2.570000000000000E10    2.785722026601434E-4  -3.227786219213158E-4  
 2.572000000000000E10   -4.234703083056957E-4  -2.218107256339863E-4  
 2.574000000000000E10   -2.177402056986466E-4   6.773379573132843E-5  
 2.576000000000000E10    3.075673594139516E-4   6.891306111356244E-5  
 2.578000000000000E10   -2.859504093066789E-5  -1.520545047242194E-4  
 2.580000000000000E10   -2.203903859481216E-4  -2.641249157022685E-4  
 2.582000000000000E10   -2.172920067096129E-4   1.136117498390377E-4  
 2.584000000000000E10   -1.661332353251055E-4   3.440227883402258E-4  
 2.586000000000000E10    3.231034788768739E-4  -3.067336001549847E-5  
 2.588000000000000E10   -1.086552729248069E-4  -8.903718844521791E-5  
 2.590000000000000E10   -3.741633554454893E-4  -1.480498613091186E-4  
 2.592000000000000E10   -7.321913290070370E-5   1.920730574056506E-4  
 2.594000000000000E10    1.848308893386275E-4   3.222624363843352E-4  
 2.596000000000000E10    1.883147197077051E-4  -3.482642932794988E-4  
 2.598000000000000E10   -1.425887312507257E-4  -1.289044157601893E-4  
 2.600000000000000E10   -3.097270673606545E-4   5.144043825566769E-4  
 2.602000000000000E10    1.997168728848919E-4   2.379392244620249E-4  
 2.604000000000000E10    2.580020227469504E-4  -6.129723624326289E-5  
 2.606000000000000E10   -2.597126003820449E-4  -1.830267137847841E-5  
 2.608000000000000E10   -4.173446504864842E-4   2.461014955770224E-4  
 2.610000000000000E10    3.287831787019968E-4   3.189531853422523E-4  
 2.612000000000000E10    1.668553886702284E-4  -5.084459553472698E-5  
 2.614000000000000E10   -1.289525971515104E-4  -2.386876003583893E-4  
 2.616000000000000E10   -5.108527329866774E-5   3.577363386284560E-4  
 2.618000000000000E10    2.773410524241626E-4   1.643287832848728E-4  
 2.620000000000000E10    1.489651913288981E-4   2.333200939119706E-7  
 2.622000000000000E10   -2.971817448269576E-4   4.473523586057127E-5  
 2.624000000000000E10   -5.645866622217000E-6   1.848463871283457E-4  
 2.626000000000000E10    2.258608583360910E-4   1.601268304511905E-4  
 2.628000000000000E10    1.121223795053083E-5   1.327601930825040E-4  
 2.630000000000000E10   -1.920198847074062E-4   1.427610186510719E-5  
 2.632000000000000E10    1.934494794113562E-4  -6.913617107784376E-5  
 2.634000000000000E10   -1.779253943823278E-4   9.677448542788625E-5  
 2.636000000000000E10   -4.601469117915258E-5  -1.974300103029236E-4  
 2.638000000000000E10   -1.449705723644001E-5   1.119643638958223E-4  
 2.640000000000000E10    8.189497020794079E-5  -1.331221283180639E-4  
 2.642000000000000E10    5.196216807235032E-5   1.610588515177369E-5  
 2.644000000000000E10   -1.336280402028933E-4   8.199996227631345E-5  
 2.646000000000000E10    1.458414044464007E-4  -7.962673407746479E-5  
 2.648000000000000E10    1.377651205984876E-4   1.101505949918646E-5  
 2.650000000000000E10   -2.952901704702526E-4   2.259335306007415E-4  
 2.652000000000000E10   -4.805034404853359E-5   2.215869753854349E-4  
 2.654000000000000E10    2.637933066580445E-4  -1.978923828573898E-4  
 2.656000000000000E10   -2.278236934216693E-4  -3.429618955124170E-4  
 2.658000000000000E10   -3.746438305824995E-4   9.938505536410958E-5  
 2.660000000000000E10    2.280808548675850E-4   3.821438585873693E-4  
 2.662000000000000E10    4.088315763510764E-4  -2.071698399959132E-4  
 2.664000000000000E10   -1.954391045728698E-4  -3.195333410985768E-4  
 2.666000000000000E10   -1.637808309169486E-4   2.956138923764229E-4  
 2.668000000000000E10    1.898832124425098E-4   2.529367629904300E-4  
 2.670000000000000E10    2.462425909470767E-4  -3.740497922990471E-4  
 2.672000000000000E10   -2.693434071261436E-4  -2.442763943690807E-4  
 2.674000000000000E10   -2.990558277815580E-4   7.960493530845270E-5  
 2.676000000000000E10    1.213714131154120E-4   2.152807137463242E-4  
 2.678000000000000E10    2.234133717138320E-4  -1.750481897033751E-5  
 2.680000000000000E10    1.903237352962606E-5  -1.744128239806742E-4  
 2.682000000000000E10   -8.842271199682728E-5  -1.586065482115373E-4  
 2.684000000000000E10    6.824317551945569E-6   7.969373109517619E-5  
 2.686000000000000E10    2.601400192361325E-4  -5.740754932048731E-5  
 2.688000000000000E10    5.564718230743893E-5  -2.461132826283574E-4  
 2.690000000000000E10   -1.370087557006627E-4  -8.851660822983831E-5  
 2.692000000000000E10   -8.886367140803486E-5   2.094854280585423E-4  
 2.694000000000000E10    4.976185664418154E-5   1.527231652289629E-4  
 2.696000000000000E10    2.057739911833778E-4   7.530732546001673E-5  
 2.698000000000000E10   -1.797424920368940E-4  -1.542013633297756E-4  
 2.700000000000000E10   -1.745338231557980E-4   1.425549562554807E-4  
 2.702000000000000E10    8.118781261146069E-5   2.857860235963017E-4  
 2.704000000000000E10    1.817443553591147E-4  -5.204451736062765E-5  
 2.706000000000000E10    3.435313192312606E-5  -1.128102449001744E-4  
 2.708000000000000E10   -3.003190213348717E-4   1.460401545045897E-4  
 2.710000000000000E10    4.030864874948748E-5   3.996710584033281E-4  
 2.712000000000000E10    1.189602262456901E-4   8.985600288724527E-5  
 2.714000000000000E10   -1.418162082700292E-5  -1.450099807698280E-4  
 2.716000000000000E10   -2.293067082064226E-4   1.560272503411397E-4  
 2.718000000000000E10   -1.439313346054405E-4   2.260292530991137E-4  
 2.720000000000000E10    1.889898703666404E-4  -1.118172804126516E-4  
 2.722000000000000E10   -5.523678919416852E-5  -2.674167335499078E-4  
 2.724000000000000E10   -3.735503123607487E-4  -1.343494222965092E-4  
 2.726000000000000E10   -3.845579703920521E-5   2.096855459967628E-4  
 2.728000000000000E10   -1.443293585907668E-4   2.165390760637820E-4  
 2.730000000000000E10    3.227749402867630E-5  -5.214502380113117E-5  
 2.732000000000000E10    6.405208841897547E-5  -1.242237703991123E-5  
 2.734000000000000E10   -2.217023429693654E-4   1.626905577722937E-4  
 2.736000000000000E10    1.214191215694882E-4   2.323229709872976E-4  
 2.738000000000000E10    3.378547262400389E-5  -1.754423719830811E-4  
 2.740000000000000E10   -9.333698835689575E-5   1.226432650582865E-4  
 2.742000000000000E10   -4.550900121103041E-5   9.624479571357369E-5  
 2.744000000000000E10    1.806610671337694E-4  -3.249522706028074E-5  
 2.746000000000000E10    4.847667514695786E-5  -2.177892383770086E-5  
 2.748000000000000E10    4.076557524967939E-5  -4.575115599436685E-5  
 2.750000000000000E10   -2.348187445022631E-5   5.637930007651448E-5  
 2.752000000000000E10    1.150110474554822E-4   4.103286846657284E-5  
 2.754000000000000E10    1.529363798908889E-4   1.798063749447465E-4  
 2.756000000000000E10    1.992337638512254E-4  -9.415110253030434E-5  
