#  HZ   S   RI   R     50.00 
! Rohde & Schwarz ZVA40 4Ports - Version 3.90 - 1145.1110k42 SN: 100403
! Date: 2023-10-04 09:02:23
! Measurement: S12 
! 
 2.200000000000000E10   -3.379396221134812E-4  -2.306003007106483E-4  
 2.202000000000000E10   -3.074116830248386E-4   2.537069667596370E-4  
 2.204000000000000E10    2.099367411574349E-4  -3.724746420630254E-5  
 2.206000000000000E10    9.250411494576838E-7  -4.828442979487591E-5  
 2.208000000000000E10   -3.878519055433571E-5   1.817515658331104E-5  
 2.210000000000000E10    2.908685710281134E-4  -2.461751282680780E-4  
 2.212000000000000E10    1.704169844742864E-4   2.220460009993985E-4  
 2.214000000000000E10   -7.794100383762270E-5  -2.216916618635878E-4  
 2.216000000000000E10    1.939096400747076E-4  -1.367719814879820E-4  
 2.218000000000000E10   -7.740771980024874E-5  -1.373443810734898E-4  
 2.220000000000000E10    3.261303209001198E-5  -1.698865962680429E-4  
 2.222000000000000E10   -1.172922129626386E-4   1.346666795143392E-5  
 2.224000000000000E10    6.623961235163733E-5   8.224523480748758E-5  
 2.226000000000000E10    1.204558066092432E-4  -4.047124821227044E-4  
 2.228000000000000E10   -2.938201578217559E-5  -3.048920771107078E-4  
 2.230000000000000E10    6.509371451102197E-5  -3.162262873956934E-5  
 2.232000000000000E10    2.236556028947234E-4  -1.505654072389007E-4  
 2.234000000000000E10    1.476116594858468E-4  -3.219751815777272E-4  
 2.236000000000000E10   -3.365411830600351E-4  -2.715619048103690E-4  
 2.238000000000000E10   -7.915695459814742E-5   2.116493269568309E-4  
 2.240000000000000E10    4.031048156321049E-4   2.411283203400672E-4  
 2.242000000000000E10    1.144853158621118E-4  -5.412474856711924E-4  
 2.244000000000000E10   -3.717021900229156E-4  -2.165559708373621E-4  
 2.246000000000000E10   -1.701139117358252E-4   1.893765147542581E-4  
 2.248000000000000E10    4.841510672122240E-4  -2.494210093573201E-5  
 2.250000000000000E10    1.565993443364278E-4  -3.782247076742351E-4  
 2.252000000000000E10   -4.748475912492722E-4  -6.922794273123145E-5  
 2.254000000000000E10   -7.353490946115926E-5   4.343247564975172E-4  
 2.256000000000000E10    6.564735667780042E-4   8.366596011910588E-5  
 2.258000000000000E10    1.656953099882230E-4  -4.461178032215685E-4  
 2.260000000000000E10   -3.889030485879630E-4  -1.550232263980433E-4  
 2.262000000000000E10   -3.819953053607605E-5   5.078855901956558E-4  
 2.264000000000000E10    3.805564774665982E-4   1.392250414937735E-4  
 2.266000000000000E10    1.640337868593633E-4  -1.723033346934244E-4  
 2.268000000000000E10   -2.665055799297988E-4  -8.641113709018100E-6  
 2.270000000000000E10    1.912669540615752E-4   1.323508477071300E-4  
 2.272000000000000E10   -1.962676651601214E-5  -4.662069113692269E-5  
 2.274000000000000E10    4.789010745298583E-6   1.631915802136064E-4  
 2.276000000000000E10    2.522110589779913E-4   1.066784170689061E-4  
 2.278000000000000E10    4.360497041488998E-5  -5.719958062400110E-5  
 2.280000000000000E10   -1.574871384946164E-5   2.717585266509559E-5  
 2.282000000000000E10   -5.855392737430520E-5  -1.832724592532031E-5  
 2.284000000000000E10    3.416107501834631E-4   3.014764899944566E-7  
 2.286000000000000E10    4.055722092743963E-5  -4.291194200050086E-4  
 2.288000000000000E10   -4.032923316117376E-4  -1.600943651283160E-4  
 2.290000000000000E10    6.252047023735941E-5   8.272172271972522E-5  
 2.292000000000000E10    4.392185364849865E-4   2.282542300235946E-5  
 2.294000000000000E10    4.724036443803925E-6  -2.794663305394352E-4  
 2.296000000000000E10   -1.956802734639496E-4  -1.557848736410961E-4  
 2.298000000000000E10   -1.543806429253891E-4   3.951150865759701E-4  
 2.300000000000000E10    2.667110238689929E-4   2.899915562011302E-4  
 2.302000000000000E10   -1.074648098438047E-4  -1.390256511513144E-4  
 2.304000000000000E10   -8.375208562938497E-5   2.408951404504478E-4  
 2.306000000000000E10   -2.199673326686025E-5   1.248311746167019E-4  
 2.308000000000000E10    1.723551831673831E-4  -6.364566070260480E-5  
 2.310000000000000E10   -1.106772251660004E-4  -6.680760998278856E-5  
 2.312000000000000E10    6.566147931152955E-5   1.095995248761028E-4  
 2.314000000000000E10    3.419580170884728E-4  -2.612811840663198E-5  
 2.316000000000000E10   -2.179508301196620E-4  -7.993886538315564E-5  
 2.318000000000000E10   -7.547571294708177E-5   2.869333256967366E-4  
 2.320000000000000E10    2.193747641285881E-4   1.201114791911095E-4  
 2.322000000000000E10    4.595536302076653E-5  -2.789704012684524E-4  
 2.324000000000000E10   -8.789614366833121E-5  -1.928133133333176E-4  
 2.326000000000000E10   -2.777600311674178E-4   4.129274457227439E-4  
 2.328000000000000E10    4.793351399712265E-4   6.930702511454001E-5  
 2.330000000000000E10    2.115551615133882E-4  -2.483897551428527E-4  
 2.332000000000000E10   -2.430980821372941E-4   8.353467273991555E-5  
 2.334000000000000E10    1.164271670859307E-4   1.976947096409276E-4  
 2.336000000000000E10    2.638851292431355E-4  -7.702794391661882E-5  
 2.338000000000000E10    1.038834889186546E-4  -1.875579255283810E-5  
 2.340000000000000E10   -2.660886093508452E-4  -2.991356632264797E-5  
 2.342000000000000E10    3.771730698645115E-4   1.779720478225499E-4  
 2.344000000000000E10    2.484189753886312E-4  -1.287346094613895E-4  
 2.346000000000000E10    2.714470319915563E-4  -2.551357465563342E-5  
 2.348000000000000E10   -1.378576707793400E-4   1.750361989252269E-4  
 2.350000000000000E10    2.312869619345292E-4  -2.982046135002747E-5  
 2.352000000000000E10   -4.825670475838706E-5   9.542951011098921E-5  
 2.354000000000000E10   -2.377206255914643E-4   1.285595208173618E-4  
 2.356000000000000E10   -7.184745481936261E-5   1.928498822962865E-4  
 2.358000000000000E10    2.040732397290412E-5  -1.997314393520355E-4  
 2.360000000000000E10   -6.916115671629086E-5   8.685006469022483E-5  
 2.362000000000000E10    1.355556887574494E-4  -7.680040289415047E-5  
 2.364000000000000E10    1.410339609719813E-4  -7.212842319859192E-5  
 2.366000000000000E10   -2.906690860982053E-5  -1.036544490489177E-4  
 2.368000000000000E10    1.931364568008576E-5   8.307696407428011E-5  
 2.370000000000000E10    1.953427708940581E-4   2.156764094252139E-4  
 2.372000000000000E10    2.114330163749401E-5  -1.367349759675562E-4  
 2.374000000000000E10   -1.938439381774515E-4  -1.186350709758699E-4  
 2.376000000000000E10   -1.672233192948625E-4  -7.730976358288899E-5  
 2.378000000000000E10    1.213953582919203E-4   5.153559686732478E-5  
 2.380000000000000E10    1.061696893884800E-4  -2.114896051352844E-4  
 2.382000000000000E10   -3.458003629930317E-4   3.353966167196631E-5  
 2.384000000000000E10   -1.009587958833436E-5   1.848435349529609E-4  
 2.386000000000000E10    1.665478630457074E-4   7.554743933724240E-5  
 2.388000000000000E10   -9.010910434881225E-5  -2.842918038368225E-4  
 2.390000000000000E10   -2.203649492003024E-4   1.195849399664439E-4  
 2.392000000000000E10    2.278968458995223E-4   1.717225495667663E-5  
 2.394000000000000E10    1.573147601448000E-4   3.918386937584728E-5  
 2.396000000000000E10   -3.940164242521860E-5  -2.648967201821506E-4  
 2.398000000000000E10   -1.941105292644352E-4   1.657325628912076E-4  
 2.400000000000000E10    1.197648307424970E-4   1.188404858112335E-4  
 2.402000000000000E10    1.027753387461416E-4  -2.459652314428240E-4  
 2.404000000000000E10   -6.371337076416239E-5  -7.151063618948683E-5  
 2.406000000000000E10   -1.900519418995827E-4   8.635372068965808E-5  
 2.408000000000000E10    1.519174256827682E-4   1.012281863950193E-4  
 2.410000000000000E10    1.148732117144391E-4  -1.528099237475544E-4  
 2.412000000000000E10   -6.907392526045442E-5   8.545409218640998E-5  
 2.414000000000000E10   -6.911287073307904E-6   4.901845841231989E-6  
 2.416000000000000E10   -9.896447591017932E-5   3.784658838412724E-5  
 2.418000000000000E10   -7.774090045131743E-5   6.987888627918437E-5  
 2.420000000000000E10    1.233926886925474E-4   3.729181480593979E-5  
 2.422000000000000E10   -1.872137509053573E-4  -1.094212930183858E-4  
 2.424000000000000E10   -1.102120149880648E-4  -2.344609238207340E-4  
 2.426000000000000E10    2.195377310272306E-4   7.822427141945809E-5  
 2.428000000000000E10    2.806872362270951E-4   7.928437844384462E-5  
 2.430000000000000E10    5.116591346450150E-4  -2.947894099634141E-4  
 2.432000000000000E10   -2.221747272415087E-4  -1.532282622065395E-4  
 2.434000000000000E10   -2.191165185649879E-5   1.461861938878428E-5  
 2.436000000000000E10    1.856889139162377E-4   8.976895333034918E-5  
 2.438000000000000E10    7.123139221221209E-5  -5.077481037005782E-4  
 2.440000000000000E10   -2.508827019482851E-4  -5.607174825854600E-4  
 2.442000000000000E10   -4.446040547918528E-4   3.168989496771246E-4  
 2.444000000000000E10    3.386076132301241E-4   1.319501898251474E-4  
 2.446000000000000E10    2.103022852679715E-4  -6.588306277990341E-4  
 2.448000000000000E10   -3.184932284057140E-4  -2.342013031011447E-4  
 2.450000000000000E10   -3.660327929537743E-4   4.509389400482178E-4  
 2.452000000000000E10    3.414047532714903E-4   2.053206844720990E-4  
 2.454000000000000E10    7.375411951215938E-5  -1.125827329815365E-4  
 2.456000000000000E10   -5.190775264054537E-4  -4.121846577618271E-4  
 2.458000000000000E10   -2.930102637037635E-4   2.582091838121414E-4  
 2.460000000000000E10    6.174196460051462E-5   2.648873487487435E-4  
 2.462000000000000E10    2.549816272221506E-4  -3.199882921762765E-4  
 2.464000000000000E10   -7.778520375723019E-5   6.951305113034323E-5  
 2.466000000000000E10   -1.400277251377702E-4   1.332860701950267E-4  
 2.468000000000000E10   -6.350656349241035E-6   1.387769298162311E-4  
 2.470000000000000E10    6.805594603065401E-5   4.168654049863108E-5  
 2.472000000000000E10    5.863943079020828E-5  -5.736356251873076E-5  
 2.474000000000000E10   -2.496909291949123E-4  -3.304048732388765E-4  
 2.476000000000000E10   -3.245073603466153E-4   2.592962700873613E-4  
 2.478000000000000E10   -1.641925919102505E-4   4.755066765937954E-4  
 2.480000000000000E10    5.528019391931593E-4  -1.640942355152220E-4  
 2.482000000000000E10   -1.704767346382141E-4  -1.552657195134088E-4  
 2.484000000000000E10   -5.635877605527639E-4  -5.679726018570364E-5  
 2.486000000000000E10    1.192159543279558E-4   6.155489827506244E-4  
 2.488000000000000E10    3.809891059063375E-4  -9.725459676701576E-5  
 2.490000000000000E10    6.259098881855607E-6  -2.860410313587636E-4  
 2.492000000000000E10   -6.088051595725119E-4   5.525143933482468E-5  
 2.494000000000000E10    5.270449400995858E-5   5.061004194431007E-4  
 2.496000000000000E10    4.138027725275606E-4   7.491610449505970E-5  
 2.498000000000000E10    3.611238207668066E-5  -2.374135947320610E-4  
 2.500000000000000E10   -6.746457074768841E-4  -1.891515130409971E-4  
 2.502000000000000E10   -1.591585605638102E-4   2.941598650068045E-4  
 2.504000000000000E10    2.386328706052154E-4   2.742434153333306E-4  
 2.506000000000000E10    1.628431200515479E-4  -5.995104438625276E-4  
 2.508000000000000E10   -3.045858175028116E-4  -2.096587995765731E-4  
 2.510000000000000E10   -6.450057117035613E-5   1.671958889346570E-4  
 2.512000000000000E10    2.685504659893923E-5   1.827767700888217E-4  
 2.514000000000000E10    3.709119846462272E-5  -1.758089638315141E-4  
 2.516000000000000E10   -1.748990471241996E-4  -5.385958866099827E-5  
 2.518000000000000E10   -2.857204526662827E-4  -1.308189530391246E-4  
 2.520000000000000E10   -7.141674723243341E-5   2.976540999952704E-4  
 2.522000000000000E10   -1.954203980858438E-6   2.735712541834801E-6  
 2.524000000000000E10    2.712830319069326E-4  -2.800833317451179E-4  
 2.526000000000000E10   -4.294393293093890E-4  -1.414655853295699E-4  
 2.528000000000000E10   -1.394562859786674E-4   2.875822247005999E-4  
 2.530000000000000E10    2.945297164842486E-4   2.329718408873305E-4  
 2.532000000000000E10    2.430504537187517E-4  -1.534998737042770E-4  
 2.534000000000000E10   -3.106912772636861E-4  -2.887133450713009E-4  
 2.536000000000000E10   -3.213542513549328E-4   2.202576724812388E-4  
 2.538000000000000E10    8.279062603833154E-5   5.656279972754419E-4  
 2.540000000000000E10    5.002335528843105E-4  -1.514865434728563E-4  
 2.542000000000000E10   -2.207550569437444E-4  -2.383415558142588E-4  
 2.544000000000000E10   -2.412127651041374E-4   1.974374172277749E-4  
 2.546000000000000E10    3.162438224535435E-4   4.036009195260704E-4  
 2.548000000000000E10    3.681829257402569E-4  -3.978137101512402E-5  
 2.550000000000000E10    3.499219019431621E-5  -1.154517594841309E-4  
 2.552000000000000E10   -3.018471761606634E-4   1.233711518580094E-4  
 2.554000000000000E10    2.350274444324896E-4   4.963036044500768E-4  
 2.556000000000000E10    2.974004019051790E-4   3.287215076852590E-5  
 2.558000000000000E10    1.327750069322065E-4  -4.012871941085905E-4  
 2.560000000000000E10   -2.352986630285159E-4   1.073159583029337E-4  
 2.562000000000000E10    1.742888125590980E-4   6.608592229895294E-5  
 2.564000000000000E10    2.482647541910410E-4   1.495872420491651E-4  
 2.566000000000000E10    1.751367672113702E-4  -3.536220465321094E-4  
 2.568000000000000E10    3.646373443189077E-5  -2.098173426929861E-4  
 2.570000000000000E10    6.414169911295176E-5   1.850086118793115E-4  
 2.572000000000000E10    1.680083805695176E-4   3.070839447900653E-4  
 2.574000000000000E10    3.096852742601186E-4  -1.415901497239247E-4  
 2.576000000000000E10   -1.213174909935333E-4  -4.267415788490325E-4  
 2.578000000000000E10   -3.429570060689002E-4   1.251611392945051E-4  
 2.580000000000000E10    3.661999289761297E-5   2.948148467112333E-4  
 2.582000000000000E10    3.108467208221555E-4  -5.396912092692219E-5  
 2.584000000000000E10   -6.226271943887696E-5  -5.267983651719987E-4  
 2.586000000000000E10   -5.148799973540008E-4   5.662987405230524E-6  
 2.588000000000000E10   -1.241476638824679E-5   5.151192308403552E-4  
 2.590000000000000E10    2.877176157198846E-4   1.228889777848963E-5  
 2.592000000000000E10   -4.718226773547940E-5  -2.652631665114313E-4  
 2.594000000000000E10   -4.913446609862149E-4   4.554682163870893E-5  
 2.596000000000000E10   -1.958328311957303E-6   7.912034197943285E-5  
 2.598000000000000E10    3.416141553316265E-4   5.670264727086760E-5  
 2.600000000000000E10   -2.669857349246740E-5  -3.351942577864975E-4  
 2.602000000000000E10   -2.519004920031875E-4  -2.155222609871998E-4  
 2.604000000000000E10    1.377561056870036E-5   3.402188594918698E-4  
 2.606000000000000E10    1.691236975602806E-4   4.356318822829053E-5  
 2.608000000000000E10    3.660076981759630E-5  -3.489916707621887E-5  
 2.610000000000000E10   -6.635715544689447E-5  -4.984254337614402E-5  
 2.612000000000000E10   -2.293681754963473E-4   1.834047725424171E-5  
 2.614000000000000E10   -1.603940327186137E-4   1.728399074636400E-4  
 2.616000000000000E10    1.433911620551953E-6   1.203825668198988E-4  
 2.618000000000000E10    7.697696855757386E-5  -6.535535794682801E-5  
 2.620000000000000E10   -4.123070684727281E-4  -1.415892529621488E-5  
 2.622000000000000E10   -1.251413923455402E-4   1.823083293857053E-4  
 2.624000000000000E10    2.454333844070789E-5   4.202770360279828E-4  
 2.626000000000000E10    9.141307964455336E-5  -1.501686347182840E-4  
 2.628000000000000E10   -3.209626593161374E-4  -9.176507592201233E-5  
 2.630000000000000E10   -1.583981793373823E-4   1.769094669725746E-4  
 2.632000000000000E10    2.249913377454504E-4   1.185717046610080E-4  
 2.634000000000000E10   -3.606077370932326E-5  -4.440441553015262E-4  
 2.636000000000000E10   -2.042219275608659E-4  -1.070160287781619E-4  
 2.638000000000000E10   -2.166968624806032E-4   1.094371109502390E-4  
 2.640000000000000E10    2.605968911666423E-4   2.484794240444899E-4  
 2.642000000000000E10   -9.643071098253131E-5  -2.696799056138843E-4  
 2.644000000000000E10   -2.416514034848660E-4  -1.302163000218570E-4  
 2.646000000000000E10   -7.781558815622702E-5   1.825912186177447E-4  
 2.648000000000000E10    1.137869694503024E-4  -2.499638067092747E-4  
 2.650000000000000E10   -2.238571687485091E-5  -1.953087921719998E-4  
 2.652000000000000E10   -1.153499761130661E-4  -3.012957313330844E-5  
 2.654000000000000E10    8.131073263939470E-5   1.065132091753185E-4  
 2.656000000000000E10    3.301630931673572E-5  -1.354465639451519E-4  
 2.658000000000000E10   -2.474593748047482E-5  -5.851100286236033E-5  
 2.660000000000000E10   -1.875412817753386E-5   2.050389593932778E-4  
 2.662000000000000E10    6.366599700413644E-5   7.169762739067664E-6  
 2.664000000000000E10    1.650717422307935E-5   5.633510590996593E-5  
 2.666000000000000E10   -1.713579258648679E-4  -1.019669343804708E-5  
 2.668000000000000E10   -8.251165127148852E-5  -1.491443108534440E-4  
 2.670000000000000E10   -1.854579168139026E-4  -6.407863838830963E-5  
 2.672000000000000E10   -2.252287958981469E-4   1.505296240793541E-4  
 2.674000000000000E10    2.135521644959226E-4   1.076357002602890E-4  
 2.676000000000000E10   -1.245818275492638E-4  -1.577789516886696E-4  
 2.678000000000000E10   -1.379941677441821E-4   9.274067269871011E-5  
 2.680000000000000E10   -1.751636591507122E-4   3.851410874631256E-4  
 2.682000000000000E10    2.632730174809694E-4   1.144918423960917E-4  
 2.684000000000000E10    1.529103610664606E-5  -1.388800446875393E-4  
 2.686000000000000E10   -4.202381242066622E-4  -1.519925353932194E-5  
 2.688000000000000E10   -1.070109792635776E-4   2.478328533470631E-4  
 2.690000000000000E10    1.656724780332297E-4   6.995086732786149E-5  
 2.692000000000000E10   -7.983342220541090E-5  -2.309266565134749E-4  
 2.694000000000000E10   -2.888102317228913E-4  -1.259546988876537E-4  
 2.696000000000000E10    2.846936695277691E-6   3.756835358217359E-4  
 2.698000000000000E10    3.487655776552856E-4   1.834463037084788E-4  
 2.700000000000000E10    1.823818165576085E-4  -1.715369144221768E-4  
 2.702000000000000E10   -2.878500672522932E-4  -2.132887020707130E-4  
 2.704000000000000E10   -2.516054955776781E-4   2.271338162245229E-4  
 2.706000000000000E10    2.258947279187851E-5   2.880746906157583E-4  
 2.708000000000000E10    1.795511634554714E-4  -1.207170425914228E-4  
 2.710000000000000E10   -1.210949121741578E-4  -4.323066677898169E-4  
 2.712000000000000E10   -2.846266143023968E-4   1.656164968153462E-4  
 2.714000000000000E10    2.768751583062112E-4   3.786081797443330E-4  
 2.716000000000000E10    4.380666650831699E-4   1.077218166756211E-5  
 2.718000000000000E10    8.898119995137677E-5  -3.174536977894604E-4  
 2.720000000000000E10   -3.580408520065248E-5   1.551240275148302E-4  
 2.722000000000000E10   -1.963276918104384E-5   3.944224736187607E-4  
 2.724000000000000E10    1.377461157971993E-4  -9.796563972486183E-5  
 2.726000000000000E10    9.041275188792497E-5  -9.644524106988683E-5  
 2.728000000000000E10   -1.588198065292090E-4  -1.464362430851907E-4  
 2.730000000000000E10   -3.018445204361342E-5   2.500984119251370E-4  
 2.732000000000000E10    2.113318041665480E-4   9.996435255743563E-5  
 2.734000000000000E10    3.695843915920705E-4  -1.485865795984864E-4  
 2.736000000000000E10   -1.473928568884730E-4  -4.762619937537238E-5  
 2.738000000000000E10   -3.211216826457530E-4   9.489375952398405E-5  
 2.740000000000000E10    5.599882206297480E-5   1.701918954495341E-4  
 2.742000000000000E10    9.257857163902372E-5  -1.148096453107428E-5  
 2.744000000000000E10   -8.484056888846681E-5  -2.961417485494167E-4  
 2.746000000000000E10   -2.000705426326022E-4  -1.454215962439776E-4  
 2.748000000000000E10    2.208303521911148E-5   3.091446706093848E-4  
 2.750000000000000E10    3.630463907029480E-4  -6.119119643699378E-5  
 2.752000000000000E10    1.342557370662689E-4  -3.209577698726207E-4  
 2.754000000000000E10   -1.751233357936144E-4   5.167068229638971E-5  
 2.756000000000000E10    5.177009006729350E-5   2.931332564912736E-4  
