#  HZ   S   RI   R     50.00 
! Rohde & Schwarz ZVA40 4Ports - Version 3.90 - 1145.1110k42 SN: 100403
! Date: 2023-10-04 09:01:50
! Measurement: S12 
! 
 2.200000000000000E10   -8.175901166396216E-5   1.097383355954662E-4  
 2.202000000000000E10    3.118753957096487E-4   2.015244244830683E-4  
 2.204000000000000E10   -1.785794011084363E-4  -2.601143496576697E-4  
 2.206000000000000E10   -1.121273526223376E-4  -3.704945993376896E-5  
 2.208000000000000E10   -1.219685873365961E-4   2.892577613238245E-4  
 2.210000000000000E10    4.347351496107876E-4   3.741727778105997E-5  
 2.212000000000000E10   -5.756502650910989E-5  -1.973090984392911E-4  
 2.214000000000000E10   -1.207054738188162E-4  -1.435355225112289E-4  
 2.216000000000000E10    1.534752518637106E-4   2.554188249632716E-4  
 2.218000000000000E10    3.202421066816896E-4   3.030914194823708E-5  
 2.220000000000000E10   -1.595030698808841E-5  -2.149877836927772E-4  
 2.222000000000000E10   -2.315234305569902E-4  -5.766707545262761E-5  
 2.224000000000000E10   -6.481401214841753E-5   3.873865352943540E-4  
 2.226000000000000E10    4.088470013812184E-4  -2.392665046500042E-4  
 2.228000000000000E10    4.959353827871382E-5  -2.167497150367126E-4  
 2.230000000000000E10   -3.480129525996745E-4  -2.007762959692627E-4  
 2.232000000000000E10   -3.149087569909170E-5   2.791665901895613E-4  
 2.234000000000000E10    2.381773374509066E-4  -1.486162727815099E-5  
 2.236000000000000E10    4.449439074960537E-5  -2.048930182354525E-4  
 2.238000000000000E10   -4.454994050320238E-4  -2.184853474318516E-5  
 2.240000000000000E10    1.198051722894888E-5   4.370476526673883E-4  
 2.242000000000000E10    1.485102839069441E-4   1.650681078899652E-4  
 2.244000000000000E10    6.322421540971845E-5  -1.642946008360013E-4  
 2.246000000000000E10   -2.589033392723650E-4  -5.312580833560787E-5  
 2.248000000000000E10   -2.880577994801570E-5   1.824070786824450E-4  
 2.250000000000000E10    1.299961732001975E-4   5.737450919696130E-5  
 2.252000000000000E10   -1.768484253261704E-5   4.355425699031912E-5  
 2.254000000000000E10   -2.607106871437281E-4  -5.549651905312203E-5  
 2.256000000000000E10    4.520806396612898E-5  -1.108733413275331E-4  
 2.258000000000000E10    5.384168616728857E-5   6.753321213182062E-5  
 2.260000000000000E10   -1.925592659972608E-4   5.656271241605282E-5  
 2.262000000000000E10    1.649256446398795E-4   2.658361627254635E-4  
 2.264000000000000E10   -4.985031409887597E-5   1.118704458349384E-4  
 2.266000000000000E10   -1.603968412382528E-4   3.871769513352774E-5  
 2.268000000000000E10   -1.817505399230868E-4   2.474467328283936E-4  
 2.270000000000000E10    1.303406752413139E-4   8.280084148282185E-5  
 2.272000000000000E10   -1.389870249113301E-5  -6.535125430673361E-5  
 2.274000000000000E10   -2.267526724608615E-4  -1.909269922180101E-4  
 2.276000000000000E10   -1.148851370089687E-4   1.708238560240716E-4  
 2.278000000000000E10    2.969243796542287E-4   1.444134250050411E-4  
 2.280000000000000E10   -5.321692515281029E-5  -1.973639155039564E-4  
 2.282000000000000E10   -2.590818912722170E-4  -1.736593985697255E-4  
 2.284000000000000E10    3.437939449213445E-4   1.247845939360559E-4  
 2.286000000000000E10   -4.392200935399160E-5  -3.329680475872010E-4  
 2.288000000000000E10   -3.795829252339900E-4  -8.004972914932296E-5  
 2.290000000000000E10    3.033368921023794E-5   2.365818509133533E-4  
 2.292000000000000E10    3.237304044887424E-4  -2.139866701327264E-4  
 2.294000000000000E10    2.063570173049811E-5  -4.647824389394373E-4  
 2.296000000000000E10   -3.234896576032043E-4   2.046508016064763E-4  
 2.298000000000000E10    1.541387318866327E-4   1.203738283948042E-4  
 2.300000000000000E10    4.558826622087508E-4   8.095184966805391E-6  
 2.302000000000000E10   -4.470066050998867E-4  -2.359497157158330E-4  
 2.304000000000000E10   -2.449383609928191E-4   4.490861902013421E-4  
 2.306000000000000E10    1.064856551238336E-4   2.221784670837224E-4  
 2.308000000000000E10    1.297203198191710E-5  -2.398935175733641E-4  
 2.310000000000000E10   -4.711771325673908E-4  -1.356245775241405E-4  
 2.312000000000000E10   -1.286961050936952E-4  -1.014514873531880E-5  
 2.314000000000000E10    8.059237006818876E-5   2.280261105624959E-4  
 2.316000000000000E10   -1.506798798800446E-5  -1.131229655584320E-4  
 2.318000000000000E10    1.803060586098582E-4  -3.168944022036158E-5  
 2.320000000000000E10   -1.873021246865392E-4  -8.409172733081505E-5  
 2.322000000000000E10    1.262393634533510E-4   1.400377659592778E-4  
 2.324000000000000E10   -8.205084304790944E-5  -6.384254083968699E-5  
 2.326000000000000E10   -2.741077332757413E-4   2.294404257554561E-4  
 2.328000000000000E10    5.244999192655087E-5  -6.955370918149129E-5  
 2.330000000000000E10   -1.414250873494893E-4  -6.891650991747156E-5  
 2.332000000000000E10   -1.771439856383950E-4   5.193054676055908E-6  
 2.334000000000000E10    3.129534306935966E-4   3.568657484720461E-5  
 2.336000000000000E10    2.997501578647643E-4  -3.402874281164259E-4  
 2.338000000000000E10   -2.477579109836370E-4  -3.658433342934586E-5  
 2.340000000000000E10   -1.590947358636186E-4   3.752016054932028E-4  
 2.342000000000000E10    4.696718242485076E-4   3.137819294352084E-4  
 2.344000000000000E10    2.018366649281234E-4  -5.253801937215030E-4  
 2.346000000000000E10   -2.436283975839615E-4  -1.116103521781042E-4  
 2.348000000000000E10   -2.685103099793196E-4   1.712733501335606E-4  
 2.350000000000000E10    5.394053296186030E-4  -1.235442905453965E-4  
 2.352000000000000E10   -1.173442433355376E-4  -2.809521392919123E-4  
 2.354000000000000E10   -3.823418519459665E-4   9.233640594175085E-5  
 2.356000000000000E10   -1.808434535632841E-5   3.647413977887482E-4  
 2.358000000000000E10    1.054807871696539E-4  -1.121153836720623E-4  
 2.360000000000000E10   -2.889962343033403E-4  -3.369992773514241E-4  
 2.362000000000000E10   -1.727920171106234E-4   1.106110212276690E-4  
 2.364000000000000E10    1.320281298831105E-4   7.988926518009976E-5  
 2.366000000000000E10   -5.394666368374601E-5  -4.405182553455234E-4  
 2.368000000000000E10   -1.179509581561433E-5   2.143373712897301E-4  
 2.370000000000000E10   -1.240900892298669E-4   2.623631444294006E-4  
 2.372000000000000E10    8.557738328818232E-5  -8.439176781394053E-6  
 2.374000000000000E10   -2.815260668285191E-4  -4.648127651307732E-5  
 2.376000000000000E10   -2.266068186145276E-4  -1.929999707499519E-4  
 2.378000000000000E10   -3.236113989260048E-4  -5.463575143949129E-5  
 2.380000000000000E10   -1.898364425869659E-4  -2.355206670472398E-4  
 2.382000000000000E10   -1.425825175829232E-4  -2.787177800200880E-4  
 2.384000000000000E10   -6.158088945085183E-5  -9.203024819726124E-5  
 2.386000000000000E10   -4.265036841388792E-5   5.751845674240030E-5  
 2.388000000000000E10    5.496013909578323E-5  -7.088395796017721E-5  
 2.390000000000000E10   -5.345908357412554E-5  -2.167359525628854E-5  
 2.392000000000000E10    8.075093501247466E-5   1.650651247473434E-4  
 2.394000000000000E10   -7.178392115747556E-5  -9.414716623723507E-5  
 2.396000000000000E10   -2.361992519581690E-4  -1.029911509249359E-4  
 2.398000000000000E10   -3.514074778649956E-4   3.265140694566071E-4  
 2.400000000000000E10    1.118276995839551E-4  -1.229376648552716E-4  
 2.402000000000000E10    1.142864221037598E-5  -1.861522323451936E-4  
 2.404000000000000E10   -1.816322037484497E-4   1.691187790129334E-4  
 2.406000000000000E10    1.298923307331279E-4   3.335137735120952E-4  
 2.408000000000000E10    2.344735112274066E-4  -4.018572144559585E-5  
 2.410000000000000E10   -2.018505183514208E-4  -1.463807275285944E-4  
 2.412000000000000E10   -3.425115137360990E-4  -4.540094960248098E-5  
 2.414000000000000E10    5.452655022963882E-5   2.756757603492588E-4  
 2.416000000000000E10    2.537312684580684E-4  -1.702862791717053E-4  
 2.418000000000000E10   -3.003741585416719E-5  -3.618217015173286E-4  
 2.420000000000000E10   -1.909131678985432E-4   5.474220961332321E-4  
 2.422000000000000E10    1.286819460801780E-4   2.719322510529310E-4  
 2.424000000000000E10    4.496719338931143E-4  -3.996922459919006E-4  
 2.426000000000000E10   -1.886926038423553E-4  -1.818065647967160E-4  
 2.428000000000000E10   -9.513502300251275E-5   3.579944896046072E-4  
 2.430000000000000E10    4.591492179315537E-4   3.709409793373197E-5  
 2.432000000000000E10    2.773222222458571E-4  -3.294515772722662E-4  
 2.434000000000000E10   -4.447420724318363E-5  -2.957503311336041E-4  
 2.436000000000000E10    7.319835731323110E-6   1.868467952590436E-4  
 2.438000000000000E10    2.844167465809733E-4   1.054428357747383E-4  
 2.440000000000000E10    1.529138244222850E-4  -1.786229695426300E-4  
 2.442000000000000E10   -2.034098579315469E-4   2.507529643480666E-5  
 2.444000000000000E10   -8.111192437354475E-5   7.142916729208082E-5  
 2.446000000000000E10    2.887260598072317E-5  -4.174322020844556E-5  
 2.448000000000000E10   -1.297533453907818E-4   2.575029611762147E-5  
 2.450000000000000E10    1.973343314602971E-4   5.025538121117279E-5  
 2.452000000000000E10    3.348566824570298E-4  -1.571203320054337E-4  
 2.454000000000000E10   -1.615665969438851E-4   6.804894655942917E-5  
 2.456000000000000E10   -1.508738350821659E-4   2.124472957802936E-4  
 2.458000000000000E10    2.429177402518690E-4   3.593628352973610E-4  
 2.460000000000000E10    1.600627292646095E-4  -2.185660559916869E-4  
 2.462000000000000E10   -2.478594833519310E-4  -2.217024739366025E-4  
 2.464000000000000E10   -3.904539044015110E-4   5.689741810783744E-4  
 2.466000000000000E10    6.717883516103029E-4   4.785874625667930E-4  
 2.468000000000000E10    2.854907943401486E-4  -4.208436585031450E-4  
 2.470000000000000E10   -4.031435528304428E-4  -4.091714508831501E-4  
 2.472000000000000E10   -3.102974733337760E-4   5.583160673268139E-4  
 2.474000000000000E10    4.519985232036561E-4   1.562009565532208E-4  
 2.476000000000000E10    3.795507946051657E-4  -3.073168627452105E-4  
 2.478000000000000E10   -6.537376902997494E-4  -3.924692282453179E-4  
 2.480000000000000E10    4.722372250398621E-5   4.916336620226502E-4  
 2.482000000000000E10    3.140677290502936E-4   3.642333613242954E-4  
 2.484000000000000E10    2.452922926750034E-4  -4.598840896505863E-4  
 2.486000000000000E10   -4.452109278645366E-4   9.231499461748172E-6  
 2.488000000000000E10    1.989053416764364E-4   2.742459182627499E-4  
 2.490000000000000E10    1.307098573306575E-4   1.480047358199954E-4  
 2.492000000000000E10    1.577395159984008E-4  -7.635098154423758E-5  
 2.494000000000000E10    1.813247072277591E-4   3.518575249472633E-5  
 2.496000000000000E10   -2.527232754800934E-5   6.451682565966621E-5  
 2.498000000000000E10   -1.514620234956965E-4   2.345874381717295E-4  
 2.500000000000000E10    7.558565994258970E-5   1.450615673093125E-4  
 2.502000000000000E10    3.092979895882309E-4  -2.159411087632179E-5  
 2.504000000000000E10   -9.791654156288132E-5  -2.592567470856011E-4  
 2.506000000000000E10   -2.373969473410398E-4   1.207646982948063E-5  
 2.508000000000000E10    1.664639567025006E-4   2.252019185107201E-4  
 2.510000000000000E10    4.338225407991558E-4  -1.437524915672839E-4  
 2.512000000000000E10    4.284693568479270E-5  -4.612585762515664E-4  
 2.514000000000000E10   -2.818206266965717E-4   2.353938180021942E-4  
 2.516000000000000E10   -8.651107054902241E-5   4.267892800271511E-4  
 2.518000000000000E10    5.904333083890379E-4  -7.035820453893393E-5  
 2.520000000000000E10   -1.423464709660038E-4  -2.361956867389381E-4  
 2.522000000000000E10   -5.038473173044622E-4  -4.899142368230969E-5  
 2.524000000000000E10   -2.358080746489577E-5   2.928587491624057E-4  
 2.526000000000000E10    2.207614306826145E-4  -9.513660916127265E-5  
 2.528000000000000E10   -9.068754297913984E-5  -3.176035825163126E-4  
 2.530000000000000E10   -3.166306414641440E-4   2.475945257174317E-5  
 2.532000000000000E10    1.028418773785234E-4   2.551358193159103E-4  
 2.534000000000000E10    2.362926315981895E-4  -1.711003860691562E-4  
 2.536000000000000E10   -1.106343916035257E-5   9.355620932183228E-6  
 2.538000000000000E10   -2.736298483796418E-4   9.529772796668112E-5  
 2.540000000000000E10    1.081789559975732E-5   2.601530577521771E-4  
 2.542000000000000E10    2.731649874476716E-5   9.304467675974593E-5  
 2.544000000000000E10    7.819887832738459E-5  -1.146561626228504E-4  
 2.546000000000000E10   -1.007183309411630E-4  -1.983964757528156E-4  
 2.548000000000000E10   -1.917269401019439E-4   7.876728341216222E-5  
 2.550000000000000E10    8.613611862529069E-5   1.283349047298543E-5  
 2.552000000000000E10    2.219567249994725E-4  -2.541353023843840E-5  
 2.554000000000000E10   -4.494688619161025E-5   4.207906022202224E-5  
 2.556000000000000E10   -1.883634686237201E-4  -1.801272301236168E-4  
 2.558000000000000E10   -2.029758616117761E-4   3.507301735226065E-4  
 2.560000000000000E10    1.151160759036429E-4   7.877449388615787E-5  
 2.562000000000000E10    6.844954623375088E-5  -3.256459021940827E-4  
 2.564000000000000E10   -3.079863963648677E-4  -1.804994535632432E-4  
 2.566000000000000E10   -8.525789598934352E-5   3.253486938774586E-4  
 2.568000000000000E10    3.782832354772836E-4  -6.579331238754094E-5  
 2.570000000000000E10    2.060793340206146E-4  -2.550112258177251E-4  
 2.572000000000000E10   -1.076056578313001E-4   1.700930624792818E-5  
 2.574000000000000E10   -1.550419983686879E-4   2.137694245902821E-4  
 2.576000000000000E10    9.795084042707458E-5   8.181586599675939E-5  
 2.578000000000000E10   -1.315017561864806E-5   6.146892701508477E-5  
 2.580000000000000E10   -1.645131123950705E-4  -2.226750511908904E-4  
 2.582000000000000E10   -2.130643697455525E-4   1.001427954179235E-4  
 2.584000000000000E10   -3.217684570699930E-4   1.623507996555418E-4  
 2.586000000000000E10    2.163231401937082E-4  -3.074561827816069E-4  
 2.588000000000000E10   -4.130659362999722E-5   2.561878864071332E-5  
 2.590000000000000E10   -2.489551843609661E-4   1.057799017871730E-4  
 2.592000000000000E10    2.179610310122371E-4   2.587743219919503E-4  
 2.594000000000000E10    8.428284490946680E-5   1.593112974660471E-4  
 2.596000000000000E10   -1.969477125385311E-5  -8.941048145061359E-5  
 2.598000000000000E10   -1.280095330002951E-5  -6.935164856258780E-5  
 2.600000000000000E10   -8.192202221835032E-5   1.814552670111880E-4  
 2.602000000000000E10    3.252973783673951E-6   3.141543493256904E-5  
 2.604000000000000E10    1.532890310045332E-4  -7.308450585696846E-5  
 2.606000000000000E10   -5.402697206591256E-5  -1.066335607902147E-4  
 2.608000000000000E10   -8.985905878944323E-5   1.041924697346985E-4  
 2.610000000000000E10    6.778969691367820E-5   3.426415496505797E-4  
 2.612000000000000E10    7.769434159854427E-5  -9.259591024601832E-5  
 2.614000000000000E10   -4.668066685553640E-5  -2.676516887731850E-4  
 2.616000000000000E10   -3.733889898285270E-4   2.228393859695643E-4  
 2.618000000000000E10   -4.217952664475888E-5   3.050905070267618E-4  
 2.620000000000000E10    1.596084475750104E-4  -2.994532405864447E-4  
 2.622000000000000E10   -3.366901364643127E-5   1.390261168126017E-4  
 2.624000000000000E10   -6.523258343804628E-5   3.163678338751197E-4  
 2.626000000000000E10    3.568397078197449E-4   2.544035487517249E-5  
 2.628000000000000E10    2.999208845722023E-5   6.646091787843034E-5  
 2.630000000000000E10   -1.556912175146863E-4  -5.786326073575765E-5  
 2.632000000000000E10    2.292755525559187E-4   1.152484255726449E-4  
 2.634000000000000E10   -4.360919047030620E-5  -1.466336834710091E-5  
 2.636000000000000E10   -3.358439698786242E-6   2.372751077928115E-5  
 2.638000000000000E10   -7.062543591018766E-5   3.092292899964377E-5  
 2.640000000000000E10    1.167362861451693E-4   2.251966179755982E-5  
 2.642000000000000E10    1.369485107716173E-4   2.580790715001058E-5  
 2.644000000000000E10    1.846910017775372E-4   2.447980477882084E-5  
 2.646000000000000E10   -6.261840462684631E-5  -1.269173662876710E-4  
 2.648000000000000E10    5.451901597552933E-5   4.298788189771585E-5  
 2.650000000000000E10    1.815149444155395E-4  -6.683532319584629E-6  
 2.652000000000000E10   -1.842573510657530E-5  -1.529957517050207E-4  
 2.654000000000000E10    2.908452006522566E-5  -1.899059134302661E-5  
 2.656000000000000E10   -1.387453521601856E-4   1.483211417507846E-5  
 2.658000000000000E10   -3.319323514006101E-5   1.044850723701529E-4  
 2.660000000000000E10    2.167374477721751E-4   1.243019360117614E-4  
 2.662000000000000E10    1.174234566860832E-4  -3.123227215837687E-4  
 2.664000000000000E10   -2.451871841913089E-5  -9.963506454369053E-5  
 2.666000000000000E10    4.089513095095754E-5   1.863723737187684E-4  
 2.668000000000000E10    2.249589742859826E-4  -1.465029636165127E-4  
 2.670000000000000E10    8.087659807642922E-5  -3.174066077917814E-4  
 2.672000000000000E10   -2.939775295089930E-4  -3.854221722576767E-5  
 2.674000000000000E10   -4.897301187156700E-5   5.197713835514151E-5  
 2.676000000000000E10    2.779983915388584E-4   1.102074020309374E-4  
 2.678000000000000E10    1.857700844993815E-4  -1.510810252511874E-4  
 2.680000000000000E10   -1.228231121785939E-4  -1.246592000825331E-4  
 2.682000000000000E10    4.032215292681940E-5   5.815664189867675E-5  
 2.684000000000000E10    9.774124191608280E-5  -4.831718251807615E-5  
 2.686000000000000E10   -2.468955244694371E-5  -9.959204908227548E-5  
 2.688000000000000E10   -2.751380452536978E-5  -1.170108880614862E-4  
 2.690000000000000E10   -2.711392589844763E-4   9.233633318217471E-5  
 2.692000000000000E10   -2.576545230112970E-4   1.283406163565815E-4  
 2.694000000000000E10    3.941480827052146E-5  -2.069333095278125E-5  
 2.696000000000000E10    8.211377280531451E-5  -2.072208735626191E-4  
 2.698000000000000E10   -7.452963473042473E-5  -1.303872413700447E-4  
 2.700000000000000E10   -3.158182516926900E-5   1.423147768946365E-4  
 2.702000000000000E10    2.423200203338638E-4   1.846742088673636E-5  
 2.704000000000000E10   -2.295487138326280E-5  -2.312867436558008E-4  
 2.706000000000000E10   -2.102765283780173E-4  -5.360183422453702E-5  
 2.708000000000000E10   -3.676804481074214E-4   3.421602741582319E-5  
 2.710000000000000E10   -1.817072006815579E-5   9.079578740056604E-5  
 2.712000000000000E10    9.099039743887261E-5  -1.374075054627610E-5  
 2.714000000000000E10   -1.074227566277841E-5  -1.591959153302014E-4  
 2.716000000000000E10   -1.640611444599927E-4  -1.715397047519218E-5  
 2.718000000000000E10    1.818315795389935E-4   1.025819728965871E-4  
 2.720000000000000E10    2.706120430957526E-4   7.600253593409434E-5  
 2.722000000000000E10   -3.050534178328235E-5  -1.486713008489460E-4  
 2.724000000000000E10   -9.273747855331749E-5   4.814270141650923E-5  
 2.726000000000000E10   -8.009644079720601E-5   2.296486491104588E-4  
 2.728000000000000E10    1.202732673846185E-4   1.410013646818698E-4  
 2.730000000000000E10    1.413035060977563E-4  -1.801014732336626E-4  
 2.732000000000000E10   -1.262830628547818E-4  -1.586680300533772E-4  
 2.734000000000000E10   -6.585939263459295E-5   2.205554628744721E-4  
 2.736000000000000E10    2.591318043414503E-4   1.154217752628028E-4  
 2.738000000000000E10   -1.124674745369703E-4  -4.399969766382128E-4  
 2.740000000000000E10   -2.660104073584080E-4  -2.367090928601101E-5  
 2.742000000000000E10    9.948924343916588E-6   2.677002339623869E-4  
 2.744000000000000E10    2.112788788508624E-4   6.699779623886570E-5  
 2.746000000000000E10   -1.166999718407169E-4  -2.136457624146715E-4  
 2.748000000000000E10    2.885432877519634E-5   5.833320756210014E-5  
 2.750000000000000E10    2.160178264603019E-4   1.104444163502194E-4  
 2.752000000000000E10    2.980556164402515E-4  -1.626878074603155E-4  
 2.754000000000000E10   -1.376860600430518E-4  -9.637747280066833E-5  
 2.756000000000000E10   -9.353672794532031E-6   1.136224091169424E-4  
