#  HZ   S   RI   R     50.00 
! Rohde & Schwarz ZVA40 4Ports - Version 3.90 - 1145.1110k42 SN: 100403
! Date: 2023-10-04 09:01:35
! Measurement: S12 
! 
 2.200000000000000E10    2.840615343302488E-4   6.939563172636554E-5  
 2.202000000000000E10    7.592129259137437E-5  -5.528976907953620E-5  
 2.204000000000000E10   -1.985255403269548E-5  -3.549078828655183E-4  
 2.206000000000000E10   -1.771114039001986E-4   3.976920561399311E-4  
 2.208000000000000E10    2.792818704620004E-4   1.676546526141465E-4  
 2.210000000000000E10    2.422084216959775E-4  -2.330847346456721E-4  
 2.212000000000000E10   -1.337405701633543E-4  -3.126200172118843E-4  
 2.214000000000000E10   -2.949911504401825E-5   1.663252769503743E-4  
 2.216000000000000E10    1.466484100092202E-4   1.886044810817111E-5  
 2.218000000000000E10    3.095089341513813E-4   3.344365541124716E-5  
 2.220000000000000E10   -1.653935032663867E-4  -7.189676398411393E-5  
 2.222000000000000E10   -8.417676872340962E-5   5.207025969866663E-5  
 2.224000000000000E10    2.816089363477659E-5  -7.555169577244669E-5  
 2.226000000000000E10   -1.766488130670041E-4  -3.194809833075851E-4  
 2.228000000000000E10   -1.497842749813572E-4  -1.977266365429387E-4  
 2.230000000000000E10    8.034861821215600E-5  -8.775207243161276E-5  
 2.232000000000000E10   -8.546187018509954E-5  -2.335761237191036E-4  
 2.234000000000000E10    5.145560498931445E-5  -4.615240904968232E-4  
 2.236000000000000E10   -6.903158646309748E-5  -1.994269259739667E-4  
 2.238000000000000E10   -6.094247510191053E-5   1.375763386022300E-4  
 2.240000000000000E10    1.088413628167473E-4   1.763168620527722E-5  
 2.242000000000000E10    2.241024776594713E-5  -1.399404718540609E-4  
 2.244000000000000E10   -3.302852855995297E-4  -5.590872751781717E-5  
 2.246000000000000E10   -4.560561865218915E-5   2.933396608568728E-4  
 2.248000000000000E10    2.429201704217121E-4   3.111925980192609E-5  
 2.250000000000000E10    1.771610113792121E-4  -2.818113716784865E-4  
 2.252000000000000E10   -2.313676523044705E-4   1.940898800967261E-5  
 2.254000000000000E10   -7.659666880499572E-5   7.076727342791855E-5  
 2.256000000000000E10    5.036347429268062E-4  -8.353650628123432E-6  
 2.258000000000000E10    1.998592488234863E-4  -3.619206254370511E-4  
 2.260000000000000E10   -2.638685982674360E-4   8.076971425907686E-5  
 2.262000000000000E10   -2.488801874278579E-5   2.952566719613969E-4  
 2.264000000000000E10    2.257919259136543E-4   2.030208747783036E-7  
 2.266000000000000E10    1.229068875545636E-4  -1.554891932755709E-4  
 2.268000000000000E10   -1.397096930304542E-4  -2.306168426002841E-5  
 2.270000000000000E10    8.243284537456930E-5   3.150270204059780E-4  
 2.272000000000000E10    1.488990383222699E-4   1.010471823974513E-4  
 2.274000000000000E10   -9.175919694826007E-5  -1.910129067255184E-4  
 2.276000000000000E10   -4.896810423815623E-6   1.009522966342047E-4  
 2.278000000000000E10    2.249859389849007E-4   2.590232179500163E-4  
 2.280000000000000E10   -3.828997432719916E-5  -7.386184392998985E-7  
 2.282000000000000E10   -1.018116818158887E-4  -1.578953015268780E-5  
 2.284000000000000E10    1.337979774689302E-4   1.180557137558935E-5  
 2.286000000000000E10    2.350932918488979E-4  -3.131788689643145E-4  
 2.288000000000000E10   -4.577643630909734E-5  -1.307136408286169E-4  
 2.290000000000000E10   -3.315210924483836E-4   9.600497287465259E-5  
 2.292000000000000E10    3.391031350474805E-4   2.622463580337353E-5  
 2.294000000000000E10    4.153153859078884E-4  -1.826439838623628E-4  
 2.296000000000000E10   -1.601677358848974E-4   1.893749576993287E-4  
 2.298000000000000E10   -3.158877007081173E-5   3.882269447785802E-5  
 2.300000000000000E10    6.853272498119623E-5  -1.826090010581538E-4  
 2.302000000000000E10   -2.237876324215904E-4  -2.028964954661205E-4  
 2.304000000000000E10   -1.557200885144994E-4   2.905784931499511E-4  
 2.306000000000000E10    2.460576070006937E-4  -5.030359534430318E-5  
 2.308000000000000E10   -8.745044510760636E-7  -2.873221528716385E-4  
 2.310000000000000E10   -3.901731979567558E-4   1.827653904911131E-4  
 2.312000000000000E10    2.851762692444027E-4   4.448628169484437E-4  
 2.314000000000000E10    2.370455622440204E-4  -1.246918836841360E-4  
 2.316000000000000E10   -3.547317173797637E-4  -4.208811733406037E-4  
 2.318000000000000E10   -3.220575454179198E-4   3.602921497076750E-4  
 2.320000000000000E10    4.164161800872535E-4   1.557525247335434E-4  
 2.322000000000000E10    2.559223212301731E-4  -3.301871474832296E-4  
 2.324000000000000E10   -3.833788796328008E-4  -1.796124270185828E-4  
 2.326000000000000E10   -8.679976599523798E-5   6.183945806697011E-4  
 2.328000000000000E10    2.009179879678413E-4   2.852570614777505E-4  
 2.330000000000000E10    1.391903933836147E-4  -1.925549440784380E-4  
 2.332000000000000E10   -3.338658425491303E-4   8.749358676141128E-5  
 2.334000000000000E10   -1.309501531068236E-4   1.216127857333049E-4  
 2.336000000000000E10    8.448318112641573E-5   2.261382032884285E-4  
 2.338000000000000E10   -3.982781345257536E-5  -1.604436693014577E-4  
 2.340000000000000E10    9.785142538021319E-6   6.599433254450560E-5  
 2.342000000000000E10   -3.609738269005902E-5   2.687232627067715E-4  
 2.344000000000000E10    1.914671156555414E-4  -7.309189822990447E-5  
 2.346000000000000E10   -1.019395785988309E-4   1.038272239384241E-4  
 2.348000000000000E10   -1.491974253440276E-4   1.833972928579897E-4  
 2.350000000000000E10    1.844129146775231E-4   1.093219034373760E-4  
 2.352000000000000E10   -2.549637283664197E-4  -8.178965072147548E-5  
 2.354000000000000E10   -1.861944911070168E-4   2.511551720090210E-4  
 2.356000000000000E10    2.458674716763198E-4   1.269942731596530E-4  
 2.358000000000000E10    2.241151669295505E-4  -1.334513071924448E-4  
 2.360000000000000E10   -1.391830010106787E-4  -2.347489789826796E-4  
 2.362000000000000E10   -4.439602707861923E-5   3.504801716189832E-4  
 2.364000000000000E10    3.130306722596288E-4   2.562312001828104E-4  
 2.366000000000000E10    1.730617368593812E-4  -2.750648418441415E-4  
 2.368000000000000E10   -3.917480062227696E-4   2.283947687828913E-4  
 2.370000000000000E10   -7.493484736187384E-5   3.976357693318278E-4  
 2.372000000000000E10    2.902579144574702E-4   4.754876499646343E-5  
 2.374000000000000E10   -1.820552133722231E-4  -3.657507768366486E-4  
 2.376000000000000E10   -1.403014321113005E-4   1.231229834957048E-4  
 2.378000000000000E10    1.483055966673419E-4   4.617672238964588E-4  
 2.380000000000000E10    1.818725286284462E-4  -3.067904908675700E-4  
 2.382000000000000E10   -1.384719944326207E-4  -4.925521716359071E-5  
 2.384000000000000E10   -1.367048826068640E-4   8.912344492273405E-5  
 2.386000000000000E10    3.272203903179616E-4   6.504874181700870E-5  
 2.388000000000000E10    1.652490766446135E-7  -1.748968643369153E-4  
 2.390000000000000E10   -1.135863058152609E-4  -2.540521381888539E-4  
 2.392000000000000E10   -4.195147266727872E-5   2.397152711637318E-4  
 2.394000000000000E10    2.270027616759762E-4   1.869399711722508E-4  
 2.396000000000000E10    2.626206514833029E-5  -1.406986702932045E-4  
 2.398000000000000E10   -5.392037564888597E-4   9.794227662496269E-5  
 2.400000000000000E10    9.210882126353681E-5   4.556831754598534E-6  
 2.402000000000000E10    2.513389626983553E-4  -3.172176002408378E-5  
 2.404000000000000E10    1.879299088614062E-4  -1.332569372607395E-4  
 2.406000000000000E10    1.634712825762108E-4   7.770834054099396E-5  
 2.408000000000000E10    1.705404138192534E-4   2.112768124789000E-4  
 2.410000000000000E10    6.256724736886099E-5  -2.290984230057802E-5  
 2.412000000000000E10   -1.613310014363378E-4  -1.036340181599371E-4  
 2.414000000000000E10    4.437486040842487E-6   4.858496686210856E-5  
 2.416000000000000E10   -9.113286796491593E-5   6.910856609465554E-5  
 2.418000000000000E10   -1.511603913968429E-4  -5.923391654505394E-5  
 2.420000000000000E10   -3.866092447424308E-5   1.926257536979392E-4  
 2.422000000000000E10    1.187522429972887E-4  -1.381977926939726E-4  
 2.424000000000000E10    3.186116518918425E-4  -2.350035501876846E-4  
 2.426000000000000E10   -3.103142953477800E-4  -4.707057087216526E-5  
 2.428000000000000E10    3.669520447147079E-5   4.021052154712379E-4  
 2.430000000000000E10    4.941417719237506E-4   3.954577550757676E-5  
 2.432000000000000E10   -3.132342726530624E-6  -3.961098846048117E-4  
 2.434000000000000E10   -4.725007456727326E-4   1.316025445703417E-4  
 2.436000000000000E10    2.611175295896828E-4   3.017820708919317E-4  
 2.438000000000000E10    3.387174801900983E-4  -3.543987695593387E-4  
 2.440000000000000E10   -1.006104066618718E-4  -4.709982604254037E-4  
 2.442000000000000E10   -5.992993828840554E-4   8.999941201182082E-5  
 2.444000000000000E10    2.665883803274483E-4   3.107769589405507E-4  
 2.446000000000000E10    3.555364091880620E-4  -5.022838595323265E-4  
 2.448000000000000E10   -4.664611187763512E-4  -3.420658467803150E-4  
 2.450000000000000E10   -3.771378833334893E-4   1.595786125108134E-5  
 2.452000000000000E10    2.550574718043208E-4   1.981916575459763E-4  
 2.454000000000000E10    1.711500517558307E-4  -3.650522849056870E-4  
 2.456000000000000E10   -4.611863187165000E-5  -3.636272740550339E-4  
 2.458000000000000E10   -3.867508203256875E-4   1.903627999126911E-4  
 2.460000000000000E10   -4.444798105396330E-5   3.114806531812064E-5  
 2.462000000000000E10    2.617888094391674E-4   1.097434505936690E-4  
 2.464000000000000E10   -1.434317819075659E-4  -2.233458799310029E-4  
 2.466000000000000E10   -1.368880766676739E-4   7.558511424576864E-5  
 2.468000000000000E10    3.646806726465002E-5   6.665342516498640E-5  
 2.470000000000000E10    5.259288445813581E-5   3.284541598986834E-4  
 2.472000000000000E10   -1.266688632313162E-4  -9.410853817826137E-5  
 2.474000000000000E10   -3.608275437727571E-5  -2.114834569511004E-5  
 2.476000000000000E10   -2.934763033408672E-4  -9.981033508665860E-5  
 2.478000000000000E10   -2.240390458609909E-4   2.154979738406837E-4  
 2.480000000000000E10    7.040365744614974E-5   3.317619266454130E-4  
 2.482000000000000E10    2.040324325207621E-4  -3.042000171262771E-4  
 2.484000000000000E10   -3.925987402908504E-4  -1.142857945524156E-4  
 2.486000000000000E10   -2.307416434632614E-4   3.309295861981809E-4  
 2.488000000000000E10    2.805181429721415E-4   3.715094644576311E-4  
 2.490000000000000E10    2.430786989862099E-4  -4.657225799746811E-4  
 2.492000000000000E10   -4.366056818980724E-4  -2.334191813133657E-4  
 2.494000000000000E10   -3.738633531611413E-4   4.951779264956713E-4  
 2.496000000000000E10    5.284802755340934E-4   3.733961202669889E-4  
 2.498000000000000E10    2.368983841734007E-4  -5.622405442409217E-4  
 2.500000000000000E10   -3.976996231358498E-4  -1.603775890544057E-4  
 2.502000000000000E10   -2.617172722239047E-4   4.155752249062061E-4  
 2.504000000000000E10    4.265957977622747E-4   1.571301108924672E-4  
 2.506000000000000E10    2.671841648407280E-4  -2.999567077495158E-4  
 2.508000000000000E10   -2.575755352154374E-4  -1.058558264048770E-4  
 2.510000000000000E10   -4.718569107353687E-5   2.311496064066887E-4  
 2.512000000000000E10    1.429255353286862E-4   9.499477164354175E-5  
 2.514000000000000E10    1.055984739650739E-5   5.083729411126114E-5  
 2.516000000000000E10    5.268210225040093E-5  -1.351007376797497E-4  
 2.518000000000000E10   -2.075726661132649E-4  -3.132207382350316E-7  
 2.520000000000000E10   -8.274723950307816E-5  -2.920591032307129E-5  
 2.522000000000000E10   -2.425855382170994E-5   1.792752591427416E-4  
 2.524000000000000E10    1.638822868699208E-4  -1.072285958798602E-4  
 2.526000000000000E10   -6.890382337587653E-6  -7.733254460617900E-5  
 2.528000000000000E10   -2.015746431425214E-4   6.199231393111404E-6  
 2.530000000000000E10    1.282465236727148E-4   3.819247649516910E-4  
 2.532000000000000E10    2.713004068937153E-4   1.692500954959542E-4  
 2.534000000000000E10   -1.636392262298614E-4  -3.096026775892824E-4  
 2.536000000000000E10   -4.635055374819785E-4   5.167861309018917E-5  
 2.538000000000000E10    2.989632412209176E-5   5.494850920513272E-4  
 2.540000000000000E10    3.321899857837707E-4  -4.473545777727850E-5  
 2.542000000000000E10    2.802013113978319E-5  -3.371418861206621E-4  
 2.544000000000000E10   -1.833991555031389E-4  -2.728063373069745E-5  
 2.546000000000000E10   -1.347731176792877E-5   2.617471909616143E-4  
 2.548000000000000E10    3.876029804814607E-4   2.220491878688335E-4  
 2.550000000000000E10    5.746137321693823E-5  -2.630878589116037E-4  
 2.552000000000000E10   -2.200218586949632E-4   9.624662925489247E-5  
 2.554000000000000E10    2.166140620829538E-5   1.613078784430400E-4  
 2.556000000000000E10    2.558832056820393E-4   1.693028316367418E-4  
 2.558000000000000E10    1.461054489482194E-4  -2.731709973886609E-4  
 2.560000000000000E10   -7.591390749439597E-5  -6.544248753925785E-5  
 2.562000000000000E10    4.845193325309083E-5   1.242014841409400E-4  
 2.564000000000000E10    1.967244024854153E-4   2.785508404485881E-4  
 2.566000000000000E10    1.968885335372761E-4  -1.916154869832099E-4  
 2.568000000000000E10    7.060376083245501E-5  -1.247307809535414E-4  
 2.570000000000000E10    4.019636617158540E-5   2.311609423486516E-4  
 2.572000000000000E10    1.835500879678875E-4   1.363334158668295E-4  
 2.574000000000000E10    1.622509153094143E-4  -2.668971137609333E-4  
 2.576000000000000E10   -5.996630716254003E-5  -3.491667157504708E-4  
 2.578000000000000E10   -1.233244111062959E-4  -4.383319901535288E-5  
 2.580000000000000E10   -1.223967046826147E-5   6.357705569826067E-5  
 2.582000000000000E10    2.946904860436916E-4   1.565780985401943E-5  
 2.584000000000000E10   -3.884069155901671E-5  -4.499698115978390E-4  
 2.586000000000000E10   -1.946410629898310E-4   5.924097786191851E-5  
 2.588000000000000E10   -4.652689312933944E-5   2.938047109637409E-4  
 2.590000000000000E10    2.692611888051033E-4  -1.360449095955119E-4  
 2.592000000000000E10    1.460561034036800E-4  -2.512922801543027E-4  
 2.594000000000000E10   -1.977914653252810E-4   1.266902254428715E-4  
 2.596000000000000E10   -8.756133865972515E-6   1.542001555208117E-4  
 2.598000000000000E10    3.266631101723760E-4   1.198836325784214E-4  
 2.600000000000000E10    1.696501385595184E-5  -4.879698735749116E-6  
 2.602000000000000E10   -2.525231102481484E-4  -1.763211912475526E-4  
 2.604000000000000E10   -3.076520515605807E-4   1.372456317767501E-4  
 2.606000000000000E10   -2.360479629714973E-5   8.490523032378405E-5  
 2.608000000000000E10   -6.343978748191148E-5  -1.847236271714792E-4  
 2.610000000000000E10   -6.655594916082919E-5  -1.254332601092756E-4  
 2.612000000000000E10   -1.559274096507579E-4  -1.120001888921252E-5  
 2.614000000000000E10   -4.446044476935640E-5  -1.299377763643861E-4  
 2.616000000000000E10    1.782590552465990E-4  -7.813423871994019E-5  
 2.618000000000000E10   -3.701166497194208E-5  -2.049856993835419E-4  
 2.620000000000000E10   -2.080358535749838E-5   9.190566925099120E-5  
 2.622000000000000E10   -1.117505016736686E-4   1.502690429333597E-4  
 2.624000000000000E10    7.335691043408588E-5   1.502662489656359E-4  
 2.626000000000000E10   -5.702752241631970E-5   4.199848262942396E-5  
 2.628000000000000E10    2.821603447955567E-5  -9.169921395368874E-5  
 2.630000000000000E10   -2.295489684911445E-4  -1.655721825954970E-5  
 2.632000000000000E10    1.704197784420103E-4   1.668478507781401E-4  
 2.634000000000000E10    2.135701652150601E-4  -1.341751885775011E-5  
 2.636000000000000E10   -1.466303365305066E-4  -1.766450732247904E-4  
 2.638000000000000E10   -1.597723166923970E-4   1.121386885643005E-4  
 2.640000000000000E10    1.145750866271555E-4   2.988275373354554E-4  
 2.642000000000000E10   -2.419883094262332E-5  -8.289237302960828E-5  
 2.644000000000000E10   -8.241197065217421E-5  -4.305926267988980E-5  
 2.646000000000000E10   -2.435319329379126E-4   9.818702528718859E-5  
 2.648000000000000E10   -2.654899981280323E-5   8.681380859343335E-5  
 2.650000000000000E10    1.303483149968088E-4  -9.368736209580675E-5  
 2.652000000000000E10   -2.258854074170813E-4  -1.388698437949643E-4  
 2.654000000000000E10   -3.966126314480789E-5   1.400808250764385E-4  
 2.656000000000000E10    1.030739949783310E-4  -3.390192887309240E-6  
 2.658000000000000E10   -2.432237124594394E-5   1.519439933872491E-6  
 2.660000000000000E10   -1.297769631491974E-4   1.604099234100431E-4  
 2.662000000000000E10    1.411262201145291E-5   1.684149901848286E-4  
 2.664000000000000E10    8.296309533761814E-5  -8.363402594113722E-5  
 2.666000000000000E10    1.894589076982811E-4  -9.838125697569922E-5  
 2.668000000000000E10   -1.828460954129696E-4  -8.480066026095301E-5  
 2.670000000000000E10   -5.649955346598290E-5  -3.356131492182612E-5  
 2.672000000000000E10    6.649310671491548E-5   5.723208596464247E-5  
 2.674000000000000E10    1.107856860471657E-5   7.347309292526916E-6  
 2.676000000000000E10   -1.576690010551829E-5   8.706733206054196E-5  
 2.678000000000000E10   -5.693682032870129E-5  -2.503174255252816E-5  
 2.680000000000000E10    2.070081973215565E-4   1.652935170568526E-4  
 2.682000000000000E10    1.931356382556260E-4  -1.003989455057308E-4  
 2.684000000000000E10   -2.229074307251722E-4  -2.987766347359866E-4  
 2.686000000000000E10   -1.578474038979039E-4  -1.083870083675720E-4  
 2.688000000000000E10    1.680574059719220E-4   4.798959707841277E-5  
 2.690000000000000E10   -1.221664715558291E-4  -3.793038558796980E-5  
 2.692000000000000E10   -1.039345661411062E-4  -1.756278506945819E-4  
 2.694000000000000E10   -1.124765403801575E-4   1.921307266457006E-4  
 2.696000000000000E10   -5.138980122865178E-5   2.911803312599659E-4  
 2.698000000000000E10    1.249127526534721E-4   1.413977734046057E-4  
 2.700000000000000E10    1.285331381950527E-4   8.136649557854980E-5  
 2.702000000000000E10    3.070082311751321E-5   1.064416646840982E-4  
 2.704000000000000E10   -2.602002059575170E-4   2.086731183226220E-5  
 2.706000000000000E10   -6.822091381764039E-5   8.211733802454546E-5  
 2.708000000000000E10    2.851136960089207E-4  -2.493121610314120E-5  
 2.710000000000000E10   -6.158215546747670E-5  -1.359286252409220E-4  
 2.712000000000000E10   -3.343394782859832E-4   3.006726037710905E-4  
 2.714000000000000E10    2.153041277779266E-4   4.550672892946750E-4  
 2.716000000000000E10    1.846764789661393E-4  -7.251566103150253E-7  
 2.718000000000000E10   -1.586395228514448E-4  -1.858939649537206E-4  
 2.720000000000000E10   -2.111338981194422E-4   1.011526619549841E-4  
 2.722000000000000E10    6.721539102727547E-5   2.639677259139717E-4  
 2.724000000000000E10    1.509403082309291E-4  -1.448139391868608E-5  
 2.726000000000000E10   -1.487724803155288E-4  -1.846431696321815E-4  
 2.728000000000000E10   -7.109836587915197E-5   8.979101403383538E-5  
 2.730000000000000E10    1.688341726548970E-4   2.020732354139909E-4  
 2.732000000000000E10    2.061682025669143E-4   1.289228530367836E-4  
 2.734000000000000E10   -7.229395851027221E-5   7.360411109402776E-5  
 2.736000000000000E10   -1.351644168607891E-4   1.501883089076728E-4  
 2.738000000000000E10    5.018787487642840E-5  -7.420533802360296E-5  
 2.740000000000000E10   -2.163879544241354E-4   3.894863766618073E-5  
 2.742000000000000E10   -9.527062502456829E-5   9.147039236268029E-5  
 2.744000000000000E10    1.553987385705113E-4  -1.506679109297693E-4  
 2.746000000000000E10   -3.929735248675570E-5  -1.167435329989530E-4  
 2.748000000000000E10    1.761574276315514E-5   2.590889635030180E-4  
 2.750000000000000E10    2.928886387962848E-4  -4.900912699667970E-6  
 2.752000000000000E10    2.751448482740670E-4   1.130783675762359E-5  
 2.754000000000000E10   -5.848396176588722E-5  -6.348404713207856E-5  
 2.756000000000000E10    6.469524669228122E-5   3.037973947357386E-4  
