#  HZ   S   RI   R     50.00 
! Rohde & Schwarz ZVA40 4Ports - Version 3.90 - 1145.1110k42 SN: 100403
! Date: 2023-10-04 09:01:13
! Measurement: S12 
! 
 2.200000000000000E10   -3.976531443186104E-4   5.400056834332645E-4  
 2.202000000000000E10    5.266079097054899E-4   2.015856880461797E-4  
 2.204000000000000E10    3.936392604373395E-4  -5.681980983354151E-4  
 2.206000000000000E10   -4.852955462411046E-4  -3.473889664746821E-4  
 2.208000000000000E10   -3.850772918667644E-4   4.774276458192617E-4  
 2.210000000000000E10    7.733556558378041E-4   2.199013397330418E-4  
 2.212000000000000E10    2.441755495965481E-4  -3.967105003539473E-4  
 2.214000000000000E10   -3.793787618633360E-4  -5.039178649894893E-4  
 2.216000000000000E10   -1.077063861885108E-4   3.942331823054701E-4  
 2.218000000000000E10    5.215970450080931E-4   1.347080105915666E-4  
 2.220000000000000E10    2.849117736332119E-4  -3.722725668922067E-4  
 2.222000000000000E10   -8.254658314399421E-5  -3.168485272908583E-5  
 2.224000000000000E10   -3.043939068447799E-4   1.419736800016835E-4  
 2.226000000000000E10    1.410320110153407E-4  -4.090171205461957E-5  
 2.228000000000000E10    1.684802118688822E-4  -1.769415121088969E-6  
 2.230000000000000E10   -7.914611342130229E-5  -2.517127140890807E-4  
 2.232000000000000E10   -7.964318501763046E-5  -4.817937951884233E-5  
 2.234000000000000E10    2.981965189974289E-5   1.910431310534477E-4  
 2.236000000000000E10   -8.427476859651506E-5  -8.805576362647116E-5  
 2.238000000000000E10   -1.586420148669276E-5  -2.151241351384670E-4  
 2.240000000000000E10   -1.232964568771422E-4   1.201728373416700E-4  
 2.242000000000000E10   -1.897390757221729E-4   1.236310781678185E-4  
 2.244000000000000E10   -3.534633287927136E-5   6.912094704603078E-6  
 2.246000000000000E10   -4.474518937058747E-5   1.546952844364569E-4  
 2.248000000000000E10    1.421803608536720E-4   1.062203809851781E-4  
 2.250000000000000E10    1.744256733218208E-4  -3.867504346999340E-6  
 2.252000000000000E10   -2.053328644251451E-4  -1.848476676968858E-4  
 2.254000000000000E10   -1.133654441218823E-4   2.773972810246050E-4  
 2.256000000000000E10    3.756693622563034E-4   1.378763845423237E-4  
 2.258000000000000E10    3.452567034401000E-4  -8.328489639097825E-5  
 2.260000000000000E10   -2.952656359411776E-4  -1.991279350477271E-5  
 2.262000000000000E10    4.270643694326282E-5   3.215236356481910E-4  
 2.264000000000000E10    2.946198510471731E-4   1.562940888106823E-4  
 2.266000000000000E10    1.565893326187506E-4  -2.456588845234364E-4  
 2.268000000000000E10   -1.945290860021487E-4   1.189022877952084E-4  
 2.270000000000000E10    3.038849390577525E-4   1.981590903596953E-4  
 2.272000000000000E10    2.254287537652999E-4   5.628245708066970E-5  
 2.274000000000000E10   -1.534233706479427E-5  -6.386810127878562E-6  
 2.276000000000000E10    4.820221511181444E-5   1.025557212415151E-4  
 2.278000000000000E10    5.955250235274434E-4   1.946809061337262E-4  
 2.280000000000000E10   -2.144180907635018E-4  -2.607492497190833E-4  
 2.282000000000000E10   -3.696713829413056E-4  -2.161919692298397E-4  
 2.284000000000000E10    9.917079296428710E-5   3.488286456558853E-4  
 2.286000000000000E10    3.176309692207724E-4  -2.543187292758375E-4  
 2.288000000000000E10   -1.681176654528827E-4  -2.269327815156430E-4  
 2.290000000000000E10   -1.523849205113947E-4   2.545863098930568E-4  
 2.292000000000000E10    3.790451155509800E-4   3.089265665039420E-4  
 2.294000000000000E10    1.882022625068203E-4  -4.763862234540284E-4  
 2.296000000000000E10   -4.184183489996940E-4  -1.022245851345360E-4  
 2.298000000000000E10   -2.184660843340680E-4   4.989813314750791E-4  
 2.300000000000000E10    2.047260932158679E-4   5.399704241426662E-5  
 2.302000000000000E10   -2.389653091086075E-4  -2.279324835399166E-4  
 2.304000000000000E10   -3.606324025895447E-4   2.224870695499703E-4  
 2.306000000000000E10    1.440603955416009E-4   1.406802475685254E-4  
 2.308000000000000E10    1.203046194859780E-4  -1.597468653926626E-4  
 2.310000000000000E10   -4.644705331884325E-4   1.239708653884009E-4  
 2.312000000000000E10   -2.494728687452152E-5   3.103197086602449E-4  
 2.314000000000000E10    3.741956315934658E-4  -6.621404935458486E-8  
 2.316000000000000E10   -7.571253809146583E-5  -3.463329339865595E-4  
 2.318000000000000E10   -2.836963976733387E-4   3.233950119465590E-4  
 2.320000000000000E10    2.504170988686383E-4   1.776745484676212E-4  
 2.322000000000000E10    1.842662022681907E-4  -2.105891326209530E-5  
 2.324000000000000E10   -3.970397756347666E-6  -2.410797060292680E-5  
 2.326000000000000E10   -3.595108864828944E-4   3.926261269953102E-4  
 2.328000000000000E10    1.103497124859132E-4   3.581878263503313E-5  
 2.330000000000000E10    2.837418833223637E-5   9.791060438146815E-5  
 2.332000000000000E10   -3.095449937973172E-4  -9.759114618645981E-5  
 2.334000000000000E10    1.285109319724143E-4   1.888038823381066E-4  
 2.336000000000000E10    6.092885087127797E-6  -1.299714640481398E-4  
 2.338000000000000E10   -3.950318568968214E-5  -1.149825984612107E-4  
 2.340000000000000E10   -8.388484275201336E-5   1.633628417039290E-4  
 2.342000000000000E10    1.903627853607759E-4   4.366890643723309E-4  
 2.344000000000000E10    9.444225725019351E-5  -2.871924370992929E-4  
 2.346000000000000E10   -2.529759658500552E-4  -1.560015080031008E-4  
 2.348000000000000E10   -9.525674249744043E-5   6.005721515975893E-4  
 2.350000000000000E10    6.767349550500512E-4  -1.612097839824855E-4  
 2.352000000000000E10   -6.455329275922850E-5  -3.478415019344539E-4  
 2.354000000000000E10   -3.706188872456551E-4   2.648044028319418E-4  
 2.356000000000000E10    3.743708657566458E-4   5.045388825237751E-4  
 2.358000000000000E10    5.719137261621654E-4  -3.238324425183237E-4  
 2.360000000000000E10   -1.889232225948945E-4  -2.876764046959579E-4  
 2.362000000000000E10   -1.459391205571592E-4   3.041119489353150E-4  
 2.364000000000000E10    3.955603460781276E-4   3.519982274156064E-4  
 2.366000000000000E10    2.811894519254565E-4  -5.006002611480653E-4  
 2.368000000000000E10   -5.039479219703935E-5  -1.868605031631887E-4  
 2.370000000000000E10   -1.857373863458633E-4   3.963348863180727E-4  
 2.372000000000000E10    3.561197663657367E-4   1.335102570010349E-4  
 2.374000000000000E10    3.083179472014308E-4  -4.366056527942419E-4  
 2.376000000000000E10   -2.212469262303785E-4  -2.682231206563301E-5  
 2.378000000000000E10    2.570402102719527E-5   2.944941516034305E-4  
 2.380000000000000E10    1.361857284791768E-4   1.383608105243184E-5  
 2.382000000000000E10   -1.138914012699388E-4  -1.762161118676886E-4  
 2.384000000000000E10   -1.593162014614791E-4  -4.331323361839168E-5  
 2.386000000000000E10    2.486250741640106E-5   3.438552375882864E-4  
 2.388000000000000E10    4.439441545400769E-5  -8.547178731532767E-5  
 2.390000000000000E10   -2.153302921215072E-4  -7.906520295364317E-6  
 2.392000000000000E10   -2.801612718030810E-4  -1.128316034737509E-5  
 2.394000000000000E10    6.516834400827065E-5   1.442139327991754E-4  
 2.396000000000000E10    1.842472011048812E-5  -8.846470882417634E-5  
 2.398000000000000E10   -2.632649557199329E-4  -3.664053219836205E-4  
 2.400000000000000E10   -1.578433293616399E-4   2.148351450159680E-5  
 2.402000000000000E10    2.623079053591937E-4   8.443483966402710E-5  
 2.404000000000000E10    3.133577774860896E-5  -9.681587107479572E-5  
 2.406000000000000E10   -3.121120680589229E-4   1.732913806336001E-4  
 2.408000000000000E10    2.299662592122331E-4   2.712112909648567E-4  
 2.410000000000000E10    1.096201158361509E-4  -1.238249096786603E-4  
 2.412000000000000E10   -2.114988747052848E-4   8.705026993993670E-5  
 2.414000000000000E10   -1.899417475215159E-5   1.532363385194913E-4  
 2.416000000000000E10    3.655263571999967E-4   2.102191356243566E-4  
 2.418000000000000E10   -3.420154826017097E-5  -2.734273148234934E-4  
 2.420000000000000E10   -4.651656781788915E-4   2.650479436852038E-4  
 2.422000000000000E10   -9.209173731505871E-5   5.347385304048657E-4  
 2.424000000000000E10    5.405119736678898E-4  -9.066528582479805E-5  
 2.426000000000000E10   -3.167286340612918E-4  -5.497005768120289E-4  
 2.428000000000000E10   -2.976880350615829E-4   2.868643496185541E-4  
 2.430000000000000E10    3.879675350617617E-4   5.446990253403783E-4  
 2.432000000000000E10    5.240530590526760E-4  -4.888526746071875E-4  
 2.434000000000000E10   -4.462219076231122E-4  -3.882867167703807E-4  
 2.436000000000000E10   -2.517740067560226E-4   5.296797608025372E-4  
 2.438000000000000E10    4.110221925657243E-4   3.554318100214005E-4  
 2.440000000000000E10    1.730789226712659E-4  -4.190366598777473E-4  
 2.442000000000000E10   -4.992894246242940E-4  -2.066528249997646E-4  
 2.444000000000000E10   -5.562234218814410E-5   3.983538481406868E-4  
 2.446000000000000E10    1.003928264253773E-4   2.432783512631431E-4  
 2.448000000000000E10    1.262326259166002E-4  -2.050983748631552E-4  
 2.450000000000000E10   -2.852102261385880E-5  -2.912617637775838E-4  
 2.452000000000000E10   -6.973896688577952E-6   2.198872243752703E-4  
 2.454000000000000E10    9.801796841202304E-5  -5.008285825169878E-6  
 2.456000000000000E10    1.559715428811614E-6  -8.422954851994291E-5  
 2.458000000000000E10   -1.035361128742807E-4   2.616106939967722E-4  
 2.460000000000000E10    1.688726842985489E-5  -1.268792402697727E-4  
 2.462000000000000E10    2.721835044212639E-4  -9.093905828194693E-5  
 2.464000000000000E10   -2.508932375349104E-4   1.907182886498049E-4  
 2.466000000000000E10    3.542343620210886E-4   5.672580300597474E-5  
 2.468000000000000E10    2.889728057198227E-4  -1.809613459045067E-4  
 2.470000000000000E10   -4.133457550778985E-4  -1.539507356937975E-4  
 2.472000000000000E10   -1.020188574329950E-4   3.668311401270330E-4  
 2.474000000000000E10    2.529789926484227E-4   5.270203109830618E-5  
 2.476000000000000E10    2.158046845579520E-4  -3.639724745880812E-4  
 2.478000000000000E10   -5.369567661546171E-4  -1.464482047595084E-4  
 2.480000000000000E10    7.232205098262057E-5   6.958568119443953E-4  
 2.482000000000000E10    4.056806501466781E-4   1.317247515544295E-4  
 2.484000000000000E10    2.067656459985301E-4  -4.468802944757044E-4  
 2.486000000000000E10   -5.384444375522435E-4  -7.001186168054119E-5  
 2.488000000000000E10   -1.898370646813419E-5   6.201061769388616E-4  
 2.490000000000000E10    4.515439213719219E-4   1.219378973473795E-4  
 2.492000000000000E10    8.712181443115696E-5  -4.793908738065511E-4  
 2.494000000000000E10   -4.483201773837209E-4   2.709854743443430E-4  
 2.496000000000000E10   -5.346575198927894E-5   3.516429569572210E-4  
 2.498000000000000E10    2.008985320571810E-4   1.210680784424767E-4  
 2.500000000000000E10    1.311513369728345E-5  -4.008068353869021E-4  
 2.502000000000000E10   -1.447306567570195E-4   3.905920311808586E-5  
 2.504000000000000E10    6.806008605053648E-5   2.372044837102294E-4  
 2.506000000000000E10    3.390453057363629E-4   1.392729609506205E-4  
 2.508000000000000E10    3.322384145576507E-5  -7.277853728737682E-5  
 2.510000000000000E10    4.934443040838232E-6  -1.489114511059597E-4  
 2.512000000000000E10   -1.327604695688933E-4   1.592039188835770E-4  
 2.514000000000000E10    1.177675221697427E-4   2.337477344553918E-4  
 2.516000000000000E10    1.731683296384290E-4  -6.918970029801130E-5  
 2.518000000000000E10    4.937205812893808E-5  -1.203758947667666E-4  
 2.520000000000000E10   -1.622729760129005E-4   3.754549106815830E-5  
 2.522000000000000E10   -1.912395673571155E-4  -2.508307625248563E-5  
 2.524000000000000E10    1.606056903256103E-4   1.435810409020633E-4  
 2.526000000000000E10    1.798876182874665E-4  -2.318464830750600E-4  
 2.528000000000000E10   -2.268964271934237E-5  -1.794899144442752E-4  
 2.530000000000000E10   -3.622928634285927E-4   1.326373894698918E-4  
 2.532000000000000E10    1.824020728236064E-4   5.508918548002839E-4  
 2.534000000000000E10    3.049601800739765E-4  -2.684293940546922E-5  
 2.536000000000000E10   -1.379867462674156E-4  -3.141069901175797E-4  
 2.538000000000000E10   -4.678076365962625E-4   3.028569917660207E-4  
 2.540000000000000E10    1.214931908180006E-4   1.728152710711584E-4  
 2.542000000000000E10    3.472225216683000E-4  -1.368008233839646E-4  
 2.544000000000000E10   -3.345556615386158E-4  -2.497532695997506E-4  
 2.546000000000000E10   -1.132194593083113E-4   1.565918064443395E-4  
 2.548000000000000E10    1.986600545933470E-4   3.097277076449245E-4  
 2.550000000000000E10    1.360700116492808E-4   6.203803059179336E-5  
 2.552000000000000E10   -6.295586354099214E-5  -5.369681821321137E-5  
 2.554000000000000E10   -1.466995890950784E-4   4.146488572587259E-5  
 2.556000000000000E10   -1.332399988314137E-4   1.829943066695705E-4  
 2.558000000000000E10    5.389124635257758E-5   9.227644477505237E-5  
 2.560000000000000E10   -5.092964056530036E-5   1.104963303077966E-5  
 2.562000000000000E10   -9.452151425648481E-5  -2.370678848819807E-4  
 2.564000000000000E10   -1.372537662973627E-4  -1.983982656383887E-4  
 2.566000000000000E10   -2.440155412841705E-6   1.621745323063806E-4  
 2.568000000000000E10    2.299343032063916E-4   1.954815961653367E-4  
 2.570000000000000E10    6.779672548873350E-5  -1.976373023353517E-4  
 2.572000000000000E10   -1.726732734823600E-4   6.261868111323565E-5  
 2.574000000000000E10   -1.920220092870295E-4   2.438346018607263E-5  
 2.576000000000000E10    6.079019658500329E-5  -6.642264634137973E-5  
 2.578000000000000E10    7.812463445588946E-5  -3.375512314960361E-4  
 2.580000000000000E10   -9.405497985426337E-5  -2.613448014017195E-4  
 2.582000000000000E10   -1.180936524178833E-4   9.557276644045487E-5  
 2.584000000000000E10    1.022087453748100E-4   1.938940840773284E-5  
 2.586000000000000E10    1.468838745495305E-4  -3.114249266218394E-4  
 2.588000000000000E10    5.803651947644539E-5  -7.592557813040912E-5  
 2.590000000000000E10   -3.421133151277900E-4  -5.109858989271743E-7  
 2.592000000000000E10    1.373155391775072E-4   1.888160622911528E-4  
 2.594000000000000E10    1.881204516394064E-4  -1.635963235457894E-5  
 2.596000000000000E10   -9.703508840175346E-5  -3.737767692655325E-4  
 2.598000000000000E10   -3.681801317725331E-4   9.412007784703746E-5  
 2.600000000000000E10   -7.244837615871802E-5   3.575799928512424E-4  
 2.602000000000000E10    1.750323426676914E-4  -2.392741444054991E-4  
 2.604000000000000E10   -1.222871069330722E-4  -2.877960505429655E-4  
 2.606000000000000E10   -1.947528653545305E-4   3.781308187171817E-4  
 2.608000000000000E10   -8.847181015880778E-5   1.907896366901696E-4  
 2.610000000000000E10    1.351368118776009E-4   4.114965122425929E-6  
 2.612000000000000E10   -1.642138668103144E-4  -1.759785227477551E-4  
 2.614000000000000E10   -1.576509384904057E-4   2.595632577140350E-5  
 2.616000000000000E10    1.049416459864005E-5   7.496410398744047E-5  
 2.618000000000000E10    3.077049914281815E-4   2.345476241316646E-4  
 2.620000000000000E10    1.954424369614571E-4  -2.029858733294532E-4  
 2.622000000000000E10   -1.249220367753878E-4  -2.457844675518572E-5  
 2.624000000000000E10   -2.273772988701239E-4   1.705087051959708E-4  
 2.626000000000000E10    2.868499723263085E-4   2.467009180691093E-4  
 2.628000000000000E10   -2.355423202970997E-4  -2.076175151159987E-4  
 2.630000000000000E10   -2.544074668549001E-4  -2.613355463836342E-4  
 2.632000000000000E10    1.086598567781039E-4   1.934280444402248E-4  
 2.634000000000000E10    5.651935498462990E-5   3.491391180432402E-5  
 2.636000000000000E10    1.108365831896663E-4  -1.783258048817515E-4  
 2.638000000000000E10   -2.281286469951738E-5   3.939700764021836E-5  
 2.640000000000000E10   -6.432543159462512E-5   2.065321314148605E-4  
 2.642000000000000E10    1.506196131231263E-4   2.238733286503702E-4  
 2.644000000000000E10    1.373655686620623E-4   1.687714247964323E-4  
 2.646000000000000E10   -6.328235758701339E-5  -1.873364340099215E-6  
 2.648000000000000E10    9.971022336685564E-6  -5.554479685088154E-6  
 2.650000000000000E10   -1.211665439768694E-4   5.333690569386818E-5  
 2.652000000000000E10    1.683689333731309E-4  -1.463568187318742E-4  
 2.654000000000000E10    6.425157334888354E-5  -2.190919185522944E-4  
 2.656000000000000E10   -1.936501939781010E-4   8.698312012711540E-5  
 2.658000000000000E10    2.994914757437073E-5   1.508056593593210E-4  
 2.660000000000000E10    3.035791451111436E-4   2.344602689845488E-4  
 2.662000000000000E10    5.106115622766083E-6  -2.142247540177777E-4  
 2.664000000000000E10    1.446468741050921E-5   2.475605651852675E-5  
 2.666000000000000E10   -1.137482395279221E-4   8.354752208106220E-5  
 2.668000000000000E10    9.257583587896079E-5   7.794638804625720E-5  
 2.670000000000000E10    6.673693860648200E-5  -1.359889720333740E-4  
 2.672000000000000E10    5.652340769302100E-5  -2.084392326651141E-4  
 2.674000000000000E10   -1.367001573271409E-6  -7.259190897457302E-5  
 2.676000000000000E10    1.109968798118644E-4   1.375481951981783E-4  
 2.678000000000000E10    1.371256075799465E-4   1.561414101161063E-4  
 2.680000000000000E10    8.342006185557693E-5  -1.199161997647025E-4  
 2.682000000000000E10   -6.469070649472997E-5   7.518243364756927E-5  
 2.684000000000000E10   -6.498058792203665E-5   1.999170635826886E-4  
 2.686000000000000E10    1.643468276597560E-4  -1.509050634922460E-4  
 2.688000000000000E10   -2.099742705468088E-4  -8.469338354188949E-5  
 2.690000000000000E10   -2.506079908926040E-4  -2.251719888590742E-5  
 2.692000000000000E10    1.152859767898917E-4  -4.342215470387600E-5  
 2.694000000000000E10    1.207032400998287E-4   1.309884682996199E-4  
 2.696000000000000E10    1.675515231909230E-4  -1.006099628284574E-4  
 2.698000000000000E10   -7.373227708740160E-5  -3.284993363195099E-5  
 2.700000000000000E10   -2.553926424297970E-5   1.938088389579207E-4  
 2.702000000000000E10    1.739466242725030E-4  -7.613725028932095E-5  
 2.704000000000000E10   -7.624739373568445E-5  -9.105628123506904E-5  
 2.706000000000000E10   -2.498824323993176E-4   5.074025830253959E-5  
 2.708000000000000E10   -1.618440364836715E-5   1.207915920531377E-4  
 2.710000000000000E10    2.263902279082686E-4  -1.864789373939857E-4  
 2.712000000000000E10   -1.641698618186638E-4  -2.010708558373153E-4  
 2.714000000000000E10   -3.446427945164032E-5   1.587797160027549E-4  
 2.716000000000000E10    3.229529538657516E-4   1.537848293082789E-4  
 2.718000000000000E10    9.332762419944629E-5  -2.676467120181769E-4  
 2.720000000000000E10   -5.365710239857435E-5  -1.894038578029722E-4  
 2.722000000000000E10   -2.725742524489760E-4   6.698084325762466E-5  
 2.724000000000000E10    1.717054256005213E-4   6.755662616342306E-5  
 2.726000000000000E10    4.358836122264620E-6  -5.763320586993359E-5  
 2.728000000000000E10   -1.712357625365257E-4   1.797125878510997E-5  
 2.730000000000000E10   -4.773754699272104E-5   3.090864338446409E-4  
 2.732000000000000E10    2.177151764044538E-4   7.943743548821658E-5  
 2.734000000000000E10   -5.041504482505843E-5  -1.003495199256577E-4  
 2.736000000000000E10   -6.562951602973044E-5  -2.603547545731999E-5  
 2.738000000000000E10    2.463973032718059E-5  -7.323656609514728E-5  
 2.740000000000000E10   -1.634865111554973E-5  -5.331138527253643E-5  
 2.742000000000000E10    2.895672696467955E-5   1.574012567289174E-4  
 2.744000000000000E10    2.346371620660648E-4  -1.583613047841936E-4  
 2.746000000000000E10   -2.629387381603010E-5  -2.070394111797214E-4  
 2.748000000000000E10   -2.590174844954163E-4  -5.416843123384751E-5  
 2.750000000000000E10    1.083669194485992E-4   4.085559630766511E-4  
 2.752000000000000E10    3.836732357740402E-4  -1.332281681243330E-4  
 2.754000000000000E10   -7.433683640556410E-5  -1.502640807302669E-4  
 2.756000000000000E10   -2.158189745387062E-4   7.314837148442166E-6  
