#  HZ   S   RI   R     50.00 
! Rohde & Schwarz ZVA40 4Ports - Version 3.90 - 1145.1110k42 SN: 100403
! Date: 2023-10-04 09:00:55
! Measurement: S12 
! 
 2.200000000000000E10    2.854911690519657E-5  -2.836038183886558E-4  
 2.202000000000000E10   -5.767764523625374E-4  -1.260815333807841E-4  
 2.204000000000000E10   -1.502896484453231E-4   3.983719216194004E-4  
 2.206000000000000E10   -2.008484443649650E-4  -1.212954739457928E-4  
 2.208000000000000E10   -3.553499700501561E-4   1.744017208693549E-5  
 2.210000000000000E10   -2.097463002428412E-4   1.480445935158059E-4  
 2.212000000000000E10    6.113761919550598E-4   3.128516837023199E-4  
 2.214000000000000E10   -8.298687134811189E-6  -2.394297916907817E-4  
 2.216000000000000E10    8.071121555985883E-5  -1.697589468676597E-4  
 2.218000000000000E10   -6.319147360045463E-5   3.428976924624294E-4  
 2.220000000000000E10    3.965367213822901E-4  -3.463841494522058E-5  
 2.222000000000000E10    9.328389569418505E-5  -7.557890057796612E-5  
 2.224000000000000E10   -2.681254409253597E-4  -1.770089147612453E-4  
 2.226000000000000E10   -1.545029517728835E-4   3.751598997041583E-4  
 2.228000000000000E10    4.625611181836575E-4  -7.420101610478014E-5  
 2.230000000000000E10    3.001057775691152E-4  -5.091772763989866E-4  
 2.232000000000000E10   -4.494952736422420E-4  -1.348407968180254E-4  
 2.234000000000000E10   -3.150734846713021E-5   3.987599629908800E-4  
 2.236000000000000E10    2.103491424350068E-4   8.422543032793328E-5  
 2.238000000000000E10    1.280435099033639E-4  -3.954148269258440E-4  
 2.240000000000000E10   -3.907134523615241E-4   3.289896267233416E-5  
 2.242000000000000E10   -1.958921493496746E-4   1.094586405088194E-4  
 2.244000000000000E10   -8.605944458395243E-5  -1.460542553104460E-4  
 2.246000000000000E10    3.995881706941873E-5  -2.885455614887178E-4  
 2.248000000000000E10   -1.635770022403449E-4   2.110179921146482E-4  
 2.250000000000000E10   -5.567338303080760E-5   2.189181541325524E-4  
 2.252000000000000E10   -1.383343915222213E-4  -2.351732746319613E-6  
 2.254000000000000E10   -1.764809421729296E-4   2.390776935499162E-4  
 2.256000000000000E10    2.916688099503517E-4   3.552766866050661E-4  
 2.258000000000000E10    3.447537601459771E-4  -3.618540649767965E-4  
 2.260000000000000E10   -5.399516085162759E-4  -5.456174840219319E-4  
 2.262000000000000E10   -3.871557419188321E-4   4.300954751670361E-4  
 2.264000000000000E10    3.805237938649952E-4   4.521115624811500E-4  
 2.266000000000000E10    4.960643709637225E-4  -6.987198139540851E-4  
 2.268000000000000E10   -7.560569792985916E-4  -3.708674339577556E-4  
 2.270000000000000E10   -3.158676263410598E-4   9.206768590956926E-4  
 2.272000000000000E10    9.799357503652573E-4   3.687426506076008E-4  
 2.274000000000000E10    1.343386684311554E-4  -9.758519590832293E-4  
 2.276000000000000E10   -7.550718146376312E-4  -1.653932704357430E-4  
 2.278000000000000E10   -1.546810672152787E-4   8.726260857656598E-4  
 2.280000000000000E10    7.961071096360683E-4   1.382763148285449E-4  
 2.282000000000000E10    5.402585957199335E-4  -4.126860585529357E-4  
 2.284000000000000E10   -4.213316715322435E-4  -2.657021686900407E-4  
 2.286000000000000E10   -1.621876726858318E-4   6.318733212538064E-4  
 2.288000000000000E10    5.945441080257297E-4   1.371847756672651E-4  
 2.290000000000000E10    1.106002891901881E-4  -7.172403275035322E-4  
 2.292000000000000E10   -3.685734118334949E-4   1.402225025231019E-4  
 2.294000000000000E10    1.290837681153789E-4   2.888397721108049E-4  
 2.296000000000000E10    1.990624004974961E-4  -4.013955913251266E-5  
 2.298000000000000E10   -6.123731145635247E-5  -3.255606497987174E-5  
 2.300000000000000E10    9.623428923077881E-5   1.535723858978599E-4  
 2.302000000000000E10    2.014526544371620E-4  -1.271296787308529E-4  
 2.304000000000000E10   -1.684171438682824E-4  -3.168266557622701E-4  
 2.306000000000000E10   -2.354401949560270E-4  -3.767874886762002E-6  
 2.308000000000000E10    2.815753687173128E-4   2.422549587208778E-4  
 2.310000000000000E10    1.701722794678062E-4  -5.705169751308858E-4  
 2.312000000000000E10   -3.018184506800026E-4  -5.601621815003455E-4  
 2.314000000000000E10   -3.081373579334468E-4   5.228223744779825E-4  
 2.316000000000000E10    5.185157642699778E-4   8.660065759613644E-6  
 2.318000000000000E10    6.823250441811979E-5  -6.637034821324050E-4  
 2.320000000000000E10   -5.911176558583975E-4  -2.242358314106241E-4  
 2.322000000000000E10    1.196741050080163E-5   5.662374896928668E-4  
 2.324000000000000E10    6.710407324135304E-4  -1.959579094545916E-4  
 2.326000000000000E10   -6.919972656760365E-5  -5.464369314722717E-4  
 2.328000000000000E10   -2.507498720660806E-4   7.124400872271508E-5  
 2.330000000000000E10    2.596605918370187E-4   5.415701307356358E-4  
 2.332000000000000E10    1.701171422610059E-4  -2.911289047915489E-4  
 2.334000000000000E10   -1.280536380363628E-4  -2.767414553090930E-4  
 2.336000000000000E10   -2.292932331329212E-4   4.295677936170250E-4  
 2.338000000000000E10    3.050898376386613E-4   6.215272151166573E-5  
 2.340000000000000E10   -2.576730003056582E-5  -2.826290728989989E-4  
 2.342000000000000E10   -2.857057261280716E-4   3.102372284047306E-4  
 2.344000000000000E10    2.143712335964665E-4   4.629562317859381E-5  
 2.346000000000000E10    8.964287553681061E-5  -2.698605239856988E-4  
 2.348000000000000E10   -1.873229921329767E-4  -5.646763020195067E-5  
 2.350000000000000E10   -1.277877890970558E-5   3.405062307137996E-4  
 2.352000000000000E10    3.402364091016352E-4   3.471224626991898E-4  
 2.354000000000000E10   -5.051974221714772E-5  -3.600382478907704E-4  
 2.356000000000000E10   -9.969462553272024E-5  -1.318006688961759E-4  
 2.358000000000000E10   -2.713036083150655E-4   2.575299586169422E-4  
 2.360000000000000E10    1.999030500883237E-4   2.047889865934849E-4  
 2.362000000000000E10    9.257522469852120E-5  -1.805038773454726E-4  
 2.364000000000000E10   -2.698629978112876E-4  -1.214717049151659E-4  
 2.366000000000000E10   -2.564021560829133E-4   2.087249449687079E-4  
 2.368000000000000E10    2.614065851958003E-5   3.239284560550004E-4  
 2.370000000000000E10    1.068379206117243E-4  -1.771713868947700E-4  
 2.372000000000000E10    2.373795359744690E-5  -1.404932554578409E-4  
 2.374000000000000E10   -7.931224536150694E-5  -7.922344025246275E-7  
 2.376000000000000E10    2.715731097850949E-4   4.407545566209592E-5  
 2.378000000000000E10    5.795490142190829E-5  -1.191419505630620E-4  
 2.380000000000000E10   -1.888366023194976E-5  -2.679380704648793E-4  
 2.382000000000000E10   -1.843513746280223E-4  -2.067775676550809E-5  
 2.384000000000000E10   -9.372339991386980E-5   5.189789953874424E-5  
 2.386000000000000E10   -1.122112444136292E-4  -7.970024307724088E-5  
 2.388000000000000E10    4.737522976938635E-5  -2.831253514159471E-4  
 2.390000000000000E10    7.784509944031015E-5  -3.792190109379590E-4  
 2.392000000000000E10   -1.043787124217488E-4  -1.351380342384800E-4  
 2.394000000000000E10    3.539876706781797E-5   1.819178578443825E-4  
 2.396000000000000E10    2.069182082777843E-4  -2.858419793483336E-5  
 2.398000000000000E10    5.720534318243153E-5  -5.085890297777951E-4  
 2.400000000000000E10   -4.241951100993902E-4   6.900672451592982E-5  
 2.402000000000000E10   -6.806475994380890E-6   1.888109545689076E-4  
 2.404000000000000E10    3.821950522251427E-4  -3.354999062139541E-4  
 2.406000000000000E10   -3.832278889603913E-4  -4.041632055304945E-4  
 2.408000000000000E10   -2.822218812070787E-4   2.990709035657346E-4  
 2.410000000000000E10    2.946574531961232E-4   1.481596555095166E-4  
 2.412000000000000E10    4.864996299147606E-5  -2.022796543315053E-4  
 2.414000000000000E10   -3.467556962277740E-4  -8.708063251106069E-5  
 2.416000000000000E10   -3.343874705024064E-4   1.456290920032188E-4  
 2.418000000000000E10    7.528861169703305E-5   1.242137805093080E-4  
 2.420000000000000E10    5.024372876505368E-5  -2.755789901129901E-4  
 2.422000000000000E10   -1.155077043222264E-4  -1.266825420316309E-4  
 2.424000000000000E10   -3.812394061242230E-5   2.223637566203252E-4  
 2.426000000000000E10    1.527059212094173E-4   2.235576539533213E-4  
 2.428000000000000E10   -4.177734808763489E-5  -2.606643465696834E-5  
 2.430000000000000E10   -1.759780425345525E-4  -1.393885122524807E-5  
 2.432000000000000E10   -8.782871736912057E-5   9.400842827744782E-5  
 2.434000000000000E10    9.846769535215572E-5  -7.413815183099359E-5  
 2.436000000000000E10    2.394728944636881E-4  -1.654920342843980E-4  
 2.438000000000000E10   -7.798748265486211E-5   1.188462119898759E-4  
 2.440000000000000E10    1.986981369554997E-4   1.400475593982264E-4  
 2.442000000000000E10    2.557041880208999E-4  -9.443735507375095E-6  
 2.444000000000000E10    5.533066723728553E-5   2.145575708709657E-4  
 2.446000000000000E10    9.618479089112952E-5   1.248089247383177E-4  
 2.448000000000000E10   -6.595343438675627E-5   7.941676449263468E-5  
 2.450000000000000E10    6.478603609139100E-5   2.156683331122622E-4  
 2.452000000000000E10    7.498531340388581E-5   5.950790000497364E-5  
 2.454000000000000E10   -5.822210368933156E-5   1.410400873282924E-4  
 2.456000000000000E10    2.178306895075366E-4  -1.024524462991394E-4  
 2.458000000000000E10   -1.382208865834400E-4   3.708438816829585E-5  
 2.460000000000000E10   -8.430702291661874E-5   4.001527850050479E-4  
 2.462000000000000E10    2.637298312038183E-4   1.998304069275037E-4  
 2.464000000000000E10   -1.159375242423266E-4  -2.445692371111363E-4  
 2.466000000000000E10   -4.316696140449494E-4   1.809508103178814E-4  
 2.468000000000000E10    5.709187098545954E-5   3.303407283965498E-4  
 2.470000000000000E10    3.650966682471335E-4  -1.645694865146652E-4  
 2.472000000000000E10    5.632200918626040E-5  -3.497082798276097E-4  
 2.474000000000000E10   -3.506458597257733E-4   2.274870639666915E-4  
 2.476000000000000E10    1.527692220406607E-4   3.530044632498175E-4  
 2.478000000000000E10    3.381698916200548E-4  -1.783795305527747E-4  
 2.480000000000000E10   -1.570586609886959E-4   3.295186559171270E-7  
 2.482000000000000E10   -4.042776417918503E-4  -1.408741372870281E-4  
 2.484000000000000E10    1.184233260573819E-4   2.179509901907295E-4  
 2.486000000000000E10    2.099475968861952E-4  -1.626172888791189E-4  
 2.488000000000000E10   -1.883519871626049E-4  -1.820072066038847E-4  
 2.490000000000000E10    2.473488166288007E-6   1.886993122752756E-4  
 2.492000000000000E10   -2.015341578953667E-6   6.903261964907870E-5  
 2.494000000000000E10    1.240133715327829E-4  -1.548706204630435E-4  
 2.496000000000000E10   -1.719973806757480E-4   8.593168604420498E-5  
 2.498000000000000E10   -1.322105090366676E-4   2.215998392784968E-4  
 2.500000000000000E10   -1.386885833198903E-5  -3.638790803961456E-5  
 2.502000000000000E10    3.542813647072762E-5   1.185724613605999E-4  
 2.504000000000000E10    1.735043770167977E-5   4.777356298291124E-5  
 2.506000000000000E10    1.228237670147792E-4   1.170483756141039E-5  
 2.508000000000000E10    1.055191823979840E-4   5.065004370408133E-5  
 2.510000000000000E10   -2.612257667351514E-4  -6.041925371391699E-5  
 2.512000000000000E10    1.379064051434398E-4   2.619079896248877E-4  
 2.514000000000000E10    8.139290002873167E-5   1.258907868759707E-4  
 2.516000000000000E10   -4.998379517928697E-5  -3.583185025490820E-4  
 2.518000000000000E10   -4.033436198369600E-5   2.344794484088197E-4  
 2.520000000000000E10    1.788238005246967E-4   7.499824278056622E-5  
 2.522000000000000E10    2.363311796216294E-4  -2.367325650993735E-4  
 2.524000000000000E10    7.809454837115482E-5  -2.063082210952416E-4  
 2.526000000000000E10   -1.259896525880322E-4   5.536576281883754E-5  
 2.528000000000000E10    2.495924709364772E-4  -6.332013435894623E-5  
 2.530000000000000E10    1.469259295845404E-4  -3.897096030414105E-5  
 2.532000000000000E10   -3.079361049458385E-4  -2.579318534117192E-4  
 2.534000000000000E10    3.124510840279982E-5   3.794721123995259E-5  
 2.536000000000000E10    9.389637853018940E-5   1.740261905069929E-5  
 2.538000000000000E10   -4.665134838433005E-5  -4.298896965337917E-5  
 2.540000000000000E10    3.334555367473513E-5   8.284328941954300E-5  
 2.542000000000000E10    8.132884249789640E-5   8.500994590576738E-5  
 2.544000000000000E10    3.077003930229694E-5  -1.326711644651368E-4  
 2.546000000000000E10    1.218077668454498E-4  -1.143671324825846E-4  
 2.548000000000000E10    7.268516492331401E-5   7.607130828546360E-5  
 2.550000000000000E10    1.979891821974888E-4  -1.633694046176970E-5  
 2.552000000000000E10   -9.580014739185572E-5  -2.120700082741678E-5  
 2.554000000000000E10   -1.230925699928775E-4   3.474226832622662E-5  
 2.556000000000000E10    2.606131893116981E-4   9.275769116356969E-5  
 2.558000000000000E10    9.577564924256876E-5   1.165335779660381E-4  
 2.560000000000000E10   -7.577886572107673E-5  -2.771594154182822E-4  
 2.562000000000000E10    1.824397440941539E-5   1.183665153803304E-4  
 2.564000000000000E10    5.570310895564035E-5   2.054939250228927E-4  
 2.566000000000000E10    1.049506317940541E-4  -2.212404506281018E-4  
 2.568000000000000E10   -5.984902236377820E-5   1.682609727140516E-4  
 2.570000000000000E10   -9.628950647311285E-5   2.036589430645108E-4  
 2.572000000000000E10    2.580441941972822E-4   2.837788197211921E-4  
 2.574000000000000E10    3.765120709431358E-5   9.428870271221967E-7  
 2.576000000000000E10   -2.268385287607089E-4   2.330019924556837E-5  
 2.578000000000000E10   -1.997734798351303E-4   2.049177855951712E-4  
 2.580000000000000E10    1.805219799280167E-4  -1.075122781912796E-5  
 2.582000000000000E10    8.239566341217142E-6  -1.899949129438028E-4  
 2.584000000000000E10   -2.387296844972298E-4  -2.626994391903281E-4  
 2.586000000000000E10    9.372430213261396E-5   1.196328448713757E-4  
 2.588000000000000E10    3.089079400524497E-4   6.207864498719573E-5  
 2.590000000000000E10    7.939868373796344E-5  -1.537414937047288E-4  
 2.592000000000000E10   -6.830436905147508E-5   2.433033805573359E-4  
 2.594000000000000E10    1.818090240703896E-4  -3.079291127505712E-5  
 2.596000000000000E10   -9.866557229543105E-5  -8.762225479586050E-5  
 2.598000000000000E10   -1.421190245309845E-4  -3.002709308930207E-5  
 2.600000000000000E10    2.278964821016416E-4  -5.006037099519745E-5  
 2.602000000000000E10    1.213502182508819E-4  -6.737184594385326E-5  
 2.604000000000000E10   -3.920957096852362E-4  -1.911742729134858E-4  
 2.606000000000000E10    4.174748937657569E-6   2.063485881080851E-4  
 2.608000000000000E10    1.340951421298087E-4  -5.938765752944164E-5  
 2.610000000000000E10   -7.494843157473952E-5  -1.645701559027657E-4  
 2.612000000000000E10   -2.815150655806065E-4   1.921786606544629E-4  
 2.614000000000000E10    6.931742973392829E-5   1.581257965881378E-4  
 2.616000000000000E10    4.617496597347781E-5  -2.079975674860179E-4  
 2.618000000000000E10   -2.130626089638099E-4  -3.068555961363018E-4  
 2.620000000000000E10   -4.232509236317128E-4   2.896891674026847E-4  
 2.622000000000000E10   -1.164851928479038E-4   2.079675177810714E-4  
 2.624000000000000E10    2.346611145185307E-4  -1.021337302518077E-4  
 2.626000000000000E10   -2.795475593302399E-4  -2.147312334273011E-4  
 2.628000000000000E10   -4.533333994913846E-4   3.081149479839951E-4  
 2.630000000000000E10    1.501455408288166E-4   2.356270415475592E-4  
 2.632000000000000E10    1.172176416730508E-4  -1.511675654910505E-4  
 2.634000000000000E10   -3.002180601470172E-4  -2.236254513263702E-4  
 2.636000000000000E10   -1.100722292903811E-4   2.840571978595108E-4  
 2.638000000000000E10    4.583042391459458E-5   1.267438783543184E-4  
 2.640000000000000E10    1.444939262000844E-4  -4.010114571428858E-5  
 2.642000000000000E10   -1.748508511809632E-4   8.669922681292519E-5  
 2.644000000000000E10   -6.047891656635329E-5   6.347759608615888E-6  
 2.646000000000000E10   -1.753947290126234E-4   6.245558324735612E-5  
 2.648000000000000E10   -3.343400312587619E-4   1.621920673642308E-4  
 2.650000000000000E10    1.022406650008634E-4   7.872682181186974E-5  
 2.652000000000000E10   -7.510166324209422E-5  -1.165516368928365E-4  
 2.654000000000000E10   -1.352025574306026E-4  -5.500041879713535E-5  
 2.656000000000000E10   -1.458801707485691E-4   1.888882543426007E-4  
 2.658000000000000E10    3.010169602930546E-4   1.476013567298651E-4  
 2.660000000000000E10    1.599854294909164E-5  -6.127909000497311E-5  
 2.662000000000000E10    2.020827923843171E-5   4.787244733961416E-7  
 2.664000000000000E10   -4.318924766266719E-6   3.609885170590133E-4  
 2.666000000000000E10    1.968358265003189E-4   2.577168925199658E-5  
 2.668000000000000E10    2.156100672436878E-4  -3.343418065924197E-4  
 2.670000000000000E10   -3.052045358344913E-4  -6.329731695586816E-5  
 2.672000000000000E10   -2.090188500005752E-4   3.111870901193470E-4  
 2.674000000000000E10    3.454956458881497E-4  -5.326076461642515E-6  
 2.676000000000000E10    1.377472653985024E-4  -1.847484236350283E-5  
 2.678000000000000E10   -2.103474980685860E-4  -6.006836701999418E-5  
 2.680000000000000E10   -2.174096880480647E-4   4.274486564099789E-4  
 2.682000000000000E10    3.123999631498009E-4   1.502155937487260E-4  
 2.684000000000000E10    2.349882706766948E-4  -1.819278113543987E-4  
 2.686000000000000E10   -2.077147219097242E-4  -6.177257455419749E-5  
 2.688000000000000E10   -8.849085861584172E-5  -1.123955371440388E-5  
 2.690000000000000E10    4.160068783676252E-5  -1.355918502667919E-4  
 2.692000000000000E10    1.261495781363919E-4  -4.647076639230363E-5  
 2.694000000000000E10   -2.527385186112952E-5  -9.204608068102971E-5  
 2.696000000000000E10   -1.850892003858462E-4   4.116080526728183E-5  
 2.698000000000000E10    2.369628055021167E-5   2.424472768325359E-4  
 2.700000000000000E10    1.866421371232718E-4   1.126003626268357E-4  
 2.702000000000000E10   -4.823469862458296E-5   1.426800008630380E-4  
 2.704000000000000E10   -1.204838627018035E-4   9.256528574042022E-5  
 2.706000000000000E10   -1.894415909191594E-4   2.030194991675671E-5  
 2.708000000000000E10   -1.739047365845181E-5  -1.012997454381548E-4  
 2.710000000000000E10   -1.532729074824601E-4   9.759887325344607E-5  
 2.712000000000000E10   -1.984406262636185E-4  -9.219681669492275E-5  
 2.714000000000000E10    3.224131069146097E-5   2.606952330097556E-4  
 2.716000000000000E10    1.353122788714245E-4  -1.562705620017368E-5  
 2.718000000000000E10    1.961973321158439E-4   3.952988117816858E-5  
 2.720000000000000E10    8.154456008924171E-5   2.860970562323928E-4  
 2.722000000000000E10    1.277538394788280E-4   7.986556738615036E-5  
 2.724000000000000E10   -6.385051528923214E-5  -2.629007758514490E-5  
 2.726000000000000E10   -7.911748252809048E-5   1.759244187269360E-4  
 2.728000000000000E10   -1.643205614527687E-4   5.315714952303097E-5  
 2.730000000000000E10    7.632977212779224E-5   1.621357514522970E-4  
 2.732000000000000E10    1.729448122205213E-4   2.394642797298729E-5  
 2.734000000000000E10    4.099211946595460E-5  -8.418557263212279E-5  
 2.736000000000000E10    9.070709347724915E-5  -5.195492849452421E-5  
 2.738000000000000E10    7.530792208854109E-5  -6.128282166173449E-6  
 2.740000000000000E10    5.835981210111640E-5  -8.488631283398718E-5  
 2.742000000000000E10   -7.796939462423325E-5  -3.067711986659560E-7  
 2.744000000000000E10    3.427729461691342E-5  -2.287010574946180E-4  
 2.746000000000000E10   -4.262413767719409E-6  -7.718936831224710E-5  
 2.748000000000000E10    1.549829175928608E-5   1.316353009315208E-4  
 2.750000000000000E10    2.570103679317981E-4  -6.817231769673526E-5  
 2.752000000000000E10    1.086930060409941E-4   1.491748753323918E-5  
 2.754000000000000E10   -7.997154898475856E-5   1.411684643244371E-4  
 2.756000000000000E10   -3.286673381808214E-5   3.046080819331110E-4  
