#  HZ   S   RI   R     50.00 
! Rohde & Schwarz ZVA40 4Ports - Version 3.90 - 1145.1110k42 SN: 100403
! Date: 2023-10-04 09:00:36
! Measurement: S12 
! 
 2.200000000000000E10    1.522664970252663E-4   3.626844845712185E-4  
 2.202000000000000E10    2.482801501173526E-4  -3.157158789690584E-4  
 2.204000000000000E10   -8.319812332047150E-5  -2.274442085763440E-4  
 2.206000000000000E10   -3.798185498453677E-4   4.758260620292276E-4  
 2.208000000000000E10    5.186263588257134E-4   5.554437302635051E-5  
 2.210000000000000E10    1.995443453779444E-4  -1.579412346472964E-4  
 2.212000000000000E10   -4.071155562996864E-4  -1.039985363604501E-4  
 2.214000000000000E10   -1.144601847045124E-4   3.483995096758008E-4  
 2.216000000000000E10    5.918894312344492E-4   2.974808739963919E-4  
 2.218000000000000E10    4.667155371862464E-5  -3.063428448513150E-4  
 2.220000000000000E10   -4.912199219688773E-4  -1.216354285134003E-4  
 2.222000000000000E10    1.217215976794250E-4   7.098749047145248E-4  
 2.224000000000000E10    5.731180426664650E-4  -1.453517033951357E-4  
 2.226000000000000E10   -2.831647288985550E-4  -5.569151253439486E-4  
 2.228000000000000E10   -4.441981145646423E-4   2.341577783226967E-4  
 2.230000000000000E10    3.053081745747477E-4   2.795601903926581E-4  
 2.232000000000000E10    2.592484815977514E-4  -5.960757262073457E-4  
 2.234000000000000E10   -4.557880165521056E-4  -2.316570171387866E-4  
 2.236000000000000E10   -1.223274302901700E-4   4.994701594114304E-4  
 2.238000000000000E10    7.188347517512739E-4   2.172628737753257E-4  
 2.240000000000000E10   -2.198975998908281E-4  -6.131057161837816E-4  
 2.242000000000000E10   -5.335626192390919E-4   3.159089465043508E-5  
 2.244000000000000E10    1.732302480377257E-4   6.616075988858938E-4  
 2.246000000000000E10    5.466531729325652E-4  -2.395096380496398E-4  
 2.248000000000000E10   -3.002747253049165E-4  -4.261810099706054E-4  
 2.250000000000000E10   -5.638145958073437E-4   4.269503988325596E-4  
 2.252000000000000E10    3.147819952573627E-4   4.461377975530922E-4  
 2.254000000000000E10    4.597922670654953E-4  -3.197558689862490E-4  
 2.256000000000000E10   -3.734764759428799E-4  -3.359291877131909E-4  
 2.258000000000000E10   -2.537312684580684E-4   4.390824178699404E-4  
 2.260000000000000E10    2.573979727458209E-4   8.612573583377525E-5  
 2.262000000000000E10    5.927781603531912E-5  -1.168092712759972E-4  
 2.264000000000000E10   -3.611216088756919E-4   8.805344987194985E-5  
 2.266000000000000E10    1.179054015665315E-4   1.283070450881496E-4  
 2.268000000000000E10   -1.094275357900187E-4  -1.618651003809646E-5  
 2.270000000000000E10   -2.195515116909519E-4   2.120447243214585E-5  
 2.272000000000000E10   -1.962240203283727E-4   2.226836950285360E-4  
 2.274000000000000E10    2.830801240634173E-4  -1.170131145045161E-4  
 2.276000000000000E10   -1.254983653780073E-4  -1.944881078088656E-4  
 2.278000000000000E10   -5.085129523649812E-4   3.912561805918813E-4  
 2.280000000000000E10    2.691650879569352E-4   4.731855879072100E-4  
 2.282000000000000E10    4.608325252775103E-4  -9.375840454595164E-5  
 2.284000000000000E10   -4.133763432037085E-4  -5.960613489151001E-4  
 2.286000000000000E10   -4.594966303557158E-4   4.336621204856783E-4  
 2.288000000000000E10    5.230694659985602E-4   5.146935000084341E-4  
 2.290000000000000E10    5.346277612261474E-4  -5.853929324075580E-4  
 2.292000000000000E10   -3.866383631248027E-4  -3.866980259772390E-4  
 2.294000000000000E10   -2.612932876218110E-4   6.697686621919274E-4  
 2.296000000000000E10    3.800047852564603E-4   5.700616748072207E-4  
 2.298000000000000E10    3.042958851438016E-4  -4.309915238991380E-4  
 2.300000000000000E10   -4.438659816514701E-4  -4.830955003853887E-4  
 2.302000000000000E10   -4.659623373299837E-4   3.626735124271363E-4  
 2.304000000000000E10    3.608028928283602E-4   5.184157053008676E-4  
 2.306000000000000E10    4.450260312296450E-4  -4.375313292257488E-4  
 2.308000000000000E10   -5.271096597425640E-5  -1.820992183638737E-4  
 2.310000000000000E10   -4.439484328031540E-4   2.549490891396999E-4  
 2.312000000000000E10    5.539795529330149E-5   7.131939637474716E-4  
 2.314000000000000E10    2.310404670424759E-4  -2.801463051582687E-5  
 2.316000000000000E10    2.522329741623253E-4  -2.967334585264325E-4  
 2.318000000000000E10   -6.279923836700618E-4   1.414030120940879E-4  
 2.320000000000000E10   -1.103487738873810E-4   2.532532380428165E-4  
 2.322000000000000E10    2.465523721184582E-4   2.194092958234251E-4  
 2.324000000000000E10    2.418130170553923E-4  -4.203337884973735E-4  
 2.326000000000000E10   -3.626846009865403E-4  -4.383989653433673E-5  
 2.328000000000000E10   -1.861007767729461E-4   4.249627818353474E-4  
 2.330000000000000E10    1.881091593531892E-4   1.781417522579432E-4  
 2.332000000000000E10    2.900850086007267E-4  -3.721139728440903E-5  
 2.334000000000000E10    2.038723323494196E-5  -3.001495788339526E-4  
 2.336000000000000E10   -5.308401887305081E-4  -1.287725899601355E-4  
 2.338000000000000E10    1.556801580591127E-4   3.962118353229016E-4  
 2.340000000000000E10    4.839374159928411E-4  -6.549618410645053E-5  
 2.342000000000000E10    7.695280510233715E-5  -4.562840040307492E-4  
 2.344000000000000E10   -6.206336547620595E-4  -1.065302785718814E-4  
 2.346000000000000E10    6.398090772563592E-5   2.828164142556489E-4  
 2.348000000000000E10    6.153567810542882E-4   1.491005386924371E-4  
 2.350000000000000E10    8.641894237371162E-5  -3.794602816924453E-4  
 2.352000000000000E10   -6.114138523116708E-4   6.758450035704300E-5  
 2.354000000000000E10    1.268683117814362E-4   3.711064928211272E-4  
 2.356000000000000E10    6.353522185236216E-4   1.212913193739951E-4  
 2.358000000000000E10    2.619732113089413E-4  -3.762009437195957E-4  
 2.360000000000000E10   -2.193429099861532E-4  -1.609064493095502E-4  
 2.362000000000000E10   -3.485015258775093E-5   2.458810631651431E-4  
 2.364000000000000E10    3.544540377333760E-4   1.756081474013627E-4  
 2.366000000000000E10    3.459713843767531E-5  -1.405986840836704E-4  
 2.368000000000000E10   -2.558991545811296E-4   7.821340113878250E-5  
 2.370000000000000E10    2.058047539321706E-4   6.515499990200624E-5  
 2.372000000000000E10    1.166146394098178E-4   1.827808737289161E-4  
 2.374000000000000E10    1.273414527531713E-4  -1.684974995441735E-4  
 2.376000000000000E10   -2.777950612653513E-5   1.651307502470445E-5  
 2.378000000000000E10   -1.242380967596546E-4   2.375200710957870E-4  
 2.380000000000000E10    2.112598449457437E-4   1.433117722626776E-4  
 2.382000000000000E10   -2.098855911754072E-4   1.253563532372937E-4  
 2.384000000000000E10   -3.146462549921125E-4  -8.050703036133200E-5  
 2.386000000000000E10   -6.300051609287038E-5  -1.146082213381305E-4  
 2.388000000000000E10   -2.795860345941037E-4   3.161164931952953E-5  
 2.390000000000000E10    4.765005724038929E-5  -1.493843410571571E-5  
 2.392000000000000E10    7.786932837916538E-5  -3.266993444412947E-4  
 2.394000000000000E10   -7.081587682478130E-5  -3.389489211258479E-5  
 2.396000000000000E10    1.345321506960318E-4   2.848809235729277E-4  
 2.398000000000000E10    3.797226527240127E-4   2.188409962400328E-5  
 2.400000000000000E10   -6.881135777803138E-5  -8.362082007806748E-5  
 2.402000000000000E10   -1.998684165300801E-4   5.253225936030503E-6  
 2.404000000000000E10    1.351562823401764E-4   4.839076136704534E-4  
 2.406000000000000E10    2.651794056873769E-4  -3.283477562945336E-4  
 2.408000000000000E10   -2.503495197743177E-4  -5.967350080027245E-5  
 2.410000000000000E10    1.601528056198731E-4   3.939568414352834E-4  
 2.412000000000000E10    2.985830360557884E-4   3.985574949183501E-5  
 2.414000000000000E10    6.048392242519185E-5  -3.125586081296206E-4  
 2.416000000000000E10   -3.269547596573830E-4   4.572590114548802E-5  
 2.418000000000000E10   -5.342997246771120E-5   3.152197750750929E-4  
 2.420000000000000E10    3.276476636528969E-4   1.504803512943909E-4  
 2.422000000000000E10    2.693567148526199E-5  -4.869856347795576E-4  
 2.424000000000000E10   -6.245907279662788E-4  -1.206348752020858E-4  
 2.426000000000000E10    2.215308777522296E-4   2.031623153015971E-4  
 2.428000000000000E10    2.621472522150725E-4  -1.707347983028740E-4  
 2.430000000000000E10   -3.412828955333680E-4  -1.043536685756408E-4  
 2.432000000000000E10   -7.105161057552323E-5   1.749697985360399E-4  
 2.434000000000000E10   -9.304971899837256E-5   1.714858080958948E-4  
 2.436000000000000E10   -6.406255124602467E-5   1.633975989534520E-5  
 2.438000000000000E10   -3.400042478460819E-4  -1.158374871010892E-4  
 2.440000000000000E10   -4.679076664615423E-4   1.406481078447541E-5  
 2.442000000000000E10    3.365221709827893E-5   1.196536322822794E-4  
 2.444000000000000E10   -1.168304443126544E-4   8.564885501982644E-5  
 2.446000000000000E10   -1.476252364227548E-4   3.421212750254199E-5  
 2.448000000000000E10   -1.360731585009489E-5  -7.285185711225495E-5  
 2.450000000000000E10   -1.004238674795488E-5  -2.503691757738125E-5  
 2.452000000000000E10   -3.060168237425387E-4   2.726356797211338E-5  
 2.454000000000000E10    2.186491328757256E-4   1.605399593245238E-4  
 2.456000000000000E10    2.702680649235845E-4  -1.714157951937523E-5  
 2.458000000000000E10   -1.428281102562323E-4  -2.336348406970501E-4  
 2.460000000000000E10   -2.665984538907651E-5   3.589801490306854E-4  
 2.462000000000000E10    2.880853426177055E-4   2.507336030248553E-4  
 2.464000000000000E10    1.873531873570755E-4  -4.613496712408960E-4  
 2.466000000000000E10   -2.998971613124013E-4  -3.281023236922920E-5  
 2.468000000000000E10   -3.467733404249884E-5   3.172114957123995E-4  
 2.470000000000000E10    6.672021700069308E-4  -5.000313831260428E-5  
 2.472000000000000E10    1.364726049359888E-4  -5.746255046688020E-4  
 2.474000000000000E10   -3.050647792406380E-4  -1.239970424649073E-5  
 2.476000000000000E10    8.398082718485966E-5   5.069273174740374E-4  
 2.478000000000000E10    4.447810060810298E-4  -8.387084380956367E-5  
 2.480000000000000E10   -1.916440232889727E-4  -3.356210072524846E-4  
 2.482000000000000E10   -5.169025971554220E-4   6.685074913548306E-5  
 2.484000000000000E10    1.982363755814731E-4   3.032244858331978E-4  
 2.486000000000000E10    2.177197893615812E-4  -4.137931682635099E-4  
 2.488000000000000E10   -3.370430495124310E-4  -2.578139246907085E-4  
 2.490000000000000E10   -7.369602826656774E-5   2.478572714608163E-4  
 2.492000000000000E10    3.242509556002915E-4   8.780610727399107E-8  
 2.494000000000000E10    3.473378092166968E-5  -3.034808905795217E-4  
 2.496000000000000E10   -5.238130688667297E-4   1.706159382592887E-4  
 2.498000000000000E10   -3.936159555451013E-5   1.888342812890187E-4  
 2.500000000000000E10    6.941288302186877E-5  -2.021130057983100E-4  
 2.502000000000000E10   -2.908512833528221E-4   1.028870073582766E-7  
 2.504000000000000E10   -2.025792637141421E-4   1.319454459007829E-4  
 2.506000000000000E10    1.683932932792231E-4   6.176595888973679E-6  
 2.508000000000000E10   -2.123448757629376E-5  -1.454372395528480E-4  
 2.510000000000000E10   -4.367120563983917E-4  -1.952017482835800E-4  
 2.512000000000000E10   -2.554429811425507E-4   1.354970154352486E-4  
 2.514000000000000E10   -5.228648660704494E-5   1.151582764578052E-4  
 2.516000000000000E10    9.635548485675827E-5  -2.396546187810600E-4  
 2.518000000000000E10   -3.045760095119476E-4   2.847152791218832E-5  
 2.520000000000000E10   -1.658124383538961E-4   3.200902719981968E-4  
 2.522000000000000E10    3.439137653913349E-4   3.519771416904405E-5  
 2.524000000000000E10   -1.018144757836126E-5  -2.679194440133870E-4  
 2.526000000000000E10   -2.401511301286519E-4   9.809219773160294E-5  
 2.528000000000000E10    1.882867945823818E-4   3.681942180264741E-4  
 2.530000000000000E10    8.735425944905728E-5  -1.207711902679876E-4  
 2.532000000000000E10   -1.742387394187972E-4  -8.401450031669810E-5  
 2.534000000000000E10   -4.249242920195684E-5   2.754516026470810E-4  
 2.536000000000000E10    3.250110967201181E-5   1.394550490658730E-4  
 2.538000000000000E10    1.852871064329520E-4  -3.266150597482920E-4  
 2.540000000000000E10   -1.003526267595589E-4  -1.859824114944786E-4  
 2.542000000000000E10   -1.133235709858127E-4   1.526301784906536E-4  
 2.544000000000000E10    4.328176728449762E-4  -2.362120540055912E-6  
 2.546000000000000E10    1.231355417985469E-4  -3.664066898636520E-4  
 2.548000000000000E10   -2.004983980441466E-4  -7.742752495687455E-5  
 2.550000000000000E10    1.087937198462896E-4   9.089036757359281E-5  
 2.552000000000000E10    8.728449756745249E-6   5.540034180739895E-5  
 2.554000000000000E10   -3.144708462059498E-4  -2.244446804979816E-4  
 2.556000000000000E10   -1.873236033134162E-4  -4.370337410364300E-5  
 2.558000000000000E10   -4.597101724357344E-5   1.773269032128155E-4  
 2.560000000000000E10    1.258531847270206E-4  -1.900272618513554E-4  
 2.562000000000000E10   -8.515496119798627E-6   4.881754648522474E-5  
 2.564000000000000E10   -2.993397356476635E-4   4.957233159075258E-6  
 2.566000000000000E10   -3.737954466487281E-5   6.628339178860188E-5  
 2.568000000000000E10   -7.239626575028524E-5   1.543539983686060E-4  
 2.570000000000000E10   -9.631893044570461E-5  -8.601370791438967E-5  
 2.572000000000000E10   -5.150439028511755E-5   1.559852971695364E-4  
 2.574000000000000E10    1.521618833066896E-4  -4.815103602595627E-5  
 2.576000000000000E10   -2.776848850771785E-4  -6.199660128913820E-5  
 2.578000000000000E10   -6.745407154085115E-5   1.065826581907459E-4  
 2.580000000000000E10    1.813338894862682E-4   9.729964949656278E-5  
 2.582000000000000E10   -2.168593491660431E-4  -1.576618669787422E-4  
 2.584000000000000E10   -2.409637381788343E-4   8.208016879507341E-6  
 2.586000000000000E10    2.184409822802991E-4   2.803844399750233E-4  
 2.588000000000000E10    8.334061021741945E-6  -1.201644117827527E-4  
 2.590000000000000E10   -3.196696343366057E-5  -3.758280945476145E-5  
 2.592000000000000E10   -1.039472481352277E-4   2.995010290760547E-4  
 2.594000000000000E10    2.026945439865813E-4   9.920464071910828E-5  
 2.596000000000000E10    2.530261699575931E-4   1.010247888189042E-5  
 2.598000000000000E10   -1.266276522073895E-4  -1.067547964339610E-5  
 2.600000000000000E10   -1.567265135236085E-4   4.444521619006991E-5  
 2.602000000000000E10    1.582877594046295E-4   3.664470932562836E-5  
 2.604000000000000E10    9.442278678761795E-5  -1.738659339025617E-4  
 2.606000000000000E10    7.646501217095647E-6  -1.598722301423550E-4  
 2.608000000000000E10   -1.860173942986876E-4   2.074059884762391E-4  
 2.610000000000000E10    1.719935244182125E-4   1.492141600465402E-4  
 2.612000000000000E10    3.865812614094466E-4  -4.476587128010579E-5  
 2.614000000000000E10   -1.244186278199777E-4  -7.322007149923593E-5  
 2.616000000000000E10   -1.048169870045967E-4   1.646965538384393E-4  
 2.618000000000000E10    6.916080747032538E-5   2.129907370544970E-4  
 2.620000000000000E10    2.326405083294958E-4  -1.261109428014606E-4  
 2.622000000000000E10    1.495294873166131E-5   9.211831638822332E-5  
 2.624000000000000E10   -7.458405889337882E-6   4.704391903942451E-5  
 2.626000000000000E10   -2.619883161969483E-5   1.908280391944572E-4  
 2.628000000000000E10    2.526778371247929E-5  -1.813164417399094E-4  
 2.630000000000000E10    2.138840063707903E-4  -3.220424696337432E-5  
 2.632000000000000E10   -1.665149175096303E-4  -4.659235128201544E-5  
 2.634000000000000E10    4.002781497547403E-5  -1.613098538655322E-5  
 2.636000000000000E10   -3.759412720683031E-5   2.049941540462896E-4  
 2.638000000000000E10    3.017221024492756E-5  -1.649343321332708E-4  
 2.640000000000000E10   -1.319038856308907E-4  -1.330826489720494E-4  
 2.642000000000000E10   -1.095355983125046E-4   7.872972491895780E-5  
 2.644000000000000E10    1.287965824303683E-5   3.002865414600819E-4  
 2.646000000000000E10    1.675407693255693E-4  -5.506243905983865E-5  
 2.648000000000000E10   -1.900845963973552E-4  -1.052060033543967E-4  
 2.650000000000000E10    1.363078081340063E-5   8.094239456113428E-5  
 2.652000000000000E10    2.270234544994310E-4   2.859204541891813E-4  
 2.654000000000000E10    4.244509455020307E-6  -2.263851274619810E-5  
 2.656000000000000E10   -8.338896441273391E-5   2.608054819575045E-5  
 2.658000000000000E10   -1.573471381561831E-4   2.283853100379929E-4  
 2.660000000000000E10   -9.558605961501598E-5   6.582374044228345E-5  
 2.662000000000000E10    2.428435254842043E-4   1.700112770777196E-4  
 2.664000000000000E10    3.610801286413334E-5  -6.922214197402354E-6  
 2.666000000000000E10   -1.233938382938504E-4   9.813904762268066E-5  
 2.668000000000000E10    5.337478796718642E-5   2.841501845978200E-4  
 2.670000000000000E10    2.059891994576901E-4  -6.404190207831562E-5  
 2.672000000000000E10   -1.555549388285726E-4  -2.205477212555707E-4  
 2.674000000000000E10   -2.922116836998612E-4   2.714714501053095E-4  
 2.676000000000000E10   -1.077721826732159E-4   3.182349319104105E-4  
 2.678000000000000E10    2.640098391566426E-4  -1.759975712047890E-4  
 2.680000000000000E10   -1.645125303184614E-4   1.586398684594315E-5  
 2.682000000000000E10   -1.022059732349590E-4   1.140846579801291E-4  
 2.684000000000000E10    1.146772774518468E-4  -1.801734106265940E-5  
 2.686000000000000E10    1.136383434641175E-4   9.433457307750359E-6  
 2.688000000000000E10    2.855278762581293E-5  -1.034011875162832E-4  
 2.690000000000000E10   -8.671988325659186E-5  -4.206038647680543E-5  
 2.692000000000000E10    7.284634921234101E-5  -2.333549491595477E-5  
 2.694000000000000E10   -4.369620000943542E-5   6.703119197482010E-7  
 2.696000000000000E10    1.202449275297113E-4  -7.995226042112336E-5  
 2.698000000000000E10   -1.550492015667260E-4   1.663361326791346E-4  
 2.700000000000000E10   -1.950103796843905E-5  -1.979399530682713E-5  
 2.702000000000000E10    1.164093046099879E-4   3.085875505348668E-5  
 2.704000000000000E10    4.529967554844916E-5  -6.577295425813645E-5  
 2.706000000000000E10   -4.844468639930710E-5  -1.432088902220130E-4  
 2.708000000000000E10   -5.552303719014162E-6  -2.340756873309147E-5  
 2.710000000000000E10   -1.630237820791081E-4  -3.251925954828039E-5  
 2.712000000000000E10    8.644984336569905E-5  -2.086210406559985E-5  
 2.714000000000000E10    1.413855206919834E-4  -9.952678374247626E-5  
 2.716000000000000E10   -1.254961680388078E-4  -7.430729056068230E-6  
 2.718000000000000E10    7.966421253513545E-5   6.496425339719281E-5  
 2.720000000000000E10    2.604731416795403E-4   1.140751846833155E-4  
 2.722000000000000E10    1.119497610488907E-4  -3.149833937641233E-4  
 2.724000000000000E10   -2.691947156563401E-4  -7.044439553283155E-5  
 2.726000000000000E10   -3.149943222524598E-5   3.288202860858291E-4  
 2.728000000000000E10    3.953018313040957E-5  -5.250850335869473E-6  
 2.730000000000000E10   -3.558833850547671E-5  -1.680480490904301E-4  
 2.732000000000000E10    2.077124918287154E-5   1.185415530926548E-4  
 2.734000000000000E10    6.625954119954258E-5   3.255364208598621E-5  
 2.736000000000000E10    1.562517572892830E-4  -3.044224285986275E-5  
 2.738000000000000E10    8.686645742272958E-6   1.102713304135250E-5  
 2.740000000000000E10   -3.358727917657234E-5  -2.839906373992562E-4  
 2.742000000000000E10   -9.334771311841905E-5   3.987806394434301E-6  
 2.744000000000000E10    5.823652827530168E-5   1.790282112779096E-5  
 2.746000000000000E10    1.587060833116993E-4   2.011471406149212E-5  
 2.748000000000000E10    3.548034874256700E-5  -3.958668821724132E-5  
 2.750000000000000E10   -7.879998156568036E-5  -7.001900667091832E-5  
 2.752000000000000E10   -6.196997856022790E-5   2.040438994299620E-4  
 2.754000000000000E10    1.869901607278734E-4   1.418596657458693E-4  
 2.756000000000000E10   -7.836176519049332E-5  -2.673197304829955E-4  
