#  HZ   S   RI   R     50.00 
! Rohde & Schwarz ZVA40 4Ports - Version 3.90 - 1145.1110k42 SN: 100403
! Date: 2023-10-04 07:13:57
! Measurement: S12 
! 
 2.200000000000000E10   -4.801284987479448E-3  -1.437078171875328E-4  
 2.202000000000000E10   -6.914460100233555E-4   4.862989764660597E-3  
 2.204000000000000E10    3.745287423953414E-3   2.695865987334400E-4  
 2.206000000000000E10    2.213264087913558E-4  -2.576233353465796E-3  
 2.208000000000000E10   -2.835840685293078E-3   8.616244886070490E-4  
 2.210000000000000E10    1.357387285679579E-3   2.448750426992774E-3  
 2.212000000000000E10    1.618184382095933E-3  -1.914568128995597E-3  
 2.214000000000000E10   -2.459016162902117E-3  -1.670558005571365E-3  
 2.216000000000000E10   -1.147436909377575E-3   3.894721856340766E-3  
 2.218000000000000E10    4.145259037613869E-3   9.530058014206588E-4  
 2.220000000000000E10    1.033682608976960E-3  -4.376838915050030E-3  
 2.222000000000000E10   -4.215917550027371E-3  -5.038889939896762E-4  
 2.224000000000000E10   -3.318245580885559E-4   5.005338229238987E-3  
 2.226000000000000E10    4.981371108442545E-3   5.291787092573941E-4  
 2.228000000000000E10    5.862675025127828E-4  -3.442171029746532E-3  
 2.230000000000000E10   -3.264633473008871E-3  -2.440714888507500E-4  
 2.232000000000000E10   -1.940371148521081E-4   3.723479108884931E-3  
 2.234000000000000E10    2.889569848775864E-3  -6.290596047620056E-6  
 2.236000000000000E10    4.107974746148102E-5  -2.469828817993403E-3  
 2.238000000000000E10   -2.551328158006072E-3   1.006115111522377E-3  
 2.240000000000000E10    2.022699452936649E-3   1.674337312579155E-3  
 2.242000000000000E10    1.990634948015213E-3  -2.779131755232811E-3  
 2.244000000000000E10   -3.170877229422331E-3  -1.547344028949738E-3  
 2.246000000000000E10   -1.089019584469497E-3   3.383484669029713E-3  
 2.248000000000000E10    3.940856084227562E-3   1.177948899567127E-3  
 2.250000000000000E10    1.050129299983382E-3  -4.125723149627447E-3  
 2.252000000000000E10   -4.173228051513434E-3  -1.111879828386009E-3  
 2.254000000000000E10   -1.013340894132853E-3   4.215610679239035E-3  
 2.256000000000000E10    3.703878261148930E-3   7.956823101267219E-4  
 2.258000000000000E10    1.746207817632239E-5  -3.176457015797496E-3  
 2.260000000000000E10   -3.197720041498542E-3  -1.954788895091042E-4  
 2.262000000000000E10   -1.055545180861373E-5   2.634355798363686E-3  
 2.264000000000000E10    1.920226262882352E-3  -3.185680834576488E-4  
 2.266000000000000E10   -9.405747405253351E-4  -1.989900367334485E-3  
 2.268000000000000E10   -2.363645471632481E-3   1.705710077658296E-3  
 2.270000000000000E10    2.335679018869996E-3   2.354055875912309E-3  
 2.272000000000000E10    2.264662645757198E-3  -2.469707978889346E-3  
 2.274000000000000E10   -2.810433274134994E-3  -1.793983858078718E-3  
 2.276000000000000E10   -1.534615526907146E-3   4.045321140438318E-3  
 2.278000000000000E10    3.863691585138440E-3   1.999848289415240E-3  
 2.280000000000000E10    1.669167424552143E-3  -3.108752891421318E-3  
 2.282000000000000E10   -1.768332440406084E-3  -2.853005658835173E-3  
 2.284000000000000E10   -1.679351669736207E-3   3.630296094343066E-3  
 2.286000000000000E10    2.912833122536540E-3   1.112840953283012E-3  
 2.288000000000000E10    6.948825321160257E-4  -2.844826318323612E-3  
 2.290000000000000E10   -2.949127461761236E-3   1.579843665240333E-4  
 2.292000000000000E10    3.439100401010364E-4   2.979494165629149E-3  
 2.294000000000000E10    2.603282919153571E-3  -9.751016623340547E-4  
 2.296000000000000E10   -1.564116217195988E-3  -1.936668297275901E-3  
 2.298000000000000E10   -1.740724896080792E-3   2.486165147274733E-3  
 2.300000000000000E10    2.548099495470524E-3   2.113588619977236E-3  
 2.302000000000000E10    1.898718415759504E-3  -2.931554801762104E-3  
 2.304000000000000E10   -3.343612188473344E-3  -2.088818233460188E-3  
 2.306000000000000E10   -1.763225998729467E-3   4.408023320138454E-3  
 2.308000000000000E10    3.795107593759894E-3   1.879464951343834E-3  
 2.310000000000000E10    1.586351194418967E-3  -3.844570601359010E-3  
 2.312000000000000E10   -3.892185632139444E-3  -1.386274700053036E-3  
 2.314000000000000E10   -7.936800830066204E-4   2.818158827722073E-3  
 2.316000000000000E10    2.579491585493088E-3   3.441925800871104E-4  
 2.318000000000000E10    7.195795769803226E-4  -2.415664028376341E-3  
 2.320000000000000E10   -2.325793495401740E-3   4.702518926933408E-4  
 2.322000000000000E10    1.490637427195907E-3   2.415653318166733E-3  
 2.324000000000000E10    2.589763607829809E-3  -2.110457513481379E-3  
 2.326000000000000E10   -3.230964764952660E-3  -1.730336691252887E-3  
 2.328000000000000E10   -2.304650843143463E-3   3.767321351915598E-3  
 2.330000000000000E10    4.146851133555174E-3   2.104338025674224E-3  
 2.332000000000000E10    1.818905118852854E-3  -3.985712770372629E-3  
 2.334000000000000E10   -4.698500968515873E-3  -2.004916779696941E-3  
 2.336000000000000E10   -2.134179929271340E-3   4.412684589624405E-3  
 2.338000000000000E10    4.264597315341234E-3   1.945238094776869E-3  
 2.340000000000000E10    9.894917020574212E-4  -4.460271447896957E-3  
 2.342000000000000E10   -3.714595222845674E-3  -3.704516275320202E-4  
 2.344000000000000E10   -5.275281364447437E-5   3.194726537913084E-3  
 2.346000000000000E10    2.584365895017982E-3  -8.207106729969382E-4  
 2.348000000000000E10   -1.734978053718805E-3  -1.808733213692904E-3  
 2.350000000000000E10   -2.182250609621406E-3   2.676434582099319E-3  
 2.352000000000000E10    2.650643233209848E-3   2.327777910977602E-3  
 2.354000000000000E10    1.878351788036525E-3  -2.936682663857937E-3  
 2.356000000000000E10   -4.944443702697754E-3  -1.129381591454148E-3  
 2.358000000000000E10   -8.305257651954889E-4   5.177381914108992E-3  
 2.360000000000000E10    4.544998053461313E-3   7.979169604368508E-4  
 2.362000000000000E10   -3.090154496021569E-5  -4.983644001185894E-3  
 2.364000000000000E10   -4.597991704940796E-3   3.758739621844143E-4  
 2.366000000000000E10    2.873869671020657E-4   4.693095106631517E-3  
 2.368000000000000E10    4.705131519585848E-3  -1.183934873552062E-4  
 2.370000000000000E10   -4.824882780667394E-4  -4.013796336948872E-3  
 2.372000000000000E10   -3.248619614169002E-3   1.178025384433568E-3  
 2.374000000000000E10    1.803421298973262E-3   2.862544963136315E-3  
 2.376000000000000E10    1.779691549018025E-3  -1.671245903708041E-3  
 2.378000000000000E10   -2.485983306542039E-3  -6.385471788235009E-4  
 2.380000000000000E10   -9.358283568872139E-5   2.837561536580324E-3  
 2.382000000000000E10    3.508441848680377E-3  -2.359226200496778E-4  
 2.384000000000000E10   -9.102330077439547E-4  -3.868828993290663E-3  
 2.386000000000000E10   -4.332123324275017E-3   5.063150892965496E-4  
 2.388000000000000E10    1.117179635912180E-3   4.425257444381714E-3  
 2.390000000000000E10    4.537286702543497E-3  -9.652922744862735E-4  
 2.392000000000000E10   -1.084338873624802E-3  -4.825894720852375E-3  
 2.394000000000000E10   -3.980157431215048E-3   1.407428644597530E-3  
 2.396000000000000E10    8.844063850119710E-4   3.249916946515441E-3  
 2.398000000000000E10    2.220647875219584E-3  -9.964845376089215E-4  
 2.400000000000000E10   -1.447536400519311E-3  -1.596533460542560E-3  
 2.402000000000000E10   -9.055750560946763E-4   1.509693334810436E-3  
 2.404000000000000E10    2.175415633246303E-3  -4.259887646185234E-5  
 2.406000000000000E10   -5.422446993179619E-4  -2.158264629542828E-3  
 2.408000000000000E10   -3.130746539682150E-3   4.337114805821329E-4  
 2.410000000000000E10    1.326364465057850E-3   3.236379008740187E-3  
 2.412000000000000E10    3.336054971441627E-3  -1.298633520491421E-3  
 2.414000000000000E10   -7.428873213939369E-4  -3.276513423770666E-3  
 2.416000000000000E10   -2.822812413796783E-3   1.324109965935350E-3  
 2.418000000000000E10    1.077834283933044E-3   2.574867568910122E-3  
 2.420000000000000E10    2.226323122158647E-3  -9.081473690457642E-4  
 2.422000000000000E10   -1.016937429085374E-3  -1.650300226174295E-3  
 2.424000000000000E10   -1.490813679993153E-3   6.125708459876478E-4  
 2.426000000000000E10    1.253918278962374E-3   5.602944293059409E-4  
 2.428000000000000E10    2.533777151256800E-4  -1.412097713910043E-3  
 2.430000000000000E10   -1.424869522452354E-3   1.858880132203922E-4  
 2.432000000000000E10    4.470250860322267E-4   9.406108874827623E-4  
 2.434000000000000E10    2.092278562486172E-3  -9.935898706316948E-4  
 2.436000000000000E10   -1.156922429800034E-3  -1.835100119933486E-3  
 2.438000000000000E10   -1.924761570990086E-3   1.168826245702803E-3  
 2.440000000000000E10    1.115696271881461E-3   2.624324290081859E-3  
 2.442000000000000E10    2.548660151660442E-3  -1.198714715428650E-3  
 2.444000000000000E10   -6.038906867615879E-4  -2.367863431572914E-3  
 2.446000000000000E10   -2.820668974891305E-3   7.573190960101783E-4  
 2.448000000000000E10   -1.697823900030926E-4   2.065177308395505E-3  
 2.450000000000000E10    1.910372520796955E-3   6.178484181873500E-5  
 2.452000000000000E10    1.834663707995787E-4  -1.751311472617090E-3  
 2.454000000000000E10   -1.225249143317342E-3  -4.948904970660806E-4  
 2.456000000000000E10   -1.804279308998957E-4   6.013697129674256E-4  
 2.458000000000000E10   -4.486063553486019E-4   5.008628359064460E-4  
 2.460000000000000E10   -1.061644652509131E-4   1.037516398355365E-3  
 2.462000000000000E10    1.399974338710308E-3   7.667693425901234E-4  
 2.464000000000000E10    1.300650998018682E-3  -1.196068711578846E-3  
 2.466000000000000E10   -2.035794313997030E-3  -1.578673487529159E-3  
 2.468000000000000E10   -2.070696325972676E-3   1.606815611012280E-3  
 2.470000000000000E10    1.298893941566348E-3   2.612418960779905E-3  
 2.472000000000000E10    2.771282335743308E-3  -7.985422853380442E-4  
 2.474000000000000E10   -5.885275895707309E-4  -2.814714796841145E-3  
 2.476000000000000E10   -2.419047523289919E-3   1.878174516605213E-4  
 2.478000000000000E10   -1.355406275251880E-4   2.013053512200713E-3  
 2.480000000000000E10    1.449992530979216E-3   3.850494686048478E-4  
 2.482000000000000E10    3.106374642811716E-4  -1.242456026375294E-3  
 2.484000000000000E10   -3.287614963483065E-4  -8.239474263973534E-4  
 2.486000000000000E10   -9.959184098988771E-4  -2.676236617844552E-4  
 2.488000000000000E10   -1.233207411132753E-3  -2.829494042089209E-5  
 2.490000000000000E10   -1.921038638101891E-4   7.917318725958467E-4  
 2.492000000000000E10    1.357963890768588E-3   7.636408554390073E-4  
 2.494000000000000E10    2.885011490434408E-4  -1.603045384399593E-3  
 2.496000000000000E10   -1.917269546538591E-3  -9.564429055899382E-4  
 2.498000000000000E10   -1.918428461067379E-3   1.725153648294509E-3  
 2.500000000000000E10    4.416295269038528E-4   1.572165056131780E-3  
 2.502000000000000E10    1.265660044737160E-3  -4.175843496341258E-4  
 2.504000000000000E10   -8.116469834931195E-4  -1.498004770837724E-3  
 2.506000000000000E10   -1.833161804825068E-3   1.031700412568171E-5  
 2.508000000000000E10   -5.673363339155912E-4   1.379568711854518E-3  
 2.510000000000000E10    1.240327022969723E-3   5.569079658016563E-4  
 2.512000000000000E10    4.823979979846627E-4  -3.269366861786693E-4  
 2.514000000000000E10    3.240784863010049E-4  -4.110529844183475E-4  
 2.516000000000000E10   -7.998917135410011E-4  -7.082490483298898E-4  
 2.518000000000000E10   -1.078385976143181E-3   8.265594951808453E-4  
 2.520000000000000E10    6.352026830427349E-4   1.860840944573283E-3  
 2.522000000000000E10    1.774494769051671E-3  -3.767318266909570E-4  
 2.524000000000000E10    2.298440231243148E-4  -1.592323184013367E-3  
 2.526000000000000E10   -1.241569989360869E-3  -9.140956681221724E-4  
 2.528000000000000E10   -6.830698694102466E-4   1.152920536696911E-3  
 2.530000000000000E10    9.604094084352255E-4   1.333425985649228E-3  
 2.532000000000000E10    1.603393931873143E-3  -8.020834065973759E-4  
 2.534000000000000E10    4.837975429836661E-4  -1.520085730589926E-3  
 2.536000000000000E10   -1.024518860504031E-3  -5.371790612116456E-4  
 2.538000000000000E10   -8.556860266253352E-4   5.081956624053419E-4  
 2.540000000000000E10    9.394814842380583E-4   1.308409031480551E-3  
 2.542000000000000E10    1.561900484375656E-3   6.679354669358872E-7  
 2.544000000000000E10    3.138472093269229E-4  -1.719885505735874E-3  
 2.546000000000000E10   -1.013959525153041E-3  -1.437550527043641E-3  
 2.548000000000000E10   -7.772205281071365E-4   1.355174463242292E-3  
 2.550000000000000E10    1.046395278535783E-3   6.894525722600520E-4  
 2.552000000000000E10    1.786482403986156E-3  -3.604060912039131E-4  
 2.554000000000000E10    1.332808460574597E-4  -1.056251931004226E-3  
 2.556000000000000E10   -7.021752535365522E-4  -6.477552233263850E-4  
 2.558000000000000E10   -1.241737190866843E-4   9.175692102871835E-4  
 2.560000000000000E10    5.474164499901235E-4   4.845858202315867E-4  
 2.562000000000000E10    7.258826517499983E-4   5.150070064701140E-4  
 2.564000000000000E10    1.153754303231835E-3  -1.012791530229151E-3  
 2.566000000000000E10   -3.394543018657714E-4  -1.160710933618248E-3  
 2.568000000000000E10   -1.577368588186801E-3   5.518163088709116E-4  
 2.570000000000000E10    2.983061131089926E-4   2.177535090595484E-3  
 2.572000000000000E10    2.534959698095918E-3  -1.792384427972138E-4  
 2.574000000000000E10    4.387787485029548E-4  -2.013489138334990E-3  
 2.576000000000000E10   -2.147467108443379E-3   1.205265143653378E-4  
 2.578000000000000E10   -1.019964038277976E-4   1.955232350155711E-3  
 2.580000000000000E10    1.410492695868015E-3   6.031728116795421E-4  
 2.582000000000000E10    7.026979583315551E-4  -7.160907844081521E-4  
 2.584000000000000E10   -6.919747684150934E-4   5.700152905774303E-5  
 2.586000000000000E10   -4.428991524036974E-4  -3.268428554292768E-5  
 2.588000000000000E10    1.346976478089346E-5   6.155099254101515E-4  
 2.590000000000000E10   -8.020419045351446E-4   9.076241985894740E-4  
 2.592000000000000E10    1.050745835527778E-3   1.569826737977564E-3  
 2.594000000000000E10    1.840680371969938E-3  -4.041187057737261E-4  
 2.596000000000000E10   -1.503949868492782E-3  -2.351392293348908E-3  
 2.598000000000000E10   -2.473669126629829E-3   1.896319910883904E-3  
 2.600000000000000E10    1.056879526004195E-3   3.258497687056661E-3  
 2.602000000000000E10    2.358666853979230E-3  -4.344849439803511E-4  
 2.604000000000000E10   -8.351299911737442E-4  -1.983565976843238E-3  
 2.606000000000000E10   -2.335977973416448E-3   8.243882912211120E-4  
 2.608000000000000E10   -1.154284109361470E-4   1.947999699041247E-3  
 2.610000000000000E10    9.328913292847574E-4   2.595162077341229E-4  
 2.612000000000000E10   -2.440913231112063E-4  -6.722830585204065E-4  
 2.614000000000000E10   -1.566675200592727E-4   1.320755109190941E-3  
 2.616000000000000E10    1.340299844741821E-3   1.855222944868729E-5  
 2.618000000000000E10   -7.395236752927303E-4  -7.742720772512257E-4  
 2.620000000000000E10   -2.234860556200147E-3   1.446362584829330E-3  
 2.622000000000000E10    1.110061304643750E-3   2.753711538389325E-3  
 2.624000000000000E10    2.468125894665718E-3  -1.038159476593137E-3  
 2.626000000000000E10   -1.461975276470184E-3  -2.765340032055974E-3  
 2.628000000000000E10   -3.344762371852994E-3   1.354901236481965E-3  
 2.630000000000000E10    1.207298599183559E-3   2.696438226848841E-3  
 2.632000000000000E10    2.116807736456394E-3  -1.040005590766668E-3  
 2.634000000000000E10   -1.169237308204174E-3  -2.034226199612021E-3  
 2.636000000000000E10   -1.769821159541607E-3   8.766567334532738E-4  
 2.638000000000000E10    1.223345985636115E-3   5.816421471536160E-4  
 2.640000000000000E10    5.292926798574626E-4  -1.111966790631414E-3  
 2.642000000000000E10   -1.664359937421978E-3  -7.176486542448402E-5  
 2.644000000000000E10    4.492653242778033E-4   1.535005052573979E-3  
 2.646000000000000E10    9.057998540811241E-4  -8.931605261750519E-4  
 2.648000000000000E10   -2.006788039579988E-3  -2.147316467016935E-3  
 2.650000000000000E10   -2.642265753820539E-3   1.743776607327163E-3  
 2.652000000000000E10    1.653815852478147E-3   2.121358411386609E-3  
 2.654000000000000E10    2.529344288632274E-3  -2.814363222569227E-3  
 2.656000000000000E10   -2.631826791912317E-3  -3.187452210113406E-3  
 2.658000000000000E10   -2.787223551422358E-3   1.982604851946235E-3  
 2.660000000000000E10    1.936076208949089E-3   1.865519676357508E-3  
 2.662000000000000E10    1.761369057931006E-3  -2.115876879543066E-3  
 2.664000000000000E10   -1.718333689495921E-3  -1.103049144148827E-3  
 2.666000000000000E10   -1.011234591715038E-3   1.275546266697347E-3  
 2.668000000000000E10    6.443905876949430E-4   1.888311380753294E-4  
 2.670000000000000E10   -1.105624833144248E-3  -1.376852393150330E-3  
 2.672000000000000E10   -1.313389278948307E-3   1.428138464689255E-3  
 2.674000000000000E10    1.070505939424038E-3   1.707815565168858E-3  
 2.676000000000000E10    2.009173389524221E-3  -2.451438456773758E-3  
 2.678000000000000E10   -2.620992250740528E-3  -1.886064768768847E-3  
 2.680000000000000E10   -2.228481462225318E-3   2.300248946994543E-3  
 2.682000000000000E10    2.802620176225901E-3   2.110374625772238E-3  
 2.684000000000000E10    2.130827633664012E-3  -2.432363806292415E-3  
 2.686000000000000E10   -2.210091566666961E-3  -1.932277926243842E-3  
 2.688000000000000E10   -1.391359721310437E-3   2.149848267436028E-3  
 2.690000000000000E10    2.205284778028727E-3   1.581464428454638E-3  
 2.692000000000000E10    1.240271492861211E-3  -1.938364584930241E-3  
 2.694000000000000E10   -1.069683930836618E-3  -4.603495763149113E-4  
 2.696000000000000E10    4.933177842758596E-4   1.783114857971668E-3  
 2.698000000000000E10    1.972331898286939E-3  -6.497350404970348E-4  
 2.700000000000000E10   -5.863849073648453E-4  -1.159430830739439E-3  
 2.702000000000000E10   -1.036244910210371E-3   1.410317257978022E-3  
 2.704000000000000E10    2.151114400476217E-3   1.419078907929361E-3  
 2.706000000000000E10    1.612199703231454E-3  -2.082093153148890E-3  
 2.708000000000000E10   -2.281250432133675E-3  -1.613778993487358E-3  
 2.710000000000000E10   -1.831851433962584E-3   2.432402689009905E-3  
 2.712000000000000E10    3.195034340023994E-3   1.133882091380656E-3  
 2.714000000000000E10    1.072147162631154E-3  -2.959874924272299E-3  
 2.716000000000000E10   -2.871570177376270E-3  -1.194477779790759E-3  
 2.718000000000000E10   -9.887679480016232E-4   2.257711719721556E-3  
 2.720000000000000E10    2.546120202168822E-3   2.947524189949036E-4  
 2.722000000000000E10    5.927276215516031E-4  -2.615789417177439E-3  
 2.724000000000000E10   -2.289212308824062E-3  -7.645955774933100E-4  
 2.726000000000000E10    3.121169356745668E-5   1.999641070142388E-3  
 2.728000000000000E10    1.737311482429504E-3  -4.636915400624275E-4  
 2.730000000000000E10   -1.223991275765002E-3  -1.750292838551104E-3  
 2.732000000000000E10   -2.491599181666970E-3   1.350560458377004E-3  
 2.734000000000000E10    1.788625027984381E-3   1.754890778101981E-3  
 2.736000000000000E10    1.152914832346141E-3  -2.136927563697100E-3  
 2.738000000000000E10   -2.984456252306700E-3  -1.559191499836743E-3  
 2.740000000000000E10   -1.626719720661640E-3   2.786451019346714E-3  
 2.742000000000000E10    2.461881143972278E-3   1.332660787738860E-3  
 2.744000000000000E10    2.057192614302039E-4  -2.666278509423137E-3  
 2.746000000000000E10   -2.701689722016454E-3  -2.814915933413431E-5  
 2.748000000000000E10   -4.003584326710552E-4   3.201438579708338E-3  
 2.750000000000000E10    2.686344087123871E-3  -2.803182578645647E-4  
 2.752000000000000E10   -8.050161995925009E-4  -2.256660722196102E-3  
 2.754000000000000E10   -2.963353646919131E-3   1.278516487218440E-3  
 2.756000000000000E10    1.324732438661158E-3   3.210370428860188E-3  
