#  HZ   S   RI   R     50.00 
! Rohde & Schwarz ZVA40 4Ports - Version 3.90 - 1145.1110k42 SN: 100403
! Date: 2023-10-04 07:14:48
! Measurement: S12 
! 
 2.200000000000000E10   -3.946223761886358E-3   5.086777382530272E-4  
 2.202000000000000E10   -6.213231827132404E-4   4.022406414151192E-3  
 2.204000000000000E10    4.434000235050917E-3  -4.928547787130810E-5  
 2.206000000000000E10   -2.213879197370261E-4  -3.841093042865396E-3  
 2.208000000000000E10   -4.625555593520403E-3   1.710762626316864E-5  
 2.210000000000000E10    2.446991857141256E-4   3.793195355683565E-3  
 2.212000000000000E10    3.026452381163836E-3  -4.583543923217803E-4  
 2.214000000000000E10   -7.243710570037365E-4  -2.512521576136351E-3  
 2.216000000000000E10   -2.316250000149012E-3   9.249958675354719E-4  
 2.218000000000000E10    1.138357911258936E-3   2.149985171854496E-3  
 2.220000000000000E10    1.736220205202699E-3  -1.649961923249066E-3  
 2.222000000000000E10   -2.517569111660123E-3  -8.240037714131177E-4  
 2.224000000000000E10   -4.876401217188686E-4   3.524638945236802E-3  
 2.226000000000000E10    3.092586994171143E-3   9.246038389392197E-4  
 2.228000000000000E10    5.800563376396895E-4  -3.207574132829905E-3  
 2.230000000000000E10   -3.680445253849030E-3  -4.460606214706786E-5  
 2.232000000000000E10   -5.905313300900161E-4   4.348765593022108E-3  
 2.234000000000000E10    3.849998814985156E-3   4.326411581132561E-4  
 2.236000000000000E10    9.857038094196469E-5  -3.905878402292728E-3  
 2.238000000000000E10   -3.303178586065769E-3  -3.766997833736241E-4  
 2.240000000000000E10    4.385435313452035E-4   3.246166976168752E-3  
 2.242000000000000E10    3.008069237694144E-3  -1.137911342084408E-3  
 2.244000000000000E10   -1.385647803544998E-3  -2.692542271688581E-3  
 2.246000000000000E10   -1.714281621389091E-3   2.153258305042982E-3  
 2.248000000000000E10    2.787933917716146E-3   1.625109813176096E-3  
 2.250000000000000E10    1.552563509903848E-3  -2.694745315238833E-3  
 2.252000000000000E10   -3.420491237193346E-3  -1.483438885770738E-3  
 2.254000000000000E10   -1.179036218672991E-3   3.383837873116136E-3  
 2.256000000000000E10    3.245999803766608E-3   7.153147598728538E-4  
 2.258000000000000E10    6.083647022023797E-4  -3.645246848464012E-3  
 2.260000000000000E10   -4.036757163703442E-3  -1.188715570606291E-3  
 2.262000000000000E10   -5.110810743644834E-4   3.642665687948465E-3  
 2.264000000000000E10    3.267901018261910E-3   3.043297037947923E-4  
 2.266000000000000E10    6.211901200003922E-5  -3.277393057942390E-3  
 2.268000000000000E10   -3.201010171324015E-3   3.796446544583887E-4  
 2.270000000000000E10    1.211945782415569E-3   3.155246144160628E-3  
 2.272000000000000E10    2.573249395936728E-3  -1.060761860571802E-3  
 2.274000000000000E10   -2.427346073091030E-3  -1.972836675122380E-3  
 2.276000000000000E10   -1.849549822509289E-3   3.493156284093857E-3  
 2.278000000000000E10    2.864433918148279E-3   1.768780406564474E-3  
 2.280000000000000E10    1.166055561043322E-3  -3.432122059166431E-3  
 2.282000000000000E10   -2.789437770843506E-3  -3.521842183545232E-3  
 2.284000000000000E10   -1.362258917652071E-3   4.336078185588121E-3  
 2.286000000000000E10    4.074768163263798E-3   1.288228784687817E-3  
 2.288000000000000E10    1.410375349223614E-3  -4.516119603067637E-3  
 2.290000000000000E10   -4.285837057977915E-3  -7.942088996060193E-4  
 2.292000000000000E10   -4.338755388744175E-4   4.021954257041216E-3  
 2.294000000000000E10    3.356477711349726E-3   4.092920571565628E-4  
 2.296000000000000E10   -2.692077832762152E-4  -2.045953180640936E-3  
 2.298000000000000E10   -2.278764033690095E-3   1.545361592434347E-3  
 2.300000000000000E10    1.630310202017427E-3   1.802054583095014E-3  
 2.302000000000000E10    1.553767360746861E-3  -2.384017454460263E-3  
 2.304000000000000E10   -3.683538408949971E-3  -1.260753488168120E-3  
 2.306000000000000E10   -1.171686802990735E-3   4.392676986753941E-3  
 2.308000000000000E10    4.636160098016262E-3   4.447088576853275E-4  
 2.310000000000000E10    5.200631567277014E-4  -5.048451013863087E-3  
 2.312000000000000E10   -4.739728290587664E-3  -4.774679255206138E-4  
 2.314000000000000E10   -6.352247437462211E-4   4.486551973968744E-3  
 2.316000000000000E10    4.403008613735437E-3   4.618596867658198E-4  
 2.318000000000000E10    5.403269897215068E-4  -3.803809406235814E-3  
 2.320000000000000E10   -3.967193420976400E-3   1.243026199517772E-4  
 2.322000000000000E10    2.218783629359677E-4   3.570246044546366E-3  
 2.324000000000000E10    2.807774115353823E-3  -9.164194343611598E-4  
 2.326000000000000E10   -2.191386884078383E-3  -2.185789169743657E-3  
 2.328000000000000E10   -1.336623565293849E-3   2.130977343767881E-3  
 2.330000000000000E10    2.736223163083196E-3   8.756128954701126E-4  
 2.332000000000000E10    3.619338676799089E-4  -3.197347046807408E-3  
 2.334000000000000E10   -3.552220761775971E-3  -8.208800136344507E-5  
 2.336000000000000E10    5.518117541214451E-5   4.188059363514185E-3  
 2.338000000000000E10    4.734552465379238E-3  -3.417807165533304E-4  
 2.340000000000000E10   -7.367060170508921E-4  -5.370367784053087E-3  
 2.342000000000000E10   -5.051945801824331E-3   2.593352401163429E-4  
 2.344000000000000E10    5.878856172785163E-4   4.718634299933910E-3  
 2.346000000000000E10    3.962960094213486E-3  -7.630194886587560E-4  
 2.348000000000000E10   -1.288860803470016E-3  -3.872091183438897E-3  
 2.350000000000000E10   -3.619596827775240E-3   7.898374460637569E-4  
 2.352000000000000E10    8.524557342752814E-4   3.217715770006180E-3  
 2.354000000000000E10    1.481241080909967E-3  -1.339665614068508E-3  
 2.356000000000000E10   -2.862946595996618E-3  -8.210445521399379E-4  
 2.358000000000000E10   -3.604969606385566E-5   2.914670621976256E-3  
 2.360000000000000E10    2.824071794748306E-3  -7.193734054453671E-4  
 2.362000000000000E10   -2.015163656324148E-3  -3.879773430526257E-3  
 2.364000000000000E10   -4.549826961010695E-3   2.386729000136256E-3  
 2.366000000000000E10    2.433028770610690E-3   4.642874468117952E-3  
 2.368000000000000E10    4.264635499566793E-3  -1.828560722060502E-3  
 2.370000000000000E10   -1.730751013383269E-3  -4.917314741760492E-3  
 2.372000000000000E10   -4.571712575852871E-3   2.007663948461413E-3  
 2.374000000000000E10    1.590725150890648E-3   4.122912418097258E-3  
 2.376000000000000E10    3.472775220870972E-3  -1.688397838734090E-3  
 2.378000000000000E10   -1.850405591540039E-3  -1.859151991084218E-3  
 2.380000000000000E10   -1.130536897107959E-3   9.539186139591038E-4  
 2.382000000000000E10    1.667312812060118E-3   4.207184829283506E-4  
 2.384000000000000E10   -5.117737455293536E-4  -2.161679090932012E-3  
 2.386000000000000E10   -2.284013433381915E-3   9.084999910555780E-4  
 2.388000000000000E10    1.847263309173286E-3   2.194056985899806E-3  
 2.390000000000000E10    2.551065292209387E-3  -2.626690082252026E-3  
 2.392000000000000E10   -2.697387477383018E-3  -3.538070712238550E-3  
 2.394000000000000E10   -2.986612962558866E-3   2.897567115724087E-3  
 2.396000000000000E10    2.423528581857681E-3   2.872280543670058E-3  
 2.398000000000000E10    2.663601189851761E-3  -2.749306848272681E-3  
 2.400000000000000E10   -2.908994909375906E-3  -2.846594899892807E-3  
 2.402000000000000E10   -2.262627938762307E-3   2.590746385976672E-3  
 2.404000000000000E10    1.670636818744242E-3   1.497795339673758E-3  
 2.406000000000000E10    1.246678526513279E-3  -2.305312082171440E-3  
 2.408000000000000E10   -2.100835321471095E-3  -7.724330644123256E-4  
 2.410000000000000E10    1.343982876278460E-4   1.211326685734093E-3  
 2.412000000000000E10    1.209145761094987E-3  -5.390408332459629E-4  
 2.414000000000000E10   -8.648894145153463E-4  -9.615304879844189E-4  
 2.416000000000000E10   -8.077423553913832E-4   1.699547632597387E-3  
 2.418000000000000E10    2.171981846913695E-3   1.502783852629364E-3  
 2.420000000000000E10    9.873006492853165E-4  -2.125164726749063E-3  
 2.422000000000000E10   -2.646401058882475E-3  -1.360952737741172E-3  
 2.424000000000000E10   -1.592765096575022E-3   2.861664397642016E-3  
 2.426000000000000E10    2.786790253594518E-3   1.710101263597608E-3  
 2.428000000000000E10    1.718886429443955E-3  -2.555165439844132E-3  
 2.430000000000000E10   -1.738101593218744E-3  -1.869597239419818E-3  
 2.432000000000000E10   -1.269896747544408E-3   1.001107739284635E-3  
 2.434000000000000E10    1.200398546643555E-3   8.786974940448999E-4  
 2.436000000000000E10    6.784364813938737E-4  -6.464202306233347E-4  
 2.438000000000000E10    9.805326408240944E-5  -3.685355477500707E-4  
 2.440000000000000E10    8.485179860144854E-4  -5.771057112724520E-5  
 2.442000000000000E10    2.347599365748465E-4  -1.328657381236553E-3  
 2.444000000000000E10   -2.113353228196502E-3  -2.412757603451610E-4  
 2.446000000000000E10   -5.387219716794789E-4   1.714253914542496E-3  
 2.448000000000000E10    1.999313244596124E-3   7.057771435938776E-4  
 2.450000000000000E10    8.389014983549714E-4  -2.765957266092300E-3  
 2.452000000000000E10   -1.887431717477739E-3  -1.655454980209470E-3  
 2.454000000000000E10   -1.573462621308863E-3   1.324862823821604E-3  
 2.456000000000000E10    9.281592210754752E-4   1.248731277883053E-3  
 2.458000000000000E10    1.349554047919810E-3  -3.107727097813040E-4  
 2.460000000000000E10   -6.676184711977840E-4  -1.081565744243562E-3  
 2.462000000000000E10   -3.684778930619359E-4   1.375670835841447E-4  
 2.464000000000000E10   -5.284865037538111E-4   4.883853252977133E-4  
 2.466000000000000E10   -7.912546861916781E-4   4.590004682540894E-4  
 2.468000000000000E10    3.296352515462786E-4   6.963144405744970E-4  
 2.470000000000000E10    5.756706232205033E-4  -3.347701858729124E-4  
 2.472000000000000E10   -2.424518606858328E-4  -1.082973903976381E-3  
 2.474000000000000E10   -1.693711965344846E-3  -4.391321854200214E-4  
 2.476000000000000E10   -1.808607048587874E-4   1.378276385366917E-3  
 2.478000000000000E10    1.403164700604975E-3   3.894170222338289E-4  
 2.480000000000000E10    9.350893669761717E-4  -2.110866596922278E-3  
 2.482000000000000E10   -1.399565488100052E-3  -7.689165649935603E-4  
 2.484000000000000E10   -1.083698472939432E-3   4.252214275766164E-4  
 2.486000000000000E10    5.965203745290637E-4   6.778608658351004E-4  
 2.488000000000000E10    5.942109273746610E-4  -1.077274209819734E-3  
 2.490000000000000E10   -1.754043769324198E-4  -9.517593425698578E-4  
 2.492000000000000E10   -9.411367936991155E-4  -9.922669269144535E-4  
 2.494000000000000E10   -1.420097309164703E-3   5.004926424589939E-5  
 2.496000000000000E10   -7.792325341142714E-4   5.784810637123883E-4  
 2.498000000000000E10    7.196951773948968E-4   2.089346526190639E-4  
 2.500000000000000E10    3.102037589997053E-4  -1.289913430809975E-3  
 2.502000000000000E10   -1.082889619283378E-3  -1.776073477230966E-3  
 2.504000000000000E10   -1.566599239595234E-3   2.998858690261841E-4  
 2.506000000000000E10   -2.317389153176919E-4   1.086152391508222E-3  
 2.508000000000000E10    1.256651827134192E-3   5.336889880709350E-4  
 2.510000000000000E10    6.486210040748119E-4  -1.084999996237457E-3  
 2.512000000000000E10   -1.074275118298829E-3  -1.042071497067809E-3  
 2.514000000000000E10   -1.269805827178061E-3   1.503450475865975E-4  
 2.516000000000000E10   -4.868578398600221E-4   1.305506331846118E-3  
 2.518000000000000E10    9.379597031511366E-4   4.924711538478732E-4  
 2.520000000000000E10    9.758071973919869E-4  -6.794966175220907E-4  
 2.522000000000000E10   -1.756960264174268E-4  -1.587453181855381E-3  
 2.524000000000000E10   -1.555137569084764E-3  -3.668600693345070E-4  
 2.526000000000000E10    9.016796684591100E-5   1.806782092899084E-3  
 2.528000000000000E10    1.465694047510624E-3   5.397979984991252E-4  
 2.530000000000000E10    1.140010775998235E-3  -1.289246603846550E-3  
 2.532000000000000E10   -5.300145130604506E-4  -7.065256941132247E-4  
 2.534000000000000E10   -9.704525582492352E-4   3.061800671275705E-4  
 2.536000000000000E10    5.147965857759118E-4   8.463190170004964E-4  
 2.538000000000000E10    1.038631889969111E-3  -5.539377525565215E-6  
 2.540000000000000E10    8.500607800669968E-4  -4.627300659194589E-4  
 2.542000000000000E10    2.682323101907969E-4  -9.260419756174088E-4  
 2.544000000000000E10   -2.776501642074436E-4  -8.352567674592137E-4  
 2.546000000000000E10   -3.957276931032538E-4   7.010411354713142E-4  
 2.548000000000000E10    1.392796752043068E-3   1.209272420965135E-3  
 2.550000000000000E10    2.362340921536088E-3  -1.073255785740912E-3  
 2.552000000000000E10   -5.643908516503871E-4  -1.490758499130607E-3  
 2.554000000000000E10   -1.296365633606911E-3   4.985333653166890E-4  
 2.556000000000000E10    5.532272043637931E-4   1.778880134224892E-3  
 2.558000000000000E10    1.744932727888227E-3   3.245442057959735E-4  
 2.560000000000000E10    5.173829849809408E-4  -1.485704560764134E-3  
 2.562000000000000E10   -1.139249885454774E-3  -7.558329962193966E-4  
 2.564000000000000E10    3.204562659675503E-8   3.793929645325989E-4  
 2.566000000000000E10    5.043857963755727E-4   5.675698048435152E-4  
 2.568000000000000E10    2.515813393983990E-4  -3.396064857952297E-4  
 2.570000000000000E10    6.216848269104958E-4   2.331555733690038E-4  
 2.572000000000000E10    8.174242684617639E-4  -9.242036612704396E-4  
 2.574000000000000E10   -1.434645731933415E-3  -8.269504178315401E-4  
 2.576000000000000E10   -1.637406297959387E-3   1.853241701610386E-3  
 2.578000000000000E10    1.803302788175643E-3   2.241673879325390E-3  
 2.580000000000000E10    2.110820263624191E-3  -1.458558370359242E-3  
 2.582000000000000E10   -1.960687339305878E-3  -2.202804433181882E-3  
 2.584000000000000E10   -2.476228866726160E-3   1.562518533319235E-3  
 2.586000000000000E10    1.050728256814182E-3   2.240976318717003E-3  
 2.588000000000000E10    1.602907548658550E-3  -5.302332574501634E-4  
 2.590000000000000E10   -3.881167212966830E-4  -1.494882628321648E-3  
 2.592000000000000E10   -1.484624808654189E-3   1.165003166534007E-3  
 2.594000000000000E10   -1.438888575648889E-4   6.075628334656358E-4  
 2.596000000000000E10   -6.186522659845650E-5  -5.469990719575435E-5  
 2.598000000000000E10   -1.245794584974647E-3   1.113609760068357E-3  
 2.600000000000000E10    1.163056702353060E-3   1.304569188505411E-3  
 2.602000000000000E10    7.789366063661873E-4  -1.378348679281771E-3  
 2.604000000000000E10   -2.426331629976630E-3  -1.435922225937247E-3  
 2.606000000000000E10   -2.041788538917899E-3   2.969568828120828E-3  
 2.608000000000000E10    1.698404666967690E-3   1.864614896476269E-3  
 2.610000000000000E10    1.947076292708516E-3  -2.601608633995056E-3  
 2.612000000000000E10   -3.000779775902629E-3  -1.812698086723685E-3  
 2.614000000000000E10   -2.108595566824079E-3   2.828490687534213E-3  
 2.616000000000000E10    2.488546539098024E-3   1.786059816367924E-3  
 2.618000000000000E10    1.210276503115892E-3  -1.910230726934969E-3  
 2.620000000000000E10   -2.349126618355513E-3  -7.332673994824290E-4  
 2.622000000000000E10   -6.854394450783730E-4   2.008769661188126E-3  
 2.624000000000000E10    9.763396228663623E-4   1.799653400667012E-4  
 2.626000000000000E10   -7.604702841490507E-4  -1.798128010705113E-3  
 2.628000000000000E10   -1.651698257774115E-3   1.134570222347975E-3  
 2.630000000000000E10    1.786973094567657E-3   1.376596628688276E-3  
 2.632000000000000E10    1.043014111928642E-3  -2.330064307898283E-3  
 2.634000000000000E10   -2.736208494752646E-3  -1.855478854849935E-3  
 2.636000000000000E10   -1.442328095436096E-3   2.699536038562655E-3  
 2.638000000000000E10    3.281308105215430E-3   1.011493150144815E-3  
 2.640000000000000E10    1.538736978545785E-3  -3.483616979792714E-3  
 2.642000000000000E10   -3.136656712740660E-3  -1.458148588426411E-3  
 2.644000000000000E10   -9.580967598594725E-4   2.494298154488206E-3  
 2.646000000000000E10    2.436958020552993E-3   2.843395923264325E-4  
 2.648000000000000E10   -6.672326126135886E-4  -3.117802320048213E-3  
 2.650000000000000E10   -2.077001845464110E-3  -3.557972668204457E-4  
 2.652000000000000E10    1.003340119495988E-3   1.473226002417505E-3  
 2.654000000000000E10    1.523005659691989E-3  -2.502215327695012E-3  
 2.656000000000000E10   -2.032375661656261E-3  -2.469521015882492E-3  
 2.658000000000000E10   -1.480111037380993E-3   2.243794966489077E-3  
 2.660000000000000E10    3.252214519307017E-3   6.286337738856673E-4  
 2.662000000000000E10    7.711077923886478E-4  -3.342839190736413E-3  
 2.664000000000000E10   -3.223884617909789E-3  -1.088602002710104E-3  
 2.666000000000000E10   -7.310232613235712E-4   2.864962210878730E-3  
 2.668000000000000E10    2.498079091310501E-3   6.395238597178832E-5  
 2.670000000000000E10   -6.299331289483234E-5  -2.887743758037686E-3  
 2.672000000000000E10   -3.036449896171689E-3  -2.060416009044275E-4  
 2.674000000000000E10    4.355781711637974E-4   2.422352554276586E-3  
 2.676000000000000E10    2.745203208178282E-3  -1.172174583189189E-3  
 2.678000000000000E10   -1.457353471778333E-3  -2.385097090154886E-3  
 2.680000000000000E10   -1.846762257628143E-3   1.485766377300024E-3  
 2.682000000000000E10    2.462300239130855E-3   1.556877163238823E-3  
 2.684000000000000E10    1.210917253047228E-3  -2.181025920435786E-3  
 2.686000000000000E10   -2.205956261605024E-3  -1.190481823869050E-3  
 2.688000000000000E10   -4.989376175217331E-4   2.885656896978617E-3  
 2.690000000000000E10    3.049250226467848E-3   7.284371531568468E-4  
 2.692000000000000E10    8.412903989665210E-4  -2.638522535562515E-3  
 2.694000000000000E10   -2.794212428852916E-3  -1.568943407619372E-4  
 2.696000000000000E10    7.168544107116759E-4   3.641156479716301E-3  
 2.698000000000000E10    2.963460516184568E-3  -2.794379543047398E-4  
 2.700000000000000E10   -1.196971279568970E-4  -2.695077098906040E-3  
 2.702000000000000E10   -2.221157541498542E-3   1.363554387353361E-3  
 2.704000000000000E10    1.358514535240829E-3   2.283401554450393E-3  
 2.706000000000000E10    1.970449928194284E-3  -1.214309013448656E-3  
 2.708000000000000E10   -1.473734737373889E-3  -1.733029843308032E-3  
 2.710000000000000E10   -1.169466646388173E-3   2.130753593519330E-3  
 2.712000000000000E10    2.522655762732029E-3   9.789768373593688E-4  
 2.714000000000000E10    8.360779611393809E-4  -2.350447233766317E-3  
 2.716000000000000E10   -2.317918231710792E-3  -8.924930007196963E-4  
 2.718000000000000E10    8.751562563702464E-5   2.900170395150781E-3  
 2.720000000000000E10    2.958532189950347E-3  -4.839349130634219E-4  
 2.722000000000000E10    2.015121572185308E-5  -3.210035851225257E-3  
 2.724000000000000E10   -2.598585560917854E-3   5.810552393086255E-4  
 2.726000000000000E10    8.454598719254136E-4   2.203271025791764E-3  
 2.728000000000000E10    2.044480526819825E-3  -1.274342881515622E-3  
 2.730000000000000E10   -1.521133352071047E-3  -2.500048838555813E-3  
 2.732000000000000E10   -2.755438443273306E-3   1.580130890943110E-3  
 2.734000000000000E10    1.822507940232754E-3   1.714133424684405E-3  
 2.736000000000000E10    1.548114116303623E-3  -2.299020066857338E-3  
 2.738000000000000E10   -2.981723053380847E-3  -2.348372014239430E-3  
 2.740000000000000E10   -2.020690590143204E-3   2.693281043320894E-3  
 2.742000000000000E10    2.114207949489355E-3   1.226026215590537E-3  
 2.744000000000000E10    6.876362604089081E-4  -1.993240788578987E-3  
 2.746000000000000E10   -2.521676011383534E-3  -8.773193694651127E-4  
 2.748000000000000E10    7.020074554020539E-5   2.423408441245556E-3  
 2.750000000000000E10    1.352414023131132E-3  -2.385580737609416E-4  
 2.752000000000000E10   -9.886040352284908E-4  -1.773173920810223E-3  
 2.754000000000000E10   -2.129080705344677E-3   1.995159545913339E-3  
 2.756000000000000E10    1.470319461077452E-3   2.077155048027635E-3  
