#  HZ   S   RI   R     50.00 
! Rohde & Schwarz ZVA40 4Ports - Version 3.90 - 1145.1110k42 SN: 100403
! Date: 2023-10-04 07:15:29
! Measurement: S12 
! 
 2.200000000000000E10   -3.336232621222735E-3  -1.708363852230832E-4  
 2.202000000000000E10   -5.221444880589843E-4   3.589664353057742E-3  
 2.204000000000000E10    4.316885024309158E-3  -7.354065892286599E-4  
 2.206000000000000E10   -1.222667633555830E-3  -4.500397481024265E-3  
 2.208000000000000E10   -4.848721902817488E-3   9.969776729121804E-4  
 2.210000000000000E10    1.442997949197888E-3   4.213884938508272E-3  
 2.212000000000000E10    4.497932270169258E-3  -1.488474197685719E-3  
 2.214000000000000E10   -2.095587784424424E-3  -3.792925504967570E-3  
 2.216000000000000E10   -3.743352368474007E-3   1.780865015462041E-3  
 2.218000000000000E10    2.243540715426207E-3   3.335267072543502E-3  
 2.220000000000000E10    2.189661841839552E-3  -2.365535357967019E-3  
 2.222000000000000E10   -3.167689545080066E-3  -2.079861005768180E-3  
 2.224000000000000E10   -1.291109132580459E-3   3.423799294978380E-3  
 2.226000000000000E10    2.996257273480296E-3   5.203284672461450E-4  
 2.228000000000000E10    1.427681709174067E-4  -3.775559365749359E-3  
 2.230000000000000E10   -4.038441460579634E-3   5.585123435594142E-4  
 2.232000000000000E10    6.103604100644589E-4   3.864204278215766E-3  
 2.234000000000000E10    4.040117375552654E-3  -9.949019877240062E-4  
 2.236000000000000E10   -1.176427584141493E-3  -4.185866564512253E-3  
 2.238000000000000E10   -3.574889153242111E-3   1.035272725857794E-3  
 2.240000000000000E10    1.510577509179711E-3   3.960888367146254E-3  
 2.242000000000000E10    3.461230313405395E-3  -1.926496275700629E-3  
 2.244000000000000E10   -1.714072073809803E-3  -2.616159152239561E-3  
 2.246000000000000E10   -2.023846842348576E-3   2.107398817315698E-3  
 2.248000000000000E10    2.613343065604568E-3   1.869908301159740E-3  
 2.250000000000000E10    1.132548553869128E-3  -2.736642491072416E-3  
 2.252000000000000E10   -3.258140757679939E-3  -8.118737605400384E-4  
 2.254000000000000E10   -2.613264077808708E-4   3.307382343336940E-3  
 2.256000000000000E10    3.521098988130689E-3  -2.761965442914516E-4  
 2.258000000000000E10   -4.342349420767278E-4  -4.298935178667307E-3  
 2.260000000000000E10   -4.188752733170986E-3  -8.067104499787092E-5  
 2.262000000000000E10    3.687220450956374E-4   3.970784600824118E-3  
 2.264000000000000E10    3.923060838133097E-3  -2.008471783483401E-4  
 2.266000000000000E10   -5.026537692174316E-4  -4.096195101737976E-3  
 2.268000000000000E10   -3.481003455817699E-3   3.972974373027682E-4  
 2.270000000000000E10    9.821732528507710E-4   3.283934434875846E-3  
 2.272000000000000E10    1.975168706849217E-3  -1.040034461766481E-3  
 2.274000000000000E10   -2.031367272138596E-3  -1.811701455153525E-3  
 2.276000000000000E10   -1.319951494224370E-3   2.497722161933780E-3  
 2.278000000000000E10    2.222676062956452E-3   4.233992076478899E-4  
 2.280000000000000E10    4.512870509643108E-5  -3.027357859537005E-3  
 2.282000000000000E10   -2.883100882172585E-3  -2.333755372092128E-3  
 2.284000000000000E10    3.596609531086870E-5   3.352169878780842E-3  
 2.286000000000000E10    4.056145902723074E-3  -8.379010250791907E-5  
 2.288000000000000E10   -4.341372550697997E-5  -4.207517951726914E-3  
 2.290000000000000E10   -4.349131602793932E-3   2.651404356583953E-4  
 2.292000000000000E10    4.237816901877523E-4   4.880265332758427E-3  
 2.294000000000000E10    4.217965994030237E-3   1.667578908381984E-4  
 2.296000000000000E10   -4.328084178268910E-4  -3.250512527301908E-3  
 2.298000000000000E10   -3.650019178166986E-3   1.070032129064202E-3  
 2.300000000000000E10    4.886493552476168E-4   2.687713596969843E-3  
 2.302000000000000E10    1.732457429170609E-3  -9.298170334659517E-4  
 2.304000000000000E10   -1.820010598748922E-3  -1.715012011118233E-3  
 2.306000000000000E10   -6.491030217148364E-4   1.967058051377535E-3  
 2.308000000000000E10    3.066444303840399E-3  -5.542931030504406E-4  
 2.310000000000000E10   -8.746881503611803E-4  -3.264990868046880E-3  
 2.312000000000000E10   -3.403455950319767E-3   1.422053086571395E-3  
 2.314000000000000E10    2.113110385835171E-3   3.850156208500266E-3  
 2.316000000000000E10    4.144713282585144E-3  -1.803188584744930E-3  
 2.318000000000000E10   -1.734002376906574E-3  -3.973356913775206E-3  
 2.320000000000000E10   -4.871604498475790E-3   1.692761783488095E-3  
 2.322000000000000E10    9.842226281762123E-4   4.650339949876070E-3  
 2.324000000000000E10    3.816882614046335E-3  -1.395371626131237E-3  
 2.326000000000000E10   -1.189721748232842E-3  -3.718477906659246E-3  
 2.328000000000000E10   -2.570467302575707E-3   7.581561803817749E-4  
 2.330000000000000E10    1.158172846771777E-3   1.522524980828166E-3  
 2.332000000000000E10    1.122561516240239E-3  -1.303544500842691E-3  
 2.334000000000000E10   -1.165670575574040E-3   1.111793899326585E-4  
 2.336000000000000E10    5.552042857743800E-4   2.098515629768372E-3  
 2.338000000000000E10    2.897182246670127E-3  -1.346101984381676E-3  
 2.340000000000000E10   -2.038419479504228E-3  -3.540650708600879E-3  
 2.342000000000000E10   -3.094780258834362E-3   1.616653054952622E-3  
 2.344000000000000E10    1.918143243528903E-3   3.498659934848547E-3  
 2.346000000000000E10    3.398444969207048E-3  -2.756619127467275E-3  
 2.348000000000000E10   -2.485988661646843E-3  -4.119179211556912E-3  
 2.350000000000000E10   -3.548670327290893E-3   1.398321590386331E-3  
 2.352000000000000E10    1.942116417922080E-3   3.287740750238299E-3  
 2.354000000000000E10    2.554885111749172E-3  -1.749963383190334E-3  
 2.356000000000000E10   -1.923095434904099E-3  -2.377233235165477E-3  
 2.358000000000000E10   -1.662759459577501E-3   1.469932147301734E-3  
 2.360000000000000E10    1.870414242148399E-3   6.228974089026451E-4  
 2.362000000000000E10   -9.145766380243003E-4  -1.897249021567404E-3  
 2.364000000000000E10   -2.085007959976792E-3   1.266416977159679E-3  
 2.366000000000000E10    1.832652371376753E-3   1.934692962095141E-3  
 2.368000000000000E10    1.334020867943764E-3  -2.784471958875656E-3  
 2.370000000000000E10   -2.558704698458314E-3  -1.928386394865811E-3  
 2.372000000000000E10   -2.150767948478460E-3   3.159997751936317E-3  
 2.374000000000000E10    3.304818179458380E-3   2.181762363761663E-3  
 2.376000000000000E10    2.414162969216704E-3  -3.570146160200238E-3  
 2.378000000000000E10   -3.485603258013725E-3  -2.098662080243230E-3  
 2.380000000000000E10   -1.833930262364447E-3   2.653501927852631E-3  
 2.382000000000000E10    2.305035945028067E-3   1.680908724665642E-3  
 2.384000000000000E10    1.385836279951036E-3  -1.657283748500049E-3  
 2.386000000000000E10   -1.249266206286848E-3  -1.485919579863548E-3  
 2.388000000000000E10   -3.596473834477365E-4   2.316234022146091E-4  
 2.390000000000000E10    4.135963972657919E-4  -8.521364652551711E-4  
 2.392000000000000E10   -1.209687790833414E-3  -4.672609793487936E-4  
 2.394000000000000E10    4.374810087028891E-4   1.988088712096214E-3  
 2.396000000000000E10    2.511736471205950E-3  -3.073384141316637E-5  
 2.398000000000000E10    1.883725781226531E-4  -3.760029794648290E-3  
 2.400000000000000E10   -3.593441098928452E-3  -4.812775587197393E-4  
 2.402000000000000E10   -9.360534604638815E-4   3.204497275874019E-3  
 2.404000000000000E10    2.514384454116225E-3   1.554962364025414E-4  
 2.406000000000000E10    1.052917912602425E-3  -3.279750235378742E-3  
 2.408000000000000E10   -2.259792992845178E-3  -1.315237721428275E-3  
 2.410000000000000E10   -7.919298368506134E-4   1.078979461453855E-3  
 2.412000000000000E10    1.019740710034967E-3   5.609502550214529E-4  
 2.414000000000000E10    7.910335989436135E-5  -3.296745417173952E-4  
 2.416000000000000E10    4.969951114617288E-4   4.219063266646117E-4  
 2.418000000000000E10    6.203055381774902E-4   6.927057256689295E-5  
 2.420000000000000E10   -6.365166627801955E-4  -6.122162449173629E-4  
 2.422000000000000E10   -1.390607096254826E-3   5.417151260189712E-4  
 2.424000000000000E10    3.305982681922615E-4   1.864562975242734E-3  
 2.426000000000000E10    2.102368045598269E-3  -1.775248092599213E-4  
 2.428000000000000E10   -4.141639219596982E-4  -2.289307070896030E-3  
 2.430000000000000E10   -1.234745606780052E-3  -4.008208270533942E-5  
 2.432000000000000E10    4.749021536554210E-5   1.521192956715822E-3  
 2.434000000000000E10    1.955704297870398E-3  -2.934798249043524E-4  
 2.436000000000000E10    9.883242892101407E-4  -1.169267226941884E-3  
 2.438000000000000E10   -3.950679674744606E-4  -9.960945462808013E-4  
 2.440000000000000E10   -4.198642272967845E-4   5.607368075288832E-4  
 2.442000000000000E10    3.126350638922304E-4   4.458676849026233E-4  
 2.444000000000000E10    1.299007999477908E-4  -1.387154188705608E-4  
 2.446000000000000E10    6.957683945074678E-4  -1.608388265594840E-4  
 2.448000000000000E10    1.947550663317088E-5  -1.130710355937481E-3  
 2.450000000000000E10   -1.383258146233857E-3  -1.169995637610555E-3  
 2.452000000000000E10   -2.864853013306856E-4   8.680393220856786E-4  
 2.454000000000000E10    1.011209329590201E-3   6.363348802551627E-4  
 2.456000000000000E10    1.530312234535813E-3  -8.112912764772773E-4  
 2.458000000000000E10   -5.235949647612870E-4  -1.227968605235219E-3  
 2.460000000000000E10   -1.016303547658026E-3  -1.098675566026941E-4  
 2.462000000000000E10   -4.949521389789879E-4   7.546068518422544E-4  
 2.464000000000000E10    4.351149254944176E-4   8.562301518395543E-4  
 2.466000000000000E10    8.699769969098270E-4   4.005895971204154E-5  
 2.468000000000000E10   -1.464313982069143E-6  -1.404279842972755E-3  
 2.470000000000000E10   -1.325414166785777E-3  -9.526211651973426E-4  
 2.472000000000000E10   -1.191131887026131E-3   3.795172960963100E-4  
 2.474000000000000E10    1.045049211825244E-4   1.119602937251329E-3  
 2.476000000000000E10    1.514347968623042E-3  -2.573154342826456E-4  
 2.478000000000000E10    3.212856245227158E-4  -1.521526486612856E-3  
 2.480000000000000E10   -1.182178501039743E-3  -1.167287933640182E-3  
 2.482000000000000E10   -1.066969591192901E-3   1.029830891638994E-3  
 2.484000000000000E10    6.433802773244679E-4   5.078217945992947E-4  
 2.486000000000000E10    7.399251917377114E-4  -7.161599933169782E-4  
 2.488000000000000E10    2.848468720912933E-4  -1.041530165821314E-3  
 2.490000000000000E10   -6.961411563679576E-4  -9.812690550461412E-4  
 2.492000000000000E10   -7.216183003038168E-4  -8.121685241349042E-4  
 2.494000000000000E10   -7.751239463686943E-4   9.883324382826686E-4  
 2.496000000000000E10    8.740175981074572E-4   4.771362364408560E-5  
 2.498000000000000E10    1.105759525671601E-3  -1.553049660287798E-3  
 2.500000000000000E10   -1.154245459474623E-3  -1.890888437628746E-3  
 2.502000000000000E10   -1.319438102655113E-3   1.751605159370229E-4  
 2.504000000000000E10    4.270338395144790E-4   1.253391499631107E-3  
 2.506000000000000E10    1.813763752579689E-3  -5.001451936550438E-4  
 2.508000000000000E10   -2.528673794586211E-4  -1.691601355560124E-3  
 2.510000000000000E10   -1.309436629526317E-3  -1.683672162471339E-4  
 2.512000000000000E10   -6.541309994645417E-4   6.381068378686905E-4  
 2.514000000000000E10    6.600861088372767E-4   8.976522076409310E-5  
 2.516000000000000E10   -1.927694393089041E-4  -3.826794854830951E-4  
 2.518000000000000E10    5.025624996051192E-4  -2.948835608549416E-4  
 2.520000000000000E10    3.756699516088702E-5  -6.717939977534115E-4  
 2.522000000000000E10   -8.230890962295234E-4  -7.731808582320809E-4  
 2.524000000000000E10   -4.590242751874030E-4   1.132038072682917E-3  
 2.526000000000000E10    1.400053850375116E-3   1.341708586551249E-3  
 2.528000000000000E10    1.916293520480394E-3  -1.479250611737371E-3  
 2.530000000000000E10   -1.218247809447348E-3  -1.816333271563053E-3  
 2.532000000000000E10   -1.925937482155860E-3   1.643326249904931E-3  
 2.534000000000000E10    1.282989163883030E-3   1.994857797399163E-3  
 2.536000000000000E10    2.461676718667150E-3  -9.313976624980569E-4  
 2.538000000000000E10   -1.713249221211299E-4  -1.684924354776740E-3  
 2.540000000000000E10   -1.230481546372175E-3   1.074572501238436E-4  
 2.542000000000000E10    9.517879807390273E-4   1.001613331027329E-3  
 2.544000000000000E10    1.157994382083416E-3   3.129709148197435E-5  
 2.546000000000000E10    1.214820440509357E-4   1.998478401219472E-4  
 2.548000000000000E10    1.560991164296866E-3   7.012653513811529E-4  
 2.550000000000000E10    1.217896584421396E-3  -1.079262234270573E-3  
 2.552000000000000E10   -1.415235921740532E-3  -9.377888636663556E-4  
 2.554000000000000E10   -6.840592832304537E-4   2.013513119891286E-3  
 2.556000000000000E10    2.217671368271112E-3   1.832903362810612E-3  
 2.558000000000000E10    2.505442593246698E-3  -2.135753398761153E-3  
 2.560000000000000E10   -2.126378938555718E-3  -2.267959527671337E-3  
 2.562000000000000E10   -1.567906700074673E-3   1.966973766684532E-3  
 2.564000000000000E10    2.476206980645657E-3   1.944337855093181E-3  
 2.566000000000000E10    1.943651703186333E-3  -1.886785728856921E-3  
 2.568000000000000E10   -9.597269818186760E-4  -1.325831515714526E-3  
 2.570000000000000E10   -1.021548639982939E-3   1.433843281120062E-3  
 2.572000000000000E10    1.162211410701275E-3   7.919157505966723E-4  
 2.574000000000000E10   -5.217628131504171E-5  -1.030072104185820E-3  
 2.576000000000000E10   -8.912298362702131E-4   8.150864159688354E-4  
 2.578000000000000E10    1.277465024031699E-3   8.643417968414724E-4  
 2.580000000000000E10    4.956859629601240E-4  -1.495020696893334E-3  
 2.582000000000000E10   -3.022582735866308E-3  -8.648958755657077E-4  
 2.584000000000000E10   -7.546544075012207E-4   2.674849005416036E-3  
 2.586000000000000E10    2.702423604205251E-3   1.051606959663332E-3  
 2.588000000000000E10    7.579097873531282E-4  -3.624608274549246E-3  
 2.590000000000000E10   -3.454093122854829E-3  -6.282128742896020E-4  
 2.592000000000000E10   -1.890756422653794E-3   3.450014162808657E-3  
 2.594000000000000E10    2.937657991424203E-3   1.369097037240863E-3  
 2.596000000000000E10    4.652687348425388E-4  -2.569390926510096E-3  
 2.598000000000000E10   -2.806526608765125E-3  -7.114988984540105E-4  
 2.600000000000000E10   -1.119597116485238E-3   2.352525712922216E-3  
 2.602000000000000E10    1.541560865007341E-3  -3.811251372098923E-5  
 2.604000000000000E10   -1.229369081556797E-3  -1.367303775623441E-3  
 2.606000000000000E10   -1.734418212436140E-3   1.437641796655953E-3  
 2.608000000000000E10    1.167357317171991E-3   7.218237151391804E-4  
 2.610000000000000E10    4.497026384342462E-4  -2.537754829972982E-3  
 2.612000000000000E10   -3.424310125410557E-3  -5.981608992442489E-4  
 2.614000000000000E10   -7.618540548719466E-4   3.427116200327873E-3  
 2.616000000000000E10    3.381235292181373E-3   3.892809327226132E-4  
 2.618000000000000E10    4.151062967139296E-5  -3.603041404858232E-3  
 2.620000000000000E10   -3.824582323431969E-3  -5.265992513159290E-5  
 2.622000000000000E10   -6.553223938681185E-4   3.579161362722516E-3  
 2.624000000000000E10    3.300293814390898E-3  -1.515776239102706E-4  
 2.626000000000000E10   -6.380366394296289E-4  -3.507081884890795E-3  
 2.628000000000000E10   -3.249003551900387E-3   3.582028148230165E-4  
 2.630000000000000E10    1.147676026448607E-3   2.714019268751144E-3  
 2.632000000000000E10    2.226175740361214E-3  -1.772299408912659E-3  
 2.634000000000000E10   -1.606928533874452E-3  -2.357661258429289E-3  
 2.636000000000000E10   -1.490724738687277E-3   2.041794126853347E-3  
 2.638000000000000E10    2.462689531967044E-3   7.873584982007742E-4  
 2.640000000000000E10    1.462962711229920E-3  -2.984052756801248E-3  
 2.642000000000000E10   -2.775207627564669E-3  -8.663071785122156E-4  
 2.644000000000000E10    3.335459041409195E-5   2.845793496817350E-3  
 2.646000000000000E10    3.252239432185888E-3  -7.339286385104060E-4  
 2.648000000000000E10   -1.033553737215698E-3  -4.041034728288651E-3  
 2.650000000000000E10   -2.879252424463630E-3   6.575364386662841E-4  
 2.652000000000000E10    1.462479238398373E-3   2.789128338918090E-3  
 2.654000000000000E10    3.324674675241113E-3  -2.745138015598059E-3  
 2.656000000000000E10   -2.017895923927426E-3  -3.105420852079988E-3  
 2.658000000000000E10   -1.918520778417587E-3   1.853982801549137E-3  
 2.660000000000000E10    2.743292832747102E-3   1.709450851194561E-3  
 2.662000000000000E10    1.690068049356341E-3  -3.496966557577252E-3  
 2.664000000000000E10   -2.926683984696865E-3  -1.526062842458487E-3  
 2.666000000000000E10   -8.814328466542065E-4   2.837085863575339E-3  
 2.668000000000000E10    3.205484943464398E-3   4.481856740312651E-5  
 2.670000000000000E10    2.688387758098543E-4  -3.333500120788813E-3  
 2.672000000000000E10   -3.266309853643179E-3  -3.878021088894457E-4  
 2.674000000000000E10    7.475197780877352E-4   3.189664334058762E-3  
 2.676000000000000E10    3.361547831445932E-3  -1.035073306411505E-3  
 2.678000000000000E10   -1.191549119539559E-3  -2.914518583565950E-3  
 2.680000000000000E10   -2.211099490523338E-3   1.774708041921258E-3  
 2.682000000000000E10    2.343656960874796E-3   2.161640906706452E-3  
 2.684000000000000E10    2.026930917054415E-3  -2.376597141847014E-3  
 2.686000000000000E10   -2.566480310633779E-3  -1.283944002352655E-3  
 2.688000000000000E10   -1.116636209189892E-3   3.198134014382958E-3  
 2.690000000000000E10    3.611727152019739E-3   1.012969529256225E-3  
 2.692000000000000E10    1.168005284853280E-3  -2.873540390282869E-3  
 2.694000000000000E10   -3.333166241645813E-3  -1.251023932127282E-4  
 2.696000000000000E10    3.383402945473790E-4   3.869487438350916E-3  
 2.698000000000000E10    3.477384801954031E-3  -1.824382488848642E-4  
 2.700000000000000E10   -5.148319178260863E-5  -2.858023159205914E-3  
 2.702000000000000E10   -2.802429255098105E-3   1.644810428842902E-3  
 2.704000000000000E10    1.757083693519235E-3   2.638914389535785E-3  
 2.706000000000000E10    2.540450077503920E-3  -1.353466999717057E-3  
 2.708000000000000E10   -1.759977079927921E-3  -2.017399063333869E-3  
 2.710000000000000E10   -1.993469661101699E-3   3.061102936044335E-3  
 2.712000000000000E10    2.901143627241254E-3   1.889315200969577E-3  
 2.714000000000000E10    2.011136151850224E-3  -2.732887864112854E-3  
 2.716000000000000E10   -2.684941282495856E-3  -1.353206229396164E-3  
 2.718000000000000E10   -6.419859710149467E-4   3.159341402351856E-3  
 2.720000000000000E10    3.269181586802006E-3   7.556793279945850E-4  
 2.722000000000000E10    8.979281992651522E-4  -3.355607623234391E-3  
 2.724000000000000E10   -2.927780384197831E-3   1.737099228193983E-4  
 2.726000000000000E10    4.611044714692980E-4   2.661894308403134E-3  
 2.728000000000000E10    2.545349765568972E-3  -1.057965215295553E-3  
 2.730000000000000E10   -1.447122427634895E-3  -2.664145780727267E-3  
 2.732000000000000E10   -2.499092137441039E-3   1.678757718764246E-3  
 2.734000000000000E10    1.773575786501169E-3   1.796504831872881E-3  
 2.736000000000000E10    1.878752256743610E-3  -2.721669385209680E-3  
 2.738000000000000E10   -3.175516379997134E-3  -2.016958780586720E-3  
 2.740000000000000E10   -1.781667349860072E-3   2.778822090476751E-3  
 2.742000000000000E10    2.882627537474036E-3   1.251545385457575E-3  
 2.744000000000000E10    5.900170654058456E-4  -3.379136323928833E-3  
 2.746000000000000E10   -3.555932780727744E-3  -9.176197927445173E-4  
 2.748000000000000E10   -5.760967032983899E-4   3.432456403970718E-3  
 2.750000000000000E10    2.656880766153336E-3   3.254660987295210E-4  
 2.752000000000000E10   -1.973452453967184E-4  -3.161763539537787E-3  
 2.754000000000000E10   -3.235038602724671E-3   6.197501206770539E-4  
 2.756000000000000E10    2.384582912782207E-4   2.247389173135161E-3  
