#  HZ   S   RI   R     50.00 
! Rohde & Schwarz ZVA40 4Ports - Version 3.90 - 1145.1110k42 SN: 100403
! Date: 2023-10-04 07:15:55
! Measurement: S12 
! 
 2.200000000000000E10   -2.535272156819701E-3  -3.472584066912532E-4  
 2.202000000000000E10    1.314229011768475E-4   2.635190030559897E-3  
 2.204000000000000E10    2.060281345620751E-3  -1.402821857482195E-3  
 2.206000000000000E10   -1.254635979421437E-3  -3.494935110211372E-3  
 2.208000000000000E10   -3.008521627634764E-3   1.601283904165030E-3  
 2.210000000000000E10    2.358471509069204E-3   2.472434658557177E-3  
 2.212000000000000E10    3.295449307188392E-3  -2.344139851629734E-3  
 2.214000000000000E10   -2.712134039029479E-3  -2.881214953958988E-3  
 2.216000000000000E10   -2.812929218634963E-3   2.442570403218269E-3  
 2.218000000000000E10    2.797081833705306E-3   2.507750876247883E-3  
 2.220000000000000E10    1.673639868386090E-3  -2.388249384239316E-3  
 2.222000000000000E10   -2.490379847586155E-3  -1.607413869351149E-3  
 2.224000000000000E10   -1.138568273745477E-3   2.438443712890148E-3  
 2.226000000000000E10    1.896627363748848E-3  -2.331445721210912E-4  
 2.228000000000000E10   -1.628876780159771E-4  -1.932398998178542E-3  
 2.230000000000000E10   -2.214959589764476E-3   5.875528440810740E-4  
 2.232000000000000E10    1.226900028996170E-3   2.206143923103809E-3  
 2.234000000000000E10    2.657795557752252E-3  -1.548521337099373E-3  
 2.236000000000000E10   -1.501626218669117E-3  -2.669778652489185E-3  
 2.238000000000000E10   -2.689081011340022E-3   2.160845557227731E-3  
 2.240000000000000E10    2.356964396312833E-3   3.334762761369348E-3  
 2.242000000000000E10    2.835321705788374E-3  -2.030095318332315E-3  
 2.244000000000000E10   -1.919058850035071E-3  -2.594216959550977E-3  
 2.246000000000000E10   -2.226371318101883E-3   1.965821254998446E-3  
 2.248000000000000E10    1.653232029639185E-3   2.171702682971954E-3  
 2.250000000000000E10    1.279589836485684E-3  -1.493916031904519E-3  
 2.252000000000000E10   -1.451122574508190E-3  -1.051789498887956E-3  
 2.254000000000000E10   -2.148908242816106E-4   1.495501142926514E-3  
 2.256000000000000E10    1.755533274263144E-3  -5.868941661901772E-4  
 2.258000000000000E10   -4.904529778286815E-4  -1.716289902105928E-3  
 2.260000000000000E10   -2.049149014055729E-3   1.214892370626330E-3  
 2.262000000000000E10    1.684329239651561E-3   2.190918894484639E-3  
 2.264000000000000E10    2.612936077639461E-3  -1.748116919770837E-3  
 2.266000000000000E10   -1.674494356848300E-3  -2.746258629485965E-3  
 2.268000000000000E10   -3.091730177402496E-3   2.083358820527792E-3  
 2.270000000000000E10    1.784615451470017E-3   3.406478557735682E-3  
 2.272000000000000E10    3.148356918245554E-3  -1.676326734013856E-3  
 2.274000000000000E10   -1.713769161142409E-3  -3.201152896508575E-3  
 2.276000000000000E10   -2.519979607313871E-3   1.251412555575371E-3  
 2.278000000000000E10    1.075180131010711E-3   1.785336411558092E-3  
 2.280000000000000E10    1.654542982578278E-3  -1.224392210133374E-3  
 2.282000000000000E10    3.860885408357717E-5  -1.448859227821231E-3  
 2.284000000000000E10   -1.133611731347628E-4   3.760920371860266E-4  
 2.286000000000000E10    1.205587061122060E-3  -5.602549645118415E-4  
 2.288000000000000E10   -7.491813739761710E-4  -1.172310090623796E-3  
 2.290000000000000E10   -1.871279440820217E-3   1.594035071320832E-3  
 2.292000000000000E10    2.174804685637355E-3   2.685340587049723E-3  
 2.294000000000000E10    2.270948840305209E-3  -1.931683975271881E-3  
 2.296000000000000E10   -2.952986164018512E-3  -2.691573696210980E-3  
 2.298000000000000E10   -3.411977319046855E-3   2.797381021082401E-3  
 2.300000000000000E10    1.917128567583859E-3   3.419770859181881E-3  
 2.302000000000000E10    2.823845250532031E-3  -2.000793581828475E-3  
 2.304000000000000E10   -1.612826134078205E-3  -3.443271853029728E-3  
 2.306000000000000E10   -2.286175265908241E-3   1.176870311610401E-3  
 2.308000000000000E10    1.564037054777145E-3   1.831687288358808E-3  
 2.310000000000000E10    1.496414421126247E-3  -8.013261249288917E-4  
 2.312000000000000E10   -5.603221361525357E-4  -1.328071521129459E-4  
 2.314000000000000E10    1.068893005140126E-3   1.055596745572984E-3  
 2.316000000000000E10    7.888699765317142E-4  -1.119652180932462E-3  
 2.318000000000000E10   -1.508074114099145E-3  -9.918529540300369E-4  
 2.320000000000000E10   -1.560897449962795E-3   2.101025311276317E-3  
 2.322000000000000E10    2.216188935562968E-3   2.058816608041525E-3  
 2.324000000000000E10    2.186741912737489E-3  -3.136691171675921E-3  
 2.326000000000000E10   -2.857769140973687E-3  -2.431637374684215E-3  
 2.328000000000000E10   -2.044574124738574E-3   2.920916536822915E-3  
 2.330000000000000E10    2.861205488443375E-3   1.911184284836054E-3  
 2.332000000000000E10    2.156507922336459E-3  -1.928314915858209E-3  
 2.334000000000000E10   -1.722897752188146E-3  -1.512732356786728E-3  
 2.336000000000000E10   -1.720310770906508E-3   1.571819651871920E-3  
 2.338000000000000E10    1.273888163268566E-3   9.194430895149708E-4  
 2.340000000000000E10    4.637671809177846E-4  -1.165564986877143E-3  
 2.342000000000000E10   -6.165709928609431E-4  -4.219298134557903E-4  
 2.344000000000000E10    5.449047894217074E-4  -6.821427814429626E-5  
 2.346000000000000E10   -9.127754310611635E-5  -2.098710974678397E-3  
 2.348000000000000E10   -2.008765935897827E-3  -5.015463102608919E-4  
 2.350000000000000E10   -3.407176700420678E-4   2.367323497310281E-3  
 2.352000000000000E10    3.434303682297468E-3   5.068148020654917E-4  
 2.354000000000000E10    1.109045231714845E-3  -3.277766518294811E-3  
 2.356000000000000E10   -3.245702246204019E-3  -1.321777352131903E-3  
 2.358000000000000E10   -1.580923795700073E-3   3.193185199052095E-3  
 2.360000000000000E10    3.070267150178552E-3   1.560062635689974E-3  
 2.362000000000000E10    9.813944343477488E-4  -2.377807162702084E-3  
 2.364000000000000E10   -1.659005996771157E-3  -1.187175977975130E-3  
 2.366000000000000E10   -1.410330762155354E-3   3.722107212524861E-4  
 2.368000000000000E10    2.799167123157531E-4   3.795463417191058E-4  
 2.370000000000000E10   -1.623700227355585E-4   2.059800171991810E-4  
 2.372000000000000E10    9.593099239282310E-4   3.379058034624904E-4  
 2.374000000000000E10    1.368057797662914E-3  -8.142222650349140E-4  
 2.376000000000000E10   -9.118488524109125E-4  -2.310348907485604E-3  
 2.378000000000000E10   -2.272729529067874E-3   1.175703015178442E-3  
 2.380000000000000E10    7.564249099232256E-4   2.667476190254092E-3  
 2.382000000000000E10    2.531525446102023E-3  -1.009422849165276E-4  
 2.384000000000000E10    1.582503900863230E-4  -2.429279731586576E-3  
 2.386000000000000E10   -2.459560055285692E-3  -6.764131831005216E-4  
 2.388000000000000E10   -8.546361932530999E-4   1.526545966044068E-3  
 2.390000000000000E10    1.803368330001831E-3   7.062114891596139E-4  
 2.392000000000000E10    8.789935382083058E-4  -1.489421469159424E-3  
 2.394000000000000E10    4.087136185262352E-4  -6.650669965893030E-4  
 2.396000000000000E10   -3.814165538642556E-4  -5.806977860629559E-4  
 2.398000000000000E10   -4.105436091776937E-4  -3.595773596316576E-4  
 2.400000000000000E10    2.505765587557107E-5   1.109050703234971E-3  
 2.402000000000000E10    1.011544838547707E-3  -8.325544768013060E-4  
 2.404000000000000E10    2.490457845851779E-4  -1.913600950501859E-3  
 2.406000000000000E10   -1.313450280576944E-3  -5.908863386139274E-4  
 2.408000000000000E10   -7.942174124764279E-5   5.386655684560537E-4  
 2.410000000000000E10    1.000456162728369E-3   6.008113850839436E-4  
 2.412000000000000E10    1.477223238907754E-3  -1.259646378457546E-3  
 2.414000000000000E10   -7.390574901364744E-4  -9.033163078129292E-4  
 2.416000000000000E10   -9.014131501317024E-4   6.314771017059684E-4  
 2.418000000000000E10   -1.661952992435545E-4   8.831275044940412E-4  
 2.420000000000000E10    5.286694504320622E-4   7.568666478618980E-4  
 2.422000000000000E10    7.713835802860558E-4  -2.460227406118065E-4  
 2.424000000000000E10   -4.385991487652063E-4  -6.635476020164788E-4  
 2.426000000000000E10   -1.214529620483518E-3  -3.330133622512221E-4  
 2.428000000000000E10   -1.139765488915145E-3   1.201424980536103E-3  
 2.430000000000000E10    1.528197084553540E-3   1.587121980264783E-3  
 2.432000000000000E10    1.269591855816543E-3  -6.890621152706444E-4  
 2.434000000000000E10    4.392444679979235E-4  -2.060968894511461E-3  
 2.436000000000000E10   -9.879317367449403E-4   3.383485018275678E-4  
 2.438000000000000E10    2.696963201742619E-4   1.106144278310239E-3  
 2.440000000000000E10    9.668591083027422E-4   6.362014682963491E-4  
 2.442000000000000E10    1.920360809890553E-4  -8.632516255602241E-5  
 2.444000000000000E10    7.488290430046618E-4   3.463843604549766E-4  
 2.446000000000000E10    1.687971089268103E-4  -6.220205104909837E-4  
 2.448000000000000E10   -1.591629232279956E-3  -4.224193107802421E-4  
 2.450000000000000E10   -7.896255701780319E-4   1.293738139793277E-3  
 2.452000000000000E10    1.989718060940504E-3   8.810557774268091E-4  
 2.454000000000000E10    1.619208487682045E-3  -1.548797707073391E-3  
 2.456000000000000E10   -1.051719067618251E-3  -1.947711105458438E-3  
 2.458000000000000E10   -1.434533274732530E-3   7.539485814049840E-4  
 2.460000000000000E10    1.303020981140435E-3   1.496442360803485E-3  
 2.462000000000000E10    1.243736594915390E-3  -8.605111506767571E-4  
 2.464000000000000E10   -1.403671049047262E-4  -8.334930171258748E-4  
 2.466000000000000E10   -3.171340213157237E-4   3.281139070168138E-4  
 2.468000000000000E10    3.882548480760306E-4  -1.633358333492652E-4  
 2.470000000000000E10   -7.083853706717491E-4  -5.847039865329862E-4  
 2.472000000000000E10   -2.853897749446333E-4   6.966478540562093E-4  
 2.474000000000000E10    1.054084394127131E-3   4.753219836857170E-4  
 2.476000000000000E10    1.066926168277860E-3  -2.128906548023224E-3  
 2.478000000000000E10   -1.998820574954152E-3  -1.048636739142239E-3  
 2.480000000000000E10   -8.343509980477393E-4   2.037152415141463E-3  
 2.482000000000000E10    1.932188053615391E-3   1.132023753598332E-3  
 2.484000000000000E10    1.289229723624885E-3  -2.384681021794677E-3  
 2.486000000000000E10   -1.598061644472182E-3  -1.339231501333416E-3  
 2.488000000000000E10   -1.430858508683741E-3   1.534572569653392E-3  
 2.490000000000000E10    1.941110938787460E-3   9.217021870426834E-4  
 2.492000000000000E10    1.260772929526866E-3  -1.700152992270887E-3  
 2.494000000000000E10   -1.000456511974335E-3  -6.116432487033308E-4  
 2.496000000000000E10    5.503747888724320E-5  -1.353916304651648E-4  
 2.498000000000000E10    2.869058225769550E-4  -7.403191993944347E-4  
 2.500000000000000E10   -7.568897563032806E-4  -2.471394836902618E-4  
 2.502000000000000E10    4.583707050187513E-5   7.511887233704329E-4  
 2.504000000000000E10    2.351745730265975E-3  -5.812088784296066E-5  
 2.506000000000000E10    6.591447745449841E-4  -2.521617105230689E-3  
 2.508000000000000E10   -2.530945697799325E-3  -8.082350250333548E-4  
 2.510000000000000E10   -9.214348392561078E-4   2.603982575237751E-3  
 2.512000000000000E10    2.963382983580232E-3   8.949561160989106E-4  
 2.514000000000000E10    1.300746342167258E-3  -3.204119158908725E-3  
 2.516000000000000E10   -2.545812167227268E-3  -1.579603063873947E-3  
 2.518000000000000E10   -1.058827852830291E-3   1.983000664040446E-3  
 2.520000000000000E10    1.769537804648280E-3   1.117173698730767E-3  
 2.522000000000000E10    9.941877797245979E-4  -1.274766167625785E-3  
 2.524000000000000E10   -1.110272249206901E-3  -5.754550147685222E-5  
 2.526000000000000E10    2.820250811055303E-4   5.392343737185001E-4  
 2.528000000000000E10    9.387423051521182E-4  -8.696517907083035E-4  
 2.530000000000000E10   -1.569654210470617E-3  -3.396783431526274E-4  
 2.532000000000000E10   -9.416730608791113E-5   2.059555379673839E-3  
 2.534000000000000E10    2.506575314328075E-3   2.427373256068677E-4  
 2.536000000000000E10    1.112154684960842E-3  -2.700219396501780E-3  
 2.538000000000000E10   -2.708840882405639E-3  -4.773713299073279E-4  
 2.540000000000000E10   -2.989498025272042E-4   3.250059438869357E-3  
 2.542000000000000E10    3.966912161558867E-3   1.343555748462677E-3  
 2.544000000000000E10    7.702063303440809E-4  -2.342818537726998E-3  
 2.546000000000000E10   -2.494735876098275E-3  -2.477376547176391E-4  
 2.548000000000000E10   -9.545861394144595E-5   3.746621310710907E-3  
 2.550000000000000E10    2.638952806591988E-3   4.886397509835661E-4  
 2.552000000000000E10    1.080565343727358E-4  -1.663716626353562E-3  
 2.554000000000000E10   -9.616262395866215E-4   1.230684691108763E-3  
 2.556000000000000E10    1.280706608667970E-3   1.357530592940748E-3  
 2.558000000000000E10    1.354481559246779E-3  -9.688711143098772E-4  
 2.560000000000000E10   -8.837364148348570E-4  -3.157564206048846E-4  
 2.562000000000000E10    2.953890070784837E-4   2.586001763120294E-3  
 2.564000000000000E10    3.330965293571353E-3   1.231321220984682E-4  
 2.566000000000000E10    2.251950500067323E-4  -3.079316345974803E-3  
 2.568000000000000E10   -3.096900880336762E-3   8.120140410028398E-4  
 2.570000000000000E10    6.211195141077042E-4   4.257839638739824E-3  
 2.572000000000000E10    4.227910656481981E-3  -9.388225735165179E-4  
 2.574000000000000E10   -9.583281353116036E-4  -3.770580049604178E-3  
 2.576000000000000E10   -3.502718638628721E-3   8.697576704435051E-4  
 2.578000000000000E10    1.414098660461605E-3   3.137065563350916E-3  
 2.580000000000000E10    2.038869541138411E-3  -1.412837067618966E-3  
 2.582000000000000E10   -1.292317407205701E-3  -2.426975872367621E-3  
 2.584000000000000E10   -2.001471351832151E-3   1.530065550468862E-3  
 2.586000000000000E10    1.390436547808349E-3   7.387269288301468E-4  
 2.588000000000000E10    5.660126917064190E-4  -1.708779367618263E-3  
 2.590000000000000E10   -2.990886801853776E-3  -5.414130282588303E-4  
 2.592000000000000E10   -3.011288063134998E-4   2.583572408184409E-3  
 2.594000000000000E10    2.824325812980533E-3  -9.408828918822110E-5  
 2.596000000000000E10   -1.406052499078214E-3  -3.773180302232504E-3  
 2.598000000000000E10   -3.971626982092857E-3   1.126987044699490E-3  
 2.600000000000000E10    1.089535304345191E-3   3.410423174500465E-3  
 2.602000000000000E10    3.139432985335589E-3  -2.182791475206614E-3  
 2.604000000000000E10   -3.035745350643992E-3  -3.161435481160879E-3  
 2.606000000000000E10   -3.440597327426076E-3   1.903703087009490E-3  
 2.608000000000000E10    2.021429827436805E-3   2.983914222568274E-3  
 2.610000000000000E10    1.939456211403012E-3  -2.467360114678741E-3  
 2.612000000000000E10   -3.362679854035378E-3  -2.407480496913195E-3  
 2.614000000000000E10   -2.314319135621190E-3   3.153331112116575E-3  
 2.616000000000000E10    2.577925799414516E-3   1.431654556654394E-3  
 2.618000000000000E10    5.501642008312047E-4  -3.355672815814614E-3  
 2.620000000000000E10   -3.663433482870460E-3  -2.174139226553962E-4  
 2.622000000000000E10    1.819242024794221E-4   2.879868261516094E-3  
 2.624000000000000E10    3.260066267102957E-3  -8.885197457857430E-4  
 2.626000000000000E10   -1.698012580163777E-3  -3.699019318446517E-3  
 2.628000000000000E10   -3.222256666049361E-3   1.775787677615881E-3  
 2.630000000000000E10    2.925200853496790E-3   2.982666483148933E-3  
 2.632000000000000E10    2.856731414794922E-3  -3.451981348916888E-3  
 2.634000000000000E10   -3.044416429474950E-3  -2.496823435649276E-3  
 2.636000000000000E10   -2.344773616641760E-3   3.484371351078153E-3  
 2.638000000000000E10    4.289014730602503E-3   1.576132839545608E-3  
 2.640000000000000E10    2.062064129859209E-3  -4.148084204643965E-3  
 2.642000000000000E10   -3.379246219992638E-3  -1.640879549086094E-3  
 2.644000000000000E10   -5.380064831115305E-4   4.046516027301550E-3  
 2.646000000000000E10    4.520080052316189E-3  -3.106706135440618E-4  
 2.648000000000000E10    9.553974814480171E-5  -4.481919575482607E-3  
 2.650000000000000E10   -3.649426624178886E-3   1.099300687201321E-3  
 2.652000000000000E10    2.487980760633946E-3   3.057616995647550E-3  
 2.654000000000000E10    3.629424376413226E-3  -2.368416404351592E-3  
 2.656000000000000E10   -2.362178638577461E-3  -3.140197833999991E-3  
 2.658000000000000E10   -1.867036684416235E-3   2.910732757300139E-3  
 2.660000000000000E10    3.551872679963708E-3   1.110879355110228E-3  
 2.662000000000000E10    1.327901845797896E-3  -4.159111529588699E-3  
 2.664000000000000E10   -3.783877473324537E-3  -1.354878419078887E-3  
 2.666000000000000E10    1.103479880839586E-4   3.847909858450294E-3  
 2.668000000000000E10    4.451693966984749E-3  -2.372428425587714E-4  
 2.670000000000000E10    5.723475987906568E-5  -4.492079373449087E-3  
 2.672000000000000E10   -4.071457777172327E-3   9.033480891957879E-4  
 2.674000000000000E10    1.198876067064703E-3   4.367911722511053E-3  
 2.676000000000000E10    4.402007441967726E-3  -1.049289596267045E-3  
 2.678000000000000E10   -1.597882714122534E-3  -3.824673593044281E-3  
 2.680000000000000E10   -2.975849667564035E-3   2.589130308479071E-3  
 2.682000000000000E10    2.222836017608643E-3   2.630831906571984E-3  
 2.684000000000000E10    1.956833293661475E-3  -2.248072763904929E-3  
 2.686000000000000E10   -3.103898838162422E-3  -1.042786636389792E-3  
 2.688000000000000E10   -7.955470937304199E-4   3.229242749512196E-3  
 2.690000000000000E10    3.455463331192732E-3   9.872342925518751E-4  
 2.692000000000000E10    1.389487442793325E-4  -3.386154770851135E-3  
 2.694000000000000E10   -3.755343612283468E-3   1.161864842288196E-3  
 2.696000000000000E10    9.723582188598812E-4   3.940669354051352E-3  
 2.698000000000000E10    3.667415119707584E-3  -6.323235575109720E-4  
 2.700000000000000E10   -1.571132568642497E-3  -3.195967059582472E-3  
 2.702000000000000E10   -3.490968607366085E-3   2.502696122974157E-3  
 2.704000000000000E10    1.964464318007231E-3   3.565712366253138E-3  
 2.706000000000000E10    2.888579154387116E-3  -1.650292775593698E-3  
 2.708000000000000E10   -2.387893153354526E-3  -2.056155353784561E-3  
 2.710000000000000E10   -2.160956384614110E-3   2.757703652605414E-3  
 2.712000000000000E10    2.716874005272985E-3   2.132891211658716E-3  
 2.714000000000000E10    1.588685787282884E-3  -2.758943242952228E-3  
 2.716000000000000E10   -2.888389630243182E-3  -7.760369335301220E-4  
 2.718000000000000E10   -1.560893724672496E-4   2.913705538958311E-3  
 2.720000000000000E10    3.235288662835956E-3   2.248799864901230E-4  
 2.722000000000000E10   -2.157171402359381E-4  -3.154149278998375E-3  
 2.724000000000000E10   -3.296224400401115E-3   1.101958565413952E-3  
 2.726000000000000E10    1.120762084610760E-3   3.306437749415636E-3  
 2.728000000000000E10    2.916793804615736E-3  -1.686535426415503E-3  
 2.730000000000000E10   -1.849322346970439E-3  -3.114335471764207E-3  
 2.732000000000000E10   -3.089933888986707E-3   2.061869949102402E-3  
 2.734000000000000E10    1.825105166062713E-3   2.273250836879015E-3  
 2.736000000000000E10    2.530675847083330E-3  -2.311421791091561E-3  
 2.738000000000000E10   -2.768349368125200E-3  -2.474025124683976E-3  
 2.740000000000000E10   -1.379551948048174E-3   1.834720023907721E-3  
 2.742000000000000E10    2.139867516234517E-3   8.373111486434937E-4  
 2.744000000000000E10    3.149883996229619E-4  -3.122097579762340E-3  
 2.746000000000000E10   -3.126874566078186E-3   1.213597352034412E-4  
 2.748000000000000E10    4.346478963270783E-4   2.686653751879931E-3  
 2.750000000000000E10    2.997192554175854E-3  -8.467512088827789E-4  
 2.752000000000000E10   -1.795123564079404E-3  -3.449541050940752E-3  
 2.754000000000000E10   -3.771038260310888E-3   1.287754857912660E-3  
 2.756000000000000E10    1.185753149911761E-3   3.218574682250619E-3  
