#  HZ   S   RI   R     50.00 
! Rohde & Schwarz ZVA40 4Ports - Version 3.90 - 1145.1110k42 SN: 100403
! Date: 2023-10-04 07:16:22
! Measurement: S12 
! 
 2.200000000000000E10   -2.812201157212257E-3  -9.053613175638020E-4  
 2.202000000000000E10   -9.914087131619453E-4   2.800031099468470E-3  
 2.204000000000000E10    2.334480406716466E-3   5.549932830035687E-4  
 2.206000000000000E10    7.664430304430425E-4  -2.447610022500157E-3  
 2.208000000000000E10   -1.407508156262338E-3  -4.746307386085391E-4  
 2.210000000000000E10   -1.318894792348146E-4   9.958622977137566E-4  
 2.212000000000000E10    8.224353077821434E-4  -5.559537094086409E-4  
 2.214000000000000E10   -4.668788751587272E-4  -2.141509903594852E-4  
 2.216000000000000E10   -6.645965040661395E-4   1.845886232331395E-3  
 2.218000000000000E10    2.335480879992247E-3  -2.322557556908578E-4  
 2.220000000000000E10   -4.466712125577033E-4  -2.031378680840135E-3  
 2.222000000000000E10   -2.563126618042588E-3  -7.027641549939290E-5  
 2.224000000000000E10   -4.747985512949526E-4   3.188019851222634E-3  
 2.226000000000000E10    2.792130457237363E-3   2.841150853782892E-4  
 2.228000000000000E10    3.740215906873345E-4  -2.458704868331552E-3  
 2.230000000000000E10   -2.394531853497028E-3  -9.128862293437123E-4  
 2.232000000000000E10   -1.001868396997452E-3   2.116585616022348E-3  
 2.234000000000000E10    2.294241217896342E-3   9.783593704923987E-4  
 2.236000000000000E10    1.045260345563293E-3  -9.904704056680203E-4  
 2.238000000000000E10   -7.228798349387944E-4  -3.067157813347876E-4  
 2.240000000000000E10    6.740702083334327E-4   7.813495467416942E-4  
 2.242000000000000E10   -1.975157101696823E-5  -3.084856143686920E-4  
 2.244000000000000E10   -5.913726636208594E-4   6.416406249627471E-4  
 2.246000000000000E10    5.058243987150490E-4   1.923675066791475E-3  
 2.248000000000000E10    1.839776290580630E-3  -3.812977811321616E-4  
 2.250000000000000E10   -2.105467865476385E-4  -1.851014792919159E-3  
 2.252000000000000E10   -2.132844645529985E-3   2.946945605799556E-4  
 2.254000000000000E10    2.100443234667182E-4   2.957195043563843E-3  
 2.256000000000000E10    2.999425632879138E-3   1.119642285630107E-3  
 2.258000000000000E10    1.345216063782573E-3  -1.881880336441100E-3  
 2.260000000000000E10   -1.860662596300244E-3  -9.214475867338479E-4  
 2.262000000000000E10   -1.066052005626261E-3   2.359862439334393E-3  
 2.264000000000000E10    1.561621204018593E-3   1.226423890329897E-3  
 2.266000000000000E10    1.122867804951966E-3  -5.771160940639675E-4  
 2.268000000000000E10   -2.368033019592986E-4  -9.426529868505895E-4  
 2.270000000000000E10    5.449163290904835E-5  -1.957336935447529E-4  
 2.272000000000000E10   -5.095602246001363E-4  -8.151887595886365E-5  
 2.274000000000000E10   -4.765733610838652E-4   2.929099136963487E-4  
 2.276000000000000E10    9.540515602566302E-4   1.287279999814928E-3  
 2.278000000000000E10    2.047408139333129E-3  -8.283429197035730E-4  
 2.280000000000000E10   -6.550947437062860E-4  -2.266175579279661E-3  
 2.282000000000000E10   -2.261873800307512E-3  -1.202306011691690E-3  
 2.284000000000000E10   -3.047856735065579E-4   2.553087659180164E-3  
 2.286000000000000E10    2.017079154029489E-3   3.380283887963742E-4  
 2.288000000000000E10    7.525988621637225E-4  -2.157405484467745E-3  
 2.290000000000000E10   -2.601069165393710E-3  -1.352521125227213E-3  
 2.292000000000000E10   -1.801720587536693E-3   1.150924712419510E-3  
 2.294000000000000E10    3.247251152060926E-4   1.179601531475782E-3  
 2.296000000000000E10    9.883900638669729E-4  -3.189615963492543E-4  
 2.298000000000000E10    5.174359466764145E-5  -8.966760360635817E-4  
 2.300000000000000E10   -5.385039257816970E-4  -9.493025718256831E-4  
 2.302000000000000E10   -1.214669202454388E-3  -4.547823846223764E-5  
 2.304000000000000E10   -4.282113222870976E-4   1.021913369186223E-3  
 2.306000000000000E10    7.868279353715479E-4   1.492084586061537E-3  
 2.308000000000000E10    1.466901041567326E-3  -5.471651675179601E-4  
 2.310000000000000E10   -9.122791816480458E-4  -1.565463491715491E-3  
 2.312000000000000E10   -2.976178657263517E-3   6.235748878680170E-4  
 2.314000000000000E10   -9.250923176296055E-5   2.650534268468618E-3  
 2.316000000000000E10    1.264399033971131E-3   4.223364230711013E-4  
 2.318000000000000E10    6.748153246007860E-4  -1.205940265208483E-3  
 2.320000000000000E10   -1.388353062793613E-3  -1.090744510293007E-3  
 2.322000000000000E10   -1.141084590926766E-3   8.728269604034722E-4  
 2.324000000000000E10    8.034933125600219E-4   1.640775590203702E-3  
 2.326000000000000E10    1.273763016797602E-3  -9.700946748125716E-7  
 2.328000000000000E10    2.967330219689757E-4  -5.917968228459358E-4  
 2.330000000000000E10   -7.938754861243069E-4  -4.685857566073537E-4  
 2.332000000000000E10   -1.242354395799339E-3   6.539999740198255E-4  
 2.334000000000000E10    7.210885087260976E-5   1.189068658277392E-3  
 2.336000000000000E10    1.162374392151833E-3   2.190685336245224E-4  
 2.338000000000000E10    4.840775509364903E-4  -1.705228933133185E-3  
 2.340000000000000E10   -9.141442133113742E-4  -1.829708460718393E-3  
 2.342000000000000E10   -1.296169008128345E-3   1.892942236736417E-4  
 2.344000000000000E10    9.054067777469754E-4   1.642274903133512E-3  
 2.346000000000000E10    2.143451478332281E-3   2.295068698003888E-4  
 2.348000000000000E10    8.270645630545914E-4  -1.650427817367017E-3  
 2.350000000000000E10   -1.097079017199576E-3  -1.550483284518123E-3  
 2.352000000000000E10   -1.727610826492310E-3   1.188438851386309E-3  
 2.354000000000000E10    5.017823423258960E-4   2.136461436748505E-3  
 2.356000000000000E10    1.582721597515047E-3   2.751315769273788E-4  
 2.358000000000000E10   -1.311053056269884E-4  -1.792885013855994E-3  
 2.360000000000000E10   -1.217247685417533E-3  -1.315779634751380E-3  
 2.362000000000000E10   -2.114337868988514E-3   6.411352660506964E-4  
 2.364000000000000E10    1.221567072207108E-4   1.665457151830196E-3  
 2.366000000000000E10    1.680840272456408E-3   5.114436498843133E-5  
 2.368000000000000E10    5.729506374336779E-4  -1.623331569135189E-3  
 2.370000000000000E10   -1.131149008870125E-3  -9.042699239216745E-4  
 2.372000000000000E10   -8.205433259718120E-4   1.185688306577504E-3  
 2.374000000000000E10   -4.587278526742011E-4   1.484591397456825E-3  
 2.376000000000000E10    9.410731727257371E-4   7.714983075857163E-4  
 2.378000000000000E10    1.043121214024723E-3  -5.711728008463979E-4  
 2.380000000000000E10   -8.621598826721311E-4  -1.558728050440550E-3  
 2.382000000000000E10   -1.570219406858087E-3   3.062836476601660E-4  
 2.384000000000000E10   -4.587185394484550E-4   1.946223201230168E-3  
 2.386000000000000E10    2.047437941655517E-3   2.343872183701024E-4  
 2.388000000000000E10    8.890855824574828E-4  -2.182712079957128E-3  
 2.390000000000000E10   -1.429294468834996E-3  -6.090858951210976E-4  
 2.392000000000000E10   -5.496310186572373E-4   1.705418340861797E-3  
 2.394000000000000E10    2.047905232757330E-3   6.746627623215318E-4  
 2.396000000000000E10    1.115487655624747E-3  -1.049673301167786E-3  
 2.398000000000000E10   -9.840198326855898E-4  -2.112736838171259E-4  
 2.400000000000000E10    7.254780939547345E-5   6.159881013445556E-4  
 2.402000000000000E10    2.637903671711683E-4   3.897732531186193E-4  
 2.404000000000000E10   -6.703783292323351E-4  -2.729521074797958E-4  
 2.406000000000000E10    1.009917701594532E-3   6.001379806548357E-4  
 2.408000000000000E10    1.492341631092131E-3  -9.041122393682599E-4  
 2.410000000000000E10   -7.845045183785260E-4  -1.724340254440904E-3  
 2.412000000000000E10   -1.978366170078516E-3   1.183969783596695E-3  
 2.414000000000000E10    1.071691047400236E-3   2.682201564311981E-3  
 2.416000000000000E10    3.187942318618298E-3  -1.155709964223206E-3  
 2.418000000000000E10   -9.177753818221390E-4  -3.095673862844706E-3  
 2.420000000000000E10   -2.940747188404203E-3   7.938912604004145E-4  
 2.422000000000000E10   -7.078194903442636E-5   2.285620896145701E-3  
 2.424000000000000E10    1.677371677942574E-3  -6.693248869851232E-4  
 2.426000000000000E10   -1.154285040684044E-3  -1.735661178827286E-3  
 2.428000000000000E10   -1.114988699555397E-3   9.800724219530821E-4  
 2.430000000000000E10    7.068360573612154E-4   2.112250331265386E-5  
 2.432000000000000E10   -9.569679386913776E-4  -1.239905133843422E-3  
 2.434000000000000E10   -2.059461083263159E-3   1.135312020778656E-3  
 2.436000000000000E10    1.343630487099290E-3   2.449877327308059E-3  
 2.438000000000000E10    2.035722834989429E-3  -1.397023559547961E-3  
 2.440000000000000E10   -1.948205637745559E-3  -2.441809279844165E-3  
 2.442000000000000E10   -3.297379007562995E-3   2.424212871119380E-3  
 2.444000000000000E10    1.232444425113499E-3   3.261394565925002E-3  
 2.446000000000000E10    2.663458464667201E-3  -7.716760737821460E-4  
 2.448000000000000E10   -1.607774640433490E-3  -1.537999371066690E-3  
 2.450000000000000E10   -2.115021226927638E-3   1.078233239240944E-3  
 2.452000000000000E10    1.148352981545031E-3   1.673616468906403E-3  
 2.454000000000000E10    1.239169272594154E-3  -1.361625501886010E-3  
 2.456000000000000E10   -1.126383896917105E-3  -3.361543640494347E-4  
 2.458000000000000E10   -1.541424571769312E-4   2.413880545645952E-3  
 2.460000000000000E10    2.604974433779717E-3  -1.787092187441886E-4  
 2.462000000000000E10   -6.053085671737790E-4  -2.136213006451726E-3  
 2.464000000000000E10   -2.169079845771194E-3   1.165389781817794E-3  
 2.466000000000000E10    9.489745134487748E-4   2.696693409234285E-3  
 2.468000000000000E10    2.355540404096246E-3  -1.659194007515907E-3  
 2.470000000000000E10   -1.959230983629823E-3  -2.309990348294377E-3  
 2.472000000000000E10   -2.552120946347714E-3   1.161363092251122E-3  
 2.474000000000000E10    1.713528297841549E-3   2.076118020340800E-3  
 2.476000000000000E10    2.062447136268020E-3  -2.504320582374930E-3  
 2.478000000000000E10   -2.314761979505420E-3  -2.450227504596114E-3  
 2.480000000000000E10   -1.546752173453569E-3   1.526860985904932E-3  
 2.482000000000000E10    2.214380539953709E-3   6.653955206274986E-4  
 2.484000000000000E10    5.332121509127319E-4  -2.441679360345006E-3  
 2.486000000000000E10   -2.229877514764667E-3  -3.872150555253029E-4  
 2.488000000000000E10    7.919401978142560E-4   1.847838750109077E-3  
 2.490000000000000E10    2.026786562055349E-3  -9.562053601257503E-4  
 2.492000000000000E10   -1.060235663317144E-3  -2.538495697081089E-3  
 2.494000000000000E10   -2.284687012434006E-3   1.608706428669393E-3  
 2.496000000000000E10    2.055443823337555E-3   2.276501851156354E-3  
 2.498000000000000E10    2.490573562681675E-3  -2.286732429638505E-3  
 2.500000000000000E10   -1.916951034218073E-3  -2.908309455960989E-3  
 2.502000000000000E10   -2.270341152325273E-3   2.177394460886717E-3  
 2.504000000000000E10    2.441312884911895E-3   1.889410545118153E-3  
 2.506000000000000E10    2.302259206771851E-3  -1.828496926464140E-3  
 2.508000000000000E10   -1.775476150214672E-3  -1.983495661988854E-3  
 2.510000000000000E10   -1.041061826981604E-3   2.291190205141902E-3  
 2.512000000000000E10    2.224183175712824E-3   7.740285363979638E-4  
 2.514000000000000E10    5.732447607442737E-4  -2.535882871598005E-3  
 2.516000000000000E10   -2.205476630479097E-3   5.280274199321866E-4  
 2.518000000000000E10    1.053512794896960E-3   2.009929390624166E-3  
 2.520000000000000E10    2.712282817810774E-3  -1.390209770761430E-3  
 2.522000000000000E10   -1.742979278787971E-3  -2.689170651137829E-3  
 2.524000000000000E10   -2.729916479438543E-3   1.570590538904071E-3  
 2.526000000000000E10    2.004791516810656E-3   2.565632807090879E-3  
 2.528000000000000E10    2.670710207894445E-3  -2.484518336132169E-3  
 2.530000000000000E10   -2.450995612889528E-3  -2.557633211836219E-3  
 2.532000000000000E10   -1.634096843190491E-3   2.831709338352084E-3  
 2.534000000000000E10    2.602661261335015E-3   1.870060805231333E-3  
 2.536000000000000E10    1.036303234286606E-3  -2.532857004553080E-3  
 2.538000000000000E10   -2.896707504987717E-3  -6.084280321374536E-4  
 2.540000000000000E10   -1.021923846565187E-3   3.314872039481998E-3  
 2.542000000000000E10    2.661612117663026E-3   1.751603267621249E-4  
 2.544000000000000E10   -8.488023886457086E-4  -2.429376123473048E-3  
 2.546000000000000E10   -3.292562672868371E-3   1.349932630546391E-3  
 2.548000000000000E10    1.203930703923106E-3   2.899794140830636E-3  
 2.550000000000000E10    2.185929566621780E-3  -1.564507954753935E-3  
 2.552000000000000E10   -2.915840595960617E-3  -2.017217921093106E-3  
 2.554000000000000E10   -2.121389145031571E-3   2.629956929013133E-3  
 2.556000000000000E10    2.964484039694071E-3   2.573026577010751E-3  
 2.558000000000000E10    1.829925226047635E-3  -2.367748413234949E-3  
 2.560000000000000E10   -3.341182833537459E-3  -7.157787331379950E-4  
 2.562000000000000E10   -1.473711337894201E-3   4.410484340041876E-3  
 2.564000000000000E10    3.510098438709974E-3   1.341231749393046E-3  
 2.566000000000000E10   -4.640068073058501E-5  -3.024545265361667E-3  
 2.568000000000000E10   -4.240292124450207E-3   8.811739389784634E-4  
 2.570000000000000E10    1.235754694789648E-3   4.035851918160915E-3  
 2.572000000000000E10    2.955215051770210E-3  -1.552501111291349E-3  
 2.574000000000000E10   -1.990264281630516E-3  -3.016392700374126E-3  
 2.576000000000000E10   -2.928047673776746E-3   2.546712057664990E-3  
 2.578000000000000E10    3.355462802574039E-3   2.399278338998556E-3  
 2.580000000000000E10    2.439516130834818E-3  -2.968111308291555E-3  
 2.582000000000000E10   -3.476226003840566E-3  -1.933362917043269E-3  
 2.584000000000000E10   -1.688869786448777E-3   3.607510123401880E-3  
 2.586000000000000E10    3.312753513455391E-3   1.103876042179763E-3  
 2.588000000000000E10    9.009846253320575E-4  -4.118686076253653E-3  
 2.590000000000000E10   -3.465636167675257E-3  -6.535233696922660E-4  
 2.592000000000000E10   -3.256718919146806E-4   3.259473945945501E-3  
 2.594000000000000E10    3.532365662977099E-3  -1.272450084798038E-3  
 2.596000000000000E10   -1.239669625647366E-3  -3.933710046112537E-3  
 2.598000000000000E10   -3.912133164703846E-3   1.536904834210873E-3  
 2.600000000000000E10    2.331461058929563E-3   2.910307142883539E-3  
 2.602000000000000E10    3.013516776263714E-3  -3.566108178347349E-3  
 2.604000000000000E10   -3.429620526731014E-3  -3.922391682863236E-3  
 2.606000000000000E10   -2.854389837011695E-3   3.057679394260049E-3  
 2.608000000000000E10    3.125368617475033E-3   2.028360031545162E-3  
 2.610000000000000E10    2.199189271777868E-3  -4.377862438559532E-3  
 2.612000000000000E10   -4.290254786610603E-3  -1.791139598935843E-3  
 2.614000000000000E10   -1.240146229974926E-3   3.530041780322790E-3  
 2.616000000000000E10    3.705671988427639E-3   1.704156311461702E-4  
 2.618000000000000E10   -5.943426731391810E-5  -4.551825579255819E-3  
 2.620000000000000E10   -4.185262136161327E-3   2.573080710135400E-4  
 2.622000000000000E10    1.163683133199811E-3   3.349792677909136E-3  
 2.624000000000000E10    4.164786543697119E-3  -1.958730164915323E-3  
 2.626000000000000E10   -2.337943529710174E-3  -4.240163136273623E-3  
 2.628000000000000E10   -3.300423966720700E-3   2.323917346075177E-3  
 2.630000000000000E10    3.656693734228611E-3   3.121748799458146E-3  
 2.632000000000000E10    2.965100342407823E-3  -3.833736991509795E-3  
 2.634000000000000E10   -3.474908648058772E-3  -2.398209413513541E-3  
 2.636000000000000E10   -1.893265056423843E-3   4.403047263622284E-3  
 2.638000000000000E10    4.297911655157805E-3   1.988235162571073E-3  
 2.640000000000000E10    1.695309532806277E-3  -4.126976244151592E-3  
 2.642000000000000E10   -4.024731460958719E-3  -5.330303683876991E-4  
 2.644000000000000E10    2.731952117756009E-4   4.531161859631538E-3  
 2.646000000000000E10    4.644361790269613E-3  -1.471820869483054E-4  
 2.648000000000000E10   -1.281738281250000E-3  -4.363909829407930E-3  
 2.650000000000000E10   -3.320038551464677E-3   2.627635840326548E-3  
 2.652000000000000E10    3.260992001742125E-3   3.702595131471753E-3  
 2.654000000000000E10    3.810274414718151E-3  -2.903788350522518E-3  
 2.656000000000000E10   -3.581274533644319E-3  -2.828535391017795E-3  
 2.658000000000000E10   -1.846416271291673E-3   4.438663367182016E-3  
 2.660000000000000E10    4.939954727888107E-3   2.119916258379817E-3  
 2.662000000000000E10    2.232250291854143E-3  -4.811477381736040E-3  
 2.664000000000000E10   -4.152943845838308E-3  -9.075959096662700E-4  
 2.666000000000000E10   -6.235712789930403E-4   4.548142664134502E-3  
 2.668000000000000E10    4.839110188186169E-3   8.955947705544531E-4  
 2.670000000000000E10   -1.981356217584107E-5  -4.215154796838760E-3  
 2.672000000000000E10   -3.819763427600265E-3   8.931217598728836E-4  
 2.674000000000000E10    1.222441904246807E-3   3.901674412190914E-3  
 2.676000000000000E10    3.512495895847678E-3  -1.840080134570599E-3  
 2.678000000000000E10   -2.649433910846710E-3  -2.895140554755926E-3  
 2.680000000000000E10   -2.892106538638473E-3   3.146910807117820E-3  
 2.682000000000000E10    3.740943968296051E-3   2.830168930813670E-3  
 2.684000000000000E10    2.053113188594580E-3  -4.595063161104918E-3  
 2.686000000000000E10   -4.564066417515278E-3  -1.499055302701891E-3  
 2.688000000000000E10   -1.820834120735526E-3   4.762398544698954E-3  
 2.690000000000000E10    4.518549423664808E-3   1.397915417328477E-3  
 2.692000000000000E10    6.617078324779868E-4  -4.912857431918383E-3  
 2.694000000000000E10   -5.213296506553888E-3  -7.014396396698430E-5  
 2.696000000000000E10   -1.884695811895654E-4   5.086179822683334E-3  
 2.698000000000000E10    3.827803069725633E-3  -6.587594398297370E-4  
 2.700000000000000E10   -1.798922428861260E-3  -3.952922299504280E-3  
 2.702000000000000E10   -4.103358369320631E-3   2.030057366937399E-3  
 2.704000000000000E10    1.741575077176094E-3   3.588770981878042E-3  
 2.706000000000000E10    2.301577944308519E-3  -2.739573363214731E-3  
 2.708000000000000E10   -3.105198964476585E-3  -2.263155300170183E-3  
 2.710000000000000E10   -2.349311951547861E-3   3.706918796524406E-3  
 2.712000000000000E10    3.695815568789840E-3   1.690767239779234E-3  
 2.714000000000000E10    9.521473548375070E-4  -4.373969044536352E-3  
 2.716000000000000E10   -4.486892838031054E-3  -8.987761102616787E-4  
 2.718000000000000E10   -2.909265167545527E-4   4.684881772845984E-3  
 2.720000000000000E10    4.585539456456900E-3  -3.394822124391794E-4  
 2.722000000000000E10   -8.221527677960694E-4  -4.441531840711832E-3  
 2.724000000000000E10   -4.472669679671526E-3   1.163014327175915E-3  
 2.726000000000000E10    9.318806696683168E-4   4.184579942375422E-3  
 2.728000000000000E10    3.703274764120579E-3  -1.616926630958915E-3  
 2.730000000000000E10   -2.069118199869990E-3  -3.512177150696516E-3  
 2.732000000000000E10   -2.674588933587074E-3   1.971137709915638E-3  
 2.734000000000000E10    2.612140262499452E-3   2.052186289802194E-3  
 2.736000000000000E10    2.132367575541139E-3  -3.411875572055578E-3  
 2.738000000000000E10   -3.482441883534193E-3  -1.612338353879750E-3  
 2.740000000000000E10   -9.515302372165024E-4   3.339842660352588E-3  
 2.742000000000000E10    4.724179860204458E-3   2.779423375613987E-4  
 2.744000000000000E10    3.474791010376066E-4  -4.688269458711147E-3  
 2.746000000000000E10   -4.010453820228577E-3  -4.694286326412112E-4  
 2.748000000000000E10    3.274463524576277E-4   4.184746649116278E-3  
 2.750000000000000E10    4.166014026850462E-3  -8.078172104433179E-4  
 2.752000000000000E10   -8.305095834657550E-4  -4.146795719861984E-3  
 2.754000000000000E10   -3.014943329617381E-3   9.170421981252730E-4  
 2.756000000000000E10    1.539197168312967E-3   2.387908287346363E-3  
