#  HZ   S   RI   R     50.00 
! Rohde & Schwarz ZVA40 4Ports - Version 3.90 - 1145.1110k42 SN: 100403
! Date: 2023-10-04 07:16:48
! Measurement: S12 
! 
 2.200000000000000E10    6.265482516027987E-4   3.542945487424731E-4  
 2.202000000000000E10    1.263293204829097E-3  -2.447643200866878E-4  
 2.204000000000000E10   -3.294916241429746E-4  -1.742251915857196E-3  
 2.206000000000000E10   -6.622701766900718E-4  -1.010536216199398E-3  
 2.208000000000000E10   -6.448635249398649E-4   7.324662874452770E-4  
 2.210000000000000E10    1.482361927628517E-3   9.164693183265626E-4  
 2.212000000000000E10    1.599359093233943E-3  -9.214166784659028E-4  
 2.214000000000000E10   -1.297240523854271E-4  -1.795527292415500E-3  
 2.216000000000000E10   -1.736641279421747E-3   3.057898138649762E-4  
 2.218000000000000E10    4.525143958744593E-5   1.315930625423789E-3  
 2.220000000000000E10    8.765775128267705E-4   1.071122358553112E-3  
 2.222000000000000E10    9.633992449380457E-4  -7.986181299202144E-4  
 2.224000000000000E10   -6.408516201190651E-4  -1.136194448918104E-3  
 2.226000000000000E10   -2.118406817317009E-3  -8.247866935562342E-5  
 2.228000000000000E10   -4.680976562667638E-4   1.031794003210962E-3  
 2.230000000000000E10    1.242920872755349E-3   6.534920539706945E-4  
 2.232000000000000E10    5.677505978383124E-4  -6.275426130741835E-4  
 2.234000000000000E10   -8.374074823223054E-4  -1.125595881603658E-3  
 2.236000000000000E10   -5.161311710253358E-4   6.950670504011214E-4  
 2.238000000000000E10   -2.427630970487371E-4   1.231474452652037E-3  
 2.240000000000000E10    6.113483104854822E-4   1.218604040332139E-3  
 2.242000000000000E10    1.082414179109037E-3   1.090881196432747E-4  
 2.244000000000000E10   -4.522615927271545E-4  -8.282239432446659E-4  
 2.246000000000000E10   -1.680991961620748E-3  -5.828648136230186E-5  
 2.248000000000000E10   -1.145004061982036E-3   1.622208976186812E-3  
 2.250000000000000E10    6.235986948013306E-4   1.296623144298792E-3  
 2.252000000000000E10    1.293291454203427E-3  -1.020754338242114E-3  
 2.254000000000000E10   -1.110818120650947E-3  -1.524960040114820E-3  
 2.256000000000000E10   -1.894142245873809E-3   8.935616351664066E-4  
 2.258000000000000E10    4.087837878614664E-4   2.303226152434945E-3  
 2.260000000000000E10    1.301334588788450E-3   1.596925139892846E-4  
 2.262000000000000E10    4.303252499084920E-4  -6.570495315827429E-4  
 2.264000000000000E10   -7.040872587822378E-4  -3.547469677869231E-4  
 2.266000000000000E10   -2.338990889256820E-4   2.937110839411616E-4  
 2.268000000000000E10   -3.879148280248046E-4   1.122734043747187E-3  
 2.270000000000000E10   -2.412762114545330E-4   7.046876125968993E-4  
 2.272000000000000E10    8.778660558164120E-4   8.655132842250168E-4  
 2.274000000000000E10    8.103858563117683E-4  -1.459125545807183E-3  
 2.276000000000000E10   -1.543438294902444E-3  -1.140926964581013E-3  
 2.278000000000000E10   -1.749319140799344E-3   1.508886343799532E-3  
 2.280000000000000E10    9.545233333483338E-4   2.161168726161122E-3  
 2.282000000000000E10    2.551915356889367E-3   8.050948963500559E-5  
 2.284000000000000E10   -4.419291217345744E-4  -2.419224241748452E-3  
 2.286000000000000E10   -2.584616187959909E-3   2.125719329342246E-4  
 2.288000000000000E10    4.009704571217299E-4   1.698312000371516E-3  
 2.290000000000000E10    1.112991827540100E-3  -2.901463594753295E-4  
 2.292000000000000E10    3.984301001764834E-4  -1.325044664554298E-3  
 2.294000000000000E10   -2.629478694871068E-4  -2.629523223731667E-4  
 2.296000000000000E10   -5.113792140036821E-4  -6.947758956812322E-4  
 2.298000000000000E10   -5.644268821924925E-4  -7.323388854274526E-5  
 2.300000000000000E10   -6.693592295050621E-4   4.003273497801274E-4  
 2.302000000000000E10    1.044979202561081E-3   6.074086413718760E-4  
 2.304000000000000E10    6.972610717639327E-4  -1.995126716792584E-3  
 2.306000000000000E10   -1.972192898392677E-3  -2.040647901594639E-3  
 2.308000000000000E10   -2.171368803828955E-3   1.843255246058106E-3  
 2.310000000000000E10    1.937532564625144E-3   1.840593758970499E-3  
 2.312000000000000E10    1.616468303836882E-3  -1.867430866695941E-3  
 2.314000000000000E10   -1.368395751342177E-3  -2.096590818837285E-3  
 2.316000000000000E10   -2.669692737981677E-3   1.460816594772041E-3  
 2.318000000000000E10    4.908292321488261E-4   2.041062107309699E-3  
 2.320000000000000E10    1.752459909766913E-3  -4.181946278549731E-4  
 2.322000000000000E10   -6.194543093442917E-4  -1.401940244250000E-3  
 2.324000000000000E10   -2.913636562880129E-4   1.162970438599587E-4  
 2.326000000000000E10    1.124053378589451E-4   1.159960156655870E-4  
 2.328000000000000E10   -7.231500931084156E-4   3.001370932906866E-4  
 2.330000000000000E10    2.045808796538040E-4   6.445405306294560E-4  
 2.332000000000000E10    1.190238166600466E-3   2.415001945337281E-4  
 2.334000000000000E10    5.531382048502564E-4  -1.802416634745896E-3  
 2.336000000000000E10   -1.798416604287922E-3  -1.506823115050793E-3  
 2.338000000000000E10   -1.136418897658587E-3   1.851798617281020E-3  
 2.340000000000000E10    2.361141145229340E-3   1.617225818336010E-3  
 2.342000000000000E10    2.362220315262675E-3  -2.049883129075170E-3  
 2.344000000000000E10   -1.442490727640688E-3  -1.589335035532713E-3  
 2.346000000000000E10   -2.017970429733396E-3   9.007331100292504E-4  
 2.348000000000000E10    9.247561101801693E-4   2.054790500551462E-3  
 2.350000000000000E10    1.713322824798524E-3  -1.098852517316118E-4  
 2.352000000000000E10   -1.074140163837001E-4  -1.675722072832286E-3  
 2.354000000000000E10   -9.246299159713090E-4  -6.148414831841365E-5  
 2.356000000000000E10    2.513983054086566E-4  -1.179937753477134E-4  
 2.358000000000000E10   -2.782295632641763E-4  -2.739591582212597E-4  
 2.360000000000000E10   -3.262444515712559E-4   2.902040141634643E-4  
 2.362000000000000E10    1.726595684885979E-3   5.600299336947501E-4  
 2.364000000000000E10    1.277333474718034E-3  -1.703802263364196E-3  
 2.366000000000000E10   -1.219541183672845E-3  -1.646493677981198E-3  
 2.368000000000000E10   -1.783534302376211E-3   1.411056844517589E-3  
 2.370000000000000E10    1.330673694610596E-3   2.404196653515101E-3  
 2.372000000000000E10    2.554025733843446E-3  -1.050506369210780E-3  
 2.374000000000000E10   -2.127984771504998E-3  -2.298068720847368E-3  
 2.376000000000000E10   -2.565716858953238E-3   9.693010360933840E-4  
 2.378000000000000E10    1.290468615479767E-3   2.124566584825516E-3  
 2.380000000000000E10    1.621406641788781E-3  -1.178696984425187E-3  
 2.382000000000000E10   -1.653582439757884E-3  -1.420710701495409E-3  
 2.384000000000000E10   -1.133144716732204E-3   1.620000693947077E-3  
 2.386000000000000E10    1.301469863392413E-3   8.640862070024014E-4  
 2.388000000000000E10    3.953529812861234E-4  -1.654999563470483E-3  
 2.390000000000000E10   -1.733154058456421E-3   1.090506091713905E-3  
 2.392000000000000E10    1.030997023917735E-3   2.175108063966036E-3  
 2.394000000000000E10    2.082339720800519E-3  -1.503292936831713E-3  
 2.396000000000000E10   -2.358930418267846E-3  -1.453412231057882E-3  
 2.398000000000000E10   -1.716429833322763E-3   3.136161714792252E-3  
 2.400000000000000E10    2.619097242131829E-3   2.374449279159308E-3  
 2.402000000000000E10    2.065875567495823E-3  -3.653070889413357E-3  
 2.404000000000000E10   -3.626173362135887E-3  -1.336883753538132E-3  
 2.406000000000000E10   -1.608874881640077E-3   3.589977510273457E-3  
 2.408000000000000E10    3.687691874802113E-3   1.665520831011236E-3  
 2.410000000000000E10    1.483223866671324E-3  -2.769911196082830E-3  
 2.412000000000000E10   -2.011033706367016E-3  -3.559939214028418E-4  
 2.414000000000000E10   -3.831297217402607E-4   2.688670065253973E-3  
 2.416000000000000E10    2.036941004917026E-3   2.956299867946655E-4  
 2.418000000000000E10   -4.779543960466981E-4  -1.664769602939487E-3  
 2.420000000000000E10   -1.720578875392675E-3   1.656621345318854E-3  
 2.422000000000000E10    2.353118732571602E-3   1.667904783971608E-3  
 2.424000000000000E10    2.007977571338415E-3  -2.985171973705292E-3  
 2.426000000000000E10   -3.847329178825021E-3  -2.275353530421853E-3  
 2.428000000000000E10   -1.660056062974036E-3   4.003018140792847E-3  
 2.430000000000000E10    3.916052635759115E-3   1.516697462648153E-3  
 2.432000000000000E10    1.395855797454715E-3  -4.738558549433947E-3  
 2.434000000000000E10   -4.423880949616432E-3  -1.548545435070992E-3  
 2.436000000000000E10   -1.031998544931412E-3   3.418022999539971E-3  
 2.438000000000000E10    3.408953314647079E-3   1.786712091416121E-4  
 2.440000000000000E10   -5.039299721829593E-4  -3.552140202373266E-3  
 2.442000000000000E10   -3.538103774189949E-3   1.731859520077705E-4  
 2.444000000000000E10    9.362968849018216E-4   3.420432098209858E-3  
 2.446000000000000E10    2.619937760755420E-3  -1.745424815453589E-3  
 2.448000000000000E10   -2.512756735086441E-3  -2.832203172147274E-3  
 2.450000000000000E10   -3.110400168225169E-3   2.508196281269193E-3  
 2.452000000000000E10    2.903539454564452E-3   2.611759351566434E-3  
 2.454000000000000E10    1.797960489057005E-3  -3.386480500921607E-3  
 2.456000000000000E10   -3.754677250981331E-3  -1.847356674261391E-3  
 2.458000000000000E10   -1.503719366155565E-3   4.252256825566292E-3  
 2.460000000000000E10    4.143205471336842E-3   8.810244617052376E-4  
 2.462000000000000E10    1.759650185704231E-4  -4.274684470146895E-3  
 2.464000000000000E10   -4.031408112496138E-3   4.975826013833284E-4  
 2.466000000000000E10    2.777083136606962E-4   4.270201548933983E-3  
 2.468000000000000E10    3.788368310779333E-3  -1.036250614561141E-3  
 2.470000000000000E10   -1.354044303297997E-3  -3.793702693656087E-3  
 2.472000000000000E10   -3.887356957420707E-3   2.066709101200104E-3  
 2.474000000000000E10    2.575838938355446E-3   3.505771979689598E-3  
 2.476000000000000E10    3.427266841754317E-3  -3.011600347235799E-3  
 2.478000000000000E10   -2.873024670407176E-3  -2.928409725427628E-3  
 2.480000000000000E10   -1.800439553335309E-3   3.513412084430456E-3  
 2.482000000000000E10    4.243860021233559E-3   2.042439999058843E-3  
 2.484000000000000E10    2.024813788011670E-3  -4.346136935055256E-3  
 2.486000000000000E10   -4.662624094635248E-3  -8.441055542789400E-4  
 2.488000000000000E10   -1.433503202861175E-4   4.041345790028572E-3  
 2.490000000000000E10    4.439118783921003E-3  -3.476754936855286E-4  
 2.492000000000000E10   -3.301460237707943E-4  -4.461888223886490E-3  
 2.494000000000000E10   -3.743201727047563E-3   9.028179920278490E-4  
 2.496000000000000E10    1.611799933016300E-3   3.581710392609239E-3  
 2.498000000000000E10    3.225357038900256E-3  -2.280630636960268E-3  
 2.500000000000000E10   -2.243414986878634E-3  -2.744148951023817E-3  
 2.502000000000000E10   -2.347989706322551E-3   2.911325311288238E-3  
 2.504000000000000E10    3.476809943094850E-3   2.526039257645607E-3  
 2.506000000000000E10    2.801195252686739E-3  -3.589512780308723E-3  
 2.508000000000000E10   -4.125506151467562E-3  -2.011211356148124E-3  
 2.510000000000000E10   -1.743939123116434E-3   4.514960572123528E-3  
 2.512000000000000E10    4.853393882513046E-3   1.886490616016090E-3  
 2.514000000000000E10    1.137685263529420E-3  -4.781904630362988E-3  
 2.516000000000000E10   -3.996832296252251E-3  -1.849948166636750E-4  
 2.518000000000000E10    3.041296440642327E-4   4.758656024932861E-3  
 2.520000000000000E10    4.436407238245010E-3  -5.700293113477528E-4  
 2.522000000000000E10   -1.031698775477707E-3  -3.353146137669683E-3  
 2.524000000000000E10   -3.413046477362514E-3   2.018251223489642E-3  
 2.526000000000000E10    2.157537266612053E-3   3.496342571452260E-3  
 2.528000000000000E10    3.204265143722296E-3  -2.653731266036630E-3  
 2.530000000000000E10   -3.429013770073652E-3  -2.928572706878185E-3  
 2.532000000000000E10   -2.356437034904957E-3   4.144770093262196E-3  
 2.534000000000000E10    4.638893529772759E-3   2.141261473298073E-3  
 2.536000000000000E10    1.767690177075565E-3  -4.757543560117483E-3  
 2.538000000000000E10   -5.180621054023504E-3  -1.436881371773779E-3  
 2.540000000000000E10   -9.111143881455064E-4   5.203820765018463E-3  
 2.542000000000000E10    4.905594047158957E-3   3.319353563711047E-4  
 2.544000000000000E10   -7.394990534521639E-4  -4.844193812459707E-3  
 2.546000000000000E10   -4.786396864801645E-3   1.104404334910214E-3  
 2.548000000000000E10    9.634543675929308E-4   4.200418479740620E-3  
 2.550000000000000E10    3.119811415672302E-3  -1.780297257937491E-3  
 2.552000000000000E10   -3.042130498215556E-3  -3.534541698172689E-3  
 2.554000000000000E10   -3.416188759729266E-3   2.956012263894081E-3  
 2.556000000000000E10    3.113166661933065E-3   2.380773192271590E-3  
 2.558000000000000E10    1.765275024808943E-3  -3.934907726943493E-3  
 2.560000000000000E10   -5.038919392973185E-3  -1.468583359383047E-3  
 2.562000000000000E10   -8.879838860593736E-4   5.000494886189699E-3  
 2.564000000000000E10    4.790767095983028E-3   1.314592082053423E-4  
 2.566000000000000E10   -4.183454148005694E-4  -5.800191313028336E-3  
 2.568000000000000E10   -6.234199274331331E-3   1.190379611216486E-3  
 2.570000000000000E10    1.220036647282541E-3   5.422491580247879E-3  
 2.572000000000000E10    5.177823826670647E-3  -1.615542802028358E-3  
 2.574000000000000E10   -2.628128044307232E-3  -5.249378737062216E-3  
 2.576000000000000E10   -4.652185831218958E-3   2.688054461032152E-3  
 2.578000000000000E10    2.819924848154187E-3   4.106595180928707E-3  
 2.580000000000000E10    2.749632112681866E-3  -3.813036717474461E-3  
 2.582000000000000E10   -3.794873831793666E-3  -2.179955132305622E-3  
 2.584000000000000E10   -1.863231533206999E-3   3.958178218454123E-3  
 2.586000000000000E10    5.093950778245926E-3   6.935997516848147E-4  
 2.588000000000000E10    5.628928556689061E-5  -5.130591336637735E-3  
 2.590000000000000E10   -4.874073900282383E-3   1.003329671220854E-4  
 2.592000000000000E10    9.506045025773346E-4   5.435053724795580E-3  
 2.594000000000000E10    6.046179216355085E-3  -1.408728538081050E-3  
 2.596000000000000E10   -1.691787736490369E-3  -5.803909152746201E-3  
 2.598000000000000E10   -5.810172762721777E-3   2.300714375451207E-3  
 2.600000000000000E10    3.185006557032466E-3   5.210475530475378E-3  
 2.602000000000000E10    4.931842442601919E-3  -3.715574275702238E-3  
 2.604000000000000E10   -3.561440622434020E-3  -4.463110119104385E-3  
 2.606000000000000E10   -2.740935189649463E-3   3.488302696496248E-3  
 2.608000000000000E10    4.870128817856312E-3   2.847519703209400E-3  
 2.610000000000000E10    2.574465004727244E-3  -4.634690005332232E-3  
 2.612000000000000E10   -4.531752318143845E-3  -1.320806681178510E-3  
 2.614000000000000E10   -6.383241852745414E-4   5.108068697154522E-3  
 2.616000000000000E10    5.832798313349485E-3  -2.723037032410502E-4  
 2.618000000000000E10   -6.049877847544849E-4  -5.692253820598126E-3  
 2.620000000000000E10   -5.244038999080658E-3   1.074837287887931E-3  
 2.622000000000000E10    2.198929199948907E-3   5.283242091536522E-3  
 2.624000000000000E10    5.930750630795956E-3  -2.363316714763641E-3  
 2.626000000000000E10   -2.643089974299073E-3  -5.179422907531261E-3  
 2.628000000000000E10   -4.684327635914087E-3   3.491515293717384E-3  
 2.630000000000000E10    4.536236170679331E-3   4.375369753688574E-3  
 2.632000000000000E10    3.766052890568972E-3  -4.272808320820332E-3  
 2.634000000000000E10   -4.449208267033100E-3  -2.384342718869448E-3  
 2.636000000000000E10   -2.039248123764992E-3   4.969733767211437E-3  
 2.638000000000000E10    4.810374695807695E-3   1.678839442320168E-3  
 2.640000000000000E10    4.973353934474289E-4  -4.549894947558641E-3  
 2.642000000000000E10   -4.853303078562021E-3   2.723223879002035E-4  
 2.644000000000000E10    8.235387504100800E-4   5.428253207355738E-3  
 2.646000000000000E10    5.674966145306826E-3  -1.196663593873382E-3  
 2.648000000000000E10   -2.365354448556900E-3  -4.995443858206272E-3  
 2.650000000000000E10   -5.131708923727274E-3   3.752225311473012E-3  
 2.652000000000000E10    3.864274127408862E-3   5.342348944395781E-3  
 2.654000000000000E10    4.389563575387001E-3  -3.553305054083467E-3  
 2.656000000000000E10   -4.252347163856030E-3  -2.907906426116824E-3  
 2.658000000000000E10   -3.142604371532798E-3   4.823832307010889E-3  
 2.660000000000000E10    4.702723585069180E-3   2.911695279181004E-3  
 2.662000000000000E10    1.428354764357209E-3  -4.421308636665344E-3  
 2.664000000000000E10   -4.489675629884005E-3  -4.798549634870142E-4  
 2.666000000000000E10   -2.351665607420728E-4   5.257143639028072E-3  
 2.668000000000000E10    4.631388001143932E-3  -6.372340722009540E-4  
 2.670000000000000E10   -1.196540426462889E-3  -4.268794786185026E-3  
 2.672000000000000E10   -4.849522374570370E-3   2.101116580888629E-3  
 2.674000000000000E10    2.051241928711534E-3   4.832805134356022E-3  
 2.676000000000000E10    4.463364370167255E-3  -2.795048756524921E-3  
 2.678000000000000E10   -3.211831208318472E-3  -4.191860556602478E-3  
 2.680000000000000E10   -4.172018263489008E-3   3.461972577497363E-3  
 2.682000000000000E10    3.905383637174964E-3   3.462346969172359E-3  
 2.684000000000000E10    2.594258869066834E-3  -4.010564181953669E-3  
 2.686000000000000E10   -4.470216576009989E-3  -2.564858878031373E-3  
 2.688000000000000E10   -1.789996866136789E-3   3.999564331024885E-3  
 2.690000000000000E10    4.015783313661814E-3   9.231230942532420E-4  
 2.692000000000000E10    1.566263963468373E-4  -4.729636944830418E-3  
 2.694000000000000E10   -4.655462689697743E-3  -1.541188612463884E-5  
 2.696000000000000E10    6.555919535458088E-4   4.187928978353739E-3  
 2.698000000000000E10    3.942796960473061E-3  -1.877240487374365E-3  
 2.700000000000000E10   -2.411175752058625E-3  -4.198952112346888E-3  
 2.702000000000000E10   -4.526729695498943E-3   2.217190805822611E-3  
 2.704000000000000E10    3.223499981686473E-3   3.274384653195739E-3  
 2.706000000000000E10    3.165946342051029E-3  -3.530299756675959E-3  
 2.708000000000000E10   -3.708113916218281E-3  -3.418343374505639E-3  
 2.710000000000000E10   -2.827369607985020E-3   3.875402035191655E-3  
 2.712000000000000E10    4.299805033951998E-3   2.150839427486062E-3  
 2.714000000000000E10    2.038395963609219E-3  -4.359988495707512E-3  
 2.716000000000000E10   -4.275631159543991E-3  -1.795169198885560E-3  
 2.718000000000000E10   -8.240061579272151E-4   3.979878965765238E-3  
 2.720000000000000E10    4.235653206706047E-3   5.609117215499282E-4  
 2.722000000000000E10   -1.974364859052002E-4  -4.186994396150112E-3  
 2.724000000000000E10   -3.746579634025693E-3   6.664086249656975E-4  
 2.726000000000000E10    1.496224314905703E-3   3.817877266556025E-3  
 2.728000000000000E10    3.568536369130015E-3  -2.233348088338971E-3  
 2.730000000000000E10   -2.368324203416705E-3  -3.594538662582636E-3  
 2.732000000000000E10   -2.775213215500116E-3   3.107980359345675E-3  
 2.734000000000000E10    3.564145416021347E-3   2.993570175021887E-3  
 2.736000000000000E10    3.299310337752104E-3  -3.735919250175357E-3  
 2.738000000000000E10   -3.532816190272570E-3  -2.284387592226267E-3  
 2.740000000000000E10   -1.985715003684163E-3   3.910785540938377E-3  
 2.742000000000000E10    4.462442826479673E-3   1.308440230786800E-3  
 2.744000000000000E10    1.408736803568900E-3  -3.895020112395287E-3  
 2.746000000000000E10   -3.643882228061557E-3  -5.404187832027674E-4  
 2.748000000000000E10    4.828327801078558E-4   3.789930371567607E-3  
 2.750000000000000E10    4.157274030148983E-3  -6.443955935537815E-4  
 2.752000000000000E10   -9.834397351369262E-4  -3.522125072777271E-3  
 2.754000000000000E10   -2.823676681146026E-3   1.615996239706874E-3  
 2.756000000000000E10    2.787548117339611E-3   3.817966440692544E-3  
