#  HZ   S   RI   R     50.00 
! Rohde & Schwarz ZVA40 4Ports - Version 3.90 - 1145.1110k42 SN: 100403
! Date: 2023-10-04 07:17:21
! Measurement: S12 
! 
 2.200000000000000E10    7.356810383498669E-4  -1.446199254132807E-3  
 2.202000000000000E10   -9.581513586454094E-4  -1.118867774493992E-3  
 2.204000000000000E10   -1.366691547445953E-3   1.542779267765582E-3  
 2.206000000000000E10    1.968605909496546E-3   1.351866638287902E-3  
 2.208000000000000E10    2.180917654186487E-3  -9.918771684169769E-4  
 2.210000000000000E10   -3.809478366747499E-4  -1.717300154268742E-3  
 2.212000000000000E10   -1.543094636872411E-3   3.435151593293995E-4  
 2.214000000000000E10    4.580498789437115E-4   1.592002809047699E-3  
 2.216000000000000E10    1.531877205707133E-3   4.023579531349242E-4  
 2.218000000000000E10    5.383981042541564E-4  -1.284872298128903E-3  
 2.220000000000000E10   -5.637230351567268E-4  -2.148889034288004E-4  
 2.222000000000000E10   -2.619637234602124E-4  -1.448300317861140E-4  
 2.224000000000000E10   -6.720022065564990E-4  -4.158347146585584E-4  
 2.226000000000000E10   -6.955668213777244E-4   1.362969400361180E-3  
 2.228000000000000E10    1.336488057859242E-3   3.823942679446191E-4  
 2.230000000000000E10    1.124731148593128E-3  -2.414002548903227E-3  
 2.232000000000000E10   -2.473249100148678E-3  -7.654988439753652E-4  
 2.234000000000000E10   -1.643613912165165E-3   2.196135465055704E-3  
 2.236000000000000E10    2.107716165482998E-3   2.023327164351940E-3  
 2.238000000000000E10    1.682588364928961E-3  -1.746168825775385E-3  
 2.240000000000000E10   -1.837757532484829E-3  -1.798885292373598E-3  
 2.242000000000000E10   -2.194839995354414E-3   1.385418465360999E-3  
 2.244000000000000E10    5.193804390728474E-4   2.161771291866899E-3  
 2.246000000000000E10    7.072942098602653E-4  -2.422037068754435E-4  
 2.248000000000000E10   -9.007598855532706E-4  -9.328200831077993E-4  
 2.250000000000000E10   -8.768010884523392E-4   6.482408498413861E-4  
 2.252000000000000E10    3.335063229314983E-4  -5.060885450802743E-4  
 2.254000000000000E10   -1.200629514642060E-3  -4.989539156667888E-4  
 2.256000000000000E10   -1.053544459864497E-3   1.996526261791587E-3  
 2.258000000000000E10    2.076886827126145E-3   1.235942589119077E-3  
 2.260000000000000E10    1.145951566286385E-3  -2.143478486686945E-3  
 2.262000000000000E10   -2.144922735169530E-3  -1.442848471924663E-3  
 2.264000000000000E10   -1.738957129418850E-3   2.532800892367959E-3  
 2.266000000000000E10    2.151135820895433E-3   2.489124890416861E-3  
 2.268000000000000E10    1.853191060945392E-3  -1.681117573752999E-3  
 2.270000000000000E10   -2.267271280288696E-3  -2.201336203143001E-3  
 2.272000000000000E10   -2.248190809041262E-3   2.145453123375773E-3  
 2.274000000000000E10    1.410020282492042E-3   1.391301746480167E-3  
 2.276000000000000E10    7.924351957626641E-4  -1.286218874156475E-3  
 2.278000000000000E10   -1.135049271397293E-3  -6.735835922881961E-4  
 2.280000000000000E10    1.754056575009599E-4   7.555524352937937E-4  
 2.282000000000000E10    8.850173326209188E-4   4.280398716218770E-4  
 2.284000000000000E10   -5.002949619665742E-4  -1.227661618031561E-3  
 2.286000000000000E10   -1.222115708515048E-3   2.015689620748162E-3  
 2.288000000000000E10    2.575461985543370E-3   1.731826807372272E-3  
 2.290000000000000E10    1.556668896228075E-3  -2.655975520610809E-3  
 2.292000000000000E10   -3.261650446802378E-3  -2.037829952314496E-3  
 2.294000000000000E10   -1.952457125298679E-3   3.424410708248615E-3  
 2.296000000000000E10    3.087908960878849E-3   1.615282963030040E-3  
 2.298000000000000E10    2.465105149894953E-3  -2.994023030623794E-3  
 2.300000000000000E10   -2.895481651648879E-3  -2.584391972050071E-3  
 2.302000000000000E10   -2.297964878380299E-3   1.935281790792942E-3  
 2.304000000000000E10    2.385701984167099E-3   1.253413967788220E-3  
 2.306000000000000E10    1.040779286995530E-3  -2.092174952849746E-3  
 2.308000000000000E10   -1.582706929184496E-3  -3.065472119487822E-4  
 2.310000000000000E10    7.384137134067714E-4   9.955477435141802E-4  
 2.312000000000000E10    9.495235863141716E-4  -1.354782725684345E-3  
 2.314000000000000E10   -2.248676260933280E-3  -9.784554131329060E-4  
 2.316000000000000E10   -1.407329342328012E-3   2.664647297933698E-3  
 2.318000000000000E10    3.081908915191889E-3   1.673220307566226E-3  
 2.320000000000000E10    1.165351015515626E-3  -3.779486753046513E-3  
 2.322000000000000E10   -4.003702662885189E-3  -1.869717729277909E-3  
 2.324000000000000E10   -1.421276130713522E-3   3.770758397877216E-3  
 2.326000000000000E10    3.897907445207238E-3   1.382422051392496E-3  
 2.328000000000000E10    1.114836893975735E-3  -3.358855145052075E-3  
 2.330000000000000E10   -2.891256473958492E-3  -1.031694468110800E-3  
 2.332000000000000E10   -5.158739513717592E-4   3.068810096010566E-3  
 2.334000000000000E10    2.913078991696239E-3   4.009932163171470E-4  
 2.336000000000000E10    8.476393122691661E-5  -2.630444942042232E-3  
 2.338000000000000E10   -2.069405978545547E-3   1.006649923510850E-3  
 2.340000000000000E10    1.542683923617005E-3   2.162288641557097E-3  
 2.342000000000000E10    1.729178125970066E-3  -2.161967102438211E-3  
 2.344000000000000E10   -2.372722141444683E-3  -7.517756312154234E-4  
 2.346000000000000E10   -7.890848792158067E-4   2.905555069446564E-3  
 2.348000000000000E10    3.387204371392727E-3   5.487392190843821E-4  
 2.350000000000000E10    9.972422849386931E-4  -3.634677035734057E-3  
 2.352000000000000E10   -3.733231453225017E-3  -8.405555272474885E-4  
 2.354000000000000E10   -2.960966085083783E-4   3.887753700837493E-3  
 2.356000000000000E10    4.589774180203676E-3   1.603831624379382E-4  
 2.358000000000000E10    1.752893440425396E-4  -4.017655272036791E-3  
 2.360000000000000E10   -3.378808731213212E-3  -3.657618944998831E-4  
 2.362000000000000E10    6.516256689792499E-5   3.343492513522506E-3  
 2.364000000000000E10    2.901354804635048E-3  -5.129422643221915E-4  
 2.366000000000000E10   -4.484970122575760E-4  -2.290653297677636E-3  
 2.368000000000000E10   -2.468926832079887E-3   1.255828537978232E-3  
 2.370000000000000E10    1.546564511954784E-3   1.908531063236296E-3  
 2.372000000000000E10    1.554003800265491E-3  -2.513682702556253E-3  
 2.374000000000000E10   -3.858337178826332E-3  -9.392430656589568E-4  
 2.376000000000000E10   -6.720033707097173E-4   3.615300171077251E-3  
 2.378000000000000E10    4.431026056408882E-3   2.044894063146785E-4  
 2.380000000000000E10    2.585937618277967E-4  -4.881042521446943E-3  
 2.382000000000000E10   -5.054082721471787E-3   2.236074506072328E-4  
 2.384000000000000E10   -1.459604973206297E-4   4.836860112845898E-3  
 2.386000000000000E10    4.864186048507690E-3   6.164280930534005E-4  
 2.388000000000000E10   -3.645504475571215E-4  -4.537928383797407E-3  
 2.390000000000000E10   -4.434684291481972E-3   1.176359714008868E-3  
 2.392000000000000E10    5.598135758191347E-4   4.448456224054098E-3  
 2.394000000000000E10    3.417263040319085E-3  -1.514129224233329E-3  
 2.396000000000000E10   -2.538775559514761E-3  -2.125474624335766E-3  
 2.398000000000000E10   -2.516644075512886E-3   3.224472049623728E-3  
 2.400000000000000E10    3.618082497268915E-3   1.195238553918898E-3  
 2.402000000000000E10    5.886725266464055E-4  -3.893931163474917E-3  
 2.404000000000000E10   -5.027765408158302E-3   8.996247779577971E-4  
 2.406000000000000E10    8.158879354596138E-4   4.990118090063334E-3  
 2.408000000000000E10    4.806261043995619E-3  -9.505726629868150E-4  
 2.410000000000000E10   -1.797377597540617E-3  -4.389605019241571E-3  
 2.412000000000000E10   -4.398049786686897E-3   2.291279379278421E-3  
 2.414000000000000E10    1.753670745529234E-3   4.712405614554882E-3  
 2.416000000000000E10    4.330483730882406E-3  -1.927192904986441E-3  
 2.418000000000000E10   -2.817357657477260E-3  -4.056857433170080E-3  
 2.420000000000000E10   -3.439042717218399E-3   3.421158762648702E-3  
 2.422000000000000E10    3.656132146716118E-3   3.628479782491922E-3  
 2.424000000000000E10    2.954467199742794E-3  -4.000143613666296E-3  
 2.426000000000000E10   -4.274096339941025E-3  -2.201577648520470E-3  
 2.428000000000000E10   -1.536819618195295E-3   4.256777465343475E-3  
 2.430000000000000E10    4.623326472938061E-3   7.459092303179205E-4  
 2.432000000000000E10   -1.030654020723887E-4  -4.837803076952696E-3  
 2.434000000000000E10   -4.504515323787928E-3   3.555639123078436E-4  
 2.436000000000000E10    1.550430664792657E-3   4.209215752780438E-3  
 2.438000000000000E10    3.819052129983902E-3  -2.379774348810315E-3  
 2.440000000000000E10   -2.342376392334700E-3  -4.626667127013207E-3  
 2.442000000000000E10   -4.499095492064953E-3   2.739278366789222E-3  
 2.444000000000000E10    3.393934573978186E-3   3.909167367964983E-3  
 2.446000000000000E10    3.633931046351790E-3  -3.994562197476625E-3  
 2.448000000000000E10   -4.205361008644104E-3  -3.471694188192487E-3  
 2.450000000000000E10   -3.266389714553952E-3   4.096705932170153E-3  
 2.452000000000000E10    4.123907536268234E-3   2.219202928245068E-3  
 2.454000000000000E10    9.482516325078905E-4  -4.772593267261982E-3  
 2.456000000000000E10   -5.119509994983673E-3  -1.409381628036499E-3  
 2.458000000000000E10   -7.537119672633708E-4   5.123605020344257E-3  
 2.460000000000000E10    5.317899864166975E-3  -7.245676824823022E-4  
 2.462000000000000E10   -1.476342906244099E-3  -5.254960153251886E-3  
 2.464000000000000E10   -5.186829715967178E-3   1.603577518835664E-3  
 2.466000000000000E10    1.515084179118276E-3   4.669881425797939E-3  
 2.468000000000000E10    4.287114832550287E-3  -2.415187656879425E-3  
 2.470000000000000E10   -2.960501005873084E-3  -4.056316334754229E-3  
 2.472000000000000E10   -3.848229302093387E-3   2.942746505141258E-3  
 2.474000000000000E10    3.070692298933864E-3   3.315463894978166E-3  
 2.476000000000000E10    2.596233272925019E-3  -3.718857653439045E-3  
 2.478000000000000E10   -4.401406738907099E-3  -1.680459710769355E-3  
 2.480000000000000E10   -7.732041412964463E-4   4.919637925922871E-3  
 2.482000000000000E10    5.445407703518868E-3   4.854685685131699E-4  
 2.484000000000000E10   -2.077519457088783E-4  -5.291391164064407E-3  
 2.486000000000000E10   -5.382285453379154E-3   1.700419234111905E-3  
 2.488000000000000E10    2.099341480061412E-3   5.105237942188978E-3  
 2.490000000000000E10    5.692953243851662E-3  -1.548268715851009E-3  
 2.492000000000000E10   -1.878246082924306E-3  -5.106681492179632E-3  
 2.494000000000000E10   -4.397152923047543E-3   2.320437226444483E-3  
 2.496000000000000E10    2.649889560416341E-3   4.600466229021549E-3  
 2.498000000000000E10    4.076613578945398E-3  -2.606641966849566E-3  
 2.500000000000000E10   -2.658777171745896E-3  -3.143884241580963E-3  
 2.502000000000000E10   -3.025952028110623E-3   3.334368346258998E-3  
 2.504000000000000E10    3.947630058974028E-3   2.504804171621800E-3  
 2.506000000000000E10    1.686780131421983E-3  -3.642010735347867E-3  
 2.508000000000000E10   -4.153477028012276E-3  -1.228133100084961E-3  
 2.510000000000000E10   -7.588126463815570E-4   4.927887115627527E-3  
 2.512000000000000E10    5.178540479391813E-3  -2.268088428536430E-4  
 2.514000000000000E10   -1.106545911170542E-3  -4.923339467495680E-3  
 2.516000000000000E10   -5.231824703514576E-3   2.180812414735556E-3  
 2.518000000000000E10    2.420400734990835E-3   5.434006918221712E-3  
 2.520000000000000E10    4.796048160642386E-3  -2.868586918339133E-3  
 2.522000000000000E10   -3.120745532214642E-3  -4.726585466414690E-3  
 2.524000000000000E10   -4.559393506497145E-3   3.518782788887620E-3  
 2.526000000000000E10    2.933604875579476E-3   4.596238955855370E-3  
 2.528000000000000E10    3.767879912629724E-3  -3.463978879153729E-3  
 2.530000000000000E10   -3.953180275857449E-3  -3.549465211108327E-3  
 2.532000000000000E10   -2.857016632333398E-3   4.398183431476355E-3  
 2.534000000000000E10    4.285198636353016E-3   2.065271837636828E-3  
 2.536000000000000E10    1.062819152139127E-3  -4.419302102178335E-3  
 2.538000000000000E10   -4.844100680202246E-3  -1.938223722390831E-4  
 2.540000000000000E10    4.593206685967743E-4   5.112226121127605E-3  
 2.542000000000000E10    5.038409493863583E-3  -2.076686592772603E-3  
 2.544000000000000E10   -2.731401240453124E-3  -5.219240207225084E-3  
 2.546000000000000E10   -5.401164758950472E-3   3.226082306355238E-3  
 2.548000000000000E10    3.617842448875308E-3   4.540543071925640E-3  
 2.550000000000000E10    4.085578490048647E-3  -4.524051211774349E-3  
 2.552000000000000E10   -5.134690552949905E-3  -4.546063486486673E-3  
 2.554000000000000E10   -4.054726101458073E-3   4.399128723889589E-3  
 2.556000000000000E10    4.452340770512819E-3   3.097339766100049E-3  
 2.558000000000000E10    2.434137510135770E-3  -4.881964530795813E-3  
 2.560000000000000E10   -4.998883698135614E-3  -1.949680969119072E-3  
 2.562000000000000E10   -1.577597111463547E-3   4.899839404970408E-3  
 2.564000000000000E10    4.859955050051212E-3  -1.133782207034528E-4  
 2.566000000000000E10   -1.387212425470352E-3  -5.216374993324280E-3  
 2.568000000000000E10   -5.602710880339146E-3   2.129097003489733E-3  
 2.570000000000000E10    3.027949715033174E-3   4.613688215613365E-3  
 2.572000000000000E10    3.868370549753308E-3  -4.058737307786942E-3  
 2.574000000000000E10   -4.866632632911205E-3  -4.147344734519720E-3  
 2.576000000000000E10   -4.322084132581949E-3   4.938682075589895E-3  
 2.578000000000000E10    5.813251715153456E-3   2.842320362105966E-3  
 2.580000000000000E10    2.543172566220164E-3  -5.439360626041889E-3  
 2.582000000000000E10   -5.958712194114924E-3  -2.908477094024420E-3  
 2.584000000000000E10   -2.046151319518685E-3   6.199837196618319E-3  
 2.586000000000000E10    6.331219337880611E-3   1.237106975167990E-3  
 2.588000000000000E10    1.016690745018423E-3  -6.298169959336519E-3  
 2.590000000000000E10   -5.576258990913630E-3  -1.644329167902470E-4  
 2.592000000000000E10    1.106444979086518E-3   5.744131747633219E-3  
 2.594000000000000E10    5.698798689991236E-3  -2.338055055588484E-3  
 2.596000000000000E10   -2.830817364156246E-3  -5.380365066230297E-3  
 2.598000000000000E10   -4.189225845038891E-3   4.056833684444428E-3  
 2.600000000000000E10    5.053208675235510E-3   3.843011567369103E-3  
 2.602000000000000E10    3.335160436108708E-3  -5.934762768447399E-3  
 2.604000000000000E10   -5.388046149164438E-3  -2.835187129676342E-3  
 2.606000000000000E10   -1.976683270186186E-3   6.443941500037909E-3  
 2.608000000000000E10    6.770917214453220E-3   2.042038831859827E-3  
 2.610000000000000E10    2.029380528256297E-3  -6.270624697208405E-3  
 2.612000000000000E10   -6.450341548770666E-3  -1.113176229409874E-3  
 2.614000000000000E10   -5.056524532847107E-4   6.731770001351833E-3  
 2.616000000000000E10    6.304505746811628E-3  -4.929851638735272E-5  
 2.618000000000000E10   -2.684930514078587E-4  -6.351237185299397E-3  
 2.620000000000000E10   -5.195155274122953E-3   1.506047789007425E-3  
 2.622000000000000E10    2.936673583462834E-3   5.122359376400709E-3  
 2.624000000000000E10    5.026649683713913E-3  -3.113106824457645E-3  
 2.626000000000000E10   -4.193366039544344E-3  -4.027625080198050E-3  
 2.628000000000000E10   -3.291568020358682E-3   5.440118256956339E-3  
 2.630000000000000E10    6.031099241226912E-3   3.267287975177169E-3  
 2.632000000000000E10    2.207766752690077E-3  -5.985290743410587E-3  
 2.634000000000000E10   -6.343446671962738E-3  -1.526451669633389E-3  
 2.636000000000000E10   -1.318405731581152E-3   7.066358812153339E-3  
 2.638000000000000E10    6.635340396314859E-3   1.004555379040539E-3  
 2.640000000000000E10    5.694926949217916E-5  -6.376866251230240E-3  
 2.642000000000000E10   -6.496047135442495E-3   2.378683129791170E-4  
 2.644000000000000E10    1.147429575212300E-3   6.907666567713022E-3  
 2.646000000000000E10    5.867336876690388E-3  -1.540631405077875E-3  
 2.648000000000000E10   -2.649120287969708E-3  -5.184005480259657E-3  
 2.650000000000000E10   -5.103531759232283E-3   4.241864196956158E-3  
 2.652000000000000E10    3.999110311269760E-3   4.277497995644808E-3  
 2.654000000000000E10    2.570676617324352E-3  -4.170831292867661E-3  
 2.656000000000000E10   -5.817005410790443E-3  -2.439511707052589E-3  
 2.658000000000000E10   -1.891937921755016E-3   5.851114168763161E-3  
 2.660000000000000E10    5.361697170883417E-3   9.702501120045781E-4  
 2.662000000000000E10    6.869945791549981E-4  -5.692012142390013E-3  
 2.664000000000000E10   -6.659673526883125E-3   3.591227577999234E-4  
 2.666000000000000E10    1.094801118597388E-3   6.406844127923250E-3  
 2.668000000000000E10    5.816017743200064E-3  -1.084759249351919E-3  
 2.670000000000000E10   -2.052571624517441E-3  -5.265463143587112E-3  
 2.672000000000000E10   -5.765802692621946E-3   2.495096763595939E-3  
 2.674000000000000E10    2.634377917274833E-3   4.793223924934864E-3  
 2.676000000000000E10    4.381204955279827E-3  -3.023652127012610E-3  
 2.678000000000000E10   -3.947760909795761E-3  -4.276775289326906E-3  
 2.680000000000000E10   -3.452537581324577E-3   4.120655357837677E-3  
 2.682000000000000E10    4.689564928412437E-3   2.372567541897297E-3  
 2.684000000000000E10    2.123014302924275E-3  -5.401441827416420E-3  
 2.686000000000000E10   -5.764469970017672E-3  -1.376117113977671E-3  
 2.688000000000000E10   -5.183403845876455E-4   5.509543698281050E-3  
 2.690000000000000E10    5.594380665570498E-3  -1.961618690984324E-4  
 2.692000000000000E10   -6.042121676728129E-4  -6.583224982023239E-3  
 2.694000000000000E10   -5.910694133490324E-3   6.654558819718659E-4  
 2.696000000000000E10    1.323216129094362E-3   5.426123738288879E-3  
 2.698000000000000E10    5.147230345755816E-3  -2.562282606959343E-3  
 2.700000000000000E10   -2.518294844776392E-3  -5.859042052179575E-3  
 2.702000000000000E10   -4.516706336289644E-3   2.670736517757177E-3  
 2.704000000000000E10    3.498147241771221E-3   3.271601162850857E-3  
 2.706000000000000E10    3.169303294271231E-3  -4.495973698794842E-3  
 2.708000000000000E10   -3.979043103754520E-3  -2.667384222149849E-3  
 2.710000000000000E10   -1.664201146923006E-3   4.725832957774401E-3  
 2.712000000000000E10    5.093394313007593E-3   1.101627480238676E-3  
 2.714000000000000E10    6.979618920013309E-4  -5.398450884968042E-3  
 2.716000000000000E10   -5.176423117518425E-3  -4.622163542080671E-4  
 2.718000000000000E10    2.600826555863023E-4   5.480346269905567E-3  
 2.720000000000000E10    5.656713619828224E-3  -1.033472013659775E-3  
 2.722000000000000E10   -1.444734400138259E-3  -5.580737255513668E-3  
 2.724000000000000E10   -5.289431661367416E-3   2.037559635937214E-3  
 2.726000000000000E10    3.052332438528538E-3   4.851435776799917E-3  
 2.728000000000000E10    4.444453865289688E-3  -3.120534121990204E-3  
 2.730000000000000E10   -3.020540578290820E-3  -3.800526959821582E-3  
 2.732000000000000E10   -2.978260163217783E-3   4.180145915597677E-3  
 2.734000000000000E10    4.539195913821459E-3   2.977220108732581E-3  
 2.736000000000000E10    2.649274887517095E-3  -4.076468758285046E-3  
 2.738000000000000E10   -4.552233032882214E-3  -1.252702786587179E-3  
 2.740000000000000E10   -7.301228470169008E-4   4.911733325570822E-3  
 2.742000000000000E10    5.394193809479475E-3   5.659339949488640E-4  
 2.744000000000000E10   -1.142726323450916E-4  -4.655488301068544E-3  
 2.746000000000000E10   -4.504897166043520E-3   1.101290341466665E-3  
 2.748000000000000E10    2.240053610876203E-3   5.040655843913555E-3  
 2.750000000000000E10    4.748404957354069E-3  -1.842907397076488E-3  
 2.752000000000000E10   -2.328555565327406E-3  -3.893733723089099E-3  
 2.754000000000000E10   -3.574916860088706E-3   3.558253636583686E-3  
 2.756000000000000E10    3.884723410010338E-3   3.689204342663288E-3  
