#  HZ   S   RI   R     50.00 
! Rohde & Schwarz ZVA40 4Ports - Version 3.90 - 1145.1110k42 SN: 100403
! Date: 2023-10-04 07:17:59
! Measurement: S12 
! 
 2.200000000000000E10    3.531222930178046E-3   1.405097078531981E-3  
 2.202000000000000E10    5.448218435049057E-4  -2.831786638125777E-3  
 2.204000000000000E10   -2.669733483344317E-3   1.518960634712130E-4  
 2.206000000000000E10    2.180026931455359E-4   2.456195186823607E-3  
 2.208000000000000E10    1.431116252206266E-3   1.408398566127289E-5  
 2.210000000000000E10   -7.292629452422261E-4  -6.375519442372024E-4  
 2.212000000000000E10   -1.401267247274518E-3   1.394146820530295E-3  
 2.214000000000000E10    1.604386605322361E-3   1.029293984174728E-3  
 2.216000000000000E10    4.879368643742055E-4  -2.445464488118887E-3  
 2.218000000000000E10   -2.993712667375803E-3  -7.863519713282585E-4  
 2.220000000000000E10   -2.675512223504484E-4   3.687881864607334E-3  
 2.222000000000000E10    4.168242216110230E-3   2.465272846166045E-4  
 2.224000000000000E10    2.296290622325614E-4  -4.587084986269474E-3  
 2.226000000000000E10   -4.423535894602537E-3  -4.561718742479570E-5  
 2.228000000000000E10   -9.379620314575732E-5   4.595668986439705E-3  
 2.230000000000000E10    4.174232948571444E-3  -6.876466795802116E-4  
 2.232000000000000E10   -2.268084790557623E-4  -3.857327625155449E-3  
 2.234000000000000E10   -3.898082301020622E-3   6.559640751220286E-4  
 2.236000000000000E10    1.185422181151807E-3   2.275120699778199E-3  
 2.238000000000000E10    1.845081918872893E-3  -1.818593358621001E-3  
 2.240000000000000E10   -1.893221400678158E-3  -1.928476383909583E-3  
 2.242000000000000E10   -5.402836832217872E-4   1.981634646654129E-3  
 2.244000000000000E10    2.635526005178690E-3   9.077141294255853E-5  
 2.246000000000000E10    4.199615505058318E-4  -3.555087372660637E-3  
 2.248000000000000E10   -4.061012063175440E-3  -6.947141955606639E-4  
 2.250000000000000E10   -1.102826990972972E-5   4.082225728780031E-3  
 2.252000000000000E10    4.660570994019508E-3  -8.886845316737890E-4  
 2.254000000000000E10   -8.345507085323334E-4  -5.423244088888168E-3  
 2.256000000000000E10   -5.459721665829420E-3   7.067684200592339E-4  
 2.258000000000000E10    9.409612393938005E-4   4.372333176434040E-3  
 2.260000000000000E10    4.227001219987869E-3  -1.316100475378335E-3  
 2.262000000000000E10   -1.698686974123120E-3  -3.889141837134957E-3  
 2.264000000000000E10   -3.602197859436274E-3   8.613492245785892E-4  
 2.266000000000000E10    1.420678221620619E-3   3.013084409758449E-3  
 2.268000000000000E10    2.185587771236897E-3  -2.343208994716406E-3  
 2.270000000000000E10   -3.073532134294510E-3  -2.058024052530527E-3  
 2.272000000000000E10   -8.886476280167699E-4   3.081668866798282E-3  
 2.274000000000000E10    3.399642184376717E-3   1.579679519636557E-4  
 2.276000000000000E10   -5.701428744941950E-4  -4.305294714868069E-3  
 2.278000000000000E10   -3.997984342277050E-3   1.217387616634369E-3  
 2.280000000000000E10    9.680556831881404E-4   4.650837276130915E-3  
 2.282000000000000E10    4.633837379515171E-3   1.702976529486477E-3  
 2.284000000000000E10   -1.634000451304019E-3  -5.466601345688105E-3  
 2.286000000000000E10   -5.381953902542591E-3   2.219498623162508E-3  
 2.288000000000000E10    2.469984581694007E-3   4.901103675365448E-3  
 2.290000000000000E10    4.408937413245440E-3  -2.955368719995022E-3  
 2.292000000000000E10   -2.446994651108980E-3  -3.952527884393930E-3  
 2.294000000000000E10   -2.424373757094145E-3   2.401597797870636E-3  
 2.296000000000000E10    2.644711639732122E-3   2.509355545043945E-3  
 2.298000000000000E10    2.617676509544253E-3  -2.460206858813763E-3  
 2.300000000000000E10   -2.567049581557512E-3  -1.277776085771620E-3  
 2.302000000000000E10   -4.493297601584345E-4   3.900173818692565E-3  
 2.304000000000000E10    4.356055054813623E-3  -2.066968881990761E-4  
 2.306000000000000E10   -8.581546717323363E-4  -4.751961678266525E-3  
 2.308000000000000E10   -4.462226293981075E-3   1.907630474306643E-3  
 2.310000000000000E10    2.310661133378744E-3   4.645652603358030E-3  
 2.312000000000000E10    4.696051590144634E-3  -3.015147289261222E-3  
 2.314000000000000E10   -2.432083943858743E-3  -4.638548474758863E-3  
 2.316000000000000E10   -4.627550952136517E-3   2.706837374716997E-3  
 2.318000000000000E10    3.547031898051500E-3   4.353788681328297E-3  
 2.320000000000000E10    3.472457174211741E-3  -3.468284616246820E-3  
 2.322000000000000E10   -3.979384899139404E-3  -3.038543974980712E-3  
 2.324000000000000E10   -1.900119124911726E-3   4.270677454769611E-3  
 2.326000000000000E10    4.330886993557215E-3   1.551979454234242E-3  
 2.328000000000000E10    7.795637357048690E-4  -3.757397411391139E-3  
 2.330000000000000E10   -4.560246597975493E-3  -3.114743158221245E-4  
 2.332000000000000E10    3.498579608276486E-4   4.554411862045527E-3  
 2.334000000000000E10    4.971222952008247E-3  -4.874555161222816E-4  
 2.336000000000000E10   -1.656688167713583E-3  -5.113104823976755E-3  
 2.338000000000000E10   -4.867011681199074E-3   2.794170286506414E-3  
 2.340000000000000E10    3.610614920035005E-3   4.879354499280453E-3  
 2.342000000000000E10    3.947485238313675E-3  -3.421871922910214E-3  
 2.344000000000000E10   -4.339623730629683E-3  -2.860927022993565E-3  
 2.346000000000000E10   -2.973820315673947E-3   4.449878819286823E-3  
 2.348000000000000E10    3.984243609011173E-3   2.686232328414917E-3  
 2.350000000000000E10    2.484313212335110E-3  -4.416003357619047E-3  
 2.352000000000000E10   -4.464928992092609E-3  -1.473276643082500E-3  
 2.354000000000000E10   -9.111243416555226E-4   4.808666650205851E-3  
 2.356000000000000E10    5.290724802762270E-3   1.446384703740478E-4  
 2.358000000000000E10   -7.036704919300973E-4  -4.445729311555624E-3  
 2.360000000000000E10   -4.100377671420574E-3   1.557645038701594E-3  
 2.362000000000000E10    2.291936194524169E-3   4.018515348434448E-3  
 2.364000000000000E10    4.190412349998951E-3  -2.714890753850341E-3  
 2.366000000000000E10   -3.273238660767674E-3  -3.812593640759587E-3  
 2.368000000000000E10   -4.042415414005518E-3   3.714176360517740E-3  
 2.370000000000000E10    3.960784524679184E-3   3.928784746676683E-3  
 2.372000000000000E10    3.944207914173603E-3  -5.559278186410666E-3  
 2.374000000000000E10   -5.538398865610361E-3  -3.324078395962715E-3  
 2.376000000000000E10   -2.931908937171102E-3   4.470909945666790E-3  
 2.378000000000000E10    5.390914622694254E-3   2.038987120613456E-3  
 2.380000000000000E10    1.261058147065342E-3  -5.391475278884172E-3  
 2.382000000000000E10   -4.721355158835650E-3  -1.024855184368789E-3  
 2.384000000000000E10   -7.610387983731926E-4   4.297578707337380E-3  
 2.386000000000000E10    4.499129485338926E-3  -7.360086310654879E-4  
 2.388000000000000E10   -2.775704953819513E-3  -4.460480529814959E-3  
 2.390000000000000E10   -4.844390787184238E-3   2.794726984575391E-3  
 2.392000000000000E10    3.382567781955004E-3   4.383287392556667E-3  
 2.394000000000000E10    3.560245037078857E-3  -5.217595025897026E-3  
 2.396000000000000E10   -5.289243999868631E-3  -4.214285872876644E-3  
 2.398000000000000E10   -3.820634912699461E-3   5.699809640645981E-3  
 2.400000000000000E10    5.580180324614048E-3   2.842743182554841E-3  
 2.402000000000000E10    1.725367736071348E-3  -6.428198888897896E-3  
 2.404000000000000E10   -6.398973520845175E-3  -8.571897051297128E-4  
 2.406000000000000E10   -5.563477752730250E-4   6.031951867043972E-3  
 2.408000000000000E10    5.694756750017405E-3  -6.113231647759676E-4  
 2.410000000000000E10   -1.644001109525561E-3  -5.397706292569637E-3  
 2.412000000000000E10   -5.475728772580624E-3   1.954399282112718E-3  
 2.414000000000000E10    2.293288940563798E-3   4.992573522031307E-3  
 2.416000000000000E10    4.963375627994537E-3  -3.212048206478357E-3  
 2.418000000000000E10   -4.088412970304489E-3  -5.147770047187805E-3  
 2.420000000000000E10   -4.481347277760506E-3   4.281075671315193E-3  
 2.422000000000000E10    5.334493704140186E-3   4.048391710966826E-3  
 2.424000000000000E10    3.914019092917442E-3  -5.736299790441990E-3  
 2.426000000000000E10   -6.372696254402399E-3  -3.093510633334518E-3  
 2.428000000000000E10   -1.557937124744058E-3   6.551253143697977E-3  
 2.430000000000000E10    6.968371570110321E-3   5.592672387138009E-4  
 2.432000000000000E10   -1.228218297910644E-5  -6.783940363675356E-3  
 2.434000000000000E10   -6.495198234915733E-3   8.790134452283382E-4  
 2.436000000000000E10    1.948403543792665E-3   5.460787098854780E-3  
 2.438000000000000E10    5.911316722631455E-3  -2.110755536705256E-3  
 2.440000000000000E10   -2.439049538224936E-3  -6.240166258066893E-3  
 2.442000000000000E10   -4.464849829673767E-3   3.158967709168792E-3  
 2.444000000000000E10    4.488087259232998E-3   4.639080259948969E-3  
 2.446000000000000E10    4.646258894354105E-3  -4.827609285712242E-3  
 2.448000000000000E10   -4.482182208448649E-3  -3.350206883624196E-3  
 2.450000000000000E10   -3.071580547839403E-3   5.369101185351610E-3  
 2.452000000000000E10    6.561895366758108E-3   2.555860672146082E-3  
 2.454000000000000E10    2.010848838835955E-3  -6.892274133861065E-3  
 2.456000000000000E10   -6.792478263378143E-3  -1.834801165387034E-3  
 2.458000000000000E10   -8.772200089879334E-4   6.854556500911713E-3  
 2.460000000000000E10    7.655754685401917E-3  -3.789154288824648E-4  
 2.462000000000000E10   -9.031224180944264E-4  -6.742968223989010E-3  
 2.464000000000000E10   -5.520971957594156E-3   1.071975799277425E-3  
 2.466000000000000E10    2.103544538840652E-3   5.357667338103056E-3  
 2.468000000000000E10    5.130491219460964E-3  -3.016709815710783E-3  
 2.470000000000000E10   -3.159563057124615E-3  -4.436528775840998E-3  
 2.472000000000000E10   -3.710660384967923E-3   3.708413569256663E-3  
 2.474000000000000E10    4.988806322216988E-3   3.789675422012806E-3  
 2.476000000000000E10    3.360195551067591E-3  -5.822665523737669E-3  
 2.478000000000000E10   -6.561055313795805E-3  -2.678112592548132E-3  
 2.480000000000000E10   -2.034602221101522E-3   7.381438277661800E-3  
 2.482000000000000E10    7.559856865555048E-3   1.286720973439515E-3  
 2.484000000000000E10    6.329948664642870E-4  -7.753154262900353E-3  
 2.486000000000000E10   -7.567105814814568E-3   3.939932212233543E-4  
 2.488000000000000E10    8.327429532073438E-4   6.949814036488533E-3  
 2.490000000000000E10    6.067361682653427E-3  -1.274119596928358E-3  
 2.492000000000000E10   -1.815273542888463E-3  -5.457474850118160E-3  
 2.494000000000000E10   -4.955267533659935E-3   2.348816953599453E-3  
 2.496000000000000E10    3.136485116556287E-3   4.964700900018215E-3  
 2.498000000000000E10    3.504351712763310E-3  -3.283629193902016E-3  
 2.500000000000000E10   -4.178447648882866E-3  -3.138351486995816E-3  
 2.502000000000000E10   -3.510818816721439E-3   5.223738495260477E-3  
 2.504000000000000E10    5.338677670806646E-3   2.424371428787708E-3  
 2.506000000000000E10    1.720100292004645E-3  -6.141040008515120E-3  
 2.508000000000000E10   -7.058245595544577E-3  -1.820602104999125E-3  
 2.510000000000000E10   -7.709990022704005E-4   7.616881281137466E-3  
 2.512000000000000E10    7.725402712821960E-3  -4.615873695001937E-5  
 2.514000000000000E10   -1.313049811869860E-3  -7.898910902440548E-3  
 2.516000000000000E10   -7.544440682977438E-3   2.304493915289640E-3  
 2.518000000000000E10    2.394914394244552E-3   6.851442623883486E-3  
 2.520000000000000E10    6.258904468268156E-3  -2.896022517234087E-3  
 2.522000000000000E10   -3.387091448530555E-3  -5.375703331083059E-3  
 2.524000000000000E10   -4.884117748588324E-3   3.581644734367728E-3  
 2.526000000000000E10    3.605494275689125E-3   4.404169507324696E-3  
 2.528000000000000E10    3.360460978001356E-3  -4.272039514034987E-3  
 2.530000000000000E10   -5.275664385408163E-3  -2.978514414280653E-3  
 2.532000000000000E10   -2.206690842285752E-3   5.403681658208370E-3  
 2.534000000000000E10    6.211072206497192E-3   1.503564766608179E-3  
 2.536000000000000E10    2.545182360336185E-5  -7.034547626972199E-3  
 2.538000000000000E10   -7.269667927175760E-3   3.047106147278100E-4  
 2.540000000000000E10    1.548880012705922E-3   7.455571554601193E-3  
 2.542000000000000E10    7.300397381186485E-3  -2.549301367253065E-3  
 2.544000000000000E10   -2.887759823352099E-3  -7.272986695170403E-3  
 2.546000000000000E10   -6.145372055470944E-3   3.885092912241817E-3  
 2.548000000000000E10    4.060985986143351E-3   5.974184256047010E-3  
 2.550000000000000E10    5.414031445980072E-3  -4.611335694789887E-3  
 2.552000000000000E10   -5.071831867098808E-3  -4.518879577517510E-3  
 2.554000000000000E10   -3.871323773637414E-3   5.170699208974838E-3  
 2.556000000000000E10    5.812735296785832E-3   2.509978134185076E-3  
 2.558000000000000E10    2.099256031215191E-3  -6.448602769523859E-3  
 2.560000000000000E10   -6.126307882368565E-3  -1.030061044730246E-3  
 2.562000000000000E10    3.692567697726190E-4   6.663888227194548E-3  
 2.564000000000000E10    7.606804836541414E-3  -1.677606254816055E-3  
 2.566000000000000E10   -1.601420110091567E-3  -7.503484375774860E-3  
 2.568000000000000E10   -7.116976659744978E-3   3.320254152640700E-3  
 2.570000000000000E10    5.254434887319803E-3   6.424025632441044E-3  
 2.572000000000000E10    6.336748600006104E-3  -4.750763997435570E-3  
 2.574000000000000E10   -4.640095867216587E-3  -5.644335411489010E-3  
 2.576000000000000E10   -4.653023090213537E-3   6.063065025955439E-3  
 2.578000000000000E10    6.430196575820446E-3   3.596240654587746E-3  
 2.580000000000000E10    3.435013582929969E-3  -5.830327980220318E-3  
 2.582000000000000E10   -6.294914986938238E-3  -2.605030545964837E-3  
 2.584000000000000E10   -1.074760919436812E-3   6.636867299675942E-3  
 2.586000000000000E10    7.016959134489298E-3   5.858734948560596E-4  
 2.588000000000000E10   -2.613558317534626E-4  -6.479599047452211E-3  
 2.590000000000000E10   -6.345334462821484E-3   1.651596161536872E-3  
 2.592000000000000E10    2.907945076003671E-3   7.365436758846045E-3  
 2.594000000000000E10    7.493524346500635E-3  -3.705756738781929E-3  
 2.596000000000000E10   -4.675781354308128E-3  -6.620851345360279E-3  
 2.598000000000000E10   -6.370363757014275E-3   6.443344522267580E-3  
 2.600000000000000E10    6.970814894884825E-3   5.997296888381243E-3  
 2.602000000000000E10    5.061492789536715E-3  -6.905032787472010E-3  
 2.604000000000000E10   -7.175905629992485E-3  -3.991635981947184E-3  
 2.606000000000000E10   -3.079224377870560E-3   7.423120550811291E-3  
 2.608000000000000E10    7.015081588178873E-3   3.357888897880912E-3  
 2.610000000000000E10    2.206515520811081E-3  -6.550990510731936E-3  
 2.612000000000000E10   -6.953879725188017E-3  -9.231380536220968E-4  
 2.614000000000000E10    7.465989710908616E-6   7.457903586328030E-3  
 2.616000000000000E10    7.104944437742233E-3  -6.417939439415932E-4  
 2.618000000000000E10   -2.047461457550526E-3  -6.909683346748352E-3  
 2.620000000000000E10   -6.157866213470697E-3   3.804365871474147E-3  
 2.622000000000000E10    4.529913887381554E-3   6.334256846457720E-3  
 2.624000000000000E10    5.464335903525353E-3  -5.183041561394930E-3  
 2.626000000000000E10   -6.746834143996239E-3  -5.096127279102802E-3  
 2.628000000000000E10   -5.218620412051678E-3   6.856193765997887E-3  
 2.630000000000000E10    7.365717552602291E-3   4.299802239984274E-3  
 2.632000000000000E10    2.899239072576165E-3  -7.600031793117523E-3  
 2.634000000000000E10   -8.076081052422524E-3  -2.636024029925466E-3  
 2.636000000000000E10   -1.676141750067473E-3   7.854777388274670E-3  
 2.638000000000000E10    6.941201165318489E-3   1.138121704570949E-3  
 2.640000000000000E10   -2.372961171204224E-4  -7.159971166402102E-3  
 2.642000000000000E10   -7.548443507403135E-3   9.183915099129081E-4  
 2.644000000000000E10    1.143829664215446E-3   6.484773010015488E-3  
 2.646000000000000E10    6.021649576723576E-3  -2.595428144559264E-3  
 2.648000000000000E10   -4.637910984456539E-3  -5.991212092339993E-3  
 2.650000000000000E10   -5.598078016191721E-3   5.130422301590443E-3  
 2.652000000000000E10    5.391143728047609E-3   4.116369411349297E-3  
 2.654000000000000E10    3.105048788711429E-3  -6.413391325622797E-3  
 2.656000000000000E10   -7.498933002352715E-3  -2.785531803965569E-3  
 2.658000000000000E10   -1.841414719820023E-3   7.384881377220154E-3  
 2.660000000000000E10    7.207810878753662E-3   1.181628904305399E-3  
 2.662000000000000E10   -1.024298967422510E-6  -7.510448805987835E-3  
 2.664000000000000E10   -7.880543358623982E-3   6.607994437217712E-4  
 2.666000000000000E10    9.095925488509238E-4   7.081286981701851E-3  
 2.668000000000000E10    6.260362453758717E-3  -1.859430572949350E-3  
 2.670000000000000E10   -2.635373501107097E-3  -6.601503118872643E-3  
 2.672000000000000E10   -5.989703815430403E-3   2.925686538219452E-3  
 2.674000000000000E10    3.591872053220868E-3   5.071971099823713E-3  
 2.676000000000000E10    5.315988324582577E-3  -4.451232030987740E-3  
 2.678000000000000E10   -4.991545807570219E-3  -3.970016259700060E-3  
 2.680000000000000E10   -3.023869823664427E-3   5.479561630636454E-3  
 2.682000000000000E10    6.133400835096836E-3   2.681047189980745E-3  
 2.684000000000000E10    2.174103399738669E-3  -5.988527089357376E-3  
 2.686000000000000E10   -6.227337289601564E-3  -9.921554010361433E-4  
 2.688000000000000E10   -5.867504514753819E-4   6.811998784542084E-3  
 2.690000000000000E10    6.736035924404860E-3   4.464810626814142E-5  
 2.692000000000000E10   -3.315149224363267E-4  -6.606647744774818E-3  
 2.694000000000000E10   -5.838751792907715E-3   1.406044000759721E-3  
 2.696000000000000E10    2.834427636116743E-3   6.075022276490927E-3  
 2.698000000000000E10    5.993892904371023E-3  -2.891405252739787E-3  
 2.700000000000000E10   -2.885237103328109E-3  -5.253461189568043E-3  
 2.702000000000000E10   -4.029384348541498E-3   4.492620937526226E-3  
 2.704000000000000E10    5.491702817380428E-3   3.923781681805849E-3  
 2.706000000000000E10    3.479267470538616E-3  -4.862240049988031E-3  
 2.708000000000000E10   -4.940476268529892E-3  -2.719202777370811E-3  
 2.710000000000000E10   -1.932658022269607E-3   5.808417219668627E-3  
 2.712000000000000E10    6.197119131684303E-3   1.674785977229476E-3  
 2.714000000000000E10    9.231173316948116E-4  -5.944113712757826E-3  
 2.716000000000000E10   -5.835642572492361E-3  -4.553259350359440E-4  
 2.718000000000000E10    5.507656605914235E-4   5.851997993886471E-3  
 2.720000000000000E10    5.621750373393297E-3  -1.188498223200440E-3  
 2.722000000000000E10   -1.657165470533073E-3  -5.422843154519796E-3  
 2.724000000000000E10   -5.609204526990652E-3   2.760202158242464E-3  
 2.726000000000000E10    3.396057523787022E-3   4.929789807647467E-3  
 2.728000000000000E10    4.330465570092201E-3  -3.553430549800396E-3  
 2.730000000000000E10   -4.537845961749554E-3  -3.977187909185886E-3  
 2.732000000000000E10   -3.510615322738886E-3   4.816073458641768E-3  
 2.734000000000000E10    4.615607205778360E-3   2.984235761687160E-3  
 2.736000000000000E10    2.277817344292998E-3  -5.086658522486687E-3  
 2.738000000000000E10   -5.925756413489580E-3  -1.616399036720395E-3  
 2.740000000000000E10   -1.496130367740989E-3   5.349924787878990E-3  
 2.742000000000000E10    5.207851529121399E-3   3.433473757468164E-4  
 2.744000000000000E10   -6.399999838322401E-4  -5.244762636721134E-3  
 2.746000000000000E10   -5.713446531444788E-3   1.054493011906743E-3  
 2.748000000000000E10    1.374223618768156E-3   5.028165876865387E-3  
 2.750000000000000E10    4.488216247409582E-3  -1.674555940553546E-3  
 2.752000000000000E10   -3.183904802426696E-3  -4.380377009510994E-3  
 2.754000000000000E10   -4.624934867024422E-3   3.592782188206911E-3  
 2.756000000000000E10    3.170556388795376E-3   3.983947914093733E-3  
