#  HZ   S   RI   R     50.00 
! Rohde & Schwarz ZVA40 4Ports - Version 3.90 - 1145.1110k42 SN: 100403
! Date: 2023-10-04 07:19:40
! Measurement: S12 
! 
 2.200000000000000E10    4.006777424365282E-3  -4.853735736105591E-4  
 2.202000000000000E10   -1.403497648425400E-3  -3.997444175183773E-3  
 2.204000000000000E10   -4.793565720319748E-3   1.729369629174471E-3  
 2.206000000000000E10    1.587394508533180E-3   4.813878331333399E-3  
 2.208000000000000E10    4.171549342572689E-3  -2.234229585155845E-3  
 2.210000000000000E10   -2.484407741576433E-3  -4.036705940961838E-3  
 2.212000000000000E10   -4.978592041879892E-3   1.914071035571396E-3  
 2.214000000000000E10    2.520920941606164E-3   4.108206834644079E-3  
 2.216000000000000E10    4.180574789643288E-3  -2.399717923253775E-3  
 2.218000000000000E10   -3.070238279178739E-3  -3.896043170243502E-3  
 2.220000000000000E10   -2.440284006297588E-3   3.349257865920663E-3  
 2.222000000000000E10    3.752102144062519E-3   1.500679762102664E-3  
 2.224000000000000E10    1.048247213475406E-3  -3.769287606701255E-3  
 2.226000000000000E10   -3.981095738708973E-3  -1.963563554454595E-4  
 2.228000000000000E10    1.010429346933961E-3   4.443454090505838E-3  
 2.230000000000000E10    4.483721684664488E-3  -1.119841588661075E-3  
 2.232000000000000E10   -1.595734735019505E-3  -4.777484573423863E-3  
 2.234000000000000E10   -4.954097792506218E-3   2.942581661045551E-3  
 2.236000000000000E10    3.576282877475023E-3   4.834985360503197E-3  
 2.238000000000000E10    5.255106370896101E-3  -3.764652414247394E-3  
 2.240000000000000E10   -3.974555060267448E-3  -4.606002941727638E-3  
 2.242000000000000E10   -3.373275278136134E-3   4.239555913954973E-3  
 2.244000000000000E10    4.587202332913876E-3   3.554047318175435E-3  
 2.246000000000000E10    3.911972511559725E-3  -4.379883408546448E-3  
 2.248000000000000E10   -3.883147146552801E-3  -3.333967877551913E-3  
 2.250000000000000E10   -2.087553031742573E-3   4.195509012788534E-3  
 2.252000000000000E10    5.561557132750750E-3   6.233366439118981E-4  
 2.254000000000000E10    3.334615612402558E-4  -5.439257249236107E-3  
 2.256000000000000E10   -4.498984664678574E-3   1.188865047879517E-3  
 2.258000000000000E10    2.539758570492268E-3   4.319069441407919E-3  
 2.260000000000000E10    4.869703203439713E-3  -2.955307485535741E-3  
 2.262000000000000E10   -3.161694156005979E-3  -4.559947177767754E-3  
 2.264000000000000E10   -4.347307141870260E-3   3.085740143433213E-3  
 2.266000000000000E10    4.420649725943804E-3   4.874352831393480E-3  
 2.268000000000000E10    4.755883477628231E-3  -5.117544438689947E-3  
 2.270000000000000E10   -5.292129702866077E-3  -4.760165698826313E-3  
 2.272000000000000E10   -3.702390938997269E-3   5.319609772413969E-3  
 2.274000000000000E10    6.241732276976109E-3   3.151592565700412E-3  
 2.276000000000000E10    2.343500731512904E-3  -6.149530876427889E-3  
 2.278000000000000E10   -5.421157460659742E-3  -1.492976909503341E-3  
 2.280000000000000E10   -1.181610859930515E-3   5.525964312255383E-3  
 2.282000000000000E10    4.506159573793411E-3   3.350267885252833E-3  
 2.284000000000000E10   -8.222085889428854E-4  -5.410597193986177E-3  
 2.286000000000000E10   -5.707806441932917E-3   2.141337143257260E-3  
 2.288000000000000E10    3.388677258044481E-3   5.745106842368841E-3  
 2.290000000000000E10    5.113153252750635E-3  -4.201624076813459E-3  
 2.292000000000000E10   -4.852005280554295E-3  -4.391046240925789E-3  
 2.294000000000000E10   -3.823808161541820E-3   5.527800414711237E-3  
 2.296000000000000E10    5.858904216438532E-3   4.131007939577103E-3  
 2.298000000000000E10    3.547917818650603E-3  -5.065784789621830E-3  
 2.300000000000000E10   -6.162422243505716E-3  -3.088981378823519E-3  
 2.302000000000000E10   -2.778206253424287E-3   7.174736354500055E-3  
 2.304000000000000E10    6.924733053892851E-3   1.567254774272442E-3  
 2.306000000000000E10    5.950022023171186E-4  -6.921685300767422E-3  
 2.308000000000000E10   -7.042567245662212E-3   5.206170026212931E-4  
 2.310000000000000E10    1.490091439336538E-3   6.249993108212948E-3  
 2.312000000000000E10    5.850724875926971E-3  -1.985867042094469E-3  
 2.314000000000000E10   -2.300926251336932E-3  -5.557421594858170E-3  
 2.316000000000000E10   -5.551625974476337E-3   3.375882515683770E-3  
 2.318000000000000E10    4.516508895903826E-3   5.264747422188520E-3  
 2.320000000000000E10    4.372694529592991E-3  -5.258263554424048E-3  
 2.322000000000000E10   -6.256129126995802E-3  -3.822840284556150E-3  
 2.324000000000000E10   -2.934085670858622E-3   6.787646561861038E-3  
 2.326000000000000E10    6.514613982290030E-3   2.092910232022405E-3  
 2.328000000000000E10    1.387960510328412E-3  -7.097267545759678E-3  
 2.330000000000000E10   -6.978555116802454E-3  -9.034938411787152E-4  
 2.332000000000000E10   -5.254080751910806E-4   6.954112090170384E-3  
 2.334000000000000E10    7.336898241192102E-3  -1.164713248726912E-4  
 2.336000000000000E10   -1.198438461869955E-3  -7.146265823394060E-3  
 2.338000000000000E10   -7.059906143695116E-3   2.598762279376388E-3  
 2.340000000000000E10    3.658954519778490E-3   6.365455221384764E-3  
 2.342000000000000E10    4.878003615885973E-3  -4.360502585768700E-3  
 2.344000000000000E10   -6.229870952665806E-3  -3.891218453645706E-3  
 2.346000000000000E10   -3.743071574717760E-3   6.136140786111355E-3  
 2.348000000000000E10    6.313215009868145E-3   2.958219032734633E-3  
 2.350000000000000E10    2.276693005114794E-3  -6.851064972579479E-3  
 2.352000000000000E10   -7.384856231510639E-3  -1.840415527112782E-3  
 2.354000000000000E10   -1.281146774999797E-3   7.944464683532715E-3  
 2.356000000000000E10    7.856221869587898E-3   7.281562429852784E-4  
 2.358000000000000E10   -2.610126393847168E-4  -7.414385676383972E-3  
 2.360000000000000E10   -6.864477414637804E-3   9.288159781135619E-4  
 2.362000000000000E10    1.472189556807280E-3   6.809826940298080E-3  
 2.364000000000000E10    6.277227308601141E-3  -2.406961983069778E-3  
 2.366000000000000E10   -3.215091302990913E-3  -5.072066560387611E-3  
 2.368000000000000E10   -5.091102328151465E-3   3.910664003342390E-3  
 2.370000000000000E10    5.605167243629694E-3   4.587877541780472E-3  
 2.372000000000000E10    3.768130904063582E-3  -7.028163410723209E-3  
 2.374000000000000E10   -7.064201403409243E-3  -2.495863707736135E-3  
 2.376000000000000E10   -1.399603439494968E-3   7.464816328138113E-3  
 2.378000000000000E10    8.458862081170082E-3   7.091070874594152E-4  
 2.380000000000000E10    4.047990369144827E-4  -7.897589355707169E-3  
 2.382000000000000E10   -7.562537211924791E-3  -1.328800681221765E-5  
 2.384000000000000E10    6.037776474840939E-4   7.482453715056181E-3  
 2.386000000000000E10    7.212826516479254E-3  -1.176856458187103E-3  
 2.388000000000000E10   -2.656688215211034E-3  -7.643015589565039E-3  
 2.390000000000000E10   -7.135138846933842E-3   2.774868626147509E-3  
 2.392000000000000E10    4.024111200124025E-3   5.874508526176214E-3  
 2.394000000000000E10    5.450983531773090E-3  -5.592051893472672E-3  
 2.396000000000000E10   -6.027157884091139E-3  -5.012079607695341E-3  
 2.398000000000000E10   -3.922713454812765E-3   6.165366154164076E-3  
 2.400000000000000E10    6.822561379522085E-3   2.447697799652815E-3  
 2.402000000000000E10    7.883591460995376E-4  -7.489840034395456E-3  
 2.404000000000000E10   -7.939645089209080E-3   4.019065818283707E-4  
 2.406000000000000E10    8.871502941474319E-4   7.246493827551603E-3  
 2.408000000000000E10    7.302844431251288E-3  -2.269113436341286E-3  
 2.410000000000000E10   -3.234372707083821E-3  -6.953227333724499E-3  
 2.412000000000000E10   -7.185930851846933E-3   3.667664946988225E-3  
 2.414000000000000E10    3.752025542780757E-3   6.433859467506409E-3  
 2.416000000000000E10    6.383523344993591E-3  -4.412629641592503E-3  
 2.418000000000000E10   -5.231024231761694E-3  -7.022178266197443E-3  
 2.420000000000000E10   -5.353758111596108E-3   5.622946191579104E-3  
 2.422000000000000E10    6.021420471370220E-3   5.270523950457573E-3  
 2.424000000000000E10    4.816359374672175E-3  -6.728784646838903E-3  
 2.426000000000000E10   -7.075828500092030E-3  -2.599197439849377E-3  
 2.428000000000000E10   -1.027976744808257E-3   7.982613518834114E-3  
 2.430000000000000E10    7.625428494066000E-3   3.020356234628707E-4  
 2.432000000000000E10   -1.286721089854837E-3  -7.257907185703516E-3  
 2.434000000000000E10   -7.057514972984791E-3   2.803429262712598E-3  
 2.436000000000000E10    3.465723944827914E-3   7.111640181392431E-3  
 2.438000000000000E10    7.092931307852268E-3  -3.457433544099331E-3  
 2.440000000000000E10   -3.751846728846431E-3  -7.073936052620411E-3  
 2.442000000000000E10   -5.907917395234108E-3   4.914788994938135E-3  
 2.444000000000000E10    5.468156654387713E-3   6.225208286195993E-3  
 2.446000000000000E10    6.218967493623495E-3  -5.309965461492539E-3  
 2.448000000000000E10   -5.355520639568567E-3  -4.350643604993820E-3  
 2.450000000000000E10   -4.080647602677345E-3   6.116414442658424E-3  
 2.452000000000000E10    6.584039889276028E-3   3.180640516802669E-3  
 2.454000000000000E10    1.954141305759549E-3  -6.356684956699610E-3  
 2.456000000000000E10   -6.985141895711422E-3  -8.574836538173258E-4  
 2.458000000000000E10    6.156427552923560E-4   7.625386118888855E-3  
 2.460000000000000E10    7.964292541146278E-3  -1.672633807174861E-3  
 2.462000000000000E10   -2.557408297434449E-3  -7.082229945808649E-3  
 2.464000000000000E10   -6.552683189511299E-3   3.384752664715052E-3  
 2.466000000000000E10    3.857684321701527E-3   6.939081475138664E-3  
 2.468000000000000E10    6.870895158499479E-3  -3.866617567837238E-3  
 2.470000000000000E10   -4.172131884843111E-3  -6.041086278855801E-3  
 2.472000000000000E10   -5.461348686367273E-3   5.131776910275221E-3  
 2.474000000000000E10    5.009039770811796E-3   5.307438317686319E-3  
 2.476000000000000E10    4.777182824909687E-3  -5.548927932977676E-3  
 2.478000000000000E10   -6.697932723909617E-3  -3.625797340646386E-3  
 2.480000000000000E10   -2.744743134826422E-3   6.755555048584938E-3  
 2.482000000000000E10    7.288071326911449E-3   1.417436869814992E-3  
 2.484000000000000E10    1.031067222356796E-4  -7.481957785785198E-3  
 2.486000000000000E10   -7.492717821151018E-3   8.925199508666992E-4  
 2.488000000000000E10    1.930849277414382E-3   6.748689804226160E-3  
 2.490000000000000E10    6.303973961621523E-3  -2.665598411113024E-3  
 2.492000000000000E10   -3.874303773045540E-3  -6.590669974684715E-3  
 2.494000000000000E10   -6.197195034474134E-3   4.205634817481041E-3  
 2.496000000000000E10    4.427483305335045E-3   5.664437077939510E-3  
 2.498000000000000E10    4.879565909504890E-3  -5.447087809443474E-3  
 2.500000000000000E10   -6.142608355730772E-3  -5.266381893306971E-3  
 2.502000000000000E10   -5.411529447883368E-3   5.968060810118914E-3  
 2.504000000000000E10    6.216912064701319E-3   3.936842549592257E-3  
 2.506000000000000E10    3.683643415570259E-3  -7.071892265230417E-3  
 2.508000000000000E10   -7.219279184937477E-3  -3.147121518850327E-3  
 2.510000000000000E10   -2.272301120683551E-3   7.124180905520916E-3  
 2.512000000000000E10    7.492871955037117E-3   6.187314284034073E-4  
 2.514000000000000E10   -1.171990181319416E-3  -7.311133667826653E-3  
 2.516000000000000E10   -7.185979280620813E-3   1.797009608708322E-3  
 2.518000000000000E10    3.093210281804204E-3   6.472340319305658E-3  
 2.520000000000000E10    5.857661366462708E-3  -4.197505768388510E-3  
 2.522000000000000E10   -4.862972069531679E-3  -5.704790819436312E-3  
 2.524000000000000E10   -5.257172044366598E-3   5.521710496395826E-3  
 2.526000000000000E10    5.756074562668800E-3   4.801433067768812E-3  
 2.528000000000000E10    4.757400136440992E-3  -6.556788459420204E-3  
 2.530000000000000E10   -7.251411210745573E-3  -4.661410581320524E-3  
 2.532000000000000E10   -3.669569734483957E-3   7.118783891201019E-3  
 2.534000000000000E10    7.812079042196274E-3   3.013861598446965E-3  
 2.536000000000000E10    1.925109769217670E-3  -8.368459530174732E-3  
 2.538000000000000E10   -8.115744218230248E-3  -9.589333203621209E-4  
 2.540000000000000E10    4.101861850358546E-4   8.168112486600876E-3  
 2.542000000000000E10    8.160992525517941E-3  -1.715468941256404E-3  
 2.544000000000000E10   -3.136585932224989E-3  -7.089226506650448E-3  
 2.546000000000000E10   -6.622224580496550E-3   4.479854367673397E-3  
 2.548000000000000E10    4.982826299965382E-3   6.263334769755602E-3  
 2.550000000000000E10    5.285692866891623E-3  -5.718520376831293E-3  
 2.552000000000000E10   -6.596267689019442E-3  -4.676179029047489E-3  
 2.554000000000000E10   -4.000141285359860E-3   6.660096812993288E-3  
 2.556000000000000E10    7.480229251086712E-3   3.291191300377250E-3  
 2.558000000000000E10    3.225117688998580E-3  -7.556347176432610E-3  
 2.560000000000000E10   -7.967640645802021E-3  -1.789301983080804E-3  
 2.562000000000000E10   -5.058437236584723E-4   8.664551191031933E-3  
 2.564000000000000E10    8.916372433304787E-3   3.555616713128984E-4  
 2.566000000000000E10   -1.029786653816700E-3  -8.544564247131348E-3  
 2.568000000000000E10   -8.375314064323902E-3   3.652740968391299E-3  
 2.570000000000000E10    4.641817882657051E-3   7.742094807326794E-3  
 2.572000000000000E10    6.590586155653000E-3  -4.833196289837360E-3  
 2.574000000000000E10   -6.118949037045240E-3  -4.942917264997959E-3  
 2.576000000000000E10   -4.634272772818804E-3   7.020374294370413E-3  
 2.578000000000000E10    8.146487176418304E-3   3.616296919062734E-3  
 2.580000000000000E10    2.838988322764635E-3  -7.593192625790834E-3  
 2.582000000000000E10   -8.319744840264320E-3  -2.121419878676534E-3  
 2.584000000000000E10   -1.377361477352679E-3   9.442259557545185E-3  
 2.586000000000000E10    9.490329772233963E-3   8.443262777291238E-4  
 2.588000000000000E10   -9.592597780283541E-5  -8.858545683324337E-3  
 2.590000000000000E10   -8.946533314883709E-3   1.159169711172581E-3  
 2.592000000000000E10    1.673939637839794E-3   9.798815473914146E-3  
 2.594000000000000E10    8.893129415810108E-3  -2.976112999022007E-3  
 2.596000000000000E10   -4.095044452697039E-3  -8.131955750286579E-3  
 2.598000000000000E10   -7.496057078242302E-3   5.621689371764660E-3  
 2.600000000000000E10    5.828327499330044E-3   6.251167040318251E-3  
 2.602000000000000E10    4.687960725277662E-3  -7.133885286748409E-3  
 2.604000000000000E10   -7.936254143714905E-3  -2.763250377029181E-3  
 2.606000000000000E10   -2.508592559024692E-3   8.024193346500397E-3  
 2.608000000000000E10    7.752014324069023E-3   1.448857248760760E-3  
 2.610000000000000E10    2.721611526794732E-4  -8.220379240810871E-3  
 2.612000000000000E10   -9.291424416005611E-3   1.719020219752565E-4  
 2.614000000000000E10    4.117850912734866E-4   9.620762430131435E-3  
 2.616000000000000E10    9.346907027065754E-3  -1.341511844657362E-3  
 2.618000000000000E10   -2.662354381754994E-3  -9.847179055213928E-3  
 2.620000000000000E10   -9.267576970160008E-3   3.868737258017063E-3  
 2.622000000000000E10    3.698058659210801E-3   8.355745114386082E-3  
 2.624000000000000E10    7.389741018414497E-3  -5.265187006443739E-3  
 2.626000000000000E10   -6.697576027363539E-3  -7.199419662356377E-3  
 2.628000000000000E10   -6.212928332388401E-3   6.127636879682541E-3  
 2.630000000000000E10    6.723940838128328E-3   4.284828901290894E-3  
 2.632000000000000E10    2.770467195659876E-3  -7.898858748376370E-3  
 2.634000000000000E10   -8.239303715527058E-3  -2.168570412322879E-3  
 2.636000000000000E10   -1.121110282838345E-3   7.849803194403648E-3  
 2.638000000000000E10    7.820486091077328E-3  -3.516972647048533E-4  
 2.640000000000000E10   -1.473924145102501E-3  -8.910902775824070E-3  
 2.642000000000000E10   -8.485439233481884E-3   1.902426010929048E-3  
 2.644000000000000E10    2.991954097524285E-3   7.877053692936897E-3  
 2.646000000000000E10    8.129999041557312E-3  -4.736375994980335E-3  
 2.648000000000000E10   -5.734963342547417E-3  -8.410438895225525E-3  
 2.650000000000000E10   -7.050305604934692E-3   5.974492523819208E-3  
 2.652000000000000E10    6.492349784821272E-3   5.816020071506500E-3  
 2.654000000000000E10    5.085000302642584E-3  -7.951514795422554E-3  
 2.656000000000000E10   -7.938860915601254E-3  -4.245671443641186E-3  
 2.658000000000000E10   -2.639747224748135E-3   7.392808794975281E-3  
 2.660000000000000E10    7.691527716815472E-3   1.504069892689586E-3  
 2.662000000000000E10    4.653481009881944E-4  -7.918690331280232E-3  
 2.664000000000000E10   -7.809596601873636E-3   1.239875418832526E-4  
 2.666000000000000E10    1.522960606962442E-3   7.356860209256411E-3  
 2.668000000000000E10    7.417253218591213E-3  -2.718383679166436E-3  
 2.670000000000000E10   -3.353772452101111E-3  -7.395471446216106E-3  
 2.672000000000000E10   -6.524568423628807E-3   3.764757188037038E-3  
 2.674000000000000E10    5.046707112342119E-3   6.288598757237196E-3  
 2.676000000000000E10    6.046609021723270E-3  -5.740171298384666E-3  
 2.678000000000000E10   -6.292248610407114E-3  -5.267352797091007E-3  
 2.680000000000000E10   -4.429153632372618E-3   6.861540023237467E-3  
 2.682000000000000E10    7.040104828774929E-3   3.227659966796637E-3  
 2.684000000000000E10    2.514147665351629E-3  -7.207236718386412E-3  
 2.686000000000000E10   -7.485442794859409E-3  -1.325272489339113E-3  
 2.688000000000000E10   -6.125434301793575E-4   7.247146219015122E-3  
 2.690000000000000E10    7.389920763671398E-3   2.154801331926137E-4  
 2.692000000000000E10   -7.334452820941806E-4  -7.020022254437208E-3  
 2.694000000000000E10   -6.832697894424200E-3   2.058648969978094E-3  
 2.696000000000000E10    2.972956746816635E-3   7.310110144317150E-3  
 2.698000000000000E10    6.568658631294966E-3  -3.260442288592458E-3  
 2.700000000000000E10   -4.052923992276192E-3  -5.453131161630154E-3  
 2.702000000000000E10   -5.349833983927965E-3   5.659224465489388E-3  
 2.704000000000000E10    5.914408247917891E-3   4.814235027879477E-3  
 2.706000000000000E10    4.074153024703264E-3  -5.678214132785797E-3  
 2.708000000000000E10   -6.238281726837158E-3  -2.673948882147670E-3  
 2.710000000000000E10   -2.381326397880912E-3   7.234157063066959E-3  
 2.712000000000000E10    6.994663272053003E-3   1.581355347298086E-3  
 2.714000000000000E10    9.659874485805631E-4  -6.750553380697966E-3  
 2.716000000000000E10   -6.849950179457665E-3   3.018293355125934E-4  
 2.718000000000000E10    7.352734101004899E-4   7.029699627310038E-3  
 2.720000000000000E10    7.093782071024180E-3  -1.186692039482296E-3  
 2.722000000000000E10   -2.049655886366963E-3  -6.402565632015467E-3  
 2.724000000000000E10   -5.701858084648848E-3   3.241562983021140E-3  
 2.726000000000000E10    3.647600766271353E-3   5.991454236209393E-3  
 2.728000000000000E10    4.982988815754652E-3  -4.401979036629200E-3  
 2.730000000000000E10   -4.582955501973629E-3  -4.223179537802935E-3  
 2.732000000000000E10   -3.378266468644142E-3   5.187677685171366E-3  
 2.734000000000000E10    5.534731782972813E-3   2.767329569905996E-3  
 2.736000000000000E10    2.441880060359836E-3  -6.344680674374104E-3  
 2.738000000000000E10   -6.343699526041746E-3  -2.032235031947494E-3  
 2.740000000000000E10   -9.999569738283753E-4   5.943324882537127E-3  
 2.742000000000000E10    6.022655870765448E-3  -2.400836528977379E-4  
 2.744000000000000E10   -6.485386984422803E-4  -6.395139265805483E-3  
 2.746000000000000E10   -5.977764725685120E-3   1.005092868581414E-3  
 2.748000000000000E10    1.630084705539048E-3   5.667358171194792E-3  
 2.750000000000000E10    5.557435099035502E-3  -2.913013566285372E-3  
 2.752000000000000E10   -3.754474222660065E-3  -5.464145448058844E-3  
 2.754000000000000E10   -4.990443121641874E-3   3.471821779385209E-3  
 2.756000000000000E10    3.974085208028555E-3   3.952485509216785E-3  
