#  HZ   S   RI   R     50.00 
! Rohde & Schwarz ZVA40 4Ports - Version 3.90 - 1145.1110k42 SN: 100403
! Date: 2023-10-04 07:20:01
! Measurement: S12 
! 
 2.200000000000000E10    6.469196174293757E-3   1.049342681653798E-3  
 2.202000000000000E10    8.399680518778041E-5  -6.147183012217283E-3  
 2.204000000000000E10   -6.004655733704567E-3   6.703854887746275E-4  
 2.206000000000000E10    1.452682074159384E-3   5.242703016847372E-3  
 2.208000000000000E10    4.469777923077345E-3  -2.128798048943281E-3  
 2.210000000000000E10   -2.248139120638371E-3  -4.418463911861181E-3  
 2.212000000000000E10   -4.054354969412088E-3   2.995812566950917E-3  
 2.214000000000000E10    3.860851516947150E-3   3.385874442756176E-3  
 2.216000000000000E10    3.480448853224516E-3  -5.048089660704136E-3  
 2.218000000000000E10   -6.163541227579117E-3  -2.873663092032075E-3  
 2.220000000000000E10   -2.402696525678039E-3   6.532263942062855E-3  
 2.222000000000000E10    7.168231997638941E-3   1.755633624270558E-3  
 2.224000000000000E10    4.995770868845284E-4  -7.545799948275089E-3  
 2.226000000000000E10   -6.956789176911116E-3  -1.600141695234925E-4  
 2.228000000000000E10    1.614945649635047E-4   7.208912167698145E-3  
 2.230000000000000E10    6.823962554335594E-3  -2.415471826680005E-4  
 2.232000000000000E10   -1.370226964354515E-3  -6.220072042196989E-3  
 2.234000000000000E10   -6.492626853287220E-3   2.373154275119305E-3  
 2.236000000000000E10    2.788563026115298E-3   6.170299835503101E-3  
 2.238000000000000E10    4.996628966182470E-3  -3.324407851323485E-3  
 2.240000000000000E10   -4.566679708659649E-3  -3.928095102310181E-3  
 2.242000000000000E10   -3.207369241863489E-3   5.511259194463491E-3  
 2.244000000000000E10    5.751682445406914E-3   3.378691850230098E-3  
 2.246000000000000E10    2.295869868248701E-3  -5.958917085081339E-3  
 2.248000000000000E10   -6.138435099273920E-3  -1.734953606501222E-3  
 2.250000000000000E10   -1.159758772701025E-3   7.893491536378861E-3  
 2.252000000000000E10    8.565094321966171E-3   4.121449310332537E-4  
 2.254000000000000E10   -1.996561622945592E-4  -7.737719919532538E-3  
 2.256000000000000E10   -7.487977389246225E-3   1.896150293760002E-3  
 2.258000000000000E10    2.545738359913230E-3   8.201805874705315E-3  
 2.260000000000000E10    7.278290111571550E-3  -2.237003063783050E-3  
 2.262000000000000E10   -2.928054425865412E-3  -5.115577485412359E-3  
 2.264000000000000E10   -5.671272519975901E-3   3.005193313583732E-3  
 2.266000000000000E10    4.201263654977083E-3   5.528914742171764E-3  
 2.268000000000000E10    5.155241582542658E-3  -4.766772966831923E-3  
 2.270000000000000E10   -5.380836781114340E-3  -4.494920372962952E-3  
 2.272000000000000E10   -3.288978012278676E-3   6.667135283350945E-3  
 2.274000000000000E10    7.629758212715387E-3   2.613945398479700E-3  
 2.276000000000000E10    1.617329195141792E-3  -7.543358951807022E-3  
 2.278000000000000E10   -7.192729972302914E-3  -2.505543234292418E-4  
 2.280000000000000E10   -4.170850734226406E-4   7.837406359612942E-3  
 2.282000000000000E10    6.584267131984234E-3   3.948010969907045E-3  
 2.284000000000000E10   -1.633251900784671E-3  -8.108711801469326E-3  
 2.286000000000000E10   -8.445441722869873E-3   2.593414392322302E-3  
 2.288000000000000E10    3.664314746856690E-3   8.002625778317452E-3  
 2.290000000000000E10    6.361340638250113E-3  -4.842386115342379E-3  
 2.292000000000000E10   -5.450418684631586E-3  -6.215378176420927E-3  
 2.294000000000000E10   -5.471111275255680E-3   5.528225097805262E-3  
 2.296000000000000E10    5.421445704996586E-3   4.385011270642281E-3  
 2.298000000000000E10    3.633125685155392E-3  -5.803007632493973E-3  
 2.300000000000000E10   -7.061244454234839E-3  -3.837362630292773E-3  
 2.302000000000000E10   -3.040120936930180E-3   7.632038090378046E-3  
 2.304000000000000E10    8.074340410530567E-3   7.205064757727087E-4  
 2.306000000000000E10   -5.476847290992737E-4  -9.039605036377907E-3  
 2.308000000000000E10   -9.215815924108028E-3   1.597509137354791E-3  
 2.310000000000000E10    2.639779821038246E-3   8.317423053085804E-3  
 2.312000000000000E10    7.479269988834858E-3  -3.625396173447371E-3  
 2.314000000000000E10   -4.301626700907946E-3  -7.546630222350359E-3  
 2.316000000000000E10   -7.469391450285912E-3   4.634535871446133E-3  
 2.318000000000000E10    5.567078012973070E-3   6.944373715668917E-3  
 2.320000000000000E10    5.484142340719700E-3  -6.246211938560009E-3  
 2.322000000000000E10   -7.026277948170900E-3  -4.993434995412827E-3  
 2.324000000000000E10   -3.719486063346267E-3   7.516931742429733E-3  
 2.326000000000000E10    7.607644889503717E-3   2.172623295336962E-3  
 2.328000000000000E10    1.371853752061725E-3  -7.887661457061768E-3  
 2.330000000000000E10   -7.849508896470070E-3  -1.797190052457154E-4  
 2.332000000000000E10    5.857452633790672E-4   8.173170499503613E-3  
 2.334000000000000E10    9.050374850630760E-3  -1.724348170682788E-3  
 2.336000000000000E10   -2.990122884511948E-3  -9.130583144724369E-3  
 2.338000000000000E10   -9.111094288527966E-3   4.066754132509232E-3  
 2.340000000000000E10    5.158752202987671E-3   7.996070198714733E-3  
 2.342000000000000E10    7.020248565822840E-3  -6.154183298349381E-3  
 2.344000000000000E10   -7.043072953820229E-3  -6.724959705024958E-3  
 2.346000000000000E10   -5.385206546634436E-3   6.377029698342085E-3  
 2.348000000000000E10    6.675930228084326E-3   4.005619324743748E-3  
 2.350000000000000E10    2.981606405228376E-3  -7.396994624286890E-3  
 2.352000000000000E10   -7.601793389767408E-3  -2.037973143160343E-3  
 2.354000000000000E10   -1.284587779082358E-3   8.140768855810165E-3  
 2.356000000000000E10    8.531081490218639E-3  -9.278215584345162E-4  
 2.358000000000000E10   -1.962909940630198E-3  -8.001945912837982E-3  
 2.360000000000000E10   -8.476085960865021E-3   2.184636425226927E-3  
 2.362000000000000E10    3.347008023411036E-3   7.994855754077435E-3  
 2.364000000000000E10    7.421024609357119E-3  -4.434539470821619E-3  
 2.366000000000000E10   -5.102835129946470E-3  -7.509369403123856E-3  
 2.368000000000000E10   -7.646890822798014E-3   5.838030949234963E-3  
 2.370000000000000E10    6.886088754981756E-3   6.758740171790123E-3  
 2.372000000000000E10    5.648309830576181E-3  -7.764793466776609E-3  
 2.374000000000000E10   -8.527326397597790E-3  -4.057845566421747E-3  
 2.376000000000000E10   -3.050598781555891E-3   8.624345064163208E-3  
 2.378000000000000E10    9.054919704794884E-3   1.985488692298532E-3  
 2.380000000000000E10    1.210011891089380E-3  -8.517990820109844E-3  
 2.382000000000000E10   -8.043899200856686E-3  -8.512195199728012E-5  
 2.384000000000000E10    8.965218439698219E-4   8.203101344406605E-3  
 2.386000000000000E10    8.764911442995071E-3  -2.246332122012973E-3  
 2.388000000000000E10   -3.294987604022026E-3  -8.741259574890137E-3  
 2.390000000000000E10   -7.523988839238882E-3   4.981768783181906E-3  
 2.392000000000000E10    6.873422302305698E-3   7.000866811722517E-3  
 2.394000000000000E10    6.558938417583704E-3  -7.501037325710058E-3  
 2.396000000000000E10   -7.956308312714100E-3  -5.912160035222769E-3  
 2.398000000000000E10   -4.230429884046316E-3   9.269185364246368E-3  
 2.400000000000000E10    9.721228852868080E-3   3.567337058484554E-3  
 2.402000000000000E10    1.643888186663389E-3  -1.089844759553671E-2  
 2.404000000000000E10   -9.999160654842854E-3  -5.156357656233013E-4  
 2.406000000000000E10    4.093735187780112E-4   9.285069070756435E-3  
 2.408000000000000E10    9.323193691670895E-3  -2.119611250236630E-3  
 2.410000000000000E10   -2.638393547385931E-3  -8.758268319070339E-3  
 2.412000000000000E10   -7.413283456116915E-3   3.296271897852421E-3  
 2.414000000000000E10    4.093217197805643E-3   6.448382511734963E-3  
 2.416000000000000E10    6.351495161652565E-3  -5.484722089022398E-3  
 2.418000000000000E10   -6.661782041192055E-3  -6.221380084753037E-3  
 2.420000000000000E10   -5.080522503703833E-3   7.233579177409411E-3  
 2.422000000000000E10    8.406679145991802E-3   5.236742086708546E-3  
 2.424000000000000E10    4.095057956874371E-3  -1.009898725897074E-2  
 2.426000000000000E10   -1.114121638238430E-2  -3.090360434725881E-3  
 2.428000000000000E10   -2.312681637704372E-3   1.138057466596365E-2  
 2.430000000000000E10    1.086556352674961E-2   1.106604351662099E-3  
 2.432000000000000E10   -8.390907896682620E-4  -1.053361967206001E-2  
 2.434000000000000E10   -1.025510020554066E-2   1.900810166262090E-3  
 2.436000000000000E10    2.354830969125032E-3   8.679694496095181E-3  
 2.438000000000000E10    7.630356587469578E-3  -3.034531138837338E-3  
 2.440000000000000E10   -4.468705505132675E-3  -6.998055148869753E-3  
 2.442000000000000E10   -6.755817681550980E-3   5.110388156026602E-3  
 2.444000000000000E10    6.088883150368929E-3   6.228962913155556E-3  
 2.446000000000000E10    4.906059242784977E-3  -6.663438864052296E-3  
 2.448000000000000E10   -8.168986998498440E-3  -4.328881856054068E-3  
 2.450000000000000E10   -4.107109270989895E-3   8.816231973469257E-3  
 2.452000000000000E10    9.592203423380852E-3   2.990110544487834E-3  
 2.454000000000000E10    1.636375323869288E-3  -9.615186601877213E-3  
 2.456000000000000E10   -1.015280093997717E-2  -1.066479948349297E-3  
 2.458000000000000E10    2.359935460845009E-4   1.061214879155159E-2  
 2.460000000000000E10    1.045391242951155E-2  -1.754915574565530E-3  
 2.462000000000000E10   -2.952955663204193E-3  -9.506977163255215E-3  
 2.464000000000000E10   -8.479876443743706E-3   3.456137375906110E-3  
 2.466000000000000E10    3.827568376436830E-3   8.481515571475029E-3  
 2.468000000000000E10    7.822146639227867E-3  -4.671545699238777E-3  
 2.470000000000000E10   -5.589313339442015E-3  -6.919661071151495E-3  
 2.472000000000000E10   -6.375881377607584E-3   6.319876294583082E-3  
 2.474000000000000E10    6.623918190598488E-3   5.278983619064093E-3  
 2.476000000000000E10    4.612097050994635E-3  -7.706683129072189E-3  
 2.478000000000000E10   -8.444515056908131E-3  -3.227806417271495E-3  
 2.480000000000000E10   -1.656670356169343E-3   9.145973250269890E-3  
 2.482000000000000E10    9.953425265848637E-3   4.428177489899099E-4  
 2.484000000000000E10   -5.798885831609368E-4  -9.947313927114010E-3  
 2.486000000000000E10   -9.877381846308708E-3   2.254829742014408E-3  
 2.488000000000000E10    3.391827223822475E-3   9.082511998713017E-3  
 2.490000000000000E10    8.757593110203743E-3  -4.112895578145981E-3  
 2.492000000000000E10   -4.400439560413361E-3  -8.689129725098610E-3  
 2.494000000000000E10   -6.996252574026585E-3   4.633893258869648E-3  
 2.496000000000000E10    5.736571736633778E-3   6.573025602847338E-3  
 2.498000000000000E10    5.982904694974423E-3  -6.235571112483740E-3  
 2.500000000000000E10   -5.408319644629955E-3  -5.323432385921478E-3  
 2.502000000000000E10   -4.538268316537142E-3   6.440768949687481E-3  
 2.504000000000000E10    7.904294878244400E-3   2.999192802235484E-3  
 2.506000000000000E10    2.577589126303792E-3  -8.136536926031113E-3  
 2.508000000000000E10   -8.852061815559864E-3  -1.937404507771134E-3  
 2.510000000000000E10   -3.412576625123620E-4   9.481916204094887E-3  
 2.512000000000000E10    1.022201403975487E-2  -1.378359622322023E-3  
 2.514000000000000E10   -2.343211323022842E-3  -1.018279604613781E-2  
 2.516000000000000E10   -8.859626948833466E-3   3.482937347143889E-3  
 2.518000000000000E10    4.994174465537071E-3   8.402279578149319E-3  
 2.520000000000000E10    8.283233270049095E-3  -5.253519397228956E-3  
 2.522000000000000E10   -5.046511534601450E-3  -7.019149139523506E-3  
 2.524000000000000E10   -5.727386102080345E-3   6.114946212619543E-3  
 2.526000000000000E10    6.638614926487207E-3   5.652825348079205E-3  
 2.528000000000000E10    5.560194607824087E-3  -6.695881951600313E-3  
 2.530000000000000E10   -7.210359908640385E-3  -4.124189727008343E-3  
 2.532000000000000E10   -2.852131612598896E-3   7.942073047161102E-3  
 2.534000000000000E10    9.187983348965645E-3   1.869297353550792E-3  
 2.536000000000000E10    7.857489981688559E-4  -9.038014337420464E-3  
 2.538000000000000E10   -8.677573874592781E-3   3.766207373701036E-4  
 2.540000000000000E10    2.528009470552206E-3   9.605559520423412E-3  
 2.542000000000000E10    9.360632859170437E-3  -3.614889690652490E-3  
 2.544000000000000E10   -4.812174011021853E-3  -8.777518756687641E-3  
 2.546000000000000E10   -7.843207567930222E-3   6.295362953096628E-3  
 2.548000000000000E10    6.669756025075913E-3   7.145287934690714E-3  
 2.550000000000000E10    6.157045252621174E-3  -7.198495324701071E-3  
 2.552000000000000E10   -7.897426374256611E-3  -4.855946637690067E-3  
 2.554000000000000E10   -4.569588229060173E-3   8.012943901121616E-3  
 2.556000000000000E10    8.258488029241562E-3   3.587252227589488E-3  
 2.558000000000000E10    2.532120095565915E-3  -8.550478145480156E-3  
 2.560000000000000E10   -9.212332777678967E-3  -6.777910748496652E-4  
 2.562000000000000E10   -4.324777983129025E-4   9.458137676119804E-3  
 2.564000000000000E10    9.074968285858631E-3  -1.062686555087566E-3  
 2.566000000000000E10   -3.379137022420764E-3  -9.259173646569252E-3  
 2.568000000000000E10   -9.522426873445511E-3   5.204284097999334E-3  
 2.570000000000000E10    6.215755362063646E-3   8.246662095189095E-3  
 2.572000000000000E10    6.613809149712324E-3  -6.817511282861233E-3  
 2.574000000000000E10   -7.899360731244087E-3  -6.335551850497723E-3  
 2.576000000000000E10   -6.001151166856289E-3   9.281747974455357E-3  
 2.578000000000000E10    8.975252509117127E-3   4.647401627153158E-3  
 2.580000000000000E10    3.555999370291829E-3  -8.471013046801090E-3  
 2.582000000000000E10   -9.495276026427746E-3  -2.685400424525142E-3  
 2.584000000000000E10   -2.066510263830423E-3   9.726051241159439E-3  
 2.586000000000000E10    9.508541785180569E-3   8.152910741046071E-4  
 2.588000000000000E10   -6.661282968707383E-4  -8.992799557745457E-3  
 2.590000000000000E10   -9.375312365591526E-3   1.715728431008756E-3  
 2.592000000000000E10    3.262117505073547E-3   9.621950797736645E-3  
 2.594000000000000E10    9.137940593063831E-3  -4.952115006744862E-3  
 2.596000000000000E10   -6.527261342853308E-3  -8.291425183415413E-3  
 2.598000000000000E10   -7.587952539324760E-3   7.759602740406990E-3  
 2.600000000000000E10    8.765330538153648E-3   6.514311768114567E-3  
 2.602000000000000E10    4.955429583787918E-3  -9.862384758889675E-3  
 2.604000000000000E10   -1.004463061690331E-2  -4.177450202405453E-3  
 2.606000000000000E10   -2.693067770451307E-3   9.367864578962326E-3  
 2.608000000000000E10    1.005483884364367E-2   2.051382092759013E-3  
 2.610000000000000E10    1.770411618053913E-3  -1.047581713646650E-2  
 2.612000000000000E10   -1.026570703834295E-2  -9.821044513955712E-4  
 2.614000000000000E10    1.098635984817520E-4   9.993728250265122E-3  
 2.616000000000000E10    1.031487714499235E-2  -1.389178913086653E-3  
 2.618000000000000E10   -2.954377094283700E-3  -1.022661849856377E-2  
 2.620000000000000E10   -9.326797910034657E-3   3.687511198222637E-3  
 2.622000000000000E10    5.294403061270714E-3   8.052278310060501E-3  
 2.624000000000000E10    7.632716558873653E-3  -7.037801668047905E-3  
 2.626000000000000E10   -7.674331776797772E-3  -7.030903827399015E-3  
 2.628000000000000E10   -5.181780550628901E-3   8.333068341016769E-3  
 2.630000000000000E10    1.006923988461494E-2   3.820902667939663E-3  
 2.632000000000000E10    2.693323418498039E-3  -1.023914758116007E-2  
 2.634000000000000E10   -1.004383619874716E-2  -1.658903900533915E-3  
 2.636000000000000E10   -5.554122617468238E-4   1.002760510891676E-2  
 2.638000000000000E10    1.051307935267687E-2  -4.663181607611477E-4  
 2.640000000000000E10   -1.085384748876095E-3  -1.039905194193125E-2  
 2.642000000000000E10   -9.854729287326336E-3   1.837691175751388E-3  
 2.644000000000000E10    3.251339541748166E-3   9.634650312364101E-3  
 2.646000000000000E10    9.930979460477829E-3  -4.776570945978165E-3  
 2.648000000000000E10   -5.515817552804947E-3  -8.532930165529251E-3  
 2.650000000000000E10   -6.909050978720188E-3   6.939084734767675E-3  
 2.652000000000000E10    8.368302136659622E-3   5.847476888448000E-3  
 2.654000000000000E10    4.719525109976530E-3  -8.279113098978996E-3  
 2.656000000000000E10   -8.710479363799095E-3  -2.647729124873877E-3  
 2.658000000000000E10   -1.441764412447810E-3   9.248012676835060E-3  
 2.660000000000000E10    9.460178203880787E-3   6.866235053166747E-4  
 2.662000000000000E10   -2.407510182820261E-4  -8.929131552577019E-3  
 2.664000000000000E10   -8.938579820096493E-3   1.533403526991606E-3  
 2.666000000000000E10    2.998382318764925E-3   8.989654481410980E-3  
 2.668000000000000E10    8.758515119552612E-3  -3.392956219613552E-3  
 2.670000000000000E10   -3.564119804650545E-3  -7.995044812560082E-3  
 2.672000000000000E10   -7.308883126825094E-3   5.213558208197355E-3  
 2.674000000000000E10    5.946156103163958E-3   7.393063046038151E-3  
 2.676000000000000E10    6.597217638045549E-3  -6.476886570453644E-3  
 2.678000000000000E10   -7.143201772123575E-3  -5.175906699150801E-3  
 2.680000000000000E10   -4.031059332191944E-3   7.807890418916941E-3  
 2.682000000000000E10    8.068501949310303E-3   3.150566713884473E-3  
 2.684000000000000E10    2.172506647184491E-3  -7.944065146148205E-3  
 2.686000000000000E10   -8.159806951880455E-3  -9.810730116441846E-4  
 2.688000000000000E10    2.759683702606708E-4   8.156785741448402E-3  
 2.690000000000000E10    7.937604561448097E-3  -5.087871104478836E-4  
 2.692000000000000E10   -1.908420235849917E-3  -7.823633961379528E-3  
 2.694000000000000E10   -7.901390083134174E-3   2.850179793313146E-3  
 2.696000000000000E10    3.471916541457176E-3   7.633367553353310E-3  
 2.698000000000000E10    6.407659500837326E-3  -4.086653236299753E-3  
 2.700000000000000E10   -5.663750227540731E-3  -6.554436404258013E-3  
 2.702000000000000E10   -6.023682188242674E-3   6.210029125213623E-3  
 2.704000000000000E10    5.812823306769133E-3   4.973868373781443E-3  
 2.706000000000000E10    3.629853250458837E-3  -6.739122793078423E-3  
 2.708000000000000E10   -7.389727979898453E-3  -3.324177814647555E-3  
 2.710000000000000E10   -2.696107840165496E-3   7.234807591885328E-3  
 2.712000000000000E10    7.082727272063494E-3   1.554999267682433E-3  
 2.714000000000000E10   -2.651195973157883E-4  -7.126206997781992E-3  
 2.716000000000000E10   -7.370525971055031E-3   6.352191558107734E-4  
 2.718000000000000E10    6.422476726584137E-4   7.414438296109438E-3  
 2.720000000000000E10    6.620008964091539E-3  -1.501899911090732E-3  
 2.722000000000000E10   -3.143466310575604E-3  -6.314364727586508E-3  
 2.724000000000000E10   -6.699420046061277E-3   3.677130676805973E-3  
 2.726000000000000E10    3.784987842664123E-3   6.418300792574883E-3  
 2.728000000000000E10    5.006012041121721E-3  -5.136215593665838E-3  
 2.730000000000000E10   -5.740508902817965E-3  -4.764933139085770E-3  
 2.732000000000000E10   -4.301883280277252E-3   5.943571683019400E-3  
 2.734000000000000E10    6.487775128334761E-3   3.456997219473124E-3  
 2.736000000000000E10    2.859362866729498E-3  -6.507287267595530E-3  
 2.738000000000000E10   -6.925874389708042E-3  -1.662640017457306E-3  
 2.740000000000000E10   -1.101694069802761E-3   7.106067147105932E-3  
 2.742000000000000E10    6.962762214243412E-3   4.678971308749169E-4  
 2.744000000000000E10   -5.982632283121347E-4  -6.903880741447210E-3  
 2.746000000000000E10   -6.567308213561773E-3   1.258669653907418E-3  
 2.748000000000000E10    1.969943055883050E-3   6.503237411379814E-3  
 2.750000000000000E10    6.036777049303055E-3  -2.811371115967631E-3  
 2.752000000000000E10   -3.110885387286544E-3  -5.586106795817614E-3  
 2.754000000000000E10   -4.670314025133848E-3   3.967748023569584E-3  
 2.756000000000000E10    4.900305066257715E-3   3.960269968956709E-3  
