#  HZ   S   RI   R     50.00 
! Rohde & Schwarz ZVA40 4Ports - Version 3.90 - 1145.1110k42 SN: 100403
! Date: 2023-10-04 07:26:23
! Measurement: S12 
! 
 2.200000000000000E10    7.143045775592327E-3   2.493318461347371E-4  
 2.202000000000000E10   -7.710425416007638E-4  -7.670444436371326E-3  
 2.204000000000000E10   -7.266159635037184E-3   1.615970628336072E-3  
 2.206000000000000E10    2.474521985277534E-3   7.235895842313767E-3  
 2.208000000000000E10    7.532010320574045E-3  -3.209800226613879E-3  
 2.210000000000000E10   -2.993002533912659E-3  -6.689848378300667E-3  
 2.212000000000000E10   -6.159381009638310E-3   3.847596002742648E-3  
 2.214000000000000E10    4.908534232527018E-3   6.164805963635445E-3  
 2.216000000000000E10    6.256833206862211E-3  -5.529768764972687E-3  
 2.218000000000000E10   -6.115946918725967E-3  -5.160615779459477E-3  
 2.220000000000000E10   -4.151537083089352E-3   6.800700444728136E-3  
 2.222000000000000E10    7.788727525621653E-3   2.691559493541718E-3  
 2.224000000000000E10    1.439634477719665E-3  -7.930123247206211E-3  
 2.226000000000000E10   -8.040327578783035E-3  -7.149301236495376E-4  
 2.228000000000000E10    6.156397284939885E-4   7.834303192794323E-3  
 2.230000000000000E10    7.741253357380629E-3  -1.670046593062580E-3  
 2.232000000000000E10   -2.471357351168990E-3  -7.771434728056192E-3  
 2.234000000000000E10   -7.809971459209919E-3   3.197923069819808E-3  
 2.236000000000000E10    4.527647048234940E-3   7.552586495876312E-3  
 2.238000000000000E10    6.658779457211494E-3  -5.152874626219273E-3  
 2.240000000000000E10   -6.125150248408318E-3  -6.209614221006632E-3  
 2.242000000000000E10   -5.779756698757410E-3   7.111142855137587E-3  
 2.244000000000000E10    7.173824589699507E-3   4.765006247907877E-3  
 2.246000000000000E10    3.801920684054494E-3  -7.101516239345074E-3  
 2.248000000000000E10   -8.090668357908726E-3  -3.269268665462732E-3  
 2.250000000000000E10   -2.896221587434411E-3   9.195592254400253E-3  
 2.252000000000000E10    8.930815383791924E-3   1.474467222578824E-3  
 2.254000000000000E10    9.142311319010332E-5  -8.510642684996128E-3  
 2.256000000000000E10   -9.251411072909832E-3   1.995662692934275E-3  
 2.258000000000000E10    2.765871584415436E-3   9.036027826368809E-3  
 2.260000000000000E10    7.952052168548107E-3  -2.733310451731086E-3  
 2.262000000000000E10   -4.142167977988720E-3  -6.580991204828024E-3  
 2.264000000000000E10   -6.861881352961063E-3   4.333724267780781E-3  
 2.266000000000000E10    5.664390977472067E-3   7.178616244345903E-3  
 2.268000000000000E10    6.687090732157230E-3  -6.265269592404366E-3  
 2.270000000000000E10   -6.991115398705006E-3  -5.721750203520060E-3  
 2.272000000000000E10   -4.732305649667978E-3   8.353482000529766E-3  
 2.274000000000000E10    9.303708560764790E-3   3.583507845178247E-3  
 2.276000000000000E10    1.852006185799837E-3  -9.135939180850983E-3  
 2.278000000000000E10   -8.833969011902809E-3  -1.109790056943893E-3  
 2.280000000000000E10   -1.628188329050317E-4   8.666138164699078E-3  
 2.282000000000000E10    7.856339216232300E-3   4.546963144093752E-3  
 2.284000000000000E10   -1.307575963437557E-3  -9.438648819923401E-3  
 2.286000000000000E10   -9.474933147430420E-3   2.528243931010366E-3  
 2.288000000000000E10    4.335429519414902E-3   9.108435362577438E-3  
 2.290000000000000E10    8.248046040534973E-3  -5.810308735817671E-3  
 2.292000000000000E10   -6.528799422085285E-3  -7.546342909336090E-3  
 2.294000000000000E10   -6.605600472539663E-3   6.658233236521483E-3  
 2.296000000000000E10    7.265389896929264E-3   5.205388646572828E-3  
 2.298000000000000E10    5.219065584242344E-3  -7.644421886652708E-3  
 2.300000000000000E10   -8.317721076309681E-3  -5.050937179476023E-3  
 2.302000000000000E10   -3.405802650377154E-3   8.857497945427895E-3  
 2.304000000000000E10    1.008550543338060E-2   1.364269410260022E-3  
 2.306000000000000E10    4.602512635756284E-4  -1.066514849662781E-2  
 2.308000000000000E10   -1.006779260933399E-2   1.146805938333273E-3  
 2.310000000000000E10    3.144293092191219E-3   9.301625192165375E-3  
 2.312000000000000E10    9.112020023167133E-3  -4.547162447124720E-3  
 2.314000000000000E10   -5.083896685391665E-3  -9.151002392172813E-3  
 2.316000000000000E10   -8.544811047613621E-3   5.668288096785545E-3  
 2.318000000000000E10    7.853456772863865E-3   8.084997534751892E-3  
 2.320000000000000E10    7.074739784002304E-3  -8.504327386617661E-3  
 2.322000000000000E10   -8.764472790062428E-3  -5.718616303056479E-3  
 2.324000000000000E10   -4.100932739675045E-3   9.252035059034824E-3  
 2.326000000000000E10    9.399997070431709E-3   2.733949339017272E-3  
 2.328000000000000E10    1.853235531598330E-3  -9.235857054591179E-3  
 2.330000000000000E10   -8.789348416030407E-3  -8.491417975164950E-4  
 2.332000000000000E10    2.039068494923413E-4   9.276879951357842E-3  
 2.334000000000000E10    9.869215078651905E-3  -1.102203386835754E-3  
 2.336000000000000E10   -2.472288906574249E-3  -1.025456562638283E-2  
 2.338000000000000E10   -9.816155768930912E-3   4.235450644046068E-3  
 2.340000000000000E10    6.773090455681086E-3   9.018058888614178E-3  
 2.342000000000000E10    8.417983539402485E-3  -7.787792012095451E-3  
 2.344000000000000E10   -7.957225665450096E-3  -6.765170954167843E-3  
 2.346000000000000E10   -5.182558670639992E-3   8.752991445362568E-3  
 2.348000000000000E10    9.099509567022324E-3   4.214919637888670E-3  
 2.350000000000000E10    4.012090619653463E-3  -9.216822683811188E-3  
 2.352000000000000E10   -9.200111031532288E-3  -3.135934239253402E-3  
 2.354000000000000E10   -1.154002151452005E-3   1.017765607684851E-2  
 2.356000000000000E10    1.053910888731480E-2  -3.504430642351508E-4  
 2.358000000000000E10   -7.727708434686065E-4  -1.016696915030479E-2  
 2.360000000000000E10   -9.279437363147736E-3   1.897179987281561E-3  
 2.362000000000000E10    3.356216708198190E-3   8.738624863326550E-3  
 2.364000000000000E10    8.909219875931740E-3  -4.586544353514910E-3  
 2.366000000000000E10   -5.159367807209492E-3  -8.046288043260574E-3  
 2.368000000000000E10   -7.853818126022816E-3   6.497482303529978E-3  
 2.370000000000000E10    7.899928838014603E-3   6.856807041913271E-3  
 2.372000000000000E10    5.374460015445948E-3  -8.961211889982224E-3  
 2.374000000000000E10   -1.051238272339106E-2  -3.943026531487703E-3  
 2.376000000000000E10   -2.815786050632596E-3   1.081375032663345E-2  
 2.378000000000000E10    1.046568062156439E-2   1.400171779096127E-3  
 2.380000000000000E10    8.694974821992219E-4  -1.042505633085966E-2  
 2.382000000000000E10   -1.074548158794642E-2   3.190230927430093E-4  
 2.384000000000000E10    1.125727198086679E-3   1.107283215969801E-2  
 2.386000000000000E10    1.085383165627718E-2  -1.563430880196393E-3  
 2.388000000000000E10   -3.040261799469590E-3  -1.014867145568132E-2  
 2.390000000000000E10   -9.290233254432678E-3   4.975990392267704E-3  
 2.392000000000000E10    6.080684717744589E-3   8.876171894371510E-3  
 2.394000000000000E10    7.861650548875332E-3  -7.014408241957426E-3  
 2.396000000000000E10   -8.559825830161572E-3  -5.531912669539452E-3  
 2.398000000000000E10   -4.215107299387455E-3   9.954810142517090E-3  
 2.400000000000000E10    1.105574984103441E-2   2.998206065967679E-3  
 2.402000000000000E10    2.871814940590411E-4  -1.080349925905466E-2  
 2.404000000000000E10   -1.098430901765823E-2   1.241236575879157E-3  
 2.406000000000000E10    3.133508842438459E-3   1.110161282122135E-2  
 2.408000000000000E10    1.179961021989584E-2  -3.055172739550471E-3  
 2.410000000000000E10   -3.443178022280335E-3  -1.022811513394117E-2  
 2.412000000000000E10   -9.463274851441383E-3   4.752187523990870E-3  
 2.414000000000000E10    5.375193897634745E-3   9.919861331582069E-3  
 2.416000000000000E10    9.143947623670101E-3  -5.707369651645422E-3  
 2.418000000000000E10   -7.019644137471914E-3  -8.293615654110909E-3  
 2.420000000000000E10   -6.449733860790730E-3   7.712808903306723E-3  
 2.422000000000000E10    8.662451058626175E-3   6.017292849719524E-3  
 2.424000000000000E10    4.794113803654909E-3  -1.018169336020947E-2  
 2.426000000000000E10   -1.051340624690056E-2  -2.814116422086954E-3  
 2.428000000000000E10   -1.006422913633287E-3   1.069665607064962E-2  
 2.430000000000000E10    1.050532702356577E-2  -9.204868110828102E-4  
 2.432000000000000E10   -2.181312069296837E-3  -1.054513920098543E-2  
 2.434000000000000E10   -1.025834213942289E-2   2.964994404464960E-3  
 2.436000000000000E10    4.280223511159420E-3   9.341833181679249E-3  
 2.438000000000000E10    8.913005702197552E-3  -5.282765254378319E-3  
 2.440000000000000E10   -5.979698151350021E-3  -8.977113291621208E-3  
 2.442000000000000E10   -8.671098388731480E-3   6.434608716517687E-3  
 2.444000000000000E10    7.228303235024214E-3   7.575605995953083E-3  
 2.446000000000000E10    6.671724375337362E-3  -8.148272521793842E-3  
 2.448000000000000E10   -9.070784784853458E-3  -6.436225026845932E-3  
 2.450000000000000E10   -6.150165572762489E-3   9.741278365254402E-3  
 2.452000000000000E10    9.624414145946503E-3   4.228082951158285E-3  
 2.454000000000000E10    2.816095016896725E-3  -9.566430002450943E-3  
 2.456000000000000E10   -1.008454617112875E-2  -1.368188648484647E-3  
 2.458000000000000E10   -2.433083864161745E-4   1.014508400112391E-2  
 2.460000000000000E10    9.560260921716690E-3  -2.045109402388334E-3  
 2.462000000000000E10   -3.394710365682840E-3  -8.546062745153904E-3  
 2.464000000000000E10   -8.738755248486996E-3   4.026362672448158E-3  
 2.466000000000000E10    4.930995404720306E-3   7.955360226333141E-3  
 2.468000000000000E10    7.874461822211742E-3  -5.384005140513182E-3  
 2.470000000000000E10   -6.416931748390198E-3  -8.009516634047031E-3  
 2.472000000000000E10   -7.489261217415333E-3   7.297115866094828E-3  
 2.474000000000000E10    7.795782759785652E-3   7.301452569663525E-3  
 2.476000000000000E10    6.750994827598333E-3  -8.594716899096966E-3  
 2.478000000000000E10   -9.845140390098095E-3  -5.011999048292637E-3  
 2.480000000000000E10   -3.532275091856718E-3   1.043486315757036E-2  
 2.482000000000000E10    1.070558838546276E-2   2.434006426483393E-3  
 2.484000000000000E10    6.559568573720753E-4  -1.053341757506132E-2  
 2.486000000000000E10   -1.057907566428185E-2   1.626140787266195E-3  
 2.488000000000000E10    3.183856606483460E-3   9.978868998587132E-3  
 2.490000000000000E10    9.268924593925476E-3  -3.958520013839006E-3  
 2.492000000000000E10   -4.847790580242872E-3  -8.843297138810158E-3  
 2.494000000000000E10   -8.359065279364586E-3   5.851664580404759E-3  
 2.496000000000000E10    7.025672588497400E-3   7.759528234601021E-3  
 2.498000000000000E10    6.807222962379456E-3  -7.028259336948395E-3  
 2.500000000000000E10   -7.138868328183889E-3  -6.016031373292208E-3  
 2.502000000000000E10   -5.820943042635918E-3   8.760070428252220E-3  
 2.504000000000000E10    9.095473214983940E-3   4.719065967947245E-3  
 2.506000000000000E10    3.952891100198031E-3  -8.908794261515141E-3  
 2.508000000000000E10   -9.795610792934895E-3  -2.587856724858284E-3  
 2.510000000000000E10   -1.503443694673479E-3   1.061898283660412E-2  
 2.512000000000000E10    1.079759746789932E-2   5.814581527374685E-4  
 2.514000000000000E10   -1.391833531670272E-3  -9.908678941428661E-3  
 2.516000000000000E10   -9.504392743110657E-3   3.279266878962517E-3  
 2.518000000000000E10    4.252618644386530E-3   9.877997450530529E-3  
 2.520000000000000E10    8.238276466727257E-3  -4.559699911624193E-3  
 2.522000000000000E10   -5.841729696840048E-3  -7.157061249017716E-3  
 2.524000000000000E10   -7.081118877977133E-3   7.119813933968544E-3  
 2.526000000000000E10    7.540117949247360E-3   7.165262009948492E-3  
 2.528000000000000E10    5.885583814233542E-3  -8.001998998224735E-3  
 2.530000000000000E10   -9.529366157948971E-3  -4.871888086199760E-3  
 2.532000000000000E10   -3.957455046474934E-3   1.082519348710775E-2  
 2.534000000000000E10    1.102914661169052E-2   3.205206943675876E-3  
 2.536000000000000E10    1.660824054852128E-3  -1.077088061720133E-2  
 2.538000000000000E10   -1.109492406249046E-2   6.137313321232796E-4  
 2.540000000000000E10    1.592159387655556E-3   1.123540569096804E-2  
 2.542000000000000E10    1.065571233630180E-2  -2.718317555263639E-3  
 2.544000000000000E10   -4.404280334711075E-3  -9.269547648727894E-3  
 2.546000000000000E10   -8.902527391910553E-3   5.732884630560875E-3  
 2.548000000000000E10    6.790144834667444E-3   8.000479079782963E-3  
 2.550000000000000E10    6.189141422510147E-3  -7.309714797884226E-3  
 2.552000000000000E10   -8.353121578693390E-3  -5.303235724568367E-3  
 2.554000000000000E10   -4.996309056878090E-3   8.940367028117180E-3  
 2.556000000000000E10    9.244041517376900E-3   3.751477925106883E-3  
 2.558000000000000E10    2.788410522043705E-3  -1.004548370838165E-2  
 2.560000000000000E10   -1.099840924143791E-2  -1.950539532117546E-3  
 2.562000000000000E10   -1.022164477035403E-3   1.120294071733952E-2  
 2.564000000000000E10    1.109994575381279E-2  -9.020040743052959E-4  
 2.566000000000000E10   -3.013750072568655E-3  -1.190738100558519E-2  
 2.568000000000000E10   -1.181258447468281E-2   4.782092757523060E-3  
 2.570000000000000E10    6.417860276997089E-3   9.440927766263485E-3  
 2.572000000000000E10    7.709944620728493E-3  -7.162597030401230E-3  
 2.574000000000000E10   -8.813088759779930E-3  -7.490464486181736E-3  
 2.576000000000000E10   -7.083859294652939E-3   9.389556944370270E-3  
 2.578000000000000E10    9.414270520210266E-3   4.808603785932064E-3  
 2.580000000000000E10    3.294795984402299E-3  -1.009768340736628E-2  
 2.582000000000000E10   -1.116683147847652E-2  -2.974652219563723E-3  
 2.584000000000000E10   -2.000398468226194E-3   1.087848283350468E-2  
 2.586000000000000E10    1.076991111040115E-2  -8.591327059548348E-5  
 2.588000000000000E10   -1.293748500756919E-3  -1.122487336397171E-2  
 2.590000000000000E10   -1.083730533719063E-2   2.030961448326707E-3  
 2.592000000000000E10    3.168141702190042E-3   1.106231752783060E-2  
 2.594000000000000E10    1.071161683648825E-2  -5.294078029692173E-3  
 2.596000000000000E10   -6.479695904999971E-3  -1.006196066737175E-2  
 2.598000000000000E10   -9.062972851097584E-3   7.716164924204350E-3  
 2.600000000000000E10    8.479152806103230E-3   7.835051044821739E-3  
 2.602000000000000E10    6.410819012671709E-3  -1.005697716027498E-2  
 2.604000000000000E10   -1.004365365952253E-2  -4.750295076519251E-3  
 2.606000000000000E10   -3.499486017972231E-3   9.881692938506603E-3  
 2.608000000000000E10    1.080051157623529E-2   2.222089096903801E-3  
 2.610000000000000E10    1.740445732139051E-3  -1.074513327330351E-2  
 2.612000000000000E10   -1.095481496304274E-2  -4.809235979337245E-4  
 2.614000000000000E10    9.372449130751193E-4   1.131562795490027E-2  
 2.616000000000000E10    1.151331420987845E-2  -2.368592424318194E-3  
 2.618000000000000E10   -3.588519059121609E-3  -1.144894212484360E-2  
 2.620000000000000E10   -1.052910089492798E-2   5.151414312422276E-3  
 2.622000000000000E10    6.641908083111048E-3   9.880029596388340E-3  
 2.624000000000000E10    9.347833693027496E-3  -7.578006479889154E-3  
 2.626000000000000E10   -8.187759667634964E-3  -8.241668343544006E-3  
 2.628000000000000E10   -6.652716081589460E-3   9.433871135115624E-3  
 2.630000000000000E10    1.036416366696358E-2   5.272450856864452E-3  
 2.632000000000000E10    3.904273267835379E-3  -9.852191433310509E-3  
 2.634000000000000E10   -9.679156355559826E-3  -2.609094372019172E-3  
 2.636000000000000E10   -1.267280429601669E-3   1.011312939226627E-2  
 2.638000000000000E10    1.027416903525591E-2   5.351848667487502E-4  
 2.640000000000000E10   -4.759228031616658E-4  -1.007305271923542E-2  
 2.642000000000000E10   -1.036554388701916E-2   2.087621251121163E-3  
 2.644000000000000E10    3.738430328667164E-3   1.060242764651775E-2  
 2.646000000000000E10    1.040756143629551E-2  -4.668239038437605E-3  
 2.648000000000000E10   -6.254686973989010E-3  -9.477335959672928E-3  
 2.650000000000000E10   -8.550519123673439E-3   8.757888339459896E-3  
 2.652000000000000E10    8.855126798152924E-3   7.613443769514561E-3  
 2.654000000000000E10    5.826646927744150E-3  -9.358854033052921E-3  
 2.656000000000000E10   -1.062498334795237E-2  -4.216542933136225E-3  
 2.658000000000000E10   -2.861145883798599E-3   1.067104283720255E-2  
 2.660000000000000E10    1.038522738963366E-2   1.889179577119649E-3  
 2.662000000000000E10    5.179400905035436E-4  -9.664229117333889E-3  
 2.664000000000000E10   -9.903635829687119E-3   7.765478221699596E-4  
 2.666000000000000E10    1.868268358521164E-3   9.811833500862122E-3  
 2.668000000000000E10    9.026900865137577E-3  -2.474402775987983E-3  
 2.670000000000000E10   -4.020617809146643E-3  -8.375335484743118E-3  
 2.672000000000000E10   -8.335775695741177E-3   5.476903170347214E-3  
 2.674000000000000E10    5.787255708128214E-3   7.945957593619824E-3  
 2.676000000000000E10    6.767451297491789E-3  -6.716160103678703E-3  
 2.678000000000000E10   -8.172590285539627E-3  -5.825799424201250E-3  
 2.680000000000000E10   -5.044830031692982E-3   8.497038856148720E-3  
 2.682000000000000E10    8.872885257005692E-3   4.083555657416582E-3  
 2.684000000000000E10    3.257164964452386E-3  -9.207928553223610E-3  
 2.686000000000000E10   -9.655286557972431E-3  -1.990628894418478E-3  
 2.688000000000000E10   -1.068265177309513E-3   9.430289268493652E-3  
 2.690000000000000E10    9.346611797809601E-3   6.360468978527933E-5  
 2.692000000000000E10   -1.103585353121162E-3  -9.536623023450375E-3  
 2.694000000000000E10   -9.164267219603062E-3   2.305794972926378E-3  
 2.696000000000000E10    3.421709639951587E-3   7.747390307486057E-3  
 2.698000000000000E10    7.451652549207211E-3  -4.805430304259062E-3  
 2.700000000000000E10   -5.470513831824064E-3  -7.163354661315680E-3  
 2.702000000000000E10   -6.172502413392067E-3   5.931156221777201E-3  
 2.704000000000000E10    6.980095990002155E-3   4.862776491791010E-3  
 2.706000000000000E10    4.465330392122269E-3  -7.670009974390268E-3  
 2.708000000000000E10   -7.703355979174376E-3  -3.834670176729560E-3  
 2.710000000000000E10   -3.147369017824531E-3   7.957659661769867E-3  
 2.712000000000000E10    8.246105164289475E-3   1.289176754653454E-3  
 2.714000000000000E10    7.911818102002144E-4  -8.533489890396595E-3  
 2.716000000000000E10   -8.609096519649029E-3  -3.454073448665440E-4  
 2.718000000000000E10    5.089768674224615E-4   7.660936564207077E-3  
 2.720000000000000E10    7.796092424541712E-3  -1.710534561425448E-3  
 2.722000000000000E10   -2.495376393198967E-3  -8.108132518827915E-3  
 2.724000000000000E10   -7.477408740669489E-3   2.777148736640811E-3  
 2.726000000000000E10    3.947319928556681E-3   6.635459139943123E-3  
 2.728000000000000E10    6.227992475032806E-3  -5.329969339072704E-3  
 2.730000000000000E10   -5.533692892640829E-3  -5.731155630201101E-3  
 2.732000000000000E10   -4.428135696798563E-3   5.841147620230913E-3  
 2.734000000000000E10    6.165531463921070E-3   3.601526375859976E-3  
 2.736000000000000E10    2.958228578791022E-3  -7.068753708153963E-3  
 2.738000000000000E10   -7.318340241909027E-3  -2.062842948362231E-3  
 2.740000000000000E10   -1.302687916904688E-3   7.521744351834059E-3  
 2.742000000000000E10    7.254392839968205E-3   2.828013675753027E-4  
 2.744000000000000E10   -4.860019835177809E-4  -7.766195572912693E-3  
 2.746000000000000E10   -7.498078979551792E-3   1.193615375086665E-3  
 2.748000000000000E10    1.989841694012284E-3   7.512385956943035E-3  
 2.750000000000000E10    7.374109234660864E-3  -2.618463244289160E-3  
 2.752000000000000E10   -3.316815942525864E-3  -6.530575454235077E-3  
 2.754000000000000E10   -5.817972123622894E-3   4.253067076206207E-3  
 2.756000000000000E10    4.507439211010933E-3   5.705921910703182E-3  
