#  HZ   S   RI   R     50.00 
! Rohde & Schwarz ZVA40 4Ports - Version 3.90 - 1145.1110k42 SN: 100403
! Date: 2023-10-04 07:26:59
! Measurement: S12 
! 
 2.200000000000000E10    8.785355836153030E-3  -3.081201866734773E-4  
 2.202000000000000E10   -1.903442433103919E-3  -8.187055587768555E-3  
 2.204000000000000E10   -7.496923208236694E-3   2.801603870466352E-3  
 2.206000000000000E10    3.819210221990943E-3   7.682052906602621E-3  
 2.208000000000000E10    6.725190207362175E-3  -3.868479980155826E-3  
 2.210000000000000E10   -4.076105076819658E-3  -5.235529970377684E-3  
 2.212000000000000E10   -5.316964816302061E-3   5.762738175690174E-3  
 2.214000000000000E10    6.149269640445709E-3   5.795971024781466E-3  
 2.216000000000000E10    4.522334318608046E-3  -6.869481410831213E-3  
 2.218000000000000E10   -8.054409176111221E-3  -3.456366481259465E-3  
 2.220000000000000E10   -2.431920962408185E-3   9.031306952238083E-3  
 2.222000000000000E10    9.803090244531632E-3   1.227535074576736E-3  
 2.224000000000000E10   -2.307654503965750E-4  -9.166173636913300E-3  
 2.226000000000000E10   -9.338816627860069E-3   1.151640200987458E-3  
 2.228000000000000E10    2.290856325998902E-3   9.337984025478363E-3  
 2.230000000000000E10    8.878815919160843E-3  -2.849374432116747E-3  
 2.232000000000000E10   -3.531549824401736E-3  -8.238010108470917E-3  
 2.234000000000000E10   -8.478977717459202E-3   5.356670357286930E-3  
 2.236000000000000E10    6.255862768739462E-3   7.298668846487999E-3  
 2.238000000000000E10    6.116121541708708E-3  -6.755889859050512E-3  
 2.240000000000000E10   -7.831950671970844E-3  -5.268369801342487E-3  
 2.242000000000000E10   -4.439643118530512E-3   8.088856004178524E-3  
 2.244000000000000E10    8.020294830203056E-3   2.892113523557782E-3  
 2.246000000000000E10    2.176227280870080E-3  -8.704240433871746E-3  
 2.248000000000000E10   -1.003461983054876E-2  -2.158431336283684E-3  
 2.250000000000000E10   -1.380953122861683E-3   1.024320069700480E-2  
 2.252000000000000E10    1.016789767891169E-2  -9.832178475335240E-4  
 2.254000000000000E10   -2.621533581987023E-3  -1.018640492111445E-2  
 2.256000000000000E10   -1.014672964811325E-2   3.538412973284721E-3  
 2.258000000000000E10    3.989246673882008E-3   9.254095144569874E-3  
 2.260000000000000E10    7.519941311329603E-3  -4.485615994781256E-3  
 2.262000000000000E10   -5.321834702044725E-3  -6.613809149712324E-3  
 2.264000000000000E10   -7.559347897768021E-3   5.964529700577259E-3  
 2.266000000000000E10    6.761602126061916E-3   6.882823072373867E-3  
 2.268000000000000E10    5.670377053320408E-3  -7.770880125463009E-3  
 2.270000000000000E10   -9.120914153754711E-3  -4.763829987496138E-3  
 2.272000000000000E10   -3.624090226367116E-3   1.020532939583063E-2  
 2.274000000000000E10    1.051119901239872E-2   1.942340401001275E-3  
 2.276000000000000E10    6.312654586508870E-4  -1.068612467497587E-2  
 2.278000000000000E10   -1.027805730700493E-2   5.577450501732528E-4  
 2.280000000000000E10    1.467628637328744E-3   1.053744833916426E-2  
 2.282000000000000E10    9.771103970706463E-3   4.528115969151259E-3  
 2.284000000000000E10   -3.017008770257235E-3  -1.049618050456047E-2  
 2.286000000000000E10   -9.999291971325874E-3   5.053235217928886E-3  
 2.288000000000000E10    6.241062656044960E-3   9.364073164761066E-3  
 2.290000000000000E10    7.380276918411255E-3  -7.203076500445604E-3  
 2.292000000000000E10   -7.661309558898211E-3  -6.434672046452761E-3  
 2.294000000000000E10   -4.915553610771895E-3   7.931064814329147E-3  
 2.296000000000000E10    8.667433634400368E-3   4.295993130654097E-3  
 2.298000000000000E10    4.275248851627111E-3  -9.219772182404995E-3  
 2.300000000000000E10   -9.915294125676155E-3  -3.226590575650334E-3  
 2.302000000000000E10   -1.222944119945169E-3   1.141771115362644E-2  
 2.304000000000000E10    1.193246990442276E-2  -4.425650986377150E-4  
 2.306000000000000E10   -2.097530756145716E-3  -1.154234539717436E-2  
 2.308000000000000E10   -1.089052669703960E-2   4.266500473022461E-3  
 2.310000000000000E10    5.313050467520952E-3   1.043796539306641E-2  
 2.312000000000000E10    9.388401173055172E-3  -5.863554310053587E-3  
 2.314000000000000E10   -6.567107513546944E-3  -8.780246600508690E-3  
 2.316000000000000E10   -8.562482893466950E-3   7.671859581023455E-3  
 2.318000000000000E10    9.150953963398933E-3   7.571643684059382E-3  
 2.320000000000000E10    5.629158113151789E-3  -9.855505079030991E-3  
 2.322000000000000E10   -1.056229416280985E-2  -4.642417188733816E-3  
 2.324000000000000E10   -2.855525817722082E-3   1.076973974704742E-2  
 2.326000000000000E10    1.087950635701418E-2   1.604832708835602E-3  
 2.328000000000000E10    2.009581512538716E-4  -1.031844783574343E-2  
 2.330000000000000E10   -1.036576367914677E-2   1.201952807605267E-3  
 2.332000000000000E10    2.260520122945309E-3   1.064977981150150E-2  
 2.334000000000000E10    1.049954630434513E-2  -3.402521600946784E-3  
 2.336000000000000E10   -5.205028690397739E-3  -1.070734113454819E-2  
 2.338000000000000E10   -1.005998533219099E-2   7.571337278932333E-3  
 2.340000000000000E10    9.547086432576180E-3   8.769509382545948E-3  
 2.342000000000000E10    7.787867914885283E-3  -9.138946421444416E-3  
 2.344000000000000E10   -1.011885888874531E-2  -6.157953292131424E-3  
 2.346000000000000E10   -4.960924852639437E-3   1.076640281826258E-2  
 2.348000000000000E10    1.003501936793327E-2   3.900439245626330E-3  
 2.350000000000000E10    3.252177499234676E-3  -1.046055369079113E-2  
 2.352000000000000E10   -1.138825993984938E-2  -1.337795634754002E-3  
 2.354000000000000E10    4.842939670197666E-4   1.088050380349159E-2  
 2.356000000000000E10    1.091161929070950E-2  -2.188858343288302E-3  
 2.358000000000000E10   -3.847864922136068E-3  -9.824969805777073E-3  
 2.360000000000000E10   -9.378517046570778E-3   5.193942226469517E-3  
 2.362000000000000E10    6.527061108499765E-3   9.198683314025402E-3  
 2.364000000000000E10    8.726975880563259E-3  -7.246676832437515E-3  
 2.366000000000000E10   -8.273587562143803E-3  -8.210654370486736E-3  
 2.368000000000000E10   -8.117269724607468E-3   9.492376819252968E-3  
 2.370000000000000E10    1.097098924219608E-2   7.156959269195795E-3  
 2.372000000000000E10    5.468131043016911E-3  -1.159509364515543E-2  
 2.374000000000000E10   -1.225458644330502E-2  -3.873158479109407E-3  
 2.376000000000000E10   -2.054612617939711E-3   1.149575132876635E-2  
 2.378000000000000E10    1.123005524277687E-2   6.386737222783268E-4  
 2.380000000000000E10   -8.099672850221396E-4  -1.134380977600813E-2  
 2.382000000000000E10   -1.079173199832439E-2   1.822631922550499E-3  
 2.384000000000000E10    3.436204511672258E-3   1.075809542089701E-2  
 2.386000000000000E10    9.967291727662087E-3  -5.383365321904421E-3  
 2.388000000000000E10   -7.258337922394276E-3  -9.864706546068192E-3  
 2.390000000000000E10   -9.619204327464104E-3   8.724504150450230E-3  
 2.392000000000000E10    9.395602159202099E-3   8.192551322281361E-3  
 2.394000000000000E10    6.484435871243477E-3  -1.055349223315716E-2  
 2.396000000000000E10   -1.240536663681269E-2  -5.578476935625076E-3  
 2.398000000000000E10   -4.249786026775837E-3   1.307186484336853E-2  
 2.400000000000000E10    1.244762632995844E-2   2.601434476673603E-3  
 2.402000000000000E10   -1.205531880259514E-3  -1.271307375282049E-2  
 2.404000000000000E10   -1.290158182382584E-2   2.514254767447710E-3  
 2.406000000000000E10    3.339284798130393E-3   1.236329786479473E-2  
 2.408000000000000E10    1.167736202478409E-2  -4.001100547611713E-3  
 2.410000000000000E10   -5.576575174927712E-3  -1.005347911268473E-2  
 2.412000000000000E10   -9.457052685320377E-3   6.990294903516769E-3  
 2.414000000000000E10    6.920966785401106E-3   8.972112089395523E-3  
 2.416000000000000E10    7.707356475293636E-3  -7.633351255208254E-3  
 2.418000000000000E10   -9.644690901041031E-3  -6.211266852915287E-3  
 2.420000000000000E10   -5.115606356412172E-3   1.053392793983221E-2  
 2.422000000000000E10    1.139846164733172E-2   4.207661375403404E-3  
 2.424000000000000E10    2.469162223860622E-3  -1.248421892523766E-2  
 2.426000000000000E10   -1.350424438714981E-2   1.363007613690570E-4  
 2.428000000000000E10    1.930661848746240E-3   1.376377139240503E-2  
 2.430000000000000E10    1.393401809036732E-2  -3.030420513823628E-3  
 2.432000000000000E10   -4.325109999626875E-3  -1.327927969396114E-2  
 2.434000000000000E10   -1.227459311485291E-2   5.995399318635464E-3  
 2.436000000000000E10    7.226458285003901E-3   1.132542826235294E-2  
 2.438000000000000E10    1.067829132080078E-2  -7.003475911915302E-3  
 2.440000000000000E10   -7.836184464395046E-3  -9.564860723912716E-3  
 2.442000000000000E10   -8.125765249133110E-3   8.263653144240379E-3  
 2.444000000000000E10    9.132423438131809E-3   6.183585152029991E-3  
 2.446000000000000E10    5.187098402529955E-3  -9.943096898496151E-3  
 2.448000000000000E10   -9.755154140293598E-3  -4.514744039624929E-3  
 2.450000000000000E10   -2.374578732997179E-3   1.037064008414745E-2  
 2.452000000000000E10    1.157299429178238E-2   6.248207646422088E-4  
 2.454000000000000E10   -3.136153100058436E-4  -1.190294884145260E-2  
 2.456000000000000E10   -1.182101108133793E-2   1.271829474717379E-3  
 2.458000000000000E10    3.791725728660822E-3   1.204836554825306E-2  
 2.460000000000000E10    1.172720361500979E-2  -5.844740197062492E-3  
 2.462000000000000E10   -6.246567238122225E-3  -1.130973175168037E-2  
 2.464000000000000E10   -9.687383659183979E-3   6.754146423190832E-3  
 2.466000000000000E10    7.167834322899580E-3   8.281484246253967E-3  
 2.468000000000000E10    8.180541917681694E-3  -8.341893553733826E-3  
 2.470000000000000E10   -8.980794809758663E-3  -7.607709616422653E-3  
 2.472000000000000E10   -6.441614124923945E-3   8.957864716649056E-3  
 2.474000000000000E10    9.733451530337334E-3   5.182512104511261E-3  
 2.476000000000000E10    4.010126460343599E-3  -1.083612442016602E-2  
 2.478000000000000E10   -1.134870480746031E-2  -2.342061838135123E-3  
 2.480000000000000E10   -7.248364854604006E-4   1.161081343889237E-2  
 2.482000000000000E10    1.180355623364449E-2  -1.060080481693149E-3  
 2.484000000000000E10   -2.742809010669589E-3  -1.138244569301605E-2  
 2.486000000000000E10   -1.111918501555920E-2   4.523983225226402E-3  
 2.488000000000000E10    5.665919277817011E-3   9.721091017127037E-3  
 2.490000000000000E10    8.732834830880165E-3  -6.516152992844582E-3  
 2.492000000000000E10   -7.094741333276033E-3  -8.704180829226971E-3  
 2.494000000000000E10   -7.669259794056416E-3   8.416549302637577E-3  
 2.496000000000000E10    8.924961090087891E-3   7.128997705876827E-3  
 2.498000000000000E10    5.639599636197090E-3  -9.304568171501160E-3  
 2.500000000000000E10   -9.574224241077900E-3  -5.102752242237330E-3  
 2.502000000000000E10   -4.672353621572256E-3   1.043462846428156E-2  
 2.504000000000000E10    1.042438764125109E-2   3.127955598756671E-3  
 2.506000000000000E10    1.862441306002438E-3  -1.088702678680420E-2  
 2.508000000000000E10   -1.157633028924465E-2  -9.165225783362985E-4  
 2.510000000000000E10    8.358635823242366E-4   1.182517595589161E-2  
 2.512000000000000E10    1.114146970212460E-2  -3.404968883842230E-3  
 2.514000000000000E10   -5.309870932251215E-3  -1.052396278828383E-2  
 2.516000000000000E10   -1.023147255182266E-2   6.499489769339562E-3  
 2.518000000000000E10    7.446857634931803E-3   8.615390397608280E-3  
 2.520000000000000E10    7.512314710766077E-3  -8.220053277909756E-3  
 2.522000000000000E10   -9.158097207546234E-3  -7.123342249542475E-3  
 2.524000000000000E10   -6.748292595148087E-3   9.280779398977757E-3  
 2.526000000000000E10    9.558097459375858E-3   5.519518628716469E-3  
 2.528000000000000E10    4.142822232097387E-3  -1.026173401623964E-2  
 2.530000000000000E10   -1.147404126822949E-2  -3.365034470334649E-3  
 2.532000000000000E10   -2.484123688191176E-3   1.170554663985968E-2  
 2.534000000000000E10    1.090171560645104E-2   1.205880078487098E-3  
 2.536000000000000E10   -1.152547891251743E-3  -1.109846029430628E-2  
 2.538000000000000E10   -1.170531287789345E-2   2.384315943345428E-3  
 2.540000000000000E10    3.482370404526591E-3   1.115892268717289E-2  
 2.542000000000000E10    1.037793606519699E-2  -5.799928214401007E-3  
 2.544000000000000E10   -7.459140382707119E-3  -9.024101309478283E-3  
 2.546000000000000E10   -7.679109927266836E-3   9.199264459311962E-3  
 2.548000000000000E10    9.802071377635002E-3   6.669524591416121E-3  
 2.550000000000000E10    5.117042921483517E-3  -1.001777779310942E-2  
 2.552000000000000E10   -1.050246786326170E-2  -3.847963875159621E-3  
 2.554000000000000E10   -2.761507174000144E-3   1.062583737075329E-2  
 2.556000000000000E10    1.095380540937185E-2   1.606565085239708E-3  
 2.558000000000000E10    1.227109227329493E-3  -1.203113980591297E-2  
 2.560000000000000E10   -1.162344310432673E-2   6.378025282174349E-4  
 2.562000000000000E10    2.416884060949087E-3   1.131569966673851E-2  
 2.564000000000000E10    1.234492473304272E-2  -3.912726417183876E-3  
 2.566000000000000E10   -5.365115590393543E-3  -1.208502147346735E-2  
 2.568000000000000E10   -9.961564093828201E-3   7.466304581612349E-3  
 2.570000000000000E10    9.532341733574867E-3   8.311094716191292E-3  
 2.572000000000000E10    7.665354292839766E-3  -9.764715097844601E-3  
 2.574000000000000E10   -9.864415042102337E-3  -6.546960677951574E-3  
 2.576000000000000E10   -4.414627794176340E-3   1.082579325884581E-2  
 2.578000000000000E10    1.185258291661739E-2   2.343201776966453E-3  
 2.580000000000000E10    1.791746122762561E-3  -1.212750095874071E-2  
 2.582000000000000E10   -1.130684744566679E-2  -8.183926693163812E-4  
 2.584000000000000E10    1.151187112554908E-3   1.120543573051691E-2  
 2.586000000000000E10    1.221962925046682E-2  -2.730474574491382E-3  
 2.588000000000000E10   -2.778604626655579E-3  -1.166679803282023E-2  
 2.590000000000000E10   -1.122300513088703E-2   3.859338583424687E-3  
 2.592000000000000E10    6.139739416539669E-3   1.122369058430195E-2  
 2.594000000000000E10    1.081969402730465E-2  -8.122998289763928E-3  
 2.596000000000000E10   -9.648821316659451E-3  -9.530345909297466E-3  
 2.598000000000000E10   -7.542578969150782E-3   1.081799343228340E-2  
 2.600000000000000E10    1.206149067729712E-2   5.834920331835747E-3  
 2.602000000000000E10    3.779249498620629E-3  -1.280856877565384E-2  
 2.604000000000000E10   -1.198554132133722E-2  -2.531004836782813E-3  
 2.606000000000000E10   -1.021657604724169E-3   1.204387564212084E-2  
 2.608000000000000E10    1.181238424032927E-2   2.973459486383945E-4  
 2.610000000000000E10   -7.746274350211024E-4  -1.200914196670055E-2  
 2.612000000000000E10   -1.221653074026108E-2   2.243667375296354E-3  
 2.614000000000000E10    3.556534880772233E-3   1.195410918444395E-2  
 2.616000000000000E10    1.133803371340036E-2  -4.425723571330309E-3  
 2.618000000000000E10   -5.968269892036915E-3  -1.117682363837957E-2  
 2.620000000000000E10   -1.016818173229694E-2   7.446411531418562E-3  
 2.622000000000000E10    8.753926493227482E-3   9.356810711324215E-3  
 2.624000000000000E10    7.964811287820339E-3  -9.205642156302929E-3  
 2.626000000000000E10   -1.113720145076513E-2  -6.158657371997833E-3  
 2.628000000000000E10   -4.812338389456272E-3   1.213247794657946E-2  
 2.630000000000000E10    1.186362840235233E-2   3.137105843052268E-3  
 2.632000000000000E10    8.015761268325150E-4  -1.166480686515570E-2  
 2.634000000000000E10   -1.167940441519022E-2   6.015835679136217E-4  
 2.636000000000000E10    1.312786014750600E-3   1.179785188287497E-2  
 2.638000000000000E10    1.088494062423706E-2  -2.233400009572506E-3  
 2.640000000000000E10   -3.903539152815938E-3  -1.053934171795845E-2  
 2.642000000000000E10   -1.109498366713524E-2   5.305198486894369E-3  
 2.644000000000000E10    6.038954481482506E-3   1.026490889489651E-2  
 2.646000000000000E10    9.048052132129669E-3  -7.061820477247238E-3  
 2.648000000000000E10   -9.259626269340515E-3  -8.069291710853577E-3  
 2.650000000000000E10   -7.209615316241980E-3   1.023950055241585E-2  
 2.652000000000000E10    1.031153928488493E-2   5.924725439399481E-3  
 2.654000000000000E10    3.689641365781426E-3  -1.106195617467165E-2  
 2.656000000000000E10   -1.171691622585058E-2  -2.050708048045635E-3  
 2.658000000000000E10   -8.080906118266285E-4   1.129411347210407E-2  
 2.660000000000000E10    1.065421756356955E-2  -3.447231429163367E-4  
 2.662000000000000E10   -2.219193149358034E-3  -1.049703452736139E-2  
 2.664000000000000E10   -1.009155996143818E-2   3.436630591750145E-3  
 2.666000000000000E10    4.046575166285038E-3   9.117054753005505E-3  
 2.668000000000000E10    8.078869432210922E-3  -5.382318515330553E-3  
 2.670000000000000E10   -6.307328119874001E-3  -8.145625703036785E-3  
 2.672000000000000E10   -7.751030847430229E-3   6.519032176584005E-3  
 2.674000000000000E10    7.504598703235388E-3   6.978571880608797E-3  
 2.676000000000000E10    6.044727284461260E-3  -9.062147699296475E-3  
 2.678000000000000E10   -9.679189883172512E-3  -4.886620212346315E-3  
 2.680000000000000E10   -3.494576783850789E-3   9.784770198166370E-3  
 2.682000000000000E10    9.894147515296936E-3   2.090418012812734E-3  
 2.684000000000000E10    7.418256136588752E-4  -1.002604328095913E-2  
 2.686000000000000E10   -1.018293295055628E-2   1.800424797693268E-4  
 2.688000000000000E10    1.351398066617549E-3   9.567757137119770E-3  
 2.690000000000000E10    9.317750111222267E-3  -2.067965688183904E-3  
 2.692000000000000E10   -3.015507711097598E-3  -9.150736965239048E-3  
 2.694000000000000E10   -8.255396038293839E-3   4.054217599332333E-3  
 2.696000000000000E10    5.152598954737186E-3   7.993193343281746E-3  
 2.698000000000000E10    6.937909405678511E-3  -6.050596479326487E-3  
 2.700000000000000E10   -6.604085676372051E-3  -6.198653951287270E-3  
 2.702000000000000E10   -5.449504591524601E-3   7.972736842930317E-3  
 2.704000000000000E10    8.017432875931263E-3   4.311756696552038E-3  
 2.706000000000000E10    3.225442022085190E-3  -8.607625961303711E-3  
 2.708000000000000E10   -8.614571765065193E-3  -2.586333779618144E-3  
 2.710000000000000E10   -1.192265772260726E-3   9.182865731418133E-3  
 2.712000000000000E10    9.290422312915325E-3   1.219645419041626E-4  
 2.714000000000000E10   -1.800030149752274E-4  -8.715950883924961E-3  
 2.716000000000000E10   -8.488531224429607E-3   1.515200245194137E-3  
 2.718000000000000E10    2.710327971726656E-3   8.623025380074978E-3  
 2.720000000000000E10    8.503433316946030E-3  -3.033888293430209E-3  
 2.722000000000000E10   -4.173586610704660E-3  -7.414001505821943E-3  
 2.724000000000000E10   -6.583211477845907E-3   4.944944754242897E-3  
 2.726000000000000E10    5.877027753740549E-3   6.320910062640905E-3  
 2.728000000000000E10    5.042312666773796E-3  -6.554506719112396E-3  
 2.730000000000000E10   -6.751811131834984E-3  -4.631944000720978E-3  
 2.732000000000000E10   -3.450381336733699E-3   7.263435050845146E-3  
 2.734000000000000E10    7.825843058526516E-3   2.794634783640504E-3  
 2.736000000000000E10    2.129219938069582E-3  -8.137732744216919E-3  
 2.738000000000000E10   -8.771264925599098E-3  -8.456031209789217E-4  
 2.740000000000000E10    5.873418558621779E-5   8.374773897230625E-3  
 2.742000000000000E10    8.101407438516617E-3  -7.214231300167739E-4  
 2.744000000000000E10   -1.826059655286372E-3  -7.918809540569782E-3  
 2.746000000000000E10   -7.908628322184086E-3   2.633565105497837E-3  
 2.748000000000000E10    3.372895764186978E-3   7.299931254237890E-3  
 2.750000000000000E10    6.394354626536369E-3  -4.491166677325964E-3  
 2.752000000000000E10   -5.301810801029205E-3  -5.998043809086084E-3  
 2.754000000000000E10   -5.377799738198519E-3   5.669598467648029E-3  
 2.756000000000000E10    5.622892640531063E-3   4.488757811486721E-3  
