#  HZ   S   RI   R     50.00 
! Rohde & Schwarz ZVA40 4Ports - Version 3.90 - 1145.1110k42 SN: 100403
! Date: 2023-10-04 07:27:36
! Measurement: S12 
! 
 2.200000000000000E10    9.170545265078545E-3  -1.138193649239838E-3  
 2.202000000000000E10   -2.135962713509798E-3  -9.094040840864182E-3  
 2.204000000000000E10   -9.013369679450989E-3   3.346378915011883E-3  
 2.206000000000000E10    4.757873713970184E-3   8.626997470855713E-3  
 2.208000000000000E10    7.417475804686546E-3  -5.733389873057604E-3  
 2.210000000000000E10   -6.437592208385468E-3  -6.751695182174444E-3  
 2.212000000000000E10   -7.718675304204226E-3   6.590874865651131E-3  
 2.214000000000000E10    6.913537625223398E-3   6.305005401372910E-3  
 2.216000000000000E10    5.525531712919474E-3  -8.429237641394138E-3  
 2.218000000000000E10   -9.659469127655029E-3  -5.416126456111670E-3  
 2.220000000000000E10   -3.815473755821586E-3   1.000337116420269E-2  
 2.222000000000000E10    1.048677321523428E-2   1.845720922574401E-3  
 2.224000000000000E10    4.095774784218520E-5  -1.008971128612757E-2  
 2.226000000000000E10   -1.020739413797855E-2   1.067315693944693E-3  
 2.228000000000000E10    2.474606037139893E-3   9.506392292678356E-3  
 2.230000000000000E10    9.021650068461895E-3  -3.159870160743594E-3  
 2.232000000000000E10   -4.668788984417915E-3  -9.611376561224461E-3  
 2.234000000000000E10   -9.225144982337952E-3   6.334684323519468E-3  
 2.236000000000000E10    6.992418784648180E-3   8.027333766222000E-3  
 2.238000000000000E10    7.606061175465584E-3  -8.747764863073826E-3  
 2.240000000000000E10   -8.906825445592403E-3  -6.972902454435825E-3  
 2.242000000000000E10   -5.189388059079647E-3   9.279397316277027E-3  
 2.244000000000000E10    1.047377195209265E-2   3.655676729977131E-3  
 2.246000000000000E10    3.378728637471795E-3  -1.027255132794380E-2  
 2.248000000000000E10   -1.030577346682549E-2  -2.890471834689379E-3  
 2.250000000000000E10   -1.097675063647330E-3   1.055594440549612E-2  
 2.252000000000000E10    1.121203880757093E-2  -1.631248858757317E-3  
 2.254000000000000E10   -2.551661338657141E-3  -1.136372704058886E-2  
 2.256000000000000E10   -1.078899577260017E-2   3.480281680822372E-3  
 2.258000000000000E10    5.866502411663532E-3   8.977673016488552E-3  
 2.260000000000000E10    8.531813509762287E-3  -6.663009990006685E-3  
 2.262000000000000E10   -6.155284587293863E-3  -8.381004445254803E-3  
 2.264000000000000E10   -7.584618404507637E-3   6.534652318805456E-3  
 2.266000000000000E10    8.242724463343620E-3   7.214551325887442E-3  
 2.268000000000000E10    6.891964003443718E-3  -9.362478740513325E-3  
 2.270000000000000E10   -1.013101637363434E-2  -6.217911839485169E-3  
 2.272000000000000E10   -4.622636828571558E-3   1.090597826987505E-2  
 2.274000000000000E10    1.164160389453173E-2   2.411765744909644E-3  
 2.276000000000000E10    1.151879783719778E-3  -1.164212357252836E-2  
 2.278000000000000E10   -1.117884460836649E-2  -1.874990120995790E-4  
 2.280000000000000E10    9.165204828605056E-4   1.011420320719481E-2  
 2.282000000000000E10    9.633867070078850E-3   4.304167348891497E-3  
 2.284000000000000E10   -3.293883986771107E-3  -1.068564224988222E-2  
 2.286000000000000E10   -1.094457693397999E-2   5.415025632828474E-3  
 2.288000000000000E10    7.371506188064814E-3   9.869234636425972E-3  
 2.290000000000000E10    8.311021141707897E-3  -8.698250167071819E-3  
 2.292000000000000E10   -9.577512741088867E-3  -6.359519902616739E-3  
 2.294000000000000E10   -5.247503984719515E-3   1.000174600630999E-2  
 2.296000000000000E10    1.055589970201254E-2   4.906511399894953E-3  
 2.298000000000000E10    4.415728151798248E-3  -1.020043157041073E-2  
 2.300000000000000E10   -1.158587727695704E-2  -3.333440050482750E-3  
 2.302000000000000E10   -2.094179624691606E-3   1.288471650332212E-2  
 2.304000000000000E10    1.285735052078962E-2   7.264915620908141E-5  
 2.306000000000000E10   -1.753007876686752E-3  -1.243369933217764E-2  
 2.308000000000000E10   -1.165406219661236E-2   3.297943389043212E-3  
 2.310000000000000E10    4.754017572849989E-3   1.048644632101059E-2  
 2.312000000000000E10    9.611881338059902E-3  -5.562865640968084E-3  
 2.314000000000000E10   -6.271546240895987E-3  -8.703237399458885E-3  
 2.316000000000000E10   -8.335195481777191E-3   7.794715929776430E-3  
 2.318000000000000E10    9.865696541965008E-3   7.296630647033453E-3  
 2.320000000000000E10    5.577521398663521E-3  -1.089312415570021E-2  
 2.322000000000000E10   -1.162502914667130E-2  -4.489465616643429E-3  
 2.324000000000000E10   -2.376458840444684E-3   1.212758198380470E-2  
 2.326000000000000E10    1.205811556428671E-2   1.382072223350406E-3  
 2.328000000000000E10    8.666680660098791E-4  -1.147045567631722E-2  
 2.330000000000000E10   -1.207591220736504E-2   4.330734373070300E-4  
 2.332000000000000E10    1.403886824846268E-3   1.200670190155506E-2  
 2.334000000000000E10    1.217464264482260E-2  -2.832910278812051E-3  
 2.336000000000000E10   -4.659297410398722E-3  -1.227580383419991E-2  
 2.338000000000000E10   -1.136935502290726E-2   7.160680834203959E-3  
 2.340000000000000E10    8.584042079746723E-3   9.543288499116898E-3  
 2.342000000000000E10    7.710543926805258E-3  -9.227965958416462E-3  
 2.344000000000000E10   -1.095722708851099E-2  -5.718750879168510E-3  
 2.346000000000000E10   -4.555253311991692E-3   1.113618165254593E-2  
 2.348000000000000E10    1.093527395278215E-2   3.462385619059205E-3  
 2.350000000000000E10    2.869818126782775E-3  -1.162139512598515E-2  
 2.352000000000000E10   -1.228624023497105E-2  -1.226399559527636E-3  
 2.354000000000000E10    1.201241975650191E-3   1.322292443364859E-2  
 2.356000000000000E10    1.301663182675839E-2  -2.073568990454078E-3  
 2.358000000000000E10   -3.537214826792479E-3  -1.191555708646774E-2  
 2.360000000000000E10   -1.141042541712523E-2   4.840466659516096E-3  
 2.362000000000000E10    5.906133912503719E-3   1.031202264130116E-2  
 2.364000000000000E10    9.611248038709164E-3  -7.026878185570240E-3  
 2.366000000000000E10   -7.846751250326634E-3  -9.159822948276997E-3  
 2.368000000000000E10   -7.952985353767872E-3   9.164066985249519E-3  
 2.370000000000000E10    1.059942133724690E-2   6.463263649493456E-3  
 2.372000000000000E10    5.217549856752157E-3  -1.147479750216007E-2  
 2.374000000000000E10   -1.201668661087751E-2  -3.205011133104563E-3  
 2.376000000000000E10   -1.189712667837739E-3   1.196056697517633E-2  
 2.378000000000000E10    1.214510574936867E-2  -1.224327861564234E-4  
 2.380000000000000E10   -1.081669237464666E-3  -1.197720319032669E-2  
 2.382000000000000E10   -1.174961868673563E-2   2.771068597212434E-3  
 2.384000000000000E10    4.115577321499586E-3   1.203853823244572E-2  
 2.386000000000000E10    1.197693310678005E-2  -5.820325110107660E-3  
 2.388000000000000E10   -7.001569960266352E-3  -1.210526190698147E-2  
 2.390000000000000E10   -1.115576922893524E-2   8.694016374647617E-3  
 2.392000000000000E10    9.746901690959930E-3   9.653054177761078E-3  
 2.394000000000000E10    8.539204485714436E-3  -1.083930674940348E-2  
 2.396000000000000E10   -1.178501266986132E-2  -7.479434367269278E-3  
 2.398000000000000E10   -5.634587258100510E-3   1.180786918848753E-2  
 2.400000000000000E10    1.217854116111994E-2   3.380041103810072E-3  
 2.402000000000000E10   -3.043816832359880E-4  -1.267697755247355E-2  
 2.404000000000000E10   -1.240532286465168E-2   1.869547762908042E-3  
 2.406000000000000E10    3.235000418499112E-3   1.138304919004440E-2  
 2.408000000000000E10    1.081103272736073E-2  -5.401776637881994E-3  
 2.410000000000000E10   -6.794180255383253E-3  -1.065494399517775E-2  
 2.412000000000000E10   -9.858970530331135E-3   7.916082628071308E-3  
 2.414000000000000E10    8.492738939821720E-3   9.317905642092228E-3  
 2.416000000000000E10    8.686232380568981E-3  -9.998871944844723E-3  
 2.418000000000000E10   -1.168785337358713E-2  -8.846662938594818E-3  
 2.420000000000000E10   -8.238656446337700E-3   1.177191361784935E-2  
 2.422000000000000E10    1.245299726724625E-2   7.116740569472313E-3  
 2.424000000000000E10    5.545960273593664E-3  -1.411815360188484E-2  
 2.426000000000000E10   -1.469620317220688E-2  -3.231522161513567E-3  
 2.428000000000000E10   -1.175384968519211E-3   1.386784017086029E-2  
 2.430000000000000E10    1.319350861012936E-2  -6.904349429532886E-4  
 2.432000000000000E10   -2.633320866152644E-3  -1.223878003656864E-2  
 2.434000000000000E10   -1.159649249166250E-2   4.864003974944353E-3  
 2.436000000000000E10    5.818184465169907E-3   1.095145009458065E-2  
 2.438000000000000E10    9.605708532035351E-3  -6.780592724680901E-3  
 2.440000000000000E10   -8.733514696359634E-3  -8.883075788617134E-3  
 2.442000000000000E10   -8.567846380174160E-3   9.760457091033459E-3  
 2.444000000000000E10    1.031954400241375E-2   7.121788337826729E-3  
 2.446000000000000E10    6.236890796571970E-3  -1.106542907655239E-2  
 2.448000000000000E10   -1.217569131404162E-2  -4.588007926940918E-3  
 2.450000000000000E10   -4.040069878101349E-3   1.313131023198366E-2  
 2.452000000000000E10    1.396540179848671E-2   2.858380554243922E-3  
 2.454000000000000E10    1.112830243073404E-3  -1.326693221926689E-2  
 2.456000000000000E10   -1.362575031816959E-2   7.913245353847742E-4  
 2.458000000000000E10    2.397470409050584E-3   1.409501582384110E-2  
 2.460000000000000E10    1.320792268961668E-2  -3.510615322738886E-3  
 2.462000000000000E10   -4.716010298579931E-3  -1.186078786849976E-2  
 2.464000000000000E10   -9.939164854586124E-3   5.987422075122595E-3  
 2.466000000000000E10    6.547074299305677E-3   9.555525146424770E-3  
 2.468000000000000E10    8.991541340947151E-3  -7.627878338098526E-3  
 2.470000000000000E10   -8.359076455235481E-3  -7.257607299834490E-3  
 2.472000000000000E10   -6.041572429239750E-3   9.528147056698799E-3  
 2.474000000000000E10    1.073731016367674E-2   5.658288951963186E-3  
 2.476000000000000E10    4.866688512265682E-3  -1.174533646553755E-2  
 2.478000000000000E10   -1.272621564567089E-2  -2.667380031198263E-3  
 2.480000000000000E10   -6.329164025373757E-4   1.318888738751411E-2  
 2.482000000000000E10    1.337690837681294E-2  -5.141005967743695E-4  
 2.484000000000000E10   -1.966425916180015E-3  -1.362709328532219E-2  
 2.486000000000000E10   -1.308442000299692E-2   3.866514656692743E-3  
 2.488000000000000E10    5.213074386119843E-3   1.129254233092070E-2  
 2.490000000000000E10    1.076699979603291E-2  -5.544301122426987E-3  
 2.492000000000000E10   -6.806485820561647E-3  -1.014494337141514E-2  
 2.494000000000000E10   -9.384796023368835E-3   7.445770781487227E-3  
 2.496000000000000E10    8.285464718937874E-3   8.047590032219887E-3  
 2.498000000000000E10    6.243272684514523E-3  -9.369099512696266E-3  
 2.500000000000000E10   -9.905495680868626E-3  -5.603288765996695E-3  
 2.502000000000000E10   -4.882075823843479E-3   1.059069670736790E-2  
 2.504000000000000E10    1.130328420549631E-2   2.764910459518433E-3  
 2.506000000000000E10    2.325722482055426E-3  -1.160063035786152E-2  
 2.508000000000000E10   -1.267950329929590E-2  -1.382635673508048E-3  
 2.510000000000000E10    5.294372094795108E-4   1.366679370403290E-2  
 2.512000000000000E10    1.349983364343643E-2  -2.813974861055613E-3  
 2.514000000000000E10   -4.703359678387642E-3  -1.314758043736219E-2  
 2.516000000000000E10   -1.195320207625628E-2   5.708587821573019E-3  
 2.518000000000000E10    6.947964429855347E-3   1.050538662821055E-2  
 2.520000000000000E10    9.330059401690960E-3  -8.338717743754387E-3  
 2.522000000000000E10   -8.669420145452023E-3  -9.127210825681686E-3  
 2.524000000000000E10   -7.395696360617876E-3   8.937118574976921E-3  
 2.526000000000000E10    9.682642295956612E-3   6.258017849177122E-3  
 2.528000000000000E10    5.441180430352688E-3  -1.116736605763435E-2  
 2.530000000000000E10   -1.139408815652132E-2  -4.321194253861904E-3  
 2.532000000000000E10   -2.975044772028923E-3   1.194322202354670E-2  
 2.534000000000000E10    1.232248730957508E-2   8.153324597515166E-4  
 2.536000000000000E10   -9.243496460840106E-4  -1.279689092189074E-2  
 2.538000000000000E10   -1.254355721175671E-2   1.884186756797135E-3  
 2.540000000000000E10    3.731006290763617E-3   1.219549868255854E-2  
 2.542000000000000E10    1.192661188542843E-2  -6.070049013942480E-3  
 2.544000000000000E10   -7.843662053346634E-3  -1.104888133704662E-2  
 2.546000000000000E10   -1.030273176729679E-2   9.087518788874149E-3  
 2.548000000000000E10    1.036753132939339E-2   8.551950566470623E-3  
 2.550000000000000E10    6.249012891203165E-3  -1.106109376996756E-2  
 2.552000000000000E10   -1.190047990530729E-2  -5.337664857506752E-3  
 2.554000000000000E10   -3.948833793401718E-3   1.129169017076492E-2  
 2.556000000000000E10    1.120857149362564E-2   3.256157739087939E-3  
 2.558000000000000E10    1.843430451117456E-3  -1.231685373932123E-2  
 2.560000000000000E10   -1.251942012459040E-2   1.132317411247641E-4  
 2.562000000000000E10    1.326843048445880E-3   1.276847254484892E-2  
 2.564000000000000E10    1.286006346344948E-2  -2.812221413478255E-3  
 2.566000000000000E10   -5.637405440211296E-3  -1.228628680109978E-2  
 2.568000000000000E10   -1.146582141518593E-2   8.358588442206383E-3  
 2.570000000000000E10    9.454514831304550E-3   1.020567025989294E-2  
 2.572000000000000E10    8.253909647464752E-3  -9.853010997176170E-3  
 2.574000000000000E10   -1.070800982415676E-2  -6.778302602469921E-3  
 2.576000000000000E10   -5.513853393495083E-3   1.214001979678869E-2  
 2.578000000000000E10    1.312001049518585E-2   4.099023062735796E-3  
 2.580000000000000E10    2.453229390084744E-3  -1.246853731572628E-2  
 2.582000000000000E10   -1.234078686684370E-2  -4.973657196387649E-4  
 2.584000000000000E10    5.495696677826345E-4   1.332524605095387E-2  
 2.586000000000000E10    1.284345146268606E-2  -1.648965524509549E-3  
 2.588000000000000E10   -3.155983285978437E-3  -1.198364701122046E-2  
 2.590000000000000E10   -1.206191815435886E-2   4.369820468127728E-3  
 2.592000000000000E10    5.995953455567360E-3   1.290708314627409E-2  
 2.594000000000000E10    1.209398265928030E-2  -7.770036812871695E-3  
 2.596000000000000E10   -9.554835967719555E-3  -1.068222802132368E-2  
 2.598000000000000E10   -9.028716012835503E-3   1.134858652949333E-2  
 2.600000000000000E10    1.241623889654875E-2   7.568501867353916E-3  
 2.602000000000000E10    5.446591414511204E-3  -1.256822980940342E-2  
 2.604000000000000E10   -1.281433738768101E-2  -3.457834711298347E-3  
 2.606000000000000E10   -2.203751355409622E-3   1.231307350099087E-2  
 2.608000000000000E10    1.222502999007702E-2   5.634434637613595E-4  
 2.610000000000000E10   -4.920455976389349E-4  -1.260285824537277E-2  
 2.612000000000000E10   -1.270228065550327E-2   1.369231962598860E-3  
 2.614000000000000E10    2.948159584775567E-3   1.178807485848665E-2  
 2.616000000000000E10    1.199640426784754E-2  -4.127284511923790E-3  
 2.618000000000000E10   -5.487989634275436E-3  -1.182452030479908E-2  
 2.620000000000000E10   -1.124453172087669E-2   6.818431895226240E-3  
 2.622000000000000E10    8.243840187788010E-3   9.980047121644020E-3  
 2.624000000000000E10    9.053168818354607E-3  -9.686986915767193E-3  
 2.626000000000000E10   -1.146881654858589E-2  -8.525793440639973E-3  
 2.628000000000000E10   -6.746407132595778E-3   1.160977594554424E-2  
 2.630000000000000E10    1.267881318926811E-2   3.561119548976421E-3  
 2.632000000000000E10    2.116882940754294E-3  -1.342826150357723E-2  
 2.634000000000000E10   -1.270248275250197E-2  -1.162658329121769E-3  
 2.636000000000000E10    2.450907777529210E-4   1.154240407049656E-2  
 2.638000000000000E10    1.159781683236361E-2  -2.089347457513213E-3  
 2.640000000000000E10   -2.997240982949734E-3  -1.202615257352591E-2  
 2.642000000000000E10   -1.184589508920908E-2   3.722616704180837E-3  
 2.644000000000000E10    5.014607217162848E-3   1.059461291879416E-2  
 2.646000000000000E10    1.046128571033478E-2  -7.510575931519270E-3  
 2.648000000000000E10   -9.041584096848965E-3  -9.947866201400757E-3  
 2.650000000000000E10   -8.255111984908581E-3   9.409857913851738E-3  
 2.652000000000000E10    1.076663006097078E-2   6.216459441930056E-3  
 2.654000000000000E10    4.962850827723742E-3  -1.188699435442686E-2  
 2.656000000000000E10   -1.189326960593462E-2  -3.498803125694394E-3  
 2.658000000000000E10   -1.569605083204806E-3   1.190492138266563E-2  
 2.660000000000000E10    1.192511431872845E-2  -1.481728832004592E-4  
 2.662000000000000E10   -1.832495792768896E-3  -1.185092609375715E-2  
 2.664000000000000E10   -1.076366286724806E-2   2.753733191639185E-3  
 2.666000000000000E10    4.057242535054684E-3   1.004010252654553E-2  
 2.668000000000000E10    9.533078409731388E-3  -5.200287327170372E-3  
 2.670000000000000E10   -5.375609267503023E-3  -9.423804469406605E-3  
 2.672000000000000E10   -8.462324738502502E-3   6.324823480099440E-3  
 2.674000000000000E10    7.935988716781139E-3   7.954223081469536E-3  
 2.676000000000000E10    7.189309224486351E-3  -9.019286371767521E-3  
 2.678000000000000E10   -9.713755920529366E-3  -5.809942726045847E-3  
 2.680000000000000E10   -4.266768228262663E-3   9.880106896162033E-3  
 2.682000000000000E10    1.021008659154177E-2   2.955817151814699E-3  
 2.684000000000000E10    1.764992950484157E-3  -1.035709213465452E-2  
 2.686000000000000E10   -1.055000536143780E-2  -4.225462325848639E-4  
 2.688000000000000E10    1.234087860211730E-3   1.005918439477682E-2  
 2.690000000000000E10    1.004991121590138E-2  -1.616397639736533E-3  
 2.692000000000000E10   -2.987761516124010E-3  -9.653311222791672E-3  
 2.694000000000000E10   -8.769155479967594E-3   4.286491777747870E-3  
 2.696000000000000E10    5.032093729823828E-3   8.436369709670544E-3  
 2.698000000000000E10    7.629968225955963E-3  -5.521568469703198E-3  
 2.700000000000000E10   -6.811792962253094E-3  -7.342012133449316E-3  
 2.702000000000000E10   -6.280527450144291E-3   7.443899288773537E-3  
 2.704000000000000E10    8.019646629691124E-3   5.388886202126741E-3  
 2.706000000000000E10    4.600926768034697E-3  -8.228337392210960E-3  
 2.708000000000000E10   -8.399526588618755E-3  -3.558348864316940E-3  
 2.710000000000000E10   -2.354568801820278E-3   9.189202450215817E-3  
 2.712000000000000E10    9.343584068119526E-3   1.401704852469266E-3  
 2.714000000000000E10    1.136148421210237E-4  -8.829209022223949E-3  
 2.716000000000000E10   -8.773976005613804E-3   1.464227214455605E-3  
 2.718000000000000E10    1.928170211613178E-3   8.749771863222122E-3  
 2.720000000000000E10    8.436889387667179E-3  -2.785606542602181E-3  
 2.722000000000000E10   -3.688218072056770E-3  -7.718978449702263E-3  
 2.724000000000000E10   -7.544879801571369E-3   4.572624340653420E-3  
 2.726000000000000E10    5.522450897842646E-3   6.876982748508453E-3  
 2.728000000000000E10    6.441326346248388E-3  -6.124617066234350E-3  
 2.730000000000000E10   -6.742722820490599E-3  -5.456903949379921E-3  
 2.732000000000000E10   -4.645344801247120E-3   7.361990399658680E-3  
 2.734000000000000E10    7.719040848314762E-3   3.841359168291092E-3  
 2.736000000000000E10    3.178066574037075E-3  -8.032380603253841E-3  
 2.738000000000000E10   -8.472558110952377E-3  -2.141212113201618E-3  
 2.740000000000000E10   -9.029390057548881E-4   8.612654171884060E-3  
 2.742000000000000E10    8.778411895036697E-3  -2.232191764051095E-4  
 2.744000000000000E10   -1.042175455950201E-3  -8.277683518826962E-3  
 2.746000000000000E10   -7.684845011681318E-3   2.059853635728359E-3  
 2.748000000000000E10    2.980200108140707E-3   7.454952225089073E-3  
 2.750000000000000E10    7.147318217903376E-3  -4.103359300643206E-3  
 2.752000000000000E10   -4.210026934742928E-3  -6.790880113840103E-3  
 2.754000000000000E10   -5.436850711703301E-3   4.972048569470644E-3  
 2.756000000000000E10    6.024364847689867E-3   4.364270251244307E-3  
