#  HZ   S   RI   R     50.00 
! Rohde & Schwarz ZVA40 4Ports - Version 3.90 - 1145.1110k42 SN: 100403
! Date: 2023-10-04 07:28:01
! Measurement: S12 
! 
 2.200000000000000E10    9.786057285964489E-3  -3.645484568551183E-3  
 2.202000000000000E10   -4.182456526905298E-3  -8.917870931327343E-3  
 2.204000000000000E10   -8.111602626740933E-3   5.726442206650972E-3  
 2.206000000000000E10    7.175929378718138E-3   7.307244464755058E-3  
 2.208000000000000E10    6.246483419090509E-3  -7.401705253869295E-3  
 2.210000000000000E10   -7.976044900715351E-3  -6.044489331543446E-3  
 2.212000000000000E10   -4.839273635298014E-3   8.074688725173473E-3  
 2.214000000000000E10    8.671480230987072E-3   3.615077817812562E-3  
 2.216000000000000E10    3.504359396174550E-3  -1.045947708189488E-2  
 2.218000000000000E10   -1.080833841115236E-2  -2.655800199136138E-3  
 2.220000000000000E10   -1.569508749525994E-4   1.102481968700886E-2  
 2.222000000000000E10    1.147893071174622E-2  -1.189419184811413E-3  
 2.224000000000000E10   -2.859064145013690E-3  -1.070838235318661E-2  
 2.226000000000000E10   -1.003199536353350E-2   3.779388032853603E-3  
 2.228000000000000E10    4.927637986838818E-3   9.216357953846455E-3  
 2.230000000000000E10    8.837537840008736E-3  -5.646922159940004E-3  
 2.232000000000000E10   -6.577426102012396E-3  -8.583097718656063E-3  
 2.234000000000000E10   -7.464355323463678E-3   8.138340897858143E-3  
 2.236000000000000E10    9.352016262710095E-3   5.994846113026142E-3  
 2.238000000000000E10    5.613279528915882E-3  -1.013904996216297E-2  
 2.240000000000000E10   -1.009092666208744E-2  -4.068285226821899E-3  
 2.242000000000000E10   -1.414833357557654E-3   1.101890485733748E-2  
 2.244000000000000E10    1.157864555716515E-2   6.787427701056004E-4  
 2.246000000000000E10    7.652846397832036E-4  -1.094561815261841E-2  
 2.248000000000000E10   -1.135462895035744E-2   5.700235487893224E-4  
 2.250000000000000E10    2.606823341920972E-3   1.166331861168146E-2  
 2.252000000000000E10    1.211563218384981E-2  -4.286641720682383E-3  
 2.254000000000000E10   -4.854472354054451E-3  -1.168639585375786E-2  
 2.256000000000000E10   -9.653073735535145E-3   6.895963568240404E-3  
 2.258000000000000E10    8.771287277340889E-3   8.312272839248180E-3  
 2.260000000000000E10    8.539606817066670E-3  -8.190054446458817E-3  
 2.262000000000000E10   -7.183290086686611E-3  -6.584494840353727E-3  
 2.264000000000000E10   -5.710564088076353E-3   8.506986312568188E-3  
 2.266000000000000E10    1.004799176007509E-2   5.935837049037218E-3  
 2.268000000000000E10    4.742619581520557E-3  -1.090754382312298E-2  
 2.270000000000000E10   -1.119350828230381E-2  -2.854153979569674E-3  
 2.272000000000000E10   -7.234687800519168E-4   1.211738958954811E-2  
 2.274000000000000E10    1.289166137576103E-2  -1.323228352703154E-3  
 2.276000000000000E10   -2.246377756819129E-3  -1.212248113006353E-2  
 2.278000000000000E10   -1.130119897425175E-2   3.252726979553700E-3  
 2.280000000000000E10    4.478133283555508E-3   1.110810972750187E-2  
 2.282000000000000E10    1.228674408048391E-2   2.233927370980382E-3  
 2.284000000000000E10   -6.509508937597275E-3  -1.104757562279701E-2  
 2.286000000000000E10   -1.055609993636608E-2   8.890296332538128E-3  
 2.288000000000000E10    1.005164161324501E-2   9.136319160461426E-3  
 2.290000000000000E10    6.704080384224653E-3  -1.046661008149386E-2  
 2.292000000000000E10   -1.089957356452942E-2  -4.379420541226864E-3  
 2.294000000000000E10   -3.791646333411336E-3   1.130807772278786E-2  
 2.296000000000000E10    1.087412796914578E-2   3.225021529942751E-3  
 2.298000000000000E10    1.972292317077518E-3  -1.078180130571127E-2  
 2.300000000000000E10   -1.277681160718203E-2  -3.336373774800450E-4  
 2.302000000000000E10    1.558520598337054E-3   1.343803200870752E-2  
 2.304000000000000E10    1.286652404814959E-2  -4.189882893115282E-3  
 2.306000000000000E10   -6.217255257070065E-3  -1.209098380059004E-2  
 2.308000000000000E10   -1.117463596165180E-2   7.493312470614910E-3  
 2.310000000000000E10    8.612783625721932E-3   1.033120043575764E-2  
 2.312000000000000E10    8.897749707102776E-3  -8.846483193337917E-3  
 2.314000000000000E10   -9.927091188728809E-3  -7.631107699126005E-3  
 2.316000000000000E10   -7.576390635222197E-3   1.098056603223085E-2  
 2.318000000000000E10    1.239634118974209E-2   5.810379516333342E-3  
 2.320000000000000E10    3.838924691081047E-3  -1.279446482658386E-2  
 2.322000000000000E10   -1.288884691894054E-2  -1.867432263679802E-3  
 2.324000000000000E10   -2.552773221395910E-4   1.331242080777884E-2  
 2.326000000000000E10    1.258467976003885E-2  -1.109833712689579E-3  
 2.328000000000000E10   -2.605992136523128E-3  -1.163405086845160E-2  
 2.330000000000000E10   -1.182909402996302E-2   4.307368304580450E-3  
 2.332000000000000E10    5.041216034442186E-3   1.135647017508745E-2  
 2.334000000000000E10    1.122716348618269E-2  -6.465217564254999E-3  
 2.336000000000000E10   -9.082586504518986E-3  -1.068459916859865E-2  
 2.338000000000000E10   -9.636746719479561E-3   1.127911359071732E-2  
 2.340000000000000E10    1.211514603346586E-2   7.343791425228119E-3  
 2.342000000000000E10    5.158495623618364E-3  -1.231515314429998E-2  
 2.344000000000000E10   -1.340199448168278E-2  -3.408266231417656E-3  
 2.346000000000000E10   -2.432103268802166E-3   1.324356812983751E-2  
 2.348000000000000E10    1.266155205667019E-2   1.240715850144625E-3  
 2.350000000000000E10    9.876600233837962E-5  -1.237517315894365E-2  
 2.352000000000000E10   -1.265642419457436E-2   2.249253680929542E-3  
 2.354000000000000E10    3.612146712839603E-3   1.285697333514690E-2  
 2.356000000000000E10    1.178612746298313E-2  -4.973420873284340E-3  
 2.358000000000000E10   -6.740055512636900E-3  -1.024717744439840E-2  
 2.360000000000000E10   -9.939333423972130E-3   8.378961123526096E-3  
 2.362000000000000E10    9.480750188231468E-3   8.414592593908310E-3  
 2.364000000000000E10    7.324873935431242E-3  -1.045146025717259E-2  
 2.366000000000000E10   -1.134865079075098E-2  -6.264789029955864E-3  
 2.368000000000000E10   -5.631751846522093E-3   1.336502935737371E-2  
 2.370000000000000E10    1.424619182944298E-2   4.264791030436754E-3  
 2.372000000000000E10    2.808270510286093E-3  -1.377210766077042E-2  
 2.374000000000000E10   -1.438661478459835E-2  -2.736943424679339E-4  
 2.376000000000000E10    1.483751111663878E-3   1.427582465112209E-2  
 2.378000000000000E10    1.302236784249544E-2  -1.997614279389381E-3  
 2.380000000000000E10   -3.363077063113451E-3  -1.248391438275576E-2  
 2.382000000000000E10   -1.146856229752302E-2   4.935735370963812E-3  
 2.384000000000000E10    6.080936640501022E-3   1.079495530575514E-2  
 2.386000000000000E10    9.991728700697422E-3  -8.097869344055653E-3  
 2.388000000000000E10   -9.521904401481152E-3  -9.559188969433308E-3  
 2.390000000000000E10   -7.664706092327833E-3   1.100844610482454E-2  
 2.392000000000000E10    1.262872386723757E-2   6.102655082941055E-3  
 2.394000000000000E10    4.274071659892798E-3  -1.397969760000706E-2  
 2.396000000000000E10   -1.435146946460009E-2  -3.059198381379247E-3  
 2.398000000000000E10   -9.991183178499341E-4   1.512433867901564E-2  
 2.400000000000000E10    1.505083963274956E-2  -1.119825523346663E-3  
 2.402000000000000E10   -4.905130714178085E-3  -1.432971004396677E-2  
 2.404000000000000E10   -1.388645824044943E-2   5.861639976501465E-3  
 2.406000000000000E10    7.227512542158365E-3   1.289244275540113E-2  
 2.408000000000000E10    1.169798336923122E-2  -9.062897413969040E-3  
 2.410000000000000E10   -9.245915338397026E-3  -1.088362652808428E-2  
 2.412000000000000E10   -9.431132115423679E-3   9.600171819329262E-3  
 2.414000000000000E10    1.029010955244303E-2   8.084072731435299E-3  
 2.416000000000000E10    7.129014935344458E-3  -1.196918543428183E-2  
 2.418000000000000E10   -1.277070399373770E-2  -6.115620955824852E-3  
 2.420000000000000E10   -4.462787881493568E-3   1.281240116804838E-2  
 2.422000000000000E10    1.364761870354414E-2   2.369906287640333E-3  
 2.424000000000000E10    1.535689807496965E-4  -1.510158367455006E-2  
 2.426000000000000E10   -1.490193512290716E-2   2.474218606948853E-3  
 2.428000000000000E10    4.711333196610212E-3   1.378397177904844E-2  
 2.430000000000000E10    1.286252494901419E-2  -6.797100417315960E-3  
 2.432000000000000E10   -8.349965326488018E-3  -1.238116621971130E-2  
 2.434000000000000E10   -1.168375462293625E-2   9.682603180408478E-3  
 2.436000000000000E10    1.045613177120686E-2   1.000202819705010E-2  
 2.438000000000000E10    9.048728272318840E-3  -1.099578011780977E-2  
 2.440000000000000E10   -1.230503618717194E-2  -8.725777268409729E-3  
 2.442000000000000E10   -7.463105022907257E-3   1.246072165668011E-2  
 2.444000000000000E10    1.252158731222153E-2   5.876648705452681E-3  
 2.446000000000000E10    4.178535193204880E-3  -1.261500641703606E-2  
 2.448000000000000E10   -1.331012789160013E-2  -2.700611948966980E-3  
 2.450000000000000E10   -1.552182366140187E-3   1.337207667529583E-2  
 2.452000000000000E10    1.317284256219864E-2  -3.254835319239646E-4  
 2.454000000000000E10   -2.623224630951881E-3  -1.259102951735258E-2  
 2.456000000000000E10   -1.264658011496067E-2   4.485270474106073E-3  
 2.458000000000000E10    6.506842561066151E-3   1.253778208047152E-2  
 2.460000000000000E10    1.115133520215750E-2  -8.577571250498295E-3  
 2.462000000000000E10   -9.828592650592327E-3  -9.492688812315464E-3  
 2.464000000000000E10   -8.403863757848740E-3   1.051162369549274E-2  
 2.466000000000000E10    1.057267282158136E-2   7.984565570950508E-3  
 2.468000000000000E10    7.092283107340336E-3  -1.130200549960136E-2  
 2.470000000000000E10   -1.251888461410999E-2  -5.239518824964762E-3  
 2.472000000000000E10   -4.116912372410297E-3   1.304020825773478E-2  
 2.474000000000000E10    1.288031786680222E-2   3.539892146363854E-3  
 2.476000000000000E10    2.156700007617474E-3  -1.329686865210533E-2  
 2.478000000000000E10   -1.336242351680994E-2   1.842763886088505E-4  
 2.480000000000000E10    2.491801045835018E-3   1.329463534057140E-2  
 2.482000000000000E10    1.306690741330385E-2  -3.738200291991234E-3  
 2.484000000000000E10   -5.174720659852028E-3  -1.235478837043047E-2  
 2.486000000000000E10   -1.082174107432365E-2   7.315768860280514E-3  
 2.488000000000000E10    8.273977786302567E-3   9.419728070497513E-3  
 2.490000000000000E10    8.224832825362682E-3  -9.057104587554932E-3  
 2.492000000000000E10   -9.976686909794807E-3  -7.415200117975473E-3  
 2.494000000000000E10   -6.572305690497160E-3   1.089123263955116E-2  
 2.496000000000000E10    1.134640071541071E-2   4.915406927466393E-3  
 2.498000000000000E10    3.796897362917662E-3  -1.181362569332123E-2  
 2.500000000000000E10   -1.192395295947790E-2  -3.188677830621600E-3  
 2.502000000000000E10   -1.493562362156808E-3   1.289619598537684E-2  
 2.504000000000000E10    1.296177878975868E-2  -1.264343736693263E-4  
 2.506000000000000E10   -4.196527879685164E-4  -1.277973596006632E-2  
 2.508000000000000E10   -1.284603588283062E-2   1.559692784212530E-3  
 2.510000000000000E10    3.778331913053989E-3   1.318720169365406E-2  
 2.512000000000000E10    1.264041382819414E-2  -6.036380305886269E-3  
 2.514000000000000E10   -7.675941567867994E-3  -1.151783671230078E-2  
 2.516000000000000E10   -9.630626998841763E-3   8.549525402486324E-3  
 2.518000000000000E10    9.730135090649128E-3   7.679937407374382E-3  
 2.520000000000000E10    6.708011496812105E-3  -1.078394334763289E-2  
 2.522000000000000E10   -1.075612567365170E-2  -5.816175136715174E-3  
 2.524000000000000E10   -4.209240432828665E-3   1.108874939382076E-2  
 2.526000000000000E10    1.241779979318380E-2   2.953776391223073E-3  
 2.528000000000000E10    2.264686161652207E-3  -1.271954923868179E-2  
 2.530000000000000E10   -1.319414284080267E-2  -1.284648547880352E-3  
 2.532000000000000E10    1.031830441206694E-3   1.349088829010725E-2  
 2.534000000000000E10    1.354490499943495E-2  -2.202602801844478E-3  
 2.536000000000000E10   -3.522089682519436E-3  -1.346523780375719E-2  
 2.538000000000000E10   -1.229880377650261E-2   5.203779786825180E-3  
 2.540000000000000E10    7.362571544945240E-3   1.177754346281290E-2  
 2.542000000000000E10    1.110162306576967E-2  -9.531487710773945E-3  
 2.544000000000000E10   -1.068939082324505E-2  -9.675479494035244E-3  
 2.546000000000000E10   -7.628933060914278E-3   1.136387884616852E-2  
 2.548000000000000E10    1.273961365222931E-2   5.208301823586226E-3  
 2.550000000000000E10    3.487640991806984E-3  -1.333070080727339E-2  
 2.552000000000000E10   -1.279519312083721E-2  -1.862034201622009E-3  
 2.554000000000000E10   -3.353990032337606E-4   1.213277038186789E-2  
 2.556000000000000E10    1.238311082124710E-2  -1.052456093020737E-3  
 2.558000000000000E10   -2.045261207967997E-3  -1.269560866057873E-2  
 2.560000000000000E10   -1.244426518678665E-2   4.043035674840212E-3  
 2.562000000000000E10    5.515815690159798E-3   1.226805802434683E-2  
 2.564000000000000E10    1.141081005334854E-2  -7.089184131473303E-3  
 2.566000000000000E10   -9.761680848896503E-3  -1.086442172527313E-2  
 2.568000000000000E10   -9.537604637444019E-3   1.143177319318056E-2  
 2.570000000000000E10    1.208967249840498E-2   6.983513478189707E-3  
 2.572000000000000E10    5.249942187219858E-3  -1.244357973337174E-2  
 2.574000000000000E10   -1.343078073114157E-2  -4.433261230587959E-3  
 2.576000000000000E10   -2.780133625492454E-3   1.448987703770399E-2  
 2.578000000000000E10    1.381680183112621E-2   5.782066145911813E-4  
 2.580000000000000E10   -1.147130155004561E-3  -1.334691606462002E-2  
 2.582000000000000E10   -1.363749988377094E-2   3.001125995069742E-3  
 2.584000000000000E10    3.725152695551515E-3   1.335008814930916E-2  
 2.586000000000000E10    1.176295243203640E-2  -5.026472266763449E-3  
 2.588000000000000E10   -6.938665639609098E-3  -1.103883609175682E-2  
 2.590000000000000E10   -1.104271225631237E-2   7.767899893224239E-3  
 2.592000000000000E10    9.245738387107849E-3   1.088368706405163E-2  
 2.594000000000000E10    9.695661254227161E-3  -1.083913072943687E-2  
 2.596000000000000E10   -1.264827884733677E-2  -7.497553713619709E-3  
 2.598000000000000E10   -4.948085173964500E-3   1.387383323162794E-2  
 2.600000000000000E10    1.427068281918764E-2   3.693369915708900E-3  
 2.602000000000000E10    1.239070785231888E-3  -1.424073427915573E-2  
 2.604000000000000E10   -1.387881301343441E-2   6.724831764586270E-4  
 2.606000000000000E10    1.976107712835074E-3   1.350135914981365E-2  
 2.608000000000000E10    1.315790135413408E-2  -2.938572084531188E-3  
 2.610000000000000E10   -4.262207075953484E-3  -1.258947327733040E-2  
 2.612000000000000E10   -1.188772451132536E-2   5.583873949944973E-3  
 2.614000000000000E10    7.106920238584280E-3   1.153607480227947E-2  
 2.616000000000000E10    1.123451068997383E-2  -7.655330933630467E-3  
 2.618000000000000E10   -8.473581634461880E-3  -9.916878305375576E-3  
 2.620000000000000E10   -8.825322613120079E-3   9.992138482630253E-3  
 2.622000000000000E10    1.143023744225502E-2   7.677740417420864E-3  
 2.624000000000000E10    6.752286572009325E-3  -1.234960928559303E-2  
 2.626000000000000E10   -1.307438313961029E-2  -4.797663539648056E-3  
 2.628000000000000E10   -1.878442126326263E-3   1.374399196356535E-2  
 2.630000000000000E10    1.440564543008804E-2  -3.691549354698509E-4  
 2.632000000000000E10   -1.528262509964407E-3  -1.351551897823811E-2  
 2.634000000000000E10   -1.174262911081314E-2   3.225000808015466E-3  
 2.636000000000000E10    4.747564438730478E-3   1.152934785932303E-2  
 2.638000000000000E10    1.118030864745379E-2  -6.012101192027330E-3  
 2.640000000000000E10   -6.268823985010386E-3  -1.048249658197165E-2  
 2.642000000000000E10   -9.533223696053028E-3   7.013750728219748E-3  
 2.644000000000000E10    8.551059290766716E-3   8.735975250601769E-3  
 2.646000000000000E10    8.255201391875744E-3  -1.002930011600256E-2  
 2.648000000000000E10   -1.036231499165297E-2  -6.996926851570606E-3  
 2.650000000000000E10   -4.832237493246794E-3   1.145403459668160E-2  
 2.652000000000000E10    1.262813061475754E-2   3.162263892591000E-3  
 2.654000000000000E10    2.048374153673649E-3  -1.255526673048735E-2  
 2.656000000000000E10   -1.234239526093006E-2   1.522022648714483E-4  
 2.658000000000000E10    1.999184954911470E-3   1.213291287422180E-2  
 2.660000000000000E10    1.170705445110798E-2  -3.389878664165735E-3  
 2.662000000000000E10   -4.258304834365845E-3  -1.085893437266350E-2  
 2.664000000000000E10   -9.664417244493961E-3   5.501097533851862E-3  
 2.666000000000000E10    6.780121009796858E-3   8.783633820712566E-3  
 2.668000000000000E10    8.642163127660751E-3  -7.654963992536068E-3  
 2.670000000000000E10   -7.661746349185705E-3  -7.231746334582567E-3  
 2.672000000000000E10   -6.415127310901880E-3   8.862631395459175E-3  
 2.674000000000000E10    9.964931756258011E-3   6.151250097900629E-3  
 2.676000000000000E10    4.818406421691179E-3  -1.039006467908621E-2  
 2.678000000000000E10   -1.082396786659956E-2  -2.865368966013193E-3  
 2.680000000000000E10   -1.595599576830864E-3   1.091218460351229E-2  
 2.682000000000000E10    1.085343677550554E-2   3.243146347813308E-4  
 2.684000000000000E10   -9.761618566699326E-4  -1.069532334804535E-2  
 2.686000000000000E10   -1.070666406303644E-2   2.450082218274474E-3  
 2.688000000000000E10    3.524078987538815E-3   9.546841494739056E-3  
 2.690000000000000E10    9.237934835255146E-3  -4.287660587579012E-3  
 2.692000000000000E10   -5.805786699056625E-3  -8.720054291188717E-3  
 2.694000000000000E10   -8.191275410354137E-3   6.710567511618137E-3  
 2.696000000000000E10    6.906699854880571E-3   6.718959659337997E-3  
 2.698000000000000E10    5.546208471059799E-3  -7.914404384791851E-3  
 2.700000000000000E10   -8.590926416218281E-3  -5.049705971032381E-3  
 2.702000000000000E10   -4.243716131895781E-3   8.950176648795605E-3  
 2.704000000000000E10    9.211811237037182E-3   3.007120685651898E-3  
 2.706000000000000E10    1.682136906310916E-3  -9.243587963283062E-3  
 2.708000000000000E10   -9.459053166210651E-3  -5.310119013302028E-4  
 2.710000000000000E10    3.682997194118798E-4   1.006386987864971E-2  
 2.712000000000000E10    9.014999493956566E-3  -1.521220430731773E-3  
 2.714000000000000E10   -2.973434980958700E-3  -8.870603516697884E-3  
 2.716000000000000E10   -8.767249062657356E-3   3.465293673798442E-3  
 2.718000000000000E10    4.084437154233456E-3   8.164674974977970E-3  
 2.720000000000000E10    7.143565919250250E-3  -5.267042666673660E-3  
 2.722000000000000E10   -6.131467409431934E-3  -6.803134921938181E-3  
 2.724000000000000E10   -6.197647657245398E-3   6.739263888448477E-3  
 2.726000000000000E10    7.093332707881928E-3   5.540726706385613E-3  
 2.728000000000000E10    4.312212113291025E-3  -7.430034689605236E-3  
 2.730000000000000E10   -7.646859623491764E-3  -3.456769278272986E-3  
 2.732000000000000E10   -2.959420904517174E-3   8.010600693523884E-3  
 2.734000000000000E10    8.119761943817139E-3   1.923306845128536E-3  
 2.736000000000000E10    9.023529710248113E-4  -8.040980435907841E-3  
 2.738000000000000E10   -8.218016475439072E-3   5.141164292581379E-4  
 2.740000000000000E10    1.771423267200589E-3   8.417651057243347E-3  
 2.742000000000000E10    8.129786700010300E-3  -2.522723283618689E-3  
 2.744000000000000E10   -2.994433743879199E-3  -7.239891216158867E-3  
 2.746000000000000E10   -6.992806680500507E-3   4.360412713140249E-3  
 2.748000000000000E10    5.513089708983898E-3   6.707962602376938E-3  
 2.750000000000000E10    5.913488101214171E-3  -5.676231812685728E-3  
 2.752000000000000E10   -5.880029872059822E-3  -5.092316307127476E-3  
 2.754000000000000E10   -3.795378841459751E-3   6.572783458977938E-3  
 2.756000000000000E10    7.210569456219673E-3   2.892411779612303E-3  
