#  HZ   S   RI   R     50.00 
! Rohde & Schwarz ZVA40 4Ports - Version 3.90 - 1145.1110k42 SN: 100403
! Date: 2023-10-04 07:28:22
! Measurement: S12 
! 
 2.200000000000000E10    1.098222471773624E-2  -7.327811326831579E-4  
 2.202000000000000E10   -2.475275890901685E-3  -1.061714068055153E-2  
 2.204000000000000E10   -1.110440678894520E-2   3.675509011372924E-3  
 2.206000000000000E10    4.400520585477352E-3   1.028223335742950E-2  
 2.208000000000000E10    9.669641032814980E-3  -5.598269402980804E-3  
 2.210000000000000E10   -7.042165845632553E-3  -9.357885457575321E-3  
 2.212000000000000E10   -7.751453202217817E-3   7.684985641390085E-3  
 2.214000000000000E10    8.327322080731392E-3   7.357899565249682E-3  
 2.216000000000000E10    7.327480707317591E-3  -9.743057191371918E-3  
 2.218000000000000E10   -1.052369177341461E-2  -5.004773382097483E-3  
 2.220000000000000E10   -4.230067599564791E-3   1.145630050450563E-2  
 2.222000000000000E10    1.228129211813211E-2   2.267330186441541E-3  
 2.224000000000000E10   -4.103192768525332E-4  -1.187808252871037E-2  
 2.226000000000000E10   -1.147720962762833E-2   1.464985311031342E-3  
 2.228000000000000E10    2.810056321322918E-3   1.118162646889687E-2  
 2.230000000000000E10    1.045772992074490E-2  -3.743142122402787E-3  
 2.232000000000000E10   -5.261674523353577E-3  -1.080667506903410E-2  
 2.234000000000000E10   -1.025294605642557E-2   6.887442898005247E-3  
 2.236000000000000E10    7.951123639941216E-3   9.574305266141892E-3  
 2.238000000000000E10    8.803736418485642E-3  -9.287196211516857E-3  
 2.240000000000000E10   -1.046873349696398E-2  -7.110267877578735E-3  
 2.242000000000000E10   -5.762295331805944E-3   1.107263937592506E-2  
 2.244000000000000E10    1.081649959087372E-2   4.282947164028883E-3  
 2.246000000000000E10    3.794199787080288E-3  -1.098305545747280E-2  
 2.248000000000000E10   -1.247942820191383E-2  -2.730857115238905E-3  
 2.250000000000000E10   -1.486304565332830E-3   1.294752303510904E-2  
 2.252000000000000E10    1.255934592336416E-2  -5.004540435038507E-4  
 2.254000000000000E10   -2.701868303120136E-3  -1.211873441934586E-2  
 2.256000000000000E10   -1.211133226752281E-2   5.008906126022339E-3  
 2.258000000000000E10    5.593473091721535E-3   1.113718748092651E-2  
 2.260000000000000E10    9.469420649111271E-3  -5.522180814296007E-3  
 2.262000000000000E10   -7.177587598562241E-3  -8.466322906315327E-3  
 2.264000000000000E10   -8.779012598097324E-3   7.777706254273653E-3  
 2.266000000000000E10    8.659708313643932E-3   8.857159875333309E-3  
 2.268000000000000E10    7.529186084866524E-3  -1.017783209681511E-2  
 2.270000000000000E10   -1.138687971979380E-2  -6.234726868569851E-3  
 2.272000000000000E10   -4.866146948188543E-3   1.287573575973511E-2  
 2.274000000000000E10    1.331263873726130E-2   3.164135850965977E-3  
 2.276000000000000E10    1.411907840520144E-3  -1.268352288752794E-2  
 2.278000000000000E10   -1.283126696944237E-2   1.697420666459948E-4  
 2.280000000000000E10    1.324713230133057E-3   1.219512056559324E-2  
 2.282000000000000E10    1.123567763715982E-2   4.954734817147255E-3  
 2.284000000000000E10   -3.751425538212061E-3  -1.228587515652180E-2  
 2.286000000000000E10   -1.252226810902357E-2   5.643026437610388E-3  
 2.288000000000000E10    7.521127816289663E-3   1.113658770918846E-2  
 2.290000000000000E10    9.635270573198795E-3  -9.067572653293610E-3  
 2.292000000000000E10   -9.755428880453110E-3  -8.036276325583458E-3  
 2.294000000000000E10   -6.800892297178507E-3   9.989454410970211E-3  
 2.296000000000000E10    9.940303862094879E-3   5.504765082150698E-3  
 2.298000000000000E10    5.182601511478424E-3  -1.104864105582237E-2  
 2.300000000000000E10   -1.280425954610109E-2  -4.852219484746456E-3  
 2.302000000000000E10   -2.454453147947788E-3   1.351426448673010E-2  
 2.304000000000000E10    1.444888394325972E-2  -1.430617849109694E-4  
 2.306000000000000E10   -2.179015660658479E-3  -1.424773875623941E-2  
 2.308000000000000E10   -1.331710722297430E-2   3.733655903488398E-3  
 2.310000000000000E10    4.897692240774632E-3   1.201758813112974E-2  
 2.312000000000000E10    1.121958158910275E-2  -6.235156208276749E-3  
 2.314000000000000E10   -7.132310420274735E-3  -1.081468909978867E-2  
 2.316000000000000E10   -1.043226011097431E-2   8.160976693034172E-3  
 2.318000000000000E10    1.032142341136932E-2   9.117628447711468E-3  
 2.320000000000000E10    7.261047605425119E-3  -1.165776420384646E-2  
 2.322000000000000E10   -1.250938419252634E-2  -5.337566602975130E-3  
 2.324000000000000E10   -3.806244814768434E-3   1.285643689334393E-2  
 2.326000000000000E10    1.320606749504805E-2   1.890067243948579E-3  
 2.328000000000000E10    7.845379877835512E-4  -1.366865728050470E-2  
 2.330000000000000E10   -1.312840916216373E-2   4.094881005585194E-4  
 2.332000000000000E10    1.531205489300191E-3   1.299863588064909E-2  
 2.334000000000000E10    1.398566178977490E-2  -2.808955963701010E-3  
 2.336000000000000E10   -4.527878947556019E-3  -1.425358839333057E-2  
 2.338000000000000E10   -1.308603864163160E-2   6.841293536126614E-3  
 2.340000000000000E10    9.253105148673058E-3   1.064113620668650E-2  
 2.342000000000000E10    9.252804331481457E-3  -1.046726852655411E-2  
 2.344000000000000E10   -1.100834272801876E-2  -7.418347988277674E-3  
 2.346000000000000E10   -5.618395283818245E-3   1.139230653643608E-2  
 2.348000000000000E10    1.159252319484949E-2   4.144310485571623E-3  
 2.350000000000000E10    3.084269352257252E-3  -1.260396651923657E-2  
 2.352000000000000E10   -1.353402901440859E-2  -2.064287662506104E-3  
 2.354000000000000E10   -2.982087062264327E-5   1.367684174329042E-2  
 2.356000000000000E10    1.395033579319716E-2  -2.252183621749282E-3  
 2.358000000000000E10   -3.317283000797033E-3  -1.397440116852522E-2  
 2.360000000000000E10   -1.301697921007872E-2   4.232576582580805E-3  
 2.362000000000000E10    6.090179551392794E-3   1.191194355487824E-2  
 2.364000000000000E10    1.145684439688921E-2  -7.285922300070524E-3  
 2.366000000000000E10   -8.259547874331474E-3  -1.120981480926275E-2  
 2.368000000000000E10   -1.030047424137592E-2   9.804377332329750E-3  
 2.370000000000000E10    1.122952625155449E-2   8.427440188825131E-3  
 2.372000000000000E10    6.340873893350363E-3  -1.235941611230373E-2  
 2.374000000000000E10   -1.340121310204268E-2  -4.315785132348537E-3  
 2.376000000000000E10   -2.823823830112815E-3   1.273542083799839E-2  
 2.378000000000000E10    1.275335904210806E-2   1.138663385063410E-3  
 2.380000000000000E10   -3.091663820669055E-4  -1.326049212366343E-2  
 2.382000000000000E10   -1.328144408762455E-2   1.689553260803223E-3  
 2.384000000000000E10    3.304683137685061E-3   1.377419196069241E-2  
 2.386000000000000E10    1.359231863170862E-2  -5.147784017026424E-3  
 2.388000000000000E10   -7.113537285476923E-3  -1.314162742346525E-2  
 2.390000000000000E10   -1.264986675232649E-2   8.953999727964401E-3  
 2.392000000000000E10    1.100156363099814E-2   1.132680661976337E-2  
 2.394000000000000E10    1.019212976098061E-2  -1.174558419734240E-2  
 2.396000000000000E10   -1.340314280241728E-2  -8.368661627173424E-3  
 2.398000000000000E10   -6.677057594060898E-3   1.461246330291033E-2  
 2.400000000000000E10    1.499018073081970E-2   5.238518584519625E-3  
 2.402000000000000E10    1.126986462622881E-3  -1.477965340018272E-2  
 2.404000000000000E10   -1.425374299287796E-2   4.549910081550479E-4  
 2.406000000000000E10    2.452570945024490E-3   1.406419556587935E-2  
 2.408000000000000E10    1.394530944526196E-2  -3.500993829220533E-3  
 2.410000000000000E10   -4.982256330549717E-3  -1.247571129351854E-2  
 2.412000000000000E10   -1.105975359678268E-2   7.247544825077057E-3  
 2.414000000000000E10    8.331387303769589E-3   1.107490248978138E-2  
 2.416000000000000E10    1.094456948339939E-2  -9.367835707962513E-3  
 2.418000000000000E10   -1.090187486261129E-2  -9.412850253283978E-3  
 2.420000000000000E10   -8.287653326988220E-3   1.272416487336159E-2  
 2.422000000000000E10    1.449992228299379E-2   7.810157258063555E-3  
 2.424000000000000E10    6.305623333901167E-3  -1.558334566652775E-2  
 2.426000000000000E10   -1.600901409983635E-2  -3.651171689853072E-3  
 2.428000000000000E10   -1.371688791550696E-3   1.693283580243588E-2  
 2.430000000000000E10    1.648257672786713E-2  -8.529370097676292E-5  
 2.432000000000000E10   -1.374586718156934E-3  -1.557004638016224E-2  
 2.434000000000000E10   -1.440979260951281E-2   3.549525747075677E-3  
 2.436000000000000E10    5.654757842421532E-3   1.311766915023327E-2  
 2.438000000000000E10    1.268150564283133E-2  -6.525232922285795E-3  
 2.440000000000000E10   -7.595715578645468E-3  -1.149041578173637E-2  
 2.442000000000000E10   -1.019921246916056E-2   9.013735689222813E-3  
 2.444000000000000E10    1.039703749120235E-2   9.233288466930389E-3  
 2.446000000000000E10    8.167220279574394E-3  -1.157177425920963E-2  
 2.448000000000000E10   -1.269362866878510E-2  -6.765674799680710E-3  
 2.450000000000000E10   -5.409694276750088E-3   1.368961296975613E-2  
 2.452000000000000E10    1.521784346550703E-2   3.355578752234578E-3  
 2.454000000000000E10    1.946907606907189E-3  -1.479281950742006E-2  
 2.456000000000000E10   -1.475307717919350E-2  -7.862806669436395E-4  
 2.458000000000000E10    1.242572208866477E-3   1.532372925430536E-2  
 2.460000000000000E10    1.468585059046745E-2  -3.593236906453967E-3  
 2.462000000000000E10   -5.252995062619448E-3  -1.428088732063770E-2  
 2.464000000000000E10   -1.323441509157419E-2   5.939412862062454E-3  
 2.466000000000000E10    6.786675658077002E-3   1.158389169722796E-2  
 2.468000000000000E10    1.070473808795214E-2  -8.601337671279907E-3  
 2.470000000000000E10   -1.032208092510700E-2  -1.002148352563381E-2  
 2.472000000000000E10   -8.978568017482758E-3   1.014141831547022E-2  
 2.474000000000000E10    1.095844712108374E-2   7.863725535571575E-3  
 2.476000000000000E10    6.564453244209290E-3  -1.243886910378933E-2  
 2.478000000000000E10   -1.369656994938850E-2  -4.638602025806904E-3  
 2.480000000000000E10   -2.343469299376011E-3   1.439726911485195E-2  
 2.482000000000000E10    1.394418440759182E-2   2.162214077543467E-4  
 2.484000000000000E10   -1.844487967900932E-3  -1.424940209835768E-2  
 2.486000000000000E10   -1.436131540685892E-2   3.898110473528504E-3  
 2.488000000000000E10    5.126183852553368E-3   1.262940373271704E-2  
 2.490000000000000E10    1.165456231683493E-2  -6.174809299409390E-3  
 2.492000000000000E10   -7.524765096604824E-3  -1.161256898194552E-2  
 2.494000000000000E10   -1.080555934458971E-2   8.309609256684780E-3  
 2.496000000000000E10    8.708816021680832E-3   9.814959019422531E-3  
 2.498000000000000E10    8.301372639834881E-3  -9.339771233499050E-3  
 2.500000000000000E10   -1.048311684280634E-2  -7.646373007446528E-3  
 2.502000000000000E10   -6.860260851681233E-3   1.179505046457052E-2  
 2.504000000000000E10    1.194160245358944E-2   4.999176133424044E-3  
 2.506000000000000E10    3.701344365254045E-3  -1.187176629900932E-2  
 2.508000000000000E10   -1.277290843427181E-2  -2.541240071877837E-3  
 2.510000000000000E10   -7.694441592320800E-4   1.422533486038446E-2  
 2.512000000000000E10    1.471810322254896E-2  -1.545397914014757E-3  
 2.514000000000000E10   -3.691594349220395E-3  -1.391869131475687E-2  
 2.516000000000000E10   -1.313116494566202E-2   5.841542966663837E-3  
 2.518000000000000E10    7.316478062421084E-3   1.226208917796612E-2  
 2.520000000000000E10    1.065219193696976E-2  -8.209988474845886E-3  
 2.522000000000000E10   -8.833139203488827E-3  -9.541031904518604E-3  
 2.524000000000000E10   -9.450231678783894E-3   9.775258600711823E-3  
 2.526000000000000E10    1.035425532609224E-2   8.317399770021439E-3  
 2.528000000000000E10    7.468661759048700E-3  -1.086053252220154E-2  
 2.530000000000000E10   -1.256869081407785E-2  -5.993885919451714E-3  
 2.532000000000000E10   -4.062633495777845E-3   1.378520578145981E-2  
 2.534000000000000E10    1.395051833242178E-2   2.987346844747663E-3  
 2.536000000000000E10    6.023027235642076E-4  -1.314748916774988E-2  
 2.538000000000000E10   -1.373441703617573E-2   1.280661555938423E-3  
 2.540000000000000E10    2.638451522216201E-3   1.412879303097725E-2  
 2.542000000000000E10    1.373478304594755E-2  -4.276599735021591E-3  
 2.544000000000000E10   -6.319087930023670E-3  -1.294569950550795E-2  
 2.546000000000000E10   -1.172417588531971E-2   8.478946983814240E-3  
 2.548000000000000E10    1.056127995252609E-2   1.037715002894402E-2  
 2.550000000000000E10    8.614961057901382E-3  -1.137940771877766E-2  
 2.552000000000000E10   -1.165781635791063E-2  -6.756102200597525E-3  
 2.554000000000000E10   -4.965430591255426E-3   1.235723309218884E-2  
 2.556000000000000E10    1.248487923294306E-2   4.154121968895197E-3  
 2.558000000000000E10    3.010608255863190E-3  -1.360326074063778E-2  
 2.560000000000000E10   -1.421568728983402E-2  -1.201438135467470E-3  
 2.562000000000000E10    6.586828385479748E-4   1.414738129824400E-2  
 2.564000000000000E10    1.454345230013132E-2  -2.794628031551838E-3  
 2.566000000000000E10   -4.547129850834608E-3  -1.502705179154873E-2  
 2.568000000000000E10   -1.359549723565579E-2   6.967867724597454E-3  
 2.570000000000000E10    9.041789919137955E-3   1.161360833793879E-2  
 2.572000000000000E10    1.056708581745625E-2  -1.003563310950995E-2  
 2.574000000000000E10   -1.092479284852743E-2  -9.758393280208111E-3  
 2.576000000000000E10   -8.058640174567699E-3   1.253276504576206E-2  
 2.578000000000000E10    1.338348165154457E-2   5.588933825492859E-3  
 2.580000000000000E10    4.067847039550543E-3  -1.455486193299294E-2  
 2.582000000000000E10   -1.421595085412264E-2  -2.860868116840720E-3  
 2.584000000000000E10   -1.127586816437542E-3   1.347281504422426E-2  
 2.586000000000000E10    1.325472444295883E-2  -1.689111231826246E-3  
 2.588000000000000E10   -2.272772602736950E-3  -1.359153352677822E-2  
 2.590000000000000E10   -1.329713966697455E-2   3.222287166863680E-3  
 2.592000000000000E10    4.708235617727041E-3   1.379825733602047E-2  
 2.594000000000000E10    1.359247695654631E-2  -6.895557511597872E-3  
 2.596000000000000E10   -9.259899146854878E-3  -1.279078330844641E-2  
 2.598000000000000E10   -1.132676936686039E-2   1.113702449947596E-2  
 2.600000000000000E10    1.257055811583996E-2   8.779415860772133E-3  
 2.602000000000000E10    6.821619812399149E-3  -1.387474313378334E-2  
 2.604000000000000E10   -1.383754517883062E-2  -5.355457309633493E-3  
 2.606000000000000E10   -3.706937190145254E-3   1.327040046453476E-2  
 2.608000000000000E10    1.310581527650356E-2   2.717008581385016E-3  
 2.610000000000000E10    1.092296442948282E-3  -1.360757928341627E-2  
 2.612000000000000E10   -1.396070234477520E-2   4.237162647768855E-4  
 2.614000000000000E10    1.711283111944795E-3   1.348333247005940E-2  
 2.616000000000000E10    1.293087471276522E-2  -3.086361801251769E-3  
 2.618000000000000E10   -5.115790292620659E-3  -1.260715629905462E-2  
 2.620000000000000E10   -1.221516728401184E-2   6.408464629203081E-3  
 2.622000000000000E10    7.691550068557262E-3   1.129646599292755E-2  
 2.624000000000000E10    1.112300157546997E-2  -8.958623744547367E-3  
 2.626000000000000E10   -1.085601281374693E-2  -9.706067852675915E-3  
 2.628000000000000E10   -8.080435916781426E-3   1.264703832566738E-2  
 2.630000000000000E10    1.351697556674480E-2   6.091583985835314E-3  
 2.632000000000000E10    3.057777183130384E-3  -1.342755742371082E-2  
 2.634000000000000E10   -1.341909542679787E-2  -1.818194752559066E-3  
 2.636000000000000E10   -9.467869531363249E-4   1.304559502750635E-2  
 2.638000000000000E10    1.246460434049368E-2  -4.104037070646882E-4  
 2.640000000000000E10   -1.662357710301876E-3  -1.192189659923315E-2  
 2.642000000000000E10   -1.224472653120756E-2   3.180437255650759E-3  
 2.644000000000000E10    4.524474032223225E-3   1.182442158460617E-2  
 2.646000000000000E10    1.122792530804873E-2  -5.622816737741232E-3  
 2.648000000000000E10   -7.928002625703812E-3  -9.864197112619877E-3  
 2.650000000000000E10   -9.036895819008350E-3   9.476548060774803E-3  
 2.652000000000000E10    1.005505304783583E-2   7.616848684847355E-3  
 2.654000000000000E10    5.919679999351502E-3  -1.093714497983456E-2  
 2.656000000000000E10   -1.173235103487968E-2  -4.257447086274624E-3  
 2.658000000000000E10   -2.914899960160255E-3   1.200963463634253E-2  
 2.660000000000000E10    1.210944168269634E-2   1.355134416371584E-3  
 2.662000000000000E10   -2.563307061791420E-4  -1.213712245225906E-2  
 2.664000000000000E10   -1.175549812614918E-2   1.929783495143056E-3  
 2.666000000000000E10    2.394842216745019E-3   1.124338246881962E-2  
 2.668000000000000E10    1.006833929568529E-2  -3.736393759027124E-3  
 2.670000000000000E10   -4.637535661458969E-3  -9.765122085809708E-3  
 2.672000000000000E10   -9.737881831824780E-3   5.265023093670607E-3  
 2.674000000000000E10    5.888548213988543E-3   8.764749392867088E-3  
 2.676000000000000E10    8.215432986617088E-3  -7.665531244128943E-3  
 2.678000000000000E10   -8.749069646000862E-3  -6.862509064376354E-3  
 2.680000000000000E10   -5.466763861477375E-3   9.062786586582661E-3  
 2.682000000000000E10    9.693686850368977E-3   4.637749399989843E-3  
 2.684000000000000E10    3.096385858952999E-3  -9.839802980422974E-3  
 2.686000000000000E10   -1.027047820389271E-2  -1.540871686302126E-3  
 2.688000000000000E10   -5.871918401680887E-4   1.010037027299404E-2  
 2.690000000000000E10    1.044879853725433E-2  -4.111284215468913E-4  
 2.692000000000000E10   -1.642429619096220E-3  -1.046830788254738E-2  
 2.694000000000000E10   -9.603571146726608E-3   2.759896917268634E-3  
 2.696000000000000E10    4.308789502829313E-3   9.224114939570427E-3  
 2.698000000000000E10    8.579280227422714E-3  -4.755576141178608E-3  
 2.700000000000000E10   -5.400299094617367E-3  -7.642256096005440E-3  
 2.702000000000000E10   -7.151288911700249E-3   6.501686759293079E-3  
 2.704000000000000E10    7.062106393277645E-3   6.594305392354727E-3  
 2.706000000000000E10    5.502495914697647E-3  -7.415621541440487E-3  
 2.708000000000000E10   -7.764988113194704E-3  -5.249281413853169E-3  
 2.710000000000000E10   -3.716586623340845E-3   8.603200316429138E-3  
 2.712000000000000E10    9.423060342669487E-3   2.483989344909787E-3  
 2.714000000000000E10    1.988667994737625E-3  -9.271238930523396E-3  
 2.716000000000000E10   -8.481645956635475E-3  -6.915222038514912E-4  
 2.718000000000000E10    9.683008538559079E-4   8.791708387434483E-3  
 2.720000000000000E10    9.194826707243919E-3  -1.428355113603175E-3  
 2.722000000000000E10   -2.252960111945868E-3  -8.399346843361855E-3  
 2.724000000000000E10   -7.749415934085846E-3   3.373974002897739E-3  
 2.726000000000000E10    4.275372717529535E-3   7.291752845048904E-3  
 2.728000000000000E10    6.534302607178688E-3  -5.377812776714563E-3  
 2.730000000000000E10   -5.900308489799500E-3  -6.268547847867012E-3  
 2.732000000000000E10   -5.463968962430954E-3   6.170470733195543E-3  
 2.734000000000000E10    7.119395304471254E-3   4.440173972398043E-3  
 2.736000000000000E10    3.904500743374229E-3  -7.389208767563105E-3  
 2.738000000000000E10   -7.982827723026276E-3  -3.168525639921427E-3  
 2.740000000000000E10   -2.220903988927603E-3   8.017627522349358E-3  
 2.742000000000000E10    7.907898165285587E-3   1.274853828363121E-3  
 2.744000000000000E10    1.777272264007479E-4  -7.840944454073906E-3  
 2.746000000000000E10   -8.317642845213413E-3   7.539113867096603E-4  
 2.748000000000000E10    1.553713576868177E-3   7.607695180922747E-3  
 2.750000000000000E10    7.118533831089735E-3  -2.536551561206579E-3  
 2.752000000000000E10   -3.547967644408345E-3  -6.949537433683872E-3  
 2.754000000000000E10   -6.605722475796938E-3   4.220500122755766E-3  
 2.756000000000000E10    4.236739128828049E-3   5.933421663939953E-3  
