#  HZ   S   RI   R     50.00 
! Rohde & Schwarz ZVA40 4Ports - Version 3.90 - 1145.1110k42 SN: 100403
! Date: 2023-10-04 07:28:43
! Measurement: S12 
! 
 2.200000000000000E10    1.166387554258108E-2   8.312788559123874E-4  
 2.202000000000000E10   -7.489629788324237E-4  -1.153147779405117E-2  
 2.204000000000000E10   -1.093078497797251E-2   1.345860539004207E-3  
 2.206000000000000E10    3.019233234226704E-3   1.051289122551680E-2  
 2.208000000000000E10    1.057560369372368E-2  -4.243278410285711E-3  
 2.210000000000000E10   -5.086585879325867E-3  -9.550352580845356E-3  
 2.212000000000000E10   -8.991817943751812E-3   6.734540220350027E-3  
 2.214000000000000E10    7.396554574370384E-3   9.144492447376251E-3  
 2.216000000000000E10    8.001763373613358E-3  -8.816574700176716E-3  
 2.218000000000000E10   -1.081041339784861E-2  -6.624295841902494E-3  
 2.220000000000000E10   -6.008948199450970E-3   1.148510444909334E-2  
 2.222000000000000E10    1.201388053596020E-2   4.021612461656332E-3  
 2.224000000000000E10    2.064240630716085E-3  -1.255613379180431E-2  
 2.226000000000000E10   -1.271611731499434E-2  -6.660336512140930E-4  
 2.228000000000000E10    8.515972294844687E-4   1.235512737184763E-2  
 2.230000000000000E10    1.202721986919642E-2  -1.462257117964327E-3  
 2.232000000000000E10   -2.954389201477170E-3  -1.205446850508452E-2  
 2.234000000000000E10   -1.187325268983841E-2   5.090939346700907E-3  
 2.236000000000000E10    5.637277383357287E-3   1.138900220394135E-2  
 2.238000000000000E10    1.060781069099903E-2  -7.004190701991320E-3  
 2.240000000000000E10   -9.393533691763878E-3  -9.101370349526405E-3  
 2.242000000000000E10   -7.571932394057512E-3   1.046564243733883E-2  
 2.244000000000000E10    1.064262073487043E-2   5.891938693821430E-3  
 2.246000000000000E10    5.023004487156868E-3  -1.137408800423145E-2  
 2.248000000000000E10   -1.173118036240339E-2  -4.143605008721352E-3  
 2.250000000000000E10   -2.812914550304413E-3   1.244304981082678E-2  
 2.252000000000000E10    1.332447119057179E-2   7.291471702046692E-4  
 2.254000000000000E10   -1.205092878080905E-3  -1.390547119081020E-2  
 2.256000000000000E10   -1.376701425760984E-2   2.845454029738903E-3  
 2.258000000000000E10    4.905725363641977E-3   1.240705512464047E-2  
 2.260000000000000E10    1.119042094796896E-2  -5.373056046664715E-3  
 2.262000000000000E10   -6.147800013422966E-3  -1.052306871861219E-2  
 2.264000000000000E10   -1.028210390359163E-2   6.646857131272554E-3  
 2.266000000000000E10    7.712553255259991E-3   1.022864505648613E-2  
 2.268000000000000E10    9.864492341876030E-3  -9.424007497727871E-3  
 2.270000000000000E10   -1.127487979829311E-2  -8.612980134785175E-3  
 2.272000000000000E10   -7.062363438308239E-3   1.248442102223635E-2  
 2.274000000000000E10    1.293789222836494E-2   4.788730759173632E-3  
 2.276000000000000E10    2.797661814838648E-3  -1.293147820979357E-2  
 2.278000000000000E10   -1.259372662752867E-2  -1.839741016738117E-3  
 2.280000000000000E10   -5.135728861205280E-4   1.239330880343914E-2  
 2.282000000000000E10    1.041120570152998E-2   6.674846634268761E-3  
 2.284000000000000E10   -2.322924323379993E-3  -1.316311489790678E-2  
 2.286000000000000E10   -1.317991223186255E-2   4.667564295232296E-3  
 2.288000000000000E10    6.297152489423752E-3   1.268342975527048E-2  
 2.290000000000000E10    1.117474306374788E-2  -8.017404936254025E-3  
 2.292000000000000E10   -9.325461462140083E-3  -9.934879839420319E-3  
 2.294000000000000E10   -8.628941141068935E-3   1.007375586777926E-2  
 2.296000000000000E10    1.046374253928661E-2   7.590303663164377E-3  
 2.298000000000000E10    7.036610040813685E-3  -1.093548070639372E-2  
 2.300000000000000E10   -1.189041417092085E-2  -6.064082961529493E-3  
 2.302000000000000E10   -4.419780801981688E-3   1.361150480806828E-2  
 2.304000000000000E10    1.469197217375040E-2   2.510314574465156E-3  
 2.306000000000000E10    6.107838271418586E-5  -1.455233432352543E-2  
 2.308000000000000E10   -1.428549271076918E-2   2.330816583707929E-3  
 2.310000000000000E10    4.318349994719029E-3   1.327799446880817E-2  
 2.312000000000000E10    1.248214300721884E-2  -5.662483628839254E-3  
 2.314000000000000E10   -6.534529849886894E-3  -1.170364674180746E-2  
 2.316000000000000E10   -1.157292537391186E-2   7.841799408197403E-3  
 2.318000000000000E10    9.662458673119545E-3   1.121316291391850E-2  
 2.320000000000000E10    9.346689097583294E-3  -1.147220749408007E-2  
 2.322000000000000E10   -1.247088890522718E-2  -7.753380574285984E-3  
 2.324000000000000E10   -5.698939785361290E-3   1.252932846546173E-2  
 2.326000000000000E10    1.267255563288927E-2   3.968677483499050E-3  
 2.328000000000000E10    2.832975937053561E-3  -1.242506131529808E-2  
 2.330000000000000E10   -1.251842547208071E-2  -1.528851920738816E-3  
 2.332000000000000E10   -7.600196404382587E-4   1.322111766785383E-2  
 2.334000000000000E10    1.392571069300175E-2  -1.018012291751802E-3  
 2.336000000000000E10   -3.716652514412999E-3  -1.434798352420330E-2  
 2.338000000000000E10   -1.345792785286903E-2   6.362877320498228E-3  
 2.340000000000000E10    8.290580473840237E-3   1.203744579106569E-2  
 2.342000000000000E10    1.024591643363237E-2  -9.618797339498997E-3  
 2.344000000000000E10   -1.089899893850088E-2  -9.053233079612255E-3  
 2.346000000000000E10   -8.137823082506657E-3   1.120742410421372E-2  
 2.348000000000000E10    1.111443992704153E-2   6.719796452671289E-3  
 2.350000000000000E10    5.674547981470823E-3  -1.245266664773226E-2  
 2.352000000000000E10   -1.293474901467562E-2  -4.250996746122837E-3  
 2.354000000000000E10   -2.407412044703960E-3   1.374123711138964E-2  
 2.356000000000000E10    1.383533887565136E-2   1.333571621216834E-3  
 2.358000000000000E10   -7.587493164464831E-4  -1.345650199800730E-2  
 2.360000000000000E10   -1.352023147046566E-2   2.383806044235826E-3  
 2.362000000000000E10    3.630171064287424E-3   1.319345273077488E-2  
 2.364000000000000E10    1.238582096993923E-2  -5.555783864110708E-3  
 2.366000000000000E10   -6.690552458167076E-3  -1.203510165214539E-2  
 2.368000000000000E10   -1.153004728257656E-2   8.581846021115780E-3  
 2.370000000000000E10    1.039465423673391E-2   1.032567024230957E-2  
 2.372000000000000E10    8.580637164413929E-3  -1.230323314666748E-2  
 2.374000000000000E10   -1.310971658676863E-2  -6.203359924256802E-3  
 2.376000000000000E10   -4.608278162777424E-3   1.365697383880615E-2  
 2.378000000000000E10    1.425160281360149E-2   3.110993187874556E-3  
 2.380000000000000E10    2.049450995400548E-3  -1.400371268391609E-2  
 2.382000000000000E10   -1.461219694465399E-2  -9.506929927738383E-5  
 2.384000000000000E10    9.964542696252465E-4   1.498166937381029E-2  
 2.386000000000000E10    1.523678470402956E-2  -2.539918525144458E-3  
 2.388000000000000E10   -4.573986399918795E-3  -1.511429902166128E-2  
 2.390000000000000E10   -1.442071050405502E-2   6.469423417001963E-3  
 2.392000000000000E10    8.294051513075829E-3   1.296424120664597E-2  
 2.394000000000000E10    1.180539280176163E-2  -9.543487802147865E-3  
 2.396000000000000E10   -1.100031472742558E-2  -1.029432564973831E-2  
 2.398000000000000E10   -8.270765654742718E-3   1.225822977721691E-2  
 2.400000000000000E10    1.327677723020315E-2   5.638069473206997E-3  
 2.402000000000000E10    1.900224480777979E-3  -1.440182328224182E-2  
 2.404000000000000E10   -1.444929279386997E-2   1.623863936401904E-4  
 2.406000000000000E10    1.133612706325948E-3   1.428443472832441E-2  
 2.408000000000000E10    1.448045670986176E-2  -3.542524762451649E-3  
 2.410000000000000E10   -4.714006558060646E-3  -1.395633351057768E-2  
 2.412000000000000E10   -1.387324556708336E-2   5.324832163751125E-3  
 2.414000000000000E10    6.565475836396217E-3   1.344212703406811E-2  
 2.416000000000000E10    1.324221212416887E-2  -8.138379082083702E-3  
 2.418000000000000E10   -9.891072288155556E-3  -1.279256958514452E-2  
 2.420000000000000E10   -1.174928899854422E-2   1.072225719690323E-2  
 2.422000000000000E10    1.151586696505547E-2   1.050184667110443E-2  
 2.424000000000000E10    8.605575188994408E-3  -1.373845897614956E-2  
 2.426000000000000E10   -1.503422111272812E-2  -6.512402556836605E-3  
 2.428000000000000E10   -4.335080273449421E-3   1.518218405544758E-2  
 2.430000000000000E10    1.517638098448515E-2   2.059926977381110E-3  
 2.432000000000000E10   -2.372823801124468E-4  -1.493134628981352E-2  
 2.434000000000000E10   -1.474115345627070E-2   2.631086157634854E-3  
 2.436000000000000E10    3.722192952409387E-3   1.423087157309055E-2  
 2.438000000000000E10    1.367098838090897E-2  -5.127001088112593E-3  
 2.440000000000000E10   -7.015151437371969E-3  -1.295619364827871E-2  
 2.442000000000000E10   -1.293804682791233E-2   8.201484568417072E-3  
 2.444000000000000E10    9.458601474761963E-3   1.158166024833918E-2  
 2.446000000000000E10    1.032923907041550E-2  -1.065256353467703E-2  
 2.448000000000000E10   -1.193780638277531E-2  -9.683994576334953E-3  
 2.450000000000000E10   -8.192874491214752E-3   1.301678549498320E-2  
 2.452000000000000E10    1.429236866533756E-2   6.716330535709858E-3  
 2.454000000000000E10    5.155309103429318E-3  -1.457125321030617E-2  
 2.456000000000000E10   -1.463779527693987E-2  -3.090342273935676E-3  
 2.458000000000000E10   -1.403098460286856E-3   1.539410930126905E-2  
 2.460000000000000E10    1.525668986141682E-2  -5.264228093437851E-4  
 2.462000000000000E10   -2.098009921610355E-3  -1.415524352341890E-2  
 2.464000000000000E10   -1.293650921434164E-2   3.668849356472492E-3  
 2.466000000000000E10    4.944862332195044E-3   1.261557545512915E-2  
 2.468000000000000E10    1.264891121536493E-2  -6.488752551376820E-3  
 2.470000000000000E10   -8.211349137127399E-3  -1.143524516373873E-2  
 2.472000000000000E10   -9.972453117370606E-3   9.249223396182060E-3  
 2.474000000000000E10    1.083401311188936E-2   9.604129940271378E-3  
 2.476000000000000E10    8.875200524926186E-3  -1.193722337484360E-2  
 2.478000000000000E10   -1.298600714653730E-2  -6.978125777095556E-3  
 2.480000000000000E10   -4.858811385929585E-3   1.456461660563946E-2  
 2.482000000000000E10    1.540479157119989E-2   2.984519815072417E-3  
 2.484000000000000E10    1.776031218469143E-3  -1.579203084111214E-2  
 2.486000000000000E10   -1.488552801311016E-2   6.279837107285857E-4  
 2.488000000000000E10    3.081711241975427E-3   1.334316935390234E-2  
 2.490000000000000E10    1.343575678765774E-2  -3.579883836209774E-3  
 2.492000000000000E10   -4.539052955806255E-3  -1.266845595091581E-2  
 2.494000000000000E10   -1.184256561100483E-2   5.638889502733946E-3  
 2.496000000000000E10    7.579626515507698E-3   1.113568805158138E-2  
 2.498000000000000E10    9.810985997319222E-3  -8.828733116388321E-3  
 2.500000000000000E10   -9.237646125257015E-3  -9.103682823479176E-3  
 2.502000000000000E10   -8.207404986023903E-3   1.050804182887077E-2  
 2.504000000000000E10    1.204033661633730E-2   6.389695219695568E-3  
 2.506000000000000E10    5.490381270647049E-3  -1.180853880941868E-2  
 2.508000000000000E10   -1.249125134199858E-2  -4.976091906428337E-3  
 2.510000000000000E10   -3.067591693252325E-3   1.420271582901478E-2  
 2.512000000000000E10    1.446921192109585E-2   1.061922637745738E-3  
 2.514000000000000E10   -8.001269889064133E-4  -1.484795659780502E-2  
 2.516000000000000E10   -1.448615826666355E-2   2.828602911904454E-3  
 2.518000000000000E10    4.125487990677357E-3   1.305469684302807E-2  
 2.520000000000000E10    1.201661676168442E-2  -5.966675933450460E-3  
 2.522000000000000E10   -6.802130956202745E-3  -1.173226069658995E-2  
 2.524000000000000E10   -1.061657536774874E-2   7.460931781679392E-3  
 2.526000000000000E10    8.668667636811733E-3   9.828747250139713E-3  
 2.528000000000000E10    9.166458621621132E-3  -9.918565861880779E-3  
 2.530000000000000E10   -1.110594253987074E-2  -8.092272095382214E-3  
 2.532000000000000E10   -6.774349603801966E-3   1.233742851763964E-2  
 2.534000000000000E10    1.316019427031279E-2   4.878498613834381E-3  
 2.536000000000000E10    2.384463092312217E-3  -1.351340394467115E-2  
 2.538000000000000E10   -1.355338282883167E-2  -1.440288731828332E-3  
 2.540000000000000E10    1.182151463581249E-4   1.366145815700293E-2  
 2.542000000000000E10    1.419562101364136E-2  -2.171898959204555E-3  
 2.544000000000000E10   -4.257971420884132E-3  -1.381204277276993E-2  
 2.546000000000000E10   -1.377997919917107E-2   6.046812050044537E-3  
 2.548000000000000E10    8.178598247468472E-3   1.284729968756437E-2  
 2.550000000000000E10    1.045818254351616E-2  -9.569585323333740E-3  
 2.552000000000000E10   -1.101663801819086E-2  -8.946812711656094E-3  
 2.554000000000000E10   -7.697237189859152E-3   1.155714131891727E-2  
 2.556000000000000E10    1.120898220688105E-2   6.898478139191866E-3  
 2.558000000000000E10    5.729414522647858E-3  -1.272995304316282E-2  
 2.560000000000000E10   -1.345353666692972E-2  -3.817863529548049E-3  
 2.562000000000000E10   -2.341343322768807E-3   1.433183066546917E-2  
 2.564000000000000E10    1.482416503131390E-2   7.320856675505638E-4  
 2.566000000000000E10   -2.393531845882535E-3  -1.481380593031645E-2  
 2.568000000000000E10   -1.440448034554720E-2   5.194030236452818E-3  
 2.570000000000000E10    6.827361881732941E-3   1.327361911535263E-2  
 2.572000000000000E10    1.196486782282591E-2  -7.300346158444881E-3  
 2.574000000000000E10   -8.486779406666756E-3  -1.141617540270090E-2  
 2.576000000000000E10   -9.878828190267086E-3   1.073470618575811E-2  
 2.578000000000000E10    1.256436854600906E-2   8.497668430209160E-3  
 2.580000000000000E10    6.948760244995356E-3  -1.299881190061569E-2  
 2.582000000000000E10   -1.325335167348385E-2  -4.387572407722473E-3  
 2.584000000000000E10   -3.399085719138384E-3   1.428922358900309E-2  
 2.586000000000000E10    1.367669366300106E-2   1.647157245315611E-3  
 2.588000000000000E10    1.415843580616638E-4  -1.338241808116436E-2  
 2.590000000000000E10   -1.380833052098751E-2   9.409657213836908E-4  
 2.592000000000000E10    1.844872953370214E-3   1.473262626677752E-2  
 2.594000000000000E10    1.515059173107147E-2  -3.967323806136847E-3  
 2.596000000000000E10   -5.978467408567667E-3  -1.448903977870941E-2  
 2.598000000000000E10   -1.276196353137493E-2   8.766721934080124E-3  
 2.600000000000000E10    1.116024889051914E-2   1.152952946722508E-2  
 2.602000000000000E10    9.577109478414059E-3  -1.169383339583874E-2  
 2.604000000000000E10   -1.211070921272039E-2  -7.070603314787149E-3  
 2.606000000000000E10   -6.104665342718363E-3   1.211157999932766E-2  
 2.608000000000000E10    1.220619026571512E-2   4.800417460501194E-3  
 2.610000000000000E10    3.500195685774088E-3  -1.347554381936789E-2  
 2.612000000000000E10   -1.390709076076746E-2  -2.316066529601812E-3  
 2.614000000000000E10   -2.071197959594429E-4   1.359768956899643E-2  
 2.616000000000000E10    1.425646618008614E-2  -1.529030851088464E-3  
 2.618000000000000E10   -2.907802350819111E-3  -1.354391314089298E-2  
 2.620000000000000E10   -1.267402898520231E-2   4.782828502357006E-3  
 2.622000000000000E10    5.890503991395235E-3   1.264749281108379E-2  
 2.624000000000000E10    1.192278973758221E-2  -6.530154962092638E-3  
 2.626000000000000E10   -8.697526529431343E-3  -1.161350309848785E-2  
 2.628000000000000E10   -1.063719298690558E-2   1.010724622756243E-2  
 2.630000000000000E10    1.180573925375938E-2   7.922027260065079E-3  
 2.632000000000000E10    5.998463835567236E-3  -1.264634262770414E-2  
 2.634000000000000E10   -1.202309131622315E-2  -4.777872469276190E-3  
 2.636000000000000E10   -2.719287993386388E-3   1.166379544883966E-2  
 2.638000000000000E10    1.186007354408503E-2   1.582224271260202E-3  
 2.640000000000000E10    4.653541836887598E-4  -1.167989149689674E-2  
 2.642000000000000E10   -1.215036306530237E-2   1.008765771985054E-3  
 2.644000000000000E10    2.123763086274266E-3   1.161150261759758E-2  
 2.646000000000000E10    1.139883603900671E-2  -3.900787094607949E-3  
 2.648000000000000E10   -6.467320024967194E-3  -1.114630978554487E-2  
 2.650000000000000E10   -1.025968044996262E-2   6.998399738222361E-3  
 2.652000000000000E10    8.530193939805031E-3   8.710323832929134E-3  
 2.654000000000000E10    7.652056869119406E-3  -1.006888039410114E-2  
 2.656000000000000E10   -1.033809222280979E-2  -6.340845022350550E-3  
 2.658000000000000E10   -5.194923840463162E-3   1.100428402423859E-2  
 2.660000000000000E10    1.122600957751274E-2   3.991208970546722E-3  
 2.662000000000000E10    2.304739784449339E-3  -1.143911015242338E-2  
 2.664000000000000E10   -1.137341372668743E-2  -9.140505571849644E-4  
 2.666000000000000E10    4.121639067307115E-4   1.107955165207386E-2  
 2.668000000000000E10    1.032023876905441E-2  -1.460929284803569E-3  
 2.670000000000000E10   -2.162253484129906E-3  -9.982612915337086E-3  
 2.672000000000000E10   -9.443879127502441E-3   3.083091927692294E-3  
 2.674000000000000E10    4.050969146192074E-3   9.385473094880581E-3  
 2.676000000000000E10    9.074300527572632E-3  -5.317606497555971E-3  
 2.678000000000000E10   -6.370543967932463E-3  -8.003875613212585E-3  
 2.680000000000000E10   -7.208906579762697E-3   7.426827680319548E-3  
 2.682000000000000E10    8.034950122237206E-3   5.950476974248886E-3  
 2.684000000000000E10    4.744315519928932E-3  -8.818957954645157E-3  
 2.686000000000000E10   -9.528378956019878E-3  -3.466694150120020E-3  
 2.688000000000000E10   -2.347643021494150E-3   9.448793716728687E-3  
 2.690000000000000E10    9.936275891959667E-3   1.848674728535116E-3  
 2.692000000000000E10    3.558516618795693E-4  -9.966885671019554E-3  
 2.694000000000000E10   -9.874172508716583E-3   7.016945746727288E-4  
 2.696000000000000E10    1.631574588827789E-3   9.539940394461155E-3  
 2.698000000000000E10    8.701972663402557E-3  -2.608045237138867E-3  
 2.700000000000000E10   -3.901727730408311E-3  -8.882623165845871E-3  
 2.702000000000000E10   -8.245895616710186E-3   4.057437647134066E-3  
 2.704000000000000E10    4.994610324501991E-3   7.382942829281092E-3  
 2.706000000000000E10    6.499689072370529E-3  -5.748268682509661E-3  
 2.708000000000000E10   -6.196383852511644E-3  -5.785355810075998E-3  
 2.710000000000000E10   -5.000680219382048E-3   7.167177274823189E-3  
 2.712000000000000E10    7.776700425893068E-3   4.144155886024237E-3  
 2.714000000000000E10    2.636005636304617E-3  -8.009637705981731E-3  
 2.716000000000000E10   -8.411249145865440E-3  -1.534225069917738E-3  
 2.718000000000000E10   -1.435948652215302E-3   8.332593366503716E-3  
 2.720000000000000E10    8.462091907858849E-3  -4.426893792697229E-5  
 2.722000000000000E10   -1.193218748085201E-3  -8.440187200903893E-3  
 2.724000000000000E10   -8.269153535366058E-3   1.732837641611695E-3  
 2.726000000000000E10    2.846770687028766E-3   7.906694896519184E-3  
 2.728000000000000E10    7.603171747177839E-3  -3.423596266657114E-3  
 2.730000000000000E10   -4.222406540066004E-3  -6.805034819990397E-3  
 2.732000000000000E10   -6.738438736647368E-3   4.749811254441738E-3  
 2.734000000000000E10    4.972061142325401E-3   6.140832323580980E-3  
 2.736000000000000E10    4.961381666362286E-3  -5.501633044332266E-3  
 2.738000000000000E10   -6.579697597771883E-3  -4.753194283694029E-3  
 2.740000000000000E10   -3.890425665304065E-3   6.876258179545403E-3  
 2.742000000000000E10    7.388169411569834E-3   2.622833708301187E-3  
 2.744000000000000E10    2.253287239000201E-3  -7.634297944605351E-3  
 2.746000000000000E10   -7.497549522668123E-3  -8.763411315158010E-4  
 2.748000000000000E10    1.282615994568914E-4   7.283658254891634E-3  
 2.750000000000000E10    7.705085910856724E-3  -7.280589779838920E-4  
 2.752000000000000E10   -1.680017216131091E-3  -7.152462843805552E-3  
 2.754000000000000E10   -6.342676002532244E-3   2.406843239441514E-3  
 2.756000000000000E10    3.437595674768090E-3   6.003628484904766E-3  
