#  HZ   S   RI   R     50.00 
! Rohde & Schwarz ZVA40 4Ports - Version 3.90 - 1145.1110k42 SN: 100403
! Date: 2023-10-04 07:29:04
! Measurement: S12 
! 
 2.200000000000000E10    1.105743553489447E-2   3.876635106280446E-3  
 2.202000000000000E10    2.650434849783778E-3  -1.153329666703939E-2  
 2.204000000000000E10   -1.143830828368664E-2  -1.741072745062411E-3  
 2.206000000000000E10    9.882546873996034E-5   1.178662199527025E-2  
 2.208000000000000E10    1.172635611146689E-2  -7.792374235577881E-4  
 2.210000000000000E10   -2.203676616773009E-3  -1.133414357900620E-2  
 2.212000000000000E10   -1.182579807937145E-2   3.477008081972599E-3  
 2.214000000000000E10    3.642610274255276E-3   1.127155311405659E-2  
 2.216000000000000E10    1.090933289378882E-2  -5.885391030460596E-3  
 2.218000000000000E10   -7.849173620343208E-3  -1.041378546506167E-2  
 2.220000000000000E10   -9.725769981741905E-3   8.455141447484493E-3  
 2.222000000000000E10    1.007040962576866E-2   7.466249633580446E-3  
 2.224000000000000E10    5.691351369023323E-3  -1.104714907705784E-2  
 2.226000000000000E10   -1.131375413388014E-2  -4.478293936699629E-3  
 2.228000000000000E10   -3.288534004241228E-3   1.153578329831362E-2  
 2.230000000000000E10    1.150523312389851E-2   2.138427225872874E-3  
 2.232000000000000E10    3.957474546041340E-4  -1.267396379262209E-2  
 2.234000000000000E10   -1.346052996814251E-2   1.481332699768245E-3  
 2.236000000000000E10    2.307619201019406E-3   1.215926185250282E-2  
 2.238000000000000E10    1.217955723404884E-2  -3.948131110519171E-3  
 2.240000000000000E10   -6.039293948560953E-3  -1.214091852307320E-2  
 2.242000000000000E10   -1.098849810659885E-2   7.426626980304718E-3  
 2.244000000000000E10    8.240303955972195E-3   9.742478840053082E-3  
 2.246000000000000E10    9.274196811020374E-3  -8.916594088077545E-3  
 2.248000000000000E10   -9.977863170206547E-3  -8.539991453289986E-3  
 2.250000000000000E10   -7.242940831929445E-3   1.093013584613800E-2  
 2.252000000000000E10    1.225239410996437E-2   5.384469404816628E-3  
 2.254000000000000E10    3.678633132949472E-3  -1.321322657167912E-2  
 2.256000000000000E10   -1.325878314673901E-2  -1.885229023173451E-3  
 2.258000000000000E10    1.940258953254670E-4   1.260246429592371E-2  
 2.260000000000000E10    1.207268796861172E-2  -1.353484578430653E-3  
 2.262000000000000E10   -1.854649162851274E-3  -1.178962457925081E-2  
 2.264000000000000E10   -1.165955979377031E-2   2.775016240775585E-3  
 2.266000000000000E10    4.077610559761524E-3   1.186592690646648E-2  
 2.268000000000000E10    1.225010678172112E-2  -5.594145506620407E-3  
 2.270000000000000E10   -7.607565261423588E-3  -1.152908429503441E-2  
 2.272000000000000E10   -1.012429501861334E-2   9.086447767913342E-3  
 2.274000000000000E10    1.070307474583387E-2   8.647349663078785E-3  
 2.276000000000000E10    7.257573772221804E-3  -1.178394816815853E-2  
 2.278000000000000E10   -1.160981692373753E-2  -6.088579073548317E-3  
 2.280000000000000E10   -4.468102008104324E-3   1.142695732414722E-2  
 2.282000000000000E10    7.849398069083691E-3   9.933819994330406E-3  
 2.284000000000000E10    2.030692761763930E-3  -1.371710840612650E-2  
 2.286000000000000E10   -1.417125016450882E-2  -8.747542160563171E-4  
 2.288000000000000E10    1.117470208555460E-3   1.364562381058931E-2  
 2.290000000000000E10    1.326983701437712E-2  -3.156312508508563E-3  
 2.292000000000000E10   -4.895936232060194E-3  -1.240995991975069E-2  
 2.294000000000000E10   -1.134705636650324E-2   5.923869088292122E-3  
 2.296000000000000E10    6.744391750544310E-3   1.072123833000660E-2  
 2.298000000000000E10    1.043033134192228E-2  -7.209463976323605E-3  
 2.300000000000000E10   -8.888605982065201E-3  -1.022375468164682E-2  
 2.302000000000000E10   -9.234686382114887E-3   1.064914278686047E-2  
 2.304000000000000E10    1.273312792181969E-2   7.579303812235594E-3  
 2.306000000000000E10    5.282520782202482E-3  -1.371373981237412E-2  
 2.308000000000000E10   -1.380949188023806E-2  -3.473963821306825E-3  
 2.310000000000000E10   -1.272547058761120E-3   1.383432466536760E-2  
 2.312000000000000E10    1.371988095343113E-2  -3.696020867209882E-4  
 2.314000000000000E10   -1.405685790814459E-3  -1.321546547114849E-2  
 2.316000000000000E10   -1.349805295467377E-2   2.833333564922214E-3  
 2.318000000000000E10    4.732644651085138E-3   1.343009993433952E-2  
 2.320000000000000E10    1.267790328711271E-2  -7.236392237246037E-3  
 2.322000000000000E10   -8.753996342420578E-3  -1.141440868377686E-2  
 2.324000000000000E10   -9.847181849181652E-3   1.019182614982128E-2  
 2.326000000000000E10    1.112578529864550E-2   8.479633368551731E-3  
 2.328000000000000E10    7.242480292916298E-3  -1.112088281661272E-2  
 2.330000000000000E10   -1.186490617692471E-2  -6.106870714575052E-3  
 2.332000000000000E10   -5.229403730481863E-3   1.264623831957579E-2  
 2.334000000000000E10    1.373025029897690E-2   4.411445930600166E-3  
 2.336000000000000E10    2.664333907887340E-3  -1.501383073627949E-2  
 2.338000000000000E10   -1.514342147856951E-2  -7.935048779472709E-5  
 2.340000000000000E10    2.571129705756903E-3   1.415824331343174E-2  
 2.342000000000000E10    1.351596694439650E-2  -4.233898594975472E-3  
 2.344000000000000E10   -5.723319947719574E-3  -1.267287880182266E-2  
 2.346000000000000E10   -1.102032139897347E-2   6.689934991300106E-3  
 2.348000000000000E10    7.561056874692440E-3   9.940528310835362E-3  
 2.350000000000000E10    1.003410574048758E-2  -9.142615832388401E-3  
 2.352000000000000E10   -1.023517549037933E-2  -8.167059160768986E-3  
 2.354000000000000E10   -7.092758547514677E-3   1.197559759020805E-2  
 2.356000000000000E10    1.310977991670370E-2   5.918040871620178E-3  
 2.358000000000000E10    3.575968788936734E-3  -1.364982780069113E-2  
 2.360000000000000E10   -1.380690280348063E-2  -2.966452622786164E-3  
 2.362000000000000E10   -1.478458521887660E-3   1.404697354882956E-2  
 2.364000000000000E10    1.439708843827248E-2  -6.923429318703711E-4  
 2.366000000000000E10   -1.389564713463187E-3  -1.436568424105644E-2  
 2.368000000000000E10   -1.437932625412941E-2   3.138405503705144E-3  
 2.370000000000000E10    4.883573390543461E-3   1.380576100200415E-2  
 2.372000000000000E10    1.296638045459986E-2  -6.996329408138990E-3  
 2.374000000000000E10   -8.905601687729359E-3  -1.136629376560450E-2  
 2.376000000000000E10   -1.028334815055132E-2   1.022302825003862E-2  
 2.378000000000000E10    1.097672060132027E-2   8.753231726586819E-3  
 2.380000000000000E10    7.064957637339830E-3  -1.161083858460188E-2  
 2.382000000000000E10   -1.323551405221224E-2  -5.642749369144440E-3  
 2.384000000000000E10   -4.681169986724854E-3   1.366146933287382E-2  
 2.386000000000000E10    1.494771335273981E-2   3.071490442380309E-3  
 2.388000000000000E10    9.727391297928989E-4  -1.577552594244480E-2  
 2.390000000000000E10   -1.620818860828877E-2   1.123012858442962E-3  
 2.392000000000000E10    3.507019951939583E-3   1.632164232432842E-2  
 2.394000000000000E10    1.541747432202101E-2  -5.330013111233711E-3  
 2.396000000000000E10   -7.212434895336628E-3  -1.461872644722462E-2  
 2.398000000000000E10   -1.332679204642773E-2   9.299546480178833E-3  
 2.400000000000000E10    1.067805383354425E-2   1.225427631288767E-2  
 2.402000000000000E10    8.635125122964382E-3  -1.314371451735497E-2  
 2.404000000000000E10   -1.378421578556299E-2  -7.120012305676937E-3  
 2.406000000000000E10   -5.599917378276587E-3   1.413023844361305E-2  
 2.408000000000000E10    1.457390096038580E-2   3.655106527730823E-3  
 2.410000000000000E10    2.393292030319572E-3  -1.445500738918781E-2  
 2.412000000000000E10   -1.383442617952824E-2  -1.024221768602729E-3  
 2.414000000000000E10    7.261839928105474E-4   1.384793687611818E-2  
 2.416000000000000E10    1.458161417394877E-2  -2.530068391934037E-3  
 2.418000000000000E10   -4.492227453738451E-3  -1.462957449257374E-2  
 2.420000000000000E10   -1.360264886170626E-2   6.086484529078007E-3  
 2.422000000000000E10    8.030403405427933E-3   1.327212247997522E-2  
 2.424000000000000E10    1.303868554532528E-2  -1.090299338102341E-2  
 2.426000000000000E10   -1.228794734925032E-2  -1.145663950592279E-2  
 2.428000000000000E10   -9.557005949318409E-3   1.352921687066555E-2  
 2.430000000000000E10    1.423716265708208E-2   7.918199524283409E-3  
 2.432000000000000E10    6.569212302565575E-3  -1.494972594082356E-2  
 2.434000000000000E10   -1.540695130825043E-2  -4.641723819077015E-3  
 2.436000000000000E10   -2.923359628766775E-3   1.476513873785734E-2  
 2.438000000000000E10    1.475274283438921E-2   1.297299982979894E-3  
 2.440000000000000E10   -5.918964743614197E-4  -1.485743373632431E-2  
 2.442000000000000E10   -1.471370086073875E-2   1.862289966084063E-3  
 2.444000000000000E10    3.640770679339767E-3   1.370687037706375E-2  
 2.446000000000000E10    1.291612256318331E-2  -5.563937593251467E-3  
 2.448000000000000E10   -7.173365913331509E-3  -1.294557005167007E-2  
 2.450000000000000E10   -1.196021679788828E-2   8.937760256230831E-3  
 2.452000000000000E10    1.054516341537237E-2   1.128944288939238E-2  
 2.454000000000000E10    9.338096715509892E-3  -1.180105656385422E-2  
 2.456000000000000E10   -1.273089833557606E-2  -8.090943098068237E-3  
 2.458000000000000E10   -7.005816325545311E-3   1.395617984235287E-2  
 2.460000000000000E10    1.455658674240112E-2   5.020093172788620E-3  
 2.462000000000000E10    3.359823953360319E-3  -1.420325320214033E-2  
 2.464000000000000E10   -1.418356038630009E-2  -1.841395511291921E-3  
 2.466000000000000E10   -9.523996850475669E-4   1.399058569222689E-2  
 2.468000000000000E10    1.418735459446907E-2  -6.370490882545710E-4  
 2.470000000000000E10   -2.998187439516187E-3  -1.384989824146032E-2  
 2.472000000000000E10   -1.357154268771410E-2   4.445268306881189E-3  
 2.474000000000000E10    5.089020822197199E-3   1.341639924794436E-2  
 2.476000000000000E10    1.241367589682341E-2  -6.383983418345451E-3  
 2.478000000000000E10   -8.930670097470284E-3  -1.131909154355526E-2  
 2.480000000000000E10   -1.033904217183590E-2   1.077959779649973E-2  
 2.482000000000000E10    1.187343429774046E-2   9.403413161635399E-3  
 2.484000000000000E10    7.703400682657957E-3  -1.301939692348242E-2  
 2.486000000000000E10   -1.376249082386494E-2  -4.807789344340563E-3  
 2.488000000000000E10   -2.750275889411569E-3   1.418824214488268E-2  
 2.490000000000000E10    1.361297536641359E-2   1.535257208161056E-3  
 2.492000000000000E10    2.533396036596969E-5  -1.324507035315037E-2  
 2.494000000000000E10   -1.354330591857433E-2   9.962803451344371E-4  
 2.496000000000000E10    2.560689114034176E-3   1.351435296237469E-2  
 2.498000000000000E10    1.272647734731436E-2  -3.618437796831131E-3  
 2.500000000000000E10   -4.724096972495318E-3  -1.215197425335646E-2  
 2.502000000000000E10   -1.219737716019154E-2   6.428255699574947E-3  
 2.504000000000000E10    7.659496273845434E-3   1.118318829685450E-2  
 2.506000000000000E10    1.013791654258966E-2  -8.398325182497501E-3  
 2.508000000000000E10   -9.363234043121338E-3  -9.442394599318504E-3  
 2.510000000000000E10   -8.634684607386589E-3   1.128902286291122E-2  
 2.512000000000000E10    1.231323648244143E-2   7.113660220056772E-3  
 2.514000000000000E10    5.430333781987429E-3  -1.326377596706152E-2  
 2.516000000000000E10   -1.378504186868668E-2  -3.342819167301059E-3  
 2.518000000000000E10   -1.682071830146015E-3   1.379819866269827E-2  
 2.520000000000000E10    1.423725765198469E-2  -4.555421473924071E-4  
 2.522000000000000E10   -1.700538443401456E-3  -1.349672954529524E-2  
 2.524000000000000E10   -1.288280822336674E-2   2.644275547936559E-3  
 2.526000000000000E10    4.084832500666380E-3   1.298855058848858E-2  
 2.528000000000000E10    1.280192378908396E-2  -5.131994839757681E-3  
 2.530000000000000E10   -7.129031233489513E-3  -1.245114114135504E-2  
 2.532000000000000E10   -1.177981402724981E-2   8.653407916426659E-3  
 2.534000000000000E10    1.019989699125290E-2   1.031088270246983E-2  
 2.536000000000000E10    8.605106733739376E-3  -1.155044883489609E-2  
 2.538000000000000E10   -1.179135031998158E-2  -6.955700926482678E-3  
 2.540000000000000E10   -5.334325600415468E-3   1.263484358787537E-2  
 2.542000000000000E10    1.388877909630537E-2   3.675986547023058E-3  
 2.544000000000000E10    2.012546639889479E-3  -1.401010528206825E-2  
 2.546000000000000E10   -1.411447767168284E-2  -3.219536738470197E-4  
 2.548000000000000E10    1.601068302989006E-3   1.396413985639811E-2  
 2.550000000000000E10    1.346024032682180E-2  -4.258195869624615E-3  
 2.552000000000000E10   -6.238813046365976E-3  -1.271685678511858E-2  
 2.554000000000000E10   -1.143210288137198E-2   6.787298712879419E-3  
 2.556000000000000E10    7.601578254252672E-3   1.026448234915733E-2  
 2.558000000000000E10    9.940178133547306E-3  -9.387348778545857E-3  
 2.560000000000000E10   -1.056522224098444E-2  -8.838272653520107E-3  
 2.562000000000000E10   -8.126881904900074E-3   1.155484467744827E-2  
 2.564000000000000E10    1.295743510127068E-2   6.652836222201586E-3  
 2.566000000000000E10    4.329311195760965E-3  -1.501978654414415E-2  
 2.568000000000000E10   -1.626531407237053E-2  -1.736935460940003E-3  
 2.570000000000000E10    5.376600311137736E-4   1.539994589984417E-2  
 2.572000000000000E10    1.403100509196520E-2  -2.076156437397003E-3  
 2.574000000000000E10   -3.515047486871481E-3  -1.389748044312000E-2  
 2.576000000000000E10   -1.396651845425367E-2   5.501745734363794E-3  
 2.578000000000000E10    7.430653553456068E-3   1.270708907395601E-2  
 2.580000000000000E10    1.112717855721712E-2  -8.663005195558071E-3  
 2.582000000000000E10   -1.032401993870735E-2  -9.834336116909981E-3  
 2.584000000000000E10   -9.370550513267517E-3   1.118443254381418E-2  
 2.586000000000000E10    1.140564773231745E-2   6.626424845308065E-3  
 2.588000000000000E10    5.061686504632235E-3  -1.183735858649015E-2  
 2.590000000000000E10   -1.245926506817341E-2  -4.321844782680273E-3  
 2.592000000000000E10   -3.831104142591357E-3   1.352990511804819E-2  
 2.594000000000000E10    1.428925432264805E-2   2.733160508796573E-3  
 2.596000000000000E10    2.869784657377750E-4  -1.470342371612787E-2  
 2.598000000000000E10   -1.531667541712523E-2   2.489785430952907E-3  
 2.600000000000000E10    4.443786107003689E-3   1.517650298774242E-2  
 2.602000000000000E10    1.379920076578856E-2  -6.746079307049513E-3  
 2.604000000000000E10   -8.262637071311474E-3  -1.189449336379767E-2  
 2.606000000000000E10   -1.065919455140829E-2   8.648294955492020E-3  
 2.608000000000000E10    9.297080338001251E-3   9.273148141801357E-3  
 2.610000000000000E10    9.011014364659786E-3  -1.054019387811422E-2  
 2.612000000000000E10   -1.125804241746664E-2  -7.854093797504902E-3  
 2.614000000000000E10   -6.285524927079678E-3   1.261275261640549E-2  
 2.616000000000000E10    1.290872506797314E-2   5.528651643544436E-3  
 2.618000000000000E10    3.172750119119883E-3  -1.284202467650175E-2  
 2.620000000000000E10   -1.327385008335114E-2  -1.333898748271167E-3  
 2.622000000000000E10   -1.261902507394552E-4   1.319783926010132E-2  
 2.624000000000000E10    1.301672123372555E-2  -1.398820197209716E-3  
 2.626000000000000E10   -2.817633794620633E-3  -1.345361117273569E-2  
 2.628000000000000E10   -1.210713293403387E-2   4.990389104932547E-3  
 2.630000000000000E10    7.544392719864845E-3   1.118935085833073E-2  
 2.632000000000000E10    1.043867226690054E-2  -8.918276987969875E-3  
 2.634000000000000E10   -9.065707214176655E-3  -8.072251453995705E-3  
 2.636000000000000E10   -6.856343243271112E-3   1.001255214214325E-2  
 2.638000000000000E10    1.021875254809856E-2   6.027322728186846E-3  
 2.640000000000000E10    4.990427754819393E-3  -1.063080038875341E-2  
 2.642000000000000E10   -1.131286099553108E-2  -4.575242288410664E-3  
 2.644000000000000E10   -3.489500144496560E-3   1.160657126456499E-2  
 2.646000000000000E10    1.222016569226980E-2   1.726908492855728E-3  
 2.648000000000000E10    2.381765953032300E-4  -1.283979695290327E-2  
 2.650000000000000E10   -1.158890035003424E-2   1.131827710196376E-3  
 2.652000000000000E10    3.335899440571666E-3   1.121947076171637E-2  
 2.654000000000000E10    1.078527886420488E-2  -4.660249687731266E-3  
 2.656000000000000E10   -5.676729138940573E-3  -9.404674172401428E-3  
 2.658000000000000E10   -8.509866893291473E-3   6.680247839540243E-3  
 2.660000000000000E10    7.593096233904362E-3   7.114539388567209E-3  
 2.662000000000000E10    5.778986960649490E-3  -8.844819851219654E-3  
 2.664000000000000E10   -9.188939817249775E-3  -4.896386992186308E-3  
 2.666000000000000E10   -3.440325614064932E-3   8.981519378721714E-3  
 2.668000000000000E10    9.386474266648293E-3   2.320072380825877E-3  
 2.670000000000000E10    1.549379085190594E-3  -9.397033601999283E-3  
 2.672000000000000E10   -9.570481255650520E-3  -9.829896735027432E-4  
 2.674000000000000E10   -5.443327245302498E-4   9.952384047210217E-3  
 2.676000000000000E10    9.898298420011997E-3  -9.176057064905763E-4  
 2.678000000000000E10   -2.167960163205862E-3  -9.870706126093864E-3  
 2.680000000000000E10   -1.010771375149488E-2   3.030403750017285E-3  
 2.682000000000000E10    3.909030463546515E-3   8.878865279257298E-3  
 2.684000000000000E10    8.105647750198841E-3  -4.886754322797060E-3  
 2.686000000000000E10   -6.091122049838305E-3  -7.241831161081791E-3  
 2.688000000000000E10   -6.216506473720074E-3   6.611868273466826E-3  
 2.690000000000000E10    6.822196301072836E-3   5.749609787017107E-3  
 2.692000000000000E10    4.608933813869953E-3  -7.628953084349632E-3  
 2.694000000000000E10   -8.399751037359238E-3  -3.570725442841649E-3  
 2.696000000000000E10   -2.554206410422921E-3   8.273757994174957E-3  
 2.698000000000000E10    8.524739183485508E-3   1.198802259750664E-3  
 2.700000000000000E10    6.081479950807989E-4  -8.904528804123402E-3  
 2.702000000000000E10   -8.437029086053371E-3   5.645688506774604E-4  
 2.704000000000000E10    1.760160434059799E-3   8.591042831540108E-3  
 2.706000000000000E10    8.441815152764320E-3  -2.273409161716700E-3  
 2.708000000000000E10   -3.029627026990056E-3  -7.781884167343378E-3  
 2.710000000000000E10   -7.747271098196507E-3   4.329256247729063E-3  
 2.712000000000000E10    4.918984603136778E-3   7.207424845546484E-3  
 2.714000000000000E10    6.223358213901520E-3  -5.770230665802956E-3  
 2.716000000000000E10   -6.088243797421455E-3  -5.733083467930555E-3  
 2.718000000000000E10   -4.939791280776262E-3   6.197974551469088E-3  
 2.720000000000000E10    7.200100924819708E-3   3.843478625640273E-3  
 2.722000000000000E10    3.408928634598851E-3  -7.762640714645386E-3  
 2.724000000000000E10   -7.176897954195738E-3  -2.199723152443767E-3  
 2.726000000000000E10   -8.508201572112739E-4   7.547473069280386E-3  
 2.728000000000000E10    7.565102074295282E-3   4.193981294520199E-4  
 2.730000000000000E10   -7.153319311328232E-4  -7.150694727897644E-3  
 2.732000000000000E10   -6.981648039072752E-3   1.025099190883339E-3  
 2.734000000000000E10    1.828024978749454E-3   6.827230565249920E-3  
 2.736000000000000E10    6.521269679069519E-3  -2.964166458696127E-3  
 2.738000000000000E10   -3.740799147635698E-3  -6.404955405741930E-3  
 2.740000000000000E10   -5.673442967236042E-3   4.642853979021311E-3  
 2.742000000000000E10    5.328625906258822E-3   5.109746474772692E-3  
 2.744000000000000E10    4.705484490841627E-3  -5.481279920786619E-3  
 2.746000000000000E10   -6.320752669125795E-3  -3.898879513144493E-3  
 2.748000000000000E10   -3.371345112100244E-3   6.607521325349808E-3  
 2.750000000000000E10    6.541103124618530E-3   2.794523024931550E-3  
 2.752000000000000E10    1.616058754734695E-3  -6.849310360848904E-3  
 2.754000000000000E10   -6.740829907357693E-3  -7.956142653711140E-4  
 2.756000000000000E10   -1.434797595720738E-4   6.822970695793629E-3  
