#  HZ   S   RI   R     50.00 
! Rohde & Schwarz ZVA40 4Ports - Version 3.90 - 1145.1110k42 SN: 100403
! Date: 2023-10-04 07:29:28
! Measurement: S12 
! 
 2.200000000000000E10    8.786968886852264E-3   9.237063117325306E-3  
 2.202000000000000E10    8.211645297706127E-3  -8.769629523158073E-3  
 2.204000000000000E10   -9.790814481675625E-3  -6.288642529398203E-3  
 2.206000000000000E10   -5.368157755583525E-3   1.090773474425077E-2  
 2.208000000000000E10    1.091528218239546E-2   4.132245201617479E-3  
 2.210000000000000E10    2.989784348756075E-3  -1.127157825976610E-2  
 2.212000000000000E10   -1.114090345799923E-2  -1.594564761035144E-3  
 2.214000000000000E10   -2.930099435616285E-5   1.128691807389259E-2  
 2.216000000000000E10    1.285420171916485E-2  -1.164363464340568E-3  
 2.218000000000000E10   -2.490401733666658E-3  -1.173502858728170E-2  
 2.220000000000000E10   -1.148093026131392E-2   4.851713310927153E-3  
 2.222000000000000E10    6.887612398713827E-3   1.160756871104240E-2  
 2.224000000000000E10    1.001128647476435E-2  -7.804948370903730E-3  
 2.226000000000000E10   -8.796346373856068E-3  -8.248140104115009E-3  
 2.228000000000000E10   -7.600180339068174E-3   9.637874551117420E-3  
 2.230000000000000E10    1.050014141947031E-2   7.268007844686508E-3  
 2.232000000000000E10    6.593212485313416E-3  -1.155782863497734E-2  
 2.234000000000000E10   -1.222286466509104E-2  -4.725402686744928E-3  
 2.236000000000000E10   -2.763288794085383E-3   1.289685443043709E-2  
 2.238000000000000E10    1.359518244862557E-2   1.692107412964106E-3  
 2.240000000000000E10    3.711270619533025E-5  -1.293849945068359E-2  
 2.242000000000000E10   -1.266185194253922E-2   2.186277182772756E-3  
 2.244000000000000E10    3.483327338472009E-3   1.211710926145315E-2  
 2.246000000000000E10    1.193813607096672E-2  -4.125759005546570E-3  
 2.248000000000000E10   -5.392953753471375E-3  -1.156005263328552E-2  
 2.250000000000000E10   -1.122376043349505E-2   7.461725734174252E-3  
 2.252000000000000E10    9.507301263511181E-3   1.013069413602352E-2  
 2.254000000000000E10    8.515161462128162E-3  -1.024578604847193E-2  
 2.256000000000000E10   -1.138912513852119E-2  -7.168434094637632E-3  
 2.258000000000000E10   -5.655047483742237E-3   1.221275329589844E-2  
 2.260000000000000E10    1.169750187546015E-2   4.889575298875570E-3  
 2.262000000000000E10    2.931198570877314E-3  -1.221181266009808E-2  
 2.264000000000000E10   -1.268369983881712E-2  -2.152410801500082E-3  
 2.266000000000000E10   -1.750476425513625E-3   1.309475209563971E-2  
 2.268000000000000E10    1.313439104706049E-2  -3.306454455014318E-4  
 2.270000000000000E10   -1.914978725835681E-3  -1.363477017730475E-2  
 2.272000000000000E10   -1.364727411419153E-2   3.854457288980484E-3  
 2.274000000000000E10    5.686082411557436E-3   1.291313301771879E-2  
 2.276000000000000E10    1.147846505045891E-2  -6.936591584235430E-3  
 2.278000000000000E10   -8.200247772037983E-3  -1.007815636694431E-2  
 2.280000000000000E10   -9.397047571837902E-3   8.800820447504520E-3  
 2.282000000000000E10    2.780202776193619E-3   1.269058324396610E-2  
 2.284000000000000E10    7.714416366070509E-3  -1.072357036173344E-2  
 2.286000000000000E10   -1.206938363611698E-2  -6.307305768132210E-3  
 2.288000000000000E10   -4.759470466524363E-3   1.289650797843933E-2  
 2.290000000000000E10    1.314773689955473E-2   2.551590325310826E-3  
 2.292000000000000E10    3.256460768170655E-4  -1.307255588471890E-2  
 2.294000000000000E10   -1.298055704683065E-2   1.036354922689498E-3  
 2.296000000000000E10    1.452941447496414E-3   1.217736303806305E-2  
 2.298000000000000E10    1.199336163699627E-2  -2.065357752144337E-3  
 2.300000000000000E10   -3.573778318241239E-3  -1.260237675160170E-2  
 2.302000000000000E10   -1.270065736025572E-2   5.711252801120281E-3  
 2.304000000000000E10    8.111577481031418E-3   1.226933207362890E-2  
 2.306000000000000E10    1.073758397251368E-2  -9.860288351774216E-3  
 2.308000000000000E10   -1.133217383176088E-2  -8.809342980384827E-3  
 2.310000000000000E10   -7.206377573311329E-3   1.187992375344038E-2  
 2.312000000000000E10    1.261696405708790E-2   5.187349393963814E-3  
 2.314000000000000E10    4.377153702080250E-3  -1.293761190026999E-2  
 2.316000000000000E10   -1.367256511002779E-2  -3.187299706041813E-3  
 2.318000000000000E10   -1.469816779717803E-3   1.419906225055456E-2  
 2.320000000000000E10    1.412970572710037E-2  -1.106199575588107E-3  
 2.322000000000000E10   -2.742926590144634E-3  -1.414709910750389E-2  
 2.324000000000000E10   -1.392107084393501E-2   4.137346055358648E-3  
 2.326000000000000E10    5.634823348373175E-3   1.242272090166807E-2  
 2.328000000000000E10    1.116568315774202E-2  -6.510161329060793E-3  
 2.330000000000000E10   -7.593160495162010E-3  -1.088755950331688E-2  
 2.332000000000000E10   -1.010804716497660E-2   8.569224737584591E-3  
 2.334000000000000E10    9.855150245130062E-3   8.790919557213783E-3  
 2.336000000000000E10    8.030170574784279E-3  -1.200996432453394E-2  
 2.338000000000000E10   -1.326591428369284E-2  -5.910317879170179E-3  
 2.340000000000000E10   -3.903869539499283E-3   1.387468352913857E-2  
 2.342000000000000E10    1.399475894868374E-2   1.158524537459016E-3  
 2.344000000000000E10   -1.361014670692384E-3  -1.386924646794796E-2  
 2.346000000000000E10   -1.369290612637997E-2   2.035105368122459E-3  
 2.348000000000000E10    2.305384259670973E-3   1.285134349018335E-2  
 2.350000000000000E10    1.255980599671602E-2  -3.614041488617659E-3  
 2.352000000000000E10   -5.709369201213121E-3  -1.286471728235483E-2  
 2.354000000000000E10   -1.217837166041136E-2   7.279335055500269E-3  
 2.356000000000000E10    8.608383126556873E-3   1.121034473180771E-2  
 2.358000000000000E10    9.786595590412617E-3  -9.326462633907795E-3  
 2.360000000000000E10   -9.892113506793976E-3  -8.133742026984692E-3  
 2.362000000000000E10   -7.564102299511433E-3   1.150159817188978E-2  
 2.364000000000000E10    1.190583873540163E-2   6.152243819087744E-3  
 2.366000000000000E10    4.787936806678772E-3  -1.232921518385410E-2  
 2.368000000000000E10   -1.377110090106726E-2  -3.325654892250896E-3  
 2.370000000000000E10   -1.252033165656030E-3   1.424672547727823E-2  
 2.372000000000000E10    1.482251100242138E-2  -1.527281827293336E-3  
 2.374000000000000E10   -3.326099133118987E-3  -1.432895567268133E-2  
 2.376000000000000E10   -1.285578683018684E-2   4.230772610753775E-3  
 2.378000000000000E10    6.301736924797297E-3   1.216396596282721E-2  
 2.380000000000000E10    1.206374913454056E-2  -7.293879054486752E-3  
 2.382000000000000E10   -8.282164111733437E-3  -1.144096627831459E-2  
 2.384000000000000E10   -1.081068534404039E-2   9.778317995369434E-3  
 2.386000000000000E10    1.194903068244457E-2   1.013711374253035E-2  
 2.388000000000000E10    8.690451271831989E-3  -1.332284044474363E-2  
 2.390000000000000E10   -1.457379944622517E-2  -7.571222726255655E-3  
 2.392000000000000E10   -4.947375506162643E-3   1.560191158205271E-2  
 2.394000000000000E10    1.623621582984924E-2   2.521458780393004E-3  
 2.396000000000000E10    7.689586491324008E-4  -1.657694391906261E-2  
 2.398000000000000E10   -1.578304730355740E-2   1.223409315571189E-3  
 2.400000000000000E10    3.795658703893423E-3   1.505711767822504E-2  
 2.402000000000000E10    1.317671872675419E-2  -7.545811589807272E-3  
 2.404000000000000E10   -8.647309616208077E-3  -1.217887923121452E-2  
 2.406000000000000E10   -1.039380114525557E-2   9.952738881111145E-3  
 2.408000000000000E10    1.127330772578716E-2   9.105511941015720E-3  
 2.410000000000000E10    7.522861473262310E-3  -1.191935408860445E-2  
 2.412000000000000E10   -1.252518128603697E-2  -6.562421098351479E-3  
 2.414000000000000E10   -5.872052628546953E-3   1.327415276318789E-2  
 2.416000000000000E10    1.463555824011564E-2   4.548833705484867E-3  
 2.418000000000000E10    2.996069611981511E-3  -1.586709730327129E-2  
 2.420000000000000E10   -1.594562828540802E-2  -1.544450293295085E-3  
 2.422000000000000E10   -1.693726371740922E-4   1.665001176297665E-2  
 2.424000000000000E10    1.689935661852360E-2  -2.263100817799568E-3  
 2.426000000000000E10   -4.625511355698109E-3  -1.581648364663124E-2  
 2.428000000000000E10   -1.494730915874243E-2   6.748310290277004E-3  
 2.430000000000000E10    7.856999523937702E-3   1.374314446002245E-2  
 2.432000000000000E10    1.199366338551045E-2  -9.018194861710072E-3  
 2.434000000000000E10   -1.045949012041092E-2  -1.003039814531803E-2  
 2.436000000000000E10   -8.465277031064034E-3   1.147564221173525E-2  
 2.438000000000000E10    1.194981019943953E-2   7.365148514509201E-3  
 2.440000000000000E10    5.951161496341229E-3  -1.302425377070904E-2  
 2.442000000000000E10   -1.403321605175734E-2  -4.627836868166924E-3  
 2.444000000000000E10   -2.715393900871277E-3   1.485043112188578E-2  
 2.446000000000000E10    1.463554892688990E-2   1.302936812862754E-3  
 2.448000000000000E10   -3.991038538515568E-4  -1.501009147614241E-2  
 2.450000000000000E10   -1.504871062934399E-2   1.978597370907664E-3  
 2.452000000000000E10    4.123558290302753E-3   1.515836361795664E-2  
 2.454000000000000E10    1.397153735160828E-2  -5.630519706755877E-3  
 2.456000000000000E10   -6.914325058460236E-3  -1.331034209579229E-2  
 2.458000000000000E10   -1.252568699419498E-2   8.779577910900116E-3  
 2.460000000000000E10    1.018989365547895E-2   1.059735659509897E-2  
 2.462000000000000E10    9.172350168228149E-3  -1.058641634881496E-2  
 2.464000000000000E10   -1.068892888724804E-2  -8.061885833740234E-3  
 2.466000000000000E10   -6.937751546502113E-3   1.096147112548351E-2  
 2.468000000000000E10    1.197843253612518E-2   6.062757223844528E-3  
 2.470000000000000E10    4.334504250437021E-3  -1.328607741743326E-2  
 2.472000000000000E10   -1.325860153883696E-2  -2.870721509680152E-3  
 2.474000000000000E10   -1.545794308185577E-3   1.352851744741201E-2  
 2.476000000000000E10    1.397863775491715E-2  -5.966549506410956E-4  
 2.478000000000000E10   -2.453956520184875E-3  -1.404831279069185E-2  
 2.480000000000000E10   -1.352136954665184E-2   4.306680057197809E-3  
 2.482000000000000E10    5.737101193517447E-3   1.284840516746044E-2  
 2.484000000000000E10    1.240975689142942E-2  -7.351342588663101E-3  
 2.486000000000000E10   -9.646648541092873E-3  -1.143539045006037E-2  
 2.488000000000000E10   -9.319047443568707E-3   1.035292167216539E-2  
 2.490000000000000E10    1.093167811632156E-2   7.889779284596443E-3  
 2.492000000000000E10    7.126338314265013E-3  -1.161129865795374E-2  
 2.494000000000000E10   -1.222804561257362E-2  -6.316812243312597E-3  
 2.496000000000000E10   -4.646249115467072E-3   1.244097296148539E-2  
 2.498000000000000E10    1.215966045856476E-2   2.980883233249188E-3  
 2.500000000000000E10    1.931155566126108E-3  -1.277416199445725E-2  
 2.502000000000000E10   -1.328342594206333E-2  -7.697402616031468E-4  
 2.504000000000000E10    1.379137393087149E-3   1.265072450041771E-2  
 2.506000000000000E10    1.249419525265694E-2  -2.768374281004071E-3  
 2.508000000000000E10   -3.628594567999244E-3  -1.237207092344761E-2  
 2.510000000000000E10   -1.227627601474524E-2   5.379105452448130E-3  
 2.512000000000000E10    7.560476195067167E-3   1.165921613574028E-2  
 2.514000000000000E10    1.081260666251183E-2  -8.730613626539707E-3  
 2.516000000000000E10   -9.873145259916782E-3  -9.482289664447308E-3  
 2.518000000000000E10   -8.788595907390118E-3   1.078778319060803E-2  
 2.520000000000000E10    1.151286158710718E-2   7.028666790574789E-3  
 2.522000000000000E10    5.459182895720005E-3  -1.232993975281715E-2  
 2.524000000000000E10   -1.287798304110766E-2  -4.497435409575701E-3  
 2.526000000000000E10   -3.117866348475218E-3   1.268399972468615E-2  
 2.528000000000000E10    1.317625027149916E-2   1.306616468355060E-3  
 2.530000000000000E10    5.966797471046448E-5  -1.390435919165611E-2  
 2.532000000000000E10   -1.368925813585520E-2   1.816644449718297E-3  
 2.534000000000000E10    3.378566354513168E-3   1.348559837788343E-2  
 2.536000000000000E10    1.254746597260237E-2  -5.402765236794949E-3  
 2.538000000000000E10   -7.686223834753037E-3  -1.152515597641468E-2  
 2.540000000000000E10   -1.093501597642899E-2   8.671070449054241E-3  
 2.542000000000000E10    9.765028953552246E-3   9.549388661980629E-3  
 2.544000000000000E10    7.446409203112125E-3  -1.148832309991121E-2  
 2.546000000000000E10   -1.189741492271423E-2  -6.605627946555615E-3  
 2.548000000000000E10   -5.246461834758520E-3   1.264841761440039E-2  
 2.550000000000000E10    1.344581134617329E-2   3.165754955261946E-3  
 2.552000000000000E10    1.154293655417860E-3  -1.322930771857500E-2  
 2.554000000000000E10   -1.308437529951334E-2   8.592519443482161E-4  
 2.556000000000000E10    1.515231211669743E-3   1.326987799257040E-2  
 2.558000000000000E10    1.264231372624636E-2  -2.784653799608350E-3  
 2.560000000000000E10   -4.593077115714550E-3  -1.190942432731390E-2  
 2.562000000000000E10   -1.211600471287966E-2   5.835697986185551E-3  
 2.564000000000000E10    7.066993508487940E-3   1.215009205043316E-2  
 2.566000000000000E10    1.121004298329353E-2  -9.398495778441429E-3  
 2.568000000000000E10   -1.174828317016363E-2  -9.335280396044254E-3  
 2.570000000000000E10   -6.694849580526352E-3   1.261834427714348E-2  
 2.572000000000000E10    1.299196761101484E-2   5.171795375645161E-3  
 2.574000000000000E10    4.256002604961395E-3  -1.308652479201555E-2  
 2.576000000000000E10   -1.360855624079704E-2  -1.560445525683463E-3  
 2.578000000000000E10    9.651315631344914E-4   1.353670563548803E-2  
 2.580000000000000E10    1.359884999692440E-2  -2.121029421687126E-3  
 2.582000000000000E10   -3.128620795905590E-3  -1.303247641772032E-2  
 2.584000000000000E10   -1.213246677070856E-2   5.082660820335150E-3  
 2.586000000000000E10    6.819179281592369E-3   1.127274800091982E-2  
 2.588000000000000E10    1.044666115194559E-2  -7.772191427648068E-3  
 2.590000000000000E10   -8.245066739618778E-3  -9.504992514848709E-3  
 2.592000000000000E10   -9.324812330305576E-3   9.415206499397755E-3  
 2.594000000000000E10    1.085161138325930E-2   8.153029717504978E-3  
 2.596000000000000E10    7.238873280584812E-3  -1.201183162629604E-2  
 2.598000000000000E10   -1.258462201803923E-2  -5.595178343355656E-3  
 2.600000000000000E10   -3.294535214081407E-3   1.361037138849497E-2  
 2.602000000000000E10    1.472293585538864E-2   1.414435100741684E-3  
 2.604000000000000E10   -3.796071396209300E-4  -1.384260319173336E-2  
 2.606000000000000E10   -1.251537725329399E-2   1.750907744280994E-3  
 2.608000000000000E10    2.713073045015335E-3   1.186457369476557E-2  
 2.610000000000000E10    1.158139668405056E-2  -3.955872729420662E-3  
 2.612000000000000E10   -5.425295792520046E-3  -1.187340635806322E-2  
 2.614000000000000E10   -1.158963516354561E-2   6.067361682653427E-3  
 2.616000000000000E10    7.424323819577694E-3   9.894495829939842E-3  
 2.618000000000000E10    8.960179984569550E-3  -9.814596734941006E-3  
 2.620000000000000E10   -1.039860025048256E-2  -7.260965649038553E-3  
 2.622000000000000E10   -5.671174265444279E-3   1.110986247658730E-2  
 2.624000000000000E10    1.169899012893438E-2   4.993706010282040E-3  
 2.626000000000000E10    3.338801907375455E-3  -1.178377401083708E-2  
 2.628000000000000E10   -1.270718220621347E-2  -1.582011464051902E-3  
 2.630000000000000E10   -6.568894605152309E-5   1.313629001379013E-2  
 2.632000000000000E10    1.238507218658924E-2  -2.320935949683189E-3  
 2.634000000000000E10   -3.601474454626441E-3  -1.179308723658323E-2  
 2.636000000000000E10   -1.092723384499550E-2   3.986680414527655E-3  
 2.638000000000000E10    5.342134274542332E-3   9.831262752413750E-3  
 2.640000000000000E10    9.238743223249912E-3  -6.092020310461521E-3  
 2.642000000000000E10   -6.522506941109896E-3  -8.648524992167950E-3  
 2.644000000000000E10   -8.210055530071259E-3   7.450942415744066E-3  
 2.646000000000000E10    8.425807580351830E-3   7.351393345743418E-3  
 2.648000000000000E10    5.257145501673222E-3  -9.506524540483952E-3  
 2.650000000000000E10   -1.042674202471972E-2  -3.791335271671414E-3  
 2.652000000000000E10   -2.679217141121626E-3   1.055825222283602E-2  
 2.654000000000000E10    1.023474801331759E-2   9.894692339003086E-4  
 2.656000000000000E10   -3.896529669873416E-4  -1.031116116791964E-2  
 2.658000000000000E10   -9.869142435491085E-3   2.023358829319477E-3  
 2.660000000000000E10    3.382576862350106E-3   9.816471487283707E-3  
 2.662000000000000E10    9.171112440526485E-3  -4.239817615598440E-3  
 2.664000000000000E10   -5.471024662256241E-3  -7.614360656589270E-3  
 2.666000000000000E10   -7.287832442671061E-3   6.298230495303869E-3  
 2.668000000000000E10    6.497025024145842E-3   6.315722595900297E-3  
 2.670000000000000E10    5.557623691856861E-3  -6.851548794656992E-3  
 2.672000000000000E10   -7.199963554739952E-3  -5.060253199189901E-3  
 2.674000000000000E10   -4.421120043843985E-3   7.306698244065046E-3  
 2.676000000000000E10    8.469224907457829E-3   3.977781627327204E-3  
 2.678000000000000E10    3.249821020290256E-3  -8.360508829355240E-3  
 2.680000000000000E10   -8.304292336106300E-3  -2.236490603536367E-3  
 2.682000000000000E10   -9.265913395211101E-4   8.859410881996155E-3  
 2.684000000000000E10    8.740041404962540E-3   1.842535275500268E-4  
 2.686000000000000E10   -9.097240981645882E-4  -8.217870257794857E-3  
 2.688000000000000E10   -7.678586523979902E-3   1.752757816575468E-3  
 2.690000000000000E10    2.894579200074077E-3   7.327692583203316E-3  
 2.692000000000000E10    7.099932059645653E-3  -3.868076484650374E-3  
 2.694000000000000E10   -4.270090721547604E-3  -6.431787740439177E-3  
 2.696000000000000E10   -5.308913066983223E-3   5.155398510396481E-3  
 2.698000000000000E10    5.993479397147894E-3   4.643249791115522E-3  
 2.700000000000000E10    3.887278260663152E-3  -6.301589775830507E-3  
 2.702000000000000E10   -6.853148806840181E-3  -3.502268576994538E-3  
 2.704000000000000E10   -2.531897509470582E-3   6.978413090109825E-3  
 2.706000000000000E10    7.048692088574171E-3   1.437519444152713E-3  
 2.708000000000000E10    1.511390786617994E-3  -7.613914553076029E-3  
 2.710000000000000E10   -7.578552700579166E-3  -1.151128439232707E-3  
 2.712000000000000E10    4.436475574038923E-4   7.461979053914547E-3  
 2.714000000000000E10    7.500332780182362E-3  -1.024448894895613E-3  
 2.716000000000000E10   -1.499418518505991E-3  -6.926800124347210E-3  
 2.718000000000000E10   -6.821120157837868E-3   2.264673588797450E-3  
 2.720000000000000E10    2.993343165144324E-3   6.422723177820444E-3  
 2.722000000000000E10    5.483778193593025E-3  -3.659317968413234E-3  
 2.724000000000000E10   -4.735096823424101E-3  -5.202472675591707E-3  
 2.726000000000000E10   -4.564882721751928E-3   4.888087045401335E-3  
 2.728000000000000E10    4.915811121463776E-3   3.471033647656441E-3  
 2.730000000000000E10    2.746950369328260E-3  -5.842128302901983E-3  
 2.732000000000000E10   -5.870424676686525E-3  -2.007514936849475E-3  
 2.734000000000000E10   -1.484627602621913E-3   5.935863591730595E-3  
 2.736000000000000E10    6.603125017136335E-3   1.126413349993527E-3  
 2.738000000000000E10    3.417970146983862E-4  -6.604432594031096E-3  
 2.740000000000000E10   -6.628787610679865E-3   4.753205867018551E-4  
 2.742000000000000E10    1.383237889967859E-3   6.643561180680990E-3  
 2.744000000000000E10    6.297041662037373E-3  -1.838127616792917E-3  
 2.746000000000000E10   -2.263621659949422E-3  -5.950269754976034E-3  
 2.748000000000000E10   -5.233652889728546E-3   3.224784741178155E-3  
 2.750000000000000E10    3.761261468753219E-3   5.038827192038298E-3  
 2.752000000000000E10    4.391145892441273E-3  -4.070123191922903E-3  
 2.754000000000000E10   -4.297250416129828E-3  -3.546281484887004E-3  
 2.756000000000000E10   -2.757334150373936E-3   4.889206495136023E-3  
