#  HZ   S   RI   R     50.00 
! Rohde & Schwarz ZVA40 4Ports - Version 3.90 - 1145.1110k42 SN: 100403
! Date: 2023-10-04 07:30:28
! Measurement: S12 
! 
 2.200000000000000E10    8.389190770685673E-3   8.027679286897183E-3  
 2.202000000000000E10    6.368535105139017E-3  -8.766055107116699E-3  
 2.204000000000000E10   -1.062586903572083E-2  -5.843609571456909E-3  
 2.206000000000000E10   -5.018583033233881E-3   1.108863856643438E-2  
 2.208000000000000E10    1.107432972639799E-2   3.292527748271823E-3  
 2.210000000000000E10    2.186626428738236E-3  -1.138977240771055E-2  
 2.212000000000000E10   -1.162896212190390E-2  -8.991616195999086E-4  
 2.214000000000000E10    2.422906691208482E-4   1.204812433570623E-2  
 2.216000000000000E10    1.239007059484720E-2  -9.676867048256099E-4  
 2.218000000000000E10   -3.370153252035379E-3  -1.164640113711357E-2  
 2.220000000000000E10   -1.213643420487642E-2   5.150441080331802E-3  
 2.222000000000000E10    6.021829321980476E-3   1.133402623236179E-2  
 2.224000000000000E10    9.149745106697083E-3  -7.744225673377514E-3  
 2.226000000000000E10   -8.980072103440762E-3  -7.561165373772383E-3  
 2.228000000000000E10   -7.303732912987471E-3   8.903516456484795E-3  
 2.230000000000000E10    9.276618249714375E-3   6.227227859199047E-3  
 2.232000000000000E10    5.348638631403446E-3  -1.050396077334881E-2  
 2.234000000000000E10   -1.213682256639004E-2  -3.968758508563042E-3  
 2.236000000000000E10   -2.501263283193111E-3   1.251309923827648E-2  
 2.238000000000000E10    1.254894677549601E-2   1.296565285883844E-3  
 2.240000000000000E10   -1.073027495294809E-3  -1.232312805950642E-2  
 2.242000000000000E10   -1.229125261306763E-2   2.853782847523689E-3  
 2.244000000000000E10    3.755029290914536E-3   1.169947814196348E-2  
 2.246000000000000E10    1.147551368921995E-2  -4.641505889594555E-3  
 2.248000000000000E10   -5.832889582961798E-3  -1.134767103940249E-2  
 2.250000000000000E10   -1.097401417791843E-2   7.430339232087135E-3  
 2.252000000000000E10    9.004293009638786E-3   9.751225821673870E-3  
 2.254000000000000E10    7.849982008337975E-3  -1.011732313781977E-2  
 2.256000000000000E10   -1.109703630208969E-2  -6.750306580215693E-3  
 2.258000000000000E10   -5.495253484696150E-3   1.137890946120024E-2  
 2.260000000000000E10    1.142591331154108E-2   4.341263324022293E-3  
 2.262000000000000E10    2.850841730833054E-3  -1.184762269258499E-2  
 2.264000000000000E10   -1.218299381434917E-2  -2.245447365567088E-3  
 2.266000000000000E10   -1.199883641675115E-3   1.253563817590475E-2  
 2.268000000000000E10    1.313909236341715E-2  -7.745359325781465E-4  
 2.270000000000000E10   -1.959145534783602E-3  -1.320931501686573E-2  
 2.272000000000000E10   -1.302507799118757E-2   3.922030795365572E-3  
 2.274000000000000E10    5.695112515240908E-3   1.249718107283115E-2  
 2.276000000000000E10    1.112479716539383E-2  -7.577907759696245E-3  
 2.278000000000000E10   -7.854353636503220E-3  -1.004311069846153E-2  
 2.280000000000000E10   -8.619993925094605E-3   8.293845690786839E-3  
 2.282000000000000E10    3.252652473747730E-3   1.189334411174059E-2  
 2.284000000000000E10    7.054912857711315E-3  -1.089347619563341E-2  
 2.286000000000000E10   -1.203201431781054E-2  -6.080416031181812E-3  
 2.288000000000000E10   -4.552989266812801E-3   1.278867200016975E-2  
 2.290000000000000E10    1.333755254745483E-2   2.373129129409790E-3  
 2.292000000000000E10    5.821895319968462E-4  -1.320488657802343E-2  
 2.294000000000000E10   -1.288333162665367E-2   6.642777589149773E-4  
 2.296000000000000E10    1.343398354947567E-3   1.214876864105463E-2  
 2.298000000000000E10    1.218451000750065E-2  -2.108661457896233E-3  
 2.300000000000000E10   -3.440087893977761E-3  -1.284968014806509E-2  
 2.302000000000000E10   -1.295309048146009E-2   5.772729404270649E-3  
 2.304000000000000E10    8.025893010199070E-3   1.240504253655672E-2  
 2.306000000000000E10    1.056598965078592E-2  -1.005850452929735E-2  
 2.308000000000000E10   -1.086992770433426E-2  -8.574679493904114E-3  
 2.310000000000000E10   -6.795693188905716E-3   1.124558784067631E-2  
 2.312000000000000E10    1.205991115421057E-2   5.341263487935066E-3  
 2.314000000000000E10    4.721502307802439E-3  -1.223518606275320E-2  
 2.316000000000000E10   -1.330572180449963E-2  -3.104369621723890E-3  
 2.318000000000000E10   -1.051332801580429E-3   1.339494995772839E-2  
 2.320000000000000E10    1.368705648928881E-2  -8.469697786495090E-4  
 2.322000000000000E10   -2.485235221683979E-3  -1.376770902425051E-2  
 2.324000000000000E10   -1.290474738925695E-2   4.382723011076450E-3  
 2.326000000000000E10    6.247639190405607E-3   1.206359546631575E-2  
 2.328000000000000E10    1.119965966790915E-2  -7.430225610733032E-3  
 2.330000000000000E10   -8.018003776669502E-3  -1.035920064896345E-2  
 2.332000000000000E10   -9.508945979177952E-3   9.036367759108543E-3  
 2.334000000000000E10    1.057195290923119E-2   9.018047712743282E-3  
 2.336000000000000E10    8.440349251031876E-3  -1.228806748986244E-2  
 2.338000000000000E10   -1.321588642895222E-2  -6.550665944814682E-3  
 2.340000000000000E10   -4.237287677824497E-3   1.379558723419905E-2  
 2.342000000000000E10    1.409928873181343E-2   1.566976308822632E-3  
 2.344000000000000E10   -3.726388385985047E-4  -1.374210976064205E-2  
 2.346000000000000E10   -1.317175570875406E-2   1.062173629179597E-3  
 2.348000000000000E10    2.142907353118062E-3   1.187954843044281E-2  
 2.350000000000000E10    1.213581301271915E-2  -3.718920517712832E-3  
 2.352000000000000E10   -5.524620413780212E-3  -1.239774096757174E-2  
 2.354000000000000E10   -1.116166543215513E-2   7.497863378375769E-3  
 2.356000000000000E10    9.006735868752003E-3   1.027218904346228E-2  
 2.358000000000000E10    8.717818185687065E-3  -1.010355912148953E-2  
 2.360000000000000E10   -1.076778676360846E-2  -7.286359090358019E-3  
 2.362000000000000E10   -6.874884944409132E-3   1.222094800323248E-2  
 2.364000000000000E10    1.240767911076546E-2   5.283724516630173E-3  
 2.366000000000000E10    4.689294844865799E-3  -1.292032375931740E-2  
 2.368000000000000E10   -1.407894957810640E-2  -3.471619915217161E-3  
 2.370000000000000E10   -1.159112900495529E-3   1.472736522555351E-2  
 2.372000000000000E10    1.499518938362598E-2  -6.657368503510952E-4  
 2.374000000000000E10   -2.036205725744367E-3  -1.406437437981367E-2  
 2.376000000000000E10   -1.271401718258858E-2   3.996374085545540E-3  
 2.378000000000000E10    5.470350850373507E-3   1.246655732393265E-2  
 2.380000000000000E10    1.197419967502356E-2  -6.035166326910257E-3  
 2.382000000000000E10   -7.342688739299774E-3  -1.071006245911121E-2  
 2.384000000000000E10   -1.045252755284309E-2   9.764560498297215E-3  
 2.386000000000000E10    1.138100679963827E-2   9.418814443051815E-3  
 2.388000000000000E10    7.773150689899921E-3  -1.273626834154129E-2  
 2.390000000000000E10   -1.384945493191481E-2  -5.886062048375607E-3  
 2.392000000000000E10   -3.612056607380509E-3   1.514931581914425E-2  
 2.394000000000000E10    1.586022786796093E-2   1.710254000499845E-3  
 2.396000000000000E10    4.357567231636494E-4  -1.626693643629551E-2  
 2.398000000000000E10   -1.571006514132023E-2   2.442004391923547E-3  
 2.400000000000000E10    4.235775209963322E-3   1.581256277859211E-2  
 2.402000000000000E10    1.366076711565256E-2  -7.741897366940975E-3  
 2.404000000000000E10   -8.765204809606075E-3  -1.218601781874895E-2  
 2.406000000000000E10   -1.134383864700794E-2   1.030113548040390E-2  
 2.408000000000000E10    1.144933328032494E-2   1.002935320138931E-2  
 2.410000000000000E10    8.515924215316773E-3  -1.184092648327351E-2  
 2.412000000000000E10   -1.204442512243986E-2  -7.457377854734659E-3  
 2.414000000000000E10   -6.327353883534670E-3   1.279021706432104E-2  
 2.416000000000000E10    1.405190769582987E-2   5.001456011086702E-3  
 2.418000000000000E10    3.371461061760783E-3  -1.455775462090969E-2  
 2.420000000000000E10   -1.442207489162684E-2  -1.775373006239533E-3  
 2.422000000000000E10    2.084924490191042E-4   1.529381144791842E-2  
 2.424000000000000E10    1.550718676298857E-2  -2.441170159727335E-3  
 2.426000000000000E10   -5.648739635944367E-3  -1.488651242107153E-2  
 2.428000000000000E10   -1.416931115090847E-2   7.783195935189724E-3  
 2.430000000000000E10    9.130193851888180E-3   1.254571229219437E-2  
 2.432000000000000E10    1.137453783303499E-2  -1.035263761878014E-2  
 2.434000000000000E10   -1.144947577267885E-2  -9.985004551708698E-3  
 2.436000000000000E10   -8.698071353137493E-3   1.196686178445816E-2  
 2.438000000000000E10    1.258799992501736E-2   7.644535973668098E-3  
 2.440000000000000E10    6.433782633394003E-3  -1.326073519885540E-2  
 2.442000000000000E10   -1.412864401936531E-2  -5.329765845090151E-3  
 2.444000000000000E10   -3.562818281352520E-3   1.417105086147785E-2  
 2.446000000000000E10    1.370059233158827E-2   1.672962214797735E-3  
 2.448000000000000E10    3.962553091696464E-5  -1.374215446412563E-2  
 2.450000000000000E10   -1.410450134426355E-2   1.460861996747553E-3  
 2.452000000000000E10    2.898905426263809E-3   1.355783268809319E-2  
 2.454000000000000E10    1.299435179680586E-2  -5.093590822070837E-3  
 2.456000000000000E10   -6.770360749214888E-3  -1.222685538232327E-2  
 2.458000000000000E10   -1.187270786613226E-2   8.640821091830730E-3  
 2.460000000000000E10    1.027497556060553E-2   9.837790392339230E-3  
 2.462000000000000E10    8.504891768097878E-3  -1.053329650312662E-2  
 2.464000000000000E10   -1.102415658533573E-2  -7.226602640002966E-3  
 2.466000000000000E10   -6.729954853653908E-3   1.135405525565147E-2  
 2.468000000000000E10    1.234806701540947E-2   5.937295965850353E-3  
 2.470000000000000E10    4.630821291357279E-3  -1.314192451536655E-2  
 2.472000000000000E10   -1.335564721375704E-2  -2.906903391703963E-3  
 2.474000000000000E10   -1.749592716805637E-3   1.348432525992394E-2  
 2.476000000000000E10    1.386717800050974E-2   2.644799533300102E-4  
 2.478000000000000E10   -1.579104922711849E-3  -1.380407251417637E-2  
 2.480000000000000E10   -1.331543736159802E-2   3.389008343219757E-3  
 2.482000000000000E10    4.886382725089788E-3   1.288542710244656E-2  
 2.484000000000000E10    1.255345344543457E-2  -6.625790614634752E-3  
 2.486000000000000E10   -8.579576388001442E-3  -1.123271044343710E-2  
 2.488000000000000E10   -9.109781123697758E-3   9.767664596438408E-3  
 2.490000000000000E10    1.019702944904566E-2   7.442227564752102E-3  
 2.492000000000000E10    6.869170349091291E-3  -1.097891386598349E-2  
 2.494000000000000E10   -1.165016088634729E-2  -5.926009267568588E-3  
 2.496000000000000E10   -4.451268352568150E-3   1.211142446845770E-2  
 2.498000000000000E10    1.230309624224901E-2   2.524596871808171E-3  
 2.500000000000000E10    1.765830558724701E-3  -1.260206196457148E-2  
 2.502000000000000E10   -1.349041331559420E-2  -5.425839335657656E-4  
 2.504000000000000E10    1.852626213803887E-3   1.286147907376289E-2  
 2.506000000000000E10    1.236779429018498E-2  -2.440229756757617E-3  
 2.508000000000000E10   -3.274860559031367E-3  -1.199384033679962E-2  
 2.510000000000000E10   -1.220763754099608E-2   5.045697093009949E-3  
 2.512000000000000E10    6.616199389100075E-3   1.177117228507996E-2  
 2.514000000000000E10    1.056466717272997E-2  -7.905497215688229E-3  
 2.516000000000000E10   -9.462020359933376E-3  -9.198742918670178E-3  
 2.518000000000000E10   -7.997239939868450E-3   1.035863906145096E-2  
 2.520000000000000E10    1.102344878017902E-2   5.966578144580126E-3  
 2.522000000000000E10    4.952316172420979E-3  -1.181438844650984E-2  
 2.524000000000000E10   -1.161695551127195E-2  -3.794076154008508E-3  
 2.526000000000000E10   -2.287184121087194E-3   1.228738948702812E-2  
 2.528000000000000E10    1.276925392448902E-2   9.570395923219621E-4  
 2.530000000000000E10   -1.897469192044810E-4  -1.313516777008772E-2  
 2.532000000000000E10   -1.310110464692116E-2   2.205408643931150E-3  
 2.534000000000000E10    3.441268112510443E-3   1.288143638521433E-2  
 2.536000000000000E10    1.243038102984428E-2  -5.378561094403267E-3  
 2.538000000000000E10   -7.224527187645435E-3  -1.183143351227045E-2  
 2.540000000000000E10   -1.062911655753851E-2   7.826711051166058E-3  
 2.542000000000000E10    9.669575840234757E-3   9.275930933654308E-3  
 2.544000000000000E10    7.892364636063576E-3  -1.102007925510407E-2  
 2.546000000000000E10   -1.110493764281273E-2  -6.727832835167646E-3  
 2.548000000000000E10   -4.960523918271065E-3   1.202133111655712E-2  
 2.550000000000000E10    1.280942000448704E-2   3.280830336734653E-3  
 2.552000000000000E10    1.011915272101760E-3  -1.261666510254145E-2  
 2.554000000000000E10   -1.233074907213450E-2   3.856296534650028E-4  
 2.556000000000000E10    1.370421145111322E-3   1.211655698716641E-2  
 2.558000000000000E10    1.170468889176846E-2  -2.964447485283017E-3  
 2.560000000000000E10   -4.406402353197336E-3  -1.174713019281626E-2  
 2.562000000000000E10   -1.136452145874500E-2   5.247601773589850E-3  
 2.564000000000000E10    7.132462691515684E-3   1.104148011654615E-2  
 2.566000000000000E10    1.024837512522936E-2  -9.560385718941689E-3  
 2.568000000000000E10   -1.132895238697529E-2  -8.340932428836823E-3  
 2.570000000000000E10   -6.139090284705162E-3   1.231194846332073E-2  
 2.572000000000000E10    1.222874224185944E-2   4.723656456917524E-3  
 2.574000000000000E10    3.217959310859442E-3  -1.296263374388218E-2  
 2.576000000000000E10   -1.333718281239271E-2  -1.117753330618143E-3  
 2.578000000000000E10    7.189247990027070E-4   1.309500914067030E-2  
 2.580000000000000E10    1.268834620714188E-2  -1.607964746654034E-3  
 2.582000000000000E10   -3.187987720593810E-3  -1.247315108776093E-2  
 2.584000000000000E10   -1.226359792053700E-2   4.732545465230942E-3  
 2.586000000000000E10    5.903484765440226E-3   1.154329814016819E-2  
 2.588000000000000E10    9.940913878381252E-3  -7.250566501170397E-3  
 2.590000000000000E10   -7.850102148950100E-3  -8.764363825321198E-3  
 2.592000000000000E10   -8.942348882555962E-3   8.863407187163830E-3  
 2.594000000000000E10    1.004447601735592E-2   8.200572803616524E-3  
 2.596000000000000E10    7.075623143464327E-3  -1.069514267146587E-2  
 2.598000000000000E10   -1.169663108885288E-2  -4.676394630223513E-3  
 2.600000000000000E10   -2.606342313811183E-3   1.298429444432259E-2  
 2.602000000000000E10    1.358423754572868E-2   1.310151768848300E-3  
 2.604000000000000E10   -1.333345193415880E-3  -1.242662686854601E-2  
 2.606000000000000E10   -1.156926061958075E-2   2.504140138626099E-3  
 2.608000000000000E10    3.115349682047963E-3   1.084056962281466E-2  
 2.610000000000000E10    1.065210532397032E-2  -4.459627903997898E-3  
 2.612000000000000E10   -5.384421907365322E-3  -1.074996870011091E-2  
 2.614000000000000E10   -1.026360783725977E-2   6.187402177602053E-3  
 2.616000000000000E10    7.904390804469585E-3   9.196992032229900E-3  
 2.618000000000000E10    8.861140348017216E-3  -9.422438219189644E-3  
 2.620000000000000E10   -9.543220512568951E-3  -6.406972184777260E-3  
 2.622000000000000E10   -5.660865921527147E-3   1.019520126283169E-2  
 2.624000000000000E10    1.081952080130577E-2   5.113746039569378E-3  
 2.626000000000000E10    3.431248944252729E-3  -1.078528258949518E-2  
 2.628000000000000E10   -1.157842017710209E-2  -1.911359955556691E-3  
 2.630000000000000E10    1.387258816976100E-4   1.118945982307196E-2  
 2.632000000000000E10    1.105276122689247E-2  -1.997130457311869E-3  
 2.634000000000000E10   -2.849711570888758E-3  -1.044959109276533E-2  
 2.636000000000000E10   -8.859587833285332E-3   3.644886892288923E-3  
 2.638000000000000E10    5.114517640322447E-3   8.262246847152710E-3  
 2.640000000000000E10    7.700096350163221E-3  -5.557653494179249E-3  
 2.642000000000000E10   -6.159589625895023E-3  -6.859034765511751E-3  
 2.644000000000000E10   -6.629071664065123E-3   6.730222143232822E-3  
 2.646000000000000E10    7.835267111659050E-3   6.050853990018368E-3  
 2.648000000000000E10    4.509112797677517E-3  -9.388900361955166E-3  
 2.650000000000000E10   -1.003484334796667E-2  -3.496737685054541E-3  
 2.652000000000000E10   -2.063889754936099E-3   9.879245422780514E-3  
 2.654000000000000E10    1.004375051707029E-2   5.468776798807085E-4  
 2.656000000000000E10   -3.609773411881179E-4  -9.755219332873821E-3  
 2.658000000000000E10   -9.411300532519817E-3   1.322839176282287E-3  
 2.660000000000000E10    2.348708454519510E-3   9.235966950654984E-3  
 2.662000000000000E10    8.021282032132149E-3  -3.563336562365294E-3  
 2.664000000000000E10   -4.329505376517773E-3  -7.352847140282393E-3  
 2.666000000000000E10   -6.790461484342814E-3   4.831917583942413E-3  
 2.668000000000000E10    4.923698492348194E-3   5.716786719858646E-3  
 2.670000000000000E10    4.898489452898502E-3  -5.465544760227203E-3  
 2.672000000000000E10   -5.741313099861145E-3  -4.248115234076977E-3  
 2.674000000000000E10   -3.750524716451764E-3   6.255870684981346E-3  
 2.676000000000000E10    6.807824596762657E-3   3.317674621939659E-3  
 2.678000000000000E10    2.440863288938999E-3  -6.816073786467314E-3  
 2.680000000000000E10   -7.252483163028956E-3  -1.219164463691413E-3  
 2.682000000000000E10   -6.094175623729825E-4   7.918378338217735E-3  
 2.684000000000000E10    7.746052462607622E-3  -3.321462136227638E-4  
 2.686000000000000E10   -1.524747116491199E-3  -7.376904133707285E-3  
 2.688000000000000E10   -7.334250025451183E-3   2.660266356542707E-3  
 2.690000000000000E10    3.448900766670704E-3   7.218918763101101E-3  
 2.692000000000000E10    6.590850651264191E-3  -3.472081618383527E-3  
 2.694000000000000E10   -4.036405589431524E-3  -6.060494575649500E-3  
 2.696000000000000E10   -5.140999332070351E-3   4.868889227509499E-3  
 2.698000000000000E10    5.199143663048744E-3   5.235457792878151E-3  
 2.700000000000000E10    4.187237005680800E-3  -5.537774879485369E-3  
 2.702000000000000E10   -5.796568002551794E-3  -3.677528351545334E-3  
 2.704000000000000E10   -2.395912073552609E-3   5.885933525860310E-3  
 2.706000000000000E10    6.400774698704481E-3   1.928307581692934E-3  
 2.708000000000000E10    1.680033630691469E-3  -6.113996729254723E-3  
 2.710000000000000E10   -5.763440392911434E-3  -6.258510984480381E-4  
 2.712000000000000E10    5.846479325555265E-4   6.423460785299540E-3  
 2.714000000000000E10    6.012624595314264E-3  -9.394368971697986E-4  
 2.716000000000000E10   -1.642374438233674E-3  -5.327081307768822E-3  
 2.718000000000000E10   -5.347057711333036E-3   2.096298150718212E-3  
 2.720000000000000E10    2.740771509706974E-3   4.847353324294090E-3  
 2.722000000000000E10    4.453880246728659E-3  -3.568981075659394E-3  
 2.724000000000000E10   -3.878493327647448E-3  -4.537527449429035E-3  
 2.726000000000000E10   -4.059327300637960E-3   4.497364163398743E-3  
 2.728000000000000E10    4.993984010070562E-3   3.060524351894856E-3  
 2.730000000000000E10    2.986640669405460E-3  -4.945325199514628E-3  
 2.732000000000000E10   -5.117762833833695E-3  -2.547892043367028E-3  
 2.734000000000000E10   -1.868144841864705E-3   5.475412122905254E-3  
 2.736000000000000E10    5.229431204497814E-3   1.541399047710002E-3  
 2.738000000000000E10    7.144439732655883E-4  -5.573460832238197E-3  
 2.740000000000000E10   -5.625123623758555E-3  -3.577762618078850E-5  
 2.742000000000000E10    4.935318720526993E-4   5.139378830790520E-3  
 2.744000000000000E10    4.810786806046963E-3  -1.247959560714662E-3  
 2.746000000000000E10   -1.812604255974293E-3  -4.473112523555756E-3  
 2.748000000000000E10   -4.297838546335697E-3   2.720038173720241E-3  
 2.750000000000000E10    2.945879939943552E-3   3.973410930484533E-3  
 2.752000000000000E10    3.544314298778772E-3  -3.083482850342989E-3  
 2.754000000000000E10   -3.988800104707480E-3  -2.743748947978020E-3  
 2.756000000000000E10   -2.641147933900356E-3   4.236545413732529E-3  
