#  HZ   S   RI   R     50.00 
! Rohde & Schwarz ZVA40 4Ports - Version 3.90 - 1145.1110k42 SN: 100403
! Date: 2023-10-04 07:30:53
! Measurement: S12 
! 
 2.200000000000000E10    7.140455767512322E-3   8.491238579154015E-3  
 2.202000000000000E10    7.969547994434834E-3  -8.583158254623413E-3  
 2.204000000000000E10   -9.009766392409802E-3  -7.482737302780151E-3  
 2.206000000000000E10   -5.033131223171949E-3   9.430084377527237E-3  
 2.208000000000000E10    1.059672236442566E-2   4.201858770102263E-3  
 2.210000000000000E10    3.538241609930992E-3  -1.070689689368010E-2  
 2.212000000000000E10   -1.077565271407366E-2  -2.122103469446302E-3  
 2.214000000000000E10   -1.281106378883123E-3   1.105642784386873E-2  
 2.216000000000000E10    1.151269394904375E-2  -7.826484506949782E-4  
 2.218000000000000E10   -1.722833374515176E-3  -1.185359153896570E-2  
 2.220000000000000E10   -1.155651081353426E-2   2.746561774984002E-3  
 2.222000000000000E10    4.960760008543730E-3   1.059387158602476E-2  
 2.224000000000000E10    9.928992018103600E-3  -6.999221164733172E-3  
 2.226000000000000E10   -7.631326559931040E-3  -8.901417255401611E-3  
 2.228000000000000E10   -7.328388281166554E-3   8.109469898045063E-3  
 2.230000000000000E10    9.347618557512760E-3   6.984029896557331E-3  
 2.232000000000000E10    6.532024592161179E-3  -1.013586949557066E-2  
 2.234000000000000E10   -1.090212445706129E-2  -4.867224488407373E-3  
 2.236000000000000E10   -3.874056041240692E-3   1.159106753766537E-2  
 2.238000000000000E10    1.204236596822739E-2   2.641666214913130E-3  
 2.240000000000000E10    6.981614278629422E-4  -1.255194842815399E-2  
 2.242000000000000E10   -1.206787303090096E-2   1.135750324465334E-3  
 2.244000000000000E10    2.472453285008669E-3   1.144657935947180E-2  
 2.246000000000000E10    1.176674105226994E-2  -3.226825501769781E-3  
 2.248000000000000E10   -4.046774934977293E-3  -1.127638388425112E-2  
 2.250000000000000E10   -1.114377379417419E-2   5.442772060632706E-3  
 2.252000000000000E10    7.536002434790134E-3   1.056623831391335E-2  
 2.254000000000000E10    9.403577074408531E-3  -8.672444149851799E-3  
 2.256000000000000E10   -1.010206900537014E-2  -7.825382053852081E-3  
 2.258000000000000E10   -6.293084006756544E-3   1.085823774337769E-2  
 2.260000000000000E10    1.042888872325420E-2   5.362742114812136E-3  
 2.262000000000000E10    3.442602697759867E-3  -1.030198298394680E-2  
 2.264000000000000E10   -1.110864058136940E-2  -3.032360225915909E-3  
 2.266000000000000E10   -2.879762090742588E-3   1.210152357816696E-2  
 2.268000000000000E10    1.225055474787951E-2   8.487192098982632E-4  
 2.270000000000000E10   -7.149517186917365E-4  -1.237095333635807E-2  
 2.272000000000000E10   -1.303758192807436E-2   2.732493914663792E-3  
 2.274000000000000E10    4.545684438198805E-3   1.275843195617199E-2  
 2.276000000000000E10    1.149154361337423E-2  -5.784319248050451E-3  
 2.278000000000000E10   -6.821042392402887E-3  -9.802625514566898E-3  
 2.280000000000000E10   -9.271716699004173E-3   7.608231622725725E-3  
 2.282000000000000E10    1.450431416742504E-3   1.174953579902649E-2  
 2.284000000000000E10    7.778151892125607E-3  -9.373459033668041E-3  
 2.286000000000000E10   -1.077254395931959E-2  -7.129386998713017E-3  
 2.288000000000000E10   -5.809716880321503E-3   1.159782893955708E-2  
 2.290000000000000E10    1.199567783623934E-2   3.868993837386370E-3  
 2.292000000000000E10    2.094033872708678E-3  -1.244292035698891E-2  
 2.294000000000000E10   -1.216706726700068E-2  -6.573529681190848E-4  
 2.296000000000000E10    4.030562122352421E-4   1.173896249383688E-2  
 2.298000000000000E10    1.174516044557095E-2  -7.351949461735785E-4  
 2.300000000000000E10   -1.972070196643472E-3  -1.218963786959648E-2  
 2.302000000000000E10   -1.252824719995260E-2   3.471220145002008E-3  
 2.304000000000000E10    5.480568856000900E-3   1.217003259807825E-2  
 2.306000000000000E10    1.134377811104059E-2  -7.784626912325621E-3  
 2.308000000000000E10   -9.197655133903027E-3  -1.002538111060858E-2  
 2.310000000000000E10   -7.945802062749863E-3   1.007206737995148E-2  
 2.312000000000000E10    1.060264743864536E-2   6.214120890945196E-3  
 2.314000000000000E10    4.967878572642803E-3  -1.121259573847055E-2  
 2.316000000000000E10   -1.216548588126898E-2  -4.187734797596932E-3  
 2.318000000000000E10   -2.949491376057267E-3   1.278506033122540E-2  
 2.320000000000000E10    1.313067134469748E-2   1.014291658066213E-3  
 2.322000000000000E10   -8.137747063301504E-4  -1.351701002568007E-2  
 2.324000000000000E10   -1.336740609258413E-2   2.457092981785536E-3  
 2.326000000000000E10    3.788704518228769E-3   1.268986240029335E-2  
 2.328000000000000E10    1.169631909579039E-2  -5.083214957267046E-3  
 2.330000000000000E10   -5.793571937829256E-3  -1.097689196467400E-2  
 2.332000000000000E10   -1.064867340028286E-2   6.679427810013294E-3  
 2.334000000000000E10    7.742912042886019E-3   1.018385216593742E-2  
 2.336000000000000E10    9.203984402120113E-3  -9.320931509137154E-3  
 2.338000000000000E10   -1.122418139129877E-2  -7.703785784542561E-3  
 2.340000000000000E10   -5.617927759885788E-3   1.196895539760590E-2  
 2.342000000000000E10    1.212600804865360E-2   3.441790817305446E-3  
 2.344000000000000E10    1.724906731396914E-3  -1.250998117029667E-2  
 2.346000000000000E10   -1.202478911727667E-2  -3.565047518350184E-4  
 2.348000000000000E10    8.044242276810110E-4   1.189835928380489E-2  
 2.350000000000000E10    1.218350604176521E-2  -1.790765905752778E-3  
 2.352000000000000E10   -3.067702986299992E-3  -1.229092571884394E-2  
 2.354000000000000E10   -1.216594874858856E-2   5.202766042202711E-3  
 2.356000000000000E10    6.669523194432259E-3   1.151466742157936E-2  
 2.358000000000000E10    1.059762854129076E-2  -7.802202831953764E-3  
 2.360000000000000E10   -8.603214286267757E-3  -9.653141722083092E-3  
 2.362000000000000E10   -8.609174750745297E-3   9.462063200771809E-3  
 2.364000000000000E10    1.082256902009249E-2   7.078801747411490E-3  
 2.366000000000000E10    6.680295336991549E-3  -1.133809145539999E-2  
 2.368000000000000E10   -1.219828799366951E-2  -5.524776875972748E-3  
 2.370000000000000E10   -3.423640504479408E-3   1.312823034822941E-2  
 2.372000000000000E10    1.349034719169140E-2   1.211521914228797E-3  
 2.374000000000000E10   -5.115944077260792E-4  -1.358823478221893E-2  
 2.376000000000000E10   -1.368006598204374E-2   2.029364928603172E-3  
 2.378000000000000E10    3.651194740086794E-3   1.228697784245014E-2  
 2.380000000000000E10    1.160371582955122E-2  -5.103169009089470E-3  
 2.382000000000000E10   -6.401521619409323E-3  -1.169556006789208E-2  
 2.384000000000000E10   -1.121804118156433E-2   7.265721913427115E-3  
 2.386000000000000E10    9.269476868212223E-3   1.022671721875668E-2  
 2.388000000000000E10    9.514729492366314E-3  -1.106476318091154E-2  
 2.390000000000000E10   -1.285789720714092E-2  -8.259912021458149E-3  
 2.392000000000000E10   -6.447479594498873E-3   1.403287984430790E-2  
 2.394000000000000E10    1.451871823519468E-2   4.439507145434618E-3  
 2.396000000000000E10    2.382676582783461E-3  -1.562350708991289E-2  
 2.398000000000000E10   -1.566585339605808E-2  -7.954331231303513E-4  
 2.400000000000000E10    8.129681809805334E-4   1.522170286625624E-2  
 2.402000000000000E10    1.384857855737209E-2  -5.083268042653799E-3  
 2.404000000000000E10   -6.271585356444120E-3  -1.301192212849855E-2  
 2.406000000000000E10   -1.220372691750526E-2   7.434708997607231E-3  
 2.408000000000000E10    8.993394672870636E-3   1.078790333122015E-2  
 2.410000000000000E10    9.020034223794937E-3  -9.694063104689121E-3  
 2.412000000000000E10   -1.035202760249376E-2  -7.855091243982315E-3  
 2.414000000000000E10   -7.176158484071493E-3   1.111672446131706E-2  
 2.416000000000000E10    1.203485578298569E-2   6.071922369301319E-3  
 2.418000000000000E10    4.372760653495789E-3  -1.354912947863340E-2  
 2.420000000000000E10   -1.400334853678942E-2  -3.075755666941404E-3  
 2.422000000000000E10   -1.639296649955213E-3   1.511962898075581E-2  
 2.424000000000000E10    1.603732258081436E-2  -5.205987254157662E-4  
 2.426000000000000E10   -2.516543027013540E-3  -1.551448926329613E-2  
 2.428000000000000E10   -1.500629819929600E-2   4.589078482240439E-3  
 2.430000000000000E10    6.359914783388376E-3   1.422472298145294E-2  
 2.432000000000000E10    1.293692458420992E-2  -7.236198056489229E-3  
 2.434000000000000E10   -8.307251147925854E-3  -1.116171013563871E-2  
 2.436000000000000E10   -9.902511723339558E-3   9.500413201749325E-3  
 2.438000000000000E10    9.944482706487179E-3   8.916252292692661E-3  
 2.440000000000000E10    7.631559390574694E-3  -1.077484246343374E-2  
 2.442000000000000E10   -1.114704832434654E-2  -6.389903835952282E-3  
 2.444000000000000E10   -4.514938220381737E-3   1.227855961769819E-2  
 2.446000000000000E10    1.276541128754616E-2   3.194042015820742E-3  
 2.448000000000000E10    2.129720989614725E-3  -1.320441532880068E-2  
 2.450000000000000E10   -1.312177069485188E-2  -3.231647715438157E-4  
 2.452000000000000E10    1.840721466578543E-3   1.364913862198591E-2  
 2.454000000000000E10    1.350346207618713E-2  -3.222041996195912E-3  
 2.456000000000000E10   -4.673807416111231E-3  -1.254938449710608E-2  
 2.458000000000000E10   -1.244087796658278E-2   6.473359651863575E-3  
 2.460000000000000E10    8.172453381121159E-3   1.107947342097759E-2  
 2.462000000000000E10    9.910931810736656E-3  -8.724803104996681E-3  
 2.464000000000000E10   -8.948614820837975E-3  -9.072449989616871E-3  
 2.466000000000000E10   -7.904385216534138E-3   9.362962096929550E-3  
 2.468000000000000E10    1.050494518131018E-2   7.199513260275126E-3  
 2.470000000000000E10    6.350337062031031E-3  -1.117283198982477E-2  
 2.472000000000000E10   -1.170450076460838E-2  -4.589118063449860E-3  
 2.474000000000000E10   -3.461711341515183E-3   1.192676741629839E-2  
 2.476000000000000E10    1.216575782746077E-2   2.203939715400338E-3  
 2.478000000000000E10   -2.561823021096643E-5  -1.251176744699478E-2  
 2.480000000000000E10   -1.227588579058647E-2   1.698401523754001E-3  
 2.482000000000000E10    2.783131785690785E-3   1.205379888415337E-2  
 2.484000000000000E10    1.197199430316687E-2  -4.549935460090637E-3  
 2.486000000000000E10   -6.762791424989700E-3  -1.096639130264521E-2  
 2.488000000000000E10   -9.272185154259205E-3   7.814139127731323E-3  
 2.490000000000000E10    8.800437673926354E-3   8.034240454435349E-3  
 2.492000000000000E10    7.489950396120548E-3  -9.255980141460896E-3  
 2.494000000000000E10   -9.910855442285538E-3  -6.703086197376251E-3  
 2.496000000000000E10   -5.358951631933451E-3   1.077207736670971E-2  
 2.498000000000000E10    1.054789312183857E-2   4.522054921835661E-3  
 2.500000000000000E10    3.567371517419815E-3  -1.072900928556919E-2  
 2.502000000000000E10   -1.218858733773232E-2  -2.694444963708520E-3  
 2.504000000000000E10   -7.279480923898518E-4   1.192446704953909E-2  
 2.506000000000000E10    1.102707162499428E-2  -2.002175751840696E-4  
 2.508000000000000E10   -9.381572017446160E-4  -1.147955376654863E-2  
 2.510000000000000E10   -1.159871555864811E-2   2.420503413304687E-3  
 2.512000000000000E10    4.319337662309408E-3   1.089164242148399E-2  
 2.514000000000000E10    1.076607033610344E-2  -5.877531133592129E-3  
 2.516000000000000E10   -6.780199706554413E-3  -9.939446114003658E-3  
 2.518000000000000E10   -8.604723960161209E-3   8.278900757431984E-3  
 2.520000000000000E10    9.475118480622768E-3   7.305458188056946E-3  
 2.522000000000000E10    6.028824020177126E-3  -9.766053408384323E-3  
 2.524000000000000E10   -1.042872667312622E-2  -5.192621611058712E-3  
 2.526000000000000E10   -4.304595291614533E-3   1.109464745968580E-2  
 2.528000000000000E10    1.107672136276960E-2   3.170324023813009E-3  
 2.530000000000000E10    1.699006767012179E-3  -1.229716558009386E-2  
 2.532000000000000E10   -1.243603136390448E-2  -3.002664016094059E-4  
 2.534000000000000E10    9.754156926646829E-4   1.237524207681418E-2  
 2.536000000000000E10    1.208205521106720E-2  -2.896098885685206E-3  
 2.538000000000000E10   -4.190082661807537E-3  -1.147955749183893E-2  
 2.540000000000000E10   -1.090665999799967E-2   5.975974258035421E-3  
 2.542000000000000E10    7.073371205478907E-3   9.840150363743305E-3  
 2.544000000000000E10    8.267512544989586E-3  -8.050387725234032E-3  
 2.546000000000000E10   -9.527799673378468E-3  -7.174847181886435E-3  
 2.548000000000000E10   -6.302334833890200E-3   1.012425404042006E-2  
 2.550000000000000E10    1.056872494518757E-2   4.453821573406458E-3  
 2.552000000000000E10    2.488226862624288E-3  -1.127857714891434E-2  
 2.554000000000000E10   -1.126270554959774E-2  -1.365468371659517E-3  
 2.556000000000000E10   -1.500567304901779E-4   1.100968942046166E-2  
 2.558000000000000E10    1.116380561143160E-2  -8.592890808358789E-4  
 2.560000000000000E10   -2.233262406662107E-3  -1.085512433201075E-2  
 2.562000000000000E10   -1.060073357075453E-2   3.522883402183652E-3  
 2.564000000000000E10    4.693500231951475E-3   1.101044006645680E-2  
 2.566000000000000E10    1.063785795122385E-2  -6.455714814364910E-3  
 2.568000000000000E10   -9.298618882894516E-3  -9.378029964864254E-3  
 2.570000000000000E10   -7.394338026642799E-3   1.037400029599667E-2  
 2.572000000000000E10    1.047170162200928E-2   6.076084915548563E-3  
 2.574000000000000E10    4.895493388175964E-3  -1.086272299289703E-2  
 2.576000000000000E10   -1.146690547466278E-2  -3.158767241984606E-3  
 2.578000000000000E10   -1.293353037908673E-3   1.188221294432879E-2  
 2.580000000000000E10    1.135728228837252E-2   1.621042756596580E-4  
 2.582000000000000E10   -1.036349567584693E-3  -1.168216671794653E-2  
 2.584000000000000E10   -1.124074775725603E-2   2.536611165851355E-3  
 2.586000000000000E10    4.019281361252070E-3   1.023965887725353E-2  
 2.588000000000000E10    9.713919833302498E-3  -5.313748493790627E-3  
 2.590000000000000E10   -5.724594462662935E-3  -8.983045816421509E-3  
 2.592000000000000E10   -8.781262673437595E-3   6.505814380943775E-3  
 2.594000000000000E10    7.359706796705723E-3   8.464960381388664E-3  
 2.596000000000000E10    7.275967858731747E-3  -8.624585345387459E-3  
 2.598000000000000E10   -1.028527691960335E-2  -5.643566139042378E-3  
 2.600000000000000E10   -4.178647417575121E-3   1.098469458520412E-2  
 2.602000000000000E10    1.140257436782122E-2   2.332224743440747E-3  
 2.604000000000000E10    3.575817390810698E-4  -1.163497474044561E-2  
 2.606000000000000E10   -1.043289154767990E-2   5.776123725809157E-4  
 2.608000000000000E10    1.453291624784470E-3   9.949234314262867E-3  
 2.610000000000000E10    1.037589088082314E-2  -2.478844719007611E-3  
 2.612000000000000E10   -3.505827160552144E-3  -9.466026909649372E-3  
 2.614000000000000E10   -9.802517481148243E-3   4.608039278537035E-3  
 2.616000000000000E10    5.291607230901718E-3   9.385336190462112E-3  
 2.618000000000000E10    8.311117067933083E-3  -6.469966378062964E-3  
 2.620000000000000E10   -7.862280122935772E-3  -7.267164066433907E-3  
 2.622000000000000E10   -6.252440623939037E-3   8.052780292928219E-3  
 2.624000000000000E10    8.476987481117249E-3   5.219141021370888E-3  
 2.626000000000000E10    4.441175609827042E-3  -8.975042030215263E-3  
 2.628000000000000E10   -9.037038311362267E-3  -2.967540640383959E-3  
 2.630000000000000E10   -9.480259031988680E-4   9.790337644517422E-3  
 2.632000000000000E10    9.570066817104816E-3  -2.053849893854931E-4  
 2.634000000000000E10   -1.511923153884709E-3  -8.676442317664623E-3  
 2.636000000000000E10   -8.612253703176975E-3   2.281686756759882E-3  
 2.638000000000000E10    3.109459066763520E-3   7.430775091052055E-3  
 2.640000000000000E10    6.651028525084257E-3  -4.256124142557383E-3  
 2.642000000000000E10   -4.758553579449654E-3  -6.846891250461340E-3  
 2.644000000000000E10   -6.394996307790279E-3   4.885936155915260E-3  
 2.646000000000000E10    6.283996161073446E-3   5.745967850089073E-3  
 2.648000000000000E10    5.101889837533236E-3  -6.998327095061541E-3  
 2.650000000000000E10   -7.635359652340412E-3  -3.794698743149638E-3  
 2.652000000000000E10   -2.719600452110171E-3   7.911694236099720E-3  
 2.654000000000000E10    7.904144935309887E-3   1.794239971786737E-3  
 2.656000000000000E10    6.545241922140122E-4  -7.786010857671499E-3  
 2.658000000000000E10   -7.802792359143496E-3  -4.138090298511088E-5  
 2.660000000000000E10    1.034855842590332E-3   7.165198214352131E-3  
 2.662000000000000E10    6.683200132101774E-3  -2.386951353400946E-3  
 2.664000000000000E10   -2.669736975803971E-3  -6.419926881790161E-3  
 2.666000000000000E10   -5.552939604967833E-3   3.203077940270305E-3  
 2.668000000000000E10    3.510731505230069E-3   5.028770305216312E-3  
 2.670000000000000E10    4.383032675832510E-3  -3.765715286135674E-3  
 2.672000000000000E10   -4.491060506552458E-3  -3.635784145444632E-3  
 2.674000000000000E10   -3.935055341571569E-3   4.573953337967396E-3  
 2.676000000000000E10    5.131024867296219E-3   3.134330734610558E-3  
 2.678000000000000E10    2.471336163580418E-3  -5.642224103212357E-3  
 2.680000000000000E10   -5.682667717337608E-3  -2.165017649531364E-3  
 2.682000000000000E10   -9.834520751610398E-4   6.017958745360375E-3  
 2.684000000000000E10    6.306263152509928E-3   4.343232722021639E-4  
 2.686000000000000E10   -1.681835419731215E-4  -5.950734019279480E-3  
 2.688000000000000E10   -5.629075225442648E-3   9.781394619494677E-4  
 2.690000000000000E10    1.344229909591377E-3   6.011876743286848E-3  
 2.692000000000000E10    5.236976314336062E-3  -1.865245518274605E-3  
 2.694000000000000E10   -2.655225805938244E-3  -5.123757757246494E-3  
 2.696000000000000E10   -4.892142023891211E-3   2.973184222355485E-3  
 2.698000000000000E10    3.317413851618767E-3   4.228137433528900E-3  
 2.700000000000000E10    3.386012045666575E-3  -3.631694009527564E-3  
 2.702000000000000E10   -3.695328719913960E-3  -3.210863098502159E-3  
 2.704000000000000E10   -2.397665288299322E-3   3.983388654887676E-3  
 2.706000000000000E10    4.019347485154867E-3   2.233681036159396E-3  
 2.708000000000000E10    1.434253645129502E-3  -3.932619001716375E-3  
 2.710000000000000E10   -4.417925141751766E-3  -9.678978822194040E-4  
 2.712000000000000E10   -3.111701516900212E-4   4.769123625010252E-3  
 2.714000000000000E10    4.281029570847750E-3  -4.666929889936000E-4  
 2.716000000000000E10   -8.015321218408644E-4  -4.566814284771681E-3  
 2.718000000000000E10   -4.527224227786064E-3   1.336449291557074E-3  
 2.720000000000000E10    1.807176042348146E-3   4.262426868081093E-3  
 2.722000000000000E10    4.161098040640354E-3  -2.039101207628846E-3  
 2.724000000000000E10   -2.602269407361746E-3  -3.850595792755485E-3  
 2.726000000000000E10   -3.718428779393435E-3   2.985729137435556E-3  
 2.728000000000000E10    3.389882389456034E-3   3.300406038761139E-3  
 2.730000000000000E10    2.907443558797240E-3  -3.363620024174452E-3  
 2.732000000000000E10   -3.612364176660776E-3  -2.638691337779164E-3  
 2.734000000000000E10   -2.126048784703016E-3   3.739678533747792E-3  
 2.736000000000000E10    3.712579840794206E-3   1.673605060204864E-3  
 2.738000000000000E10    1.401310204528272E-3  -4.089449066668749E-3  
 2.740000000000000E10   -3.887461964040995E-3  -7.330875378102064E-4  
 2.742000000000000E10   -3.939546295441687E-4   3.878892632201314E-3  
 2.744000000000000E10    3.987886942923069E-3  -5.536501412279904E-4  
 2.746000000000000E10   -6.571678095497191E-4  -3.781440202146769E-3  
 2.748000000000000E10   -3.700967878103256E-3   1.120539265684784E-3  
 2.750000000000000E10    1.845712540671229E-3   3.203329630196095E-3  
 2.752000000000000E10    3.475016215816140E-3  -2.183031989261508E-3  
 2.754000000000000E10   -2.181895310059190E-3  -2.658608136698604E-3  
 2.756000000000000E10   -1.994864549487829E-3   2.735132817178965E-3  
