#  HZ   S   RI   R     50.00 
! Rohde & Schwarz ZVA40 4Ports - Version 3.90 - 1145.1110k42 SN: 100403
! Date: 2023-10-04 07:31:23
! Measurement: S12 
! 
 2.200000000000000E10    9.290634654462338E-3   5.415742751210928E-3  
 2.202000000000000E10    4.761228803545237E-3  -1.035739388316870E-2  
 2.204000000000000E10   -1.042058877646923E-2  -3.069122787564993E-3  
 2.206000000000000E10   -1.218762015923858E-3   1.058911997824907E-2  
 2.208000000000000E10    1.063971593976021E-2   8.031867328099906E-4  
 2.210000000000000E10   -6.272192695178092E-4  -1.007926836609840E-2  
 2.212000000000000E10   -1.033220067620277E-2   1.494380296207964E-3  
 2.214000000000000E10    2.699424512684345E-3   1.044925022870302E-2  
 2.216000000000000E10    1.030848920345306E-2  -4.411373287439346E-3  
 2.218000000000000E10   -5.567199084907770E-3  -1.011427026242018E-2  
 2.220000000000000E10   -9.061193093657494E-3   7.160111796110869E-3  
 2.222000000000000E10    8.415087126195431E-3   7.600985467433929E-3  
 2.224000000000000E10    7.168584037572146E-3  -9.182556532323360E-3  
 2.226000000000000E10   -9.383475407958031E-3  -5.100368056446314E-3  
 2.228000000000000E10   -4.386265762150288E-3   9.683322161436081E-3  
 2.230000000000000E10    1.024409104138613E-2   3.920385614037514E-3  
 2.232000000000000E10    2.726598409935832E-3  -1.062040776014328E-2  
 2.234000000000000E10   -1.110876165330410E-2  -9.682408417575061E-4  
 2.236000000000000E10   -1.527686436020304E-5   1.148947980254889E-2  
 2.238000000000000E10    1.134132314473391E-2  -1.608063816092908E-3  
 2.240000000000000E10   -3.129268996417522E-3  -1.122602913528681E-2  
 2.242000000000000E10   -1.020996179431677E-2   4.455122631043196E-3  
 2.244000000000000E10    5.586523562669754E-3   9.465822950005531E-3  
 2.246000000000000E10    9.405132383108139E-3  -6.722501479089260E-3  
 2.248000000000000E10   -7.242705207318068E-3  -8.478987962007523E-3  
 2.250000000000000E10   -8.199350908398628E-3   8.724250830709934E-3  
 2.252000000000000E10    1.033276040107012E-2   6.889376323670149E-3  
 2.254000000000000E10    5.193645134568214E-3  -1.090101338922977E-2  
 2.256000000000000E10   -1.186433248221874E-2  -4.009810741990805E-3  
 2.258000000000000E10   -2.152359345927835E-3   1.152980607002974E-2  
 2.260000000000000E10    1.092068199068308E-2   1.114782760851085E-3  
 2.262000000000000E10   -3.067019570153207E-4  -1.074363663792610E-2  
 2.264000000000000E10   -1.125482469797134E-2   2.696156734600663E-4  
 2.266000000000000E10    1.232745475135744E-3   1.182027719914913E-2  
 2.268000000000000E10    1.160197611898184E-2  -3.471605712547898E-3  
 2.270000000000000E10   -4.777562338858843E-3  -1.157694123685360E-2  
 2.272000000000000E10   -1.103301066905260E-2   6.373796146363020E-3  
 2.274000000000000E10    7.980804890394211E-3   9.792790748178959E-3  
 2.276000000000000E10    8.039123378694058E-3  -8.933690376579762E-3  
 2.278000000000000E10   -9.412611834704876E-3  -7.258181460201740E-3  
 2.280000000000000E10   -6.099220365285873E-3   9.416051208972931E-3  
 2.282000000000000E10    5.270123481750488E-3   9.713670238852501E-3  
 2.284000000000000E10    4.215335939079523E-3  -1.167379133403301E-2  
 2.286000000000000E10   -1.173202693462372E-2  -3.077145200222731E-3  
 2.288000000000000E10   -1.168587128631771E-3   1.178866904228926E-2  
 2.290000000000000E10    1.190374512225390E-2  -7.066354155540466E-4  
 2.292000000000000E10   -2.068249043077231E-3  -1.138003822416067E-2  
 2.294000000000000E10   -1.065291371196508E-2   3.475208533927798E-3  
 2.296000000000000E10    4.196698311716318E-3   1.036083977669478E-2  
 2.298000000000000E10    1.011286582797766E-2  -4.652327392250300E-3  
 2.300000000000000E10   -6.024227943271399E-3  -1.029827911406755E-2  
 2.302000000000000E10   -9.769841097295284E-3   7.563643157482147E-3  
 2.304000000000000E10    9.787783026695252E-3   8.547832258045673E-3  
 2.306000000000000E10    7.587949279695749E-3  -1.097476482391357E-2  
 2.308000000000000E10   -1.152323465794325E-2  -5.542134400457144E-3  
 2.310000000000000E10   -3.668904071673751E-3   1.173110585659742E-2  
 2.312000000000000E10    1.187391579151154E-2   2.818506909534335E-3  
 2.314000000000000E10    1.384002855047584E-3  -1.180064026266336E-2  
 2.316000000000000E10   -1.187861151993275E-2  -2.716878661885858E-4  
 2.318000000000000E10    1.528554712422192E-3   1.211154740303755E-2  
 2.320000000000000E10    1.217818353325129E-2  -3.276339964941144E-3  
 2.322000000000000E10   -4.565487150102854E-3  -1.130999438464642E-2  
 2.324000000000000E10   -1.037265267223120E-2   6.041355431079865E-3  
 2.326000000000000E10    7.314600981771946E-3   9.610104374587536E-3  
 2.328000000000000E10    8.776317350566387E-3  -7.709378842264414E-3  
 2.330000000000000E10   -8.211267180740833E-3  -7.612909190356731E-3  
 2.332000000000000E10   -6.869677919894457E-3   9.086454287171364E-3  
 2.334000000000000E10    1.045954879373312E-2   6.415592040866613E-3  
 2.336000000000000E10    4.952762741595507E-3  -1.182312797755003E-2  
 2.338000000000000E10   -1.307497359812260E-2  -2.862621331587434E-3  
 2.340000000000000E10   -6.651674630120397E-4   1.297756936401129E-2  
 2.342000000000000E10    1.264778990298510E-2  -1.153994700871408E-3  
 2.344000000000000E10   -2.671488793566823E-3  -1.203520223498344E-2  
 2.346000000000000E10   -1.157394424080849E-2   3.843561746180058E-3  
 2.348000000000000E10    4.479286726564169E-3   1.109363604336977E-2  
 2.350000000000000E10    1.052678562700748E-2  -4.850407596677542E-3  
 2.352000000000000E10   -6.434143986552954E-3  -9.945360012352467E-3  
 2.354000000000000E10   -9.560389444231987E-3   8.075917139649391E-3  
 2.356000000000000E10    8.878355845808983E-3   8.316440507769585E-3  
 2.358000000000000E10    6.666767410933971E-3  -9.791266173124313E-3  
 2.360000000000000E10   -1.027844287455082E-2  -5.430922843515873E-3  
 2.362000000000000E10   -3.933390602469444E-3   1.107740774750710E-2  
 2.364000000000000E10    1.143512688577175E-2   2.834212966263294E-3  
 2.366000000000000E10    1.912737847305834E-3  -1.161417737603188E-2  
 2.368000000000000E10   -1.260172203183174E-2  -1.512412854935974E-4  
 2.370000000000000E10    1.944566727615893E-3   1.327905803918839E-2  
 2.372000000000000E10    1.268426235765219E-2  -4.069244954735041E-3  
 2.374000000000000E10   -5.048976745456457E-3  -1.233377587050200E-2  
 2.376000000000000E10   -1.161488611251116E-2   6.662915460765362E-3  
 2.378000000000000E10    7.751863915473223E-3   1.042031869292259E-2  
 2.380000000000000E10    1.019143592566252E-2  -8.196723647415638E-3  
 2.382000000000000E10   -9.023633785545826E-3  -9.304881095886231E-3  
 2.384000000000000E10   -8.373487740755081E-3   1.008456666022539E-2  
 2.386000000000000E10    1.165265217423439E-2   7.343631703406572E-3  
 2.388000000000000E10    5.690208170562983E-3  -1.276480033993721E-2  
 2.390000000000000E10   -1.348910667002201E-2  -3.928132355213165E-3  
 2.392000000000000E10   -1.213482930324972E-3   1.338881254196167E-2  
 2.394000000000000E10    1.392532605677843E-2  -6.550092948600650E-4  
 2.396000000000000E10   -2.146233571693301E-3  -1.385718770325184E-2  
 2.398000000000000E10   -1.275818981230259E-2   4.322221502661705E-3  
 2.400000000000000E10    6.633386015892029E-3   1.185002736747265E-2  
 2.402000000000000E10    1.011338084936142E-2  -9.654591791331768E-3  
 2.404000000000000E10   -1.028082333505154E-2  -9.031402878463268E-3  
 2.406000000000000E10   -7.761311251670122E-3   1.069154031574726E-2  
 2.408000000000000E10    1.234394591301680E-2   6.522523239254952E-3  
 2.410000000000000E10    4.850944969803095E-3  -1.248021144419909E-2  
 2.412000000000000E10   -1.276227086782455E-2  -4.288266412913799E-3  
 2.414000000000000E10   -3.320168703794479E-3   1.312899123877287E-2  
 2.416000000000000E10    1.375244092196226E-2   1.584427081979811E-3  
 2.418000000000000E10    5.474322460941039E-5  -1.435240358114243E-2  
 2.420000000000000E10   -1.414166670292616E-2   1.128969364799559E-3  
 2.422000000000000E10    2.421327633783221E-3   1.400149706751108E-2  
 2.424000000000000E10    1.380914822220802E-2  -5.000839475542307E-3  
 2.426000000000000E10   -7.293805480003357E-3  -1.234153378754854E-2  
 2.428000000000000E10   -1.116729713976383E-2   8.313002996146679E-3  
 2.430000000000000E10    9.237636812031269E-3   9.725360199809074E-3  
 2.432000000000000E10    7.731977384537458E-3  -1.024621631950140E-2  
 2.434000000000000E10   -1.157430279999971E-2  -6.362505257129669E-3  
 2.436000000000000E10   -5.074367858469486E-3   1.169844809919596E-2  
 2.438000000000000E10    1.182692218571901E-2   3.851832821965218E-3  
 2.440000000000000E10    2.256804844364524E-3  -1.226226147264242E-2  
 2.442000000000000E10   -1.280938368290663E-2  -8.290259866043925E-4  
 2.444000000000000E10    2.462898264639080E-4   1.349206268787384E-2  
 2.446000000000000E10    1.285270415246487E-2  -1.574366586282849E-3  
 2.448000000000000E10   -2.577496226876974E-3  -1.253055781126022E-2  
 2.450000000000000E10   -1.281460933387280E-2   4.275755956768990E-3  
 2.452000000000000E10    5.687576718628407E-3   1.240873709321022E-2  
 2.454000000000000E10    1.125381235033274E-2  -6.327285431325436E-3  
 2.456000000000000E10   -7.713503204286099E-3  -1.029806770384312E-2  
 2.458000000000000E10   -9.357709437608719E-3   8.793912827968597E-3  
 2.460000000000000E10    9.914040565490723E-3   7.280151825398207E-3  
 2.462000000000000E10    6.060354877263308E-3  -1.023672800511122E-2  
 2.464000000000000E10   -1.003762800246477E-2  -4.580549430102110E-3  
 2.466000000000000E10   -3.481238847598434E-3   1.047521270811558E-2  
 2.468000000000000E10    1.124081760644913E-2   2.515457803383470E-3  
 2.470000000000000E10    9.926977800205350E-4  -1.154900155961514E-2  
 2.472000000000000E10   -1.174937561154366E-2   9.397467947565019E-4  
 2.474000000000000E10    1.774888369254768E-3   1.156770717352629E-2  
 2.476000000000000E10    1.150862034410238E-2  -3.012442262843251E-3  
 2.478000000000000E10   -4.967689048498869E-3  -1.161091774702072E-2  
 2.480000000000000E10   -1.065227668732405E-2   5.930753424763680E-3  
 2.482000000000000E10    7.672388106584549E-3   1.011656038463116E-2  
 2.484000000000000E10    9.207772091031075E-3  -8.920305408537388E-3  
 2.486000000000000E10   -9.743551723659039E-3  -8.065645582973957E-3  
 2.488000000000000E10   -5.607229191809893E-3   1.019368879497051E-2  
 2.490000000000000E10    1.006974186748266E-2   4.456974100321531E-3  
 2.492000000000000E10    3.654632484540343E-3  -9.957869537174702E-3  
 2.494000000000000E10   -1.059682015329599E-2  -2.830093028023839E-3  
 2.496000000000000E10   -1.484018983319402E-3   1.062004081904888E-2  
 2.498000000000000E10    9.879942983388901E-3   3.492087998893112E-4  
 2.500000000000000E10   -6.044655456207693E-4  -1.026254799216986E-2  
 2.502000000000000E10   -1.073292084038258E-2   1.698016072623432E-3  
 2.504000000000000E10    3.808098146691918E-3   9.757021442055702E-3  
 2.506000000000000E10    9.196789935231209E-3  -4.259001463651657E-3  
 2.508000000000000E10   -4.851376637816429E-3  -9.544600732624531E-3  
 2.510000000000000E10   -8.894002065062523E-3   6.638878956437111E-3  
 2.512000000000000E10    8.069197647273541E-3   8.172973059117794E-3  
 2.514000000000000E10    7.677233312278986E-3  -8.877182379364967E-3  
 2.516000000000000E10   -9.712980128824711E-3  -5.840301513671875E-3  
 2.518000000000000E10   -4.948687739670277E-3   1.085500791668892E-2  
 2.520000000000000E10    1.083528343588114E-2   3.302136668935418E-3  
 2.522000000000000E10    2.049540868028998E-3  -1.078289002180100E-2  
 2.524000000000000E10   -1.068586017936468E-2  -1.297323498874903E-3  
 2.526000000000000E10   -3.503570042084903E-4   1.042813900858164E-2  
 2.528000000000000E10    1.058622077107430E-2  -1.124459085986018E-3  
 2.530000000000000E10   -1.957954606041312E-3  -1.067622844129801E-2  
 2.532000000000000E10   -1.019628625363112E-2   3.495410317555070E-3  
 2.534000000000000E10    5.223612301051617E-3   9.761730208992958E-3  
 2.536000000000000E10    8.788430131971836E-3  -6.240783259272575E-3  
 2.538000000000000E10   -7.477593142539263E-3  -7.632718887180090E-3  
 2.540000000000000E10   -6.737078540027142E-3   8.091954514384270E-3  
 2.542000000000000E10    9.321146644651890E-3   5.502058193087578E-3  
 2.544000000000000E10    4.285091534256935E-3  -1.014085579663515E-2  
 2.546000000000000E10   -1.061712577939034E-2  -3.441537963226438E-3  
 2.548000000000000E10   -1.546305371448398E-3   1.072951871901751E-2  
 2.550000000000000E10    1.110063772648573E-2  -6.388859474100173E-4  
 2.552000000000000E10   -1.461455947719514E-3  -1.104109734296799E-2  
 2.554000000000000E10   -9.940105490386486E-3   2.663423074409366E-3  
 2.556000000000000E10    3.579224692657590E-3   9.305793792009354E-3  
 2.558000000000000E10    9.166790172457695E-3  -4.466712474822998E-3  
 2.560000000000000E10   -5.711894482374191E-3  -8.630684576928616E-3  
 2.562000000000000E10   -7.904049009084702E-3   6.382888182997704E-3  
 2.564000000000000E10    7.356190588325262E-3   7.555980235338211E-3  
 2.566000000000000E10    6.630310323089361E-3  -9.758511558175087E-3  
 2.568000000000000E10   -1.109324395656586E-2  -4.615952260792255E-3  
 2.570000000000000E10   -2.724370220676065E-3   1.072102226316929E-2  
 2.572000000000000E10    1.033446658402681E-2   1.238417113199830E-3  
 2.574000000000000E10    3.809338668361306E-4  -1.058133970946074E-2  
 2.576000000000000E10   -1.074252370744944E-2   1.341926748864353E-3  
 2.578000000000000E10    2.985931932926178E-3   9.874700568616390E-3  
 2.580000000000000E10    9.418378584086895E-3  -3.934871871024370E-3  
 2.582000000000000E10   -4.950947593897581E-3  -8.991159498691559E-3  
 2.584000000000000E10   -8.341485634446144E-3   5.929549224674702E-3  
 2.586000000000000E10    6.625754293054342E-3   7.110553327947855E-3  
 2.588000000000000E10    5.924392957240343E-3  -7.241501938551664E-3  
 2.590000000000000E10   -7.723170332610607E-3  -5.307580344378948E-3  
 2.592000000000000E10   -4.891189746558666E-3   8.671829476952553E-3  
 2.594000000000000E10    9.445827454328537E-3   4.372960887849331E-3  
 2.596000000000000E10    2.811834216117859E-3  -1.021304354071617E-2  
 2.598000000000000E10   -1.059540174901485E-2  -1.346147386357188E-3  
 2.600000000000000E10    2.966009778901935E-4   1.077770162373781E-2  
 2.602000000000000E10    1.065557263791561E-2  -2.585969399660826E-3  
 2.604000000000000E10   -3.111381549388170E-3  -9.369326755404472E-3  
 2.606000000000000E10   -8.357191458344460E-3   3.938347101211548E-3  
 2.608000000000000E10    4.625859204679728E-3   7.755639962852001E-3  
 2.610000000000000E10    7.523649837821722E-3  -5.111213773488998E-3  
 2.612000000000000E10   -6.231023464351893E-3  -6.608589086681604E-3  
 2.614000000000000E10   -6.425304338335991E-3   6.912759505212307E-3  
 2.616000000000000E10    7.082942873239517E-3   5.229859612882137E-3  
 2.618000000000000E10    3.919366747140884E-3  -7.882652804255486E-3  
 2.620000000000000E10   -8.226214908063412E-3  -3.026041667908430E-3  
 2.622000000000000E10   -1.744438777677715E-3   8.244142867624760E-3  
 2.624000000000000E10    8.486567065119743E-3   1.075146021321416E-3  
 2.626000000000000E10    2.763899974524975E-4  -8.528722450137138E-3  
 2.628000000000000E10   -8.616983890533447E-3   1.846587751060724E-3  
 2.630000000000000E10    2.939978614449501E-3   8.384476415812969E-3  
 2.632000000000000E10    7.209742907434702E-3  -4.208147991448641E-3  
 2.634000000000000E10   -4.655141383409500E-3  -6.404567975550890E-3  
 2.636000000000000E10   -5.683592520654202E-3   4.867726005613804E-3  
 2.638000000000000E10    5.796106997877359E-3   5.081871990114451E-3  
 2.640000000000000E10    4.555071238428354E-3  -5.998251959681511E-3  
 2.642000000000000E10   -5.869279615581036E-3  -3.793560899794102E-3  
 2.644000000000000E10   -3.207915229722858E-3   6.532289553433657E-3  
 2.646000000000000E10    7.312567438930273E-3   2.950677415356040E-3  
 2.648000000000000E10    1.513881143182516E-3  -6.929608061909676E-3  
 2.650000000000000E10   -6.716073956340551E-3  -2.927134628407657E-4  
 2.652000000000000E10    6.063895416446030E-4   6.491054780781269E-3  
 2.654000000000000E10    6.553066428750753E-3  -1.595956622622907E-3  
 2.656000000000000E10   -1.734001445583999E-3  -5.841935984790325E-3  
 2.658000000000000E10   -5.150280892848969E-3   2.549971919506788E-3  
 2.660000000000000E10    4.109483212232590E-3   4.744468256831169E-3  
 2.662000000000000E10    4.217768087983131E-3  -4.281863570213318E-3  
 2.664000000000000E10   -4.109222907572985E-3  -3.212424926459789E-3  
 2.666000000000000E10   -2.697204472497106E-3   4.598336759954691E-3  
 2.668000000000000E10    4.661052022129297E-3   2.109182067215443E-3  
 2.670000000000000E10    1.788160647265613E-3  -4.625998903065920E-3  
 2.672000000000000E10   -4.509716760367155E-3  -1.505582826212049E-3  
 2.674000000000000E10   -1.312245149165392E-3   4.603238310664892E-3  
 2.676000000000000E10    5.102314520627260E-3   2.818602952174842E-4  
 2.678000000000000E10    5.246289074420929E-4  -5.075067747384310E-3  
 2.680000000000000E10   -5.052650813013315E-3   2.137945557478815E-4  
 2.682000000000000E10    9.480892913416028E-4   4.837216343730688E-3  
 2.684000000000000E10    4.457303322851658E-3  -1.333907712250948E-3  
 2.686000000000000E10   -2.078334335237742E-3  -4.155928269028664E-3  
 2.688000000000000E10   -4.014698322862387E-3   2.461429918184876E-3  
 2.690000000000000E10    2.231983467936516E-3   3.464660141617060E-3  
 2.692000000000000E10    2.969295484945178E-3  -3.193602198734880E-3  
 2.694000000000000E10   -3.528935136273503E-3  -2.627980196848512E-3  
 2.696000000000000E10   -2.227759221568704E-3   3.425390925258398E-3  
 2.698000000000000E10    3.522237064316869E-3   1.617273548617959E-3  
 2.700000000000000E10    1.117255305871368E-3  -3.618298796936870E-3  
 2.702000000000000E10   -3.895479254424572E-3  -5.984821473248303E-4  
 2.704000000000000E10   -4.917867481708527E-4   3.865376580506563E-3  
 2.706000000000000E10    3.459810512140393E-3   1.203006322612055E-4  
 2.708000000000000E10   -5.500445258803666E-4  -3.684677416458726E-3  
 2.710000000000000E10   -3.785704495385289E-3   6.948477239347994E-4  
 2.712000000000000E10    1.009116997011006E-3   3.863513469696045E-3  
 2.714000000000000E10    3.219402860850096E-3  -1.760495943017304E-3  
 2.716000000000000E10   -1.922113122418523E-3  -3.018699120730162E-3  
 2.718000000000000E10   -3.004707396030426E-3   2.205251716077328E-3  
 2.720000000000000E10    2.332926262170076E-3   2.733714412897825E-3  
 2.722000000000000E10    2.191246487200260E-3  -2.778926165774465E-3  
 2.724000000000000E10   -2.816163701936603E-3  -1.955160638317466E-3  
 2.726000000000000E10   -1.474859542213380E-3   3.144418587908149E-3  
 2.728000000000000E10    2.836187602952123E-3   1.083987881429493E-3  
 2.730000000000000E10    1.051190891303122E-3  -2.808657474815846E-3  
 2.732000000000000E10   -2.623615553602576E-3  -6.293635815382004E-4  
 2.734000000000000E10   -3.289816086180508E-4   2.895102603361011E-3  
 2.736000000000000E10    2.710836939513683E-3   4.611089025274850E-5  
 2.738000000000000E10   -3.387398901395500E-4  -2.987179905176163E-3  
 2.740000000000000E10   -3.197620389983058E-3   1.140872947871685E-3  
 2.742000000000000E10    1.532656024210155E-3   2.645248547196388E-3  
 2.744000000000000E10    2.810104051604867E-3  -1.851837034337223E-3  
 2.746000000000000E10   -2.112723421305418E-3  -2.458072733134031E-3  
 2.748000000000000E10   -2.109841210767627E-3   2.112868009135127E-3  
 2.750000000000000E10    2.690553665161133E-3   2.010954776778817E-3  
 2.752000000000000E10    1.946528791449964E-3  -2.512888982892036E-3  
 2.754000000000000E10   -2.751268679276109E-3  -1.217984128743410E-3  
 2.756000000000000E10   -9.121702751144767E-4   2.863162662833929E-3  
