#  HZ   S   RI   R     50.00 
! Rohde & Schwarz ZVA40 4Ports - Version 3.90 - 1145.1110k42 SN: 100403
! Date: 2023-10-04 07:31:44
! Measurement: S12 
! 
 2.200000000000000E10    9.126862511038780E-3   4.799249581992626E-3  
 2.202000000000000E10    3.750264178961515E-3  -9.176594205200672E-3  
 2.204000000000000E10   -9.819590486586094E-3  -2.539378125220537E-3  
 2.206000000000000E10   -1.443715416826308E-3   9.961183182895184E-3  
 2.208000000000000E10    9.915661066770554E-3   3.724058915395290E-4  
 2.210000000000000E10   -8.271813276223838E-4  -9.580114856362343E-3  
 2.212000000000000E10   -9.831710718572140E-3   1.863657496869564E-3  
 2.214000000000000E10    2.533061895519495E-3   9.645586833357811E-3  
 2.216000000000000E10    1.034797728061676E-2  -3.911122214049101E-3  
 2.218000000000000E10   -5.614634603261948E-3  -9.568327106535435E-3  
 2.220000000000000E10   -8.781821466982365E-3   6.953340489417315E-3  
 2.222000000000000E10    8.302109315991402E-3   7.750888820737600E-3  
 2.224000000000000E10    6.415362004190683E-3  -8.865076117217541E-3  
 2.226000000000000E10   -9.410257451236248E-3  -4.654387012124062E-3  
 2.228000000000000E10   -4.356411751359701E-3   9.376369416713715E-3  
 2.230000000000000E10    9.648343548178673E-3   3.188181202858686E-3  
 2.232000000000000E10    2.078321995213628E-3  -1.046037208288908E-2  
 2.234000000000000E10   -1.089436281472445E-2  -1.111116725951433E-3  
 2.236000000000000E10    1.891319552669302E-4   1.045232266187668E-2  
 2.238000000000000E10    1.033300440758467E-2  -1.635541091673076E-3  
 2.240000000000000E10   -3.039583330973983E-3  -9.887315332889557E-3  
 2.242000000000000E10   -9.357700124382973E-3   4.330627154558897E-3  
 2.244000000000000E10    5.159515887498856E-3   8.595861494541168E-3  
 2.246000000000000E10    8.173204027116299E-3  -5.991766694933176E-3  
 2.248000000000000E10   -6.897023878991604E-3  -7.840135134756565E-3  
 2.250000000000000E10   -7.478906307369471E-3   8.208427578210831E-3  
 2.252000000000000E10    9.725219570100308E-3   6.066387053579092E-3  
 2.254000000000000E10    4.959255456924439E-3  -1.007024850696325E-2  
 2.256000000000000E10   -1.061937399208546E-2  -3.768409835174680E-3  
 2.258000000000000E10   -1.915521686896682E-3   1.090306416153908E-2  
 2.260000000000000E10    1.038314681500197E-2   1.361312693916261E-3  
 2.262000000000000E10    2.972992369905114E-4  -9.875304065644741E-3  
 2.264000000000000E10   -9.836623445153236E-3   1.697975967545062E-4  
 2.266000000000000E10    8.020095992833376E-4   1.075005717575550E-2  
 2.268000000000000E10    1.092109736055136E-2  -2.417421434074640E-3  
 2.270000000000000E10   -3.668638877570629E-3  -1.047952100634575E-2  
 2.272000000000000E10   -9.996365755796433E-3   5.651798099279404E-3  
 2.274000000000000E10    7.071071304380894E-3   8.928807452321053E-3  
 2.276000000000000E10    7.870093919336796E-3  -7.911151275038719E-3  
 2.278000000000000E10   -8.137395605444908E-3  -6.573753431439400E-3  
 2.280000000000000E10   -5.458933301270008E-3   8.998212404549122E-3  
 2.282000000000000E10    4.540491383522749E-3   9.665705263614655E-3  
 2.284000000000000E10    4.164576530456543E-3  -1.046327874064446E-2  
 2.286000000000000E10   -1.094182394444943E-2  -2.753301290795207E-3  
 2.288000000000000E10   -1.282281591556966E-3   1.162301562726498E-2  
 2.290000000000000E10    1.080610230565071E-2  -3.744181303773075E-4  
 2.292000000000000E10   -1.864507212303579E-3  -1.053913217037916E-2  
 2.294000000000000E10   -1.018079463392496E-2   2.961535472422838E-3  
 2.296000000000000E10    3.318025032058358E-3   9.446805343031883E-3  
 2.298000000000000E10    9.724115952849388E-3  -4.288579337298870E-3  
 2.300000000000000E10   -5.396903492510319E-3  -9.802639484405518E-3  
 2.302000000000000E10   -8.948402479290962E-3   7.058933377265930E-3  
 2.304000000000000E10    8.682246319949627E-3   8.272539824247360E-3  
 2.306000000000000E10    6.559503730386496E-3  -9.608739987015724E-3  
 2.308000000000000E10   -1.024875603616238E-2  -5.508814472705126E-3  
 2.310000000000000E10   -4.354474134743214E-3   1.026478875428438E-2  
 2.312000000000000E10    1.038424205034971E-2   2.645633183419704E-3  
 2.314000000000000E10    1.615817775018513E-3  -1.063671801239252E-2  
 2.316000000000000E10   -1.074245944619179E-2  -3.741032851394266E-4  
 2.318000000000000E10    9.415142121724784E-4   1.083131227642298E-2  
 2.320000000000000E10    1.063767075538635E-2  -2.300926018506289E-3  
 2.322000000000000E10   -3.675212385132909E-3  -1.026545837521553E-2  
 2.324000000000000E10   -9.927529841661453E-3   5.166235845535994E-3  
 2.326000000000000E10    6.427539512515068E-3   8.641120046377182E-3  
 2.328000000000000E10    7.986060343682766E-3  -7.107134442776442E-3  
 2.330000000000000E10   -8.251535706222057E-3  -7.421543821692467E-3  
 2.332000000000000E10   -6.609403062611818E-3   8.092569187283516E-3  
 2.334000000000000E10    9.383491240441799E-3   6.430534645915031E-3  
 2.336000000000000E10    5.133021622896195E-3  -1.086107082664967E-2  
 2.338000000000000E10   -1.128649897873402E-2  -3.961265552788973E-3  
 2.340000000000000E10   -1.813977374695242E-3   1.171862706542015E-2  
 2.342000000000000E10    1.153306383639574E-2   3.478445578366518E-4  
 2.344000000000000E10   -7.324485923163593E-4  -1.090996433049440E-2  
 2.346000000000000E10   -1.036657858639956E-2   2.164140809327364E-3  
 2.348000000000000E10    3.029173240065575E-3   9.657310321927071E-3  
 2.350000000000000E10    1.004247181117535E-2  -4.266466014087200E-3  
 2.352000000000000E10   -5.365473218262196E-3  -9.947989135980606E-3  
 2.354000000000000E10   -8.804948069155216E-3   6.793469656258822E-3  
 2.356000000000000E10    8.465174585580826E-3   7.962750270962715E-3  
 2.358000000000000E10    6.704158149659634E-3  -9.228812530636787E-3  
 2.360000000000000E10   -9.415013715624809E-3  -5.654803477227688E-3  
 2.362000000000000E10   -4.491583444178104E-3   1.056999713182449E-2  
 2.364000000000000E10    1.077672000974417E-2   3.342388896271586E-3  
 2.366000000000000E10    2.521580550819635E-3  -1.156631018966436E-2  
 2.368000000000000E10   -1.222313009202480E-2  -1.377808395773172E-3  
 2.370000000000000E10    2.176514972234145E-4   1.261719409376383E-2  
 2.372000000000000E10    1.250461954623461E-2  -2.248161239549518E-3  
 2.374000000000000E10   -3.867367748171091E-3  -1.168821007013321E-2  
 2.376000000000000E10   -1.136500760912895E-2   4.975884221494198E-3  
 2.378000000000000E10    6.108460482209921E-3   1.015121862292290E-2  
 2.380000000000000E10    9.311617352068424E-3  -6.950233131647110E-3  
 2.382000000000000E10   -8.111253380775452E-3  -8.688794448971748E-3  
 2.384000000000000E10   -8.019037544727325E-3   9.302322752773762E-3  
 2.386000000000000E10    1.015586871653795E-2   6.864266935735941E-3  
 2.388000000000000E10    4.950674716383219E-3  -1.128125190734863E-2  
 2.390000000000000E10   -1.211185753345490E-2  -3.482858417555690E-3  
 2.392000000000000E10   -1.689322409220040E-3   1.284253038465977E-2  
 2.394000000000000E10    1.271719206124544E-2  -2.718712494242936E-4  
 2.396000000000000E10   -2.263722009956837E-3  -1.260905433446169E-2  
 2.398000000000000E10   -1.270681992173195E-2   4.337169695645571E-3  
 2.400000000000000E10    5.549841094762087E-3   1.228434033691883E-2  
 2.402000000000000E10    9.996142238378525E-3  -8.418666198849678E-3  
 2.404000000000000E10   -9.526917710900307E-3  -8.839220739901066E-3  
 2.406000000000000E10   -8.287868462502956E-3   1.032324694097042E-2  
 2.408000000000000E10    1.099269092082977E-2   6.989391054958105E-3  
 2.410000000000000E10    5.596106871962547E-3  -1.127915643155575E-2  
 2.412000000000000E10   -1.146591175347567E-2  -4.460401367396116E-3  
 2.414000000000000E10   -3.804117906838656E-3   1.167045906186104E-2  
 2.416000000000000E10    1.226777117699385E-2   2.776427892968059E-3  
 2.418000000000000E10    1.057566143572331E-3  -1.194048393517733E-2  
 2.420000000000000E10   -1.219785772264004E-2   5.582686280831695E-4  
 2.422000000000000E10    1.931654405780137E-3   1.235969737172127E-2  
 2.424000000000000E10    1.223239582031965E-2  -3.969002049416304E-3  
 2.426000000000000E10   -6.571187172085047E-3  -1.110270805656910E-2  
 2.428000000000000E10   -9.620185941457748E-3   7.708820514380932E-3  
 2.430000000000000E10    8.769190870225430E-3   8.863094262778759E-3  
 2.432000000000000E10    7.659015711396933E-3  -1.014044322073460E-2  
 2.434000000000000E10   -1.049176789820194E-2  -6.315317470580339E-3  
 2.436000000000000E10   -4.668040201067925E-3   1.108954753726721E-2  
 2.438000000000000E10    1.137416344136000E-2   3.638584399595857E-3  
 2.440000000000000E10    3.052060026675463E-3  -1.182502415031195E-2  
 2.442000000000000E10   -1.175130065530539E-2  -1.689375611022115E-3  
 2.444000000000000E10   -3.820286365225911E-4   1.146291289478540E-2  
 2.446000000000000E10    1.151363085955381E-2  -6.973679410293698E-4  
 2.448000000000000E10   -1.487416680902243E-3  -1.149454340338707E-2  
 2.450000000000000E10   -1.134422048926354E-2   2.392335562035441E-3  
 2.452000000000000E10    4.233399871736765E-3   1.032421737909317E-2  
 2.454000000000000E10    9.756848216056824E-3  -5.609960760921240E-3  
 2.456000000000000E10   -6.289578508585692E-3  -8.937810547649860E-3  
 2.458000000000000E10   -7.632663473486900E-3   7.721277419477701E-3  
 2.460000000000000E10    8.627535775303841E-3   6.448336411267519E-3  
 2.462000000000000E10    5.487388931214809E-3  -9.294062852859497E-3  
 2.464000000000000E10   -9.283144026994705E-3  -3.880811389535666E-3  
 2.466000000000000E10   -3.199713537469506E-3   9.642224758863449E-3  
 2.468000000000000E10    1.035129558295012E-2   2.222025534138084E-3  
 2.470000000000000E10    1.122064772062004E-3  -1.061706896871328E-2  
 2.472000000000000E10   -1.047143246978521E-2  -2.880696265492588E-4  
 2.474000000000000E10    9.005396277643740E-4   1.050984580069780E-2  
 2.476000000000000E10    1.079096924513578E-2  -2.311283024027944E-3  
 2.478000000000000E10   -3.246319014579058E-3  -1.075404044240713E-2  
 2.480000000000000E10   -1.000608690083027E-2   5.122106056660414E-3  
 2.482000000000000E10    6.234546191990376E-3   9.474132210016251E-3  
 2.484000000000000E10    8.594548329710960E-3  -6.935171317309141E-3  
 2.486000000000000E10   -7.962808944284916E-3  -7.379668299108744E-3  
 2.488000000000000E10   -5.508209113031626E-3   8.525527082383633E-3  
 2.490000000000000E10    8.695019409060478E-3   4.259292967617512E-3  
 2.492000000000000E10    3.831886919215322E-3  -8.966700173914433E-3  
 2.494000000000000E10   -8.878077380359173E-3  -2.824037801474333E-3  
 2.496000000000000E10   -1.131313852965832E-3   8.780365809798241E-3  
 2.498000000000000E10    9.082491509616375E-3   2.277333696838468E-4  
 2.500000000000000E10   -1.482241204939783E-4  -9.050783701241016E-3  
 2.502000000000000E10   -9.329065680503845E-3   1.463735825382173E-3  
 2.504000000000000E10    3.096926258876920E-3   9.213055483996868E-3  
 2.506000000000000E10    8.519015274941921E-3  -3.679513698443770E-3  
 2.508000000000000E10   -4.321295768022537E-3  -8.532836101949215E-3  
 2.510000000000000E10   -8.793216198682785E-3   5.280659068375826E-3  
 2.512000000000000E10    6.430597510188818E-3   7.714613806456327E-3  
 2.514000000000000E10    6.985205225646496E-3  -8.022870868444443E-3  
 2.516000000000000E10   -8.436202071607113E-3  -6.022761110216379E-3  
 2.518000000000000E10   -4.781702067703009E-3   8.878554217517376E-3  
 2.520000000000000E10    9.234678931534290E-3   2.691267989575863E-3  
 2.522000000000000E10    2.305056666955352E-3  -8.990778587758541E-3  
 2.524000000000000E10   -8.695554919540882E-3  -1.138786785304546E-3  
 2.526000000000000E10   -4.765024059452117E-4   8.915573358535767E-3  
 2.528000000000000E10    8.675894699990749E-3  -4.764538025483489E-4  
 2.530000000000000E10   -1.748395734466612E-3  -9.172332473099232E-3  
 2.532000000000000E10   -9.257633239030838E-3   2.933558309450746E-3  
 2.534000000000000E10    4.392626229673624E-3   8.570492267608643E-3  
 2.536000000000000E10    7.536042481660843E-3  -5.654059816151857E-3  
 2.538000000000000E10   -6.759588140994310E-3  -6.758852396160364E-3  
 2.540000000000000E10   -5.853618029505014E-3   7.312078494578600E-3  
 2.542000000000000E10    8.254976943135262E-3   5.340955220162869E-3  
 2.544000000000000E10    4.030481912195683E-3  -8.590092882514000E-3  
 2.546000000000000E10   -9.375836700201035E-3  -2.783375326544046E-3  
 2.548000000000000E10   -1.654107356444001E-3   9.926088154315949E-3  
 2.550000000000000E10    9.574739262461662E-3   2.071070048259571E-4  
 2.552000000000000E10   -1.363679068163037E-3  -9.331930428743362E-3  
 2.554000000000000E10   -8.679505437612534E-3   2.422298770397902E-3  
 2.556000000000000E10    2.641449682414532E-3   8.332566358149052E-3  
 2.558000000000000E10    8.032489567995071E-3  -3.407198935747147E-3  
 2.560000000000000E10   -4.235588014125824E-3  -7.420777808874846E-3  
 2.562000000000000E10   -7.129360921680927E-3   5.412488244473934E-3  
 2.564000000000000E10    6.315168458968401E-3   7.080573588609695E-3  
 2.566000000000000E10    5.633854307234287E-3  -7.705790922045708E-3  
 2.568000000000000E10   -8.927462622523308E-3  -3.750005736947060E-3  
 2.570000000000000E10   -2.336731646209955E-3   9.315752424299717E-3  
 2.572000000000000E10    8.634379133582115E-3   1.191336661577225E-3  
 2.574000000000000E10    5.127410404384136E-4  -8.816314861178398E-3  
 2.576000000000000E10   -8.970241062343121E-3   9.933629771694541E-4  
 2.578000000000000E10    2.690398832783103E-3   8.678114041686058E-3  
 2.580000000000000E10    8.312769234180450E-3  -3.235442796722055E-3  
 2.582000000000000E10   -4.346896894276142E-3  -7.641676813364029E-3  
 2.584000000000000E10   -6.503919139504433E-3   5.358104128390551E-3  
 2.586000000000000E10    5.700946319848299E-3   5.945101846009493E-3  
 2.588000000000000E10    4.833360202610493E-3  -6.141588557511568E-3  
 2.590000000000000E10   -6.372391711920500E-3  -4.464175086468458E-3  
 2.592000000000000E10   -4.360507708042860E-3   7.281873840838671E-3  
 2.594000000000000E10    7.957628928124905E-3   3.799260826781392E-3  
 2.596000000000000E10    2.628903370350599E-3  -8.600359782576561E-3  
 2.598000000000000E10   -9.026555344462395E-3  -5.884165293537080E-4  
 2.600000000000000E10    8.900701068341732E-4   8.800023235380650E-3  
 2.602000000000000E10    8.768521249294281E-3  -1.827366417273879E-3  
 2.604000000000000E10   -3.094398183748126E-3  -7.878008298575878E-3  
 2.606000000000000E10   -6.965048145502806E-3   3.264916827902198E-3  
 2.608000000000000E10    3.937071654945612E-3   6.321100983768702E-3  
 2.610000000000000E10    5.829310975968838E-3  -4.493670072406530E-3  
 2.612000000000000E10   -5.082350224256516E-3  -5.578734446316958E-3  
 2.614000000000000E10   -4.844891838729382E-3   5.714434199035168E-3  
 2.616000000000000E10    5.842893850058317E-3   3.875317983329296E-3  
 2.618000000000000E10    3.404877381399274E-3  -6.675943732261658E-3  
 2.620000000000000E10   -6.814529187977314E-3  -1.705583767034113E-3  
 2.622000000000000E10   -1.254951581358910E-3   6.530244369059801E-3  
 2.624000000000000E10    6.963789928704500E-3   5.022057448513806E-4  
 2.626000000000000E10   -2.229999081464484E-4  -7.022837176918984E-3  
 2.628000000000000E10   -7.465935777872801E-3   1.249423949047923E-3  
 2.630000000000000E10    2.993203699588776E-3   6.601274013519287E-3  
 2.632000000000000E10    6.188414059579372E-3  -3.823684062808752E-3  
 2.634000000000000E10   -4.270981531590223E-3  -5.387108772993088E-3  
 2.636000000000000E10   -4.603669047355652E-3   4.329341929405928E-3  
 2.638000000000000E10    4.649311769753695E-3   3.917800262570381E-3  
 2.640000000000000E10    2.738514915108681E-3  -5.084090866148472E-3  
 2.642000000000000E10   -5.072365980595350E-3  -2.849224256351590E-3  
 2.644000000000000E10   -2.406503772363067E-3   5.343522876501083E-3  
 2.646000000000000E10    5.426401272416115E-3   1.216991455294192E-3  
 2.648000000000000E10    7.565663690911606E-5  -5.562463775277138E-3  
 2.650000000000000E10   -5.638289265334606E-3   3.909803926944733E-4  
 2.652000000000000E10    8.676677243784070E-4   4.976925440132618E-3  
 2.654000000000000E10    4.477329552173615E-3  -1.700808061286807E-3  
 2.656000000000000E10   -2.496794331818819E-3  -4.635399673134089E-3  
 2.658000000000000E10   -4.116166848689318E-3   2.682488877326250E-3  
 2.660000000000000E10    3.105462528765202E-3   3.157656872645021E-3  
 2.662000000000000E10    2.281178953126073E-3  -3.754979465156794E-3  
 2.664000000000000E10   -3.777915611863136E-3  -2.194799249991775E-3  
 2.666000000000000E10   -1.994958147406578E-3   3.747219219803810E-3  
 2.668000000000000E10    3.252854570746422E-3   1.102653332054615E-3  
 2.670000000000000E10    8.689457317814231E-4  -3.544549224898219E-3  
 2.672000000000000E10   -3.750886535272002E-3  -4.333653487265110E-4  
 2.674000000000000E10   -6.205886020325124E-4   3.744190558791161E-3  
 2.676000000000000E10    3.510537790134549E-3  -5.664081618306227E-5  
 2.678000000000000E10   -6.956110592000186E-4  -3.299423027783632E-3  
 2.680000000000000E10   -2.990763867273927E-3   5.219583399593830E-4  
 2.682000000000000E10    9.834900265559554E-4   3.053671680390835E-3  
 2.684000000000000E10    2.774717751890421E-3  -1.464761910028756E-3  
 2.686000000000000E10   -1.714843907393515E-3  -2.482171403244138E-3  
 2.688000000000000E10   -2.164776204153895E-3   1.752646639943123E-3  
 2.690000000000000E10    1.965842442587018E-3   1.954487292096019E-3  
 2.692000000000000E10    1.858789124526084E-3  -2.133573405444622E-3  
 2.694000000000000E10   -2.240147907286882E-3  -1.145003945566714E-3  
 2.696000000000000E10   -7.364129996858537E-4   2.143732504919171E-3  
 2.698000000000000E10    2.408308675512672E-3   6.763795390725136E-4  
 2.700000000000000E10    2.951901115011424E-4  -2.252207137644291E-3  
 2.702000000000000E10   -2.154169604182243E-3  -1.244667364517227E-4  
 2.704000000000000E10    3.586050879675895E-4   2.470420207828283E-3  
 2.706000000000000E10    2.327079884707928E-3  -7.279418787220493E-5  
 2.708000000000000E10   -3.475951962172985E-4  -2.080836566165090E-3  
 2.710000000000000E10   -2.192638348788023E-3   4.980839439667761E-4  
 2.712000000000000E10    7.207303424365819E-4   2.393819624558091E-3  
 2.714000000000000E10    2.296378603205085E-3  -1.017398550175130E-3  
 2.716000000000000E10   -1.322358381003141E-3  -2.032776363193989E-3  
 2.718000000000000E10   -1.827487722039223E-3   1.399719156324863E-3  
 2.720000000000000E10    1.717673265375197E-3   1.698452630080283E-3  
 2.722000000000000E10    1.481314422562718E-3  -1.469064969569445E-3  
 2.724000000000000E10   -1.718457555398345E-3  -1.214133109897375E-3  
 2.726000000000000E10   -5.095062660984695E-4   2.066270681098104E-3  
 2.728000000000000E10    1.387291238643229E-3   5.792104057036340E-4  
 2.730000000000000E10    4.241708375047892E-4  -1.714526792056859E-3  
 2.732000000000000E10   -1.886742189526558E-3  -2.925765293184668E-4  
 2.734000000000000E10   -4.708400520030409E-4   1.750478171743453E-3  
 2.736000000000000E10    1.973056932911277E-3  -1.477324985899031E-4  
 2.738000000000000E10   -2.473711210768670E-4  -1.689463155344129E-3  
 2.740000000000000E10   -1.706816605292261E-3   5.617060814984143E-4  
 2.742000000000000E10    6.957401055842638E-4   1.487801899202168E-3  
 2.744000000000000E10    1.449473900720477E-3  -5.987452459521592E-4  
 2.746000000000000E10   -1.354382373392582E-3  -1.233438495546579E-3  
 2.748000000000000E10   -1.307453145273030E-3   1.258348114788532E-3  
 2.750000000000000E10    1.141112181358039E-3   8.687773370184004E-4  
 2.752000000000000E10    6.159321055747569E-4  -1.797050703316927E-3  
 2.754000000000000E10   -1.728012925013900E-3  -6.906397757120431E-4  
 2.756000000000000E10   -4.375673015601933E-4   1.540566328912973E-3  
