#  HZ   S   RI   R     50.00 
! Rohde & Schwarz ZVA40 4Ports - Version 3.90 - 1145.1110k42 SN: 100403
! Date: 2023-10-04 07:32:09
! Measurement: S12 
! 
 2.200000000000000E10    9.042222052812576E-3   3.724485868588090E-3  
 2.202000000000000E10    2.345644170418382E-3  -9.238666854798794E-3  
 2.204000000000000E10   -1.013127714395523E-2  -9.964691707864404E-4  
 2.206000000000000E10   -3.250975350965746E-5   9.572727605700493E-3  
 2.208000000000000E10    9.632971137762070E-3  -1.252264599315822E-3  
 2.210000000000000E10   -2.056937897577882E-3  -9.218432009220123E-3  
 2.212000000000000E10   -8.465511724352837E-3   2.366600558161736E-3  
 2.214000000000000E10    3.817350603640080E-3   8.731500245630741E-3  
 2.216000000000000E10    9.593476541340351E-3  -4.792690742760897E-3  
 2.218000000000000E10   -6.309809628874064E-3  -8.125492371618748E-3  
 2.220000000000000E10   -6.984147708863020E-3   7.195901591330767E-3  
 2.222000000000000E10    8.350550197064877E-3   6.167209241539240E-3  
 2.224000000000000E10    4.813882987946272E-3  -8.441763930022717E-3  
 2.226000000000000E10   -8.761115372180939E-3  -3.661100752651691E-3  
 2.228000000000000E10   -2.729402156546712E-3   8.784628473222256E-3  
 2.230000000000000E10    9.468514472246170E-3   1.676334184594452E-3  
 2.232000000000000E10    1.274824608117342E-3  -9.678382426500320E-3  
 2.234000000000000E10   -9.852874092757702E-3   6.000468856655061E-4  
 2.236000000000000E10    1.989116659387946E-3   9.926529601216316E-3  
 2.238000000000000E10    1.017860509455204E-2  -3.028636332601309E-3  
 2.240000000000000E10   -4.003031179308891E-3  -9.304199367761612E-3  
 2.242000000000000E10   -8.546385914087296E-3   5.757675506174564E-3  
 2.244000000000000E10    6.381006445735693E-3   8.027370087802410E-3  
 2.246000000000000E10    7.431262638419867E-3  -7.075470406562090E-3  
 2.248000000000000E10   -7.428340148180723E-3  -6.683455314487219E-3  
 2.250000000000000E10   -6.196140311658382E-3   8.541660383343697E-3  
 2.252000000000000E10    9.710347279906273E-3   4.824716597795487E-3  
 2.254000000000000E10    3.801659215241671E-3  -9.936238639056683E-3  
 2.256000000000000E10   -1.025957800447941E-2  -2.344393171370029E-3  
 2.258000000000000E10   -6.911650416441262E-4   1.015514787286520E-2  
 2.260000000000000E10    9.328635409474373E-3  -1.115055420086719E-4  
 2.262000000000000E10   -7.473798468708992E-4  -8.800960145890713E-3  
 2.264000000000000E10   -9.339307434856892E-3   1.201272592879832E-3  
 2.266000000000000E10    2.154184505343437E-3   9.665261954069138E-3  
 2.268000000000000E10    9.277705103158951E-3  -3.703567665070295E-3  
 2.270000000000000E10   -4.624002613127232E-3  -8.888393640518189E-3  
 2.272000000000000E10   -8.218970149755478E-3   6.491710897535086E-3  
 2.274000000000000E10    7.616568822413683E-3   7.056016009300947E-3  
 2.276000000000000E10    5.675626918673515E-3  -8.178535848855972E-3  
 2.278000000000000E10   -8.089108392596245E-3  -4.717012401670218E-3  
 2.280000000000000E10   -4.704129882156849E-3   8.676334284245968E-3  
 2.282000000000000E10    4.818254150450230E-3   7.899519987404347E-3  
 2.284000000000000E10    2.542299451306462E-3  -1.015051454305649E-2  
 2.286000000000000E10   -1.084862649440765E-2  -1.544584403745830E-3  
 2.288000000000000E10   -2.415664348518476E-4   1.021917350590229E-2  
 2.290000000000000E10    9.974158369004726E-3  -1.587511622346938E-3  
 2.292000000000000E10   -2.524744020774961E-3  -9.568064473569393E-3  
 2.294000000000000E10   -9.037558920681477E-3   2.842298941686750E-3  
 2.296000000000000E10    3.642618656158447E-3   8.537059649825096E-3  
 2.298000000000000E10    8.353088051080704E-3  -4.068139009177685E-3  
 2.300000000000000E10   -5.555856972932816E-3  -8.091251365840435E-3  
 2.302000000000000E10   -7.654723245650530E-3   6.779586430639029E-3  
 2.304000000000000E10    8.267082273960114E-3   6.486181169748306E-3  
 2.306000000000000E10    4.621966276317835E-3  -9.142523631453514E-3  
 2.308000000000000E10   -9.411516599357128E-3  -3.838632255792618E-3  
 2.310000000000000E10   -2.476273803040385E-3   9.603405371308327E-3  
 2.312000000000000E10    9.660161100327969E-3   1.246930565685034E-3  
 2.314000000000000E10    8.428125875070691E-4  -9.980677627027035E-3  
 2.316000000000000E10   -1.005776878446341E-2   4.780032031703740E-4  
 2.318000000000000E10    2.126922132447362E-3   9.793039411306381E-3  
 2.320000000000000E10    9.772560559213162E-3  -2.801925875246525E-3  
 2.322000000000000E10   -4.145886749029160E-3  -9.013442322611809E-3  
 2.324000000000000E10   -8.587248623371124E-3   5.101479589939117E-3  
 2.326000000000000E10    6.264351774007082E-3   8.132487535476685E-3  
 2.328000000000000E10    6.725388579070568E-3  -6.995677482336760E-3  
 2.330000000000000E10   -7.685688789933920E-3  -6.259015295654535E-3  
 2.332000000000000E10   -5.646995734423399E-3   7.552043069154024E-3  
 2.334000000000000E10    8.455425500869751E-3   5.264104343950748E-3  
 2.336000000000000E10    4.543459508568049E-3  -9.927094914019108E-3  
 2.338000000000000E10   -1.078731380403042E-2  -2.708749612793326E-3  
 2.340000000000000E10   -8.491742773912847E-4   1.038454193621874E-2  
 2.342000000000000E10    1.029707770794630E-2  -1.938990026246756E-4  
 2.344000000000000E10   -1.986073097214103E-3  -9.425560943782330E-3  
 2.346000000000000E10   -9.355964139103890E-3   3.098833840340376E-3  
 2.348000000000000E10    3.609173931181431E-3   9.095477871596813E-3  
 2.350000000000000E10    8.889742195606232E-3  -4.391084890812635E-3  
 2.352000000000000E10   -5.898991134017706E-3  -8.580070920288563E-3  
 2.354000000000000E10   -7.645769510418177E-3   7.586732972413302E-3  
 2.356000000000000E10    8.109088055789471E-3   6.703287363052368E-3  
 2.358000000000000E10    5.458108615130186E-3  -9.250536561012268E-3  
 2.360000000000000E10   -9.603932499885559E-3  -4.653913434594870E-3  
 2.362000000000000E10   -3.945830743759871E-3   1.009468082338572E-2  
 2.364000000000000E10    1.064244564622641E-2   2.715730806812644E-3  
 2.366000000000000E10    2.210485516116023E-3  -1.095259096473455E-2  
 2.368000000000000E10   -1.125951111316681E-2  -5.577468546107411E-4  
 2.370000000000000E10    1.050747698172927E-3   1.124222110956907E-2  
 2.372000000000000E10    1.108661573380232E-2  -2.787813078612089E-3  
 2.374000000000000E10   -4.448166117072105E-3  -1.065882947295904E-2  
 2.376000000000000E10   -9.502934291958809E-3   5.064629018306732E-3  
 2.378000000000000E10    6.716568954288960E-3   8.205150254070759E-3  
 2.380000000000000E10    7.681766990572214E-3  -7.729748263955116E-3  
 2.382000000000000E10   -8.279082365334034E-3  -7.074899505823851E-3  
 2.384000000000000E10   -5.660046357661486E-3   9.039413183927536E-3  
 2.386000000000000E10    1.052911579608917E-2   4.482314921915531E-3  
 2.388000000000000E10    3.724095644429326E-3  -1.143055874854326E-2  
 2.390000000000000E10   -1.194408535957336E-2  -2.108284970745444E-3  
 2.392000000000000E10   -1.354000560240820E-4   1.253974437713623E-2  
 2.394000000000000E10    1.283778809010983E-2  -1.805717707611620E-3  
 2.396000000000000E10   -2.689458196982741E-3  -1.273317728191614E-2  
 2.398000000000000E10   -1.171208545565605E-2   3.697030711919069E-3  
 2.400000000000000E10    5.898303352296352E-3   1.058857981115580E-2  
 2.402000000000000E10    9.043095633387566E-3  -8.588485419750214E-3  
 2.404000000000000E10   -8.470174856483936E-3  -8.026349358260632E-3  
 2.406000000000000E10   -6.424721796065569E-3   9.107398800551891E-3  
 2.408000000000000E10    1.020544860512018E-2   4.657627549022436E-3  
 2.410000000000000E10    3.696732688695192E-3  -1.033300068229437E-2  
 2.412000000000000E10   -1.019427366554737E-2  -2.912004478275776E-3  
 2.414000000000000E10   -1.830361434258521E-3   1.028021145612001E-2  
 2.416000000000000E10    1.102627441287041E-2   3.405048628337681E-4  
 2.418000000000000E10   -1.175960758700967E-3  -1.116233598440886E-2  
 2.420000000000000E10   -1.107238791882992E-2   1.740558538585901E-3  
 2.422000000000000E10    3.301617223769426E-3   1.117861084640026E-2  
 2.424000000000000E10    1.147723011672497E-2  -5.525322631001473E-3  
 2.426000000000000E10   -7.231295108795166E-3  -1.014920603483915E-2  
 2.428000000000000E10   -8.707165718078613E-3   8.193637244403362E-3  
 2.430000000000000E10    9.155480191111565E-3   7.939784787595272E-3  
 2.432000000000000E10    6.451379042118788E-3  -9.768754243850708E-3  
 2.434000000000000E10   -1.041707955300808E-2  -4.862542729824781E-3  
 2.436000000000000E10   -3.835292533040047E-3   1.047892961651087E-2  
 2.438000000000000E10    1.016151532530785E-2   2.745061181485653E-3  
 2.440000000000000E10    1.427836949005723E-3  -9.961768053472042E-3  
 2.442000000000000E10   -1.043726131320000E-2  -4.083147214259952E-4  
 2.444000000000000E10    5.962612922303379E-4   1.017602998763323E-2  
 2.446000000000000E10    9.385128505527973E-3  -1.496869139373303E-3  
 2.448000000000000E10   -2.986070234328508E-3  -9.400961920619011E-3  
 2.450000000000000E10   -9.101719595491886E-3   4.201201722025871E-3  
 2.452000000000000E10    5.114640574902296E-3   8.845638483762741E-3  
 2.454000000000000E10    7.580558303743601E-3  -5.963069386780262E-3  
 2.456000000000000E10   -7.095715031027794E-3  -6.510265637189150E-3  
 2.458000000000000E10   -6.523713003844023E-3   8.618083782494068E-3  
 2.460000000000000E10    8.863023482263088E-3   5.180380307137966E-3  
 2.462000000000000E10    4.113183356821537E-3  -9.302050806581974E-3  
 2.464000000000000E10   -9.499019011855125E-3  -2.727770712226629E-3  
 2.466000000000000E10   -2.511995844542980E-3   9.400388225913048E-3  
 2.468000000000000E10    9.775559417903423E-3   1.402526046149433E-3  
 2.470000000000000E10    3.262181999161840E-4  -9.669325314462185E-3  
 2.472000000000000E10   -9.413438849151135E-3   8.694479474797845E-4  
 2.474000000000000E10    1.328872283920646E-3   9.190270677208901E-3  
 2.476000000000000E10    9.084555320441723E-3  -2.286884700879455E-3  
 2.478000000000000E10   -3.633685177192092E-3  -8.832551538944244E-3  
 2.480000000000000E10   -7.993169128894806E-3   5.345989950001240E-3  
 2.482000000000000E10    5.870693828910589E-3   7.050382439047098E-3  
 2.484000000000000E10    5.992619320750237E-3  -7.036956027150154E-3  
 2.486000000000000E10   -8.056557737290859E-3  -4.892773926258087E-3  
 2.488000000000000E10   -3.345806151628494E-3   8.043014444410801E-3  
 2.490000000000000E10    7.867177948355675E-3   2.480364171788096E-3  
 2.492000000000000E10    2.002589171752334E-3  -8.272128179669380E-3  
 2.494000000000000E10   -8.629074320197105E-3  -1.034371322020888E-3  
 2.496000000000000E10   -1.723599998513237E-4   8.412378840148449E-3  
 2.498000000000000E10    8.256105706095696E-3  -9.119060123339295E-4  
 2.500000000000000E10   -1.504632527939975E-3  -8.059909567236900E-3  
 2.502000000000000E10   -8.795375004410744E-3   2.308182185515761E-3  
 2.504000000000000E10    3.332017688080668E-3   7.490113377571106E-3  
 2.506000000000000E10    6.976499687880278E-3  -3.503198269754648E-3  
 2.508000000000000E10   -4.182442091405392E-3  -7.180991116911173E-3  
 2.510000000000000E10   -6.982995197176933E-3   5.037817172706127E-3  
 2.512000000000000E10    6.400747224688530E-3   6.256115157157183E-3  
 2.514000000000000E10    5.308181513100863E-3  -7.050483953207731E-3  
 2.516000000000000E10   -7.459189742803574E-3  -3.700744127854705E-3  
 2.518000000000000E10   -2.594074001535773E-3   8.319584652781487E-3  
 2.520000000000000E10    7.698670495301485E-3   1.535606686957181E-3  
 2.522000000000000E10    7.704922463744879E-4  -7.673043757677078E-3  
 2.524000000000000E10   -7.328214123845100E-3   1.474420423619449E-4  
 2.526000000000000E10    1.040242845192552E-3   7.366517558693886E-3  
 2.528000000000000E10    7.707685232162476E-3  -1.706135808490217E-3  
 2.530000000000000E10   -2.545545576140285E-3  -8.067465387284756E-3  
 2.532000000000000E10   -7.043041754513979E-3   3.820844460278750E-3  
 2.534000000000000E10    4.921354819089174E-3   7.165854331105948E-3  
 2.536000000000000E10    6.221529096364975E-3  -5.737856961786747E-3  
 2.538000000000000E10   -5.875001195818186E-3  -5.349588114768267E-3  
 2.540000000000000E10   -4.615843296051025E-3   6.680474616587162E-3  
 2.542000000000000E10    7.448724005371332E-3   4.220902919769287E-3  
 2.544000000000000E10    3.263997146859765E-3  -8.077199570834637E-3  
 2.546000000000000E10   -8.328647352755070E-3  -2.026759320870042E-3  
 2.548000000000000E10   -4.285224422346801E-4   8.296466432511807E-3  
 2.550000000000000E10    8.482448756694794E-3  -1.083870767615736E-3  
 2.552000000000000E10   -1.931550912559032E-3  -7.813014090061188E-3  
 2.554000000000000E10   -6.625297479331493E-3   2.868716605007649E-3  
 2.556000000000000E10    3.258031560108066E-3   6.186523940414190E-3  
 2.558000000000000E10    5.973003339022398E-3  -3.980556968599558E-3  
 2.560000000000000E10   -4.671563860028982E-3  -5.654380656778812E-3  
 2.562000000000000E10   -5.022559780627489E-3   5.382901523262262E-3  
 2.564000000000000E10    6.302465219050646E-3   4.216364584863186E-3  
 2.566000000000000E10    3.578675212338567E-3  -7.508135400712490E-3  
 2.568000000000000E10   -7.887101732194424E-3  -2.086449647322297E-3  
 2.570000000000000E10   -8.953642100095749E-4   7.732824422419071E-3  
 2.572000000000000E10    7.550710346549749E-3   5.804071770398878E-5  
 2.574000000000000E10   -6.842028815299273E-4  -7.760613225400448E-3  
 2.576000000000000E10   -7.694829721003771E-3   1.907300204038620E-3  
 2.578000000000000E10    3.199210623279214E-3   7.223926484584808E-3  
 2.580000000000000E10    6.387133616954088E-3  -3.814222523942590E-3  
 2.582000000000000E10   -4.921401385217905E-3  -6.055900827050209E-3  
 2.584000000000000E10   -5.207817535847426E-3   5.233837291598320E-3  
 2.586000000000000E10    5.439046770334244E-3   4.233147483319044E-3  
 2.588000000000000E10    3.519480582326651E-3  -5.914595909416676E-3  
 2.590000000000000E10   -6.133070681244135E-3  -3.008652711287141E-3  
 2.592000000000000E10   -3.133435966446996E-3   6.602412555366755E-3  
 2.594000000000000E10    7.139663677662611E-3   2.023973269388080E-3  
 2.596000000000000E10    5.239835008978844E-4  -7.544448133558035E-3  
 2.598000000000000E10   -7.939687930047512E-3   5.598385469056666E-4  
 2.600000000000000E10    1.908723264932632E-3   7.029353175312281E-3  
 2.602000000000000E10    6.698421668261290E-3  -2.800254151225090E-3  
 2.604000000000000E10   -3.674037987366319E-3  -5.830402951687574E-3  
 2.606000000000000E10   -5.197638645768166E-3   3.781562671065331E-3  
 2.608000000000000E10    4.378616344183683E-3   4.336607176810503E-3  
 2.610000000000000E10    3.500867635011673E-3  -4.932095762342215E-3  
 2.612000000000000E10   -5.223019979894161E-3  -3.093299455940723E-3  
 2.614000000000000E10   -2.955046948045492E-3   5.770964082330465E-3  
 2.616000000000000E10    5.545083899050951E-3   1.599146518856287E-3  
 2.618000000000000E10    1.318071852438152E-3  -5.738127045333386E-3  
 2.620000000000000E10   -6.225391291081905E-3  -2.629885275382549E-4  
 2.622000000000000E10    3.756878140848130E-4   5.644761491566896E-3  
 2.624000000000000E10    5.986911244690418E-3  -1.053045969456434E-3  
 2.626000000000000E10   -1.638426096178591E-3  -5.565572064369917E-3  
 2.628000000000000E10   -5.581181496381760E-3   2.684388542547822E-3  
 2.630000000000000E10    3.805127460509539E-3   4.928782116621733E-3  
 2.632000000000000E10    3.623710013926029E-3  -4.119893535971642E-3  
 2.634000000000000E10   -4.018996842205524E-3  -3.388223703950644E-3  
 2.636000000000000E10   -2.413515700027347E-3   4.230909515172243E-3  
 2.638000000000000E10    4.169214051216841E-3   1.858094008639455E-3  
 2.640000000000000E10    1.598049071617425E-3  -4.099161829799414E-3  
 2.642000000000000E10   -4.065094981342554E-3  -9.982553310692310E-4  
 2.644000000000000E10   -2.627889916766435E-4   4.218501970171928E-3  
 2.646000000000000E10    4.496781155467033E-3   5.743766814703122E-5  
 2.648000000000000E10   -6.313163903541863E-4  -4.140263423323631E-3  
 2.650000000000000E10   -3.774659940972924E-3   1.503733801655471E-3  
 2.652000000000000E10    2.419843571260572E-3   3.602643497288227E-3  
 2.654000000000000E10    3.284066449850798E-3  -2.461619675159454E-3  
 2.656000000000000E10   -2.418315736576915E-3  -2.731295302510262E-3  
 2.658000000000000E10   -1.866825390607119E-3   2.971899695694447E-3  
 2.660000000000000E10    3.580783493816853E-3   1.612025545910001E-3  
 2.662000000000000E10    1.327859936282039E-3  -3.576298709958792E-3  
 2.664000000000000E10   -3.315293230116367E-3  -7.533188327215612E-4  
 2.666000000000000E10   -2.255977015011013E-4   3.169296309351921E-3  
 2.668000000000000E10    3.200595034286380E-3   9.170925477519631E-5  
 2.670000000000000E10   -1.883727672975510E-4  -3.176684724166989E-3  
 2.672000000000000E10   -2.454779809340835E-3   4.982654354535043E-4  
 2.674000000000000E10    1.028882572427392E-3   2.572979312390089E-3  
 2.676000000000000E10    2.759726252406836E-3  -1.131935627199709E-3  
 2.678000000000000E10   -1.215694239363074E-3  -2.053857780992985E-3  
 2.680000000000000E10   -1.406796043738723E-3   1.318439492024481E-3  
 2.682000000000000E10    1.500033074989915E-3   1.679840497672558E-3  
 2.684000000000000E10    1.411811681464315E-3  -1.649023848585784E-3  
 2.686000000000000E10   -1.780019025318325E-3  -1.222102320753038E-3  
 2.688000000000000E10   -7.981105591170490E-4   1.762308296747506E-3  
 2.690000000000000E10    1.874456647783518E-3   5.088796024210751E-4  
 2.692000000000000E10    3.008607309311628E-4  -1.916721346788108E-3  
 2.694000000000000E10   -2.038011560216546E-3  -2.925492299254984E-4  
 2.696000000000000E10    3.222779778297991E-4   1.922869239933789E-3  
 2.698000000000000E10    1.509215100668371E-3  -4.357465877546929E-5  
 2.700000000000000E10   -6.697695935145021E-4  -1.489067450165749E-3  
 2.702000000000000E10   -1.571847009472549E-3   7.167537696659565E-4  
 2.704000000000000E10    3.856937983073294E-4   1.286848564632237E-3  
 2.706000000000000E10    1.060968032106757E-3  -9.308906737715006E-4  
 2.708000000000000E10   -9.144202340394259E-4  -1.141389599069953E-3  
 2.710000000000000E10   -9.033134556375444E-4   7.377151632681489E-4  
 2.712000000000000E10    1.222873455844820E-3   7.803975604474545E-4  
 2.714000000000000E10    9.921288583427668E-4  -8.001936948858202E-4  
 2.716000000000000E10   -1.121846376918256E-3  -8.096071542240679E-4  
 2.718000000000000E10   -4.934822791256011E-4   1.315789064392448E-3  
 2.720000000000000E10    8.588838973082602E-4   5.844142287969589E-4  
 2.722000000000000E10   -3.158891049679369E-4  -1.208037137985230E-3  
 2.724000000000000E10   -1.248165266588330E-3  -3.727732473635115E-5  
 2.726000000000000E10    1.872796565294266E-4   8.921708795242012E-4  
 2.728000000000000E10    6.299487431533635E-4  -4.509542195592076E-4  
 2.730000000000000E10   -1.802492042770609E-4  -9.737985674291849E-4  
 2.732000000000000E10   -3.950147656723857E-4   2.206370700150728E-4  
 2.734000000000000E10    4.608533636201173E-4   4.773597174789757E-4  
 2.736000000000000E10    6.930747185833752E-4  -1.772396644810215E-4  
 2.738000000000000E10   -4.038173938170075E-4  -3.147521056234837E-4  
 2.740000000000000E10   -5.548521876335144E-4   6.521460018120706E-4  
 2.742000000000000E10    5.613437970168889E-4   7.060831994749606E-4  
 2.744000000000000E10    5.597051349468529E-4  -8.828100981190801E-4  
 2.746000000000000E10   -9.434499079361558E-4  -6.783467251807451E-4  
 2.748000000000000E10   -2.852096222341061E-4   1.117463107220829E-3  
 2.750000000000000E10    1.059890259057283E-3   1.145696151070297E-4  
 2.752000000000000E10    6.741706165485084E-4  -6.518508307635784E-4  
 2.754000000000000E10   -5.392535822466016E-4   4.615556463249959E-5  
 2.756000000000000E10    3.176963073201478E-4   8.626446360722184E-4  
