#  HZ   S   RI   R     50.00 
! Rohde & Schwarz ZVA40 4Ports - Version 3.90 - 1145.1110k42 SN: 100403
! Date: 2023-10-04 07:32:36
! Measurement: S12 
! 
 2.200000000000000E10    8.284754119813442E-3   3.344256896525621E-3  
 2.202000000000000E10    1.982167828828096E-3  -9.085979312658310E-3  
 2.204000000000000E10   -9.403421543538570E-3  -9.867022745311260E-4  
 2.206000000000000E10   -8.364066161448136E-5   8.304760791361332E-3  
 2.208000000000000E10    8.620633743703365E-3  -1.055202214047313E-3  
 2.210000000000000E10   -1.790204085409641E-3  -8.584341034293175E-3  
 2.212000000000000E10   -8.266364224255085E-3   2.382002072408795E-3  
 2.214000000000000E10    3.480709390714765E-3   8.331615477800369E-3  
 2.216000000000000E10    7.958867587149143E-3  -4.579503089189529E-3  
 2.218000000000000E10   -6.212679203599691E-3  -6.741438060998917E-3  
 2.220000000000000E10   -6.628271657973528E-3   6.890554446727037E-3  
 2.222000000000000E10    7.800965104252100E-3   5.174737423658371E-3  
 2.224000000000000E10    3.720772918313742E-3  -8.724090643227100E-3  
 2.226000000000000E10   -9.186969138681889E-3  -2.352769719436765E-3  
 2.228000000000000E10   -2.072255592793226E-3   8.614514954388142E-3  
 2.230000000000000E10    8.803561329841614E-3   1.221682410687208E-3  
 2.232000000000000E10    2.698579337447882E-4  -9.089310653507710E-3  
 2.234000000000000E10   -9.606832638382912E-3   1.108483760617673E-3  
 2.236000000000000E10    1.586912432685494E-3   9.146061725914478E-3  
 2.238000000000000E10    8.749756962060928E-3  -2.803573152050376E-3  
 2.240000000000000E10   -4.186089150607586E-3  -8.379111997783184E-3  
 2.242000000000000E10   -7.800430990755558E-3   4.767887294292450E-3  
 2.244000000000000E10    5.257248412817717E-3   6.538857705891132E-3  
 2.246000000000000E10    6.067431997507811E-3  -5.906282924115658E-3  
 2.248000000000000E10   -6.514118518680334E-3  -5.730955395847559E-3  
 2.250000000000000E10   -5.077687092125416E-3   7.654669694602490E-3  
 2.252000000000000E10    8.522315882146359E-3   3.847826272249222E-3  
 2.254000000000000E10    2.718126168474555E-3  -9.307989850640297E-3  
 2.256000000000000E10   -9.829691611230373E-3  -1.362435868941248E-3  
 2.258000000000000E10   -1.120439555961639E-4   9.169685654342175E-3  
 2.260000000000000E10    8.629113435745239E-3  -7.723362650722265E-4  
 2.262000000000000E10   -9.283399558626115E-4  -8.396008983254433E-3  
 2.264000000000000E10   -8.384848944842815E-3   1.478291465900838E-3  
 2.266000000000000E10    2.616928657516837E-3   9.039699099957943E-3  
 2.268000000000000E10    9.284984320402145E-3  -3.904731944203377E-3  
 2.270000000000000E10   -4.041913431137800E-3  -8.577124215662479E-3  
 2.272000000000000E10   -7.844888605177403E-3   5.673394072800875E-3  
 2.274000000000000E10    6.945191882550716E-3   6.965719163417816E-3  
 2.276000000000000E10    5.735917016863823E-3  -7.669588550925255E-3  
 2.278000000000000E10   -7.314624264836311E-3  -4.903811030089855E-3  
 2.280000000000000E10   -4.189080558717251E-3   8.007807657122612E-3  
 2.282000000000000E10    5.190938245505095E-3   6.761875003576279E-3  
 2.284000000000000E10    2.750786952674389E-3  -9.237366728484631E-3  
 2.286000000000000E10   -8.471345528960228E-3  -1.334224129095674E-3  
 2.288000000000000E10    3.551643458195031E-4   9.120089001953602E-3  
 2.290000000000000E10    9.186618961393833E-3  -1.236219424754381E-3  
 2.292000000000000E10   -2.617130521684885E-3  -8.265480399131775E-3  
 2.294000000000000E10   -7.537996862083674E-3   3.463645465672016E-3  
 2.296000000000000E10    3.755820216611028E-3   7.579262834042311E-3  
 2.298000000000000E10    7.388820406049490E-3  -4.526116419583559E-3  
 2.300000000000000E10   -5.260848440229893E-3  -7.685611955821514E-3  
 2.302000000000000E10   -6.968691013753414E-3   6.404988467693329E-3  
 2.304000000000000E10    7.899872958660126E-3   5.769954528659582E-3  
 2.306000000000000E10    4.614062607288361E-3  -9.009634144604206E-3  
 2.308000000000000E10   -9.167612530291081E-3  -3.640845650807023E-3  
 2.310000000000000E10   -2.317277248948813E-3   8.956895209848881E-3  
 2.312000000000000E10    8.891814388334751E-3   1.385778537951410E-3  
 2.314000000000000E10    5.165204638615251E-4  -8.638425730168819E-3  
 2.316000000000000E10   -9.071934036910534E-3   3.060401068069041E-4  
 2.318000000000000E10    1.610937528312206E-3   9.116028435528278E-3  
 2.320000000000000E10    8.498873561620712E-3  -2.196434419602156E-3  
 2.322000000000000E10   -3.671278478577733E-3  -8.060469292104244E-3  
 2.324000000000000E10   -7.814132608473301E-3   4.471058025956154E-3  
 2.326000000000000E10    5.624511279165745E-3   7.122993469238281E-3  
 2.328000000000000E10    6.110800895839930E-3  -6.178981624543667E-3  
 2.330000000000000E10   -6.769329309463501E-3  -5.462161730974913E-3  
 2.332000000000000E10   -4.197918344289064E-3   7.075285073369741E-3  
 2.334000000000000E10    8.053100667893887E-3   4.446775652468205E-3  
 2.336000000000000E10    3.583837533369660E-3  -8.861294016242027E-3  
 2.338000000000000E10   -9.593331255018711E-3  -1.723944325931370E-3  
 2.340000000000000E10   -5.521468119695783E-4   9.742517955601215E-3  
 2.342000000000000E10    9.655584581196308E-3  -3.081356408074498E-4  
 2.344000000000000E10   -1.875579357147217E-3  -9.281666018068790E-3  
 2.346000000000000E10   -8.628491312265396E-3   2.472704742103815E-3  
 2.348000000000000E10    2.894689794629812E-3   8.125118911266327E-3  
 2.350000000000000E10    8.443365804851055E-3  -3.829044057056308E-3  
 2.352000000000000E10   -5.003753118216991E-3  -8.450332097709179E-3  
 2.354000000000000E10   -7.340749725699425E-3   5.936708766967058E-3  
 2.356000000000000E10    7.143260445445776E-3   5.837735254317522E-3  
 2.358000000000000E10    5.762976128607988E-3  -8.016145788133144E-3  
 2.360000000000000E10   -8.271416649222374E-3  -4.283552523702383E-3  
 2.362000000000000E10   -3.242824925109744E-3   8.727207779884338E-3  
 2.364000000000000E10    9.167708456516266E-3   2.204299904406071E-3  
 2.366000000000000E10    1.155910547822714E-3  -9.372374042868614E-3  
 2.368000000000000E10   -1.029418408870697E-2   1.350071033812128E-5  
 2.370000000000000E10    1.415361068211496E-3   1.035600714385510E-2  
 2.372000000000000E10    9.775251150131226E-3  -3.040639916434884E-3  
 2.374000000000000E10   -4.439060576260090E-3  -9.774167090654373E-3  
 2.376000000000000E10   -8.865142241120338E-3   5.758746527135372E-3  
 2.378000000000000E10    6.526037584990263E-3   7.993067614734173E-3  
 2.380000000000000E10    7.247949484735727E-3  -7.184183225035667E-3  
 2.382000000000000E10   -8.307479321956635E-3  -6.194355431944132E-3  
 2.384000000000000E10   -5.814795382320881E-3   9.123167954385281E-3  
 2.386000000000000E10    1.003378909081221E-2   5.291257053613663E-3  
 2.388000000000000E10    3.627200378105044E-3  -1.022771373391151E-2  
 2.390000000000000E10   -1.112192589789629E-2  -2.054843585938215E-3  
 2.392000000000000E10   -4.063259402755648E-4   1.129564177244902E-2  
 2.394000000000000E10    1.102994848042727E-2  -4.832360136788338E-4  
 2.396000000000000E10   -2.092638285830617E-3  -1.024316623806953E-2  
 2.398000000000000E10   -9.918761439621449E-3   3.879956435412169E-3  
 2.400000000000000E10    5.197802558541298E-3   9.710481390357018E-3  
 2.402000000000000E10    7.386849261820316E-3  -7.176515646278858E-3  
 2.404000000000000E10   -7.907056249678135E-3  -5.568306893110275E-3  
 2.406000000000000E10   -5.103057250380516E-3   9.024798870086670E-3  
 2.408000000000000E10    9.609457105398178E-3   4.308785777539015E-3  
 2.410000000000000E10    3.118147840723395E-3  -9.428098797798157E-3  
 2.412000000000000E10   -9.872805327177048E-3  -1.779808080755174E-3  
 2.414000000000000E10   -9.686569101177156E-4   1.062417961657047E-2  
 2.416000000000000E10    1.111132092773914E-2   4.270081699360162E-4  
 2.418000000000000E10   -8.704895735718310E-4  -1.099819131195545E-2  
 2.420000000000000E10   -1.074501313269138E-2   1.841066405177116E-3  
 2.422000000000000E10    3.269094042479992E-3   1.074634864926338E-2  
 2.424000000000000E10    1.075545884668827E-2  -4.526735283434391E-3  
 2.426000000000000E10   -5.973276682198048E-3  -9.356610476970673E-3  
 2.428000000000000E10   -7.860149256885052E-3   6.711513735353947E-3  
 2.430000000000000E10    7.900792174041271E-3   6.866126321256161E-3  
 2.432000000000000E10    5.522911902517080E-3  -8.265807293355465E-3  
 2.434000000000000E10   -9.077973663806915E-3  -4.079010803252459E-3  
 2.436000000000000E10   -2.397465286776424E-3   8.772655390202999E-3  
 2.438000000000000E10    8.613974787294865E-3   1.484061125665903E-3  
 2.440000000000000E10    5.862652324140072E-4  -9.350519627332687E-3  
 2.442000000000000E10   -9.353288449347019E-3   1.346713543171063E-4  
 2.444000000000000E10    1.584761659614742E-3   8.945651352405548E-3  
 2.446000000000000E10    8.994305506348610E-3  -2.809590660035610E-3  
 2.448000000000000E10   -3.447279101237655E-3  -9.350186213850975E-3  
 2.450000000000000E10   -8.472909219563007E-3   4.273352678865194E-3  
 2.452000000000000E10    5.054732784628868E-3   7.721466477960348E-3  
 2.454000000000000E10    7.440340705215931E-3  -6.330706644803286E-3  
 2.456000000000000E10   -6.733125541359186E-3  -6.497249938547611E-3  
 2.458000000000000E10   -6.335563026368618E-3   6.852121558040381E-3  
 2.460000000000000E10    7.776485756039619E-3   4.470519255846739E-3  
 2.462000000000000E10    3.812287235632539E-3  -7.986310869455338E-3  
 2.464000000000000E10   -7.813949137926102E-3  -2.988718217238784E-3  
 2.466000000000000E10   -1.865665544755757E-3   7.457067724317312E-3  
 2.468000000000000E10    8.146523497998714E-3   9.513238910585642E-4  
 2.470000000000000E10   -1.184779684990645E-4  -7.973406463861466E-3  
 2.472000000000000E10   -7.931555621325970E-3   1.443764660507441E-3  
 2.474000000000000E10    1.911911182105541E-3   7.474815938621759E-3  
 2.476000000000000E10    7.528904825448990E-3  -2.849341835826635E-3  
 2.478000000000000E10   -4.096163902431727E-3  -7.150416262447834E-3  
 2.480000000000000E10   -6.593806203454733E-3   5.487076472491026E-3  
 2.482000000000000E10    6.199511233717203E-3   5.851280875504017E-3  
 2.484000000000000E10    5.255132447928190E-3  -6.856629624962807E-3  
 2.486000000000000E10   -7.244111038744450E-3  -3.987826872617006E-3  
 2.488000000000000E10   -2.632367424666882E-3   7.501295767724514E-3  
 2.490000000000000E10    7.496813777834177E-3   2.754370449110866E-3  
 2.492000000000000E10    2.092149807140231E-3  -7.285845931619406E-3  
 2.494000000000000E10   -7.683428470045328E-3  -9.136706939898431E-4  
 2.496000000000000E10   -1.676852116361260E-4   7.441075518727303E-3  
 2.498000000000000E10    7.363577838987112E-3  -2.557821862865239E-4  
 2.500000000000000E10   -1.169577939435840E-3  -6.735674571245909E-3  
 2.502000000000000E10   -6.752708461135626E-3   1.952672726474702E-3  
 2.504000000000000E10    3.316434565931559E-3   6.297284737229347E-3  
 2.506000000000000E10    5.773812998086214E-3  -3.052275395020843E-3  
 2.508000000000000E10   -3.724777605384588E-3  -5.568544846028090E-3  
 2.510000000000000E10   -5.211695097386837E-3   5.065181758254767E-3  
 2.512000000000000E10    5.837606731802225E-3   4.550836514681578E-3  
 2.514000000000000E10    3.472927957773209E-3  -6.584852002561092E-3  
 2.516000000000000E10   -6.954540498554707E-3  -2.383472165092826E-3  
 2.518000000000000E10   -1.906303456053138E-3   7.031247951090336E-3  
 2.520000000000000E10    7.057456299662590E-3   6.143891951069236E-4  
 2.522000000000000E10    2.119848795700818E-5  -6.653373595327139E-3  
 2.524000000000000E10   -6.940294988453388E-3   4.172940389253199E-4  
 2.526000000000000E10    1.069956342689693E-3   6.991232279688120E-3  
 2.528000000000000E10    6.628501228988171E-3  -1.082480070181191E-3  
 2.530000000000000E10   -2.681030891835690E-3  -6.606574170291424E-3  
 2.532000000000000E10   -6.168730091303587E-3   3.463628236204386E-3  
 2.534000000000000E10    3.437323495745659E-3   6.195783615112305E-3  
 2.536000000000000E10    4.768135957419872E-3  -4.453593865036964E-3  
 2.538000000000000E10   -5.181271117180586E-3  -4.191454965621233E-3  
 2.540000000000000E10   -3.967217169702053E-3   5.691281519830227E-3  
 2.542000000000000E10    6.056840531527996E-3   3.023275174200535E-3  
 2.544000000000000E10    1.732985721901059E-3  -6.408916786313057E-3  
 2.546000000000000E10   -6.935295648872852E-3  -7.237866520881653E-4  
 2.548000000000000E10    5.294352740747854E-5   6.798605900257826E-3  
 2.550000000000000E10    6.648830138146877E-3  -1.157100778073072E-3  
 2.552000000000000E10   -2.642323262989521E-3  -6.013140082359314E-3  
 2.554000000000000E10   -5.843855440616608E-3   3.011759370565414E-3  
 2.556000000000000E10    3.258077893406153E-3   5.089324433356524E-3  
 2.558000000000000E10    4.834970925003290E-3  -4.130847286432982E-3  
 2.560000000000000E10   -4.356220364570618E-3  -4.534272011369467E-3  
 2.562000000000000E10   -4.212615545839071E-3   5.166570656001568E-3  
 2.564000000000000E10    5.896348506212235E-3   3.575464244931936E-3  
 2.566000000000000E10    2.863983623683453E-3  -6.173473782837391E-3  
 2.568000000000000E10   -6.731507834047079E-3  -1.129751908592880E-3  
 2.570000000000000E10   -1.513862516731024E-4   6.945257540792227E-3  
 2.572000000000000E10    6.281412206590176E-3  -5.773726734332740E-4  
 2.574000000000000E10   -1.162435510195792E-3  -6.294258404523134E-3  
 2.576000000000000E10   -6.055879872292280E-3   1.941727125085890E-3  
 2.578000000000000E10    3.232330083847046E-3   5.672045983374119E-3  
 2.580000000000000E10    5.042643751949072E-3  -4.004822578281164E-3  
 2.582000000000000E10   -3.932572901248932E-3  -4.733363632112742E-3  
 2.584000000000000E10   -3.844023915007711E-3   4.642823245376349E-3  
 2.586000000000000E10    5.365169607102871E-3   2.884403336793184E-3  
 2.588000000000000E10    2.386507811024785E-3  -5.132568534463644E-3  
 2.590000000000000E10   -5.278184078633785E-3  -2.040062332525849E-3  
 2.592000000000000E10   -1.200327533297241E-3   5.680341273546219E-3  
 2.594000000000000E10    6.278340239077807E-3   7.986527052707970E-4  
 2.596000000000000E10    9.457523265155032E-5  -6.436116062104702E-3  
 2.598000000000000E10   -5.874891299754381E-3   1.164133078418672E-3  
 2.600000000000000E10    2.756863133981824E-3   5.668317433446646E-3  
 2.602000000000000E10    5.105969030410051E-3  -3.184362081810832E-3  
 2.604000000000000E10   -2.858113497495651E-3  -4.641215782612562E-3  
 2.606000000000000E10   -3.779815044254065E-3   3.909518476575613E-3  
 2.608000000000000E10    3.988840151578188E-3   3.087588585913181E-3  
 2.610000000000000E10    3.430356737226248E-3  -4.530738107860088E-3  
 2.612000000000000E10   -4.775996785610914E-3  -2.130750333890319E-3  
 2.614000000000000E10   -1.441453816369176E-3   4.940076265484095E-3  
 2.616000000000000E10    5.514379125088453E-3   1.105256495065987E-3  
 2.618000000000000E10    6.136998999863863E-4  -5.156129598617554E-3  
 2.620000000000000E10   -4.990136716514826E-3   1.789821253623813E-4  
 2.622000000000000E10    9.894763352349401E-4   5.068700760602951E-3  
 2.624000000000000E10    4.877569153904915E-3  -1.268448075279594E-3  
 2.626000000000000E10   -1.775163924321532E-3  -5.164314061403275E-3  
 2.628000000000000E10   -3.944495227187872E-3   2.807696117088199E-3  
 2.630000000000000E10    3.513496136292815E-3   3.260588506236672E-3  
 2.632000000000000E10    2.914236858487129E-3  -3.873502369970083E-3  
 2.634000000000000E10   -3.709811717271805E-3  -2.038947306573391E-3  
 2.636000000000000E10   -1.629886333830655E-3   4.239747766405344E-3  
 2.638000000000000E10    4.160558339208365E-3   7.335660047829151E-4  
 2.640000000000000E10   -1.280628639506176E-4  -4.001652356237173E-3  
 2.642000000000000E10   -4.119910299777985E-3   5.525148008018732E-4  
 2.644000000000000E10    8.264712523669004E-4   4.014422185719013E-3  
 2.646000000000000E10    3.489793511107564E-3  -1.209903974086046E-3  
 2.648000000000000E10   -1.682227128185332E-3  -3.187110647559166E-3  
 2.650000000000000E10   -2.879345789551735E-3   2.544622169807553E-3  
 2.652000000000000E10    2.830322133377194E-3   2.553194062784314E-3  
 2.654000000000000E10    1.800727797672153E-3  -2.742645330727100E-3  
 2.656000000000000E10   -2.848179778084159E-3  -1.430852105841041E-3  
 2.658000000000000E10   -1.505555468611419E-3   3.333162050694227E-3  
 2.660000000000000E10    2.983447862789035E-3   6.764402496628463E-4  
 2.662000000000000E10   -1.250850473297760E-4  -3.001528326421976E-3  
 2.664000000000000E10   -2.921126550063491E-3  -3.629746424849145E-5  
 2.666000000000000E10    5.529374466277659E-4   2.440041396766901E-3  
 2.668000000000000E10    2.213042229413986E-3  -5.460409447550774E-4  
 2.670000000000000E10   -1.101962290704250E-3  -1.941599184647203E-3  
 2.672000000000000E10   -1.697987318038940E-3   1.594847883097827E-3  
 2.674000000000000E10    1.363205490633845E-3   1.938577392138541E-3  
 2.676000000000000E10    9.765434660948813E-4  -1.804239349439740E-3  
 2.678000000000000E10   -2.030526753515005E-3  -1.141370041295886E-3  
 2.680000000000000E10   -9.652650333009660E-4   1.727825612761080E-3  
 2.682000000000000E10    1.795377465896308E-3   8.939702092902735E-5  
 2.684000000000000E10    1.019271585391834E-4  -2.221036702394486E-3  
 2.686000000000000E10   -1.766890869475901E-3  -2.546109899412841E-4  
 2.688000000000000E10    2.229021629318595E-4   1.812302856706083E-3  
 2.690000000000000E10    1.923676114529371E-3  -2.501066192053258E-4  
 2.692000000000000E10   -4.699011333286762E-4  -1.381600159220398E-3  
 2.694000000000000E10   -1.515576732344925E-3   7.522077648900449E-4  
 2.696000000000000E10    6.254754262045026E-4   1.264759805053473E-3  
 2.698000000000000E10    1.130660064518452E-3  -1.055782311595976E-3  
 2.700000000000000E10   -1.198465586639941E-3  -1.130045508034527E-3  
 2.702000000000000E10   -7.987873395904899E-4   7.943817181512713E-4  
 2.704000000000000E10    1.093702157959342E-3  -5.508128015208058E-5  
 2.706000000000000E10    5.095973610877991E-4  -9.821943240240216E-4  
 2.708000000000000E10   -8.370731375180185E-4  -1.632993225939572E-4  
 2.710000000000000E10    3.325421130284667E-4   7.538463687524200E-4  
 2.712000000000000E10    8.282172493636608E-4   5.541061545955017E-5  
 2.714000000000000E10   -5.496746161952615E-4  -6.279150256887078E-4  
 2.716000000000000E10   -8.312906138598919E-4   1.691431534709409E-4  
 2.718000000000000E10    2.774650638457388E-4   7.708117482252419E-4  
 2.720000000000000E10    3.546780208125711E-4  -6.121906335465610E-4  
 2.722000000000000E10   -4.653715877793729E-4  -9.588506654836237E-4  
 2.724000000000000E10   -5.172926466912031E-4   7.681495044380426E-4  
 2.726000000000000E10    8.131289505399764E-4   5.242787301540375E-4  
 2.728000000000000E10    4.526858683675528E-4  -5.612251115962863E-4  
 2.730000000000000E10   -8.583274902775884E-4   1.257667609024793E-4  
 2.732000000000000E10   -1.374524290440604E-4   7.307104533538222E-4  
 2.734000000000000E10    4.988517612218857E-4   4.278756387066096E-4  
 2.736000000000000E10   -2.715859154704958E-4  -5.720321205444634E-4  
 2.738000000000000E10   -7.852003327570856E-4  -3.698377622640692E-5  
 2.740000000000000E10    5.371589213609695E-5   8.832374587655067E-4  
 2.742000000000000E10    6.234396132640541E-4  -4.236315362504683E-5  
 2.744000000000000E10   -9.756547660799697E-5  -7.352816173806787E-4  
 2.746000000000000E10   -7.186082075349987E-4   3.543868369888514E-4  
 2.748000000000000E10    2.137946430593729E-4   5.563131999224424E-4  
 2.750000000000000E10    3.665269759949297E-4  -2.479540416970849E-4  
 2.752000000000000E10   -4.754709370899946E-4  -3.042355529032648E-4  
 2.754000000000000E10   -2.362439845455810E-4   4.157742660026997E-4  
 2.756000000000000E10    6.255225744098425E-4   1.002553763100877E-4  
