#  HZ   S   RI   R     50.00 
! Rohde & Schwarz ZVA40 4Ports - Version 3.90 - 1145.1110k42 SN: 100403
! Date: 2023-10-04 07:33:09
! Measurement: S12 
! 
 2.200000000000000E10    8.387179113924503E-3   7.989735458977521E-4  
 2.202000000000000E10   -1.163774504675530E-4  -8.341097272932529E-3  
 2.204000000000000E10   -8.076957426965237E-3   1.016047317534685E-3  
 2.206000000000000E10    2.513264305889607E-3   7.805767469108105E-3  
 2.208000000000000E10    8.088269270956516E-3  -2.988008782267571E-3  
 2.210000000000000E10   -3.332366235554218E-3  -7.123397197574377E-3  
 2.212000000000000E10   -6.628870964050293E-3   3.871873253956437E-3  
 2.214000000000000E10    4.870466422289610E-3   6.681574042886496E-3  
 2.216000000000000E10    6.592303048819304E-3  -6.322891451418400E-3  
 2.218000000000000E10   -7.063661701977253E-3  -6.013194099068642E-3  
 2.220000000000000E10   -4.743378143757582E-3   7.192863617092371E-3  
 2.222000000000000E10    8.665593340992928E-3   3.040679963305593E-3  
 2.224000000000000E10    2.755190245807171E-3  -8.348181843757629E-3  
 2.226000000000000E10   -7.835540920495987E-3  -1.208576024509966E-3  
 2.228000000000000E10   -4.345119232311845E-4   7.852495647966862E-3  
 2.230000000000000E10    8.294682949781418E-3  -4.478016053326428E-4  
 2.232000000000000E10   -8.894894272089005E-4  -8.498162962496281E-3  
 2.234000000000000E10   -8.052934892475605E-3   2.066425513476133E-3  
 2.236000000000000E10    3.188107628375292E-3   7.730191107839346E-3  
 2.238000000000000E10    7.387557532638311E-3  -4.406048450618982E-3  
 2.240000000000000E10   -5.145363509654999E-3  -6.784732453525066E-3  
 2.242000000000000E10   -5.564783234149218E-3   6.057923659682274E-3  
 2.244000000000000E10    6.554102059453726E-3   4.644650034606457E-3  
 2.246000000000000E10    4.383650142699480E-3  -6.682710256427527E-3  
 2.248000000000000E10   -7.394604850560427E-3  -3.451616968959570E-3  
 2.250000000000000E10   -2.814996521919966E-3   8.428708650171757E-3  
 2.252000000000000E10    8.547544479370117E-3   1.555948168970645E-3  
 2.254000000000000E10    8.696053992025554E-4  -8.363591507077217E-3  
 2.256000000000000E10   -8.695981465280056E-3   3.938875452149659E-4  
 2.258000000000000E10    1.367516117170453E-3   8.234066888689995E-3  
 2.260000000000000E10    8.084867149591446E-3  -1.384111121296883E-3  
 2.262000000000000E10   -2.335101831704378E-3  -6.874939892441034E-3  
 2.264000000000000E10   -7.295517250895500E-3   2.942341612651944E-3  
 2.266000000000000E10    3.299547592177987E-3   7.739956490695477E-3  
 2.268000000000000E10    6.429025903344154E-3  -4.135636612772942E-3  
 2.270000000000000E10   -5.414115730673075E-3  -6.214519031345844E-3  
 2.272000000000000E10   -5.664486438035965E-3   6.604800000786781E-3  
 2.274000000000000E10    6.553181447088718E-3   4.332378040999174E-3  
 2.276000000000000E10    3.326890757307410E-3  -7.051653228700161E-3  
 2.278000000000000E10   -7.323887664824724E-3  -2.069263020530343E-3  
 2.280000000000000E10   -1.652361243031919E-3   7.936148904263973E-3  
 2.282000000000000E10    5.598437506705523E-3   5.422714632004499E-3  
 2.284000000000000E10   -8.261080074589700E-5  -7.849230431020260E-3  
 2.286000000000000E10   -8.223604410886765E-3   9.992928244173527E-4  
 2.288000000000000E10    1.791313639841974E-3   8.822955191135407E-3  
 2.290000000000000E10    7.353820372372866E-3  -2.573216566815972E-3  
 2.292000000000000E10   -4.079578910022974E-3  -7.221059408038855E-3  
 2.294000000000000E10   -6.750403437763453E-3   3.906893543899059E-3  
 2.296000000000000E10    4.414814524352551E-3   6.256029475480318E-3  
 2.298000000000000E10    5.920324474573135E-3  -4.843093920499086E-3  
 2.300000000000000E10   -5.297438707202673E-3  -6.018932908773422E-3  
 2.302000000000000E10   -5.304408725351095E-3   6.528798490762711E-3  
 2.304000000000000E10    7.379644550383091E-3   3.822575323283672E-3  
 2.306000000000000E10    2.763096941635013E-3  -7.699941750615835E-3  
 2.308000000000000E10   -8.111154660582542E-3  -1.705015893094242E-3  
 2.310000000000000E10   -4.785387427546084E-4   7.492661476135254E-3  
 2.312000000000000E10    7.470235228538513E-3  -5.381881492212415E-4  
 2.314000000000000E10   -1.268927589990199E-3  -7.420444395393133E-3  
 2.316000000000000E10   -7.535359356552362E-3   1.235240255482495E-3  
 2.318000000000000E10    3.233094699680805E-3   7.599040865898132E-3  
 2.320000000000000E10    6.930553819984198E-3  -4.205266479402781E-3  
 2.322000000000000E10   -4.796917550265789E-3  -6.876811850816011E-3  
 2.324000000000000E10   -5.833995528519154E-3   5.420986562967300E-3  
 2.326000000000000E10    6.450434681028128E-3   5.060171708464623E-3  
 2.328000000000000E10    4.774842876940966E-3  -6.989261601120234E-3  
 2.330000000000000E10   -7.009498309344053E-3  -3.772010095417500E-3  
 2.332000000000000E10   -3.223350038751960E-3   6.784398108720779E-3  
 2.334000000000000E10    7.770594209432602E-3   2.986547769978643E-3  
 2.336000000000000E10    1.875300309620798E-3  -8.193868212401867E-3  
 2.338000000000000E10   -8.901705034077168E-3  -7.172381156124175E-4  
 2.340000000000000E10    6.383699364960194E-4   8.354729972779751E-3  
 2.342000000000000E10    7.592215668410063E-3  -1.408661250025034E-3  
 2.344000000000000E10   -2.716505201533437E-3  -7.527380250394344E-3  
 2.346000000000000E10   -6.792560685425997E-3   3.371038008481264E-3  
 2.348000000000000E10    3.462353022769094E-3   6.292181089520454E-3  
 2.350000000000000E10    6.599993910640478E-3  -4.185697063803673E-3  
 2.352000000000000E10   -5.389322526752949E-3  -5.975090432912111E-3  
 2.354000000000000E10   -5.168323870748282E-3   6.613279227167368E-3  
 2.356000000000000E10    7.719226181507111E-3   4.465222358703613E-3  
 2.358000000000000E10    3.359693335369229E-3  -7.471213117241859E-3  
 2.360000000000000E10   -8.517931215465069E-3  -1.795510645024478E-3  
 2.362000000000000E10   -1.532787224277854E-3   8.925785310566425E-3  
 2.364000000000000E10    8.892785757780075E-3   9.822724387049675E-4  
 2.366000000000000E10   -7.379401940852404E-4  -8.872237056493759E-3  
 2.368000000000000E10   -9.354110807180405E-3   1.610043575055897E-3  
 2.370000000000000E10    2.703164471313357E-3   9.707979857921600E-3  
 2.372000000000000E10    9.057061746716499E-3  -3.780246945098043E-3  
 2.374000000000000E10   -4.791679792106152E-3  -8.375618606805801E-3  
 2.376000000000000E10   -7.071645464748144E-3   5.893716588616371E-3  
 2.378000000000000E10    6.683087442070246E-3   6.477703806012869E-3  
 2.380000000000000E10    5.676929373294115E-3  -6.969151552766562E-3  
 2.382000000000000E10   -7.431755308061838E-3  -4.297066479921341E-3  
 2.384000000000000E10   -3.590828273445368E-3   8.196588605642319E-3  
 2.386000000000000E10    8.741999045014381E-3   2.568040741607547E-3  
 2.388000000000000E10    1.029380247928202E-3  -9.372770786285400E-3  
 2.390000000000000E10   -9.793861769139767E-3   9.755167411640286E-5  
 2.392000000000000E10    2.280894434079528E-3   9.218685328960419E-3  
 2.394000000000000E10    9.138939902186394E-3  -3.838053438812494E-3  
 2.396000000000000E10   -4.809333477169275E-3  -9.238955564796925E-3  
 2.398000000000000E10   -8.038084954023361E-3   5.723899230360985E-3  
 2.400000000000000E10    7.318591699004173E-3   6.924072746187449E-3  
 2.402000000000000E10    5.462600383907557E-3  -8.707440458238125E-3  
 2.404000000000000E10   -8.986913599073887E-3  -4.326507914811373E-3  
 2.406000000000000E10   -3.699632594361901E-3   8.779303170740604E-3  
 2.408000000000000E10    9.153273887932301E-3   2.300264546647668E-3  
 2.410000000000000E10    8.587134070694447E-4  -9.216862730681896E-3  
 2.412000000000000E10   -9.315083734691143E-3  -9.315750794485211E-4  
 2.414000000000000E10    2.318263286724687E-4   8.794880472123623E-3  
 2.416000000000000E10    8.681239560246468E-3  -1.860832446254790E-3  
 2.418000000000000E10   -2.281207824125886E-3  -8.826198987662792E-3  
 2.420000000000000E10   -8.247009478509426E-3   3.100042697042227E-3  
 2.422000000000000E10    4.314401652663946E-3   7.881581783294678E-3  
 2.424000000000000E10    7.329254876822233E-3  -5.751022137701511E-3  
 2.426000000000000E10   -7.064981386065483E-3  -5.792617797851563E-3  
 2.428000000000000E10   -5.257715936750174E-3   7.369566243141890E-3  
 2.430000000000000E10    8.167671971023083E-3   4.077026154845953E-3  
 2.432000000000000E10    2.376734511926770E-3  -8.525751531124115E-3  
 2.434000000000000E10   -9.078361093997955E-3  -1.600988325662911E-3  
 2.436000000000000E10   -3.605263555073179E-5   8.646668866276741E-3  
 2.438000000000000E10    8.412303403019905E-3  -4.791304527316243E-4  
 2.440000000000000E10   -1.135836238972843E-3  -8.794574998319149E-3  
 2.442000000000000E10   -8.199755102396011E-3   2.163249067962170E-3  
 2.444000000000000E10    2.425454789772630E-3   8.379220962524414E-3  
 2.446000000000000E10    7.763109169900417E-3  -3.187630092725158E-3  
 2.448000000000000E10   -4.229919984936714E-3  -7.074941415339708E-3  
 2.450000000000000E10   -7.080549374222755E-3   4.886946640908718E-3  
 2.452000000000000E10    5.497770849615336E-3   5.954355932772160E-3  
 2.454000000000000E10    5.106641445308924E-3  -5.767901428043842E-3  
 2.456000000000000E10   -6.393952295184135E-3  -4.049141891300678E-3  
 2.458000000000000E10   -3.364808391779661E-3   6.735358387231827E-3  
 2.460000000000000E10    7.296680938452482E-3   2.080114092677832E-3  
 2.462000000000000E10    9.776863735169172E-4  -6.821787916123867E-3  
 2.464000000000000E10   -6.820781622081995E-3   3.219341160729528E-4  
 2.466000000000000E10    9.121061884798110E-4   6.979839876294136E-3  
 2.468000000000000E10    6.842678412795067E-3  -1.890555024147034E-3  
 2.470000000000000E10   -2.738897921517491E-3  -6.815139669924974E-3  
 2.472000000000000E10   -6.676845718175173E-3   3.622499527409673E-3  
 2.474000000000000E10    3.731626784428954E-3   5.889814812690020E-3  
 2.476000000000000E10    5.961265880614519E-3  -4.631690680980682E-3  
 2.478000000000000E10   -5.283251870423555E-3  -5.538085009902716E-3  
 2.480000000000000E10   -4.714018665254116E-3   5.458235740661621E-3  
 2.482000000000000E10    5.833690054714680E-3   4.224339500069618E-3  
 2.484000000000000E10    3.109944518655539E-3  -6.475430913269520E-3  
 2.486000000000000E10   -6.940649356693029E-3  -2.141048433259130E-3  
 2.488000000000000E10   -1.655425992794335E-3   6.267210002988577E-3  
 2.490000000000000E10    5.924225319176912E-3   9.712059400044382E-4  
 2.492000000000000E10   -2.309207920916379E-4  -6.097726989537478E-3  
 2.494000000000000E10   -6.015704479068518E-3   4.098584468010813E-4  
 2.496000000000000E10    1.378050306811929E-3   5.745706614106894E-3  
 2.498000000000000E10    5.235040560364723E-3  -2.226242097094655E-3  
 2.500000000000000E10   -3.102172864601016E-3  -4.917653277516365E-3  
 2.502000000000000E10   -4.865054041147232E-3   3.605824429541826E-3  
 2.504000000000000E10    4.086957313120365E-3   4.443219397217035E-3  
 2.506000000000000E10    3.863123012706637E-3  -4.398458637297154E-3  
 2.508000000000000E10   -4.683480598032475E-3  -3.662138013169169E-3  
 2.510000000000000E10   -3.308331826701760E-3   5.680169910192490E-3  
 2.512000000000000E10    6.204136647284031E-3   2.621651161462069E-3  
 2.514000000000000E10    1.872129039838910E-3  -6.621714215725660E-3  
 2.516000000000000E10   -6.262162700295448E-3  -5.845086416229606E-4  
 2.518000000000000E10   -3.258993092458695E-5   6.255405955016613E-3  
 2.520000000000000E10    6.271113641560078E-3  -3.894274705089629E-4  
 2.522000000000000E10   -1.117826788686216E-3  -5.913475528359413E-3  
 2.524000000000000E10   -5.417803768068552E-3   1.501842052675784E-3  
 2.526000000000000E10    2.035144483670592E-3   5.105368327349424E-3  
 2.528000000000000E10    4.642601590603590E-3  -2.682099584490061E-3  
 2.530000000000000E10   -3.010095795616508E-3  -5.056515336036682E-3  
 2.532000000000000E10   -3.834806848317385E-3   3.843883052468300E-3  
 2.534000000000000E10    4.602425731718540E-3   3.001542761921883E-3  
 2.536000000000000E10    2.928776899352670E-3  -4.908865317702293E-3  
 2.538000000000000E10   -5.037316586822271E-3  -1.773423631675541E-3  
 2.540000000000000E10   -9.339211392216384E-4   5.461552646011114E-3  
 2.542000000000000E10    6.265122909098864E-3   5.744808004237711E-4  
 2.544000000000000E10   -3.328297170810401E-4  -6.208299659192562E-3  
 2.546000000000000E10   -5.950513761490583E-3   1.087359036318958E-3  
 2.548000000000000E10    2.535516861826181E-3   5.494060460478067E-3  
 2.550000000000000E10    5.516623612493277E-3  -3.045836696401238E-3  
 2.552000000000000E10   -3.496486460790038E-3  -4.580776672810316E-3  
 2.554000000000000E10   -3.747768932953477E-3   3.974679857492447E-3  
 2.556000000000000E10    4.288924857974052E-3   3.187797032296658E-3  
 2.558000000000000E10    3.402431961148977E-3  -4.385537933558226E-3  
 2.560000000000000E10   -4.687235690653324E-3  -2.601597923785448E-3  
 2.562000000000000E10   -1.976372208446264E-3   4.961692728102207E-3  
 2.564000000000000E10    5.344933364540339E-3   1.167640439234674E-3  
 2.566000000000000E10   -1.166824513347819E-4  -5.589934997260571E-3  
 2.568000000000000E10   -5.501120351254940E-3   6.830536294728518E-4  
 2.570000000000000E10    1.220825477503240E-3   4.950169008225203E-3  
 2.572000000000000E10    4.553218372166157E-3  -1.960603985935450E-3  
 2.574000000000000E10   -2.325383014976978E-3  -4.696153569966555E-3  
 2.576000000000000E10   -4.320518579334021E-3   3.256725147366524E-3  
 2.578000000000000E10    3.754732199013233E-3   3.635384375229478E-3  
 2.580000000000000E10    3.056428628042340E-3  -4.603772424161434E-3  
 2.582000000000000E10   -4.805603995919228E-3  -1.972564961761236E-3  
 2.584000000000000E10   -1.625973964110017E-3   4.692110233008862E-3  
 2.586000000000000E10    5.048487801104784E-3   1.079905312508345E-3  
 2.588000000000000E10    1.597387890797108E-4  -4.803262185305357E-3  
 2.590000000000000E10   -5.036350805312395E-3   4.193212225800380E-5  
 2.592000000000000E10    7.702617440372706E-4   5.276050884276629E-3  
 2.594000000000000E10    4.697049036622047E-3  -1.025194302201271E-3  
 2.596000000000000E10   -2.370578702539206E-3  -5.097012966871262E-3  
 2.598000000000000E10   -4.693769849836826E-3   3.226299071684480E-3  
 2.600000000000000E10    3.499604063108563E-3   4.209213424474001E-3  
 2.602000000000000E10    3.251508343964815E-3  -4.266515374183655E-3  
 2.604000000000000E10   -4.070719704031944E-3  -2.335049211978912E-3  
 2.606000000000000E10   -2.560470486059785E-3   4.518967587500811E-3  
 2.608000000000000E10    4.303853027522564E-3   1.501044956967235E-3  
 2.610000000000000E10    1.088468357920647E-3  -4.419452510774136E-3  
 2.612000000000000E10   -4.848706070333719E-3  -2.087184402626008E-4  
 2.614000000000000E10   -3.440806467551738E-4   4.389515612274408E-3  
 2.616000000000000E10    4.134980961680412E-3  -5.610586376860738E-4  
 2.618000000000000E10   -1.875403802841902E-3  -4.697879776358604E-3  
 2.620000000000000E10   -4.105400294065476E-3   1.795629272237420E-3  
 2.622000000000000E10    2.476695924997330E-3   3.796964883804321E-3  
 2.624000000000000E10    2.861137967556715E-3  -3.389939200133085E-3  
 2.626000000000000E10   -3.302475903183222E-3  -2.753732260316610E-3  
 2.628000000000000E10   -2.371386857703328E-3   4.541748668998480E-3  
 2.630000000000000E10    4.037433303892613E-3   1.095841755159199E-3  
 2.632000000000000E10    4.370386013761163E-4  -4.233857616782188E-3  
 2.634000000000000E10   -4.217070061713457E-3  -4.811587496078573E-5  
 2.636000000000000E10    2.697394811548293E-4   3.975927364081144E-3  
 2.638000000000000E10    3.974182531237602E-3  -1.344151212833822E-3  
 2.640000000000000E10   -1.921838731504977E-3  -3.728867275640369E-3  
 2.642000000000000E10   -3.172401571646333E-3   1.725765527226031E-3  
 2.644000000000000E10    2.288535470142961E-3   3.106155432760716E-3  
 2.646000000000000E10    2.128851367160678E-3  -2.584826201200485E-3  
 2.648000000000000E10   -2.761123701930046E-3  -2.161595504730940E-3  
 2.650000000000000E10   -1.736576552502811E-3   3.089330857619643E-3  
 2.652000000000000E10    2.957088872790337E-3   8.222142932936549E-4  
 2.654000000000000E10    2.917490201070905E-4  -3.201934508979321E-3  
 2.656000000000000E10   -2.937188837677240E-3  -1.084720352082513E-4  
 2.658000000000000E10    5.384763353504241E-4   2.674187766388059E-3  
 2.660000000000000E10    3.028193721547723E-3  -9.719464578665793E-4  
 2.662000000000000E10   -1.118727726861835E-3  -2.068432280793786E-3  
 2.664000000000000E10   -2.200527815148234E-3   1.790419919416308E-3  
 2.666000000000000E10    1.711743068881333E-3   2.112761838361621E-3  
 2.668000000000000E10    1.470628194510937E-3  -1.952353282831609E-3  
 2.670000000000000E10   -2.150401938706636E-3  -1.390090794302523E-3  
 2.672000000000000E10   -1.058343332260847E-3   2.276168204843998E-3  
 2.674000000000000E10    2.319637453183532E-3   5.476390360854566E-4  
 2.676000000000000E10    4.694667295552790E-4  -2.215724671259522E-3  
 2.678000000000000E10   -1.588528743013740E-3   5.253269773675129E-5  
 2.680000000000000E10    3.690594458021224E-4   2.177795628085733E-3  
 2.682000000000000E10    2.048358786851168E-3  -3.311456530354917E-4  
 2.684000000000000E10   -4.486236430238932E-4  -1.051323022693396E-3  
 2.686000000000000E10   -1.629900769330561E-3   1.250010798685253E-3  
 2.688000000000000E10    7.657289970666170E-4   1.858283765614033E-3  
 2.690000000000000E10    1.015468966215849E-3  -1.348071964457631E-3  
 2.692000000000000E10   -1.385500538162887E-3  -1.025665085762739E-3  
 2.694000000000000E10   -6.109153036959469E-4   1.379328896291554E-3  
 2.696000000000000E10    1.676184940151870E-3   2.617522550281137E-4  
 2.698000000000000E10    4.879177431575954E-4  -1.622484996914864E-3  
 2.700000000000000E10   -1.637925859540701E-3   5.058782990090549E-4  
 2.702000000000000E10    1.749814400682226E-4   1.904173404909670E-3  
 2.704000000000000E10    1.428329502232373E-3  -1.565732673043385E-4  
 2.706000000000000E10   -8.312650606967509E-4  -9.377669775858522E-4  
 2.708000000000000E10   -1.565618324093521E-3   6.225584074854851E-4  
 2.710000000000000E10    5.253205308690667E-4   1.022677053697407E-3  
 2.712000000000000E10    8.191589731723070E-4  -9.669705759733915E-4  
 2.714000000000000E10   -7.985348929651082E-4  -1.250674831680954E-3  
 2.716000000000000E10   -6.452539237216115E-4   9.781968547031283E-4  
 2.718000000000000E10    1.025047269649804E-3   6.587943644262850E-4  
 2.720000000000000E10    7.505179382860661E-4  -1.059259288012981E-3  
 2.722000000000000E10   -1.285719336010516E-3  -1.747754140524194E-4  
 2.724000000000000E10   -3.940089663956314E-4   1.322038588114083E-3  
 2.726000000000000E10    1.139588654041290E-3  -3.327483136672527E-4  
 2.728000000000000E10   -4.194522625766695E-4  -1.194103155285120E-3  
 2.730000000000000E10   -1.298667280934751E-3   1.017925023916178E-5  
 2.732000000000000E10    5.308107356540859E-4   7.461180794052780E-4  
 2.734000000000000E10    8.199019939638674E-4  -6.979312747716904E-4  
 2.736000000000000E10   -3.662898961920291E-4  -1.137853250838816E-3  
 2.738000000000000E10   -3.358281101100147E-4   5.961205461062491E-4  
 2.740000000000000E10    6.480833399109542E-4   4.388479865156114E-4  
 2.742000000000000E10    4.217312671244144E-4  -9.402424911968410E-4  
 2.744000000000000E10   -5.116317188367248E-4  -3.370198246557266E-4  
 2.746000000000000E10   -3.966963558923453E-4   8.406197302974761E-4  
 2.748000000000000E10    9.292091708630323E-4  -7.645478035556153E-5  
 2.750000000000000E10    2.211227838415653E-4  -9.087514481507242E-4  
 2.752000000000000E10   -1.035986817441881E-3  -9.712023165775463E-5  
 2.754000000000000E10    2.840854285750538E-4   9.378683171235025E-4  
 2.756000000000000E10    8.239771123044193E-4  -2.028178714681417E-4  
