#  HZ   S   RI   R     50.00 
! Rohde & Schwarz ZVA40 4Ports - Version 3.90 - 1145.1110k42 SN: 100403
! Date: 2023-10-04 07:33:37
! Measurement: S12 
! 
 2.200000000000000E10    7.132521364837885E-3  -5.632045213133097E-4  
 2.202000000000000E10   -1.076972344890237E-3  -6.525790318846703E-3  
 2.204000000000000E10   -6.728980690240860E-3   2.078280551359057E-3  
 2.206000000000000E10    2.525199670344591E-3   6.549069657921791E-3  
 2.208000000000000E10    5.579910706728697E-3  -3.743908833712339E-3  
 2.210000000000000E10   -4.021962173283100E-3  -5.566359963268042E-3  
 2.212000000000000E10   -5.695446394383907E-3   4.183165729045868E-3  
 2.214000000000000E10    4.823673516511917E-3   4.744225181639195E-3  
 2.216000000000000E10    5.111254286020994E-3  -5.335079971700907E-3  
 2.218000000000000E10   -6.520624738186598E-3  -4.015218932181597E-3  
 2.220000000000000E10   -2.932955743744969E-3   6.872284691780806E-3  
 2.222000000000000E10    7.254351396113634E-3   1.778397359885275E-3  
 2.224000000000000E10    7.143804104998708E-4  -6.864166352897883E-3  
 2.226000000000000E10   -6.844117306172848E-3   2.319116174476221E-4  
 2.228000000000000E10    2.271055418532342E-4   6.361350417137146E-3  
 2.230000000000000E10    6.102008745074272E-3  -1.358356676064432E-3  
 2.232000000000000E10   -1.863976474851370E-3  -6.790467072278261E-3  
 2.234000000000000E10   -6.722679827362299E-3   3.531708847731352E-3  
 2.236000000000000E10    3.332735737785697E-3   5.590007174760103E-3  
 2.238000000000000E10    4.933289252221584E-3  -4.380974918603897E-3  
 2.240000000000000E10   -5.590451881289482E-3  -4.848886746913195E-3  
 2.242000000000000E10   -4.208549857139587E-3   5.888747982680798E-3  
 2.244000000000000E10    6.135332398116589E-3   3.405695082619786E-3  
 2.246000000000000E10    2.809909638017416E-3  -6.158006843179464E-3  
 2.248000000000000E10   -6.778571754693985E-3  -2.686341991648078E-3  
 2.250000000000000E10   -1.695053069852293E-3   7.043750490993261E-3  
 2.252000000000000E10    7.002164609730244E-3   5.809861468151212E-4  
 2.254000000000000E10    4.439771582838148E-4  -7.253059186041355E-3  
 2.256000000000000E10   -7.191667798906565E-3   8.704728679731488E-4  
 2.258000000000000E10    1.766940695233643E-3   6.781877484172583E-3  
 2.260000000000000E10    6.204602774232626E-3  -1.856393995694816E-3  
 2.262000000000000E10   -2.495043911039829E-3  -5.428500939160585E-3  
 2.264000000000000E10   -4.987565800547600E-3   2.836976666003466E-3  
 2.266000000000000E10    3.468715818598867E-3   5.125041119754314E-3  
 2.268000000000000E10    5.145154427736998E-3  -4.195512738078833E-3  
 2.270000000000000E10   -4.698634147644043E-3  -4.643741995096207E-3  
 2.272000000000000E10   -3.171005053445697E-3   5.909833125770092E-3  
 2.274000000000000E10    6.731702014803886E-3   2.890741452574730E-3  
 2.276000000000000E10    2.220517955720425E-3  -6.370424292981625E-3  
 2.278000000000000E10   -6.083162501454353E-3  -8.098144317045808E-4  
 2.280000000000000E10   -4.251852806191891E-5   6.509610451757908E-3  
 2.282000000000000E10    5.152808502316475E-3   3.928052727133036E-3  
 2.284000000000000E10   -6.373269716277719E-4  -6.779992021620274E-3  
 2.286000000000000E10   -6.158498581498861E-3   1.252149464562535E-3  
 2.288000000000000E10    2.649290021508932E-3   7.133530918508768E-3  
 2.290000000000000E10    5.977236200124025E-3  -3.013657405972481E-3  
 2.292000000000000E10   -3.321978030726314E-3  -5.488467402756214E-3  
 2.294000000000000E10   -4.602601751685143E-3   3.848103107884526E-3  
 2.296000000000000E10    4.212629515677691E-3   4.384745378047228E-3  
 2.298000000000000E10    4.156026989221573E-3  -4.153898451477289E-3  
 2.300000000000000E10   -4.756275098770857E-3  -3.345996839925647E-3  
 2.302000000000000E10   -3.157189348712564E-3   5.168190691620112E-3  
 2.304000000000000E10    5.794272758066654E-3   2.465674653649330E-3  
 2.306000000000000E10    1.176423509605229E-3  -5.792736075818539E-3  
 2.308000000000000E10   -6.218477617949247E-3  -7.149574812501669E-4  
 2.310000000000000E10    5.466150469146669E-5   5.792747717350721E-3  
 2.312000000000000E10    5.216482095420361E-3  -9.004496969282627E-4  
 2.314000000000000E10   -1.671576523222029E-3  -5.947569385170937E-3  
 2.316000000000000E10   -5.774774122983217E-3   1.987526658922434E-3  
 2.318000000000000E10    2.718805102631450E-3   5.573519039899111E-3  
 2.320000000000000E10    5.421314854174852E-3  -3.378429217264056E-3  
 2.322000000000000E10   -4.614514298737049E-3  -5.007352214306593E-3  
 2.324000000000000E10   -5.000601522624493E-3   4.864073824137449E-3  
 2.326000000000000E10    5.406650714576244E-3   4.372683819383383E-3  
 2.328000000000000E10    3.145672148093581E-3  -5.509887356311083E-3  
 2.330000000000000E10   -6.473495159298182E-3  -2.619691193103790E-3  
 2.332000000000000E10   -2.757092704996467E-3   5.825526081025600E-3  
 2.334000000000000E10    5.907339975237846E-3   2.266312716528773E-3  
 2.336000000000000E10    1.122851856052876E-3  -6.780706811696291E-3  
 2.338000000000000E10   -6.783654913306236E-3   8.373169293918181E-6  
 2.340000000000000E10    9.494180558249354E-4   6.545256823301315E-3  
 2.342000000000000E10    6.556458771228790E-3  -1.949562807567418E-3  
 2.344000000000000E10   -2.206769073382020E-3  -5.331136751919985E-3  
 2.346000000000000E10   -4.964466206729412E-3   3.265398787334561E-3  
 2.348000000000000E10    3.803503466770053E-3   4.703992046415806E-3  
 2.350000000000000E10    4.992653150111437E-3  -4.580983892083168E-3  
 2.352000000000000E10   -5.673345178365707E-3  -4.338271450251341E-3  
 2.354000000000000E10   -3.588879946619272E-3   5.618677008897066E-3  
 2.356000000000000E10    6.775660905987024E-3   2.650129608809948E-3  
 2.358000000000000E10    2.114268252626061E-3  -7.672602310776711E-3  
 2.360000000000000E10   -6.957433186471462E-3  -1.696757157333195E-3  
 2.362000000000000E10   -4.498956259340048E-4   7.455520797520876E-3  
 2.364000000000000E10    7.726326584815979E-3  -4.530450678430498E-4  
 2.366000000000000E10   -2.625181805342436E-4  -8.015098981559277E-3  
 2.368000000000000E10   -7.569374050945044E-3   1.518979901447892E-3  
 2.370000000000000E10    3.007901599630714E-3   7.524711079895496E-3  
 2.372000000000000E10    7.418857421725988E-3  -3.997956402599812E-3  
 2.374000000000000E10   -4.605304915457964E-3  -6.468686740845442E-3  
 2.376000000000000E10   -5.527012981474400E-3   5.082826595753431E-3  
 2.378000000000000E10    5.820445716381073E-3   4.022803157567978E-3  
 2.380000000000000E10    3.598132869228721E-3  -6.808931473642588E-3  
 2.382000000000000E10   -6.992478389292955E-3  -3.189139766618609E-3  
 2.384000000000000E10   -1.777358818799257E-3   6.933153141289949E-3  
 2.386000000000000E10    7.601403631269932E-3   7.044692756608129E-4  
 2.388000000000000E10   -1.770321978256106E-4  -8.022408932447434E-3  
 2.390000000000000E10   -8.122552186250687E-3   1.580048934556544E-3  
 2.392000000000000E10    2.794648054987192E-3   8.047125302255154E-3  
 2.394000000000000E10    7.275932002812624E-3  -3.839768236503005E-3  
 2.396000000000000E10   -5.125442519783974E-3  -6.673952098935843E-3  
 2.398000000000000E10   -6.560014560818672E-3   5.903651472181082E-3  
 2.400000000000000E10    6.195615511387587E-3   5.496883764863014E-3  
 2.402000000000000E10    3.174695419147611E-3  -7.408227305859327E-3  
 2.404000000000000E10   -7.930932566523552E-3  -2.623835578560829E-3  
 2.406000000000000E10   -1.918706926517189E-3   8.041123859584332E-3  
 2.408000000000000E10    7.626361213624477E-3   6.620610365644097E-4  
 2.410000000000000E10    1.205620283144526E-4  -7.419493515044451E-3  
 2.412000000000000E10   -7.425303570926189E-3   1.143415691331029E-3  
 2.414000000000000E10    1.228897483088076E-3   7.545804139226675E-3  
 2.416000000000000E10    6.917375605553389E-3  -1.596150570549071E-3  
 2.418000000000000E10   -2.948726993054152E-3  -6.051711272448301E-3  
 2.420000000000000E10   -6.565783638507128E-3   4.253265913575888E-3  
 2.422000000000000E10    4.718603100627661E-3   5.686910822987557E-3  
 2.424000000000000E10    4.673382733017206E-3  -5.103780422359705E-3  
 2.426000000000000E10   -6.173082627356052E-3  -3.824354615062475E-3  
 2.428000000000000E10   -2.805231139063835E-3   7.069716230034828E-3  
 2.430000000000000E10    7.401009090244770E-3   2.076994860544801E-3  
 2.432000000000000E10    1.178716192953289E-3  -7.212781812995672E-3  
 2.434000000000000E10   -6.965019740164280E-3   5.650437087751925E-4  
 2.436000000000000E10    1.113205100409687E-3   7.349592167884111E-3  
 2.438000000000000E10    6.709960289299488E-3  -1.189122907817364E-3  
 2.440000000000000E10   -1.499876729212701E-3  -6.721070967614651E-3  
 2.442000000000000E10   -6.702702492475510E-3   2.697288291528821E-3  
 2.444000000000000E10    3.084059571847320E-3   5.975113250315189E-3  
 2.446000000000000E10    5.708690267056227E-3  -3.642966272309423E-3  
 2.448000000000000E10   -3.813499119132757E-3  -5.386635195463896E-3  
 2.450000000000000E10   -4.394581075757742E-3   4.574311897158623E-3  
 2.452000000000000E10    5.060899537056685E-3   3.415758488699794E-3  
 2.454000000000000E10    2.659709192812443E-3  -5.098969209939241E-3  
 2.456000000000000E10   -5.412633530795574E-3  -1.814750372432172E-3  
 2.458000000000000E10   -1.464099157601595E-3   5.438649095594883E-3  
 2.460000000000000E10    5.592873785644770E-3   4.638283862732351E-4  
 2.462000000000000E10   -5.742214852944017E-4  -6.137124728411436E-3  
 2.464000000000000E10   -5.217670928686857E-3   1.497808494605124E-3  
 2.466000000000000E10    1.704324502497912E-3   5.013792775571346E-3  
 2.468000000000000E10    5.282687954604626E-3  -2.690435387194157E-3  
 2.470000000000000E10   -2.995181828737259E-3  -4.891415592283011E-3  
 2.472000000000000E10   -4.442631267011166E-3   3.388119628652930E-3  
 2.474000000000000E10    3.617800772190094E-3   4.186450969427824E-3  
 2.476000000000000E10    3.984246402978897E-3  -4.094087984412909E-3  
 2.478000000000000E10   -4.919361788779497E-3  -3.216737648472190E-3  
 2.480000000000000E10   -2.827764023095369E-3   4.808789584785700E-3  
 2.482000000000000E10    5.130778532475233E-3   2.435836941003799E-3  
 2.484000000000000E10    1.645772019401193E-3  -5.204475950449705E-3  
 2.486000000000000E10   -5.446272902190685E-3  -5.168142961338162E-4  
 2.488000000000000E10    3.559512260835618E-4   4.998872987926006E-3  
 2.490000000000000E10    4.592980258166790E-3  -2.181255113100633E-4  
 2.492000000000000E10   -7.247489411383867E-4  -4.288009833544493E-3  
 2.494000000000000E10   -4.139021970331669E-3   1.780185499228537E-3  
 2.496000000000000E10    2.235477091744542E-3   3.860105527564883E-3  
 2.498000000000000E10    3.354249754920602E-3  -2.469333820044994E-3  
 2.500000000000000E10   -2.626607427373529E-3  -3.035214263945818E-3  
 2.502000000000000E10   -2.566170413047075E-3   3.766004461795092E-3  
 2.504000000000000E10    3.929433412849903E-3   1.705960254184902E-3  
 2.506000000000000E10    2.100318670272827E-3  -3.866235958412290E-3  
 2.508000000000000E10   -4.450982436537743E-3  -1.404661103151739E-3  
 2.510000000000000E10   -1.109716249629855E-3   4.735738039016724E-3  
 2.512000000000000E10    5.155201070010662E-3   6.295136990956962E-4  
 2.514000000000000E10   -1.006357779260725E-4  -5.304489284753799E-3  
 2.516000000000000E10   -4.779841285198927E-3   8.158963173627853E-4  
 2.518000000000000E10    1.459449413232505E-3   4.261048045009375E-3  
 2.520000000000000E10    4.155231639742851E-3  -1.650487422011793E-3  
 2.522000000000000E10   -1.190587063319981E-3  -4.133587237447500E-3  
 2.524000000000000E10   -3.176719183102250E-3   1.854584203101695E-3  
 2.526000000000000E10    2.075645141303539E-3   2.842429326847196E-3  
 2.528000000000000E10    3.335581161081791E-3  -2.714690519496799E-3  
 2.530000000000000E10   -2.979560522362590E-3  -2.578407060354948E-3  
 2.532000000000000E10   -1.882173935882747E-3   3.275823080912232E-3  
 2.534000000000000E10    3.635863075032830E-3   1.289926003664732E-3  
 2.536000000000000E10    6.522418698295951E-4  -3.668101737275720E-3  
 2.538000000000000E10   -4.036109428852797E-3  -3.971866972278804E-4  
 2.540000000000000E10    9.013619273900986E-5   3.996510989964008E-3  
 2.542000000000000E10    4.239280242472887E-3  -9.432254591956735E-4  
 2.544000000000000E10   -1.814378658309579E-3  -4.508696962147951E-3  
 2.546000000000000E10   -4.125515464693308E-3   2.314525889232755E-3  
 2.548000000000000E10    2.691531786695123E-3   3.249201690778136E-3  
 2.550000000000000E10    3.239766927435994E-3  -3.355654655024409E-3  
 2.552000000000000E10   -3.575552953407168E-3  -2.687054919078946E-3  
 2.554000000000000E10   -2.245254116132855E-3   3.443344961851835E-3  
 2.556000000000000E10    3.651467617601156E-3   1.646809163503349E-3  
 2.558000000000000E10    7.247933535836637E-4  -3.784707747399807E-3  
 2.560000000000000E10   -3.909085877239704E-3  -5.424722912721336E-4  
 2.562000000000000E10   -5.652821273542941E-4   4.096176475286484E-3  
 2.564000000000000E10    3.620048519223929E-3  -3.962498740293086E-4  
 2.566000000000000E10   -1.114694750867784E-3  -4.142197314649820E-3  
 2.568000000000000E10   -3.562316065654159E-3   1.742587774060667E-3  
 2.570000000000000E10    1.883891760371625E-3   3.273246111348271E-3  
 2.572000000000000E10    3.022140823304653E-3  -2.464035758748651E-3  
 2.574000000000000E10   -2.764748875051737E-3  -2.440342679619789E-3  
 2.576000000000000E10   -2.191054169088602E-3   3.477600868791342E-3  
 2.578000000000000E10    4.004867281764746E-3   1.724520465359092E-3  
 2.580000000000000E10    7.497519836761057E-4  -3.704623784869909E-3  
 2.582000000000000E10   -3.971324302256107E-3  -4.086149274371564E-4  
 2.584000000000000E10    5.776376565336250E-5   3.823605831712484E-3  
 2.586000000000000E10    3.426725976169109E-3  -4.849033139180392E-4  
 2.588000000000000E10   -1.410617725923657E-3  -3.809875808656216E-3  
 2.590000000000000E10   -3.393908496946096E-3   1.271498389542103E-3  
 2.592000000000000E10    1.927382545545697E-3   3.529069945216179E-3  
 2.594000000000000E10    3.288605017587543E-3  -2.726996550336480E-3  
 2.596000000000000E10   -2.802742877975106E-3  -2.257882151752710E-3  
 2.598000000000000E10   -2.245218260213733E-3   3.617664100602269E-3  
 2.600000000000000E10    3.664649790152907E-3   1.562307006679475E-3  
 2.602000000000000E10    1.150104915723205E-3  -3.522106446325779E-3  
 2.604000000000000E10   -4.070689436048269E-3  -6.088846712373197E-4  
 2.606000000000000E10   -4.373910778667778E-4   3.505167784169316E-3  
 2.608000000000000E10    3.668780671432614E-3  -4.409463435877115E-4  
 2.610000000000000E10   -8.294218569062650E-4  -3.575980896130204E-3  
 2.612000000000000E10   -3.189578652381897E-3   1.101020025089383E-3  
 2.614000000000000E10    1.789974630810320E-3   3.420435125008225E-3  
 2.616000000000000E10    2.651686081662774E-3  -1.865871483460069E-3  
 2.618000000000000E10   -1.873628585599363E-3  -2.306683454662561E-3  
 2.620000000000000E10   -2.522908616811037E-3   3.265275619924069E-3  
 2.622000000000000E10    2.880586776882410E-3   1.830905093811452E-3  
 2.624000000000000E10    1.303394907154143E-3  -3.220004262402654E-3  
 2.626000000000000E10   -3.658914705738425E-3  -7.257453398779035E-4  
 2.628000000000000E10   -1.802228071028367E-4   3.646268509328365E-3  
 2.630000000000000E10    4.193640779703856E-3  -5.615673144347966E-4  
 2.632000000000000E10   -9.701175731606782E-4  -3.199677681550384E-3  
 2.634000000000000E10   -2.963851438835263E-3   1.293673529289663E-3  
 2.636000000000000E10    2.167810453101993E-3   3.160374704748392E-3  
 2.638000000000000E10    2.370147267356515E-3  -2.031223848462105E-3  
 2.640000000000000E10   -2.535552950575948E-3  -2.286386443302035E-3  
 2.642000000000000E10   -1.923470408655703E-3   2.794644329696894E-3  
 2.644000000000000E10    2.808674005791545E-3   1.446100417524576E-3  
 2.646000000000000E10    1.161655411124229E-3  -3.065809840336442E-3  
 2.648000000000000E10   -3.087075660005212E-3  -5.198702565394342E-4  
 2.650000000000000E10    2.157503622584045E-4   3.177902661263943E-3  
 2.652000000000000E10    3.343712538480759E-3  -6.023693713359535E-4  
 2.654000000000000E10   -9.592518326826394E-4  -2.666437532752752E-3  
 2.656000000000000E10   -2.676043892279267E-3   1.168832532130182E-3  
 2.658000000000000E10    2.092645503580570E-3   2.092041773721576E-3  
 2.660000000000000E10    1.812392612919211E-3  -2.611367031931877E-3  
 2.662000000000000E10   -2.510675461962819E-3  -1.615677843801677E-3  
 2.664000000000000E10   -1.193614560179412E-3   2.328683156520128E-3  
 2.666000000000000E10    2.694094786420465E-3   7.303773891180754E-4  
 2.668000000000000E10    5.841231322847307E-4  -2.610255731269717E-3  
 2.670000000000000E10   -2.702015219256282E-3   1.160873580374755E-4  
 2.672000000000000E10    4.755658155772835E-4   2.613179851323366E-3  
 2.674000000000000E10    2.366215223446488E-3  -7.075848407112062E-4  
 2.676000000000000E10   -1.188532565720379E-3  -2.169296611100435E-3  
 2.678000000000000E10   -1.764519489370287E-3   1.290154177695513E-3  
 2.680000000000000E10    1.752528012730181E-3   1.183472923003137E-3  
 2.682000000000000E10    1.419281703419983E-3  -1.916272914968431E-3  
 2.684000000000000E10   -1.605391036719084E-3  -1.060733920894563E-3  
 2.686000000000000E10   -3.878890711348504E-4   1.935895299538970E-3  
 2.688000000000000E10    1.995451748371124E-3   7.030580309219658E-4  
 2.690000000000000E10    5.064249271526933E-4  -1.999592641368508E-3  
 2.692000000000000E10   -2.042687265202403E-3   1.566763967275620E-4  
 2.694000000000000E10   -5.375493492465466E-5   2.306707669049501E-3  
 2.696000000000000E10    2.137294271960855E-3  -3.822560247499496E-4  
 2.698000000000000E10   -5.659932503476739E-4  -1.714272657409310E-3  
 2.700000000000000E10   -1.682679634541273E-3   8.128182380460203E-4  
 2.702000000000000E10    1.331043313257396E-3   1.733470708131790E-3  
 2.704000000000000E10    1.494250725954771E-3  -1.119771972298622E-3  
 2.706000000000000E10   -1.080468529835343E-3  -6.867400952614844E-4  
 2.708000000000000E10   -4.631988995242864E-4   1.634386251680553E-3  
 2.710000000000000E10    1.390218385495246E-3   8.164296741597354E-4  
 2.712000000000000E10    5.779620260000229E-4  -1.417128718458116E-3  
 2.714000000000000E10   -1.586106489412487E-3  -1.431749260518700E-4  
 2.716000000000000E10   -1.738647843012586E-4   1.519059645943344E-3  
 2.718000000000000E10    1.702966052107513E-3  -1.905022800201550E-4  
 2.720000000000000E10   -3.204777312930673E-4  -1.495656208135188E-3  
 2.722000000000000E10   -1.542081008665264E-3   5.836147465743125E-4  
 2.724000000000000E10    9.082716424018145E-4   1.548271975480020E-3  
 2.726000000000000E10    1.299915486015379E-3  -6.444408791139722E-4  
 2.728000000000000E10   -1.248160842806101E-3  -1.202190527692437E-3  
 2.730000000000000E10   -1.150494441390038E-3   1.466351095587015E-3  
 2.732000000000000E10    1.342322560958564E-3   8.696407894603908E-4  
 2.734000000000000E10    2.652959665283561E-4  -1.769463415257633E-3  
 2.736000000000000E10   -1.465626177377999E-3  -3.754073404707015E-4  
 2.738000000000000E10   -4.586213617585599E-4   1.578553230501711E-3  
 2.740000000000000E10    1.301902346313000E-3  -2.956204116344452E-4  
 2.742000000000000E10    2.084932930301875E-5  -1.180417370051146E-3  
 2.744000000000000E10   -1.522351521998644E-3   1.708007766865194E-4  
 2.746000000000000E10    1.771260140230879E-4   1.222077175043523E-3  
 2.748000000000000E10    1.025303266942501E-3  -5.805989494547248E-4  
 2.750000000000000E10   -1.063288189470768E-3  -1.333700027316809E-3  
 2.752000000000000E10   -1.239734468981624E-3   4.799008893314749E-4  
 2.754000000000000E10    8.000939851626754E-4   1.072954037226737E-3  
 2.756000000000000E10    6.697279168292880E-4  -1.223511993885040E-3  
