#  HZ   S   RI   R     50.00 
! Rohde & Schwarz ZVA40 4Ports - Version 3.90 - 1145.1110k42 SN: 100403
! Date: 2023-10-04 07:33:55
! Measurement: S12 
! 
 2.200000000000000E10    5.827425979077816E-3  -2.373150084167719E-3  
 2.202000000000000E10   -3.241557395085692E-3  -5.094137042760849E-3  
 2.204000000000000E10   -5.117044784128666E-3   3.998173400759697E-3  
 2.206000000000000E10    4.004866816103458E-3   4.327601287513971E-3  
 2.208000000000000E10    3.478523343801498E-3  -4.851898644119501E-3  
 2.210000000000000E10   -4.593421239405870E-3  -3.260226920247078E-3  
 2.212000000000000E10   -2.582700923085213E-3   4.550635814666748E-3  
 2.214000000000000E10    5.548543762415648E-3   1.643346156924963E-3  
 2.216000000000000E10    1.705444417893887E-3  -5.780854262411594E-3  
 2.218000000000000E10   -6.249832920730114E-3  -1.683240843703970E-4  
 2.220000000000000E10    4.504206299316138E-5   5.949858110398054E-3  
 2.222000000000000E10    6.345997564494610E-3  -1.688175369054079E-3  
 2.224000000000000E10   -2.243226161226630E-3  -6.077277939766645E-3  
 2.226000000000000E10   -5.341591313481331E-3   2.968281274661422E-3  
 2.228000000000000E10    3.259876975789666E-3   5.078375805169344E-3  
 2.230000000000000E10    4.953672178089619E-3  -4.256637766957283E-3  
 2.232000000000000E10   -3.963995259255171E-3  -4.899894818663597E-3  
 2.234000000000000E10   -3.871583379805088E-3   5.037203896790743E-3  
 2.236000000000000E10    5.544856190681458E-3   3.250621259212494E-3  
 2.238000000000000E10    3.240672638639808E-3  -6.006237119436264E-3  
 2.240000000000000E10   -5.644735880196095E-3  -2.546762116253376E-3  
 2.242000000000000E10   -1.364703406579793E-3   5.716098006814718E-3  
 2.244000000000000E10    5.351718980818987E-3   3.123692877124995E-4  
 2.246000000000000E10    7.933096640044823E-5  -6.020729430019856E-3  
 2.248000000000000E10   -5.698518361896277E-3   1.402915804646909E-4  
 2.250000000000000E10    7.778704166412354E-4   5.715382751077414E-3  
 2.252000000000000E10    5.484732799232006E-3  -2.143382793292403E-3  
 2.254000000000000E10   -2.747849561274052E-3  -5.401641130447388E-3  
 2.256000000000000E10   -4.871840588748455E-3   3.447849070653319E-3  
 2.258000000000000E10    3.773810574784875E-3   4.181060008704662E-3  
 2.260000000000000E10    3.100673900917172E-3  -3.877873998135328E-3  
 2.262000000000000E10   -4.233937244862318E-3  -3.070347243919969E-3  
 2.264000000000000E10   -3.172190161421895E-3   4.433399997651577E-3  
 2.266000000000000E10    4.661927931010723E-3   2.991079585626721E-3  
 2.268000000000000E10    2.577027538791299E-3  -5.272261798381805E-3  
 2.270000000000000E10   -5.783925298601389E-3  -1.945995725691319E-3  
 2.272000000000000E10   -1.200791331939399E-3   6.496057845652103E-3  
 2.274000000000000E10    5.631919018924236E-3   1.058488385751844E-3  
 2.276000000000000E10   -7.024442893452942E-4  -5.847726482897997E-3  
 2.278000000000000E10   -5.678325891494751E-3   8.025120478123426E-4  
 2.280000000000000E10    1.306820777244866E-3   5.621904972940683E-3  
 2.282000000000000E10    4.385014064610004E-3   1.642688643187285E-3  
 2.284000000000000E10   -2.396375406533480E-3  -5.146049428731203E-3  
 2.286000000000000E10   -4.631686490029097E-3   3.036258276551962E-3  
 2.288000000000000E10    3.393454710021615E-3   4.304882604628801E-3  
 2.290000000000000E10    3.668741555884481E-3  -3.913482185453177E-3  
 2.292000000000000E10   -4.367988556623459E-3  -2.571098040789366E-3  
 2.294000000000000E10   -2.142378129065037E-3   4.577708430588245E-3  
 2.296000000000000E10    4.794887732714415E-3   1.782465376891196E-3  
 2.298000000000000E10    1.209848211146891E-3  -4.535372368991375E-3  
 2.300000000000000E10   -5.288392771035433E-3  -1.030268031172454E-3  
 2.302000000000000E10   -3.450815565884113E-4   5.539740901440382E-3  
 2.304000000000000E10    6.042167078703642E-3  -7.455953164026141E-5  
 2.306000000000000E10   -1.215911470353603E-3  -5.919421557337046E-3  
 2.308000000000000E10   -5.177428945899010E-3   1.672483864240348E-3  
 2.310000000000000E10    2.593027194961906E-3   4.887464921921492E-3  
 2.312000000000000E10    5.331141408532858E-3  -2.865982474759221E-3  
 2.314000000000000E10   -2.498021116480231E-3  -4.551084246486425E-3  
 2.316000000000000E10   -4.012160003185272E-3   3.364636562764645E-3  
 2.318000000000000E10    4.173154942691326E-3   4.063297528773546E-3  
 2.320000000000000E10    3.535248106345534E-3  -4.036726430058479E-3  
 2.322000000000000E10   -4.677138756960630E-3  -2.985409926623106E-3  
 2.324000000000000E10   -2.216777531430125E-3   4.102502949535847E-3  
 2.326000000000000E10    5.427786149084568E-3   1.212697476148605E-3  
 2.328000000000000E10    8.352495497092605E-4  -4.999293014407158E-3  
 2.330000000000000E10   -4.890188574790955E-3  -6.811472121626139E-4  
 2.332000000000000E10    3.374978259671480E-4   4.687744192779064E-3  
 2.334000000000000E10    5.281948018819094E-3  -7.550765876658261E-4  
 2.336000000000000E10   -1.361761591397226E-3  -5.489937961101532E-3  
 2.338000000000000E10   -5.185882560908794E-3   2.604600740596652E-3  
 2.340000000000000E10    3.288401523604989E-3   4.656394943594933E-3  
 2.342000000000000E10    4.535130225121975E-3  -3.740173531696200E-3  
 2.344000000000000E10   -4.739456810057163E-3  -3.214633557945490E-3  
 2.346000000000000E10   -3.723121713846922E-3   4.718577023595572E-3  
 2.348000000000000E10    5.039433017373085E-3   3.022239077836275E-3  
 2.350000000000000E10    2.871565055102110E-3  -5.145295057445765E-3  
 2.352000000000000E10   -6.079858168959618E-3  -2.240273868665099E-3  
 2.354000000000000E10   -1.850334811024368E-3   6.731881294399500E-3  
 2.356000000000000E10    6.653694901615381E-3   1.261865836568177E-3  
 2.358000000000000E10    1.006879756459966E-4  -6.611623801290989E-3  
 2.360000000000000E10   -6.406675092875958E-3   1.215653726831079E-3  
 2.362000000000000E10    1.254628878086805E-3   6.649959832429886E-3  
 2.364000000000000E10    6.096168886870146E-3  -1.853812136687338E-3  
 2.366000000000000E10   -3.031572327017784E-3  -5.088414065539837E-3  
 2.368000000000000E10   -5.070917773991823E-3   4.448371939361095E-3  
 2.370000000000000E10    4.875701852142811E-3   4.946940578520298E-3  
 2.372000000000000E10    3.715964034199715E-3  -5.194248165935278E-3  
 2.374000000000000E10   -6.684350315481424E-3  -2.117229392752051E-3  
 2.376000000000000E10   -1.348844263702631E-3   6.570113357156515E-3  
 2.378000000000000E10    6.656013429164887E-3   4.352677497081459E-4  
 2.380000000000000E10   -1.587015867698938E-4  -6.801801733672619E-3  
 2.382000000000000E10   -6.841655354946852E-3   1.473034149967134E-3  
 2.384000000000000E10    1.617768662981689E-3   6.745695136487484E-3  
 2.386000000000000E10    7.222620770335197E-3  -2.350001130253077E-3  
 2.388000000000000E10   -2.940917154774070E-3  -6.745725870132446E-3  
 2.390000000000000E10   -6.482061930000782E-3   4.477624781429768E-3  
 2.392000000000000E10    5.203133448958397E-3   5.817544646561146E-3  
 2.394000000000000E10    5.238161422312260E-3  -5.515495780855417E-3  
 2.396000000000000E10   -5.849144887179136E-3  -4.652890376746655E-3  
 2.398000000000000E10   -3.413812257349491E-3   5.854011047631502E-3  
 2.400000000000000E10    6.651954725384712E-3   1.818084856495261E-3  
 2.402000000000000E10    2.063939318759367E-4  -6.665593944489956E-3  
 2.404000000000000E10   -5.919629242271185E-3   7.258467376232147E-4  
 2.406000000000000E10    1.572476350702345E-3   5.773060023784638E-3  
 2.408000000000000E10    5.765712819993496E-3  -2.717624418437481E-3  
 2.410000000000000E10   -2.870628377422690E-3  -5.388000514358282E-3  
 2.412000000000000E10   -4.762985743582249E-3   3.371358150616288E-3  
 2.414000000000000E10    4.036738071590662E-3   3.847094019874930E-3  
 2.416000000000000E10    4.142881836742163E-3  -4.920552484691143E-3  
 2.418000000000000E10   -5.529878195375204E-3  -3.882090095430613E-3  
 2.420000000000000E10   -3.152182558551431E-3   5.316325463354588E-3  
 2.422000000000000E10    6.452353671193123E-3   1.759995007887483E-3  
 2.424000000000000E10    1.462726853787899E-3  -6.736710201948881E-3  
 2.426000000000000E10   -6.468297448009253E-3  -9.597702883183956E-4  
 2.428000000000000E10    1.250473433174193E-4   6.531371269375086E-3  
 2.430000000000000E10    5.974304862320423E-3  -1.193009084090591E-3  
 2.432000000000000E10   -1.334730070084333E-3  -5.981654394418001E-3  
 2.434000000000000E10   -5.644954741001129E-3   1.883429009467363E-3  
 2.436000000000000E10    2.396310679614544E-3   4.630426410585642E-3  
 2.438000000000000E10    4.425845574587584E-3  -2.939452184364200E-3  
 2.440000000000000E10   -3.499562386423349E-3  -4.336169920861721E-3  
 2.442000000000000E10   -3.747732844203711E-3   3.974962048232555E-3  
 2.444000000000000E10    4.100730642676354E-3   2.776195760816336E-3  
 2.446000000000000E10    2.007080009207130E-3  -4.406936001032591E-3  
 2.448000000000000E10   -4.929572809487581E-3  -1.704447087831795E-3  
 2.450000000000000E10   -8.662953623570502E-4   5.316077265888453E-3  
 2.452000000000000E10    5.105978343635798E-3  -9.202647197525948E-5  
 2.454000000000000E10   -6.714462651871145E-4  -5.003704689443111E-3  
 2.456000000000000E10   -4.910778719931841E-3   1.158273778855801E-3  
 2.458000000000000E10    1.674373750574887E-3   5.430848337709904E-3  
 2.460000000000000E10    5.013585090637207E-3  -2.387961605563760E-3  
 2.462000000000000E10   -2.759313210844994E-3  -4.569237120449543E-3  
 2.464000000000000E10   -3.783909371122718E-3   3.168041585013270E-3  
 2.466000000000000E10    3.056240035220981E-3   3.511170158162713E-3  
 2.468000000000000E10    3.452222328633070E-3  -3.734951838850975E-3  
 2.470000000000000E10   -3.749255789443851E-3  -2.650189213454723E-3  
 2.472000000000000E10   -2.129824366420507E-3   3.775511402636766E-3  
 2.474000000000000E10    4.012084100395441E-3   1.819131197407842E-3  
 2.476000000000000E10    1.773137832060456E-3  -3.800540231168270E-3  
 2.478000000000000E10   -3.977900370955467E-3  -5.355582106858492E-4  
 2.480000000000000E10    3.786350425798446E-4   3.877107985317707E-3  
 2.482000000000000E10    4.046844784170389E-3  -4.527936398517340E-4  
 2.484000000000000E10   -1.566327759064734E-3  -3.658633911982179E-3  
 2.486000000000000E10   -3.482958534732461E-3   2.060057595372200E-3  
 2.488000000000000E10    2.151138614863157E-3   2.677612239494920E-3  
 2.490000000000000E10    2.569162519648671E-3  -2.643640385940671E-3  
 2.492000000000000E10   -3.360431175678968E-3  -2.892239484935999E-3  
 2.494000000000000E10   -2.299546264111996E-3   3.485824912786484E-3  
 2.496000000000000E10    3.624932374805212E-3   1.328883576206863E-3  
 2.498000000000000E10    1.222495920956135E-3  -4.026690497994423E-3  
 2.500000000000000E10   -3.990144003182650E-3  -8.341249194927514E-4  
 2.502000000000000E10   -1.016799942590296E-3   3.715976374223828E-3  
 2.504000000000000E10    3.826471045613289E-3   2.798489585984498E-4  
 2.506000000000000E10   -1.445435045752674E-4  -3.389383666217327E-3  
 2.508000000000000E10   -4.112316761165857E-3   9.240010695066303E-5  
 2.510000000000000E10    7.115012267604470E-4   3.788954345509410E-3  
 2.512000000000000E10    2.771589439362288E-3  -1.045655924826860E-3  
 2.514000000000000E10   -1.929621328599751E-3  -2.900531981140375E-3  
 2.516000000000000E10   -2.455331152305007E-3   1.951319980435073E-3  
 2.518000000000000E10    1.989917363971472E-3   2.499484922736883E-3  
 2.520000000000000E10    1.227303058840334E-3  -2.171221422031522E-3  
 2.522000000000000E10   -2.630445174872875E-3  -1.233644317835569E-3  
 2.524000000000000E10   -1.242331229150295E-3   3.157154424116015E-3  
 2.526000000000000E10    2.458103699609637E-3   8.610148215666413E-4  
 2.528000000000000E10    2.266267838422209E-4  -2.472890075296164E-3  
 2.530000000000000E10   -3.910411614924669E-3  -1.746601265040226E-5  
 2.532000000000000E10    6.021302542649210E-4   3.705910872668028E-3  
 2.534000000000000E10    3.475545905530453E-3  -4.836053121834993E-4  
 2.536000000000000E10   -1.633317326195538E-3  -3.272709902375937E-3  
 2.538000000000000E10   -3.181411651894450E-3   1.920913113281131E-3  
 2.540000000000000E10    2.325386507436633E-3   3.381054615601897E-3  
 2.542000000000000E10    2.888388000428677E-3  -2.432467415928841E-3  
 2.544000000000000E10   -2.709687687456608E-3  -2.219169400632381E-3  
 2.546000000000000E10   -1.918451744131744E-3   3.577183932065964E-3  
 2.548000000000000E10    3.234916366636753E-3   1.359546673484147E-3  
 2.550000000000000E10    1.221276819705963E-3  -2.917638747021556E-3  
 2.552000000000000E10   -3.009320469573140E-3  -2.842541143763810E-4  
 2.554000000000000E10    4.111309826839715E-4   2.919554943218827E-3  
 2.556000000000000E10    2.855808939784765E-3  -5.091629573144019E-4  
 2.558000000000000E10   -9.862123988568783E-4  -2.811445854604244E-3  
 2.560000000000000E10   -2.152280649170280E-3   1.040845643728972E-3  
 2.562000000000000E10    1.834557973779738E-3   2.282521687448025E-3  
 2.564000000000000E10    2.362207975238562E-3  -2.436219481751323E-3  
 2.566000000000000E10   -2.368614776059985E-3  -1.952979364432395E-3  
 2.568000000000000E10   -1.100496971048415E-3   2.997787669301033E-3  
 2.570000000000000E10    3.470351453870535E-3   9.722642716951668E-4  
 2.572000000000000E10    7.080363575369120E-4  -3.128322772681713E-3  
 2.574000000000000E10   -3.604288911446929E-3  -1.061979855876416E-4  
 2.576000000000000E10    6.804685690440238E-4   3.375655505806208E-3  
 2.578000000000000E10    3.430208889767528E-3  -1.077677356079221E-3  
 2.580000000000000E10   -1.885793521068990E-3  -3.218727884814143E-3  
 2.582000000000000E10   -2.354468218982220E-3   1.144549692980945E-3  
 2.584000000000000E10    2.200083108618856E-3   2.468433231115341E-3  
 2.586000000000000E10    2.294933656230569E-3  -2.732919994741678E-3  
 2.588000000000000E10   -2.157681155949831E-3  -1.993688521906734E-3  
 2.590000000000000E10   -1.490591559559107E-3   2.822717884555459E-3  
 2.592000000000000E10    2.816352294757962E-3   1.065655844286084E-3  
 2.594000000000000E10    8.493183995597065E-4  -2.811022568494082E-3  
 2.596000000000000E10   -3.380106296390295E-3   3.093405393883586E-5  
 2.598000000000000E10   -2.558352389314678E-5   2.897774334996939E-3  
 2.600000000000000E10    3.260941477492452E-3  -1.133102807216346E-3  
 2.602000000000000E10   -1.412919373251498E-3  -2.721229800954461E-3  
 2.604000000000000E10   -2.751231193542481E-3   1.231779227964580E-3  
 2.606000000000000E10    2.307794522494078E-3   2.092313952744007E-3  
 2.608000000000000E10    1.868527149781585E-3  -2.177123213186860E-3  
 2.610000000000000E10   -2.495245309546590E-3  -1.752453274093568E-3  
 2.612000000000000E10   -1.156463869847357E-3   2.918469253927469E-3  
 2.614000000000000E10    2.428251085802913E-3   9.213614393956959E-4  
 2.616000000000000E10    6.443778402172029E-4  -3.085237462073565E-3  
 2.618000000000000E10   -3.173441626131535E-3  -4.969536676071584E-4  
 2.620000000000000E10   -2.224537456640974E-4   3.285610349848867E-3  
 2.622000000000000E10    3.026959951967001E-3  -1.153643243014813E-3  
 2.624000000000000E10   -1.175596960820258E-3  -2.921833656728268E-3  
 2.626000000000000E10   -3.440598491579294E-3   1.202728482894599E-3  
 2.628000000000000E10    2.306420821696520E-3   2.485692268237472E-3  
 2.630000000000000E10    2.084263367578387E-3  -2.298786072060466E-3  
 2.632000000000000E10   -3.129942109808326E-3  -1.660126377828419E-3  
 2.634000000000000E10   -1.554392743855715E-3   2.777073765173554E-3  
 2.636000000000000E10    2.769027138128877E-3   8.409943548031151E-4  
 2.638000000000000E10    3.120822075288743E-4  -3.044360317289829E-3  
 2.640000000000000E10   -3.151002340018749E-3   2.723549869187991E-6  
 2.642000000000000E10    5.510956398211420E-4   3.063812153413892E-3  
 2.644000000000000E10    2.841377863660455E-3  -1.011354615911841E-3  
 2.646000000000000E10   -1.451177056878805E-3  -2.216527005657554E-3  
 2.648000000000000E10   -2.615280216559768E-3   1.956927590072155E-3  
 2.650000000000000E10    2.343101426959038E-3   2.149452688172460E-3  
 2.652000000000000E10    1.721380394883454E-3  -2.505296841263771E-3  
 2.654000000000000E10   -2.818530192598701E-3  -1.256403746083379E-3  
 2.656000000000000E10   -6.849663332104683E-4   3.066325094550848E-3  
 2.658000000000000E10    2.991646761074662E-3   4.818292800337076E-4  
 2.660000000000000E10   -1.024394296109676E-4  -2.820716705173254E-3  
 2.662000000000000E10   -2.866420196369290E-3   8.841693052090704E-4  
 2.664000000000000E10    8.968749316409230E-4   2.737131435424089E-3  
 2.666000000000000E10    2.167120110243559E-3  -1.240789424628019E-3  
 2.668000000000000E10   -1.520058489404619E-3  -1.756903831847012E-3  
 2.670000000000000E10   -1.916865818202496E-3   1.792116556316614E-3  
 2.672000000000000E10    2.192431129515171E-3   1.382126705721021E-3  
 2.674000000000000E10    1.426048926077783E-3  -2.002527937293053E-3  
 2.676000000000000E10   -2.106751315295696E-3  -1.026937388814986E-3  
 2.678000000000000E10   -4.541299422271550E-4   2.355019794777036E-3  
 2.680000000000000E10    2.459822455421090E-3   3.977553860750049E-4  
 2.682000000000000E10   -2.329222916159779E-4  -2.259406726807356E-3  
 2.684000000000000E10   -2.368521643802524E-3   7.726576295681298E-4  
 2.686000000000000E10    5.387073033489287E-4   2.264623530209065E-3  
 2.688000000000000E10    1.742548658512533E-3  -7.749238284304738E-4  
 2.690000000000000E10   -1.236702664755285E-3  -1.894451212137938E-3  
 2.692000000000000E10   -1.950576086528599E-3   1.180258230306208E-3  
 2.694000000000000E10    1.860093208961189E-3   1.377929700538516E-3  
 2.696000000000000E10    1.242079422809184E-3  -1.639336114749312E-3  
 2.698000000000000E10   -1.796963508240879E-3  -1.186651759780943E-3  
 2.700000000000000E10   -6.671630544587970E-4   2.013351069763303E-3  
 2.702000000000000E10    1.951113692484796E-3   4.304331378079951E-4  
 2.704000000000000E10   -2.067359600914642E-4  -1.946274423971772E-3  
 2.706000000000000E10   -1.875687157735229E-3   1.908797275973484E-5  
 2.708000000000000E10    4.042498767375946E-4   1.717618899419904E-3  
 2.710000000000000E10    1.701961038634181E-3  -1.232853508554399E-3  
 2.712000000000000E10   -8.426342392340303E-4  -1.817256095819175E-3  
 2.714000000000000E10   -1.660791225731373E-3   1.112054102122784E-3  
 2.716000000000000E10    1.418374711647630E-3   1.267694286070764E-3  
 2.718000000000000E10    1.476180041208863E-3  -1.097853062674403E-3  
 2.720000000000000E10   -1.701529487036169E-3  -1.224884181283414E-3  
 2.722000000000000E10   -1.096243504434824E-3   1.346093486063182E-3  
 2.724000000000000E10    1.746042282320559E-3   8.937105885706842E-4  
 2.726000000000000E10    4.844308423344046E-4  -2.099197823554277E-3  
 2.728000000000000E10   -1.452008145861328E-3  -7.183236302807927E-4  
 2.730000000000000E10    1.089918878278695E-4   1.584089593961835E-3  
 2.732000000000000E10    1.744044595398009E-3  -4.385279607959092E-4  
 2.734000000000000E10   -1.854478759923950E-4  -1.692616613581777E-3  
 2.736000000000000E10   -1.147912931628525E-3   5.516576347872615E-4  
 2.738000000000000E10    7.261066348291934E-4   1.229337765835226E-3  
 2.740000000000000E10    1.068131765350699E-3  -8.595948456786573E-4  
 2.742000000000000E10   -1.196268131025136E-3  -7.539115613326430E-4  
 2.744000000000000E10   -8.790491847321391E-4   8.884321432560682E-4  
 2.746000000000000E10    1.538707641884685E-3   9.834561496973038E-4  
 2.748000000000000E10    6.399183184839785E-4  -1.276345574297011E-3  
 2.750000000000000E10   -1.311163534410298E-3  -4.665595188271254E-4  
 2.752000000000000E10   -1.862604549387470E-4   1.943847048096359E-3  
 2.754000000000000E10    1.750232069753110E-3  -1.396592124365270E-4  
 2.756000000000000E10   -3.225576801924035E-5  -1.393237733282149E-3  
