#  HZ   S   RI   R     50.00 
! Rohde & Schwarz ZVA40 4Ports - Version 3.90 - 1145.1110k42 SN: 100403
! Date: 2023-10-04 07:34:11
! Measurement: S12 
! 
 2.200000000000000E10    2.930017188191414E-3  -4.386458545923233E-3  
 2.202000000000000E10   -4.262033849954605E-3  -2.319398336112499E-3  
 2.204000000000000E10   -1.655524945817888E-3   4.340169019997120E-3  
 2.206000000000000E10    4.602408036589623E-3   3.740817483048886E-4  
 2.208000000000000E10    4.554644983727485E-4  -4.899893887341023E-3  
 2.210000000000000E10   -4.658029414713383E-3   3.438905696384609E-4  
 2.212000000000000E10    5.103839212097228E-4   4.928398877382278E-3  
 2.214000000000000E10    5.024849902838469E-3  -1.086233067326248E-3  
 2.216000000000000E10   -1.310696359723806E-3  -5.122669972479343E-3  
 2.218000000000000E10   -5.117634311318398E-3   2.337004989385605E-3  
 2.220000000000000E10    2.442503813654184E-3   4.881768021732569E-3  
 2.222000000000000E10    4.232004284858704E-3  -3.665340133011341E-3  
 2.224000000000000E10   -3.769607748836279E-3  -3.768495749682188E-3  
 2.226000000000000E10   -2.857627347111702E-3   4.311967641115189E-3  
 2.228000000000000E10    3.858887823298574E-3   2.775721950456500E-3  
 2.230000000000000E10    2.516516717150807E-3  -3.973310347646475E-3  
 2.232000000000000E10   -4.595018923282623E-3  -2.223817631602287E-3  
 2.234000000000000E10   -1.387090887874365E-3   5.333132110536099E-3  
 2.236000000000000E10    4.869087133556604E-3   8.616219274699688E-4  
 2.238000000000000E10    1.650589401833713E-4  -4.469322506338358E-3  
 2.240000000000000E10   -5.228807218372822E-3   1.324793673120439E-3  
 2.242000000000000E10    1.457784092053771E-3   4.864893388003111E-3  
 2.244000000000000E10    3.976592794060707E-3  -1.872625667601824E-3  
 2.246000000000000E10   -2.724047983065248E-3  -3.768230322748423E-3  
 2.248000000000000E10   -3.728465642780066E-3   3.313528141006827E-3  
 2.250000000000000E10    3.223278559744358E-3   4.089183174073696E-3  
 2.252000000000000E10    3.397926455363631E-3  -3.883268684148789E-3  
 2.254000000000000E10   -4.356988705694675E-3  -2.982410369440913E-3  
 2.256000000000000E10   -2.286765957251191E-3   4.901712760329247E-3  
 2.258000000000000E10    4.447161220014095E-3   1.873959205113351E-3  
 2.260000000000000E10    1.443533226847649E-3  -4.388715606182814E-3  
 2.262000000000000E10   -4.436106886714697E-3  -1.073023537173867E-3  
 2.264000000000000E10   -8.424969855695963E-4   4.615836311131716E-3  
 2.266000000000000E10    4.660231992602348E-3   5.045555299147964E-4  
 2.268000000000000E10    2.630791568662971E-4  -4.843786358833313E-3  
 2.270000000000000E10   -5.102943163365126E-3   2.460851392243058E-4  
 2.272000000000000E10    1.208911882713437E-3   4.563456866890192E-3  
 2.274000000000000E10    4.260293208062649E-3  -1.844951417297125E-3  
 2.276000000000000E10   -2.445380669087172E-3  -4.199645947664976E-3  
 2.278000000000000E10   -2.955291653051972E-3   2.132659079506993E-3  
 2.280000000000000E10    3.023572731763125E-3   3.237441880628467E-3  
 2.282000000000000E10    4.072009585797787E-3  -1.005138386972249E-3  
 2.284000000000000E10   -3.571785753592849E-3  -3.036033362150192E-3  
 2.286000000000000E10   -1.835788600146771E-3   3.857862437143922E-3  
 2.288000000000000E10    4.714756738394499E-3   1.320815994404256E-3  
 2.290000000000000E10    1.337110064923763E-3  -4.523891955614090E-3  
 2.292000000000000E10   -4.808874800801277E-3  -2.073796495096758E-4  
 2.294000000000000E10    5.902429256821051E-5   4.367751535028219E-3  
 2.296000000000000E10    4.379242192953825E-3  -2.292539720656350E-4  
 2.298000000000000E10   -4.371126706246287E-4  -4.367287270724773E-3  
 2.300000000000000E10   -4.827599041163921E-3   1.356616703560576E-4  
 2.302000000000000E10    1.296921283937991E-3   4.828219767659903E-3  
 2.304000000000000E10    4.837215878069401E-3  -2.043277956545353E-3  
 2.306000000000000E10   -2.514356514438987E-3  -4.453697241842747E-3  
 2.308000000000000E10   -3.689939854666591E-3   3.188415896147490E-3  
 2.310000000000000E10    2.824033144861460E-3   3.304416080936790E-3  
 2.312000000000000E10    3.034737659618259E-3  -3.104929346591234E-3  
 2.314000000000000E10   -3.367654513567686E-3  -2.072096103802323E-3  
 2.316000000000000E10   -2.737469738349319E-3   3.503524931147695E-3  
 2.318000000000000E10    4.351781215518713E-3   1.899476628750563E-3  
 2.320000000000000E10    8.675503195263445E-4  -3.935615066438913E-3  
 2.322000000000000E10   -4.921469371765852E-3  -4.986849962733686E-4  
 2.324000000000000E10    5.484425346367061E-4   4.423300735652447E-3  
 2.326000000000000E10    4.708474036306143E-3  -1.294122659601271E-3  
 2.328000000000000E10   -1.901557901874185E-3  -4.106770269572735E-3  
 2.330000000000000E10   -4.145768005400896E-3   2.226381329819560E-3  
 2.332000000000000E10    2.155054593458772E-3   4.017073661088944E-3  
 2.334000000000000E10    4.137295763939619E-3  -3.394925734028220E-3  
 2.336000000000000E10   -3.382556140422821E-3  -3.739553270861507E-3  
 2.338000000000000E10   -3.926811274141073E-3   4.031601827591658E-3  
 2.340000000000000E10    4.620603285729885E-3   3.249950939789414E-3  
 2.342000000000000E10    3.103102790191770E-3  -4.746432416141033E-3  
 2.344000000000000E10   -5.131908692419529E-3  -2.044373657554388E-3  
 2.346000000000000E10   -1.414188533090055E-3   4.966876003891230E-3  
 2.348000000000000E10    5.055145360529423E-3   1.139958971180022E-3  
 2.350000000000000E10    5.342453951016069E-4  -5.421510897576809E-3  
 2.352000000000000E10   -4.974099807441235E-3   1.490140857640654E-4  
 2.354000000000000E10    7.855283911339939E-4   5.122193135321140E-3  
 2.356000000000000E10    4.799202084541321E-3  -2.449760679155588E-3  
 2.358000000000000E10   -2.504760865122080E-3  -4.961436148732901E-3  
 2.360000000000000E10   -3.892583772540093E-3   3.247468033805490E-3  
 2.362000000000000E10    3.906317520886660E-3   2.819345798343420E-3  
 2.364000000000000E10    2.892577555030584E-3  -4.512980580329895E-3  
 2.366000000000000E10   -4.983007907867432E-3  -2.259365748614073E-3  
 2.368000000000000E10   -1.988968579098582E-3   5.169217009097338E-3  
 2.370000000000000E10    6.043455563485622E-3   7.223283755593002E-4  
 2.372000000000000E10    4.870614793617278E-5  -6.472957786172628E-3  
 2.374000000000000E10   -6.333045195788145E-3   4.435880400706083E-4  
 2.376000000000000E10    1.593278837390244E-3   5.814949981868267E-3  
 2.378000000000000E10    5.618013907223940E-3  -2.420745324343443E-3  
 2.380000000000000E10   -2.659940393641591E-3  -5.746569018810988E-3  
 2.382000000000000E10   -5.074096377938986E-3   2.990374807268381E-3  
 2.384000000000000E10    3.433341858908534E-3   4.857174586504698E-3  
 2.386000000000000E10    4.451867658644915E-3  -4.387326538562775E-3  
 2.388000000000000E10   -5.197923630475998E-3  -4.264092072844505E-3  
 2.390000000000000E10   -3.204775508493185E-3   5.187730770558119E-3  
 2.392000000000000E10    5.440682638436556E-3   2.181683667004108E-3  
 2.394000000000000E10    1.275248941965401E-3  -5.718570202589035E-3  
 2.396000000000000E10   -5.857768002897501E-3  -2.309146948391572E-4  
 2.398000000000000E10    6.423746235668659E-4   5.801097955554724E-3  
 2.400000000000000E10    5.163735710084438E-3  -2.135590184479952E-3  
 2.402000000000000E10   -3.273732028901577E-3  -4.031382966786623E-3  
 2.404000000000000E10   -3.605308709666133E-3   3.975123632699251E-3  
 2.406000000000000E10    3.988682758063078E-3   3.217812161892653E-3  
 2.408000000000000E10    2.558611100539565E-3  -4.329194314777851E-3  
 2.410000000000000E10   -4.668179433792830E-3  -2.111149486154318E-3  
 2.412000000000000E10   -1.974367536604404E-3   5.159816704690456E-3  
 2.414000000000000E10    5.314185284078121E-3   1.568590872921050E-3  
 2.416000000000000E10    7.664395379833877E-4  -5.005314480513334E-3  
 2.418000000000000E10   -5.317287985235453E-3  -4.502422816585749E-4  
 2.420000000000000E10    2.188196776842233E-5   5.719058215618134E-3  
 2.422000000000000E10    5.048501770943403E-3  -5.526309832930565E-4  
 2.424000000000000E10   -1.185706933028996E-3  -4.844560287892819E-3  
 2.426000000000000E10   -4.516138229519129E-3   2.166451886296272E-3  
 2.428000000000000E10    2.424583770334721E-3   4.070818889886141E-3  
 2.430000000000000E10    3.603161778301001E-3  -2.599452389404178E-3  
 2.432000000000000E10   -2.663790481165052E-3  -2.499158727005124E-3  
 2.434000000000000E10   -2.105490071699023E-3   3.520121565088630E-3  
 2.436000000000000E10    3.892924170941114E-3   1.936070621013641E-3  
 2.438000000000000E10    1.195203862152994E-3  -3.758990438655019E-3  
 2.440000000000000E10   -4.175571259111166E-3  -8.093992364592850E-4  
 2.442000000000000E10    4.103948595002294E-5   4.297428298741579E-3  
 2.444000000000000E10    4.511959385126829E-3  -7.041211356408894E-4  
 2.446000000000000E10   -7.739033317193389E-4  -4.425326827913523E-3  
 2.448000000000000E10   -4.058907274156809E-3   9.977542795240879E-4  
 2.450000000000000E10    1.777881174348295E-3   4.184045828878880E-3  
 2.452000000000000E10    4.151639062911272E-3  -2.153366804122925E-3  
 2.454000000000000E10   -2.196622081100941E-3  -3.344300901517272E-3  
 2.456000000000000E10   -3.189412876963615E-3   2.478558104485273E-3  
 2.458000000000000E10    2.688449341803789E-3   3.102027112618089E-3  
 2.460000000000000E10    2.040729159489274E-3  -3.153284080326557E-3  
 2.462000000000000E10   -2.930669346824288E-3  -1.749371527694166E-3  
 2.464000000000000E10   -1.160354120656848E-3   2.914968645200133E-3  
 2.466000000000000E10    3.375391010195017E-3   8.424087427556515E-4  
 2.468000000000000E10    7.562024984508753E-4  -3.117000218480825E-3  
 2.470000000000000E10   -2.752300817519426E-3   1.236659154528752E-4  
 2.472000000000000E10    4.913881421089172E-4   2.850432647392154E-3  
 2.474000000000000E10    3.068680176511407E-3  -6.259653600864112E-4  
 2.476000000000000E10   -1.246759667992592E-3  -2.696899930015206E-3  
 2.478000000000000E10   -3.016570350155234E-3   1.796790747903287E-3  
 2.480000000000000E10    2.428266219794750E-3   2.522453898563981E-3  
 2.482000000000000E10    1.989304320886731E-3  -2.813852624967694E-3  
 2.484000000000000E10   -3.122322261333466E-3  -1.870285253971815E-3  
 2.486000000000000E10   -1.203473773784936E-3   2.968430286273360E-3  
 2.488000000000000E10    3.469537245109677E-3   8.857919601723552E-4  
 2.490000000000000E10    9.973070118576288E-4  -3.174725221469998E-3  
 2.492000000000000E10   -3.062651725485921E-3  -4.323704633861780E-4  
 2.494000000000000E10   -2.631326788105071E-4   3.524671541526914E-3  
 2.496000000000000E10    3.334685927256942E-3  -1.245664898306131E-4  
 2.498000000000000E10   -1.745759655022994E-4  -2.350738039240241E-3  
 2.500000000000000E10   -2.736652968451381E-3   6.022112793289125E-4  
 2.502000000000000E10    9.326040162704885E-4   2.426868770271540E-3  
 2.504000000000000E10    2.345535205677152E-3  -1.045341836288571E-3  
 2.506000000000000E10   -1.109193312004209E-3  -1.969200558960438E-3  
 2.508000000000000E10   -1.393205951899290E-3   1.291108783334494E-3  
 2.510000000000000E10    2.024332294240594E-3   1.074792118743062E-3  
 2.512000000000000E10    8.144265157170594E-4  -2.054161392152309E-3  
 2.514000000000000E10   -1.793288858607411E-3  -5.971203208900988E-4  
 2.516000000000000E10   -5.316752140060999E-5   2.034433651715517E-3  
 2.518000000000000E10    2.245527924969792E-3  -6.898909341543913E-4  
 2.520000000000000E10   -6.946728099137545E-4  -2.460464136675000E-3  
 2.522000000000000E10   -2.494253451004624E-3   6.105932407081127E-4  
 2.524000000000000E10    1.175595913082361E-3   1.836613635532558E-3  
 2.526000000000000E10    2.100243000313640E-3  -1.688190735876560E-3  
 2.528000000000000E10   -1.558843767270446E-3  -2.240845235064626E-3  
 2.530000000000000E10   -2.100162440910935E-3   1.416870974935591E-3  
 2.532000000000000E10    1.940926653333008E-3   1.826554420404136E-3  
 2.534000000000000E10    1.526638050563633E-3  -2.144264290109277E-3  
 2.536000000000000E10   -1.974751008674502E-3  -1.524820108897984E-3  
 2.538000000000000E10   -9.680306538939476E-4   1.853684894740582E-3  
 2.540000000000000E10    1.639205031096935E-3   3.287691506557167E-4  
 2.542000000000000E10    1.296529226237908E-4  -2.396968659013510E-3  
 2.544000000000000E10   -2.264694543555379E-3   8.683263331477065E-6  
 2.546000000000000E10    1.934209103637841E-5   1.630118349567056E-3  
 2.548000000000000E10    1.694795791991055E-3  -9.711785824038088E-4  
 2.550000000000000E10   -1.349198166280985E-3  -1.836304902099073E-3  
 2.552000000000000E10   -1.691140700131655E-3   9.725417476147413E-4  
 2.554000000000000E10    1.394104911014438E-3   1.124678296037018E-3  
 2.556000000000000E10    5.729609983973205E-4  -1.943167182616890E-3  
 2.558000000000000E10   -2.071521244943142E-3  -8.885388378985226E-4  
 2.560000000000000E10   -5.784873501397669E-4   2.455425215885043E-3  
 2.562000000000000E10    2.021929016336799E-3   2.856597711797804E-4  
 2.564000000000000E10   -3.479067236185074E-4  -2.536992775276303E-3  
 2.566000000000000E10   -2.742262789979577E-3   8.284603245556355E-4  
 2.568000000000000E10    5.393365863710642E-4   2.413343172520399E-3  
 2.570000000000000E10    2.112326910719276E-3  -1.137261162512004E-3  
 2.572000000000000E10   -1.740216976031661E-3  -1.881682313978672E-3  
 2.574000000000000E10   -2.013308694586158E-3   1.573706278577447E-3  
 2.576000000000000E10    2.110267290845513E-3   1.564331469126046E-3  
 2.578000000000000E10    1.042355084791780E-3  -1.938656670972705E-3  
 2.580000000000000E10   -2.129990607500076E-3  -8.716408046893776E-4  
 2.582000000000000E10   -4.540451627690345E-4   2.147077815607190E-3  
 2.584000000000000E10    2.099515404552221E-3   9.175779414363205E-4  
 2.586000000000000E10   -2.018880331888795E-4  -2.370883012190461E-3  
 2.588000000000000E10   -2.307513961568475E-3   9.531324030831456E-4  
 2.590000000000000E10    5.479123792611063E-4   2.106543164700270E-3  
 2.592000000000000E10    2.085853135213256E-3  -1.527987886220217E-3  
 2.594000000000000E10   -1.553026726469398E-3  -1.596524845808744E-3  
 2.596000000000000E10   -1.599996467120946E-3   1.534706330858171E-3  
 2.598000000000000E10    2.555906772613525E-3   1.116740866564214E-3  
 2.600000000000000E10    1.094815088436008E-3  -2.110739238560200E-3  
 2.602000000000000E10   -2.545543015003204E-3  -4.511432198341936E-4  
 2.604000000000000E10    1.424128713551909E-4   2.553295111283660E-3  
 2.606000000000000E10    2.392218913882971E-3  -2.761486030067317E-5  
 2.608000000000000E10   -4.127788706682622E-4  -2.708972897380590E-3  
 2.610000000000000E10   -2.538664964959025E-3   8.205659105442464E-4  
 2.612000000000000E10    1.163401175290346E-3   2.672466449439526E-3  
 2.614000000000000E10    2.384237479418516E-3  -1.569168409332633E-3  
 2.616000000000000E10   -1.494298572652042E-3  -2.029428025707603E-3  
 2.618000000000000E10   -1.893968670628965E-3   2.223773160949349E-3  
 2.620000000000000E10    2.832262776792049E-3   1.606454839929938E-3  
 2.622000000000000E10    1.325641176663339E-3  -2.448833314701915E-3  
 2.624000000000000E10   -2.671959809958935E-3  -5.508355097845197E-4  
 2.626000000000000E10   -2.415839553577825E-4   2.343547763302922E-3  
 2.628000000000000E10    3.270549001172185E-3   2.912449417635799E-4  
 2.630000000000000E10   -6.245176773518324E-4  -2.825119998306036E-3  
 2.632000000000000E10   -2.562263514846563E-3   1.048800651915371E-3  
 2.634000000000000E10    1.734967343509197E-3   2.362715080380440E-3  
 2.636000000000000E10    2.193359192460775E-3  -1.860502990894020E-3  
 2.638000000000000E10   -1.842170371674001E-3  -2.026936039328575E-3  
 2.640000000000000E10   -1.489495742134750E-3   2.363529289141297E-3  
 2.642000000000000E10    2.499760594218969E-3   9.207518887706101E-4  
 2.644000000000000E10    1.195239950902760E-3  -2.687447471544147E-3  
 2.646000000000000E10   -2.875078003853560E-3  -2.086770837195218E-4  
 2.648000000000000E10    3.899803559761494E-4   2.842814428731799E-3  
 2.650000000000000E10    3.294912399724126E-3  -3.886361664626747E-4  
 2.652000000000000E10   -1.013369066640735E-3  -2.941665938124061E-3  
 2.654000000000000E10   -2.564559923484922E-3   1.375783816911280E-3  
 2.656000000000000E10    2.009696094319224E-3   2.732776338234544E-3  
 2.658000000000000E10    1.986735267564654E-3  -2.043268410488963E-3  
 2.660000000000000E10   -2.552294870838523E-3  -2.096866490319371E-3  
 2.662000000000000E10   -1.421033870428801E-3   2.705877181142569E-3  
 2.664000000000000E10    2.691873814910650E-3   3.674439212772995E-4  
 2.666000000000000E10    2.515060186851770E-4  -2.903576008975506E-3  
 2.668000000000000E10   -2.506723394617438E-3  -1.111409437726252E-4  
 2.670000000000000E10    2.966581087093800E-4   2.571571385487914E-3  
 2.672000000000000E10    2.607134403660893E-3  -4.808664089068770E-4  
 2.674000000000000E10   -9.500721935182810E-4  -2.519056899473071E-3  
 2.676000000000000E10   -2.646500477567315E-3   1.166205154731870E-3  
 2.678000000000000E10    1.536214724183083E-3   2.453307854011655E-3  
 2.680000000000000E10    1.711450284346938E-3  -1.870532985776663E-3  
 2.682000000000000E10   -2.392006106674671E-3  -2.080936450511217E-3  
 2.684000000000000E10   -1.262225094251335E-3   2.209598664194346E-3  
 2.686000000000000E10    2.281632507219911E-3   7.864862564019859E-4  
 2.688000000000000E10    5.981626454740763E-4  -2.209741622209549E-3  
 2.690000000000000E10   -2.257209504023194E-3  -2.904895518440753E-4  
 2.692000000000000E10    4.275191749911755E-4   2.702884608879685E-3  
 2.694000000000000E10    2.318515442311764E-3  -5.458293599076569E-4  
 2.696000000000000E10   -1.170030562207103E-3  -2.104629762470722E-3  
 2.698000000000000E10   -2.312111435458064E-3   9.496948332525790E-4  
 2.700000000000000E10    1.229348825290799E-3   1.987343421205878E-3  
 2.702000000000000E10    1.768968533724546E-3  -1.578198745846748E-3  
 2.704000000000000E10   -1.398959662765265E-3  -1.551264780573547E-3  
 2.706000000000000E10   -9.020399302244186E-4   1.576514099724591E-3  
 2.708000000000000E10    2.253740560263395E-3   1.059874775819480E-3  
 2.710000000000000E10    1.097711618058384E-3  -1.591995940543711E-3  
 2.712000000000000E10   -2.182733034715056E-3  -4.524747491814196E-4  
 2.714000000000000E10   -4.743223544210196E-4   2.096050418913364E-3  
 2.716000000000000E10    2.060715109109879E-3   4.596348153427243E-4  
 2.718000000000000E10   -1.676379724813160E-6  -1.843996462412179E-3  
 2.720000000000000E10   -1.864361693151295E-3  -3.857437113765627E-4  
 2.722000000000000E10    3.693817416206002E-4   2.124323975294828E-3  
 2.724000000000000E10    1.884789438918233E-3  -3.475745616015047E-4  
 2.726000000000000E10   -6.273517501540482E-4  -1.829123473726213E-3  
 2.728000000000000E10   -1.135684316977859E-3   1.120088505558670E-3  
 2.730000000000000E10    1.054199645295739E-3   1.755031058564782E-3  
 2.732000000000000E10    1.338160596787930E-3  -1.284751808270812E-3  
 2.734000000000000E10   -1.598274102434516E-3  -7.602009573020041E-4  
 2.736000000000000E10   -9.818251710385084E-4   1.371856196783483E-3  
 2.738000000000000E10    1.904976787045598E-3   6.082340260036290E-4  
 2.740000000000000E10    2.948020992334932E-4  -1.938325935043395E-3  
 2.742000000000000E10   -2.038849052041769E-3  -3.718657535500825E-5  
 2.744000000000000E10    3.339686954859644E-4   2.092566806823015E-3  
 2.746000000000000E10    2.111315960064530E-3  -4.114414041396231E-4  
 2.748000000000000E10   -6.296889623627067E-4  -1.914232270792127E-3  
 2.750000000000000E10   -1.695552607998252E-3   1.107532181777060E-3  
 2.752000000000000E10    7.993256440386176E-4   1.982481684535742E-3  
 2.754000000000000E10    1.657142536714673E-3  -1.448643044568598E-3  
 2.756000000000000E10   -1.277017872780561E-3  -1.344403834082186E-3  
