#  HZ   S   RI   R     50.00 
! Rohde & Schwarz ZVA40 4Ports - Version 3.90 - 1145.1110k42 SN: 100403
! Date: 2023-10-04 07:34:32
! Measurement: S12 
! 
 2.200000000000000E10   -5.937185487709940E-4  -4.855149425566196E-3  
 2.202000000000000E10   -4.550688900053501E-3   1.185205532237887E-3  
 2.204000000000000E10    1.757154124788940E-3   4.501046612858772E-3  
 2.206000000000000E10    4.434180911630392E-3  -2.179738366976380E-3  
 2.208000000000000E10   -2.430408028885722E-3  -3.904176177456975E-3  
 2.210000000000000E10   -3.676837077364326E-3   2.733674598857760E-3  
 2.212000000000000E10    3.085031872615218E-3   3.461337881162763E-3  
 2.214000000000000E10    2.980526071041822E-3  -3.399194451048970E-3  
 2.216000000000000E10   -3.373801009729505E-3  -2.593614161014557E-3  
 2.218000000000000E10   -2.100795740261674E-3   4.093410912901163E-3  
 2.220000000000000E10    3.975532017648220E-3   1.733089098706842E-3  
 2.222000000000000E10    6.137781892903149E-4  -4.529664292931557E-3  
 2.224000000000000E10   -4.061734769493341E-3  -6.867119809612632E-4  
 2.226000000000000E10    6.845575990155339E-4   3.534049727022648E-3  
 2.228000000000000E10    3.553064772859216E-3  -8.361296495422721E-4  
 2.230000000000000E10   -1.156533136963844E-3  -3.839033655822277E-3  
 2.232000000000000E10   -3.923127427697182E-3   1.380578498356044E-3  
 2.234000000000000E10    2.434350084513426E-3   3.343053162097931E-3  
 2.236000000000000E10    3.067646641284227E-3  -2.549394732341170E-3  
 2.238000000000000E10   -3.422873327508569E-3  -3.560482058674097E-3  
 2.240000000000000E10   -3.077407134696841E-3   3.719408297911286E-3  
 2.242000000000000E10    3.671636106446385E-3   1.987535972148180E-3  
 2.244000000000000E10    1.536536496132612E-3  -4.267780575901270E-3  
 2.246000000000000E10   -4.102803301066160E-3  -1.932772574946284E-3  
 2.248000000000000E10   -1.633023959584534E-3   3.744434565305710E-3  
 2.250000000000000E10    3.926197532564402E-3   7.410265970975161E-4  
 2.252000000000000E10    4.072457959409803E-4  -4.139047116041184E-3  
 2.254000000000000E10   -4.076821729540825E-3  -4.738366988021880E-4  
 2.256000000000000E10    3.625233075581491E-4   3.553093876689673E-3  
 2.258000000000000E10    3.138433210551739E-3  -1.048052916303277E-3  
 2.260000000000000E10   -1.139555941335857E-3  -3.370065242052078E-3  
 2.262000000000000E10   -2.910215640440583E-3   1.331018982455134E-3  
 2.264000000000000E10    1.562044257298112E-3   2.800331218168140E-3  
 2.266000000000000E10    3.091924358159304E-3  -1.997086917981505E-3  
 2.268000000000000E10   -2.760162344202399E-3  -2.751732012256980E-3  
 2.270000000000000E10   -2.227722667157650E-3   3.195799654349685E-3  
 2.272000000000000E10    3.713851328939199E-3   2.054712502285838E-3  
 2.274000000000000E10    1.295482856221497E-3  -3.509574104100466E-3  
 2.276000000000000E10   -3.799653146415949E-3  -1.057426095940173E-3  
 2.278000000000000E10   -6.247342680580914E-4   3.583108540624380E-3  
 2.280000000000000E10    3.908833488821983E-3   4.989848239347339E-4  
 2.282000000000000E10    2.545921830460429E-3  -2.696102950721979E-3  
 2.284000000000000E10   -3.811015747487545E-3   1.045782773871906E-4  
 2.286000000000000E10    1.273158559342846E-4   4.160021897405386E-3  
 2.288000000000000E10    4.405803978443146E-3  -7.918814662843943E-4  
 2.290000000000000E10   -7.841287297196686E-4  -3.101022448390722E-3  
 2.292000000000000E10   -3.714226419106126E-3   1.952492981217802E-3  
 2.294000000000000E10    1.472037052735686E-3   2.988144988194108E-3  
 2.296000000000000E10    2.386519452556968E-3  -1.530571258626878E-3  
 2.298000000000000E10   -1.650246442295611E-3  -2.825020812451839E-3  
 2.300000000000000E10   -2.482205163687468E-3   2.447804203256965E-3  
 2.302000000000000E10    2.856044331565499E-3   2.217747271060944E-3  
 2.304000000000000E10    1.770297763869166E-3  -3.278126474469900E-3  
 2.306000000000000E10   -3.194655524566770E-3  -1.028130296617746E-3  
 2.308000000000000E10   -6.220350041985512E-4   3.568962914869189E-3  
 2.310000000000000E10    3.417600877583027E-3  -2.566562325228006E-4  
 2.312000000000000E10   -2.062978310277686E-4  -3.415411803871393E-3  
 2.314000000000000E10   -3.662812989205122E-3   7.413632702082396E-4  
 2.316000000000000E10    5.950639024376869E-4   3.511187853291631E-3  
 2.318000000000000E10    4.024113994091749E-3  -1.556336297653616E-3  
 2.320000000000000E10   -2.238393761217594E-3  -3.684463910758495E-3  
 2.322000000000000E10   -4.025919828563929E-3   2.264081500470638E-3  
 2.324000000000000E10    2.667705528438091E-3   3.262971295043826E-3  
 2.326000000000000E10    2.794547472149134E-3  -3.171179909259081E-3  
 2.328000000000000E10   -3.118282649666071E-3  -2.596580889075995E-3  
 2.330000000000000E10   -2.714855596423149E-3   3.421204164624214E-3  
 2.332000000000000E10    3.033816581591964E-3   2.458830131217837E-3  
 2.334000000000000E10    2.198463073000312E-3  -3.735285950824618E-3  
 2.336000000000000E10   -4.000937566161156E-3  -1.399207627400756E-3  
 2.338000000000000E10   -1.360291731543839E-3   4.170109052211046E-3  
 2.340000000000000E10    4.640934988856316E-3   2.348082780372351E-4  
 2.342000000000000E10   -6.689813453704119E-4  -4.322785884141922E-3  
 2.344000000000000E10   -3.993920050561428E-3   1.017647678963840E-3  
 2.346000000000000E10    1.874583424068987E-3   3.748857881873846E-3  
 2.348000000000000E10    2.969241468235850E-3  -2.193684224039316E-3  
 2.350000000000000E10   -2.652311464771628E-3  -3.363986499607563E-3  
 2.352000000000000E10   -2.851430093869567E-3   3.660857444629073E-3  
 2.354000000000000E10    4.277127329260111E-3   2.821913454681635E-3  
 2.356000000000000E10    2.045020693913102E-3  -4.789382684975863E-3  
 2.358000000000000E10   -4.785448312759399E-3  -9.410886559635401E-4  
 2.360000000000000E10   -7.049180567264557E-4   5.407410673797131E-3  
 2.362000000000000E10    5.463930778205395E-3   3.066495992243290E-5  
 2.364000000000000E10   -5.499174585565925E-4  -4.842325113713741E-3  
 2.366000000000000E10   -5.667585413902998E-3   1.193374628201127E-3  
 2.368000000000000E10    1.411830424331129E-3   5.438091233372688E-3  
 2.370000000000000E10    5.701112560927868E-3  -2.365562831982970E-3  
 2.372000000000000E10   -2.641674131155014E-3  -4.966302774846554E-3  
 2.374000000000000E10   -4.016683436930180E-3   3.886888734996319E-3  
 2.376000000000000E10    3.939684014767408E-3   3.416836960241199E-3  
 2.378000000000000E10    2.510883146896958E-3  -3.805815940722823E-3  
 2.380000000000000E10   -3.966718912124634E-3  -1.772428280673921E-3  
 2.382000000000000E10   -1.025451696477830E-3   4.293004516512156E-3  
 2.384000000000000E10    4.507757723331451E-3   7.258947589434683E-4  
 2.386000000000000E10    5.059510658611544E-5  -4.495841916650534E-3  
 2.388000000000000E10   -4.436892457306385E-3   1.293990993872285E-3  
 2.390000000000000E10    2.519983332604170E-3   4.313656594604254E-3  
 2.392000000000000E10    4.054581280797720E-3  -2.772671403363347E-3  
 2.394000000000000E10   -3.118221880868077E-3  -3.618970513343811E-3  
 2.396000000000000E10   -3.103539347648621E-3   3.925465978682041E-3  
 2.398000000000000E10    4.542203620076180E-3   2.517263405025005E-3  
 2.400000000000000E10    2.340000588446856E-3  -4.731005057692528E-3  
 2.402000000000000E10   -5.075976718217135E-3  -8.940367843024433E-4  
 2.404000000000000E10   -1.545144914416596E-5   4.731896333396435E-3  
 2.406000000000000E10    4.847099073231220E-3  -6.892044330015779E-4  
 2.408000000000000E10   -4.699345736298710E-4  -4.541945178061724E-3  
 2.410000000000000E10   -4.300007130950689E-3   6.942581385374069E-4  
 2.412000000000000E10    1.441786997020245E-3   3.836296033114195E-3  
 2.414000000000000E10    3.325931727886200E-3  -1.855177688412368E-3  
 2.416000000000000E10   -2.134256530553103E-3  -3.731078701093793E-3  
 2.418000000000000E10   -2.895078388974071E-3   2.124969847500324E-3  
 2.420000000000000E10    2.354596275836229E-3   2.547304145991802E-3  
 2.422000000000000E10    2.160412957891822E-3  -3.143014386296272E-3  
 2.424000000000000E10   -3.255158197134733E-3  -1.764870947226882E-3  
 2.426000000000000E10   -1.034987159073353E-3   3.608701983466744E-3  
 2.428000000000000E10    3.815212985500693E-3  -1.076721091521904E-4  
 2.430000000000000E10   -5.761961801908910E-4  -2.994297305122018E-3  
 2.432000000000000E10   -3.719792701303959E-3   6.343404529616237E-4  
 2.434000000000000E10    1.261040451936424E-3   3.220712300390005E-3  
 2.436000000000000E10    3.147316630929709E-3  -1.575193600729108E-3  
 2.438000000000000E10   -2.127724001184106E-3  -2.935946220532060E-3  
 2.440000000000000E10   -2.648532390594482E-3   1.835539587773383E-3  
 2.442000000000000E10    2.384252613410354E-3   2.529532648622990E-3  
 2.444000000000000E10    1.849111169576645E-3  -2.444104757159948E-3  
 2.446000000000000E10   -2.694985596463084E-3  -1.759287435561419E-3  
 2.448000000000000E10   -1.549367443658412E-3   3.066628472879529E-3  
 2.450000000000000E10    2.130146371200681E-3   1.415856066159904E-3  
 2.452000000000000E10    5.398633074946702E-4  -2.542783273383975E-3  
 2.454000000000000E10   -2.837796928361058E-3  -9.444023453397676E-5  
 2.456000000000000E10   -1.010748092085123E-4   2.511226572096348E-3  
 2.458000000000000E10    2.245816634967923E-3  -3.411376674193889E-4  
 2.460000000000000E10   -9.996625594794750E-4  -1.857261057011783E-3  
 2.462000000000000E10   -1.625055796466768E-3   1.469763461500406E-3  
 2.464000000000000E10    1.387905911542475E-3   1.784697640687227E-3  
 2.466000000000000E10    1.426661619916558E-3  -1.440263236872852E-3  
 2.468000000000000E10   -2.058586804196239E-3  -1.265058992430568E-3  
 2.470000000000000E10   -1.231440925039351E-3   2.525094663724303E-3  
 2.472000000000000E10    2.207094104960561E-3   9.564707870595157E-4  
 2.474000000000000E10    7.034715381450951E-4  -2.139247022569180E-3  
 2.476000000000000E10   -2.601096406579018E-3  -8.184165344573557E-4  
 2.478000000000000E10   -6.443578167818487E-4   2.437283517792821E-3  
 2.480000000000000E10    2.709271153435111E-3   8.683485066285357E-5  
 2.482000000000000E10    2.306326059624553E-4  -2.592312172055244E-3  
 2.484000000000000E10   -2.160201780498028E-3   2.629893133416772E-4  
 2.486000000000000E10    5.130420904606581E-4   2.211112296208739E-3  
 2.488000000000000E10    1.647023833356798E-3  -8.873204933479428E-4  
 2.490000000000000E10   -8.520831470377743E-4  -1.622808631509543E-3  
 2.492000000000000E10   -1.756765064783394E-3   1.132483594119549E-3  
 2.494000000000000E10    6.197289912961423E-4   8.103026775643230E-4  
 2.496000000000000E10    5.645371857099235E-4  -1.714498735964298E-3  
 2.498000000000000E10   -1.776991412043572E-3  -5.295482696965337E-4  
 2.500000000000000E10   -3.237775235902518E-4   1.143710571341217E-3  
 2.502000000000000E10    1.864810939878225E-3  -4.864037327934057E-5  
 2.504000000000000E10   -5.045158322900534E-4  -1.678289962001145E-3  
 2.506000000000000E10   -1.995876664295793E-3   3.434817190282047E-4  
 2.508000000000000E10    7.840898470021784E-4   2.032600576058030E-3  
 2.510000000000000E10    1.703626243397594E-3  -8.639730513095856E-4  
 2.512000000000000E10   -1.497013843618333E-3  -1.864273799583316E-3  
 2.514000000000000E10   -1.872662920504808E-3   1.426332048140466E-3  
 2.516000000000000E10    1.566303079016507E-3   1.584145473316312E-3  
 2.518000000000000E10    1.633481355383992E-3  -1.802569720894098E-3  
 2.520000000000000E10   -1.554016256704927E-3  -9.656750480644405E-4  
 2.522000000000000E10   -8.824084652587771E-4   1.706766895949841E-3  
 2.524000000000000E10    2.030963776633143E-3   5.325266974978149E-4  
 2.526000000000000E10    3.556726151145995E-4  -1.273247064091265E-3  
 2.528000000000000E10   -1.625898061320186E-3  -1.422061905032024E-4  
 2.530000000000000E10    1.441885542590171E-4   1.602365751750767E-3  
 2.532000000000000E10    1.120464643463492E-3   4.473619810596574E-6  
 2.534000000000000E10   -6.081627216190100E-4  -1.104625873267651E-3  
 2.536000000000000E10   -9.727565920911729E-4   8.537448593415320E-4  
 2.538000000000000E10    1.137325307354331E-3   1.070832717232406E-3  
 2.540000000000000E10    5.122456350363791E-4  -1.620020135305822E-3  
 2.542000000000000E10   -1.507037086412311E-3  -1.558331423439086E-4  
 2.544000000000000E10   -1.088607386918739E-4   1.806036685593426E-3  
 2.546000000000000E10    2.155258785933256E-3  -4.584302587318234E-5  
 2.548000000000000E10   -2.926791057689115E-5  -1.776889432221651E-3  
 2.550000000000000E10   -1.781744416803122E-3   7.607301231473684E-4  
 2.552000000000000E10    9.957394795492292E-4   1.774803386069834E-3  
 2.554000000000000E10    2.279584528878331E-3  -8.815762121230364E-4  
 2.556000000000000E10   -1.135946367867291E-3  -1.633753301575780E-3  
 2.558000000000000E10   -1.251173671334982E-3   1.410694443620741E-3  
 2.560000000000000E10    1.400281675159931E-3   1.477838493883610E-3  
 2.562000000000000E10    1.237511751241982E-3  -1.768807414919138E-3  
 2.564000000000000E10   -1.580807729624212E-3  -7.677962421439588E-4  
 2.566000000000000E10   -2.656553988344967E-4   1.535681192763150E-3  
 2.568000000000000E10    2.087151398882270E-3  -5.184746987652034E-5  
 2.570000000000000E10   -8.692805567989126E-5  -1.581463846378028E-3  
 2.572000000000000E10   -1.235377159900963E-3   5.438062944449484E-4  
 2.574000000000000E10    8.955994853749871E-4   1.279583084397018E-3  
 2.576000000000000E10    1.651166123338044E-3  -8.655499550513923E-4  
 2.578000000000000E10   -1.225479878485203E-3  -1.294092740863562E-3  
 2.580000000000000E10   -8.850968442857266E-4   1.258937292732298E-3  
 2.582000000000000E10    1.608363818377256E-3   1.141775748692453E-3  
 2.584000000000000E10    7.143691764213145E-4  -2.052697585895658E-3  
 2.586000000000000E10   -1.851016888394952E-3  -5.186516791582108E-4  
 2.588000000000000E10   -2.337686746614054E-4   2.338606165722013E-3  
 2.590000000000000E10    2.174854977056384E-3  -2.236987202195451E-4  
 2.592000000000000E10   -2.413140755379573E-4  -2.172337844967842E-3  
 2.594000000000000E10   -2.382321748882532E-3   8.444408886134625E-4  
 2.596000000000000E10    1.033670036122203E-3   2.017033286392689E-3  
 2.598000000000000E10    2.392877824604511E-3  -1.300361822359264E-3  
 2.600000000000000E10   -1.966528128832579E-3  -1.857342896983028E-3  
 2.602000000000000E10   -1.743282424286008E-3   2.078749472275376E-3  
 2.604000000000000E10    2.250736346468329E-3   1.473479904234409E-3  
 2.606000000000000E10    8.805953548289836E-4  -2.182891825214028E-3  
 2.608000000000000E10   -2.655470045283437E-3  -7.385585922747850E-4  
 2.610000000000000E10   -4.522396775428206E-4   2.742015291005373E-3  
 2.612000000000000E10    2.455183072015643E-3   2.320465455341036E-6  
 2.614000000000000E10   -2.975606184918433E-4  -2.620694926008582E-3  
 2.616000000000000E10   -2.635314129292965E-3   7.804919732734561E-4  
 2.618000000000000E10    8.814228931441903E-4   2.245243173092604E-3  
 2.620000000000000E10    2.823550021275878E-3  -1.400144887156785E-3  
 2.622000000000000E10   -2.060130471363664E-3  -1.777520636096597E-3  
 2.624000000000000E10   -1.995253376662731E-3   1.943663228303194E-3  
 2.626000000000000E10    2.369531197473407E-3   1.488479436375201E-3  
 2.628000000000000E10    9.663802338764072E-4  -2.532758517190814E-3  
 2.630000000000000E10   -3.210401628166437E-3  -9.712695027701557E-4  
 2.632000000000000E10   -9.525472705718130E-5   3.106341930106282E-3  
 2.634000000000000E10    2.563016954809427E-3  -1.355168933514506E-4  
 2.636000000000000E10   -5.939915427006781E-4  -3.114650258794427E-3  
 2.638000000000000E10   -2.902689389884472E-3   8.533754735253751E-4  
 2.640000000000000E10    1.230425434187055E-3   2.612775890156627E-3  
 2.642000000000000E10    2.756520407274365E-3  -1.612046151421964E-3  
 2.644000000000000E10   -1.956438645720482E-3  -2.394224284216762E-3  
 2.646000000000000E10   -2.144180471077561E-3   2.702967263758183E-3  
 2.648000000000000E10    3.003573045134544E-3   1.838576048612595E-3  
 2.650000000000000E10    1.209824578836560E-3  -2.924504922702909E-3  
 2.652000000000000E10   -3.554588416591287E-3  -8.529546903446317E-4  
 2.654000000000000E10   -5.817575583932921E-5   3.097733482718468E-3  
 2.656000000000000E10    3.272243076935411E-3  -4.227607569191605E-4  
 2.658000000000000E10   -9.037413983605802E-4  -3.351897001266480E-3  
 2.660000000000000E10   -2.859251108020544E-3   1.081112073734403E-3  
 2.662000000000000E10    1.963348593562841E-3   2.652745926752687E-3  
 2.664000000000000E10    2.500197151675820E-3  -2.016151323914528E-3  
 2.666000000000000E10   -2.343830652534962E-3  -1.841730438172817E-3  
 2.668000000000000E10   -1.876482041552663E-3   2.499318914487958E-3  
 2.670000000000000E10    2.845778595656157E-3   1.552881556563079E-3  
 2.672000000000000E10    9.954305132851005E-4  -2.571424236521125E-3  
 2.674000000000000E10   -2.930054906755686E-3  -1.030233339406550E-3  
 2.676000000000000E10   -7.850651309126988E-5   2.877364167943597E-3  
 2.678000000000000E10    3.248221706598997E-3  -1.970468147192150E-4  
 2.680000000000000E10   -4.446545499376953E-4  -3.147832583636046E-3  
 2.682000000000000E10   -2.675929339602590E-3   9.042699821293354E-4  
 2.684000000000000E10    1.603334909304977E-3   2.613754943013191E-3  
 2.686000000000000E10    2.364434301853180E-3  -1.478109857998788E-3  
 2.688000000000000E10   -1.905101817101240E-3  -1.906747696921229E-3  
 2.690000000000000E10   -1.866082311607897E-3   2.358568133786321E-3  
 2.692000000000000E10    2.487433608621359E-3   1.508119748905301E-3  
 2.694000000000000E10    1.057365559972823E-3  -2.745712641626597E-3  
 2.696000000000000E10   -2.714994596317411E-3  -8.461183751933277E-4  
 2.698000000000000E10   -3.475303237792105E-4   2.698525786399841E-3  
 2.700000000000000E10    2.698779804632068E-3   2.398562210146338E-4  
 2.702000000000000E10   -6.589505937881768E-5  -2.763983793556690E-3  
 2.704000000000000E10   -2.583813155069947E-3   7.083737873472273E-4  
 2.706000000000000E10    5.122292786836624E-4   2.508006058633328E-3  
 2.708000000000000E10    1.947405631653965E-3  -9.610797278583050E-4  
 2.710000000000000E10   -1.122219720855355E-3  -1.712939119897783E-3  
 2.712000000000000E10   -2.224769210442901E-3   1.472095027565956E-3  
 2.714000000000000E10    1.299147610552609E-3   1.381982467137277E-3  
 2.716000000000000E10    1.172827440313995E-3  -1.490561291575432E-3  
 2.718000000000000E10   -2.080982783809304E-3  -1.126004150137305E-3  
 2.720000000000000E10   -7.621021941304207E-4   2.052482916042209E-3  
 2.722000000000000E10    2.268645912408829E-3   6.612973520532250E-4  
 2.724000000000000E10    6.576013402082026E-5  -2.269893651828170E-3  
 2.726000000000000E10   -2.304249443113804E-3  -2.944444167951588E-5  
 2.728000000000000E10    3.019029682036489E-4   2.375337528064847E-3  
 2.730000000000000E10    1.936913584358990E-3  -7.218890823423863E-4  
 2.732000000000000E10   -7.582274265587330E-4  -2.093598013743758E-3  
 2.734000000000000E10   -2.106990898028016E-3   8.228840888477862E-4  
 2.736000000000000E10    1.158371102064848E-3   1.694407314062119E-3  
 2.738000000000000E10    1.674608094617724E-3  -1.308968639932573E-3  
 2.740000000000000E10   -1.439875806681812E-3  -1.725035719573498E-3  
 2.742000000000000E10   -1.464917557314038E-3   1.211225870065391E-3  
 2.744000000000000E10    1.592837274074554E-3   1.482223626226187E-3  
 2.746000000000000E10    1.146856928244233E-3  -1.628841739147902E-3  
 2.748000000000000E10   -1.469529815949500E-3  -1.142590539529920E-3  
 2.750000000000000E10   -6.121832993812859E-4   1.976156607270241E-3  
 2.752000000000000E10    1.605027588084340E-3   5.000150413252413E-4  
 2.754000000000000E10    2.934153599198908E-4  -1.871483982540667E-3  
 2.756000000000000E10   -1.985694514587522E-3  -1.358993467874825E-4  
