#  HZ   S   RI   R     50.00 
! Rohde & Schwarz ZVA40 4Ports - Version 3.90 - 1145.1110k42 SN: 100403
! Date: 2023-10-04 07:35:15
! Measurement: S12 
! 
 2.200000000000000E10    1.844178303144872E-3  -3.505492117255926E-3  
 2.202000000000000E10   -3.255751682445407E-3  -1.785203116014600E-3  
 2.204000000000000E10   -1.128332922235131E-3   3.306426573544741E-3  
 2.206000000000000E10    3.591740969568491E-3   4.829611571040005E-4  
 2.208000000000000E10   -4.514007305260748E-4  -3.431613091379404E-3  
 2.210000000000000E10   -3.500644583255053E-3   6.533584091812372E-4  
 2.212000000000000E10    6.638000486418605E-4   3.232648363336921E-3  
 2.214000000000000E10    3.165896749123931E-3  -1.700176973827183E-3  
 2.216000000000000E10   -1.959587680175901E-3  -3.289455315098167E-3  
 2.218000000000000E10   -3.469181945547462E-3   2.533404855057597E-3  
 2.220000000000000E10    2.904134802520275E-3   3.324038581922650E-3  
 2.222000000000000E10    2.875260310247541E-3  -3.463316243141890E-3  
 2.224000000000000E10   -3.219465259462595E-3  -2.354285912588239E-3  
 2.226000000000000E10   -1.816620118916035E-3   3.932994790375233E-3  
 2.228000000000000E10    3.888210281729698E-3   2.007400151342154E-3  
 2.230000000000000E10    9.963152697309852E-4  -3.413805272430182E-3  
 2.232000000000000E10   -3.498119069263339E-3  -9.978009620681405E-4  
 2.234000000000000E10   -4.324217734392732E-4   4.106309264898300E-3  
 2.236000000000000E10    3.937234636396170E-3   5.026270519010723E-4  
 2.238000000000000E10   -1.026551544782706E-4  -3.600707976147533E-3  
 2.240000000000000E10   -3.222271800041199E-3   1.140333712100983E-3  
 2.242000000000000E10    1.808502129279077E-3   3.360803006216884E-3  
 2.244000000000000E10    2.897500526160002E-3  -1.437099534086883E-3  
 2.246000000000000E10   -1.511933514848352E-3  -2.349345013499260E-3  
 2.248000000000000E10   -1.858057221397758E-3   2.525232965126634E-3  
 2.250000000000000E10    2.639729063957930E-3   2.082298276945949E-3  
 2.252000000000000E10    1.844047335907817E-3  -2.648746129125357E-3  
 2.254000000000000E10   -3.199414815753698E-3  -1.691551296971738E-3  
 2.256000000000000E10   -7.105311378836632E-4   3.545830026268959E-3  
 2.258000000000000E10    3.791026305407286E-3   9.221067884936929E-4  
 2.260000000000000E10    5.620571901090443E-4  -3.109452547505498E-3  
 2.262000000000000E10   -3.146488917991519E-3   2.233000413980335E-4  
 2.264000000000000E10   -1.856132148532197E-4   3.098231274634600E-3  
 2.266000000000000E10    3.668072167783976E-3   6.170050473883748E-4  
 2.268000000000000E10   -2.096842508763075E-4  -3.672652179375291E-3  
 2.270000000000000E10   -3.093452192842960E-3   4.017371975351125E-4  
 2.272000000000000E10    7.581082754768431E-4   3.333601402118802E-3  
 2.274000000000000E10    3.084863303229213E-3  -1.196444034576416E-3  
 2.276000000000000E10   -1.346613047644496E-3  -2.941151149570942E-3  
 2.278000000000000E10   -2.430796390399337E-3   1.398764434270561E-3  
 2.280000000000000E10    1.865384052507579E-3   1.632259925827384E-3  
 2.282000000000000E10    2.721884520724416E-3  -6.908072973601520E-4  
 2.284000000000000E10   -2.803873736411333E-3  -1.982579706236720E-3  
 2.286000000000000E10   -1.575162634253502E-3   2.257002284750342E-3  
 2.288000000000000E10    2.863316796720028E-3   8.773294975981116E-4  
 2.290000000000000E10   -1.378927117912099E-4  -3.162487177178264E-3  
 2.292000000000000E10   -3.162518143653870E-3  -5.249185487627983E-4  
 2.294000000000000E10    8.357778278877959E-5   2.907284069806337E-3  
 2.296000000000000E10    2.697242889553309E-3  -7.159409578889608E-4  
 2.298000000000000E10   -1.590171814314090E-5  -3.325108205899596E-3  
 2.300000000000000E10   -3.766768611967564E-3   9.217964252457023E-4  
 2.302000000000000E10    1.295297639444470E-3   3.231472335755825E-3  
 2.304000000000000E10    3.568772459402680E-3  -1.773179043084383E-3  
 2.306000000000000E10   -1.833621645346284E-3  -3.105639712885022E-3  
 2.308000000000000E10   -3.031443571671844E-3   1.872409367933869E-3  
 2.310000000000000E10    3.063492942601442E-3   2.654372947290540E-3  
 2.312000000000000E10    2.443476114422083E-3  -2.400712342932820E-3  
 2.314000000000000E10   -2.889200579375029E-3  -2.211550017818809E-3  
 2.316000000000000E10   -1.271413988433778E-3   2.726249862462282E-3  
 2.318000000000000E10    3.051866777241230E-3   1.623159623704851E-3  
 2.320000000000000E10    1.187777612358332E-3  -3.554957220330834E-3  
 2.322000000000000E10   -3.288600593805313E-3   1.537754142191261E-4  
 2.324000000000000E10    2.207670477218926E-4   3.230613190680742E-3  
 2.326000000000000E10    3.086448414251208E-3  -6.750973989255726E-4  
 2.328000000000000E10   -7.569861481897533E-4  -2.668548375368118E-3  
 2.330000000000000E10   -2.848046133294702E-3   1.688756747171283E-3  
 2.332000000000000E10    1.888968516141176E-3   2.761089475825429E-3  
 2.334000000000000E10    2.903550863265991E-3  -2.281118649989367E-3  
 2.336000000000000E10   -2.547144191339612E-3  -2.691907342523336E-3  
 2.338000000000000E10   -2.048170659691095E-3   3.212666139006615E-3  
 2.340000000000000E10    4.094928037375212E-3   2.065848791971803E-3  
 2.342000000000000E10    1.357078785076737E-3  -4.300376866012812E-3  
 2.344000000000000E10   -3.397700609639287E-3  -9.376807138323784E-4  
 2.346000000000000E10   -8.765878737904131E-4   4.377042409032583E-3  
 2.348000000000000E10    4.464733414351940E-3  -1.043456140905619E-4  
 2.350000000000000E10    4.502600495470688E-5  -4.349368158727884E-3  
 2.352000000000000E10   -4.418466705828905E-3   8.077470702119172E-4  
 2.354000000000000E10    1.024294877424836E-3   3.930600825697184E-3  
 2.356000000000000E10    3.990224096924067E-3  -1.923562609590590E-3  
 2.358000000000000E10   -2.291961805894971E-3  -3.886527614668012E-3  
 2.360000000000000E10   -3.290238790214062E-3   2.362944185733795E-3  
 2.362000000000000E10    3.131181700155139E-3   2.487938385456801E-3  
 2.364000000000000E10    1.686976873315871E-3  -3.386258613318205E-3  
 2.366000000000000E10   -3.327846061438322E-3  -1.922402763739228E-3  
 2.368000000000000E10   -1.424913061782718E-3   3.511443966999650E-3  
 2.370000000000000E10    4.209125880151987E-3   2.631363458931446E-4  
 2.372000000000000E10   -6.494002300314605E-4  -4.433033987879753E-3  
 2.374000000000000E10   -4.240625072270632E-3   1.239565899595618E-3  
 2.376000000000000E10    1.482328167185187E-3   3.796309931203723E-3  
 2.378000000000000E10    3.330119419842959E-3  -2.829611534252763E-3  
 2.380000000000000E10   -3.328989725559950E-3  -3.689701436087489E-3  
 2.382000000000000E10   -2.915837103500962E-3   3.477890975773335E-3  
 2.384000000000000E10    3.535554045811296E-3   2.588225062936544E-3  
 2.386000000000000E10    2.213419182226062E-3  -3.950394224375486E-3  
 2.388000000000000E10   -4.646934103220701E-3  -2.062274375930429E-3  
 2.390000000000000E10   -1.500822603702545E-3   4.998947959393263E-3  
 2.392000000000000E10    4.502947442233563E-3   7.242844440042973E-4  
 2.394000000000000E10   -1.616381050553173E-4  -4.495699889957905E-3  
 2.396000000000000E10   -4.454995971173048E-3   8.927184971980751E-4  
 2.398000000000000E10    1.113146776333451E-3   3.614483401179314E-3  
 2.400000000000000E10    3.551932983100414E-3  -1.376569853164256E-3  
 2.402000000000000E10   -2.628711983561516E-3  -2.833686536177993E-3  
 2.404000000000000E10   -2.161991316825151E-3   3.084578085690737E-3  
 2.406000000000000E10    3.007116960361600E-3   1.479409402236342E-3  
 2.408000000000000E10    5.780392675660551E-4  -2.726291539147496E-3  
 2.410000000000000E10   -3.118101973086596E-3  -6.502436008304358E-4  
 2.412000000000000E10   -2.542276342865080E-4   3.709310898557305E-3  
 2.414000000000000E10    2.995675429701805E-3  -3.631895233411342E-4  
 2.416000000000000E10   -4.724659956991673E-4  -3.032718086615205E-3  
 2.418000000000000E10   -3.565127961337566E-3   1.520388992503285E-3  
 2.420000000000000E10    1.390162506140769E-3   3.164899069815874E-3  
 2.422000000000000E10    2.820736262947321E-3  -1.496745739132166E-3  
 2.424000000000000E10   -2.145693870261312E-3  -2.594783203676343E-3  
 2.426000000000000E10   -2.591072581708431E-3   2.469578757882118E-3  
 2.428000000000000E10    2.735888818278909E-3   2.139315241947770E-3  
 2.430000000000000E10    1.458620652556419E-3  -2.501798793673515E-3  
 2.432000000000000E10   -2.414247021079063E-3  -1.211404218338430E-3  
 2.434000000000000E10   -4.957494093105197E-4   2.728245686739683E-3  
 2.436000000000000E10    2.527862554416060E-3   4.351172538008541E-4  
 2.438000000000000E10    3.853838643408380E-5  -2.490231301635504E-3  
 2.440000000000000E10   -2.225379692390561E-3   5.182154127396643E-4  
 2.442000000000000E10    6.480677402578294E-4   2.442156197503209E-3  
 2.444000000000000E10    2.152167493477464E-3  -1.054504420608282E-3  
 2.446000000000000E10   -1.225810381583870E-3  -1.818744232878089E-3  
 2.448000000000000E10   -1.848414656706154E-3   1.354380277916789E-3  
 2.450000000000000E10    1.914072083309293E-3   1.135756145231426E-3  
 2.452000000000000E10    1.380769652314484E-3  -2.006200375035405E-3  
 2.454000000000000E10   -2.162960823625326E-3  -1.173372147604823E-3  
 2.456000000000000E10   -4.239715926814824E-4   2.199180191382766E-3  
 2.458000000000000E10    2.249585930258036E-3   1.757687859935686E-4  
 2.460000000000000E10    2.721799537539482E-4  -2.449554158374667E-3  
 2.462000000000000E10   -2.225955016911030E-3   2.327936090296134E-4  
 2.464000000000000E10    3.700256929732859E-4   1.615469693206251E-3  
 2.466000000000000E10    1.919809845276177E-3  -6.096140714362264E-4  
 2.468000000000000E10   -6.800927221775055E-4  -1.894500921480358E-3  
 2.470000000000000E10   -1.579389907419682E-3   6.456679548136890E-4  
 2.472000000000000E10    1.035523950122297E-3   1.266928156837821E-3  
 2.474000000000000E10    1.168526941910386E-3  -8.272986742667854E-4  
 2.476000000000000E10   -1.016133814118803E-3  -1.003745943307877E-3  
 2.478000000000000E10   -5.952689680270851E-4   1.646097749471664E-3  
 2.480000000000000E10    1.398154767230153E-3   5.098016117699444E-4  
 2.482000000000000E10    1.763565232977271E-4  -1.133314683102071E-3  
 2.484000000000000E10   -1.266317791305482E-3   4.854653670918196E-4  
 2.486000000000000E10    5.113439401611686E-4   1.578770461492240E-3  
 2.488000000000000E10    1.307622878812254E-3  -7.102424278855324E-4  
 2.490000000000000E10   -7.425412768498063E-4  -9.181117056868970E-4  
 2.492000000000000E10   -1.215979922562838E-3   9.528601658530533E-4  
 2.494000000000000E10    1.162347733043134E-3   1.395331695675850E-3  
 2.496000000000000E10    1.313722110353410E-3  -1.140808453783393E-3  
 2.498000000000000E10   -1.204988569952548E-3  -1.171675859950483E-3  
 2.500000000000000E10   -7.530761067755520E-4   1.329058082774282E-3  
 2.502000000000000E10    1.341242226772010E-3   1.265510334633291E-3  
 2.504000000000000E10    6.238563219085336E-4  -1.518282922916114E-3  
 2.506000000000000E10   -1.242302358150482E-3  -2.111185312969610E-4  
 2.508000000000000E10   -3.027207276318222E-4   1.211454626172781E-3  
 2.510000000000000E10    1.057919464074075E-3   1.865228987298906E-4  
 2.512000000000000E10    4.317631246522069E-4  -8.492182241752744E-4  
 2.514000000000000E10   -1.186333829537034E-3   2.923340653069317E-4  
 2.516000000000000E10    6.764087011106312E-4   1.063856179825962E-3  
 2.518000000000000E10    1.020932337269187E-3  -5.359760252758861E-4  
 2.520000000000000E10   -8.899525855667889E-4  -3.348241734784097E-4  
 2.522000000000000E10   -3.211435105185956E-4   9.660843643359840E-4  
 2.524000000000000E10    1.108597032725811E-3   7.049333653412759E-4  
 2.526000000000000E10    1.614504290046170E-4  -1.663146773353219E-3  
 2.528000000000000E10   -1.475587021559477E-3  -3.794988733716309E-4  
 2.530000000000000E10    1.390657707815990E-4   1.621430506929755E-3  
 2.532000000000000E10    1.509821973741055E-3  -6.811802159063518E-4  
 2.534000000000000E10   -1.234943774761632E-4  -1.927936566062272E-3  
 2.536000000000000E10   -1.788741559721530E-3   4.065391258336604E-4  
 2.538000000000000E10    7.230532355606556E-4   1.165107009001076E-3  
 2.540000000000000E10    1.680841436609626E-3  -9.663026430644095E-4  
 2.542000000000000E10   -1.035142922773957E-3  -1.303636236116290E-3  
 2.544000000000000E10   -1.229197718203068E-3   9.722708491608501E-4  
 2.546000000000000E10    1.239145989529789E-3   1.065194373950362E-3  
 2.548000000000000E10    4.618934763129801E-4  -1.417018822394311E-3  
 2.550000000000000E10   -1.277481205761433E-3  -8.192198001779616E-4  
 2.552000000000000E10   -9.061510354513302E-5   1.291446504183114E-3  
 2.554000000000000E10    1.130412565544248E-3  -3.621171053964645E-4  
 2.556000000000000E10   -1.304438192164525E-4  -1.608403748832643E-3  
 2.558000000000000E10   -1.320184674113989E-3   5.542815197259188E-4  
 2.560000000000000E10    9.465395123697817E-4   1.102754613384605E-3  
 2.562000000000000E10    1.051736529916525E-3  -1.418210682459176E-3  
 2.564000000000000E10   -1.824147766456008E-3  -7.926159887574613E-4  
 2.566000000000000E10   -8.313428261317313E-4   1.437181490473449E-3  
 2.568000000000000E10    2.008358482271433E-3   3.930569801013917E-4  
 2.570000000000000E10   -4.390535177662969E-4  -2.022111555561423E-3  
 2.572000000000000E10   -2.107719657942653E-3  -5.137896732776426E-5  
 2.574000000000000E10    3.308656159788370E-4   2.205261960625649E-3  
 2.576000000000000E10    1.902875490486622E-3  -8.311689598485827E-4  
 2.578000000000000E10   -8.890407625585794E-4  -2.070329850539565E-3  
 2.580000000000000E10   -2.116815885528922E-3   1.277198665775359E-3  
 2.582000000000000E10    7.837660377845168E-4   1.572842127643526E-3  
 2.584000000000000E10    1.585787278600037E-3  -1.461475389078260E-3  
 2.586000000000000E10   -2.025609603151679E-3  -8.698014426045120E-4  
 2.588000000000000E10   -1.011404325254262E-3   1.804461702704430E-3  
 2.590000000000000E10    1.916325069032610E-3   7.616244838573039E-4  
 2.592000000000000E10    1.319525617873296E-4  -2.134776441380382E-3  
 2.594000000000000E10   -2.056726953014731E-3  -4.269918717909604E-4  
 2.596000000000000E10    2.869071322493255E-4   2.562403678894043E-3  
 2.598000000000000E10    2.289090771228075E-3  -6.929750088602305E-4  
 2.600000000000000E10   -1.176187419332564E-3  -2.291732933372259E-3  
 2.602000000000000E10   -2.134606475010514E-3   1.204897533170879E-3  
 2.604000000000000E10    1.341253751888871E-3   2.266473602503538E-3  
 2.606000000000000E10    1.730921794660389E-3  -1.861943048425019E-3  
 2.608000000000000E10   -2.022798871621490E-3  -1.442339853383601E-3  
 2.610000000000000E10   -1.525604980997741E-3   2.244379138574004E-3  
 2.612000000000000E10    2.734012436121702E-3   1.081189024262130E-3  
 2.614000000000000E10    8.538176771253347E-4  -2.359026344493032E-3  
 2.616000000000000E10   -2.583599649369717E-3  -3.125315706711263E-4  
 2.618000000000000E10    1.949993602465838E-4   3.399174194782972E-3  
 2.620000000000000E10    3.364447969943285E-3  -2.507990866433829E-4  
 2.622000000000000E10   -1.111107296310365E-3  -2.866316353902221E-3  
 2.624000000000000E10   -2.621279098093510E-3   1.158571569249034E-3  
 2.626000000000000E10    1.533963950350881E-3   2.804404124617577E-3  
 2.628000000000000E10    2.497740322723985E-3  -2.200417686253786E-3  
 2.630000000000000E10   -2.015791600570083E-3  -2.493280917406082E-3  
 2.632000000000000E10   -1.683139475062490E-3   2.921556821092963E-3  
 2.634000000000000E10    2.921074628829956E-3   1.130762160755694E-3  
 2.636000000000000E10    1.213599462062120E-3  -2.846116200089455E-3  
 2.638000000000000E10   -3.245170693844557E-3  -6.174745503813028E-4  
 2.640000000000000E10   -4.217368550598621E-4   3.537731710821390E-3  
 2.642000000000000E10    2.936648670583963E-3   1.212242932524532E-5  
 2.644000000000000E10   -6.572634447365999E-4  -3.405382856726646E-3  
 2.646000000000000E10   -3.169826697558165E-3   1.371762133203447E-3  
 2.648000000000000E10    1.622432610020042E-3   3.261985490098596E-3  
 2.650000000000000E10    2.760344184935093E-3  -2.380098216235638E-3  
 2.652000000000000E10   -2.435368951410055E-3  -2.251620404422283E-3  
 2.654000000000000E10   -2.100811805576086E-3   2.953253919258714E-3  
 2.656000000000000E10    3.439853899180889E-3   1.390431658364832E-3  
 2.658000000000000E10    7.647748570889235E-4  -2.881260821595788E-3  
 2.660000000000000E10   -3.723250702023506E-3  -4.919936181977391E-4  
 2.662000000000000E10   -1.685311508481391E-5   3.544810693711042E-3  
 2.664000000000000E10    2.891609445214272E-3  -4.543373070191592E-4  
 2.666000000000000E10   -1.047441503033042E-3  -3.047519596293569E-3  
 2.668000000000000E10   -3.039809176698327E-3   9.999205358326435E-4  
 2.670000000000000E10    1.668584649451077E-3   3.095187013968825E-3  
 2.672000000000000E10    2.359854755923152E-3  -2.016550628468394E-3  
 2.674000000000000E10   -2.151488792151213E-3  -2.110643079504371E-3  
 2.676000000000000E10   -1.937276218086481E-3   2.837404841557145E-3  
 2.678000000000000E10    2.458515344187617E-3   1.500813290476799E-3  
 2.680000000000000E10    9.197174804285169E-4  -3.112804610282183E-3  
 2.682000000000000E10   -3.323230659589171E-3  -8.403126266784966E-4  
 2.684000000000000E10   -5.794902099296451E-4   3.048165701329708E-3  
 2.686000000000000E10    2.939920173957944E-3  -3.307626757305116E-4  
 2.688000000000000E10   -2.193205291405320E-4  -2.896493067964912E-3  
 2.690000000000000E10   -2.967130625620484E-3   5.320828640833497E-4  
 2.692000000000000E10    9.064598707482219E-4   3.008774947375059E-3  
 2.694000000000000E10    2.903871471062303E-3  -1.826060470193625E-3  
 2.696000000000000E10   -1.854679780080915E-3  -2.284194808453322E-3  
 2.698000000000000E10   -2.100128447636962E-3   1.980211352929473E-3  
 2.700000000000000E10    2.215621294453740E-3   1.493701129220426E-3  
 2.702000000000000E10    1.402444904670119E-3  -2.287313109263778E-3  
 2.704000000000000E10   -2.377481199800968E-3  -1.126402290537953E-3  
 2.706000000000000E10   -5.993716185912490E-4   2.230656333267689E-3  
 2.708000000000000E10    2.536997431889176E-3   7.933409506222233E-5  
 2.710000000000000E10    1.457270718674408E-5  -2.501663751900196E-3  
 2.712000000000000E10   -2.172524575144053E-3   3.006008628290147E-4  
 2.714000000000000E10    6.410294445231557E-4   2.239457797259092E-3  
 2.716000000000000E10    2.194596920162439E-3  -9.015045361593366E-4  
 2.718000000000000E10   -1.031851395964623E-3  -2.138245850801468E-3  
 2.720000000000000E10   -2.048541093245149E-3   1.486873487010598E-3  
 2.722000000000000E10    1.727382419630885E-3   1.912927953526378E-3  
 2.724000000000000E10    2.100337995216250E-3  -1.840520766563714E-3  
 2.726000000000000E10   -2.036426216363907E-3  -1.666609663516283E-3  
 2.728000000000000E10   -1.347367535345256E-3   1.905012642964721E-3  
 2.730000000000000E10    2.248902106657624E-3   1.102299662306905E-3  
 2.732000000000000E10    7.499713101424277E-4  -2.010920550674200E-3  
 2.734000000000000E10   -1.919337199069560E-3  -6.890335935167968E-4  
 2.736000000000000E10   -4.078131169080734E-4   2.226927084848285E-3  
 2.738000000000000E10    1.823463360778987E-3  -1.692797522991896E-4  
 2.740000000000000E10   -1.746092166285962E-4  -2.022937173023820E-3  
 2.742000000000000E10   -1.812494941987097E-3   8.728273096494377E-4  
 2.744000000000000E10    6.068189395591617E-4   1.558866468258202E-3  
 2.746000000000000E10    1.708456547930837E-3  -1.151125528849661E-3  
 2.748000000000000E10   -1.261344528757036E-3  -1.490318798460066E-3  
 2.750000000000000E10   -1.522716833278537E-3   1.409168937243521E-3  
 2.752000000000000E10    1.960698049515486E-3   1.141127781011164E-3  
 2.754000000000000E10    1.031699241138995E-3  -1.724706613458693E-3  
 2.756000000000000E10   -1.693543628789485E-3  -7.091198349371553E-4  
