#  HZ   S   RI   R     50.00 
! Rohde & Schwarz ZVA40 4Ports - Version 3.90 - 1145.1110k42 SN: 100403
! Date: 2023-10-04 07:35:45
! Measurement: S12 
! 
 2.200000000000000E10    2.191928448155522E-3  -1.419793465174735E-3  
 2.202000000000000E10   -1.856747083365917E-3  -1.496396493166685E-3  
 2.204000000000000E10   -1.561071840114892E-3   2.476109191775322E-3  
 2.206000000000000E10    2.876373939216137E-3   1.290655112825334E-3  
 2.208000000000000E10    8.629361400380731E-4  -2.850756747648120E-3  
 2.210000000000000E10   -2.735950052738190E-3  -3.559768665581942E-4  
 2.212000000000000E10   -1.690494245849550E-4   3.085379255935550E-3  
 2.214000000000000E10    3.642297117039561E-3   4.246685130055994E-4  
 2.216000000000000E10    1.330822269665077E-4  -3.262261161580682E-3  
 2.218000000000000E10   -3.141036722809076E-3   1.366328331641853E-3  
 2.220000000000000E10    7.180470274761319E-4   3.731108969077468E-3  
 2.222000000000000E10    3.011807333678007E-3  -1.264263526536524E-3  
 2.224000000000000E10   -1.383524737320840E-3  -3.248693421483040E-3  
 2.226000000000000E10   -2.649076748639345E-3   1.252627349458635E-3  
 2.228000000000000E10    1.513796043582261E-3   2.379793208092451E-3  
 2.230000000000000E10    2.222102833911777E-3  -1.932711456902325E-3  
 2.232000000000000E10   -1.188650145195425E-3  -2.277043182402849E-3  
 2.234000000000000E10   -1.627016463316977E-3   2.107024192810059E-3  
 2.236000000000000E10    2.876614220440388E-3   1.320947660133243E-3  
 2.238000000000000E10    1.030410989187658E-3  -2.735178219154477E-3  
 2.240000000000000E10   -2.358689671382308E-3  -2.629230148158968E-4  
 2.242000000000000E10    4.271599173080176E-4   2.530195051804185E-3  
 2.244000000000000E10    2.550602657720447E-3  -1.179968821816146E-3  
 2.246000000000000E10   -8.518951945006847E-4  -2.811625599861145E-3  
 2.248000000000000E10   -2.102729165926576E-3   7.497526821680367E-4  
 2.250000000000000E10    1.308960258029401E-3   2.244426170364022E-3  
 2.252000000000000E10    2.834536833688617E-3  -2.053308300673962E-3  
 2.254000000000000E10   -1.413239282555878E-3  -2.999183023348451E-3  
 2.256000000000000E10   -2.217031316831708E-3   1.908142934553325E-3  
 2.258000000000000E10    2.252299804240465E-3   2.233924577012658E-3  
 2.260000000000000E10    1.851071021519601E-3  -2.348956419155002E-3  
 2.262000000000000E10   -2.337426180019975E-3  -2.043639542534947E-3  
 2.264000000000000E10   -1.988932024687529E-3   1.884220866486430E-3  
 2.266000000000000E10    2.260477282106876E-3   1.503360108472407E-3  
 2.268000000000000E10    1.392115023918450E-3  -2.731213346123695E-3  
 2.270000000000000E10   -2.441042335703969E-3  -1.183106447570026E-3  
 2.272000000000000E10   -5.724248476326466E-4   2.537861466407776E-3  
 2.274000000000000E10    2.473452128469944E-3   2.003068948397413E-4  
 2.276000000000000E10   -6.424095481634140E-4  -2.230597427114844E-3  
 2.278000000000000E10   -1.680073328316212E-3   4.884742083959281E-4  
 2.280000000000000E10    7.091112202033401E-4   1.976944040507078E-3  
 2.282000000000000E10    1.576094771735370E-3   3.770824405364692E-4  
 2.284000000000000E10   -1.122720423154533E-3  -2.273960970342159E-3  
 2.286000000000000E10   -2.402829704806209E-3   1.642070012167096E-3  
 2.288000000000000E10    1.708071562461555E-3   2.105081453919411E-3  
 2.290000000000000E10    1.729606068693101E-3  -2.175446599721909E-3  
 2.292000000000000E10   -2.909502945840359E-3  -1.355531741864979E-3  
 2.294000000000000E10   -1.573465415276587E-3   2.414560876786709E-3  
 2.296000000000000E10    2.620775019749999E-3   1.386006595566869E-3  
 2.298000000000000E10    7.232444477267563E-4  -2.009273972362280E-3  
 2.300000000000000E10   -2.900012768805027E-3  -9.992702398449183E-4  
 2.302000000000000E10   -8.105637389235199E-4   2.983058569952846E-3  
 2.304000000000000E10    2.462508156895638E-3   9.064480545930564E-4  
 2.306000000000000E10    2.384031686233357E-4  -2.705147722736001E-3  
 2.308000000000000E10   -2.768918173387647E-3   2.234254061477259E-4  
 2.310000000000000E10    3.176332393195480E-4   2.457173075526953E-3  
 2.312000000000000E10    2.173263812437654E-3  -3.903430770151317E-4  
 2.314000000000000E10   -6.217902409844101E-4  -2.145493868738413E-3  
 2.316000000000000E10   -2.121120225638151E-3   1.283273566514254E-3  
 2.318000000000000E10    1.585060148499906E-3   1.728795352391899E-3  
 2.320000000000000E10    1.773438765667379E-3  -1.816408010199666E-3  
 2.322000000000000E10   -2.792064100503922E-3  -1.290356158278883E-3  
 2.324000000000000E10   -9.964243508875370E-4   2.299164189025760E-3  
 2.326000000000000E10    3.003119491040707E-3   4.358230507932603E-4  
 2.328000000000000E10    3.109858371317387E-4  -3.302709199488163E-3  
 2.330000000000000E10   -2.877213526517153E-3   1.295904075959697E-4  
 2.332000000000000E10    2.750192361418158E-4   3.102269023656845E-3  
 2.334000000000000E10    3.530479967594147E-3  -1.115518505685031E-3  
 2.336000000000000E10   -6.670226575806737E-4  -3.394042141735554E-3  
 2.338000000000000E10   -3.617471549659967E-3   1.316035049967468E-3  
 2.340000000000000E10    1.872556167654693E-3   2.930678660050035E-3  
 2.342000000000000E10    2.956458134576678E-3  -2.516908105462790E-3  
 2.344000000000000E10   -2.854683669283986E-3  -2.479517832398415E-3  
 2.346000000000000E10   -2.522912574931979E-3   2.270362805575132E-3  
 2.348000000000000E10    2.982553094625473E-3   1.654371968470514E-3  
 2.350000000000000E10    1.510290778242052E-3  -2.740511670708656E-3  
 2.352000000000000E10   -3.008790314197540E-3  -1.061568502336741E-3  
 2.354000000000000E10   -6.006293115206063E-4   3.592895576730371E-3  
 2.356000000000000E10    2.874656114727259E-3   5.395407788455486E-5  
 2.358000000000000E10   -8.133719675242901E-4  -2.789338817819953E-3  
 2.360000000000000E10   -2.858657157048583E-3   1.484532142058015E-3  
 2.362000000000000E10    1.495867269113660E-3   2.303797751665115E-3  
 2.364000000000000E10    1.826353603973985E-3  -2.296139020472765E-3  
 2.366000000000000E10   -2.421307377517223E-3  -1.493935356847942E-3  
 2.368000000000000E10   -1.863383338786662E-3   2.807351760566235E-3  
 2.370000000000000E10    3.486406989395618E-3   1.452255412004888E-3  
 2.372000000000000E10    1.031337305903435E-3  -3.409230150282383E-3  
 2.374000000000000E10   -3.885448211804032E-3   2.992301597259939E-4  
 2.376000000000000E10    1.383689959766343E-4   4.135284107178450E-3  
 2.378000000000000E10    3.465779125690460E-3  -8.037816151045263E-4  
 2.380000000000000E10   -8.500358671881259E-4  -3.212000010535121E-3  
 2.382000000000000E10   -3.562230151146650E-3   1.476064324378967E-3  
 2.384000000000000E10    1.436477177776396E-3   3.275771392509341E-3  
 2.386000000000000E10    3.051261883229017E-3  -1.765888417139649E-3  
 2.388000000000000E10   -2.277198014780879E-3  -2.183456905186176E-3  
 2.390000000000000E10   -1.531889545731247E-3   2.484985627233982E-3  
 2.392000000000000E10    2.444670302793384E-3   1.883872435428202E-3  
 2.394000000000000E10    1.249287743121386E-3  -2.515552099794149E-3  
 2.396000000000000E10   -2.820124616846442E-3  -5.626573693007231E-4  
 2.398000000000000E10    4.015447630081326E-4   2.779125003144145E-3  
 2.400000000000000E10    2.064280677586794E-3  -8.228446822613478E-4  
 2.402000000000000E10   -8.252689731307328E-4  -1.923604984767735E-3  
 2.404000000000000E10   -1.705636503174901E-3   1.795200398191810E-3  
 2.406000000000000E10    2.096584532409906E-3   1.441500033251941E-3  
 2.408000000000000E10    1.417096471413970E-3  -2.274212660267949E-3  
 2.410000000000000E10   -2.332361182197928E-3  -8.254716522060335E-4  
 2.412000000000000E10   -5.430972087197006E-4   2.558396663516760E-3  
 2.414000000000000E10    2.936548320576549E-3   4.579418455250561E-4  
 2.416000000000000E10    2.187835052609444E-4  -2.487963763996959E-3  
 2.418000000000000E10   -2.517570974305272E-3   1.840466284193099E-4  
 2.420000000000000E10    7.096620392985642E-4   2.740587573498488E-3  
 2.422000000000000E10    2.352882409468293E-3  -5.131946527399123E-4  
 2.424000000000000E10   -4.963030805811286E-4  -2.521325135603547E-3  
 2.426000000000000E10   -1.842892263084650E-3   8.976868120953441E-4  
 2.428000000000000E10    1.278938143514097E-3   1.900377566926181E-3  
 2.430000000000000E10    1.682114321738482E-3  -1.583203673362732E-3  
 2.432000000000000E10   -1.358610112220049E-3  -7.672729552723467E-4  
 2.434000000000000E10   -8.457131916657090E-4   1.060680486261845E-3  
 2.436000000000000E10    1.578796422109008E-3   3.967892262153328E-4  
 2.438000000000000E10    1.409309334121645E-4  -1.697971485555172E-3  
 2.440000000000000E10   -1.627492369152606E-3  -4.623109271051362E-5  
 2.442000000000000E10    4.941552761010826E-4   1.277026138268411E-3  
 2.444000000000000E10    1.318598398938775E-3  -4.955869517289102E-4  
 2.446000000000000E10   -6.992958951741457E-4  -1.299896044656634E-3  
 2.448000000000000E10   -1.477588783018291E-3   9.241653606295586E-4  
 2.450000000000000E10    1.179745304398239E-3   1.621440984308720E-3  
 2.452000000000000E10    1.438349951058626E-3  -1.468212925828993E-3  
 2.454000000000000E10   -1.666674041189253E-3  -9.890220826491714E-4  
 2.456000000000000E10   -1.066394033841789E-3   1.506653381511569E-3  
 2.458000000000000E10    1.393793150782585E-3   6.110779359005392E-4  
 2.460000000000000E10    1.685523311607540E-4  -1.214982592500746E-3  
 2.462000000000000E10   -1.527770422399044E-3  -3.481799794826657E-4  
 2.464000000000000E10    1.556633505970240E-4   1.165121910162270E-3  
 2.466000000000000E10    9.914290858432651E-4  -2.989115018863231E-4  
 2.468000000000000E10   -3.657994966488332E-4  -8.971886127255857E-4  
 2.470000000000000E10   -7.738798740319908E-4   9.948373772203922E-4  
 2.472000000000000E10    9.793217759579420E-4   7.328950450755656E-4  
 2.474000000000000E10    6.938549340702593E-4  -1.074530533514917E-3  
 2.476000000000000E10   -1.114004873670638E-3   8.639734733151272E-5  
 2.478000000000000E10   -2.205208438681439E-4   1.423852518200874E-3  
 2.480000000000000E10    1.807263121008873E-3  -4.580791937769391E-5  
 2.482000000000000E10   -1.326441124547273E-4  -1.195919001474977E-3  
 2.484000000000000E10   -1.488304580561817E-3   2.319213817827404E-4  
 2.486000000000000E10    1.001882716082037E-3   1.180427381768823E-3  
 2.488000000000000E10    1.085092430002987E-3  -8.679408347234130E-4  
 2.490000000000000E10   -4.616151563823223E-4  -1.007811748422682E-3  
 2.492000000000000E10   -9.974163258448243E-4   1.717074046609923E-4  
 2.494000000000000E10    1.001940923742950E-3   1.227096538059413E-3  
 2.496000000000000E10    9.620219352655113E-4  -1.083235256373882E-3  
 2.498000000000000E10   -5.593298701569438E-4  -2.882080734707415E-4  
 2.500000000000000E10   -6.982579361647368E-4   6.862045265734196E-4  
 2.502000000000000E10    1.187593792565167E-3   3.107625525444746E-4  
 2.504000000000000E10    1.307847414864227E-4  -1.366166397929192E-3  
 2.506000000000000E10   -8.411773596890271E-4   1.958573739102576E-5  
 2.508000000000000E10    5.459323874674738E-4   9.989722166210413E-4  
 2.510000000000000E10    8.000712259672582E-4  -6.697625503875315E-4  
 2.512000000000000E10   -6.317204097285867E-4  -6.407682667486370E-4  
 2.514000000000000E10   -5.412036553025246E-4   5.567523767240346E-4  
 2.516000000000000E10    8.267475641332567E-4   7.515246979892254E-4  
 2.518000000000000E10    3.804623265750706E-4  -1.503394218161702E-3  
 2.520000000000000E10   -1.367223914712668E-3  -4.987064749002457E-4  
 2.522000000000000E10   -4.278613778296858E-4   1.139215077273548E-3  
 2.524000000000000E10    1.506665372289717E-3   5.417419379227795E-5  
 2.526000000000000E10   -1.154718338511884E-4  -1.694322447292507E-3  
 2.528000000000000E10   -1.555655268020928E-3   9.338359814137220E-5  
 2.530000000000000E10   -2.948924084194005E-4   1.725045964121819E-3  
 2.532000000000000E10    1.721031963825226E-3  -1.513942988822237E-4  
 2.534000000000000E10   -8.564884774386883E-4  -1.845208462327719E-3  
 2.536000000000000E10   -1.530059729702771E-3   5.145132308825851E-4  
 2.538000000000000E10    3.658201021607965E-4   1.139227650128305E-3  
 2.540000000000000E10    7.882550708018243E-4  -1.164338667877019E-3  
 2.542000000000000E10   -1.138438237830997E-3  -1.133180572651327E-3  
 2.544000000000000E10   -9.014184470288456E-4   7.974458858370781E-4  
 2.546000000000000E10    1.240764278918505E-3   3.928085498046130E-4  
 2.548000000000000E10    3.740301326615736E-5  -1.440500258468092E-3  
 2.550000000000000E10   -1.387318130582571E-3   1.486581022618339E-4  
 2.552000000000000E10   -3.444826870691031E-5   1.348520163446665E-3  
 2.554000000000000E10    1.221303828060627E-3  -5.132395890541375E-4  
 2.556000000000000E10   -1.206554821692407E-3  -1.556631992571056E-3  
 2.558000000000000E10   -1.506235450506210E-3   1.062265713699162E-3  
 2.560000000000000E10    7.947805570438504E-4   1.505404594354332E-3  
 2.562000000000000E10    1.419031410478056E-3  -1.703493529930711E-3  
 2.564000000000000E10   -1.829343382269144E-3  -1.304028555750847E-3  
 2.566000000000000E10   -8.239158196374774E-4   2.274216851219535E-3  
 2.568000000000000E10    1.954986480996013E-3   8.248202502727509E-4  
 2.570000000000000E10    7.540848455391824E-4  -2.028182381764054E-3  
 2.572000000000000E10   -2.434338442981243E-3   3.628973354352638E-5  
 2.574000000000000E10   -2.863945264834911E-4   2.109945518895984E-3  
 2.576000000000000E10    2.377780154347420E-3  -1.226517924806103E-4  
 2.578000000000000E10   -9.396875393576920E-4  -1.985169015824795E-3  
 2.580000000000000E10   -2.021557418629527E-3   4.465704842004925E-4  
 2.582000000000000E10    1.157564111053944E-3   1.829376677051187E-3  
 2.584000000000000E10    1.894811168313026E-3  -1.072320621460676E-3  
 2.586000000000000E10   -1.395786646753550E-3  -1.553355134092271E-3  
 2.588000000000000E10   -1.172414398752153E-3   1.824070350266993E-3  
 2.590000000000000E10    1.876754686236382E-3   1.403713133186102E-3  
 2.592000000000000E10    9.318291558884084E-4  -2.176478272303939E-3  
 2.594000000000000E10   -2.387198153883219E-3  -2.379052311880514E-4  
 2.596000000000000E10   -3.250426088925451E-4   2.561531262472272E-3  
 2.598000000000000E10    2.735824557021260E-3  -4.183411074336618E-4  
 2.600000000000000E10   -7.676094537600875E-4  -2.321157138794661E-3  
 2.602000000000000E10   -2.449024934321642E-3   7.171177421696484E-4  
 2.604000000000000E10    1.467386144213378E-3   2.828211756423116E-3  
 2.606000000000000E10    2.332556061446667E-3  -1.649982412345707E-3  
 2.608000000000000E10   -1.751437666825950E-3  -2.056350931525230E-3  
 2.610000000000000E10   -2.202392322942615E-3   1.856627291999757E-3  
 2.612000000000000E10    2.414680551737547E-3   2.139803254976869E-3  
 2.614000000000000E10    1.836018636822701E-3  -2.860956592485309E-3  
 2.616000000000000E10   -2.919987775385380E-3  -1.325301942415535E-3  
 2.618000000000000E10   -1.071433187462390E-3   3.256542608141899E-3  
 2.620000000000000E10    3.818959929049015E-3   3.187867696397007E-4  
 2.622000000000000E10   -2.267048512294423E-5  -3.237296128645539E-3  
 2.624000000000000E10   -2.943096915259957E-3   3.483490727376193E-4  
 2.626000000000000E10    7.192077464424074E-4   3.427388845011592E-3  
 2.628000000000000E10    3.193124663084745E-3  -1.057079061865807E-3  
 2.630000000000000E10   -2.022710861638188E-3  -2.880106912925839E-3  
 2.632000000000000E10   -2.432214561849833E-3   2.192108659073710E-3  
 2.634000000000000E10    2.487998921424151E-3   1.698951353318989E-3  
 2.636000000000000E10    1.992362784221768E-3  -2.621475141495466E-3  
 2.638000000000000E10   -2.649458823725581E-3  -1.671030535362661E-3  
 2.640000000000000E10   -8.131664362736046E-4   3.134598257020116E-3  
 2.642000000000000E10    3.362612798810005E-3   6.920766900293529E-4  
 2.644000000000000E10    2.927430905401707E-4  -3.107569646090269E-3  
 2.646000000000000E10   -3.812125418335199E-3   3.756966616492719E-4  
 2.648000000000000E10    7.409940008074045E-4   3.591105807572603E-3  
 2.650000000000000E10    3.324801800772548E-3  -1.250180997885764E-3  
 2.652000000000000E10   -1.793827628716826E-3  -3.617296461015940E-3  
 2.654000000000000E10   -2.695806557312608E-3   2.132970839738846E-3  
 2.656000000000000E10    2.968118060380220E-3   2.598936669528484E-3  
 2.658000000000000E10    2.112668706104159E-3  -2.823629649356008E-3  
 2.660000000000000E10   -2.944921609014273E-3  -1.686760457232595E-3  
 2.662000000000000E10   -1.335344626568258E-3   3.569771302863956E-3  
 2.664000000000000E10    3.572057001292706E-3   8.342022192664444E-4  
 2.666000000000000E10    5.492446143762209E-5  -3.137198509648442E-3  
 2.668000000000000E10   -3.248563967645168E-3   8.840045666147489E-6  
 2.670000000000000E10    3.920310700777918E-4   3.260142635554075E-3  
 2.672000000000000E10    3.155392128974199E-3  -7.269836496561766E-4  
 2.674000000000000E10   -9.761375258676708E-4  -2.949841087684035E-3  
 2.676000000000000E10   -2.510755322873592E-3   1.619778224267066E-3  
 2.678000000000000E10    2.011410892009735E-3   2.751455409452319E-3  
 2.680000000000000E10    2.065940527245402E-3  -1.943835057318211E-3  
 2.682000000000000E10   -2.487152814865112E-3  -1.595659181475639E-3  
 2.684000000000000E10   -1.828992855735123E-3   2.757990034297109E-3  
 2.686000000000000E10    2.677168697118759E-3   1.418157480657101E-3  
 2.688000000000000E10    8.416946511715651E-4  -2.829848090186715E-3  
 2.690000000000000E10   -3.048598533496261E-3  -6.664284737780690E-4  
 2.692000000000000E10   -1.365545031148940E-4   3.092862199991942E-3  
 2.694000000000000E10    3.104044822975993E-3  -2.405379345873371E-4  
 2.696000000000000E10   -6.540762260556221E-4  -2.798538422212005E-3  
 2.698000000000000E10   -2.663847059011459E-3   1.233381102792919E-3  
 2.700000000000000E10    1.414569211192429E-3   2.690153196454048E-3  
 2.702000000000000E10    2.106465632095933E-3  -1.562960562296212E-3  
 2.704000000000000E10   -1.791733200661838E-3  -2.093131188303232E-3  
 2.706000000000000E10   -1.776178367435932E-3   2.061704173684120E-3  
 2.708000000000000E10    2.526758005842567E-3   1.379761612042785E-3  
 2.710000000000000E10    1.053803018294275E-3  -2.667083172127605E-3  
 2.712000000000000E10   -2.897276543080807E-3  -9.402564610354602E-4  
 2.714000000000000E10   -4.543600953184068E-4   2.654256299138069E-3  
 2.716000000000000E10    2.390017500147224E-3   1.046825418598019E-4  
 2.718000000000000E10   -1.143188783316873E-4  -2.378874691203237E-3  
 2.720000000000000E10   -2.510544145479798E-3   1.596655492903665E-4  
 2.722000000000000E10    3.844690218102187E-4   2.626630011945963E-3  
 2.724000000000000E10    2.503965282812715E-3  -9.426202159374952E-4  
 2.726000000000000E10   -9.501682361587882E-4  -2.330098999664187E-3  
 2.728000000000000E10   -2.092369366437197E-3   1.397651270963252E-3  
 2.730000000000000E10    1.673770719207823E-3   1.935546169988811E-3  
 2.732000000000000E10    1.646016142331064E-3  -1.531871967017651E-3  
 2.734000000000000E10   -1.651818747632206E-3  -1.214320422150195E-3  
 2.736000000000000E10   -9.019997087307274E-4   1.654280466027558E-3  
 2.738000000000000E10    2.118084579706192E-3   7.947731064632535E-4  
 2.740000000000000E10    4.608951858244836E-4  -1.981727313250303E-3  
 2.742000000000000E10   -1.862005796283484E-3  -1.701411674730480E-4  
 2.744000000000000E10    1.952445891220123E-4   1.973399426788092E-3  
 2.746000000000000E10    2.103546168655157E-3  -2.135103131877258E-4  
 2.748000000000000E10   -3.088661760557443E-4  -1.972420606762171E-3  
 2.750000000000000E10   -1.942178350873292E-3   9.227560367435217E-4  
 2.752000000000000E10    8.919074316509068E-4   1.695583108812571E-3  
 2.754000000000000E10    1.770063303411007E-3  -1.415937789715827E-3  
 2.756000000000000E10   -1.542287063784897E-3  -1.698469510301948E-3  
