#  HZ   S   RI   R     50.00 
! Rohde & Schwarz ZVA40 4Ports - Version 3.90 - 1145.1110k42 SN: 100403
! Date: 2023-10-04 07:36:27
! Measurement: S12 
! 
 2.200000000000000E10    2.239885972812772E-3  -1.881874864920974E-3  
 2.202000000000000E10   -2.323700115084648E-3  -2.514772815629840E-3  
 2.204000000000000E10   -1.946862437762320E-3   1.689496333710849E-3  
 2.206000000000000E10    2.170450054109097E-3   1.197081990540028E-3  
 2.208000000000000E10    1.287277787923813E-3  -2.184734446927905E-3  
 2.210000000000000E10   -2.105565741658211E-3  -1.159592298790813E-3  
 2.212000000000000E10   -1.271447748877108E-3   1.808734727092087E-3  
 2.214000000000000E10    1.999986823648214E-3   9.853426599875093E-4  
 2.216000000000000E10    3.002590092364699E-4  -2.179977251216769E-3  
 2.218000000000000E10   -2.536768093705177E-3  -1.102220921893604E-4  
 2.220000000000000E10   -2.431986649753526E-4   2.219045301899314E-3  
 2.222000000000000E10    2.017353428527713E-3  -1.075123902410269E-3  
 2.224000000000000E10   -1.005578087642789E-3  -1.895152265205979E-3  
 2.226000000000000E10   -1.710070529952645E-3   1.151163480244577E-3  
 2.228000000000000E10    1.348450547084212E-3   1.723173423670232E-3  
 2.230000000000000E10    1.028748112730682E-3  -1.986347837373614E-3  
 2.232000000000000E10   -1.799919758923352E-3  -1.417508698068559E-3  
 2.234000000000000E10   -1.675889594480395E-3   2.333780517801642E-3  
 2.236000000000000E10    2.301736501976848E-3   1.326576923020184E-3  
 2.238000000000000E10    7.931501022540033E-4  -2.664094557985663E-3  
 2.240000000000000E10   -3.296289127320051E-3  -2.050460316240788E-4  
 2.242000000000000E10   -5.569898639805615E-4   2.942237071692944E-3  
 2.244000000000000E10    2.626786939799786E-3  -6.777766247978434E-5  
 2.246000000000000E10    6.310099706752226E-5  -2.165222773328424E-3  
 2.248000000000000E10   -2.424132544547319E-3   1.118118962040171E-4  
 2.250000000000000E10    1.562093384563923E-4   2.870920347049832E-3  
 2.252000000000000E10    2.064603613689542E-3  -3.113551647402346E-4  
 2.254000000000000E10   -6.073386175557971E-4  -2.038985025137663E-3  
 2.256000000000000E10   -2.063655294477940E-3   1.176588237285614E-3  
 2.258000000000000E10    1.281876000575721E-3   1.962680136784911E-3  
 2.260000000000000E10    1.408942276611924E-3  -1.277858973480761E-3  
 2.262000000000000E10   -1.156889833509922E-3  -9.008798515424132E-4  
 2.264000000000000E10   -8.799177594482899E-4   1.288950094021857E-3  
 2.266000000000000E10    1.726582879200578E-3   1.029179082252085E-3  
 2.268000000000000E10    1.326080411672592E-3  -1.674553961493075E-3  
 2.270000000000000E10   -1.874831621535122E-3  -5.598278949037194E-4  
 2.272000000000000E10   -5.323236691765487E-4   2.567245159298182E-3  
 2.274000000000000E10    2.432859037071466E-3   7.147575524868444E-5  
 2.276000000000000E10   -3.877870622090995E-4  -2.707819920033217E-3  
 2.278000000000000E10   -2.200317569077015E-3   3.439640568103641E-4  
 2.280000000000000E10    3.275802009738982E-4   2.400075783953071E-3  
 2.282000000000000E10    2.526577562093735E-3   8.541514398530126E-4  
 2.284000000000000E10   -3.270529559813440E-4  -2.642571460455656E-3  
 2.286000000000000E10   -2.614410128444433E-3   6.728862063027918E-4  
 2.288000000000000E10    1.487623900175095E-3   2.321248408406973E-3  
 2.290000000000000E10    2.143365563824773E-3  -1.123375608585775E-3  
 2.292000000000000E10   -1.677862019278109E-3  -1.823510159738362E-3  
 2.294000000000000E10   -1.300924574024975E-3   1.157595543190837E-3  
 2.296000000000000E10    1.644101110287011E-3   1.255882903933525E-3  
 2.298000000000000E10    8.659320883452892E-4  -1.591111882589757E-3  
 2.300000000000000E10   -1.360927126370370E-3  -1.110548852011561E-3  
 2.302000000000000E10   -8.997393888421357E-4   1.699283369816840E-3  
 2.304000000000000E10    2.017493126913905E-3  -1.561815770401154E-5  
 2.306000000000000E10    1.944627292687073E-4  -2.431327477097511E-3  
 2.308000000000000E10   -2.175678731873632E-3   6.214400636963546E-4  
 2.310000000000000E10    7.354054250754416E-4   2.031459007412195E-3  
 2.312000000000000E10    2.400187775492668E-3  -7.393885171040893E-4  
 2.314000000000000E10   -1.090801553800702E-3  -2.233144361525774E-3  
 2.316000000000000E10   -2.670739311724901E-3   1.581493997946382E-3  
 2.318000000000000E10    1.988942036405206E-3   2.363702980801463E-3  
 2.320000000000000E10    2.268042415380478E-3  -1.895628869533539E-3  
 2.322000000000000E10   -2.368974732235074E-3  -1.992451259866357E-3  
 2.324000000000000E10   -2.093914896249771E-3   2.843328984454274E-3  
 2.326000000000000E10    2.830024808645248E-3   1.366347656585276E-3  
 2.328000000000000E10    1.368013559840620E-3  -2.370705595239997E-3  
 2.330000000000000E10   -2.551452722400427E-3  -2.668294764589518E-4  
 2.332000000000000E10   -9.906681952998042E-4   2.299509476870298E-3  
 2.334000000000000E10    2.436130540445447E-3   3.125797084067017E-4  
 2.336000000000000E10    3.501455939840525E-4  -2.691766712814570E-3  
 2.338000000000000E10   -2.888812217861414E-3   4.707504413090646E-4  
 2.340000000000000E10    1.617853413335979E-3   2.462637377902865E-3  
 2.342000000000000E10    2.012838376685977E-3  -1.329752383753657E-3  
 2.344000000000000E10   -2.107403706759214E-3  -1.443508197553456E-3  
 2.346000000000000E10   -1.077143009752035E-3   2.269657095894218E-3  
 2.348000000000000E10    2.496248576790094E-3   1.113062375225127E-3  
 2.350000000000000E10    7.072873413562775E-4  -2.906844718381763E-3  
 2.352000000000000E10   -2.927330089733005E-3   2.633857657201588E-4  
 2.354000000000000E10    2.364426909480244E-4   3.273068694397807E-3  
 2.356000000000000E10    3.500167513266206E-3  -8.174729882739484E-4  
 2.358000000000000E10   -9.268189314752817E-4  -3.437526989728212E-3  
 2.360000000000000E10   -2.850106218829751E-3   1.476732315495610E-3  
 2.362000000000000E10    2.051071496680379E-3   2.571419579908252E-3  
 2.364000000000000E10    2.942847553640604E-3  -1.799325924366713E-3  
 2.366000000000000E10   -2.043064683675766E-3  -2.017549006268382E-3  
 2.368000000000000E10   -1.959125977009535E-3   2.309335395693779E-3  
 2.370000000000000E10    2.673025941476226E-3   1.395630417391658E-3  
 2.372000000000000E10    1.301531447097659E-3  -2.284540329128504E-3  
 2.374000000000000E10   -2.579627092927694E-3  -7.755929837003350E-4  
 2.376000000000000E10   -3.407008771318942E-4   2.091723261401057E-3  
 2.378000000000000E10    2.388244960457087E-3  -4.656637029256672E-4  
 2.380000000000000E10   -6.332192569971085E-4  -2.222497016191483E-3  
 2.382000000000000E10   -1.336624962277710E-3   1.019461778923869E-3  
 2.384000000000000E10    1.583323464728892E-3   1.554671209305525E-3  
 2.386000000000000E10    1.518917502835393E-3  -1.563034718856216E-3  
 2.388000000000000E10   -1.776553457602859E-3  -1.367789926007390E-3  
 2.390000000000000E10   -6.200162461027503E-4   2.004966605454683E-3  
 2.392000000000000E10    2.315240446478128E-3   4.209515172988176E-4  
 2.394000000000000E10    1.101748639484868E-4  -2.833230420947075E-3  
 2.396000000000000E10   -2.457502065226436E-3   1.968346768990159E-4  
 2.398000000000000E10    5.961219430901110E-4   1.974513055756688E-3  
 2.400000000000000E10    2.347832079976797E-3  -1.019638497382402E-3  
 2.402000000000000E10   -1.090233912691474E-3  -2.398959361016750E-3  
 2.404000000000000E10   -2.253399929031730E-3   1.533196656964719E-3  
 2.406000000000000E10    1.830947119742632E-3   1.621345989406109E-3  
 2.408000000000000E10    8.873129845596850E-4  -1.898151938803494E-3  
 2.410000000000000E10   -1.886688871309161E-3  -9.928704239428043E-4  
 2.412000000000000E10   -6.384022999554873E-4   1.382543006911874E-3  
 2.414000000000000E10    1.149249030277133E-3   4.547034332063049E-4  
 2.416000000000000E10    2.152080269297585E-4  -1.518137636594474E-3  
 2.418000000000000E10   -1.636184169910848E-3   4.925901885144413E-4  
 2.420000000000000E10    1.489167480031028E-4   1.351531012915075E-3  
 2.422000000000000E10    8.193973335437477E-4  -9.268479188904166E-4  
 2.424000000000000E10   -1.137690502218902E-3  -6.306326831690967E-4  
 2.426000000000000E10   -6.434635724872351E-4   1.198047539219260E-3  
 2.428000000000000E10    9.332767804153264E-4   2.759217459242791E-4  
 2.430000000000000E10    1.455139135941863E-4  -1.298181130550802E-3  
 2.432000000000000E10   -1.799631165340543E-3  -1.609814207768068E-4  
 2.434000000000000E10    2.364965766901150E-4   1.650327467359603E-3  
 2.436000000000000E10    1.394436694681644E-3  -1.225492451339960E-4  
 2.438000000000000E10   -5.842750542797148E-4  -1.594331697560847E-3  
 2.440000000000000E10   -1.322781317867339E-3   8.099256665445864E-4  
 2.442000000000000E10    5.787874106317759E-4   1.562542514875531E-3  
 2.444000000000000E10    1.277336617931724E-3  -5.093245999887586E-4  
 2.446000000000000E10   -4.948874120600522E-4  -1.037021516822279E-3  
 2.448000000000000E10   -1.209083246067166E-3   8.208533981814981E-4  
 2.450000000000000E10    8.985513122752309E-4   7.229430484585464E-4  
 2.452000000000000E10    5.630152882076800E-4  -8.027166477404535E-4  
 2.454000000000000E10   -8.110785274766386E-4  -5.576139083132148E-4  
 2.456000000000000E10    1.526568958070129E-4   4.688915796577931E-4  
 2.458000000000000E10    7.638401002623141E-4   5.662882540491410E-5  
 2.460000000000000E10   -2.883605775423348E-4  -9.957347065210342E-4  
 2.462000000000000E10   -7.099657668732107E-4   5.079389084130526E-4  
 2.464000000000000E10    6.443103775382042E-4   6.168421823531389E-4  
 2.466000000000000E10    8.030652534216642E-4  -8.714053547009826E-4  
 2.468000000000000E10   -1.215839292854071E-3  -6.600836641155183E-4  
 2.470000000000000E10   -7.400886970572174E-4   1.206781947985292E-3  
 2.472000000000000E10    1.342957024462521E-3   5.270368419587612E-4  
 2.474000000000000E10    3.177690960001200E-4  -1.391357276588678E-3  
 2.476000000000000E10   -1.875360845588148E-3  -5.097993416711688E-4  
 2.478000000000000E10   -2.161601732950658E-4   1.313388929702342E-3  
 2.480000000000000E10    1.337752677500248E-3  -2.725851663853973E-4  
 2.482000000000000E10   -5.015047499909997E-4  -1.384304254315794E-3  
 2.484000000000000E10   -1.013078610412777E-3   2.270498080179095E-4  
 2.486000000000000E10    3.284062549937517E-4   9.590416448190808E-4  
 2.488000000000000E10    3.972204285673797E-4  -8.436506032012403E-4  
 2.490000000000000E10   -7.503162487410009E-4  -5.131367361173034E-4  
 2.492000000000000E10   -6.375072989612818E-4   6.608665571548045E-4  
 2.494000000000000E10    7.423338829539716E-4  -7.240830746013671E-5  
 2.496000000000000E10   -2.562167064752430E-4  -1.309210434556007E-3  
 2.498000000000000E10   -1.415808685123920E-3   3.000392753165215E-4  
 2.500000000000000E10    3.934273263439536E-4   1.431034877896309E-3  
 2.502000000000000E10    1.316216192208231E-3  -4.961964441463351E-4  
 2.504000000000000E10   -7.854435825720429E-4  -1.571151777170599E-3  
 2.506000000000000E10   -1.321337884292007E-3   9.494029218330979E-4  
 2.508000000000000E10    8.504520519636571E-4   1.600546529516578E-3  
 2.510000000000000E10    1.146236550994217E-3  -1.057242043316364E-3  
 2.512000000000000E10   -1.149631454609335E-3  -1.282332697883248E-3  
 2.514000000000000E10   -1.282466575503349E-3   1.428425312042236E-3  
 2.516000000000000E10    1.252050627954304E-3   9.131710976362228E-4  
 2.518000000000000E10    7.269065245054662E-4  -1.363882329314947E-3  
 2.520000000000000E10   -1.135269179940224E-3  -9.741943358676508E-5  
 2.522000000000000E10    6.691876478726044E-5   1.165795372799039E-3  
 2.524000000000000E10    1.079696812666953E-3   3.596885362640023E-4  
 2.526000000000000E10   -7.987105163920205E-6  -1.005085185170174E-3  
 2.528000000000000E10   -1.197442063130438E-3   6.382447318173945E-4  
 2.530000000000000E10    7.018212345428765E-4   1.290420186705887E-3  
 2.532000000000000E10    1.177020720206201E-3  -8.660035091452301E-4  
 2.534000000000000E10   -1.117688370868564E-3  -9.557653684169054E-4  
 2.536000000000000E10   -5.091688362881541E-4   1.399647444486618E-3  
 2.538000000000000E10    1.737447339110076E-3   8.888368611223996E-4  
 2.540000000000000E10    1.035901834256947E-3  -1.549592474475503E-3  
 2.542000000000000E10   -1.742215943522751E-3  -8.634683035779744E-5  
 2.544000000000000E10   -1.819673343561590E-4   2.635772339999676E-3  
 2.546000000000000E10    2.144748112186790E-3   2.372137969359756E-4  
 2.548000000000000E10   -7.781226304359734E-5  -1.546912710182369E-3  
 2.550000000000000E10   -1.624042983166874E-3   4.227859608363360E-4  
 2.552000000000000E10    4.176768998149782E-4   2.125510014593601E-3  
 2.554000000000000E10    2.430202672258019E-3  -4.290540819056332E-4  
 2.556000000000000E10   -5.803746171295643E-4  -2.127230400219560E-3  
 2.558000000000000E10   -1.593897119164467E-3   1.332641229964793E-3  
 2.560000000000000E10    1.576482201926410E-3   2.059116726741195E-3  
 2.562000000000000E10    1.905485056340694E-3  -1.386204501613975E-3  
 2.564000000000000E10   -1.577962422743440E-3  -8.734028087928891E-4  
 2.566000000000000E10   -1.115691033191979E-3   1.914863125421107E-3  
 2.568000000000000E10    2.378198551014066E-3   1.216593547724187E-3  
 2.570000000000000E10    2.818399225361645E-4  -2.070061396807432E-3  
 2.572000000000000E10   -2.091266913339496E-3  -7.005953375482932E-5  
 2.574000000000000E10    5.936734378337860E-4   2.039096783846617E-3  
 2.576000000000000E10    2.576141618192196E-3  -8.685492211952806E-4  
 2.578000000000000E10   -1.117376028560102E-3  -1.747451489791274E-3  
 2.580000000000000E10   -1.332090585492551E-3   1.590789528563619E-3  
 2.582000000000000E10    1.359791727736592E-3   1.557261333800852E-3  
 2.584000000000000E10    1.550233224406838E-3  -1.908735022880137E-3  
 2.586000000000000E10   -2.367909532040358E-3  -1.269264845177531E-3  
 2.588000000000000E10   -1.344730495475233E-3   2.439826959744096E-3  
 2.590000000000000E10    2.646565437316895E-3   8.247474906966090E-4  
 2.592000000000000E10    7.010824047029018E-4  -3.092960454523563E-3  
 2.594000000000000E10   -2.986101899296045E-3  -3.640668874140829E-4  
 2.596000000000000E10    1.386827643727884E-4   2.741875126957893E-3  
 2.598000000000000E10    3.365669399499893E-3  -4.076909681316465E-4  
 2.600000000000000E10   -9.007892222143710E-4  -3.388362005352974E-3  
 2.602000000000000E10   -2.749590203166008E-3   1.075616688467562E-3  
 2.604000000000000E10    1.221606624312699E-3   2.521526534110308E-3  
 2.606000000000000E10    2.463436219841242E-3  -2.038512611761689E-3  
 2.608000000000000E10   -1.987898489460349E-3  -2.468717284500599E-3  
 2.610000000000000E10   -1.766369096003473E-3   1.726551796309650E-3  
 2.612000000000000E10    2.295206999406219E-3   1.668521785177290E-3  
 2.614000000000000E10    1.328626065514982E-3  -2.547296928241849E-3  
 2.616000000000000E10   -2.779687056317926E-3  -6.176245515234768E-4  
 2.618000000000000E10   -7.733038510195911E-4   2.931718714535236E-3  
 2.620000000000000E10    3.060212591663003E-3   2.361594088142738E-4  
 2.622000000000000E10   -4.322495660744607E-4  -3.405267139896751E-3  
 2.624000000000000E10   -3.250550944358110E-3   5.308495019562542E-4  
 2.626000000000000E10    1.075035776011646E-3   3.203959204256535E-3  
 2.628000000000000E10    3.393005346879363E-3  -1.818129792809486E-3  
 2.630000000000000E10   -2.236664760857821E-3  -2.767786383628845E-3  
 2.632000000000000E10   -1.925984630361199E-3   2.725240541622043E-3  
 2.634000000000000E10    2.868314739316702E-3   2.052284311503172E-3  
 2.636000000000000E10    1.858648494817317E-3  -2.713009016588330E-3  
 2.638000000000000E10   -3.305155551061034E-3  -1.608619815669954E-3  
 2.640000000000000E10   -1.397789805196226E-3   3.228938207030296E-3  
 2.642000000000000E10    3.368445206433535E-3   9.068994550034404E-4  
 2.644000000000000E10    2.826287527568638E-4  -3.962151240557432E-3  
 2.646000000000000E10   -3.545682877302170E-3   1.693397498456761E-4  
 2.648000000000000E10    6.719282828271389E-4   3.888412611559033E-3  
 2.650000000000000E10    3.709428710862994E-3  -1.444596913643181E-3  
 2.652000000000000E10   -1.543388352729380E-3  -3.337050555273891E-3  
 2.654000000000000E10   -3.179178340360522E-3   2.196634886786342E-3  
 2.656000000000000E10    2.578396117314696E-3   2.892368007451296E-3  
 2.658000000000000E10    2.170308027416468E-3  -2.859390107914805E-3  
 2.660000000000000E10   -3.522763727232814E-3  -1.865076832473278E-3  
 2.662000000000000E10   -1.400431268848479E-3   3.546708729118109E-3  
 2.664000000000000E10    3.468666458502412E-3   7.465006201528013E-4  
 2.666000000000000E10    2.733191940933466E-4  -3.505343105643988E-3  
 2.668000000000000E10   -3.272390924394131E-3   3.844318853225559E-4  
 2.670000000000000E10    7.221902487799525E-4   3.592880442738533E-3  
 2.672000000000000E10    3.096690634265542E-3  -9.557696175761521E-4  
 2.674000000000000E10   -1.396442879922688E-3  -2.842556452378631E-3  
 2.676000000000000E10   -2.695857547223568E-3   1.917210174724460E-3  
 2.678000000000000E10    1.957116415724158E-3   2.512181643396616E-3  
 2.680000000000000E10    2.107878215610981E-3  -2.335327444598079E-3  
 2.682000000000000E10   -2.826286712661386E-3  -1.752714510075748E-3  
 2.684000000000000E10   -1.403576112352312E-3   2.652106806635857E-3  
 2.686000000000000E10    2.909674076363444E-3   1.134117366746068E-3  
 2.688000000000000E10    7.916257018223405E-4  -3.010930959135294E-3  
 2.690000000000000E10   -2.886057831346989E-3  -3.376750391907990E-4  
 2.692000000000000E10   -7.077784539433196E-5   3.128321142867208E-3  
 2.694000000000000E10    3.095710417255759E-3  -3.481530002318323E-4  
 2.696000000000000E10   -8.153993403539062E-4  -2.629002090543509E-3  
 2.698000000000000E10   -2.618205733597279E-3   8.510226034559310E-4  
 2.700000000000000E10    1.352108782157302E-3   2.426840830594301E-3  
 2.702000000000000E10    2.279928186908364E-3  -1.525913830846548E-3  
 2.704000000000000E10   -1.809676061384380E-3  -2.098958240821958E-3  
 2.706000000000000E10   -1.595312263816595E-3   1.744820969179273E-3  
 2.708000000000000E10    1.936854445375502E-3   1.661480753682554E-3  
 2.710000000000000E10    1.490109832957387E-3  -2.501543378457427E-3  
 2.712000000000000E10   -2.311874181032181E-3  -1.069635036401451E-3  
 2.714000000000000E10   -7.433368591591716E-4   2.188097452744842E-3  
 2.716000000000000E10    2.604523673653603E-3   3.827385080512613E-4  
 2.718000000000000E10    3.272461181040853E-4  -2.398911630734801E-3  
 2.720000000000000E10   -2.446023980155587E-3   2.885190478991717E-4  
 2.722000000000000E10    2.631827665027231E-4   2.324449829757214E-3  
 2.724000000000000E10    2.317499369382858E-3  -6.624266388826072E-4  
 2.726000000000000E10   -1.336440793238580E-3  -2.188915153965354E-3  
 2.728000000000000E10   -2.011472824960947E-3   1.132630044594407E-3  
 2.730000000000000E10    1.303827157244086E-3   1.639648224227130E-3  
 2.732000000000000E10    1.388295902870596E-3  -1.769611961208284E-3  
 2.734000000000000E10   -1.744081499055028E-3  -1.523494371213019E-3  
 2.736000000000000E10   -1.158659695647657E-3   1.963520888239145E-3  
 2.738000000000000E10    2.005686750635505E-3   9.481227607466281E-4  
 2.740000000000000E10    5.972495418973267E-4  -2.327737165614963E-3  
 2.742000000000000E10   -2.450601896271110E-3   1.021640564431436E-4  
 2.744000000000000E10    4.077324774698354E-5   2.132536843419075E-3  
 2.746000000000000E10    2.321805804967880E-3  -2.103226288454607E-4  
 2.748000000000000E10   -6.391216884367168E-4  -1.988796982914209E-3  
 2.750000000000000E10   -2.242980292066932E-3   5.786697147414088E-4  
 2.752000000000000E10    1.104254974052310E-3   2.066647401079536E-3  
 2.754000000000000E10    1.871650107204914E-3  -1.077522872947156E-3  
 2.756000000000000E10   -1.176900928840041E-3  -1.698746695183218E-3  
