#  HZ   S   RI   R     50.00 
! Rohde & Schwarz ZVA40 4Ports - Version 3.90 - 1145.1110k42 SN: 100403
! Date: 2023-10-04 07:36:58
! Measurement: S12 
! 
 2.200000000000000E10    1.616912195459008E-3  -6.161031196825206E-4  
 2.202000000000000E10   -5.737239262089133E-4  -1.824477920308709E-3  
 2.204000000000000E10   -1.261848723515868E-3   9.886085754260421E-4  
 2.206000000000000E10    1.318758004345000E-3   1.131106866523624E-3  
 2.208000000000000E10    8.920129039324820E-4  -1.135057071223855E-3  
 2.210000000000000E10   -1.498102443292737E-3  -4.321562591940165E-4  
 2.212000000000000E10   -2.106666797772050E-4   1.364927971735597E-3  
 2.214000000000000E10    1.781870611011982E-3   4.289849021006376E-4  
 2.216000000000000E10    1.333446707576513E-4  -1.529542380012572E-3  
 2.218000000000000E10   -2.017508726567030E-3   2.687451778911054E-4  
 2.220000000000000E10    4.046907706651837E-4   2.329085487872362E-3  
 2.222000000000000E10    1.981466542929411E-3  -2.343548840144649E-4  
 2.224000000000000E10   -4.374338313937187E-4  -2.244156785309315E-3  
 2.226000000000000E10   -1.863388228230178E-3   1.018231851048768E-3  
 2.228000000000000E10    9.193499572575092E-4   2.148557221516967E-3  
 2.230000000000000E10    2.275505568832159E-3  -8.336976752616465E-4  
 2.232000000000000E10   -7.727099000476301E-4  -2.000701613724232E-3  
 2.234000000000000E10   -1.614080742001534E-3   1.061534276232123E-3  
 2.236000000000000E10    1.786472043022513E-3   1.676778076216579E-3  
 2.238000000000000E10    1.611698186025024E-3  -1.480406965129077E-3  
 2.240000000000000E10   -1.541486359201372E-3  -1.292463042773306E-3  
 2.242000000000000E10   -9.429241181351244E-4   1.454157056286931E-3  
 2.244000000000000E10    1.568687846884131E-3   2.811385493259877E-4  
 2.246000000000000E10    3.143944486510009E-4  -1.508270972408354E-3  
 2.248000000000000E10   -1.194144948385656E-3  -3.919302835129201E-4  
 2.250000000000000E10   -1.487181580159813E-4   1.382272690534592E-3  
 2.252000000000000E10    1.408973592333496E-3  -6.803274154663086E-4  
 2.254000000000000E10   -4.679794947151095E-4  -1.355996821075678E-3  
 2.256000000000000E10   -1.197072793729603E-3   8.288709796033800E-4  
 2.258000000000000E10    1.138510880991817E-3   1.390912104398012E-3  
 2.260000000000000E10    1.183441840112209E-3  -9.452310041524470E-4  
 2.262000000000000E10   -1.433456316590309E-3  -1.182165578939021E-3  
 2.264000000000000E10   -1.368496567010880E-3   1.521372236311436E-3  
 2.266000000000000E10    1.653708517551422E-3   1.538282958790660E-3  
 2.268000000000000E10    9.918524883687496E-4  -2.033384284004569E-3  
 2.270000000000000E10   -1.708955038338900E-3  -1.121763139963150E-3  
 2.272000000000000E10   -1.261902158148587E-3   1.908236416056752E-3  
 2.274000000000000E10    2.238876419141889E-3   4.991971072740853E-4  
 2.276000000000000E10    5.781682557426393E-4  -1.649622456170619E-3  
 2.278000000000000E10   -1.673964201472700E-3  -4.712053923867643E-4  
 2.280000000000000E10   -6.598136969842017E-4   1.624426920898259E-3  
 2.282000000000000E10    1.245187479071319E-3   1.572272507473826E-3  
 2.284000000000000E10   -3.995545557700098E-4  -1.757508376613259E-3  
 2.286000000000000E10   -2.012602286413312E-3   2.638736041262746E-4  
 2.288000000000000E10    6.240605725906789E-4   2.107639564201236E-3  
 2.290000000000000E10    1.302977907471359E-3  -9.169967379420996E-4  
 2.292000000000000E10   -1.360002672299743E-3  -1.517047057859600E-3  
 2.294000000000000E10   -1.330483122728765E-3   1.577774179168046E-3  
 2.296000000000000E10    1.542519778013229E-3   7.448740070685744E-4  
 2.298000000000000E10    1.040349365212023E-3  -1.507284818217158E-3  
 2.300000000000000E10   -1.919022295624018E-3  -7.593241170980036E-4  
 2.302000000000000E10   -1.178276725113392E-3   2.109444001689553E-3  
 2.304000000000000E10    2.406432293355465E-3   3.658287459984422E-4  
 2.306000000000000E10    5.879803939023987E-5  -2.126966835930944E-3  
 2.308000000000000E10   -2.574532991275191E-3  -3.010116633959115E-4  
 2.310000000000000E10    1.697477855486795E-4   2.296203747391701E-3  
 2.312000000000000E10    2.022332046180964E-3  -1.054242020472884E-4  
 2.314000000000000E10   -1.936863700393587E-4  -2.430025720968843E-3  
 2.316000000000000E10   -2.495232969522476E-3   5.669877864420414E-4  
 2.318000000000000E10    7.532507297582924E-4   2.120082732290030E-3  
 2.320000000000000E10    2.048527821898460E-3  -8.504489087499678E-4  
 2.322000000000000E10   -1.411036006174982E-3  -1.829260610975325E-3  
 2.324000000000000E10   -1.825053361244500E-3   1.580077339895070E-3  
 2.326000000000000E10    1.881597214378417E-3   7.376921712420881E-4  
 2.328000000000000E10    8.200071169994772E-4  -1.858465606346726E-3  
 2.330000000000000E10   -1.921999268233776E-3  -7.583000697195530E-4  
 2.332000000000000E10   -2.256774496345315E-5   1.878329436294735E-3  
 2.334000000000000E10    2.344632055610418E-3  -2.370294823776931E-4  
 2.336000000000000E10   -5.965898162685335E-4  -2.732822904363275E-3  
 2.338000000000000E10   -2.381243743002415E-3   1.005949685350061E-3  
 2.340000000000000E10    1.453459495678544E-3   2.345613902434707E-3  
 2.342000000000000E10    2.169314539059997E-3  -2.214525593444705E-3  
 2.344000000000000E10   -2.342558698728681E-3  -2.271112985908985E-3  
 2.346000000000000E10   -1.640774658881128E-3   2.560414839535952E-3  
 2.348000000000000E10    2.695762086659670E-3   1.091550337150693E-3  
 2.350000000000000E10    1.397716347128153E-3  -2.869158750399947E-3  
 2.352000000000000E10   -2.548196353018284E-3  -5.005395505577326E-4  
 2.354000000000000E10   -5.332088912837207E-4   2.643832471221685E-3  
 2.356000000000000E10    2.535263542085886E-3   4.927514237351716E-4  
 2.358000000000000E10   -9.046056948136538E-5  -2.682555932551622E-3  
 2.360000000000000E10   -2.394792623817921E-3   4.141160752624273E-4  
 2.362000000000000E10    1.091637765057385E-3   1.609796308912337E-3  
 2.364000000000000E10    1.296446425840259E-3  -1.469100709073246E-3  
 2.366000000000000E10   -1.591172534972429E-3  -1.198331941850483E-3  
 2.368000000000000E10   -8.421961101703346E-4   1.335909939371049E-3  
 2.370000000000000E10    1.781418686732650E-3   3.675074549391866E-4  
 2.372000000000000E10   -5.460947068058886E-5  -1.795755233615637E-3  
 2.374000000000000E10   -2.395933959633112E-3   5.260873585939407E-4  
 2.376000000000000E10    8.817465859465301E-4   2.084444276988506E-3  
 2.378000000000000E10    1.228563138283789E-3  -1.251582289114595E-3  
 2.380000000000000E10   -1.865995116531849E-3  -1.674247672781348E-3  
 2.382000000000000E10   -1.446803566068411E-3   1.499297562986612E-3  
 2.384000000000000E10    1.167645328678191E-3   1.290231361053884E-3  
 2.386000000000000E10    9.798228275030851E-4  -1.894241198897362E-3  
 2.388000000000000E10   -2.052943455055356E-3  -1.145952264778316E-3  
 2.390000000000000E10   -8.402659441344440E-4   2.127896761521697E-3  
 2.392000000000000E10    1.665077870711684E-3   4.418688768055290E-4  
 2.394000000000000E10    3.139342006761581E-4  -1.486428780481219E-3  
 2.396000000000000E10   -1.709223957732320E-3   1.170449613709934E-4  
 2.398000000000000E10    2.711315755732358E-4   1.551975728943944E-3  
 2.400000000000000E10    1.091450452804565E-3  -2.679215103853494E-4  
 2.402000000000000E10   -5.763475201092660E-4  -6.324196583591402E-4  
 2.404000000000000E10   -6.413842202164233E-4   9.182988433167338E-4  
 2.406000000000000E10    7.048764964565635E-4   6.353193311952055E-4  
 2.408000000000000E10    1.209944457514212E-4  -7.048302795737982E-4  
 2.410000000000000E10   -6.157887983135879E-4   2.993744856212288E-4  
 2.412000000000000E10    5.558989359997213E-4   8.828865247778595E-4  
 2.414000000000000E10    1.035093097016215E-3  -6.702375249005854E-4  
 2.416000000000000E10   -5.214461125433445E-4  -1.037777285091579E-3  
 2.418000000000000E10   -5.925235454924405E-4   1.253917696885765E-3  
 2.420000000000000E10    1.395385013893247E-3   6.327483570203185E-4  
 2.422000000000000E10    1.049282494932413E-3  -1.347402809187770E-3  
 2.424000000000000E10   -1.178305479697883E-3  -4.091484588570893E-4  
 2.426000000000000E10    7.547195127699524E-5   1.483503030613065E-3  
 2.428000000000000E10    1.473402953706682E-3   6.415175448637456E-5  
 2.430000000000000E10    3.274270275142044E-4  -1.451340154744685E-3  
 2.432000000000000E10   -1.259276643395424E-3   2.534967279643752E-6  
 2.434000000000000E10    5.987203912809491E-4   8.657364523969591E-4  
 2.436000000000000E10    8.506985614076257E-4  -5.535596865229309E-4  
 2.438000000000000E10   -4.226429737173021E-4  -9.027050691656768E-4  
 2.440000000000000E10   -5.124268936924636E-4   7.860808982513845E-4  
 2.442000000000000E10    1.002801116555929E-3   3.923074109479785E-4  
 2.444000000000000E10    9.961965406546369E-5  -9.145036456175149E-4  
 2.446000000000000E10   -1.015842542983592E-3  -5.421108653536066E-5  
 2.448000000000000E10    6.875935941934586E-4   1.035230699926615E-3  
 2.450000000000000E10    7.861158810555935E-4  -4.715917748399079E-4  
 2.452000000000000E10   -1.489160058554262E-4  -9.193516452796757E-4  
 2.454000000000000E10   -1.020605326630175E-3   4.426462110131979E-4  
 2.456000000000000E10    1.054405351169407E-3   1.191267743706703E-3  
 2.458000000000000E10    6.759413518011570E-4  -1.214594114571810E-3  
 2.460000000000000E10   -1.189118716865778E-3  -6.215309258550406E-4  
 2.462000000000000E10   -8.807728881947696E-4   1.163713401183486E-3  
 2.464000000000000E10    1.067087752744556E-3   4.286554758436978E-4  
 2.466000000000000E10    7.290121284313500E-4  -8.594432147219777E-4  
 2.468000000000000E10   -1.387563766911626E-3  -5.829671863466501E-4  
 2.470000000000000E10   -3.297964576631784E-4   1.444365596398711E-3  
 2.472000000000000E10    1.441884902305901E-3   2.535823441576213E-4  
 2.474000000000000E10    3.207163172191940E-5  -1.061270711943507E-3  
 2.476000000000000E10   -9.415824897587299E-4   3.702389949467033E-4  
 2.478000000000000E10    4.343804903328419E-4   1.398403197526932E-3  
 2.480000000000000E10    6.798630347475410E-4  -6.232474115677178E-4  
 2.482000000000000E10   -3.550950204953551E-4  -5.278155440464616E-4  
 2.484000000000000E10   -7.763684843666852E-4   9.407470934092999E-4  
 2.486000000000000E10    1.133467536419630E-3   5.543784354813397E-4  
 2.488000000000000E10    3.535874129738659E-4  -1.138155465014279E-3  
 2.490000000000000E10   -1.288633560761809E-3   2.023349952651188E-4  
 2.492000000000000E10    2.010888565564528E-4   1.516938442364335E-3  
 2.494000000000000E10    1.932077109813690E-3  -3.275047129136510E-5  
 2.496000000000000E10   -4.654268559534103E-5  -1.464415458030999E-3  
 2.498000000000000E10   -1.416260725818574E-3   3.851214423775673E-4  
 2.500000000000000E10    4.800781025551260E-4   1.923830714076757E-3  
 2.502000000000000E10    1.827989239245653E-3  -7.710214704275131E-4  
 2.504000000000000E10   -7.154358318075538E-4  -1.560651347972453E-3  
 2.506000000000000E10   -1.358771813102067E-3   6.938687292858958E-4  
 2.508000000000000E10    1.140856184065342E-3   1.218493795022368E-3  
 2.510000000000000E10    1.504996325820684E-3  -1.209393492899835E-3  
 2.512000000000000E10   -1.331201754510403E-3  -8.928527240641415E-4  
 2.514000000000000E10   -5.131876096129417E-4   1.470759045332670E-3  
 2.516000000000000E10    1.509250956587493E-3   1.976295025087893E-4  
 2.518000000000000E10   -1.228227047249675E-4  -1.447338028810918E-3  
 2.520000000000000E10   -1.429109950549901E-3  -4.273808372090571E-5  
 2.522000000000000E10    3.206638502888382E-4   1.412840327247977E-3  
 2.524000000000000E10    1.526729785837233E-3  -9.438408887945116E-4  
 2.526000000000000E10   -9.067746577784419E-4  -1.698270556516945E-3  
 2.528000000000000E10   -1.558896852657199E-3   1.008857972919941E-3  
 2.530000000000000E10    1.618579612113535E-3   1.488925423473120E-3  
 2.532000000000000E10    1.648645964451134E-3  -1.891535823233426E-3  
 2.534000000000000E10   -2.136522438377142E-3  -1.555704395286739E-3  
 2.536000000000000E10   -1.130381249822676E-3   2.093793358653784E-3  
 2.538000000000000E10    1.862048753537238E-3   6.392496870830655E-4  
 2.540000000000000E10    5.867566214874387E-4  -2.350422786548734E-3  
 2.542000000000000E10   -2.331139519810677E-3  -1.022365875542164E-3  
 2.544000000000000E10   -3.238236240576953E-4   2.299163024872541E-3  
 2.546000000000000E10    2.105805324390531E-3  -4.679140693042427E-4  
 2.548000000000000E10   -2.053542702924460E-4  -2.176686190068722E-3  
 2.550000000000000E10   -1.856257091276348E-3   2.862499677576125E-4  
 2.552000000000000E10    8.979681879281998E-4   1.667708274908364E-3  
 2.554000000000000E10    1.843942212872207E-3  -1.212463132105768E-3  
 2.556000000000000E10   -1.389818498864770E-3  -1.564336591400206E-3  
 2.558000000000000E10   -1.408277545124292E-3   1.388505217619240E-3  
 2.560000000000000E10    1.624953583814204E-3   9.212256991304457E-4  
 2.562000000000000E10    7.190841133706272E-4  -1.842908095568419E-3  
 2.564000000000000E10   -2.418947638943791E-3  -1.253412454389036E-3  
 2.566000000000000E10   -5.022276309318841E-4   2.549560740590096E-3  
 2.568000000000000E10    2.788754878565669E-3  -2.274690195918083E-4  
 2.570000000000000E10   -7.147279102355242E-4  -2.673929790034890E-3  
 2.572000000000000E10   -2.477348782122135E-3   9.944678749889135E-4  
 2.574000000000000E10    8.370792493224144E-4   2.476800233125687E-3  
 2.576000000000000E10    2.702485071495175E-3  -1.384055824019015E-3  
 2.578000000000000E10   -1.604634337127209E-3  -2.253493759781122E-3  
 2.580000000000000E10   -2.298445673659444E-3   2.068270696327090E-3  
 2.582000000000000E10    2.087688539177179E-3   1.723469118587673E-3  
 2.584000000000000E10    1.949881901964545E-3  -2.054672222584486E-3  
 2.586000000000000E10   -2.604265697300434E-3  -1.541382167488337E-3  
 2.588000000000000E10   -1.314867055043578E-3   2.782412804663181E-3  
 2.590000000000000E10    2.740316558629274E-3   1.084926305338740E-3  
 2.592000000000000E10    6.559742614626885E-4  -3.077362198382616E-3  
 2.594000000000000E10   -2.919442253187299E-3  -3.922018513549119E-4  
 2.596000000000000E10   -1.367082404613029E-5   3.100855741649866E-3  
 2.598000000000000E10    3.060923190787435E-3  -7.376568391919136E-4  
 2.600000000000000E10   -8.039052481763065E-4  -2.713433466851711E-3  
 2.602000000000000E10   -2.746904268860817E-3   1.558972871862352E-3  
 2.604000000000000E10    1.808405620977283E-3   2.744667930528522E-3  
 2.606000000000000E10    1.842896221205592E-3  -1.978152664378285E-3  
 2.608000000000000E10   -2.465779194608331E-3  -1.727261347696185E-3  
 2.610000000000000E10   -2.027227310463786E-3   2.698939060792327E-3  
 2.612000000000000E10    2.643663901835680E-3   1.285330974496901E-3  
 2.614000000000000E10    8.647906361147761E-4  -3.360749920830131E-3  
 2.616000000000000E10   -3.178513841703534E-3  -4.890278214588761E-4  
 2.618000000000000E10   -5.406151176430285E-4   3.531007561832666E-3  
 2.620000000000000E10    3.876612754538655E-3  -2.731195490923710E-5  
 2.622000000000000E10   -6.473469547927380E-4  -3.543461672961712E-3  
 2.624000000000000E10   -3.618184942752123E-3   1.312524545937777E-3  
 2.626000000000000E10    1.637888373807073E-3   3.774570068344474E-3  
 2.628000000000000E10    2.983257407322526E-3  -1.814553164876998E-3  
 2.630000000000000E10   -2.459934446960688E-3  -2.753473119810224E-3  
 2.632000000000000E10   -2.337135607376695E-3   2.531260251998901E-3  
 2.634000000000000E10    2.577594015747309E-3   2.056216821074486E-3  
 2.636000000000000E10    1.954088220372796E-3  -3.096336498856545E-3  
 2.638000000000000E10   -3.106825985014439E-3  -1.771296956576407E-3  
 2.640000000000000E10   -8.241116884164512E-4   3.251673420891166E-3  
 2.642000000000000E10    3.095582360401750E-3   4.810532263945788E-4  
 2.644000000000000E10    5.975338863208890E-4  -3.212928073480725E-3  
 2.646000000000000E10   -3.593746572732925E-3   6.262853275984526E-4  
 2.648000000000000E10    7.535861805081368E-4   3.506907029077411E-3  
 2.650000000000000E10    3.325536381453276E-3  -1.710996613837779E-3  
 2.652000000000000E10   -2.046623500064015E-3  -3.003512741997838E-3  
 2.654000000000000E10   -2.705989172682166E-3   2.089524408802390E-3  
 2.656000000000000E10    3.128773067146540E-3   2.235707361251116E-3  
 2.658000000000000E10    1.918085967190564E-3  -3.158997278660536E-3  
 2.660000000000000E10   -3.433910897001624E-3  -1.631611376069486E-3  
 2.662000000000000E10   -7.427717791870236E-4   3.660382237285376E-3  
 2.664000000000000E10    3.496817778795958E-3   4.218136018607765E-4  
 2.666000000000000E10   -8.411474846070632E-5  -3.584590274840593E-3  
 2.668000000000000E10   -3.397743916139007E-3   3.242913226131350E-4  
 2.670000000000000E10    7.383149350062013E-4   3.231929615139961E-3  
 2.672000000000000E10    2.997810253873467E-3  -1.171108451671898E-3  
 2.674000000000000E10   -1.369833014905453E-3  -3.264168975874782E-3  
 2.676000000000000E10   -2.844157395884395E-3   1.552138477563858E-3  
 2.678000000000000E10    2.153018722310662E-3   2.498732879757881E-3  
 2.680000000000000E10    2.443287754431367E-3  -2.731794491410255E-3  
 2.682000000000000E10   -2.839035820215941E-3  -1.988860778510571E-3  
 2.684000000000000E10   -1.418858999386430E-3   2.852207049727440E-3  
 2.686000000000000E10    3.131564240902662E-3   1.045699813403189E-3  
 2.688000000000000E10    7.280461722984910E-4  -3.271083347499371E-3  
 2.690000000000000E10   -3.461409593001008E-3  -5.500666447915137E-4  
 2.692000000000000E10    8.487099694320932E-5   3.252069698646665E-3  
 2.694000000000000E10    3.155282232910395E-3  -5.231638206169009E-4  
 2.696000000000000E10   -9.255015756934881E-4  -3.033310174942017E-3  
 2.698000000000000E10   -2.811651444062591E-3   1.255421550013125E-3  
 2.700000000000000E10    1.292111119255424E-3   2.427962841466069E-3  
 2.702000000000000E10    1.882615033537149E-3  -1.937194727361202E-3  
 2.704000000000000E10   -1.978120068088174E-3  -1.627424149774015E-3  
 2.706000000000000E10   -1.538217766210437E-3   2.186277415603399E-3  
 2.708000000000000E10    2.143073827028275E-3   9.962671902030706E-4  
 2.710000000000000E10    7.799016893841326E-4  -2.002242952585220E-3  
 2.712000000000000E10   -2.626169007271528E-3  -3.779002290684730E-4  
 2.714000000000000E10   -2.618901198729873E-4   2.214606851339340E-3  
 2.716000000000000E10    2.441529650241137E-3   1.302405144087970E-4  
 2.718000000000000E10   -4.968252615071833E-4  -2.154740970581770E-3  
 2.720000000000000E10   -2.032805234193802E-3   5.154011305421591E-4  
 2.722000000000000E10    7.788008661009371E-4   2.448441926389933E-3  
 2.724000000000000E10    1.910956809297204E-3  -7.795218261890113E-4  
 2.726000000000000E10   -1.044364413246512E-3  -1.902195508591831E-3  
 2.728000000000000E10   -1.793630071915686E-3   1.556192059069872E-3  
 2.730000000000000E10    1.524615683592856E-3   1.827218220569193E-3  
 2.732000000000000E10    1.582256518304348E-3  -1.419869717210531E-3  
 2.734000000000000E10   -1.826327410526574E-3  -1.230323454365134E-3  
 2.736000000000000E10   -1.171203679405153E-3   1.878302544355393E-3  
 2.738000000000000E10    2.008082112297416E-3   8.608389762230218E-4  
 2.740000000000000E10    7.376241264864802E-4  -1.681239577010274E-3  
 2.742000000000000E10   -2.098378958180547E-3  -4.926770343445242E-4  
 2.744000000000000E10   -3.691313850140432E-6   2.224412048235536E-3  
 2.746000000000000E10    1.741620944812894E-3   1.958071952685714E-4  
 2.748000000000000E10   -2.525271556805819E-4  -2.208498772233725E-3  
 2.750000000000000E10   -1.854688161984086E-3   6.490391679108143E-4  
 2.752000000000000E10    5.102578434161842E-4   1.811469672247767E-3  
 2.754000000000000E10    1.715846592560411E-3  -1.078576082363725E-3  
 2.756000000000000E10   -9.257796336896718E-4  -1.252752961590886E-3  
