#  HZ   S   RI   R     50.00 
! Rohde & Schwarz ZVA40 4Ports - Version 3.90 - 1145.1110k42 SN: 100403
! Date: 2023-10-04 07:37:26
! Measurement: S12 
! 
 2.200000000000000E10    1.086315489374101E-3  -5.447572912089527E-4  
 2.202000000000000E10   -4.101217200513929E-4  -8.563334122300148E-4  
 2.204000000000000E10   -1.069604186341167E-3   1.066137221641839E-3  
 2.206000000000000E10    1.714600366540253E-3   9.113054256886244E-4  
 2.208000000000000E10    3.949088568333536E-4  -1.311965752393007E-3  
 2.210000000000000E10   -1.411976409144700E-3  -5.873792106285691E-4  
 2.212000000000000E10   -3.153058351017535E-4   1.645287848077714E-3  
 2.214000000000000E10    1.902693998999894E-3   2.030438481597230E-4  
 2.216000000000000E10    5.555623793043196E-4  -2.008313545957208E-3  
 2.218000000000000E10   -1.765742897987366E-3   1.303430472034961E-4  
 2.220000000000000E10    1.052311272360385E-4   1.671102945692837E-3  
 2.222000000000000E10    2.043154090642929E-3  -2.683245111256838E-4  
 2.224000000000000E10    1.776969438651577E-4  -1.860181801021099E-3  
 2.226000000000000E10   -1.700577908195555E-3  -7.615019421791658E-5  
 2.228000000000000E10    1.321883901255205E-4   1.641710521653295E-3  
 2.230000000000000E10    1.530355191789568E-3   4.590837852447294E-5  
 2.232000000000000E10   -2.450657775625587E-4  -1.850505708716810E-3  
 2.234000000000000E10   -1.318671973422170E-3  -8.790226274868473E-5  
 2.236000000000000E10    2.821046509779990E-4   1.319870469160378E-3  
 2.238000000000000E10    9.948512306436896E-4  -8.764299564063549E-4  
 2.240000000000000E10   -5.947098834440112E-4  -8.711680420674384E-4  
 2.242000000000000E10   -5.954848602414131E-4   8.745588129386306E-4  
 2.244000000000000E10    6.930802483111620E-4  -3.915704292012379E-5  
 2.246000000000000E10    5.678000525222160E-5  -9.606493404135108E-4  
 2.248000000000000E10   -6.595367449335754E-4  -6.639235834882129E-6  
 2.250000000000000E10   -1.780699531082064E-4   7.637972012162209E-4  
 2.252000000000000E10    1.217153272591531E-3  -2.760967181529850E-4  
 2.254000000000000E10   -2.168189821531996E-4  -1.773258903995156E-3  
 2.256000000000000E10   -1.631883671507239E-3   4.624971552402712E-5  
 2.258000000000000E10    2.668898086994886E-4   1.641188631765544E-3  
 2.260000000000000E10    1.586745376698673E-3  -6.530486862175167E-4  
 2.262000000000000E10   -5.632280372083187E-4  -1.802666462026537E-3  
 2.264000000000000E10   -1.617730245925486E-3   4.638473328668624E-4  
 2.266000000000000E10    5.353658343665302E-4   1.413300982676446E-3  
 2.268000000000000E10    1.409812131896615E-3  -7.738997810520232E-4  
 2.270000000000000E10   -1.067056786268950E-3  -1.617541187442839E-3  
 2.272000000000000E10   -1.651935512199998E-3   1.095286570489407E-3  
 2.274000000000000E10    1.228226232342422E-3   1.133576268330216E-3  
 2.276000000000000E10    5.177803104743362E-4  -1.148109557107091E-3  
 2.278000000000000E10   -9.083795011974871E-4  -9.038780117407441E-4  
 2.280000000000000E10   -6.337626255117357E-4   9.048678912222385E-4  
 2.282000000000000E10    3.492912510409951E-4   1.432221266441047E-3  
 2.284000000000000E10    1.248937187483534E-4  -1.512257033027709E-3  
 2.286000000000000E10   -1.463669468648732E-3   2.737340400926769E-4  
 2.288000000000000E10   -5.404198236647062E-5   1.549145439639688E-3  
 2.290000000000000E10    1.263531856238842E-3  -2.204272168455645E-4  
 2.292000000000000E10   -9.375120862387121E-4  -1.359586138278246E-3  
 2.294000000000000E10   -1.397517044097185E-3   1.181604689918459E-3  
 2.296000000000000E10    1.298983930610120E-3   9.470966178923845E-4  
 2.298000000000000E10    1.215676777064800E-3  -1.143518951721489E-3  
 2.300000000000000E10   -1.316651585511863E-3  -9.911715751513839E-4  
 2.302000000000000E10   -1.176747959107161E-3   1.705214031971991E-3  
 2.304000000000000E10    2.218403853476048E-3   1.307182013988495E-3  
 2.306000000000000E10    7.579913362860680E-4  -1.950641977600753E-3  
 2.308000000000000E10   -2.046240027993918E-3  -3.654645406641066E-4  
 2.310000000000000E10   -3.671012236736715E-4   1.858694246038795E-3  
 2.312000000000000E10    1.988347852602601E-3   2.745322999544442E-4  
 2.314000000000000E10    9.934031550073996E-5  -2.246034331619740E-3  
 2.316000000000000E10   -2.140003023669124E-3   3.874256799463183E-4  
 2.318000000000000E10    9.492709650658071E-4   1.712141558527947E-3  
 2.320000000000000E10    1.495831878855825E-3  -7.369033410213888E-4  
 2.322000000000000E10   -6.793061620555818E-4  -1.335527049377561E-3  
 2.324000000000000E10   -1.399393426254392E-3   1.380263245664537E-3  
 2.326000000000000E10    1.178649370558560E-3   8.793558226898313E-4  
 2.328000000000000E10    3.039904113393277E-4  -1.577072427608073E-3  
 2.330000000000000E10   -1.851706299930811E-3   2.648846202646382E-5  
 2.332000000000000E10   -2.630535163916647E-4   1.548262778669596E-3  
 2.334000000000000E10    1.632178784348071E-3  -5.946451565250754E-4  
 2.336000000000000E10   -1.227290194947273E-4  -2.432384062558413E-3  
 2.338000000000000E10   -2.070541493594647E-3   8.482321863994002E-4  
 2.340000000000000E10    1.176513382233679E-3   1.956265419721603E-3  
 2.342000000000000E10    1.672928803600371E-3  -1.326197176240385E-3  
 2.344000000000000E10   -1.734038232825697E-3  -1.369788311421871E-3  
 2.346000000000000E10   -2.155852504074574E-3   1.433152239769697E-3  
 2.348000000000000E10    1.395354280248284E-3   1.518778270110488E-3  
 2.350000000000000E10    7.387755322270095E-4  -2.314397832378745E-3  
 2.352000000000000E10   -2.305845497176051E-3  -5.175992846488953E-4  
 2.354000000000000E10   -1.315637200605124E-4   1.644209725782275E-3  
 2.356000000000000E10    1.685774652287364E-3  -4.437167808646336E-5  
 2.358000000000000E10   -3.316225775051862E-4  -1.659655245020986E-3  
 2.360000000000000E10   -1.204359577968717E-3   7.689784397371113E-4  
 2.362000000000000E10    9.776764782145619E-4   1.019649789668620E-3  
 2.364000000000000E10    3.996484156232327E-4  -9.077035938389599E-4  
 2.366000000000000E10   -1.512051443569362E-3  -1.166181245935150E-4  
 2.368000000000000E10   -7.106967677827925E-5   1.618085079826415E-3  
 2.370000000000000E10    1.475479686632752E-3  -1.411963312420994E-4  
 2.372000000000000E10   -7.137018837966025E-4  -1.550715998746455E-3  
 2.374000000000000E10   -1.779487822204828E-3   1.216752687469125E-3  
 2.376000000000000E10    1.165485475212336E-3   1.532028545625508E-3  
 2.378000000000000E10    1.102510024793446E-3  -1.208334695547819E-3  
 2.380000000000000E10   -1.150616677477956E-3  -8.748790132813156E-4  
 2.382000000000000E10   -1.087611773982644E-3   1.299693481996656E-3  
 2.384000000000000E10    1.167661859653890E-3   1.134818885475397E-3  
 2.386000000000000E10    6.710502784699202E-4  -1.081106485798955E-3  
 2.388000000000000E10   -1.507192617282271E-3  -1.063929084921256E-4  
 2.390000000000000E10    1.109441800508648E-4   1.068694167770445E-3  
 2.392000000000000E10    8.546524331904948E-4   5.982688890071586E-5  
 2.394000000000000E10   -1.691985671641305E-4  -6.484941113740206E-4  
 2.396000000000000E10   -3.095510473940522E-4   6.739691598340869E-4  
 2.398000000000000E10    9.261858067475259E-4   3.901234013028443E-4  
 2.400000000000000E10   -2.067439054371789E-4  -6.606659735552967E-4  
 2.402000000000000E10   -5.975032690912485E-4   9.844714077189565E-4  
 2.404000000000000E10    7.654291694052517E-4   7.395491120405495E-4  
 2.406000000000000E10    8.114707889035344E-4  -7.539713406004012E-4  
 2.408000000000000E10   -6.241101073101163E-4  -4.133777110837400E-4  
 2.410000000000000E10   -8.302531205117703E-4   9.727498982101679E-4  
 2.412000000000000E10    1.502464408986270E-3   7.292574737221003E-4  
 2.414000000000000E10    3.405663592275232E-4  -1.345157506875694E-3  
 2.416000000000000E10   -9.183587972074747E-4  -4.286376934032887E-4  
 2.418000000000000E10   -3.118383174296469E-4   1.205039327032864E-3  
 2.420000000000000E10    1.525539788417518E-3   2.158829302061349E-4  
 2.422000000000000E10    3.296251452411525E-5  -1.534390496090055E-3  
 2.424000000000000E10   -1.119456137530506E-3   3.891542291967198E-5  
 2.426000000000000E10    4.910547286272049E-4   1.007449696771801E-3  
 2.428000000000000E10    1.019205781631172E-3  -4.817156004719436E-4  
 2.430000000000000E10   -4.147015570197254E-4  -8.062997367233038E-4  
 2.432000000000000E10   -6.454133545048535E-4   6.234738393686712E-4  
 2.434000000000000E10    1.137084793299437E-3   2.743291552178562E-4  
 2.436000000000000E10    9.639998461352661E-5  -1.059249276295304E-3  
 2.438000000000000E10   -1.075455453246832E-3  -2.129440690623596E-4  
 2.440000000000000E10    1.329558581346646E-4   8.787239203229547E-4  
 2.442000000000000E10    1.363124581985176E-3  -3.721859829965979E-4  
 2.444000000000000E10   -7.865047082304955E-4  -1.453328644856811E-3  
 2.446000000000000E10   -1.082480303011835E-3   9.546572691760957E-4  
 2.448000000000000E10    1.029829960316420E-3   1.413098536431789E-3  
 2.450000000000000E10    1.360858557745814E-3  -1.631221151910722E-3  
 2.452000000000000E10   -1.399763394147158E-3  -1.127010909840465E-3  
 2.454000000000000E10   -1.111919293180108E-3   1.728607108816505E-3  
 2.456000000000000E10    1.744732027873397E-3   8.070352487266064E-4  
 2.458000000000000E10    8.014246122911573E-4  -1.614490407519043E-3  
 2.460000000000000E10   -1.743869623169303E-3  -6.477418937720358E-4  
 2.462000000000000E10   -2.527353353798389E-4   1.572698820382357E-3  
 2.464000000000000E10    1.818625489249826E-3   3.296857757959515E-4  
 2.466000000000000E10   -1.166285983345006E-5  -1.507155830040574E-3  
 2.468000000000000E10   -1.447799964807928E-3   1.520732621429488E-4  
 2.470000000000000E10    4.307698109187186E-4   1.644871081225574E-3  
 2.472000000000000E10    1.315234811045229E-3  -4.508710408117622E-4  
 2.474000000000000E10   -3.585160011425614E-4  -1.181920757517219E-3  
 2.476000000000000E10   -1.158816157840192E-3   8.722573984414339E-4  
 2.478000000000000E10    1.263604732230306E-3   1.232750364579260E-3  
 2.480000000000000E10    1.230375492013991E-3  -1.497394987381995E-3  
 2.482000000000000E10   -1.825357670895755E-3  -1.872006978373975E-4  
 2.484000000000000E10   -5.238262747297995E-5   1.889501931145787E-3  
 2.486000000000000E10    1.859015086665750E-3   1.272430963581428E-4  
 2.488000000000000E10   -2.698014432098717E-4  -1.809772686101496E-3  
 2.490000000000000E10   -1.733044744469225E-3   2.204062329838052E-4  
 2.492000000000000E10    6.326403818093240E-4   1.576243550516665E-3  
 2.494000000000000E10    2.008290728554130E-3  -6.075284327380359E-4  
 2.496000000000000E10   -6.739366217516363E-4  -1.948739052750170E-3  
 2.498000000000000E10   -1.637141220271587E-3   7.361212046816945E-4  
 2.500000000000000E10    9.597626049071550E-4   1.673819497227669E-3  
 2.502000000000000E10    1.820050878450275E-3  -1.077840570360422E-3  
 2.504000000000000E10   -1.511112786829472E-3  -1.710038632154465E-3  
 2.506000000000000E10   -1.329748774878681E-3   1.192065072245896E-3  
 2.508000000000000E10    1.823341124691069E-3   1.337334979325533E-3  
 2.510000000000000E10    7.625104626640678E-4  -1.936760847456753E-3  
 2.512000000000000E10   -1.590940752066672E-3  -3.780480474233627E-4  
 2.514000000000000E10   -2.015946083702147E-4   1.621912349946797E-3  
 2.516000000000000E10    2.063981723040342E-3  -2.922465000665397E-6  
 2.518000000000000E10   -1.292769156862050E-4  -1.625196426175535E-3  
 2.520000000000000E10   -1.750546158291400E-3   5.285068764351308E-4  
 2.522000000000000E10    8.094249642454088E-4   1.675522187724710E-3  
 2.524000000000000E10    1.793323433957994E-3  -1.184664550237358E-3  
 2.526000000000000E10   -1.548479543998838E-3  -1.844557235017419E-3  
 2.528000000000000E10   -1.656562089920044E-3   1.071114442311227E-3  
 2.530000000000000E10    1.583484001457691E-3   1.858159899711609E-3  
 2.532000000000000E10    1.570599735714495E-3  -2.271839184686542E-3  
 2.534000000000000E10   -1.950681442394853E-3  -1.334871863946319E-3  
 2.536000000000000E10   -1.244850340299308E-3   2.405668143182993E-3  
 2.538000000000000E10    2.175259403884411E-3   6.048588547855616E-4  
 2.540000000000000E10    8.336557657457888E-4  -2.552557038143277E-3  
 2.542000000000000E10   -2.842949703335762E-3  -5.175065598450601E-4  
 2.544000000000000E10   -3.605363890528679E-4   2.369475783780217E-3  
 2.546000000000000E10    2.307966351509094E-3  -5.302198696881533E-4  
 2.548000000000000E10   -1.334352651610971E-3  -2.240465721115470E-3  
 2.550000000000000E10   -1.971611054614186E-3   5.421119276434183E-4  
 2.552000000000000E10    8.910926408134401E-4   1.983259106054902E-3  
 2.554000000000000E10    1.463285181671381E-3  -1.570467255078256E-3  
 2.556000000000000E10   -1.626371056772769E-3  -1.486606546677649E-3  
 2.558000000000000E10   -1.409415970556438E-3   1.732996432110667E-3  
 2.560000000000000E10    2.029869938269258E-3   1.216324861161411E-3  
 2.562000000000000E10    8.857438224367797E-4  -2.715842332690954E-3  
 2.564000000000000E10   -2.938771853223443E-3  -2.325089008081704E-4  
 2.566000000000000E10    9.888600288832095E-6   2.926664194092155E-3  
 2.568000000000000E10    3.230974078178406E-3  -6.557072629220784E-4  
 2.570000000000000E10   -1.022070529870689E-3  -2.867042087018490E-3  
 2.572000000000000E10   -3.116848180070519E-3   1.153939985670149E-3  
 2.574000000000000E10    1.749168382957578E-3   2.771588275209069E-3  
 2.576000000000000E10    2.608588198199868E-3  -1.793162082321942E-3  
 2.578000000000000E10   -2.507197204977274E-3  -2.323288936167955E-3  
 2.580000000000000E10   -2.081724116578698E-3   2.241632435470820E-3  
 2.582000000000000E10    2.238983754068613E-3   1.781928469426930E-3  
 2.584000000000000E10    1.645296579226852E-3  -2.748552709817886E-3  
 2.586000000000000E10   -2.593352692201734E-3  -1.214415999129415E-3  
 2.588000000000000E10   -1.196833560243249E-3   2.820191904902458E-3  
 2.590000000000000E10    3.231081878766418E-3   1.006690668873489E-3  
 2.592000000000000E10    1.656955428188667E-4  -3.155582817271352E-3  
 2.594000000000000E10   -3.197800368070602E-3   4.975848132744432E-4  
 2.596000000000000E10    7.033526198938489E-4   3.281188197433949E-3  
 2.598000000000000E10    2.947988919913769E-3  -1.231747097335756E-3  
 2.600000000000000E10   -1.823731116019189E-3  -2.915731864050031E-3  
 2.602000000000000E10   -2.498637652024627E-3   2.065138658508658E-3  
 2.604000000000000E10    2.529118908569217E-3   2.031491370871663E-3  
 2.606000000000000E10    2.189039252698422E-3  -2.586652990430594E-3  
 2.608000000000000E10   -2.448746468871832E-3  -1.782767008990049E-3  
 2.610000000000000E10   -1.522998325526714E-3   3.017363138496876E-3  
 2.612000000000000E10    3.706108313053846E-3   1.331634586676955E-3  
 2.614000000000000E10    6.773153436370194E-4  -3.280416363850236E-3  
 2.616000000000000E10   -3.793651703745127E-3  -3.310700703877956E-4  
 2.618000000000000E10   -1.402140333084390E-4   3.591768443584442E-3  
 2.620000000000000E10    3.544405335560441E-3  -3.903266333509237E-4  
 2.622000000000000E10   -9.472775273025036E-4  -4.034507554024458E-3  
 2.624000000000000E10   -3.340424969792366E-3   1.469804206863046E-3  
 2.626000000000000E10    2.046967856585980E-3   3.247264539822936E-3  
 2.628000000000000E10    3.004055703058839E-3  -1.971176359802485E-3  
 2.630000000000000E10   -2.383182290941477E-3  -2.551954239606857E-3  
 2.632000000000000E10   -2.321907784789801E-3   3.036729758605361E-3  
 2.634000000000000E10    2.884798217564821E-3   1.588399405591190E-3  
 2.636000000000000E10    1.330992206931114E-3  -2.835212275385857E-3  
 2.638000000000000E10   -3.379867877811194E-3  -1.284103840589523E-3  
 2.640000000000000E10   -7.790365489199758E-4   3.293588059023023E-3  
 2.642000000000000E10    3.146088449284434E-3  -2.214926207670942E-4  
 2.644000000000000E10   -5.553704686462879E-4  -3.425845876336098E-3  
 2.646000000000000E10   -3.448661649599671E-3   9.491557138971984E-4  
 2.648000000000000E10    1.605415251106024E-3   3.331340849399567E-3  
 2.650000000000000E10    2.563943853601813E-3  -1.833573332987726E-3  
 2.652000000000000E10   -2.246271120384336E-3  -2.618771046400070E-3  
 2.654000000000000E10   -2.400980563834310E-3   2.906234702095389E-3  
 2.656000000000000E10    2.991031622514129E-3   1.813596114516258E-3  
 2.658000000000000E10    1.141740009188652E-3  -3.285640850663185E-3  
 2.660000000000000E10   -3.617689711973071E-3  -9.553232230246067E-4  
 2.662000000000000E10   -5.101700080558658E-4   3.442898625507951E-3  
 2.664000000000000E10    3.288171021267772E-3  -1.673512015258893E-4  
 2.666000000000000E10   -4.528741992544383E-4  -3.193550044670701E-3  
 2.668000000000000E10   -3.031258471310139E-3   3.599360934458673E-4  
 2.670000000000000E10    8.673151605762541E-4   3.148393006995320E-3  
 2.672000000000000E10    2.691432600840926E-3  -9.239369537681341E-4  
 2.674000000000000E10   -1.396184787154198E-3  -2.576663624495268E-3  
 2.676000000000000E10   -2.491465536877513E-3   1.740622683428228E-3  
 2.678000000000000E10    2.043668413534761E-3   2.417207229882479E-3  
 2.680000000000000E10    1.713101635687053E-3  -2.140376484021545E-3  
 2.682000000000000E10   -2.583755413070321E-3  -1.501193386502564E-3  
 2.684000000000000E10   -9.336858638562262E-4   2.762407530099154E-3  
 2.686000000000000E10    2.494542859494686E-3   6.275391788221896E-4  
 2.688000000000000E10    3.354244399815798E-4  -2.965679392218590E-3  
 2.690000000000000E10   -2.585284877568483E-3   3.899940929841250E-5  
 2.692000000000000E10    2.628898364491761E-4   2.850532298907638E-3  
 2.694000000000000E10    2.687357133254409E-3  -1.065691118128598E-3  
 2.696000000000000E10   -1.021242700517178E-3  -2.430464373901486E-3  
 2.698000000000000E10   -2.369598485529423E-3   1.583762234076858E-3  
 2.700000000000000E10    1.682887901552022E-3   1.835073810070753E-3  
 2.702000000000000E10    1.802819781005383E-3  -1.567516475915909E-3  
 2.704000000000000E10   -1.885135076008737E-3  -1.455039600841701E-3  
 2.706000000000000E10   -1.086515374481678E-3   1.782795065082610E-3  
 2.708000000000000E10    2.285330090671778E-3   1.080810790881515E-3  
 2.710000000000000E10    6.456354167312384E-4  -2.439985051751137E-3  
 2.712000000000000E10   -2.211904153227806E-3  -3.104454372078180E-4  
 2.714000000000000E10   -2.377695054747164E-4   2.382431179285049E-3  
 2.716000000000000E10    2.188733080402017E-3  -2.611289091873914E-4  
 2.718000000000000E10   -2.091852948069572E-4  -2.199729206040502E-3  
 2.720000000000000E10   -2.347405767068267E-3   7.856892189010978E-4  
 2.722000000000000E10    9.903121972456574E-4   1.661084825173020E-3  
 2.724000000000000E10    1.907326863147318E-3  -1.276075374335051E-3  
 2.726000000000000E10   -1.499596051871777E-3  -1.371168065816164E-3  
 2.728000000000000E10   -1.355078304186463E-3   1.407577656209469E-3  
 2.730000000000000E10    1.919276313856244E-3   1.521763042546809E-3  
 2.732000000000000E10    9.243498207069933E-4  -1.670178258791566E-3  
 2.734000000000000E10   -1.689091557636857E-3  -9.845307795330882E-4  
 2.736000000000000E10   -7.357442518696189E-4   2.056273864582181E-3  
 2.738000000000000E10    1.911293598823249E-3   7.036190363578498E-4  
 2.740000000000000E10    4.114571784157306E-4  -2.089407993480563E-3  
 2.742000000000000E10   -1.782773411832750E-3   5.155463077244349E-5  
 2.744000000000000E10    1.620549592189491E-4   1.845071208663285E-3  
 2.746000000000000E10    2.044288907200098E-3  -3.744340210687369E-4  
 2.748000000000000E10   -2.787119301501662E-4  -1.396718900650740E-3  
 2.750000000000000E10   -1.671958132646978E-3   8.561832364648581E-4  
 2.752000000000000E10    7.600771496072412E-4   1.369882025755942E-3  
 2.754000000000000E10    1.089588156901300E-3  -9.960017632693052E-4  
 2.756000000000000E10   -1.166571979410946E-3  -9.325023856945336E-4  
