#  HZ   S   RI   R     50.00 
! Rohde & Schwarz ZVA40 4Ports - Version 3.90 - 1145.1110k42 SN: 100403
! Date: 2023-10-04 07:38:18
! Measurement: S12 
! 
 2.200000000000000E10    1.665916410274804E-3  -7.686673197895289E-4  
 2.202000000000000E10   -1.320035546086729E-3  -1.404898241162300E-3  
 2.204000000000000E10   -1.589424791745842E-3   9.694535983726382E-4  
 2.206000000000000E10    1.252206624485552E-3   1.493905554525554E-3  
 2.208000000000000E10    7.873384165577591E-4  -7.944233948364854E-4  
 2.210000000000000E10   -5.996891413815320E-4  -8.768072002567351E-4  
 2.212000000000000E10   -1.102170557714999E-3   1.031290506944060E-3  
 2.214000000000000E10    6.409374182112515E-4   7.692965446040034E-4  
 2.216000000000000E10    8.289346587844193E-4  -5.351468571461737E-4  
 2.218000000000000E10   -9.952113032341003E-4   1.172304619103670E-4  
 2.220000000000000E10   -1.389494136674330E-4   1.186163397505879E-3  
 2.222000000000000E10    9.628404513932765E-4   3.309622843516991E-5  
 2.224000000000000E10   -6.945449858903885E-4  -4.598860978148878E-4  
 2.226000000000000E10   -7.664342992939055E-4   7.299958379007876E-4  
 2.228000000000000E10    7.602252298966050E-4   8.161340956576169E-4  
 2.230000000000000E10    5.270380643196404E-4  -6.771247135475278E-4  
 2.232000000000000E10   -8.487380691803992E-4  -9.468547650612891E-4  
 2.234000000000000E10   -8.017223444767296E-4   1.108061638660729E-3  
 2.236000000000000E10    1.184993889182806E-3   1.046033226884902E-3  
 2.238000000000000E10    9.410239872522652E-4  -1.290382700972259E-3  
 2.240000000000000E10   -1.303999568335712E-3  -4.730518558062613E-4  
 2.242000000000000E10   -7.297678384929895E-4   1.645863871090114E-3  
 2.244000000000000E10    1.377601176500320E-3   5.582873127423227E-4  
 2.246000000000000E10    8.124654996208847E-4  -1.174563891254365E-3  
 2.248000000000000E10   -1.218682155013084E-3  -7.659777184017003E-4  
 2.250000000000000E10   -6.954738637432456E-4   1.493889139965177E-3  
 2.252000000000000E10    1.658663619309664E-3   5.111283971928060E-4  
 2.254000000000000E10    7.070395513437688E-4  -1.509400317445397E-3  
 2.256000000000000E10   -1.105876988731325E-3  -3.577656461857259E-4  
 2.258000000000000E10    2.396302443230525E-4   1.348846126347780E-3  
 2.260000000000000E10    1.279176212847233E-3  -9.514013800071552E-5  
 2.262000000000000E10    1.250590576091781E-4  -5.204009357839823E-4  
 2.264000000000000E10   -4.983203252777457E-4   1.482297811890021E-4  
 2.266000000000000E10    3.908697108272463E-4   5.253918352536857E-4  
 2.268000000000000E10    7.173710037022829E-4  -3.672323946375400E-4  
 2.270000000000000E10   -4.249943885952234E-4  -8.807855774648488E-4  
 2.272000000000000E10   -5.765231326222420E-4   8.175450493581593E-4  
 2.274000000000000E10    1.104406081140041E-3   4.361781757324934E-4  
 2.276000000000000E10    5.023113335482776E-4  -1.194943208247423E-3  
 2.278000000000000E10   -1.202975865453482E-3  -4.082316008862108E-4  
 2.280000000000000E10   -9.261206287192181E-5   1.477201469242573E-3  
 2.282000000000000E10    1.099577522836626E-3   1.150944270193577E-3  
 2.284000000000000E10   -4.570977398543619E-5  -1.858706469647586E-3  
 2.286000000000000E10   -1.872466295026243E-3  -1.097038766602054E-4  
 2.288000000000000E10    1.928508754645009E-5   1.852409215644002E-3  
 2.290000000000000E10    1.731257187202573E-3  -5.324964877218008E-4  
 2.292000000000000E10   -6.176466122269630E-4  -1.816279720515013E-3  
 2.294000000000000E10   -1.636819564737380E-3   5.932866479270160E-4  
 2.296000000000000E10    4.826730291824788E-4   1.365777920000255E-3  
 2.298000000000000E10    1.460796454921365E-3  -6.742815021425486E-4  
 2.300000000000000E10   -1.130409655161202E-3  -1.371676567941904E-3  
 2.302000000000000E10   -1.541503705084324E-3   1.024579512886703E-3  
 2.304000000000000E10    1.408575451932848E-3   7.229980546981096E-4  
 2.306000000000000E10    3.991464327555150E-4  -1.472526695579290E-3  
 2.308000000000000E10   -1.802520826458931E-3  -2.453669731039554E-4  
 2.310000000000000E10    2.403915132163093E-4   1.531376852653921E-3  
 2.312000000000000E10    1.305396785028279E-3  -2.838274813257158E-4  
 2.314000000000000E10   -6.853995728306472E-4  -1.556744799017906E-3  
 2.316000000000000E10   -1.664938405156136E-3   1.284174039028585E-3  
 2.318000000000000E10    1.336092944256961E-3   1.578492578119040E-3  
 2.320000000000000E10    1.296981354244053E-3  -1.320321578532457E-3  
 2.322000000000000E10   -1.643595751374960E-3  -8.820458897389472E-4  
 2.324000000000000E10   -1.175317331217229E-3   1.896402216516435E-3  
 2.326000000000000E10    1.818817690946162E-3   7.896362221799791E-4  
 2.328000000000000E10    6.609716801904142E-4  -2.020447980612516E-3  
 2.330000000000000E10   -1.455009216442704E-3  -2.513755462132394E-4  
 2.332000000000000E10    3.133168502245098E-5   1.635648892261088E-3  
 2.334000000000000E10    1.842079800553620E-3  -2.455008689139504E-5  
 2.336000000000000E10    8.788124250713736E-5  -1.759020029567182E-3  
 2.338000000000000E10   -1.215409254655242E-3   6.781792035326362E-4  
 2.340000000000000E10    1.008347957395017E-3   9.991623228415847E-4  
 2.342000000000000E10    8.490179898217320E-4  -1.137618557550013E-3  
 2.344000000000000E10   -1.302271848544478E-3  -3.687023418024182E-4  
 2.346000000000000E10    2.497011737432331E-4   8.577390690334141E-4  
 2.348000000000000E10    1.285583362914622E-3  -5.914630019105971E-4  
 2.350000000000000E10   -3.214800744899549E-5  -1.254364615306258E-3  
 2.352000000000000E10   -9.732360485941172E-4   8.541616261936724E-4  
 2.354000000000000E10    1.136840088292956E-3   1.076688524335623E-3  
 2.356000000000000E10    1.367696910165250E-3  -8.858012151904404E-4  
 2.358000000000000E10   -1.126477378420532E-3  -1.217801822349429E-3  
 2.360000000000000E10   -8.090650080703199E-4   1.489007729105651E-3  
 2.362000000000000E10    1.068231998942792E-3   4.798305453732610E-4  
 2.364000000000000E10    5.005224375054240E-4  -1.418161089532077E-3  
 2.366000000000000E10   -1.535359770059586E-3  -4.026855167467147E-4  
 2.368000000000000E10   -1.886983809527010E-4   1.077465014532208E-3  
 2.370000000000000E10    9.922765893861651E-4  -3.080442256759852E-4  
 2.372000000000000E10   -2.558636770118028E-4  -1.093639759346843E-3  
 2.374000000000000E10   -8.874903433024883E-4   6.005292525514960E-4  
 2.376000000000000E10    4.366702050901949E-4  -1.025373130687513E-4  
 2.378000000000000E10   -4.505569086177275E-5  -7.265692693181336E-4  
 2.380000000000000E10   -8.226828067563474E-4  -6.666342233074829E-5  
 2.382000000000000E10    5.491459160111845E-4   7.303190068341792E-4  
 2.384000000000000E10    7.376901339739561E-4  -1.026393147185445E-3  
 2.386000000000000E10   -1.213042065501213E-3  -7.186387665569782E-4  
 2.388000000000000E10   -5.871181492693722E-4   1.152899116277695E-3  
 2.390000000000000E10    1.467439928092063E-3   4.555505875032395E-4  
 2.392000000000000E10   -3.347219171700999E-5  -1.762070460245013E-3  
 2.394000000000000E10   -1.649597426876426E-3   3.768294482142665E-5  
 2.396000000000000E10    3.781923805945553E-5   1.486414577811956E-3  
 2.398000000000000E10    1.109087490476668E-3  -2.042849664576352E-4  
 2.400000000000000E10   -3.812292125076056E-4  -1.342634903267026E-3  
 2.402000000000000E10   -1.329556340351701E-3   5.525699816644192E-4  
 2.404000000000000E10    5.985209718346596E-4   8.796710171736777E-4  
 2.406000000000000E10    4.334776604082435E-4  -7.339848089031875E-4  
 2.408000000000000E10   -8.489853935316205E-4  -1.131499448092654E-4  
 2.410000000000000E10   -3.957125591114163E-5   7.764585898257792E-4  
 2.412000000000000E10    4.837851447518915E-4  -4.522618110058829E-5  
 2.414000000000000E10   -4.217090317979455E-4  -6.746981525793672E-4  
 2.416000000000000E10   -7.917977054603398E-4   8.707595407031477E-4  
 2.418000000000000E10    9.341304539702833E-4   8.388572023250163E-4  
 2.420000000000000E10    6.112416740506887E-4  -7.133512990549207E-4  
 2.422000000000000E10   -1.134853111580014E-3  -6.689349538646638E-4  
 2.424000000000000E10   -8.902090485207737E-4   1.643139868974686E-3  
 2.426000000000000E10    1.726811286062002E-3   5.548701155930758E-4  
 2.428000000000000E10    1.139993255492300E-4  -1.571203465573490E-3  
 2.430000000000000E10   -1.967716263607144E-3   1.108021315303631E-4  
 2.432000000000000E10    6.873120582895353E-5   1.915223081596196E-3  
 2.434000000000000E10    1.870348700322211E-3  -1.913575397338718E-4  
 2.436000000000000E10   -3.603838849812746E-4  -1.540620345622301E-3  
 2.438000000000000E10   -1.815197523683310E-3   3.549675748217851E-4  
 2.440000000000000E10    3.316253714729101E-4   1.808343455195427E-3  
 2.442000000000000E10    1.581577351316810E-3  -6.204359233379364E-4  
 2.444000000000000E10   -7.665111334063113E-4  -1.339198322966695E-3  
 2.446000000000000E10   -1.524742925539613E-3   1.060591079294682E-3  
 2.448000000000000E10    1.098053646273911E-3   1.253223861567676E-3  
 2.450000000000000E10    9.420150308869779E-4  -1.196273253299296E-3  
 2.452000000000000E10   -1.248621963895857E-3  -6.414194358512759E-4  
 2.454000000000000E10   -5.030983593314886E-4   1.283367630094290E-3  
 2.456000000000000E10    1.758111640810967E-3   3.407966578379273E-4  
 2.458000000000000E10   -9.049088112078607E-5  -1.710497424937785E-3  
 2.460000000000000E10   -1.929093268699944E-3   4.333491087891161E-4  
 2.462000000000000E10    1.151850447058678E-3   1.758005470037460E-3  
 2.464000000000000E10    1.388257835060358E-3  -1.201540464535356E-3  
 2.466000000000000E10   -1.048132078722119E-3  -1.662620925344527E-3  
 2.468000000000000E10   -1.448891940526664E-3   1.259443582966924E-3  
 2.470000000000000E10    1.393538201227784E-3   1.464068773202598E-3  
 2.472000000000000E10    1.596364541910589E-3  -1.826358377002180E-3  
 2.474000000000000E10   -2.169767394661903E-3  -1.407901407219470E-3  
 2.476000000000000E10   -1.224778592586517E-3   2.398863434791565E-3  
 2.478000000000000E10    2.131130779162049E-3   8.039600797928870E-4  
 2.480000000000000E10    6.146231899037957E-4  -2.529748715460300E-3  
 2.482000000000000E10   -2.654619514942169E-3  -5.099970148876309E-4  
 2.484000000000000E10   -5.674000567523763E-5   2.333101350814104E-3  
 2.486000000000000E10    2.086578868329525E-3  -1.523144746897742E-4  
 2.488000000000000E10   -2.569932257756591E-4  -2.105840714648366E-3  
 2.490000000000000E10   -1.990189542993903E-3   8.496677619405091E-4  
 2.492000000000000E10    6.957123987376690E-4   2.051959745585918E-3  
 2.494000000000000E10    1.598251517862082E-3  -8.191424421966076E-4  
 2.496000000000000E10   -1.542085898108780E-3  -1.628618221729994E-3  
 2.498000000000000E10   -1.377888722345233E-3   1.438295701518655E-3  
 2.500000000000000E10    1.705506816506386E-3   1.293507753871381E-3  
 2.502000000000000E10    9.201106149703264E-4  -2.019701758399606E-3  
 2.504000000000000E10   -2.012813230976462E-3  -9.577466989867389E-4  
 2.506000000000000E10   -3.966322692576796E-4   2.153528621420264E-3  
 2.508000000000000E10    2.258813939988613E-3   5.931875202804804E-4  
 2.510000000000000E10    4.385469947010279E-4  -2.254131715744734E-3  
 2.512000000000000E10   -2.842142246663570E-3   5.946371238678694E-4  
 2.514000000000000E10    3.031914529856294E-4   2.647823188453913E-3  
 2.516000000000000E10    2.524549840018153E-3  -4.395504074636847E-4  
 2.518000000000000E10   -1.167887356132269E-3  -2.516204956918955E-3  
 2.520000000000000E10   -2.332139760255814E-3   1.290643936954439E-3  
 2.522000000000000E10    1.371721038594842E-3   2.020127838477492E-3  
 2.524000000000000E10    1.703710877336562E-3  -1.365911448374391E-3  
 2.526000000000000E10   -1.406996860168874E-3  -1.839458825998008E-3  
 2.528000000000000E10   -1.299372059293091E-3   2.040023915469647E-3  
 2.530000000000000E10    2.043946413323283E-3   1.688040210865438E-3  
 2.532000000000000E10    1.131282071582973E-3  -2.173128537833691E-3  
 2.534000000000000E10   -2.219454618170857E-3  -2.296193124493584E-4  
 2.536000000000000E10   -5.464970017783344E-4   2.317909849807620E-3  
 2.538000000000000E10    2.477338770404458E-3  -1.141062966780737E-5  
 2.540000000000000E10   -4.708528285846114E-4  -2.559403888881207E-3  
 2.542000000000000E10   -2.554401522502303E-3   8.754982263781130E-4  
 2.544000000000000E10    1.632303814403713E-3   2.393045928329229E-3  
 2.546000000000000E10    2.167492406442761E-3  -1.765075023286045E-3  
 2.548000000000000E10   -2.037086291238666E-3  -1.883572898805141E-3  
 2.550000000000000E10   -1.336253480985761E-3   2.097190590575337E-3  
 2.552000000000000E10    1.969290198758245E-3   1.643389230594039E-3  
 2.554000000000000E10    1.525363186374307E-3  -2.623647218570113E-3  
 2.556000000000000E10   -2.409485168755055E-3  -1.317858463153243E-3  
 2.558000000000000E10   -8.782244403846562E-4   2.892354270443320E-3  
 2.560000000000000E10    3.084450261667371E-3   5.853162729181349E-4  
 2.562000000000000E10    3.313696070108563E-4  -3.053406951949000E-3  
 2.564000000000000E10   -3.257031086832285E-3   3.537138400133699E-4  
 2.566000000000000E10    6.889412179589272E-4   3.288857173174620E-3  
 2.568000000000000E10    2.828595228493214E-3  -5.214122938923538E-4  
 2.570000000000000E10   -1.469854847528040E-3  -2.678684890270233E-3  
 2.572000000000000E10   -2.396874828264117E-3   1.653371960856021E-3  
 2.574000000000000E10    1.659464789554477E-3   2.284892834722996E-3  
 2.576000000000000E10    2.024860354140401E-3  -2.508935285732150E-3  
 2.578000000000000E10   -2.529585501179099E-3  -1.402632100507617E-3  
 2.580000000000000E10   -7.175379432737827E-4   2.763666445389390E-3  
 2.582000000000000E10    2.554137259721756E-3   5.711529520340264E-4  
 2.584000000000000E10    4.671074566431344E-4  -2.684354083612561E-3  
 2.586000000000000E10   -2.900296589359641E-3   4.078359925188124E-4  
 2.588000000000000E10    2.020773099502549E-4   3.106849268078804E-3  
 2.590000000000000E10    3.335647052153945E-3  -3.637846384663135E-4  
 2.592000000000000E10   -1.171961310319603E-3  -3.335947403684259E-3  
 2.594000000000000E10   -3.261913079768419E-3   1.547155319713056E-3  
 2.596000000000000E10    1.999379601329565E-3   3.103247378021479E-3  
 2.598000000000000E10    3.026889171451330E-3  -2.494941232725978E-3  
 2.600000000000000E10   -2.692518988624215E-3  -2.551629440858960E-3  
 2.602000000000000E10   -2.198642585426569E-3   2.972434042021632E-3  
 2.604000000000000E10    3.356879809871316E-3   1.912181032821536E-3  
 2.606000000000000E10    1.482101273722947E-3  -3.188311588019133E-3  
 2.608000000000000E10   -3.382090711966157E-3  -1.134495483711362E-3  
 2.610000000000000E10   -9.635971509851515E-4   3.429701784625650E-3  
 2.612000000000000E10    3.814587369561195E-3   2.537223335821182E-4  
 2.614000000000000E10   -2.829655422829092E-4  -3.528018714860082E-3  
 2.616000000000000E10   -3.444717265665531E-3   5.170788499526680E-4  
 2.618000000000000E10    9.408613550476730E-4   3.284791018813849E-3  
 2.620000000000000E10    3.152120392769575E-3  -1.868872321210802E-3  
 2.622000000000000E10   -1.752549665980041E-3  -2.998282667249441E-3  
 2.624000000000000E10   -2.766503952443600E-3   2.387707820162177E-3  
 2.626000000000000E10    3.228859743103385E-3   2.107212087139487E-3  
 2.628000000000000E10    1.874550711363554E-3  -2.898232545703650E-3  
 2.630000000000000E10   -3.504026681184769E-3  -1.283228746615350E-3  
 2.632000000000000E10   -7.849143003113568E-4   3.318022005259991E-3  
 2.634000000000000E10    3.538423916324973E-3   5.145308095961809E-4  
 2.636000000000000E10   -9.361687034470378E-7  -3.908968996256590E-3  
 2.638000000000000E10   -3.587704617530108E-3   2.722822537180036E-4  
 2.640000000000000E10    1.047488418407738E-3   3.442740766331554E-3  
 2.642000000000000E10    3.279310418292880E-3  -1.412440673448145E-3  
 2.644000000000000E10   -1.442382461391389E-3  -3.316803369671106E-3  
 2.646000000000000E10   -2.849419601261616E-3   2.228752942755818E-3  
 2.648000000000000E10    2.531478879973292E-3   2.802075585350394E-3  
 2.650000000000000E10    2.108540618792176E-3  -2.837030449882150E-3  
 2.652000000000000E10   -2.985436934977770E-3  -1.978943357244134E-3  
 2.654000000000000E10   -1.131080090999603E-3   3.098082961514592E-3  
 2.656000000000000E10    2.977457828819752E-3   7.774030091241002E-4  
 2.658000000000000E10    4.071443399880081E-4  -3.298432799056172E-3  
 2.660000000000000E10   -3.208492184057832E-3  -2.805783005896956E-4  
 2.662000000000000E10    6.324951536953449E-4   2.842432353645563E-3  
 2.664000000000000E10    2.678951481357217E-3  -1.006535952910781E-3  
 2.666000000000000E10   -1.258999691344798E-3  -2.409777836874127E-3  
 2.668000000000000E10   -2.351979492232204E-3   1.406278228387237E-3  
 2.670000000000000E10    1.652397331781685E-3   2.212948631495237E-3  
 2.672000000000000E10    1.696767634712160E-3  -1.686414005234838E-3  
 2.674000000000000E10   -2.374860923737288E-3  -1.480957842431963E-3  
 2.676000000000000E10   -1.198898651637137E-3   2.266756957396865E-3  
 2.678000000000000E10    2.587877446785569E-3   1.159203937277198E-3  
 2.680000000000000E10    6.107377121224999E-4  -2.729927189648151E-3  
 2.682000000000000E10   -2.628409536555409E-3  -4.191433836240321E-4  
 2.684000000000000E10    2.784251119010150E-4   3.025653539225459E-3  
 2.686000000000000E10    2.733791014179587E-3  -4.042280779685825E-4  
 2.688000000000000E10   -3.553746500983834E-4  -2.689720829948783E-3  
 2.690000000000000E10   -2.504564123228192E-3   1.097517437301576E-3  
 2.692000000000000E10    1.060863840393722E-3   2.395376097410917E-3  
 2.694000000000000E10    2.304004272446036E-3  -1.477107638493180E-3  
 2.696000000000000E10   -1.728300238028169E-3  -1.924465876072645E-3  
 2.698000000000000E10   -1.786296372301877E-3   1.817020005546510E-3  
 2.700000000000000E10    1.914128893986344E-3   1.389263896271586E-3  
 2.702000000000000E10    1.229419489391148E-3  -1.817763084545732E-3  
 2.704000000000000E10   -2.087725792080164E-3  -7.989133009687066E-4  
 2.706000000000000E10   -4.010908305644989E-4   2.252393169328570E-3  
 2.708000000000000E10    1.996809383854270E-3   4.034027806483209E-4  
 2.710000000000000E10    3.295835631433874E-4  -2.394884591922164E-3  
 2.712000000000000E10   -2.263221424072981E-3   4.760549054481089E-4  
 2.714000000000000E10    5.791985895484686E-4   1.890232204459608E-3  
 2.716000000000000E10    2.550351666286588E-3  -8.128083427436650E-4  
 2.718000000000000E10   -1.052426523528993E-3  -1.957594184204936E-3  
 2.720000000000000E10   -1.953070051968098E-3   1.303816679865122E-3  
 2.722000000000000E10    1.630645361728966E-3   1.477502402849495E-3  
 2.724000000000000E10    1.254429342225194E-3  -1.450744806788862E-3  
 2.726000000000000E10   -1.839393982663751E-3  -1.337947556748986E-3  
 2.728000000000000E10   -4.759357543662190E-4   1.740992651320994E-3  
 2.730000000000000E10    1.529533532448113E-3   7.783403852954507E-4  
 2.732000000000000E10    3.823420556727797E-4  -2.135970862582326E-3  
 2.734000000000000E10   -1.841903198510408E-3  -3.704011614900082E-4  
 2.736000000000000E10    4.271766010788269E-5   1.577490940690041E-3  
 2.738000000000000E10    1.620769151486456E-3  -3.053619293496013E-4  
 2.740000000000000E10   -5.680811591446400E-4  -1.682094763964415E-3  
 2.742000000000000E10   -1.390032819472253E-3   7.398165180347860E-4  
 2.744000000000000E10    7.127900607883930E-4   1.125939888879657E-3  
 2.746000000000000E10    1.091674319468439E-3  -1.087191631086171E-3  
 2.748000000000000E10   -1.410064287483692E-3  -1.124886330217123E-3  
 2.750000000000000E10   -8.786084363237023E-4   1.315695815719664E-3  
 2.752000000000000E10    1.307699247263372E-3   5.904744612053037E-4  
 2.754000000000000E10    4.636735247913748E-4  -1.618421287275851E-3  
 2.756000000000000E10   -1.658130786381662E-3  -4.054018645547330E-4  
