#  HZ   S   RI   R     50.00 
! Rohde & Schwarz ZVA40 4Ports - Version 3.90 - 1145.1110k42 SN: 100403
! Date: 2023-10-04 07:38:40
! Measurement: S12 
! 
 2.200000000000000E10    1.154245925135911E-3   1.239083649124950E-4  
 2.202000000000000E10   -3.310514439363033E-4  -7.389712263830006E-4  
 2.204000000000000E10   -6.448578205890954E-4   7.191293843789026E-5  
 2.206000000000000E10    5.430052406154573E-4   9.193376754410565E-4  
 2.208000000000000E10    8.894382044672966E-4  -6.709689623676240E-4  
 2.210000000000000E10   -5.225875647738576E-4  -2.560120483394712E-4  
 2.212000000000000E10   -6.199038762133569E-5   3.791903145611286E-4  
 2.214000000000000E10    1.187046873383224E-3   3.958248125854880E-4  
 2.216000000000000E10    2.586233313195407E-4  -8.106568711809814E-4  
 2.218000000000000E10   -1.167840440757573E-3   3.904084223904647E-5  
 2.220000000000000E10    5.204561166465282E-4   1.304703531786799E-3  
 2.222000000000000E10    1.445039757527411E-3  -2.440966491121799E-4  
 2.224000000000000E10   -4.578182997647673E-4  -1.591211068443954E-3  
 2.226000000000000E10   -1.015346613712609E-3   5.335804307833314E-4  
 2.228000000000000E10    7.460264605470002E-4   1.683238428086042E-3  
 2.230000000000000E10    1.533167902380228E-3  -9.158300235867500E-4  
 2.232000000000000E10   -5.275711300782859E-4  -1.345652388408780E-3  
 2.234000000000000E10   -1.257607946172357E-3   7.733288803137839E-4  
 2.236000000000000E10    8.293425198644400E-4   1.322224619798362E-3  
 2.238000000000000E10    1.320519251748920E-3  -6.170400884002447E-4  
 2.240000000000000E10   -8.730982081033289E-4  -1.255693961866200E-3  
 2.242000000000000E10   -1.182676525786519E-3   5.625192425213754E-4  
 2.244000000000000E10    8.052022312767804E-4   7.191239856183529E-4  
 2.246000000000000E10    5.956831737421453E-4  -9.859849233180285E-4  
 2.248000000000000E10   -7.268908666446805E-4  -9.743315167725086E-4  
 2.250000000000000E10   -3.157128230668604E-4   7.440273766405881E-4  
 2.252000000000000E10    7.778621511533856E-4  -1.830486580729485E-4  
 2.254000000000000E10   -3.536916628945619E-4  -9.137911838479340E-4  
 2.256000000000000E10   -9.489410440437496E-4   3.345182340126485E-4  
 2.258000000000000E10    2.816564519889653E-4   7.797522121109068E-4  
 2.260000000000000E10    4.452388675417751E-4  -8.077329257503152E-4  
 2.262000000000000E10   -7.874420261941850E-4  -8.422495448030531E-4  
 2.264000000000000E10   -1.188374124467373E-3   8.261849870905280E-4  
 2.266000000000000E10    8.915848447941244E-4   4.743220051750541E-4  
 2.268000000000000E10    8.363706292584539E-4  -1.394703635014594E-3  
 2.270000000000000E10   -1.422586850821972E-3  -8.177299168892205E-4  
 2.272000000000000E10   -6.268939469009638E-4   1.341948285698891E-3  
 2.274000000000000E10    1.440060907043517E-3   4.685381718445569E-4  
 2.276000000000000E10    4.380724567454308E-4  -1.291237538680434E-3  
 2.278000000000000E10   -1.422040862962604E-3  -5.785806570202112E-4  
 2.280000000000000E10   -2.851462049875408E-4   9.544227505102754E-4  
 2.282000000000000E10    6.022088928148150E-4   5.360844661481679E-4  
 2.284000000000000E10    2.610609517432749E-4  -1.160081010311842E-3  
 2.286000000000000E10   -1.283749821595848E-3  -1.247647014679387E-4  
 2.288000000000000E10    1.353110110358102E-5   8.904235437512398E-4  
 2.290000000000000E10    1.071275211870670E-3  -1.385168288834393E-4  
 2.292000000000000E10   -3.045210032723844E-4  -5.960189737379551E-4  
 2.294000000000000E10   -9.221168584190309E-4   2.443054981995374E-4  
 2.296000000000000E10    5.438096122816205E-4   5.494119832292199E-4  
 2.298000000000000E10    4.417277232278138E-4  -3.985971270594746E-4  
 2.300000000000000E10   -8.190062362700701E-4  -6.359477993100882E-4  
 2.302000000000000E10   -1.786727516446263E-4   8.579062996432185E-4  
 2.304000000000000E10    1.071882317773998E-3   4.425492370501161E-4  
 2.306000000000000E10    2.515229862183332E-4  -1.290434738621116E-3  
 2.308000000000000E10   -1.563587225973606E-3   1.267204788746312E-4  
 2.310000000000000E10    2.848912845365703E-4   1.664599403738976E-3  
 2.312000000000000E10    1.419181469827890E-3  -7.808257942087948E-4  
 2.314000000000000E10   -6.188889965415001E-4  -1.569288200698793E-3  
 2.316000000000000E10   -1.433461322449148E-3   9.552589617669582E-4  
 2.318000000000000E10    1.148203620687127E-3   1.242540078237653E-3  
 2.320000000000000E10    1.379494322463870E-3  -8.584456518292427E-4  
 2.322000000000000E10   -1.093162107281387E-3  -9.385189041495323E-4  
 2.324000000000000E10   -6.019509164616466E-4   1.331362291239202E-3  
 2.326000000000000E10    1.095096929930151E-3   7.352354587055743E-4  
 2.328000000000000E10    3.707832365762442E-4  -1.036374713294208E-3  
 2.330000000000000E10   -1.039868569932878E-3   1.671234058449045E-4  
 2.332000000000000E10    7.911411375971511E-5   1.278474577702582E-3  
 2.334000000000000E10    6.911044474691153E-4  -4.760104930028319E-4  
 2.336000000000000E10   -4.730987711809576E-4  -8.059958345256746E-4  
 2.338000000000000E10   -7.440435001626611E-4   8.341862121596932E-4  
 2.340000000000000E10    1.036265282891691E-3   3.432974335737526E-4  
 2.342000000000000E10    1.960402914846782E-5  -8.939574472606182E-4  
 2.344000000000000E10   -1.289783278480172E-3   1.397991582052782E-4  
 2.346000000000000E10    2.600027073640376E-4   1.274831243790686E-3  
 2.348000000000000E10    9.443325106985867E-4  -3.850501379929483E-4  
 2.350000000000000E10   -6.490004598163068E-4  -9.436052059754729E-4  
 2.352000000000000E10   -9.570581023581326E-4   8.409757283516228E-4  
 2.354000000000000E10    9.259117068722844E-4   5.504383589141071E-4  
 2.356000000000000E10    6.607348914258182E-4  -1.176664489321411E-3  
 2.358000000000000E10   -1.072841463610530E-3  -5.903501296415925E-4  
 2.360000000000000E10    1.585886930115521E-4   7.696245447732508E-4  
 2.362000000000000E10    6.274494808167219E-4  -5.892838235013187E-4  
 2.364000000000000E10   -3.702921967487782E-4  -6.259080837480724E-4  
 2.366000000000000E10   -4.865356604568660E-4   5.226820358075202E-4  
 2.368000000000000E10    8.627940551377833E-4   7.988036668393761E-5  
 2.370000000000000E10    4.863826688961126E-6  -8.935887599363923E-4  
 2.372000000000000E10   -1.076603424735367E-3   4.020592896267772E-4  
 2.374000000000000E10    4.906385438516736E-4   1.129273208789527E-3  
 2.376000000000000E10    1.030421466566622E-3  -8.965499582700431E-4  
 2.378000000000000E10   -1.144195208325982E-3  -7.538705249316990E-4  
 2.380000000000000E10   -9.656045585870743E-4   9.876824915409088E-4  
 2.382000000000000E10    1.323458156548441E-3   5.850051529705524E-4  
 2.384000000000000E10    4.504368989728391E-4  -1.312228851020336E-3  
 2.386000000000000E10   -1.349568716250360E-3  -4.127459251321852E-4  
 2.388000000000000E10   -4.552892642095685E-4   1.221091137267649E-3  
 2.390000000000000E10    1.649728976190090E-3   9.432294609723613E-5  
 2.392000000000000E10   -4.722181765828282E-4  -1.393697457388043E-3  
 2.394000000000000E10   -1.635087886825204E-3   7.299933349713683E-4  
 2.396000000000000E10    7.578045479021967E-4   1.310200546868146E-3  
 2.398000000000000E10    1.036054803989828E-3  -1.407972653396428E-3  
 2.400000000000000E10   -1.561790704727173E-3  -4.009858239442110E-4  
 2.402000000000000E10    5.347852493287064E-6   1.734778983518481E-3  
 2.404000000000000E10    1.792774535715580E-3  -1.409069227520376E-4  
 2.406000000000000E10   -9.622158249840140E-4  -1.646088203415275E-3  
 2.408000000000000E10   -1.593942171894014E-3   1.361281145364046E-3  
 2.410000000000000E10    1.205013715662062E-3   1.431079232133925E-3  
 2.412000000000000E10    1.473429030738771E-3  -1.438656472600997E-3  
 2.414000000000000E10   -1.807130058296025E-3  -1.276014721952379E-3  
 2.416000000000000E10   -1.412734272889793E-3   2.093353308737278E-3  
 2.418000000000000E10    2.152870176360011E-3   1.151698175817728E-3  
 2.420000000000000E10    8.917415980249643E-4  -1.982530113309622E-3  
 2.422000000000000E10   -2.101078629493713E-3  -8.305807132273912E-4  
 2.424000000000000E10   -4.788871447090060E-4   2.389494329690933E-3  
 2.426000000000000E10    2.590791089460254E-3   2.919486141763628E-4  
 2.428000000000000E10    4.597898805513978E-5  -2.269847784191370E-3  
 2.430000000000000E10   -1.645959448069334E-3   3.637093177530915E-4  
 2.432000000000000E10    4.166897560935468E-4   1.687065814621747E-3  
 2.434000000000000E10    1.731487456709147E-3  -6.104737985879183E-4  
 2.436000000000000E10   -7.525326800532639E-4  -1.269345404580236E-3  
 2.438000000000000E10   -1.290726824663580E-3   1.088976394385099E-3  
 2.440000000000000E10    1.465724082663655E-3   9.501386084593833E-4  
 2.442000000000000E10    7.219428080134094E-4  -1.277016010135412E-3  
 2.444000000000000E10   -1.177324913442135E-3  -7.621588301844895E-4  
 2.446000000000000E10   -4.519622307270765E-4   1.498546451330185E-3  
 2.448000000000000E10    2.105457242578268E-3   1.981721434276551E-4  
 2.450000000000000E10   -3.764321445487440E-4  -2.154109068214893E-3  
 2.452000000000000E10   -1.861961907707155E-3   2.785779361147434E-4  
 2.454000000000000E10    4.668101319111884E-4   2.219522837549448E-3  
 2.456000000000000E10    2.338704653084278E-3  -9.615536546334624E-4  
 2.458000000000000E10   -1.338593661785126E-3  -2.185584278777242E-3  
 2.460000000000000E10   -2.168063540011644E-3   1.656191539950669E-3  
 2.462000000000000E10    1.469033770263195E-3   2.058255486190319E-3  
 2.464000000000000E10    1.699831103906035E-3  -1.406333292834461E-3  
 2.466000000000000E10   -1.445849309675396E-3  -1.388769946061075E-3  
 2.468000000000000E10   -2.012534998357296E-3   1.386839197948575E-3  
 2.470000000000000E10    1.689877128228545E-3   1.731324009597302E-3  
 2.472000000000000E10    1.394494902342558E-3  -1.848194631747901E-3  
 2.474000000000000E10   -1.780683407559991E-3  -1.102425507269800E-3  
 2.476000000000000E10   -1.125192851759493E-3   2.336531411856413E-3  
 2.478000000000000E10    2.500246977433562E-3   9.093349217437208E-4  
 2.480000000000000E10    3.611952124629170E-4  -2.461960073560476E-3  
 2.482000000000000E10   -2.625147812068462E-3   4.152026085648686E-4  
 2.484000000000000E10    4.528284771367908E-4   2.527181291952729E-3  
 2.486000000000000E10    1.932618906721473E-3  -1.086084172129631E-3  
 2.488000000000000E10   -1.314313616603613E-3  -1.856908900663257E-3  
 2.490000000000000E10   -1.721514505334199E-3   1.344256103038788E-3  
 2.492000000000000E10    1.718774437904358E-3   1.428461167961359E-3  
 2.494000000000000E10    1.597032882273197E-3  -2.004872076213360E-3  
 2.496000000000000E10   -2.276716521009803E-3  -1.091111102141440E-3  
 2.498000000000000E10   -6.153311696834862E-4   2.410856308415532E-3  
 2.500000000000000E10    2.277868799865246E-3   6.792463827878237E-4  
 2.502000000000000E10    6.122383056208491E-4  -2.291089622303844E-3  
 2.504000000000000E10   -2.637149766087532E-3  -1.334766129730269E-4  
 2.506000000000000E10   -2.189966908190399E-4   2.592026954516769E-3  
 2.508000000000000E10    3.038001246750355E-3  -3.085696880589239E-5  
 2.510000000000000E10   -4.712525696959347E-4  -3.194712800905109E-3  
 2.512000000000000E10   -2.819617744535208E-3   7.532085874117911E-4  
 2.514000000000000E10    1.467824797146022E-3   2.766545396298170E-3  
 2.516000000000000E10    2.678777324035764E-3  -1.451729214750230E-3  
 2.518000000000000E10   -1.461766776628792E-3  -2.293658908456564E-3  
 2.520000000000000E10   -1.531725865788758E-3   2.136030932888389E-3  
 2.522000000000000E10    2.040512161329389E-3   1.369477366097271E-3  
 2.524000000000000E10    1.708792522549629E-3  -2.117008203640580E-3  
 2.526000000000000E10   -2.144918544217944E-3  -7.694380474276841E-4  
 2.528000000000000E10   -8.703595958650112E-4   2.354440744966269E-3  
 2.530000000000000E10    3.136381739750505E-3   4.235319211147726E-4  
 2.532000000000000E10    2.110904315486550E-4  -2.192809944972396E-3  
 2.534000000000000E10   -2.607858739793301E-3   2.035735378740355E-4  
 2.536000000000000E10    1.022282755002379E-3   2.755809808149934E-3  
 2.538000000000000E10    2.540565328672528E-3  -8.379025966860354E-4  
 2.540000000000000E10   -1.198039622977376E-3  -2.896949416026473E-3  
 2.542000000000000E10   -2.448643557727337E-3   1.978906802833080E-3  
 2.544000000000000E10    2.126923529431224E-3   2.521598711609840E-3  
 2.546000000000000E10    2.221355214715004E-3  -2.631227253004909E-3  
 2.548000000000000E10   -2.080942969769239E-3  -1.689293305389583E-3  
 2.550000000000000E10   -1.436569029465318E-3   2.465089550241828E-3  
 2.552000000000000E10    3.017959417775273E-3   9.710115846246481E-4  
 2.554000000000000E10    1.263443497009575E-3  -2.828064840286970E-3  
 2.556000000000000E10   -2.852980513125658E-3  -7.052656728774309E-4  
 2.558000000000000E10   -2.022588741965592E-4   2.850388176739216E-3  
 2.560000000000000E10    2.748859813436866E-3  -2.900206345657352E-5  
 2.562000000000000E10   -6.795970839448273E-4  -3.058038884773850E-3  
 2.564000000000000E10   -2.768024802207947E-3   7.451909477822483E-4  
 2.566000000000000E10    1.266580191440880E-3   2.706817816942930E-3  
 2.568000000000000E10    2.328414237126708E-3  -2.371917944401503E-3  
 2.570000000000000E10   -2.358841244131327E-3  -1.773266703821719E-3  
 2.572000000000000E10   -1.509951427578926E-3   2.518169814720750E-3  
 2.574000000000000E10    2.649543341249228E-3   1.048314734362066E-3  
 2.576000000000000E10    1.009301864542067E-3  -3.060148330405355E-3  
 2.578000000000000E10   -3.372978186234832E-3  -1.479167694924399E-4  
 2.580000000000000E10    3.659853973658755E-6   2.991249551996589E-3  
 2.582000000000000E10    3.036548150703311E-3  -4.805469652637839E-4  
 2.584000000000000E10   -7.042822544462979E-4  -3.253213129937649E-3  
 2.586000000000000E10   -3.406920703127980E-3   8.520549745298922E-4  
 2.588000000000000E10    1.182146370410919E-3   2.951031783595681E-3  
 2.590000000000000E10    3.046069759875536E-3  -1.713082543574274E-3  
 2.592000000000000E10   -2.044405555352569E-3  -3.224080195650458E-3  
 2.594000000000000E10   -2.841449109837413E-3   2.279897453263402E-3  
 2.596000000000000E10    2.731971908360720E-3   2.329841256141663E-3  
 2.598000000000000E10    1.986069371923804E-3  -2.942789113149047E-3  
 2.600000000000000E10   -3.372189588844776E-3  -1.550526125356555E-3  
 2.602000000000000E10   -9.447044576518238E-4   3.068811027333140E-3  
 2.604000000000000E10    3.242117818444967E-3   6.271895254030824E-4  
 2.606000000000000E10    7.031069981167093E-5  -3.258169628679752E-3  
 2.608000000000000E10   -3.330340841785073E-3  -1.412579877069220E-4  
 2.610000000000000E10    3.532298433128744E-4   3.201896557584405E-3  
 2.612000000000000E10    3.119384637102485E-3  -9.787190938368440E-4  
 2.614000000000000E10   -1.246774918399751E-3  -2.968853339552879E-3  
 2.616000000000000E10   -2.895161975175142E-3   1.743347500450909E-3  
 2.618000000000000E10    2.182417316362262E-3   2.829072531312704E-3  
 2.620000000000000E10    2.760956529527903E-3  -2.564057707786560E-3  
 2.622000000000000E10   -3.217291319742799E-3  -1.827333238907158E-3  
 2.624000000000000E10   -1.687791780568659E-3   3.218950703740120E-3  
 2.626000000000000E10    3.495665267109871E-3   1.406921772286296E-3  
 2.628000000000000E10    6.998067838139832E-4  -3.589585190638900E-3  
 2.630000000000000E10   -3.311675973236561E-3  -4.625208966899663E-4  
 2.632000000000000E10    1.409382384736091E-4   3.485914086923003E-3  
 2.634000000000000E10    3.699952270835638E-3  -5.220868624746800E-4  
 2.636000000000000E10   -7.735108956694603E-4  -3.529811510816217E-3  
 2.638000000000000E10   -3.272494301199913E-3   1.120486995205283E-3  
 2.640000000000000E10    1.374952145852149E-3   3.016521455720067E-3  
 2.642000000000000E10    2.709729829803109E-3  -1.978641608729959E-3  
 2.644000000000000E10   -2.619631821289659E-3  -2.654840005561709E-3  
 2.646000000000000E10   -2.197016263380647E-3   2.546925097703934E-3  
 2.648000000000000E10    3.067247336730361E-3   1.902202144265175E-3  
 2.650000000000000E10    1.025873003527522E-3  -3.454552730545402E-3  
 2.652000000000000E10   -3.056431887671351E-3  -7.743435562588275E-4  
 2.654000000000000E10   -1.743502652971074E-4   3.311485983431339E-3  
 2.656000000000000E10    3.342580748721957E-3  -4.240208363626152E-4  
 2.658000000000000E10   -8.073034114204347E-4  -3.077684901654720E-3  
 2.660000000000000E10   -2.835638355463743E-3   1.406765426509082E-3  
 2.662000000000000E10    1.703255111351609E-3   2.705598017200828E-3  
 2.664000000000000E10    2.160829724743962E-3  -1.928807701915503E-3  
 2.666000000000000E10   -2.357947872951627E-3  -2.238085027784109E-3  
 2.668000000000000E10   -1.774015254341066E-3   2.209982369095087E-3  
 2.670000000000000E10    2.544341841712594E-3   1.299320487305522E-3  
 2.672000000000000E10    9.739787783473730E-4  -2.702037338167429E-3  
 2.674000000000000E10   -2.635625423863530E-3  -8.549191989004612E-4  
 2.676000000000000E10   -3.460349689703435E-4   3.097715787589550E-3  
 2.678000000000000E10    2.531594363972545E-3   9.812654025154188E-5  
 2.680000000000000E10    8.034251368371770E-5  -2.708939835429192E-3  
 2.682000000000000E10   -2.735844813287258E-3   5.145216709934175E-4  
 2.684000000000000E10    6.161974743008614E-4   2.686782740056515E-3  
 2.686000000000000E10    2.395769814029336E-3  -1.170800183899701E-3  
 2.688000000000000E10   -1.212098286487162E-3  -1.924205454997718E-3  
 2.690000000000000E10   -2.070021582767367E-3   1.274263253435493E-3  
 2.692000000000000E10    1.626451965421438E-3   1.589892781339586E-3  
 2.694000000000000E10    1.451366697438061E-3  -1.744381268508732E-3  
 2.696000000000000E10   -1.788007095456123E-3  -1.326640136539936E-3  
 2.698000000000000E10   -8.119055419228971E-4   1.991053344681859E-3  
 2.700000000000000E10    1.864660414867103E-3   4.292789089959115E-4  
 2.702000000000000E10    2.681967744138092E-4  -1.993664307519794E-3  
 2.704000000000000E10   -1.709735137410462E-3   7.805281347827986E-5  
 2.706000000000000E10    2.853293553926051E-4   1.753731397911906E-3  
 2.708000000000000E10    1.657394110225141E-3  -3.576385206542909E-4  
 2.710000000000000E10   -3.378410183358938E-4  -1.769937691278756E-3  
 2.712000000000000E10   -2.109267050400376E-3   6.772121414542198E-4  
 2.714000000000000E10    1.077369321137667E-3   1.598589820787311E-3  
 2.716000000000000E10    1.441579544916749E-3  -1.169922645203769E-3  
 2.718000000000000E10   -1.311761909164488E-3  -1.587441423907876E-3  
 2.720000000000000E10   -1.171416603028774E-3   1.499595702625811E-3  
 2.722000000000000E10    1.615732791833580E-3   1.047344878315926E-3  
 2.724000000000000E10    9.753287304192781E-4  -1.540113938972354E-3  
 2.726000000000000E10   -1.683462178334594E-3  -3.150487900711596E-4  
 2.728000000000000E10   -5.206182249821723E-4   1.962325302883983E-3  
 2.730000000000000E10    1.649849815294147E-3   1.018581533571705E-4  
 2.732000000000000E10   -2.890996802307200E-5  -1.555469236336649E-3  
 2.734000000000000E10   -1.839073724113405E-3   1.254673115909100E-4  
 2.736000000000000E10    5.595504771918058E-4   1.718343468382955E-3  
 2.738000000000000E10    1.412260928191245E-3  -7.775347912684083E-4  
 2.740000000000000E10   -6.836247630417347E-4  -1.426930655725300E-3  
 2.742000000000000E10   -1.214056508615613E-3   1.358510577119887E-3  
 2.744000000000000E10    1.401909161359072E-3   9.447744232602418E-4  
 2.746000000000000E10    9.145513758994639E-4  -1.235843752510846E-3  
 2.748000000000000E10   -1.579140662215650E-3  -4.202146665193141E-4  
 2.750000000000000E10   -7.133337203413248E-4   1.579000847414136E-3  
 2.752000000000000E10    1.406155759468675E-3   2.663414052221924E-4  
 2.754000000000000E10    1.447485265089199E-4  -1.712644356302917E-3  
 2.756000000000000E10   -1.513680210337043E-3  -4.069312708452344E-4  
