#  HZ   S   RI   R     50.00 
! Rohde & Schwarz ZVA40 4Ports - Version 3.90 - 1145.1110k42 SN: 100403
! Date: 2023-10-04 07:39:00
! Measurement: S12 
! 
 2.200000000000000E10    5.155337275937200E-4  -7.186274160631001E-4  
 2.202000000000000E10   -1.231987262144685E-3  -6.740047829225659E-4  
 2.204000000000000E10   -8.501341799274087E-4   1.309604849666357E-3  
 2.206000000000000E10    9.601964848116040E-4   5.888466257601976E-4  
 2.208000000000000E10    3.956817672587931E-4  -1.415602280758321E-3  
 2.210000000000000E10   -1.782947103492916E-3  -5.047624581493437E-4  
 2.212000000000000E10   -3.305189602542669E-4   1.286480226553977E-3  
 2.214000000000000E10    1.167112844996154E-3   6.145731895230711E-4  
 2.216000000000000E10    3.967136144638062E-4  -1.623813761398196E-3  
 2.218000000000000E10   -1.411544275470078E-3  -3.006770857609808E-4  
 2.220000000000000E10   -1.529203000245616E-4   1.320605864748359E-3  
 2.222000000000000E10    1.227955450303853E-3   1.083612951333635E-4  
 2.224000000000000E10   -1.756353885866702E-4  -1.236900803633034E-3  
 2.226000000000000E10   -1.114294282160699E-3   2.668536035344005E-4  
 2.228000000000000E10   -4.443211946636438E-5   6.496835267171264E-4  
 2.230000000000000E10    2.360824437346309E-4  -1.949439465533942E-4  
 2.232000000000000E10   -5.950002232566476E-4  -8.962533902376890E-4  
 2.234000000000000E10   -6.299776723608375E-4   3.369666810613126E-4  
 2.236000000000000E10    7.338980212807655E-4   4.501765070017427E-4  
 2.238000000000000E10    1.225421729031950E-4  -8.475356153212488E-4  
 2.240000000000000E10   -7.790797972120345E-4   1.098556240322068E-4  
 2.242000000000000E10    3.192933218088001E-4   9.843892185017467E-4  
 2.244000000000000E10    9.422070579603314E-4  -8.551553764846176E-5  
 2.246000000000000E10   -4.999283701181412E-4  -9.690502192825079E-4  
 2.248000000000000E10   -8.387079578824341E-4   4.296698316466063E-4  
 2.250000000000000E10    3.999939945060760E-4   1.261293422430754E-3  
 2.252000000000000E10    1.241068355739117E-3  -4.431223496794701E-4  
 2.254000000000000E10   -2.909203467424959E-4  -1.557903131470084E-3  
 2.256000000000000E10   -1.274171634577215E-3   7.434914587065578E-4  
 2.258000000000000E10    1.123223453760147E-3   1.187021960504353E-3  
 2.260000000000000E10    1.416170736774802E-3  -4.124912666156888E-4  
 2.262000000000000E10   -4.616925434675068E-4  -7.829131209291518E-4  
 2.264000000000000E10   -1.067368197254837E-3   9.291227906942368E-4  
 2.266000000000000E10    1.159072737209499E-3   1.314058550633490E-3  
 2.268000000000000E10    1.026173005811870E-3  -3.025021869689226E-4  
 2.270000000000000E10   -7.701581344008446E-4  -3.629605635069311E-4  
 2.272000000000000E10   -2.461661933921278E-4   8.630843949504197E-4  
 2.274000000000000E10    8.569257333874703E-4   5.415552295744419E-4  
 2.276000000000000E10    4.444175283424556E-4  -7.218720274977386E-4  
 2.278000000000000E10   -5.285164224915206E-4   2.661159378476441E-4  
 2.280000000000000E10    6.537029403261840E-4   3.794926742557436E-4  
 2.282000000000000E10    8.657516445964575E-4  -6.647124973824248E-5  
 2.284000000000000E10   -3.147976531181485E-4  -1.106893250835128E-4  
 2.286000000000000E10   -5.368998972699046E-4   8.618229185231030E-4  
 2.288000000000000E10    1.032987725920975E-3   5.529055488295853E-4  
 2.290000000000000E10    3.481105668470264E-4  -9.028959902934730E-4  
 2.292000000000000E10   -9.780223481357098E-4   1.912833431561012E-5  
 2.294000000000000E10   -2.479908871464431E-4   1.111702877096832E-3  
 2.296000000000000E10    1.129023148678243E-3   6.700316444039345E-4  
 2.298000000000000E10    3.057700232602656E-4  -1.180020393803716E-3  
 2.300000000000000E10   -1.196377677842975E-3  -3.763669519685209E-5  
 2.302000000000000E10   -2.244917122879997E-4   1.434649457223713E-3  
 2.304000000000000E10    8.855962660163641E-4  -1.439391053281725E-4  
 2.306000000000000E10    1.542611062177457E-5  -1.283366465941072E-3  
 2.308000000000000E10   -1.197638106532395E-3   2.531814388930798E-4  
 2.310000000000000E10    5.679362220689654E-4   5.828704452142119E-4  
 2.312000000000000E10    6.733464542776346E-4  -3.633609157986939E-4  
 2.314000000000000E10   -3.058148722629994E-4  -7.162164547480643E-4  
 2.316000000000000E10   -5.271007539704442E-4   1.500016333011445E-5  
 2.318000000000000E10    6.517106667160988E-4   7.687662728130817E-4  
 2.320000000000000E10    2.260138717247173E-5  -8.572158985771239E-4  
 2.322000000000000E10   -6.939615705050528E-4   8.231164429162163E-6  
 2.324000000000000E10   -8.612934470875189E-5   8.466837462037802E-4  
 2.326000000000000E10    5.117607070133090E-4  -3.135513688903302E-4  
 2.328000000000000E10   -6.385453743860126E-4  -8.367315749637783E-4  
 2.330000000000000E10   -7.238350808620453E-4   7.823473424650729E-4  
 2.332000000000000E10    8.510072948411107E-4   3.348305472172797E-4  
 2.334000000000000E10    2.720301563385874E-4  -9.100987226702273E-4  
 2.336000000000000E10   -8.772744331508875E-4  -3.807651228271425E-4  
 2.338000000000000E10   -3.522767510730773E-4   1.165436930023134E-3  
 2.340000000000000E10    1.151720178313553E-3  -2.931751660071313E-4  
 2.342000000000000E10   -6.746348808519542E-4  -7.610217435285449E-4  
 2.344000000000000E10   -4.710480861831456E-4   2.735625021159649E-4  
 2.346000000000000E10    2.130630746250972E-4   8.988101035356522E-4  
 2.348000000000000E10    3.580875927582383E-4  -5.430817836895585E-4  
 2.350000000000000E10   -5.415406194515526E-4   3.419934364501387E-4  
 2.352000000000000E10    3.495514101814479E-4   6.098500452935696E-4  
 2.354000000000000E10    2.500445698387921E-4  -4.044295637868345E-4  
 2.356000000000000E10   -3.457585698924959E-4  -1.981862005777657E-4  
 2.358000000000000E10   -1.423527282895520E-4   6.433601956814528E-4  
 2.360000000000000E10    9.047253988683224E-4   4.553049075184390E-5  
 2.362000000000000E10    1.401201880071312E-4  -9.300878155045211E-4  
 2.364000000000000E10   -1.511622918769717E-3   3.615092136897147E-4  
 2.366000000000000E10    4.204713623039424E-4   1.245122519321740E-3  
 2.368000000000000E10    1.153707620687783E-3  -6.142570637166500E-4  
 2.370000000000000E10   -8.522832067683339E-4  -1.002200762741268E-3  
 2.372000000000000E10   -1.059809233993292E-3   1.160027110017836E-3  
 2.374000000000000E10    1.516398042440414E-3   7.795572164468467E-4  
 2.376000000000000E10    6.541206385008991E-4  -1.258414471521974E-3  
 2.378000000000000E10   -1.034132204949856E-3  -1.953174942173064E-4  
 2.380000000000000E10    3.286166174802929E-4   1.420122804120183E-3  
 2.382000000000000E10    1.459721243008971E-3  -3.804255684372038E-4  
 2.384000000000000E10   -3.821107093244791E-4  -1.225592102855444E-3  
 2.386000000000000E10   -1.449573785066605E-3   8.101809071376920E-4  
 2.388000000000000E10    1.501728431321681E-3   1.289358246140182E-3  
 2.390000000000000E10    1.244281884282827E-3  -1.707374933175743E-3  
 2.392000000000000E10   -1.783000188879669E-3  -9.452553349547088E-4  
 2.394000000000000E10   -4.358612059149891E-4   1.910473336465657E-3  
 2.396000000000000E10    2.699291799217463E-3   3.634351014625281E-5  
 2.398000000000000E10   -1.650568883633241E-4  -2.553255995735526E-3  
 2.400000000000000E10   -2.065323526039720E-3   4.405099316500127E-4  
 2.402000000000000E10    1.182712847366929E-3   2.281201304867864E-3  
 2.404000000000000E10    1.991938566789031E-3  -1.729216775856912E-3  
 2.406000000000000E10   -1.551012159325182E-3  -1.732502598315477E-3  
 2.408000000000000E10   -1.386652584187686E-3   1.289544859901071E-3  
 2.410000000000000E10    1.814739662222564E-3   1.322390860877931E-3  
 2.412000000000000E10    1.289457548409700E-3  -2.112319227308035E-3  
 2.414000000000000E10   -2.345789456740022E-3  -8.438146323896945E-4  
 2.416000000000000E10   -6.421267753466964E-4   1.937448279932141E-3  
 2.418000000000000E10    1.957360422238708E-3   5.326317623257637E-4  
 2.420000000000000E10    3.256752097513527E-4  -2.382281702011824E-3  
 2.422000000000000E10   -2.588436705991626E-3   2.709819236770272E-4  
 2.424000000000000E10    8.556202519685030E-4   2.812861232087016E-3  
 2.426000000000000E10    1.737994374707341E-3  -1.449678326025605E-3  
 2.428000000000000E10   -1.822969061322510E-3  -1.669025863520801E-3  
 2.430000000000000E10   -1.702369190752506E-3   1.848382991738617E-3  
 2.432000000000000E10    1.924491836689413E-3   1.323596108704805E-3  
 2.434000000000000E10    1.006334321573377E-3  -2.599089872092009E-3  
 2.436000000000000E10   -2.903528744354844E-3  -3.832313523162156E-4  
 2.438000000000000E10   -2.894424833357334E-4   2.437202492728829E-3  
 2.440000000000000E10    2.450551139190793E-3   1.198636891786009E-4  
 2.442000000000000E10   -1.426068338332698E-4  -2.856606384739280E-3  
 2.444000000000000E10   -2.811749465763569E-3   2.503347932361066E-4  
 2.446000000000000E10    5.733774742111564E-4   2.956093288958073E-3  
 2.448000000000000E10    2.643532818183303E-3  -9.263423853553832E-4  
 2.450000000000000E10   -9.807745227590203E-4  -2.333937445655465E-3  
 2.452000000000000E10   -2.311733085662127E-3   1.102924463339150E-3  
 2.454000000000000E10    1.071420731022954E-3   2.316952217370272E-3  
 2.456000000000000E10    2.219760557636619E-3  -1.529484172351658E-3  
 2.458000000000000E10   -1.693054800853133E-3  -1.767910202033818E-3  
 2.460000000000000E10   -1.446935115382075E-3   1.710431883111596E-3  
 2.462000000000000E10    2.078199759125710E-3   1.397129264660180E-3  
 2.464000000000000E10    8.129234192892909E-4  -2.117000287398696E-3  
 2.466000000000000E10   -1.697968808002770E-3  -2.810507721733302E-4  
 2.468000000000000E10   -2.805623807944357E-4   1.847081817686558E-3  
 2.470000000000000E10    2.075655618682504E-3   1.898375376185868E-5  
 2.472000000000000E10   -3.850514622172341E-5  -2.035883488133550E-3  
 2.474000000000000E10   -1.837347866967320E-3   5.140752182342112E-4  
 2.476000000000000E10    7.752125384286046E-4   2.025609137490392E-3  
 2.478000000000000E10    2.188293961808085E-3  -1.363186747767031E-3  
 2.480000000000000E10   -1.616824418306351E-3  -1.771410461515188E-3  
 2.482000000000000E10   -1.761912601068616E-3   1.337792840786278E-3  
 2.484000000000000E10    2.363190520554781E-3   1.996566308662295E-3  
 2.486000000000000E10    1.854021335020661E-3  -2.707820851355791E-3  
 2.488000000000000E10   -2.394157461822033E-3  -8.460152894258499E-4  
 2.490000000000000E10   -7.839046884328127E-4   2.337808255106211E-3  
 2.492000000000000E10    2.591450000181794E-3   1.024422352202237E-3  
 2.494000000000000E10    7.703120936639607E-4  -2.760380739346147E-3  
 2.496000000000000E10   -2.789903664961457E-3  -5.150038632564247E-4  
 2.498000000000000E10   -1.967119023902342E-4   2.351391827687621E-3  
 2.500000000000000E10    2.618484664708376E-3   2.297341270605102E-4  
 2.502000000000000E10   -6.915313133504242E-5  -2.938242629170418E-3  
 2.504000000000000E10   -2.926237881183624E-3   4.463146324269474E-4  
 2.506000000000000E10    9.749177261255682E-4   2.597230719402432E-3  
 2.508000000000000E10    2.374114003032446E-3  -1.323865260928869E-3  
 2.510000000000000E10   -1.874318579211831E-3  -1.803126535378397E-3  
 2.512000000000000E10   -1.882871729321778E-3   1.920069102197886E-3  
 2.514000000000000E10    1.983952708542347E-3   2.013441873714328E-3  
 2.516000000000000E10    1.030019368045032E-3  -2.831805031746626E-3  
 2.518000000000000E10   -2.769890008494258E-3  -5.769798299297690E-4  
 2.520000000000000E10   -5.201759049668908E-4   2.373507013544440E-3  
 2.522000000000000E10    2.398387528955936E-3   4.024831578135490E-4  
 2.524000000000000E10   -2.070257869490888E-5  -2.899357816204429E-3  
 2.526000000000000E10   -3.128305543214083E-3   4.511445295065641E-4  
 2.528000000000000E10    6.721716490574181E-4   2.760732546448708E-3  
 2.530000000000000E10    2.790365600958467E-3  -5.237581208348274E-4  
 2.532000000000000E10   -1.479270868003368E-3  -2.940102247521281E-3  
 2.534000000000000E10   -2.832514466717839E-3   1.395628089085221E-3  
 2.536000000000000E10    1.583277480676770E-3   2.669118344783783E-3  
 2.538000000000000E10    2.155340276658535E-3  -2.619962673634291E-3  
 2.540000000000000E10   -2.640022430568934E-3  -1.815291121602058E-3  
 2.542000000000000E10   -1.785260159522295E-3   2.515903441235423E-3  
 2.544000000000000E10    2.751047257333994E-3   1.196339377202094E-3  
 2.546000000000000E10    5.996332620270550E-4  -3.002524608746171E-3  
 2.548000000000000E10   -3.073248546570540E-3  -1.629990147193894E-4  
 2.550000000000000E10   -8.807795529719442E-5   2.483641728758812E-3  
 2.552000000000000E10    2.577155129984021E-3  -6.344740540953353E-6  
 2.554000000000000E10   -8.249803213402629E-4  -2.770333085209131E-3  
 2.556000000000000E10   -2.591660711914301E-3   1.009338069707155E-3  
 2.558000000000000E10    1.415331731550396E-3   2.363865030929446E-3  
 2.560000000000000E10    2.231471473351121E-3  -1.792217371985316E-3  
 2.562000000000000E10   -1.781351980753243E-3  -2.264516428112984E-3  
 2.564000000000000E10   -1.872984343208373E-3   2.593925921246409E-3  
 2.566000000000000E10    2.945319516584277E-3   1.512862509116530E-3  
 2.568000000000000E10    1.187870628200471E-3  -3.554983064532280E-3  
 2.570000000000000E10   -3.476838581264019E-3  -6.221001240191981E-5  
 2.572000000000000E10   -2.947015454992652E-4   3.271296387538314E-3  
 2.574000000000000E10    3.449731972068548E-3  -8.577897824579850E-5  
 2.576000000000000E10   -7.314990507438779E-4  -3.433113219216466E-3  
 2.578000000000000E10   -3.019531955942512E-3   1.197971170768142E-3  
 2.580000000000000E10    1.480304286815226E-3   2.921174746006727E-3  
 2.582000000000000E10    3.011502092704177E-3  -1.290643820539117E-3  
 2.584000000000000E10   -1.563388272188604E-3  -2.903591841459274E-3  
 2.586000000000000E10   -2.747177379205823E-3   2.345415763556957E-3  
 2.588000000000000E10    2.763271564617753E-3   2.394802169874311E-3  
 2.590000000000000E10    1.444171182811260E-3  -2.426508814096451E-3  
 2.592000000000000E10   -2.600731328129768E-3  -1.569324405863881E-3  
 2.594000000000000E10   -1.182919368147850E-3   3.012698609381914E-3  
 2.596000000000000E10    3.417696803808212E-3   8.978882688097656E-4  
 2.598000000000000E10    1.116763742174953E-4  -3.413345199078322E-3  
 2.600000000000000E10   -3.203712636604905E-3   6.667106645181775E-4  
 2.602000000000000E10    1.398528809659183E-3   3.197417128831148E-3  
 2.604000000000000E10    3.030860563740134E-3  -1.289941952563822E-3  
 2.606000000000000E10   -1.506714732386172E-3  -2.576888538897038E-3  
 2.608000000000000E10   -2.634312259033322E-3   2.165890764445067E-3  
 2.610000000000000E10    2.255958039313555E-3   2.358761150389910E-3  
 2.612000000000000E10    2.294060774147511E-3  -2.325087785720825E-3  
 2.614000000000000E10   -2.971542067825794E-3  -2.247028052806854E-3  
 2.616000000000000E10   -1.983759226277471E-3   3.384144511073828E-3  
 2.618000000000000E10    3.430904354900122E-3   1.611307379789650E-3  
 2.620000000000000E10    6.860927096568048E-4  -3.796551609411836E-3  
 2.622000000000000E10   -3.403023350983858E-3  -6.758426898159087E-4  
 2.624000000000000E10   -2.378310309723020E-4   3.725603222846985E-3  
 2.626000000000000E10    3.637011861428618E-3  -3.833560040220618E-4  
 2.628000000000000E10   -7.718182750977576E-4  -3.392422804608941E-3  
 2.630000000000000E10   -3.302799304947257E-3   1.786511391401291E-3  
 2.632000000000000E10    1.716574653983116E-3   2.670535119250417E-3  
 2.634000000000000E10    2.715724520385265E-3  -1.906258519738913E-3  
 2.636000000000000E10   -2.609479473903775E-3  -2.079609083011746E-3  
 2.638000000000000E10   -1.576792099513114E-3   2.631818177178502E-3  
 2.640000000000000E10    2.890539355576038E-3   1.277686213143170E-3  
 2.642000000000000E10    9.467561030760407E-4  -2.723231678828597E-3  
 2.644000000000000E10   -3.170655108988285E-3  -1.199840451590717E-3  
 2.646000000000000E10   -2.386342821409926E-4   3.767047543078661E-3  
 2.648000000000000E10    3.761123633012176E-3  -1.326163037447259E-4  
 2.650000000000000E10   -1.164764980785549E-3  -3.319218987599015E-3  
 2.652000000000000E10   -3.141798544675112E-3   1.502528553828597E-3  
 2.654000000000000E10    1.720743835903704E-3   3.046280704438686E-3  
 2.656000000000000E10    2.825147006660700E-3  -2.184188459068537E-3  
 2.658000000000000E10   -2.425378421321511E-3  -2.332283183932304E-3  
 2.660000000000000E10   -1.787814893759787E-3   2.517283195629716E-3  
 2.662000000000000E10    3.125711344182491E-3   1.699436223134399E-3  
 2.664000000000000E10    1.198203302919865E-3  -2.968494780361652E-3  
 2.666000000000000E10   -2.898336388170719E-3  -8.271175902336836E-4  
 2.668000000000000E10   -2.284883958054707E-4   3.067254787310958E-3  
 2.670000000000000E10    2.908961148932576E-3  -3.611637293943204E-5  
 2.672000000000000E10   -2.956420066766441E-4  -2.651032991707325E-3  
 2.674000000000000E10   -2.809066325426102E-3   5.029422463849187E-4  
 2.676000000000000E10    7.486200775019825E-4   2.655953634530306E-3  
 2.678000000000000E10    2.359345555305481E-3  -1.539998804219067E-3  
 2.680000000000000E10   -1.463913009501994E-3  -2.015440724790096E-3  
 2.682000000000000E10   -1.841107616201043E-3   1.541055389679968E-3  
 2.684000000000000E10    2.084961393848062E-3   1.434800098650158E-3  
 2.686000000000000E10    1.451505697332323E-3  -1.934532774612308E-3  
 2.688000000000000E10   -2.355358330532908E-3  -1.005349913612008E-3  
 2.690000000000000E10   -5.926342564634979E-4   2.225831151008606E-3  
 2.692000000000000E10    2.447389066219330E-3   3.404875169508159E-4  
 2.694000000000000E10   -1.551773748360574E-4  -2.534766215831041E-3  
 2.696000000000000E10   -2.282539149746299E-3   3.230494912713766E-4  
 2.698000000000000E10    3.633576270658523E-4   2.054739743471146E-3  
 2.700000000000000E10    2.161868149414659E-3  -8.878170046955347E-4  
 2.702000000000000E10   -1.253274269402027E-3  -1.771640032529831E-3  
 2.704000000000000E10   -1.535443821921945E-3   1.307676895521581E-3  
 2.706000000000000E10    1.371183781884611E-3   1.529191969893873E-3  
 2.708000000000000E10    1.488987007178366E-3  -1.470263698138297E-3  
 2.710000000000000E10   -1.764344866387546E-3  -1.205899985507131E-3  
 2.712000000000000E10   -8.466298459097743E-4   1.951837097294629E-3  
 2.714000000000000E10    1.853442750871182E-3   8.370713330805302E-4  
 2.716000000000000E10    6.008473574183881E-4  -1.593075343407691E-3  
 2.718000000000000E10   -1.673191320151091E-3  -3.991505946032703E-4  
 2.720000000000000E10   -6.006134208291769E-4   1.874103443697095E-3  
 2.722000000000000E10    1.625305972993374E-3  -1.273235920962179E-5  
 2.724000000000000E10   -2.766714897006750E-4  -1.638309680856764E-3  
 2.726000000000000E10   -1.395346364006400E-3   2.103835431626067E-4  
 2.728000000000000E10    6.742337136529386E-4   1.280065276660025E-3  
 2.730000000000000E10    1.485680812038481E-3  -6.565544172190130E-4  
 2.732000000000000E10   -5.959431291557849E-4  -1.235636183992028E-3  
 2.734000000000000E10   -1.033993670716882E-3   1.045586308464408E-3  
 2.736000000000000E10    1.239274162799120E-3   1.063952455297113E-3  
 2.738000000000000E10    9.937635622918606E-4  -1.215955591760576E-3  
 2.740000000000000E10   -1.412961166352034E-3  -5.259593017399311E-4  
 2.742000000000000E10   -7.326483028009534E-4   1.332902465946972E-3  
 2.744000000000000E10    1.599894254468381E-3   4.376243741717190E-4  
 2.746000000000000E10    2.483906864654273E-4  -1.590968808159232E-3  
 2.748000000000000E10   -1.646864227950573E-3  -1.018251568893902E-4  
 2.750000000000000E10    3.445245383772999E-4   1.530976267531514E-3  
 2.752000000000000E10    1.512265065684915E-3  -3.346878802403808E-4  
 2.754000000000000E10   -4.908755072392523E-4  -1.305160694755614E-3  
 2.756000000000000E10   -1.022916869260371E-3   9.385729208588600E-4  
