#  HZ   S   RI   R     50.00 
! Rohde & Schwarz ZVA40 4Ports - Version 3.90 - 1145.1110k42 SN: 100403
! Date: 2023-10-04 07:39:18
! Measurement: S12 
! 
 2.200000000000000E10    4.531882295850664E-4  -1.262615900486708E-3  
 2.202000000000000E10   -8.346452377736569E-4  -5.519547848962247E-4  
 2.204000000000000E10   -5.728639080189169E-4   1.432561548426747E-3  
 2.206000000000000E10    1.239724690094590E-3   5.704858922399581E-4  
 2.208000000000000E10    4.014737787656486E-4  -1.075025997124612E-3  
 2.210000000000000E10   -1.184298307634890E-3  -2.787360281217843E-4  
 2.212000000000000E10   -3.384928859304637E-4   1.284317695535719E-3  
 2.214000000000000E10    9.147786768153310E-4   2.404957631370053E-4  
 2.216000000000000E10    5.741944769397378E-4  -4.546408599708229E-4  
 2.218000000000000E10   -8.083487628027797E-4   9.742753900354728E-5  
 2.220000000000000E10    3.625432727858424E-4   9.082924225367606E-4  
 2.222000000000000E10    6.170577253215015E-4  -1.657406974118203E-4  
 2.224000000000000E10   -4.880626220256090E-4  -2.446913858875632E-4  
 2.226000000000000E10   -2.278249157825485E-4   4.873540601693094E-4  
 2.228000000000000E10    7.817737059667707E-4   2.859856467694044E-4  
 2.230000000000000E10    3.728931769728661E-4  -7.686598110012710E-4  
 2.232000000000000E10   -5.441178800538182E-4  -2.502314455341548E-4  
 2.234000000000000E10    1.131692552007735E-4   1.236987183801830E-3  
 2.236000000000000E10    8.771951543167234E-4   1.342244650004432E-4  
 2.238000000000000E10    9.810717892833054E-5  -1.108897617086768E-3  
 2.240000000000000E10   -1.357800560072064E-3  -6.802350981160998E-5  
 2.242000000000000E10   -7.401175389532000E-5   1.105904928408563E-3  
 2.244000000000000E10    1.539988792501390E-3  -3.648695201263763E-5  
 2.246000000000000E10   -9.111840881814715E-6  -1.524969586171210E-3  
 2.248000000000000E10   -1.292243134230375E-3   1.035239329212345E-4  
 2.250000000000000E10    1.322257303399965E-4   1.086643547751010E-3  
 2.252000000000000E10    1.240344834513962E-3  -2.167868951801211E-4  
 2.254000000000000E10   -1.145865608123131E-4  -1.165951834991574E-3  
 2.256000000000000E10   -1.112657133489847E-3   2.150645741494373E-4  
 2.258000000000000E10    3.590368432924151E-4   6.432228256016970E-4  
 2.260000000000000E10    3.787163004744798E-4  -1.431598211638629E-4  
 2.262000000000000E10   -2.116303803632036E-4  -6.796457455493510E-4  
 2.264000000000000E10   -4.107491695322096E-4  -5.551684444071725E-5  
 2.266000000000000E10    4.338711441960186E-4   3.683192480821163E-4  
 2.268000000000000E10    3.421058354433626E-4  -7.019366603344679E-4  
 2.270000000000000E10   -8.329409756697714E-4  -1.656127569731325E-4  
 2.272000000000000E10   -5.061688625573879E-6   8.776140166446567E-4  
 2.274000000000000E10    8.148195920512080E-4  -8.768981206230819E-4  
 2.276000000000000E10   -8.479933603666723E-4  -9.838200639933348E-4  
 2.278000000000000E10   -9.479342261329293E-4   7.975304615683854E-4  
 2.280000000000000E10    7.952756131999195E-4   2.849741431418806E-4  
 2.282000000000000E10    1.171867479570210E-3  -3.134460421279073E-4  
 2.284000000000000E10   -1.105286995880306E-3  -1.015639863908291E-3  
 2.286000000000000E10   -7.177111110650003E-4   9.313374757766724E-4  
 2.288000000000000E10    1.172131043858826E-3   9.358866955153644E-4  
 2.290000000000000E10    3.437059931457043E-4  -1.257731812074781E-3  
 2.292000000000000E10   -1.028227736242116E-3  -3.823915903922170E-4  
 2.294000000000000E10   -4.676112148445100E-4   9.266908746212721E-4  
 2.296000000000000E10    3.181768115609884E-4   3.278193180449307E-4  
 2.298000000000000E10    2.276515588164330E-4  -4.689589550253004E-4  
 2.300000000000000E10   -7.956228801049292E-4  -1.278551644645631E-4  
 2.302000000000000E10    1.336884743068367E-4   6.440405268222094E-4  
 2.304000000000000E10    2.808145363815129E-4  -2.877470105886459E-4  
 2.306000000000000E10   -3.247910644859076E-4   1.521528702141950E-5  
 2.308000000000000E10    9.859346027951688E-5   3.611662832554430E-4  
 2.310000000000000E10    3.277300274930894E-4   1.516511656518560E-5  
 2.312000000000000E10   -3.333455533720553E-4  -4.210503175272606E-5  
 2.314000000000000E10   -6.889977958053350E-4   1.954183244379237E-4  
 2.316000000000000E10    5.727518582716584E-4   9.151853155344725E-4  
 2.318000000000000E10    3.334389766678214E-4  -7.818759768269956E-4  
 2.320000000000000E10   -4.300327855162323E-4  -1.169613460660912E-4  
 2.322000000000000E10   -3.176218888256699E-5   3.372188075445592E-4  
 2.324000000000000E10    3.607856924645603E-4   5.162250599823892E-4  
 2.326000000000000E10    8.033986669033766E-4  -2.562932786531746E-4  
 2.328000000000000E10   -8.394546457566321E-4  -2.737373870331794E-4  
 2.330000000000000E10    9.186397073790431E-5   6.137018790468574E-4  
 2.332000000000000E10    6.539411260746419E-4   7.574104529339820E-5  
 2.334000000000000E10   -1.455232850275934E-4  -5.882441182620823E-4  
 2.336000000000000E10   -1.429798139724881E-4   7.987818389665335E-5  
 2.338000000000000E10    1.862706994870678E-4  -5.816116754431278E-6  
 2.340000000000000E10   -7.156185165513307E-5  -4.042325017508119E-4  
 2.342000000000000E10   -6.254770560190082E-4   1.040321076288819E-4  
 2.344000000000000E10    4.081726947333664E-4   3.486000350676477E-4  
 2.346000000000000E10    3.204492968507111E-4  -7.843946223147214E-4  
 2.348000000000000E10   -5.871324683539569E-4  -2.031296207860578E-5  
 2.350000000000000E10   -1.464391971239820E-4   7.174306665547192E-4  
 2.352000000000000E10    8.562410948798060E-4   1.530921326775570E-5  
 2.354000000000000E10    1.504356187069789E-4  -9.212252334691584E-4  
 2.356000000000000E10   -1.153279212303460E-3   1.752058778947685E-5  
 2.358000000000000E10    5.660049500875175E-4   1.479373546317220E-3  
 2.360000000000000E10    1.206593820825219E-3  -7.754863472655416E-4  
 2.362000000000000E10   -9.353331988677383E-4  -1.122944871895015E-3  
 2.364000000000000E10   -7.213709759525955E-4   7.647936581633985E-4  
 2.366000000000000E10    1.162075088359416E-3   1.095151295885444E-3  
 2.368000000000000E10    1.099085900932550E-3  -1.911002094857395E-3  
 2.370000000000000E10   -1.917272922582924E-3  -4.826514341402799E-4  
 2.372000000000000E10    2.597716411401052E-5   1.926010008901358E-3  
 2.374000000000000E10    1.604990102350712E-3  -5.375123000703752E-4  
 2.376000000000000E10   -5.556298419833183E-4  -1.442629843950272E-3  
 2.378000000000000E10   -1.706423470750451E-3   5.989074124954641E-4  
 2.380000000000000E10    1.332654152065516E-3   1.332745188847184E-3  
 2.382000000000000E10    1.281066332012415E-3  -1.793200732208788E-3  
 2.384000000000000E10   -2.383632585406303E-3  -8.334334706887603E-4  
 2.386000000000000E10   -3.623943775892258E-4   2.005379414185882E-3  
 2.388000000000000E10    2.050148556008935E-3   4.146509454585612E-4  
 2.390000000000000E10   -1.699325075605884E-4  -2.528597367927432E-3  
 2.392000000000000E10   -2.608035691082478E-3   1.393561833538115E-4  
 2.394000000000000E10    7.369483937509358E-4   2.541548805311322E-3  
 2.396000000000000E10    2.218634122982621E-3  -1.274324371479452E-3  
 2.398000000000000E10   -1.098329667001963E-3  -2.332002855837345E-3  
 2.400000000000000E10   -2.320412313565612E-3   1.251505338586867E-3  
 2.402000000000000E10    2.152288099750876E-3   1.579609932377935E-3  
 2.404000000000000E10    1.020365394651890E-3  -2.583790803328157E-3  
 2.406000000000000E10   -2.460775431245565E-3  -6.742733530700207E-4  
 2.408000000000000E10   -3.991996054537594E-4   2.052561845630407E-3  
 2.410000000000000E10    2.131863031536341E-3   3.754250938072801E-4  
 2.412000000000000E10   -1.283741730730981E-4  -2.401066711172462E-3  
 2.414000000000000E10   -2.509217942133546E-3   1.399169705109671E-4  
 2.416000000000000E10    5.674438434652984E-4   2.396017545834184E-3  
 2.418000000000000E10    2.194308675825596E-3  -1.654144725762308E-3  
 2.420000000000000E10   -1.463613356463611E-3  -2.092614071443677E-3  
 2.422000000000000E10   -2.115062670782208E-3   1.749753719195724E-3  
 2.424000000000000E10    2.239142544567585E-3   1.979127060621977E-3  
 2.426000000000000E10    1.768510788679123E-3  -2.383806044235826E-3  
 2.428000000000000E10   -2.861887216567993E-3  -1.493819057941437E-3  
 2.430000000000000E10   -1.490248017944396E-3   2.571788383647800E-3  
 2.432000000000000E10    2.919821301475167E-3   8.253541891463101E-4  
 2.434000000000000E10    1.545542036183178E-4  -3.086155746132135E-3  
 2.436000000000000E10   -2.590841846540570E-3  -3.409254713915288E-4  
 2.438000000000000E10   -2.339674829272553E-4   3.150874515995383E-3  
 2.440000000000000E10    2.823864342644811E-3  -2.934802905656397E-4  
 2.442000000000000E10   -7.224074215628207E-4  -2.622268628329039E-3  
 2.444000000000000E10   -2.565977629274130E-3   1.094481791369617E-3  
 2.446000000000000E10    1.072005019523203E-3   1.942744594998658E-3  
 2.448000000000000E10    2.268248004838824E-3  -1.357967383228242E-3  
 2.450000000000000E10   -2.160595264285803E-3  -2.053139032796025E-3  
 2.452000000000000E10   -1.630536862649024E-3   1.753269229084253E-3  
 2.454000000000000E10    2.304879482835531E-3   1.499283825978637E-3  
 2.456000000000000E10    6.762636476196349E-4  -2.592833479866386E-3  
 2.458000000000000E10   -2.562039066106081E-3  -5.939892143942416E-4  
 2.460000000000000E10   -4.269887576811016E-4   3.003985621035099E-3  
 2.462000000000000E10    2.531752921640873E-3  -2.987877232953906E-4  
 2.464000000000000E10   -6.639627972617745E-4  -2.530025551095605E-3  
 2.466000000000000E10   -2.562198089435697E-3   1.036833273246884E-3  
 2.468000000000000E10    7.011045818217099E-4   2.089896006509662E-3  
 2.470000000000000E10    2.689662389457226E-3  -1.259745447896421E-3  
 2.472000000000000E10   -1.836028182879090E-3  -2.570263110101223E-3  
 2.474000000000000E10   -2.202251227572560E-3   1.813479582779110E-3  
 2.476000000000000E10    2.361921360716224E-3   1.903507625684142E-3  
 2.478000000000000E10    1.613098778761923E-3  -2.180289942771196E-3  
 2.480000000000000E10   -2.583315828815103E-3  -1.633181935176253E-3  
 2.482000000000000E10   -1.380830653943121E-3   2.695667790248990E-3  
 2.484000000000000E10    2.531402045860887E-3   1.064834650605917E-3  
 2.486000000000000E10    2.709146938286722E-4  -3.207435831427574E-3  
 2.488000000000000E10   -2.781804883852601E-3  -9.105460776481777E-6  
 2.490000000000000E10   -2.504459189367481E-5   2.542449161410332E-3  
 2.492000000000000E10    2.321418840438128E-3  -9.589403816789854E-6  
 2.494000000000000E10   -2.616014971863478E-4  -2.465492347255349E-3  
 2.496000000000000E10   -2.473991131410003E-3   9.205364040099084E-4  
 2.498000000000000E10    9.694497566670179E-4   2.200344810262322E-3  
 2.500000000000000E10    1.683041802607477E-3  -9.633206063881517E-4  
 2.502000000000000E10   -1.368733821436763E-3  -1.622727955691516E-3  
 2.504000000000000E10   -1.758703496307135E-3   1.536380848847330E-3  
 2.506000000000000E10    1.733594574034214E-3   1.185645698569715E-3  
 2.508000000000000E10    1.278135227039456E-3  -2.041969681158662E-3  
 2.510000000000000E10   -2.249749610200524E-3  -1.079179113730788E-3  
 2.512000000000000E10   -5.807899869978428E-4   2.942868042737246E-3  
 2.514000000000000E10    3.060984890908003E-3   1.394167047692463E-4  
 2.516000000000000E10   -3.606734680943191E-4  -2.628843765705824E-3  
 2.518000000000000E10   -2.767111640423536E-3   4.432699934113771E-4  
 2.520000000000000E10    8.176615228876472E-4   3.146790433675051E-3  
 2.522000000000000E10    2.425077604129911E-3  -1.043400377966464E-3  
 2.524000000000000E10   -1.284078578464687E-3  -2.866473048925400E-3  
 2.526000000000000E10   -2.553536090999842E-3   1.537950010970235E-3  
 2.528000000000000E10    1.370401121675968E-3   2.586521208286285E-3  
 2.530000000000000E10    2.531595760956407E-3  -1.652094186283648E-3  
 2.532000000000000E10   -1.980963163077831E-3  -2.108688699081540E-3  
 2.534000000000000E10   -2.198275644332171E-3   2.491899533197284E-3  
 2.536000000000000E10    2.769762417301536E-3   1.711668563075364E-3  
 2.538000000000000E10    1.256198389455676E-3  -2.259022789075971E-3  
 2.540000000000000E10   -3.040334675461054E-3  -6.972252740524709E-4  
 2.542000000000000E10   -3.433028759900481E-4   2.895917976275086E-3  
 2.544000000000000E10    2.755929017439485E-3   2.903344920923701E-6  
 2.546000000000000E10   -7.182903937064111E-4  -2.845298498868942E-3  
 2.548000000000000E10   -2.370832720771432E-3   1.074358238838613E-3  
 2.550000000000000E10    1.163433771580458E-3   2.544680843129754E-3  
 2.552000000000000E10    2.497382927685976E-3  -1.865128404460847E-3  
 2.554000000000000E10   -2.010476775467396E-3  -2.043803222477436E-3  
 2.556000000000000E10   -2.088763285428286E-3   2.570151584222913E-3  
 2.558000000000000E10    2.665007254108787E-3   1.571168191730976E-3  
 2.560000000000000E10    1.462466898374260E-3  -2.782308496534824E-3  
 2.562000000000000E10   -3.338085487484932E-3  -1.252050860784948E-3  
 2.564000000000000E10   -9.041033335961402E-4   3.288376843556762E-3  
 2.566000000000000E10    3.561629680916667E-3   2.434248599456623E-4  
 2.568000000000000E10   -4.749146464746445E-4  -3.650684142485261E-3  
 2.570000000000000E10   -2.959833014756441E-3   6.831367500126362E-4  
 2.572000000000000E10    1.207257155328989E-3   2.848637523129582E-3  
 2.574000000000000E10    3.019620664417744E-3  -1.428022747859359E-3  
 2.576000000000000E10   -1.644672127440572E-3  -2.800264628604055E-3  
 2.578000000000000E10   -2.321667736396194E-3   2.127180341631174E-3  
 2.580000000000000E10    2.364575630053878E-3   2.135184593498707E-3  
 2.582000000000000E10    1.739587169140577E-3  -2.576900878921151E-3  
 2.584000000000000E10   -2.933715004473925E-3  -1.593680586665869E-3  
 2.586000000000000E10   -1.348356017842889E-3   3.152363933622837E-3  
 2.588000000000000E10    3.167365677654743E-3   5.577019182965159E-4  
 2.590000000000000E10    2.082648716168478E-4  -3.189890878275037E-3  
 2.592000000000000E10   -3.149813972413540E-3   5.621135642286390E-5  
 2.594000000000000E10    6.757083465345204E-4   3.457631915807724E-3  
 2.596000000000000E10    3.457679413259029E-3  -1.365183969028294E-3  
 2.598000000000000E10   -1.599720213562250E-3  -3.173645818606019E-3  
 2.600000000000000E10   -3.047895384952426E-3   2.331474330276251E-3  
 2.602000000000000E10    2.739414572715759E-3   2.696551848202944E-3  
 2.604000000000000E10    2.202895469963551E-3  -2.926642540842295E-3  
 2.606000000000000E10   -2.807624638080597E-3  -1.731603173539043E-3  
 2.608000000000000E10   -1.614705659449101E-3   2.990212989971042E-3  
 2.610000000000000E10    3.141415538266301E-3   1.321798423305154E-3  
 2.612000000000000E10    1.076105516403914E-3  -3.612421220168471E-3  
 2.614000000000000E10   -3.151910845190287E-3  -9.732540347613394E-4  
 2.616000000000000E10   -2.036665391642600E-4   3.914702683687210E-3  
 2.618000000000000E10    3.555221017450094E-3  -2.822493552230299E-4  
 2.620000000000000E10   -6.922337925061584E-4  -3.483962267637253E-3  
 2.622000000000000E10   -3.455936443060637E-3   1.329734106548131E-3  
 2.624000000000000E10    1.370392623357475E-3   3.197420155629516E-3  
 2.626000000000000E10    2.894691191613674E-3  -1.983189722523093E-3  
 2.628000000000000E10   -2.536997431889176E-3  -2.429819200187922E-3  
 2.630000000000000E10   -2.150586806237698E-3   2.559124492108822E-3  
 2.632000000000000E10    3.185778390616179E-3   1.413181424140930E-3  
 2.634000000000000E10    8.422352257184684E-4  -2.962633734568954E-3  
 2.636000000000000E10   -3.184458939358592E-3  -9.374748333357275E-4  
 2.638000000000000E10   -8.503768185619265E-5   3.340314840897918E-3  
 2.640000000000000E10    2.858896274119616E-3  -2.070306800305843E-4  
 2.642000000000000E10   -7.902911747805774E-4  -3.050405532121658E-3  
 2.644000000000000E10   -3.501979401335120E-3   1.010429696179926E-3  
 2.646000000000000E10    1.743113039992750E-3   3.135425504297018E-3  
 2.648000000000000E10    3.014934482052922E-3  -2.008019015192986E-3  
 2.650000000000000E10   -2.378195058554411E-3  -2.467010868713260E-3  
 2.652000000000000E10   -2.081223297864199E-3   2.593990880995989E-3  
 2.654000000000000E10    2.841593697667122E-3   1.755279256030917E-3  
 2.656000000000000E10    1.415628939867020E-3  -2.797370078042150E-3  
 2.658000000000000E10   -3.090107114985585E-3  -1.159145846031606E-3  
 2.660000000000000E10   -3.347553138155490E-4   3.438080428168178E-3  
 2.662000000000000E10    2.899702405557036E-3  -1.274798269150779E-4  
 2.664000000000000E10   -4.918676568195224E-4  -2.898063277825713E-3  
 2.666000000000000E10   -2.770081395283341E-3   8.770115673542023E-4  
 2.668000000000000E10    1.114270999096334E-3   2.439699368551374E-3  
 2.670000000000000E10    2.259149448946118E-3  -1.347959623672068E-3  
 2.672000000000000E10   -1.472879666835070E-3  -2.042815787717700E-3  
 2.674000000000000E10   -1.782724866643548E-3   1.936968066729605E-3  
 2.676000000000000E10    2.162591787055135E-3   1.576570444740355E-3  
 2.678000000000000E10    1.552346860989928E-3  -2.403017599135637E-3  
 2.680000000000000E10   -2.483896212652326E-3  -9.905532933771610E-4  
 2.682000000000000E10   -6.700381054542959E-4   2.535597886890173E-3  
 2.684000000000000E10    2.646537264809012E-3   2.175483678001910E-4  
 2.686000000000000E10   -4.656361124943942E-5  -2.262995112687349E-3  
 2.688000000000000E10   -2.468537073582411E-3   1.235212403116748E-4  
 2.690000000000000E10    6.150383269414306E-4   2.789670601487160E-3  
 2.692000000000000E10    2.423186786472797E-3  -8.737948955968022E-4  
 2.694000000000000E10   -1.408890122547746E-3  -2.269336488097906E-3  
 2.696000000000000E10   -1.954031875357032E-3   1.364481402561069E-3  
 2.698000000000000E10    1.598182367160916E-3   1.551922759972513E-3  
 2.700000000000000E10    1.491232775151730E-3  -1.574296155013144E-3  
 2.702000000000000E10   -1.705278293229640E-3  -1.456627040170133E-3  
 2.704000000000000E10   -1.019976683892310E-3   2.127450658008456E-3  
 2.706000000000000E10    1.964332070201635E-3   8.349483250640333E-4  
 2.708000000000000E10    7.336386479437351E-4  -2.134576207026839E-3  
 2.710000000000000E10   -2.138871001079679E-3  -5.635119159705937E-4  
 2.712000000000000E10    1.005650192382745E-4   2.162620890885592E-3  
 2.714000000000000E10    2.131965477019548E-3  -3.324025019537658E-4  
 2.716000000000000E10   -5.484255962073803E-4  -2.034654840826988E-3  
 2.718000000000000E10   -1.596045098267496E-3   4.255080420989543E-4  
 2.720000000000000E10    7.305113831534982E-4   1.630351995117962E-3  
 2.722000000000000E10    1.331740641035140E-3  -1.045682118274272E-3  
 2.724000000000000E10   -1.223619445227087E-3  -1.330096623860300E-3  
 2.726000000000000E10   -1.191871124319732E-3   1.751849777065218E-3  
 2.728000000000000E10    1.362741691991687E-3   7.109071593731642E-4  
 2.730000000000000E10    4.726185288745910E-4  -1.642022863961756E-3  
 2.732000000000000E10   -1.657484914176166E-3  -2.618066500872374E-4  
 2.734000000000000E10   -3.293326008133590E-4   1.494356198236346E-3  
 2.736000000000000E10    1.880902796983719E-3  -2.238981105620042E-4  
 2.738000000000000E10   -1.308325881836936E-4  -1.626906916499138E-3  
 2.740000000000000E10   -1.522695878520608E-3   4.545525371213444E-5  
 2.742000000000000E10    7.316503324545920E-4   1.582736731506884E-3  
 2.744000000000000E10    1.508394721895456E-3  -6.860279827378690E-4  
 2.746000000000000E10   -6.997897871769965E-4  -1.890831976197660E-3  
 2.748000000000000E10   -1.296764239668846E-3   8.209360530599952E-4  
 2.750000000000000E10    1.015716115944088E-3   1.248364686034620E-3  
 2.752000000000000E10    9.703006944619119E-4  -1.039111753925681E-3  
 2.754000000000000E10   -1.045460230670869E-3  -9.825974702835083E-4  
 2.756000000000000E10   -6.817677640356123E-4   8.866675780154765E-4  
