#  HZ   S   RI   R     50.00 
! Rohde & Schwarz ZVA40 4Ports - Version 3.90 - 1145.1110k42 SN: 100403
! Date: 2023-10-04 07:40:08
! Measurement: S12 
! 
 2.200000000000000E10   -5.449769087135792E-4   8.196528069674969E-4  
 2.202000000000000E10    5.099783302284777E-4   8.439346565864980E-4  
 2.204000000000000E10    4.501225485000759E-4  -1.234302762895823E-3  
 2.206000000000000E10   -1.161641092039645E-3  -9.252516611013562E-5  
 2.208000000000000E10   -6.933835265954258E-6   7.249478367157280E-4  
 2.210000000000000E10    6.469051004387438E-4  -6.680899241473526E-5  
 2.212000000000000E10   -3.970298857893795E-4  -5.382486851885915E-4  
 2.214000000000000E10   -5.916985101066530E-4   4.902923828922212E-4  
 2.216000000000000E10    6.293456535786390E-4   6.049672956578434E-4  
 2.218000000000000E10    7.109094876796007E-4  -4.242325958330184E-4  
 2.220000000000000E10   -1.048115896992385E-3  -4.896741593256593E-4  
 2.222000000000000E10   -5.064173019491136E-4   8.272522245533764E-4  
 2.224000000000000E10    8.231709944084287E-4   5.944365329924040E-5  
 2.226000000000000E10    1.257145195268095E-4  -1.249503809958696E-3  
 2.228000000000000E10   -1.141742803156376E-3   6.056383790564723E-5  
 2.230000000000000E10   -9.624949598219246E-5   1.084158197045326E-3  
 2.232000000000000E10    1.013005734421313E-3  -1.119260050472803E-4  
 2.234000000000000E10    4.798301688424544E-6  -1.125975279137492E-3  
 2.236000000000000E10   -7.027873070910573E-4  -1.211960188811645E-4  
 2.238000000000000E10    1.472887961426750E-4   1.058171968907118E-3  
 2.240000000000000E10    1.041638781316578E-3   1.156085854745470E-4  
 2.242000000000000E10   -1.608244638191536E-4  -9.637392940931022E-4  
 2.244000000000000E10   -8.358825580216944E-4  -2.065270382445306E-4  
 2.246000000000000E10    1.445505622541532E-4   6.609320407733321E-4  
 2.248000000000000E10    9.463367168791592E-4  -2.770558930933476E-4  
 2.250000000000000E10   -1.413012359989807E-4  -7.342455792240799E-4  
 2.252000000000000E10   -2.313544828211889E-4  -1.045617682393640E-4  
 2.254000000000000E10    4.664228763431311E-4   3.899883304256946E-4  
 2.256000000000000E10    3.465096815489233E-4  -5.921175470575690E-4  
 2.258000000000000E10   -3.850840148515999E-4  -3.347702440805733E-4  
 2.260000000000000E10   -2.305589587194845E-4   2.680554753169417E-4  
 2.262000000000000E10    6.790961488150060E-4  -4.641459090635181E-4  
 2.264000000000000E10   -7.459905464202166E-5  -5.039141396991909E-4  
 2.266000000000000E10   -4.318640276324004E-4   3.557745076250285E-4  
 2.268000000000000E10    1.524139224784449E-4   5.281282938085496E-4  
 2.270000000000000E10    9.810657938942313E-4  -6.512991385534406E-4  
 2.272000000000000E10   -4.228005127515644E-4  -6.607815739698708E-4  
 2.274000000000000E10   -8.048049639910460E-4   5.672018160112202E-4  
 2.276000000000000E10    5.743682850152254E-4   1.051897299475968E-3  
 2.278000000000000E10    7.284625316970050E-4  -7.997429347597063E-4  
 2.280000000000000E10   -7.845035288482904E-4  -1.009996049106121E-3  
 2.282000000000000E10   -1.067926175892353E-3   2.283714566146955E-4  
 2.284000000000000E10    7.621641852892935E-4   8.230729727074504E-4  
 2.286000000000000E10    6.097423029132187E-4  -5.257314187474549E-4  
 2.288000000000000E10   -3.699770313687623E-4  -4.700841673184186E-4  
 2.290000000000000E10   -3.142691275570542E-4   6.990401307120919E-4  
 2.292000000000000E10    8.291866397485137E-4   5.231657996773720E-4  
 2.294000000000000E10    1.184863431262784E-4  -1.869092666311190E-4  
 2.296000000000000E10   -1.377726002829149E-4   3.734029178303899E-6  
 2.298000000000000E10    9.293511538999155E-5   1.646310702199116E-4  
 2.300000000000000E10    7.112645107554272E-5   1.709710777504370E-4  
 2.302000000000000E10   -5.089578917250037E-4   3.669509314931929E-4  
 2.304000000000000E10    1.535512419650331E-4   3.927396028302610E-4  
 2.306000000000000E10    3.541126206982881E-4  -2.081577840726823E-4  
 2.308000000000000E10   -4.637618549168110E-4  -7.506221882067621E-4  
 2.310000000000000E10   -3.767749294638634E-4   7.800382445566356E-4  
 2.312000000000000E10    6.065382622182369E-4   6.463548634201288E-4  
 2.314000000000000E10    2.566484326962382E-4  -6.950349779799581E-4  
 2.316000000000000E10   -5.499289836734533E-4  -4.527855780906975E-4  
 2.318000000000000E10   -2.139861317118630E-4   4.265505704097450E-4  
 2.320000000000000E10    7.085038232617080E-4   3.586321836337447E-4  
 2.322000000000000E10    1.816328040149529E-5  -3.122490888927132E-4  
 2.324000000000000E10   -5.846432177349925E-4  -1.602352422196418E-4  
 2.326000000000000E10    3.460644220467657E-4  -1.116004568757489E-4  
 2.328000000000000E10    2.413501497358084E-4   6.641560321440920E-5  
 2.330000000000000E10   -2.848517615348101E-4   1.524631225038320E-4  
 2.332000000000000E10    3.510951646603644E-4   1.658690016483888E-4  
 2.334000000000000E10    3.911963140126318E-4  -6.084474152885377E-4  
 2.336000000000000E10   -6.426030886359513E-4  -2.184075856348500E-4  
 2.338000000000000E10   -3.552171983756125E-4   1.230599707923830E-3  
 2.340000000000000E10    1.078375964425504E-3   3.739564272109419E-4  
 2.342000000000000E10    1.117836218327284E-4  -1.444044755771756E-3  
 2.344000000000000E10   -1.514776027761400E-3  -2.367312845308334E-4  
 2.346000000000000E10    1.316255511483178E-4   1.515320967882872E-3  
 2.348000000000000E10    1.756529440172017E-3  -2.376430784352124E-4  
 2.350000000000000E10   -2.034340577665716E-4  -1.630386104807258E-3  
 2.352000000000000E10   -1.881466829217970E-3   2.909416507463902E-4  
 2.354000000000000E10    1.075106090866029E-3   1.593861379660666E-3  
 2.356000000000000E10    1.451945048756897E-3  -8.158774580806494E-4  
 2.358000000000000E10   -9.586412925273180E-4  -8.841141825541854E-4  
 2.360000000000000E10   -6.149945547804236E-4   1.612182240933180E-3  
 2.362000000000000E10    1.459746970795095E-3   5.540990969166160E-4  
 2.364000000000000E10    6.798376562073827E-4  -1.763664651662111E-3  
 2.366000000000000E10   -1.608707825653255E-3   7.210328476503491E-5  
 2.368000000000000E10    3.842562364297919E-6   2.204865915700793E-3  
 2.370000000000000E10    2.052195370197296E-3  -7.486132089979947E-4  
 2.372000000000000E10   -1.026627258397639E-3  -1.831298577599227E-3  
 2.374000000000000E10   -1.565553946420550E-3   1.648271456360817E-3  
 2.376000000000000E10    1.919725676998496E-3   1.610558130778372E-3  
 2.378000000000000E10    1.039600581862032E-3  -1.686935313045979E-3  
 2.380000000000000E10   -2.151871100068092E-3  -1.056493958458304E-3  
 2.382000000000000E10   -7.807640940882266E-4   2.376217395067215E-3  
 2.384000000000000E10    2.571215154603124E-3   6.638653576374054E-4  
 2.386000000000000E10   -2.132032241206616E-4  -2.388534368947148E-3  
 2.388000000000000E10   -2.715213689953089E-3   3.833624359685928E-4  
 2.390000000000000E10    5.634754197672010E-4   2.518273424357176E-3  
 2.392000000000000E10    2.527452772483230E-3  -9.383616852574050E-4  
 2.394000000000000E10   -1.071485923603177E-3  -2.353333169594407E-3  
 2.396000000000000E10   -2.560624619945884E-3   1.869696541689336E-3  
 2.398000000000000E10    2.194970846176148E-3   1.680884975939989E-3  
 2.400000000000000E10    1.474462682381272E-3  -2.828183583915234E-3  
 2.402000000000000E10   -2.776151988655329E-3  -1.413828693330288E-3  
 2.404000000000000E10   -4.914099699817598E-4   2.958875382319093E-3  
 2.406000000000000E10    2.817817032337189E-3  -5.977355976938270E-5  
 2.408000000000000E10   -2.994042879436165E-4  -2.895635785534978E-3  
 2.410000000000000E10   -2.787255914881825E-3   4.685753083322197E-4  
 2.412000000000000E10    7.559763034805656E-4   2.337588928639889E-3  
 2.414000000000000E10    2.159556606784463E-3  -1.049096230417490E-3  
 2.416000000000000E10   -1.060813781805337E-3  -2.499114489182830E-3  
 2.418000000000000E10   -2.182790311053395E-3   1.361303031444550E-3  
 2.420000000000000E10    1.957727130502462E-3   1.694051199592650E-3  
 2.422000000000000E10    1.785614527761936E-3  -1.528020016849041E-3  
 2.424000000000000E10   -2.487044082954526E-3  -1.844541286118329E-3  
 2.426000000000000E10   -9.572791168466210E-4   2.652881201356649E-3  
 2.428000000000000E10    2.819437067955732E-3   6.502754404209554E-4  
 2.430000000000000E10    5.703166825696826E-4  -2.632542280480266E-3  
 2.432000000000000E10   -2.702190773561597E-3  -2.270741242682561E-4  
 2.434000000000000E10    3.579056356102228E-4   2.789636375382543E-3  
 2.436000000000000E10    2.646498382091522E-3  -9.468973148614168E-4  
 2.438000000000000E10   -7.182047120295465E-4  -2.846344374120235E-3  
 2.440000000000000E10   -2.258410677313805E-3   9.678158676251769E-4  
 2.442000000000000E10    1.360495109111071E-3   2.241155598312616E-3  
 2.444000000000000E10    1.778751844540238E-3  -1.088748802430928E-3  
 2.446000000000000E10   -1.618935959413648E-3  -2.378053730353713E-3  
 2.448000000000000E10   -1.606690580956638E-3   2.060177503153682E-3  
 2.450000000000000E10    1.820066012442112E-3   1.654969179071486E-3  
 2.452000000000000E10    1.348916906863451E-3  -2.294531092047691E-3  
 2.454000000000000E10   -2.309321891516447E-3  -1.003103097900748E-3  
 2.456000000000000E10   -7.871616980992258E-4   2.747217426076531E-3  
 2.458000000000000E10    2.962418831884861E-3   1.920985669130459E-4  
 2.460000000000000E10   -9.759652311913669E-5  -2.723706653341651E-3  
 2.462000000000000E10   -3.342109965160489E-3   5.379113717935979E-4  
 2.464000000000000E10    9.621970821171999E-4   2.818986540660262E-3  
 2.466000000000000E10    2.742925193160772E-3  -8.713157731108367E-4  
 2.468000000000000E10   -1.567555358633399E-3  -2.863601781427860E-3  
 2.470000000000000E10   -2.748762955889106E-3   1.823731698095799E-3  
 2.472000000000000E10    1.750673982314766E-3   2.414782997220755E-3  
 2.474000000000000E10    2.363631967455149E-3  -1.816533389501274E-3  
 2.476000000000000E10   -1.939210924319923E-3  -2.102987840771675E-3  
 2.478000000000000E10   -2.038998529314995E-3   2.805097494274378E-3  
 2.480000000000000E10    2.454554894939065E-3   1.478574355132878E-3  
 2.482000000000000E10    1.553927082568407E-3  -2.642170060425997E-3  
 2.484000000000000E10   -2.881708322092891E-3  -1.034259796142578E-3  
 2.486000000000000E10   -4.774127737618983E-4   2.640696242451668E-3  
 2.488000000000000E10    2.717602066695690E-3  -3.596007009036839E-4  
 2.490000000000000E10   -2.828400756698102E-4  -2.466856269165874E-3  
 2.492000000000000E10   -2.443151315674186E-3   3.257569915149361E-4  
 2.494000000000000E10    1.124736270867288E-3   2.274327212944627E-3  
 2.496000000000000E10    2.152629895135760E-3  -1.263380981981754E-3  
 2.498000000000000E10   -1.677822903729975E-3  -1.887950347736478E-3  
 2.500000000000000E10   -1.995386090129614E-3   1.755772740580142E-3  
 2.502000000000000E10    2.011450007557869E-3   1.529262983240187E-3  
 2.504000000000000E10    1.470188377425075E-3  -2.183194039389491E-3  
 2.506000000000000E10   -2.641049446538091E-3  -1.260586548596621E-3  
 2.508000000000000E10   -8.164734463207424E-4   2.622459316626191E-3  
 2.510000000000000E10    2.828605938702822E-3   7.572223548777401E-4  
 2.512000000000000E10    9.142381604760885E-4  -3.021187381818891E-3  
 2.514000000000000E10   -2.958183176815510E-3  -9.065232006832957E-5  
 2.516000000000000E10    2.948413603007793E-4   3.294396679848433E-3  
 2.518000000000000E10    3.175353631377220E-3  -6.624421221204102E-4  
 2.520000000000000E10   -9.087906801141799E-4  -2.897577825933695E-3  
 2.522000000000000E10   -2.619405742734671E-3   1.145071233622730E-3  
 2.524000000000000E10    1.010737963952124E-3   2.114334609359503E-3  
 2.526000000000000E10    2.364058746024966E-3  -1.406976953148842E-3  
 2.528000000000000E10   -1.601109746843576E-3  -2.361563965678215E-3  
 2.530000000000000E10   -2.036544959992170E-3   1.824256032705307E-3  
 2.532000000000000E10    2.206627512350678E-3   1.892777625471354E-3  
 2.534000000000000E10    1.539755496196449E-3  -2.270643133670092E-3  
 2.536000000000000E10   -2.458389382809401E-3  -1.465735374949873E-3  
 2.538000000000000E10   -1.073892577551305E-3   2.735933288931847E-3  
 2.540000000000000E10    2.801903756335378E-3   4.406704392749816E-4  
 2.542000000000000E10   -1.956090818566736E-5  -3.019805066287518E-3  
 2.544000000000000E10   -3.110421355813742E-3   4.927045665681362E-4  
 2.546000000000000E10    9.108968661166728E-4   2.284990623593330E-3  
 2.548000000000000E10    2.570352284237742E-3  -1.344641554169357E-3  
 2.550000000000000E10   -1.705157919786871E-3  -2.382870996370912E-3  
 2.552000000000000E10   -2.273518824949861E-3   1.645066775381565E-3  
 2.554000000000000E10    2.416523871943355E-3   2.003130502998829E-3  
 2.556000000000000E10    1.571408705785871E-3  -2.350786002352834E-3  
 2.558000000000000E10   -2.599126892164350E-3  -1.596979098394513E-3  
 2.560000000000000E10   -1.263828715309501E-3   2.883529057726264E-3  
 2.562000000000000E10    2.779400907456875E-3   9.502395987510681E-4  
 2.564000000000000E10    7.200792315416038E-4  -3.371115541085601E-3  
 2.566000000000000E10   -3.606137121096253E-3  -4.420015320647508E-4  
 2.568000000000000E10    2.449327148497105E-4   3.397298743948340E-3  
 2.570000000000000E10    3.079864196479321E-3  -9.414498344995081E-4  
 2.572000000000000E10   -8.903743582777679E-4  -2.951261354610324E-3  
 2.574000000000000E10   -3.037906717509031E-3   1.490921480581164E-3  
 2.576000000000000E10    1.926824334077537E-3   2.790115308016539E-3  
 2.578000000000000E10    2.373033203184605E-3  -1.970060402527452E-3  
 2.580000000000000E10   -2.622565720230341E-3  -1.917488523758948E-3  
 2.582000000000000E10   -1.917598769068718E-3   2.565401140600443E-3  
 2.584000000000000E10    2.715374808758497E-3   1.385826384648681E-3  
 2.586000000000000E10    8.256046567112207E-4  -3.102205460891128E-3  
 2.588000000000000E10   -3.281272947788239E-3  -3.469085786491633E-4  
 2.590000000000000E10    8.133608207572252E-5   3.019338939338923E-3  
 2.592000000000000E10    3.368845209479332E-3  -1.076682310667820E-4  
 2.594000000000000E10   -7.538425270467997E-4  -3.377394750714302E-3  
 2.596000000000000E10   -3.382734954357147E-3   1.428076066076756E-3  
 2.598000000000000E10    1.716104103252292E-3   3.573455149307847E-3  
 2.600000000000000E10    3.135690465569496E-3  -2.144568832591176E-3  
 2.602000000000000E10   -2.594442339614034E-3  -2.434157999232411E-3  
 2.604000000000000E10   -2.225279575213790E-3   2.862936584278941E-3  
 2.606000000000000E10    2.778365742415190E-3   2.062911400571466E-3  
 2.608000000000000E10    1.690826262347400E-3  -2.954358933493495E-3  
 2.610000000000000E10   -3.129125107079744E-3  -1.446844777092338E-3  
 2.612000000000000E10   -1.450773095712066E-3   3.608494997024536E-3  
 2.614000000000000E10    3.442619927227497E-3   8.742632344365120E-4  
 2.616000000000000E10    2.491489285603166E-4  -3.510092152282596E-3  
 2.618000000000000E10   -3.632957115769386E-3   2.742877986747772E-4  
 2.620000000000000E10    1.069863559678197E-3   3.571323351934552E-3  
 2.622000000000000E10    3.312072949483991E-3  -1.054927473887801E-3  
 2.624000000000000E10   -1.805007224902511E-3  -3.247372340410948E-3  
 2.626000000000000E10   -2.990224864333868E-3   2.126140519976616E-3  
 2.628000000000000E10    2.365484600886703E-3   2.895752433687449E-3  
 2.630000000000000E10    2.141639590263367E-3  -3.102737711742520E-3  
 2.632000000000000E10   -3.005421487614512E-3  -1.329829799942672E-3  
 2.634000000000000E10   -1.365557662211359E-3   3.348993370309472E-3  
 2.636000000000000E10    3.430674551054835E-3   7.768865325488150E-4  
 2.638000000000000E10    7.107973215170205E-4  -3.409677650779486E-3  
 2.640000000000000E10   -3.262543352320790E-3  -7.381979958154261E-5  
 2.642000000000000E10    4.053160373587161E-4   3.121286397799850E-3  
 2.644000000000000E10    3.248560242354870E-3  -7.199341780506074E-4  
 2.646000000000000E10   -1.026178360916674E-3  -2.973121823742986E-3  
 2.648000000000000E10   -2.963539678603411E-3   1.761862076818943E-3  
 2.650000000000000E10    2.194508910179138E-3   2.366209868341684E-3  
 2.652000000000000E10    2.352007664740086E-3  -2.207679906859994E-3  
 2.654000000000000E10   -2.822584472596645E-3  -1.930412603542209E-3  
 2.656000000000000E10   -1.610850333236158E-3   2.632393036037684E-3  
 2.658000000000000E10    2.975635696202517E-3   1.141802524216473E-3  
 2.660000000000000E10    6.781545816920698E-4  -3.108950098976493E-3  
 2.662000000000000E10   -3.026092424988747E-3  -3.657904453575611E-4  
 2.664000000000000E10    2.613146207295358E-4   2.960430691018701E-3  
 2.666000000000000E10    2.951111178845167E-3  -3.857732517644763E-4  
 2.668000000000000E10   -7.154150516726077E-4  -2.833368256688118E-3  
 2.670000000000000E10   -2.499163383617997E-3   1.392069854773581E-3  
 2.672000000000000E10    1.233307877555490E-3   1.961904810741544E-3  
 2.674000000000000E10    2.159950323402882E-3  -1.682602218352258E-3  
 2.676000000000000E10   -1.825054176151753E-3  -1.745160319842398E-3  
 2.678000000000000E10   -1.562225050292909E-3   1.824454287998378E-3  
 2.680000000000000E10    2.312196884304285E-3   1.004762947559357E-3  
 2.682000000000000E10    6.337690283544362E-4  -2.290969947353005E-3  
 2.684000000000000E10   -2.602808177471161E-3  -5.553007358685136E-4  
 2.686000000000000E10   -6.294980994425714E-5   2.634183736518025E-3  
 2.688000000000000E10    2.381172729656100E-3  -1.612507767276838E-4  
 2.690000000000000E10   -5.586458719335496E-4  -2.546672942116857E-3  
 2.692000000000000E10   -2.184571931138635E-3   8.344749803654850E-4  
 2.694000000000000E10    1.018452458083630E-3   2.089788904413581E-3  
 2.696000000000000E10    1.868145307525992E-3  -1.133850077167153E-3  
 2.698000000000000E10   -1.302191638387740E-3  -1.887832884676755E-3  
 2.700000000000000E10   -1.777934143319726E-3   1.320512732490897E-3  
 2.702000000000000E10    1.307976781390607E-3   1.271115033887327E-3  
 2.704000000000000E10    1.198188052512705E-3  -1.389404293149710E-3  
 2.706000000000000E10   -1.684791292063892E-3  -9.839164558798075E-4  
 2.708000000000000E10   -7.093073800206184E-4   1.537007978186011E-3  
 2.710000000000000E10    1.721962005831301E-3   6.563891074620187E-4  
 2.712000000000000E10    1.909793354570866E-4  -1.708797877654433E-3  
 2.714000000000000E10   -1.682959147728980E-3   6.030030999681912E-5  
 2.716000000000000E10   -1.678950939094648E-4   1.952085527591407E-3  
 2.718000000000000E10    1.444842549972236E-3  -4.005529044661671E-4  
 2.720000000000000E10   -6.663827225565910E-4  -1.404442708007991E-3  
 2.722000000000000E10   -1.741229440085590E-3   9.108517551794648E-4  
 2.724000000000000E10    1.022063079290092E-3   1.233776682056487E-3  
 2.726000000000000E10    9.320653043687344E-4  -1.137233688496053E-3  
 2.728000000000000E10   -1.425924478098750E-3  -1.135109108872712E-3  
 2.730000000000000E10   -6.066154455766082E-4   1.524296356365085E-3  
 2.732000000000000E10    1.792291994206607E-3   9.186676470562816E-4  
 2.734000000000000E10    6.113361450843513E-4  -1.645119045861065E-3  
 2.736000000000000E10   -1.826905878260732E-3  -3.746917645912617E-4  
 2.738000000000000E10   -2.385097905062139E-4   1.974382903426886E-3  
 2.740000000000000E10    1.513343653641641E-3   9.349996980745345E-5  
 2.742000000000000E10   -8.124348823912442E-5  -1.629103324376047E-3  
 2.744000000000000E10   -1.673959312029183E-3   2.730348205659539E-4  
 2.746000000000000E10    4.417420714162290E-4   1.402448862791061E-3  
 2.748000000000000E10    1.351794577203691E-3  -4.670932539738715E-4  
 2.750000000000000E10   -5.755047313869000E-4  -1.246511703357101E-3  
 2.752000000000000E10   -1.128241769038141E-3   7.670288323424757E-4  
 2.754000000000000E10    8.897088700905442E-4   1.139242551289499E-3  
 2.756000000000000E10    8.636636775918305E-4  -7.845737854950130E-4  
