#  HZ   S   RI   R     50.00 
! Rohde & Schwarz ZVA40 4Ports - Version 3.90 - 1145.1110k42 SN: 100403
! Date: 2023-10-04 07:40:26
! Measurement: S12 
! 
 2.200000000000000E10   -4.531859303824604E-4   6.465133628807962E-4  
 2.202000000000000E10    7.647553575225174E-4   3.958707093261182E-4  
 2.204000000000000E10    4.711791989393532E-4  -4.779163864441216E-4  
 2.206000000000000E10   -9.118184098042548E-4   1.411804114468396E-4  
 2.208000000000000E10    5.022424738854170E-4   1.193033764138818E-3  
 2.210000000000000E10    1.184020657092333E-3  -3.106654621660709E-4  
 2.212000000000000E10   -4.227552271913737E-4  -8.133140509016812E-4  
 2.214000000000000E10   -9.992902632802725E-4   6.669076974503696E-4  
 2.216000000000000E10    9.130008984357119E-4   7.839406025595963E-4  
 2.218000000000000E10    9.331682231277227E-4  -9.698636131361127E-4  
 2.220000000000000E10   -9.788654278963804E-4  -5.675611901097000E-4  
 2.222000000000000E10   -6.461048033088446E-4   1.130740740336478E-3  
 2.224000000000000E10    1.099565066397190E-3   4.878873005509377E-4  
 2.226000000000000E10    7.917226175777614E-4  -1.047822181135416E-3  
 2.228000000000000E10   -1.256282790564001E-3  -6.774758221581578E-4  
 2.230000000000000E10   -3.659950161818415E-4   8.268965757451952E-4  
 2.232000000000000E10    9.885738836601377E-4   2.308276743860915E-4  
 2.234000000000000E10   -1.272758236154914E-4  -8.726800442673266E-4  
 2.236000000000000E10   -9.121540351770818E-4  -1.436939874110976E-5  
 2.238000000000000E10    3.169945848640055E-4   7.103668758645654E-4  
 2.240000000000000E10    4.280837601982057E-4  -1.915567117976025E-4  
 2.242000000000000E10   -3.165160596836358E-4  -4.513848107308149E-4  
 2.244000000000000E10   -1.628951722523198E-4   3.859891439788044E-4  
 2.246000000000000E10    4.835354338865727E-4  -1.785762469808105E-5  
 2.248000000000000E10    1.198223708342994E-5  -2.459392708260566E-4  
 2.250000000000000E10   -6.530113751068711E-4  -4.508284109761007E-5  
 2.252000000000000E10   -5.900792530155741E-5   5.121708963997662E-4  
 2.254000000000000E10    7.008562097325921E-4  -7.055891182972118E-5  
 2.256000000000000E10   -7.838839519536123E-5  -1.227113534696400E-3  
 2.258000000000000E10   -5.842639948241413E-4   2.410408924333751E-4  
 2.260000000000000E10   -9.638791379984468E-5   6.129373214207590E-4  
 2.262000000000000E10    6.667132838629186E-4  -2.984041930176318E-4  
 2.264000000000000E10   -2.798693894874305E-4  -7.106551202014089E-4  
 2.266000000000000E10   -1.103355549275875E-3   1.915506145451218E-4  
 2.268000000000000E10    6.030618533259258E-5   6.683088722638786E-4  
 2.270000000000000E10    4.773384716827422E-4  -3.043670731130987E-4  
 2.272000000000000E10   -4.996701027266681E-4  -5.615560803562403E-4  
 2.274000000000000E10   -4.511724982876331E-4  -5.901642725802958E-5  
 2.276000000000000E10    1.394636783516035E-4   5.044479039497674E-4  
 2.278000000000000E10    3.752075426746160E-4  -2.359874197281897E-4  
 2.280000000000000E10   -1.262431760551408E-5  -3.835759998764843E-4  
 2.282000000000000E10   -8.888013690011576E-5  -7.813374395482242E-5  
 2.284000000000000E10    7.186461061792215E-6   1.448627735953778E-4  
 2.286000000000000E10    8.149523637257516E-5   3.973639686591923E-4  
 2.288000000000000E10    1.006793099804781E-4  -8.416790660703555E-5  
 2.290000000000000E10   -9.722965614855639E-7  -8.919286483433098E-5  
 2.292000000000000E10    3.626151374191977E-5  -2.816229243762791E-4  
 2.294000000000000E10   -6.407036562450230E-4  -2.078293036902323E-4  
 2.296000000000000E10    3.460221341811121E-4   5.543163861148059E-4  
 2.298000000000000E10    5.743851070292294E-4  -3.041569470951799E-5  
 2.300000000000000E10   -1.923648233059794E-4  -6.037388811819255E-4  
 2.302000000000000E10   -9.010193753056228E-5   5.405009724199772E-4  
 2.304000000000000E10    1.854407746577635E-4   4.972118767909706E-4  
 2.306000000000000E10    7.104752003215253E-4  -1.550239903735928E-5  
 2.308000000000000E10   -2.316683530807495E-4  -5.324945086613298E-4  
 2.310000000000000E10   -4.101067897863686E-4   7.044457597658038E-4  
 2.312000000000000E10    1.424030197085813E-4   2.595988007669803E-5  
 2.314000000000000E10    1.176275472971611E-4   3.917168942280114E-4  
 2.316000000000000E10   -1.812004047678784E-4   1.055095926858485E-4  
 2.318000000000000E10    1.673202204983681E-4   2.901796833612025E-4  
 2.320000000000000E10   -3.239005454815924E-4  -5.741306231357157E-4  
 2.322000000000000E10   -7.026600069366396E-4   5.629945662803948E-4  
 2.324000000000000E10    5.981817375868559E-4   5.199123988859355E-4  
 2.326000000000000E10    2.274879952892661E-4  -6.465694750659168E-4  
 2.328000000000000E10   -8.765162201598287E-4  -6.403746083378792E-4  
 2.330000000000000E10   -5.784366512671113E-4   1.011200249195099E-3  
 2.332000000000000E10    7.515171309933066E-4   9.425351163372397E-4  
 2.334000000000000E10    7.499195635318756E-4  -1.307172933593392E-3  
 2.336000000000000E10   -1.344229676760733E-3  -6.159893237054348E-4  
 2.338000000000000E10   -2.437136572552845E-4   1.396823325194418E-3  
 2.340000000000000E10    1.874394598416984E-3   5.689385579898953E-4  
 2.342000000000000E10    2.246680087409914E-4  -1.982744084671140E-3  
 2.344000000000000E10   -1.921387622132897E-3   3.937902147299610E-5  
 2.346000000000000E10    3.418881096877158E-4   1.660929294303060E-3  
 2.348000000000000E10    1.692923833616078E-3  -5.957686225883663E-4  
 2.350000000000000E10   -7.265905733220279E-4  -1.815189956687391E-3  
 2.352000000000000E10   -1.620707102119923E-3   1.158277969807386E-3  
 2.354000000000000E10    1.474943826906383E-3   1.069097779691219E-3  
 2.356000000000000E10    8.854726911522448E-4  -1.883727964013815E-3  
 2.358000000000000E10   -1.769853173755109E-3  -4.094905743841082E-4  
 2.360000000000000E10    7.054164598230273E-5   1.720583881251514E-3  
 2.362000000000000E10    2.314894692972302E-3  -2.644875785335898E-4  
 2.364000000000000E10   -5.521233542822301E-4  -2.552254823967814E-3  
 2.366000000000000E10   -2.193966414779425E-3   9.445553296245635E-4  
 2.368000000000000E10    1.849983236752451E-3   2.356227952986956E-3  
 2.370000000000000E10    2.182235242798924E-3  -2.676043659448624E-3  
 2.372000000000000E10   -2.767514903098345E-3  -2.247811295092106E-3  
 2.374000000000000E10   -1.146774506196380E-3   2.901234664022923E-3  
 2.376000000000000E10    3.138787345960736E-3   1.191986724734306E-3  
 2.378000000000000E10    7.544545223936439E-4  -3.429119940847158E-3  
 2.380000000000000E10   -3.217136254534125E-3  -5.268933364277473E-6  
 2.382000000000000E10   -2.258207814520574E-6   3.014961490407586E-3  
 2.384000000000000E10    3.190046874806285E-3  -1.220726117026061E-4  
 2.386000000000000E10   -5.421982496045530E-4  -3.160672029480338E-3  
 2.388000000000000E10   -3.231598762795329E-3   1.214162213727832E-3  
 2.390000000000000E10    1.749214599840343E-3   2.655121032148600E-3  
 2.392000000000000E10    2.238196786493063E-3  -2.274787751957774E-3  
 2.394000000000000E10   -2.359871054068208E-3  -2.034359611570835E-3  
 2.396000000000000E10   -1.410556258633733E-3   2.503430936485529E-3  
 2.398000000000000E10    2.573444275185466E-3   1.245792140252888E-3  
 2.400000000000000E10    4.107664572075009E-4  -3.242476144805551E-3  
 2.402000000000000E10   -3.498553764075041E-3   2.217330475104973E-4  
 2.404000000000000E10    6.434078677557409E-4   3.540390869602561E-3  
 2.406000000000000E10    2.501732669770718E-3  -1.152065931819379E-3  
 2.408000000000000E10   -1.538364216685295E-3  -2.569468924775720E-3  
 2.410000000000000E10   -2.920126542448998E-3   1.874018926173449E-3  
 2.412000000000000E10    2.025816822424531E-3   2.858915366232395E-3  
 2.414000000000000E10    1.840901677496731E-3  -2.357469871640205E-3  
 2.416000000000000E10   -2.400255296379328E-3  -1.833965652622283E-3  
 2.418000000000000E10   -1.900723786093295E-3   2.740217372775078E-3  
 2.420000000000000E10    2.550714649260044E-3   1.589329331181943E-3  
 2.422000000000000E10    7.294031092897058E-4  -3.040104638785124E-3  
 2.424000000000000E10   -3.415866522118449E-3  -7.874224684201181E-4  
 2.426000000000000E10   -2.785359538393095E-5   3.315408714115620E-3  
 2.428000000000000E10    2.985309576615691E-3  -6.157765747047961E-4  
 2.430000000000000E10   -8.216464193537831E-4  -2.800347981974483E-3  
 2.432000000000000E10   -3.091832622885704E-3   1.123575028032064E-3  
 2.434000000000000E10    1.610352657735348E-3   2.949849003925920E-3  
 2.436000000000000E10    2.056552330031991E-3  -2.242320217192173E-3  
 2.438000000000000E10   -1.928802113980055E-3  -2.047671936452389E-3  
 2.440000000000000E10   -2.031890209764242E-3   1.877176458947361E-3  
 2.442000000000000E10    2.043014625087380E-3   1.973800361156464E-3  
 2.444000000000000E10    1.817151205614209E-3  -2.624250948429108E-3  
 2.446000000000000E10   -2.737956121563911E-3  -1.257261144928634E-3  
 2.448000000000000E10   -9.484969195909798E-4   2.764778444543481E-3  
 2.450000000000000E10    2.748496597632766E-3   7.068086997605860E-4  
 2.452000000000000E10    8.489048341289163E-4  -2.601436804980040E-3  
 2.454000000000000E10   -3.228404093533754E-3  -3.324602730572224E-4  
 2.456000000000000E10    2.968329063151032E-4   2.850194694474340E-3  
 2.458000000000000E10    2.662151120603085E-3  -4.862006171606481E-4  
 2.460000000000000E10   -8.656673599034548E-4  -2.591024618595839E-3  
 2.462000000000000E10   -2.346341498196125E-3   1.117863110266626E-3  
 2.464000000000000E10    1.477770856581628E-3   2.399253891780973E-3  
 2.466000000000000E10    2.217899076640606E-3  -1.923318603076041E-3  
 2.468000000000000E10   -2.035306068137288E-3  -1.930090016685426E-3  
 2.470000000000000E10   -1.958722714334726E-3   2.500902861356735E-3  
 2.472000000000000E10    2.174671972170472E-3   1.566493767313659E-3  
 2.474000000000000E10    1.532296999357641E-3  -2.140881959348917E-3  
 2.476000000000000E10   -2.599883824586868E-3  -1.337046502158046E-3  
 2.478000000000000E10   -8.899222593754530E-4   3.185325767844915E-3  
 2.480000000000000E10    3.152475459501147E-3   4.761017044074833E-4  
 2.482000000000000E10   -1.645993615966290E-4  -2.596921985968947E-3  
 2.484000000000000E10   -2.678178716450930E-3   5.005886778235436E-4  
 2.486000000000000E10    9.433698724023998E-4   2.715586684644222E-3  
 2.488000000000000E10    2.333343727514148E-3  -9.475396363995969E-4  
 2.490000000000000E10   -1.383308437652886E-3  -1.904386212117970E-3  
 2.492000000000000E10   -1.942125963978469E-3   1.474625547416508E-3  
 2.494000000000000E10    1.770958304405212E-3   2.035755198448896E-3  
 2.496000000000000E10    1.679194509051740E-3  -2.363000996410847E-3  
 2.498000000000000E10   -2.445351798087359E-3  -1.529566477984190E-3  
 2.500000000000000E10   -1.167176757007837E-3   2.760680625215173E-3  
 2.502000000000000E10    2.824901603162289E-3   9.152197162620723E-4  
 2.504000000000000E10    8.464732673019171E-4  -3.067885758355260E-3  
 2.506000000000000E10   -2.840454922989011E-3  -4.802844196092337E-4  
 2.508000000000000E10   -5.581259028986096E-4   2.978556556627154E-3  
 2.510000000000000E10    3.227911656722426E-3  -5.024536221753806E-5  
 2.512000000000000E10   -3.983877249993384E-4  -3.126858500763774E-3  
 2.514000000000000E10   -3.266468411311507E-3   5.486658774316311E-4  
 2.516000000000000E10    9.656189358793199E-4   2.814324805513024E-3  
 2.518000000000000E10    2.498009707778692E-3  -9.945828933268786E-4  
 2.520000000000000E10   -1.582513679750264E-3  -2.545629628002644E-3  
 2.522000000000000E10   -2.159174531698227E-3   1.633923384360969E-3  
 2.524000000000000E10    1.718342187814415E-3   1.801955164410174E-3  
 2.526000000000000E10    1.255123876035214E-3  -2.045322675257921E-3  
 2.528000000000000E10   -1.934277010150254E-3  -1.596333109773696E-3  
 2.530000000000000E10   -1.652571023441851E-3   2.787382109090686E-3  
 2.532000000000000E10    2.897050231695175E-3   5.155327380634844E-4  
 2.534000000000000E10    3.109786193817854E-4  -2.709268126636744E-3  
 2.536000000000000E10   -3.278735792264342E-3   1.017305185087025E-4  
 2.538000000000000E10    5.317690665833652E-4   2.916769823059440E-3  
 2.540000000000000E10    3.003398189321160E-3  -7.652123458683491E-4  
 2.542000000000000E10   -1.636262633837760E-3  -2.982695586979389E-3  
 2.544000000000000E10   -2.822969807311893E-3   1.810924499295652E-3  
 2.546000000000000E10    2.204919001087546E-3   2.808508230373263E-3  
 2.548000000000000E10    1.967336982488632E-3  -2.488826168701053E-3  
 2.550000000000000E10   -2.832742640748620E-3  -2.001469722017646E-3  
 2.552000000000000E10   -1.429236959666014E-3   3.196987323462963E-3  
 2.554000000000000E10    2.716421149671078E-3   9.305505082011223E-4  
 2.556000000000000E10    9.282857645303011E-4  -2.796649467200041E-3  
 2.558000000000000E10   -2.822120673954487E-3  -5.310916458256543E-4  
 2.560000000000000E10   -3.899573348462582E-4   3.046363126486540E-3  
 2.562000000000000E10    3.240034217014909E-3   9.280005906475708E-5  
 2.564000000000000E10   -4.916164325550199E-4  -3.031490603461862E-3  
 2.566000000000000E10   -2.996278461068869E-3   7.321513257920742E-4  
 2.568000000000000E10    1.516624819487333E-3   3.323805285617709E-3  
 2.570000000000000E10    2.589950338006020E-3  -1.822957419790328E-3  
 2.572000000000000E10   -2.074659569188952E-3  -2.329427050426602E-3  
 2.574000000000000E10   -2.162171760573983E-3   2.623084466904402E-3  
 2.576000000000000E10    2.838144078850746E-3   1.540640718303621E-3  
 2.578000000000000E10    1.288415282033384E-3  -2.920899540185928E-3  
 2.580000000000000E10   -3.150282660499215E-3  -8.449856541119516E-4  
 2.582000000000000E10   -5.331617430783808E-4   3.179548541083932E-3  
 2.584000000000000E10    3.099281340837479E-3  -1.485016400692985E-5  
 2.586000000000000E10   -3.874917456414551E-4  -3.183675231412053E-3  
 2.588000000000000E10   -2.813116181641817E-3   8.152927621267736E-4  
 2.590000000000000E10    9.527676156722009E-4   3.151010954752564E-3  
 2.592000000000000E10    3.249585162848234E-3  -1.555106136947870E-3  
 2.594000000000000E10   -1.875963527709246E-3  -3.021299140527844E-3  
 2.596000000000000E10   -2.986211329698563E-3   2.211224520578980E-3  
 2.598000000000000E10    2.784424461424351E-3   2.545593073591590E-3  
 2.600000000000000E10    2.254135208204389E-3  -3.403602866455913E-3  
 2.602000000000000E10   -3.586186096072197E-3  -1.464745379053056E-3  
 2.604000000000000E10   -1.220547012053430E-3   3.233117517083883E-3  
 2.606000000000000E10    3.313084132969379E-3   9.259356302209199E-4  
 2.608000000000000E10    6.714213523082435E-4  -3.390933154150844E-3  
 2.610000000000000E10   -3.163480432704091E-3  -2.923162537626922E-4  
 2.612000000000000E10    1.436210441170260E-4   3.715754952281714E-3  
 2.614000000000000E10    3.483749693259597E-3  -4.062056832481176E-4  
 2.616000000000000E10   -1.098834211006761E-3  -3.482252592220902E-3  
 2.618000000000000E10   -3.073732601478696E-3   1.521265949122608E-3  
 2.620000000000000E10    2.022276865318418E-3   3.211680334061384E-3  
 2.622000000000000E10    2.720731543377042E-3  -2.527415053918958E-3  
 2.624000000000000E10   -2.965669380500913E-3  -2.241386333480477E-3  
 2.626000000000000E10   -2.178897848352790E-3   3.123999107629061E-3  
 2.628000000000000E10    3.677557222545147E-3   1.619974616914988E-3  
 2.630000000000000E10    8.378611528314650E-4  -3.771454095840454E-3  
 2.632000000000000E10   -3.727713134139776E-3  -4.882192297372967E-5  
 2.634000000000000E10    3.703839029185474E-4   3.418619977310300E-3  
 2.636000000000000E10    3.436109051108360E-3  -1.219486002810299E-4  
 2.638000000000000E10   -8.597312262281776E-4  -3.509244881570339E-3  
 2.640000000000000E10   -3.311417065560818E-3   1.240791054442525E-3  
 2.642000000000000E10    1.500945538282394E-3   3.197586629539728E-3  
 2.644000000000000E10    2.978092292323709E-3  -1.964080380275846E-3  
 2.646000000000000E10   -2.550114644691348E-3  -2.284846268594265E-3  
 2.648000000000000E10   -1.991384429857135E-3   2.705371240153909E-3  
 2.650000000000000E10    3.127938834950328E-3   1.493511139415205E-3  
 2.652000000000000E10    1.121078385040164E-3  -3.092333208769560E-3  
 2.654000000000000E10   -3.046711441129446E-3  -6.460143486037850E-4  
 2.656000000000000E10   -6.466016202466562E-5   2.964298008009791E-3  
 2.658000000000000E10    2.979606622830033E-3  -2.400337543804199E-4  
 2.660000000000000E10   -5.932824569754303E-4  -3.042117692530155E-3  
 2.662000000000000E10   -2.995650051161647E-3   1.233981922268868E-3  
 2.664000000000000E10    1.353342900983989E-3   2.623380860313773E-3  
 2.666000000000000E10    2.559110522270203E-3  -1.735047437250614E-3  
 2.668000000000000E10   -2.084656385704875E-3  -2.192112384364009E-3  
 2.670000000000000E10   -1.906883670017123E-3   1.994610764086247E-3  
 2.672000000000000E10    2.484428463503718E-3   1.808944041840732E-3  
 2.674000000000000E10    1.435609301552177E-3  -2.468701452016830E-3  
 2.676000000000000E10   -2.424478065222502E-3  -1.255758805200458E-3  
 2.678000000000000E10   -3.493857802823186E-4   2.642688108608127E-3  
 2.680000000000000E10    2.617068588733673E-3   8.737229654798284E-5  
 2.682000000000000E10    2.688912500161678E-4  -2.713804366067052E-3  
 2.684000000000000E10   -2.236416330561042E-3   5.275810253806412E-4  
 2.686000000000000E10    3.281580575276166E-4   2.332865260541439E-3  
 2.688000000000000E10    2.435088856145740E-3  -1.181527972221375E-3  
 2.690000000000000E10   -1.009579282253981E-3  -1.877018949016929E-3  
 2.692000000000000E10   -2.186507219448686E-3   1.058563706465066E-3  
 2.694000000000000E10    1.572871697135270E-3   1.595955225639045E-3  
 2.696000000000000E10    1.705901813693345E-3  -1.956076826900244E-3  
 2.698000000000000E10   -1.995702506974340E-3  -1.342961448244751E-3  
 2.700000000000000E10   -8.579351124353707E-4   1.907495083287358E-3  
 2.702000000000000E10    2.232820261269808E-3   6.319709355011582E-4  
 2.704000000000000E10    2.223419724032283E-4  -1.966979587450624E-3  
 2.706000000000000E10   -1.828819629736245E-3   1.962060050573200E-4  
 2.708000000000000E10   -3.231111259083264E-5   1.907680416479707E-3  
 2.710000000000000E10    1.873440342023969E-3  -5.629834486171603E-4  
 2.712000000000000E10   -8.473880589008331E-4  -1.693235477432609E-3  
 2.714000000000000E10   -1.342246890999377E-3   7.369682425633073E-4  
 2.716000000000000E10    7.225036970339716E-4   1.307080150581896E-3  
 2.718000000000000E10    1.221648766659200E-3  -1.123268390074372E-3  
 2.720000000000000E10   -1.146597671322525E-3  -9.965272620320320E-4  
 2.722000000000000E10   -8.500994299538434E-4   1.406945288181305E-3  
 2.724000000000000E10    1.402300782501698E-3   1.162006868980825E-3  
 2.726000000000000E10    6.677863420918584E-4  -1.647558878175914E-3  
 2.728000000000000E10   -1.565957791171968E-3  -4.597599909175187E-4  
 2.730000000000000E10   -6.259146030060947E-4   1.756969140842557E-3  
 2.732000000000000E10    1.669599208980799E-3   1.656621461734176E-4  
 2.734000000000000E10    2.152288070647046E-4  -1.845951424911618E-3  
 2.736000000000000E10   -1.563908532261848E-3   1.583773555466905E-4  
 2.738000000000000E10    2.829154836945236E-4   1.641933224163950E-3  
 2.740000000000000E10    1.611199229955673E-3  -4.912029835395515E-4  
 2.742000000000000E10   -4.699137352872640E-4  -1.247478532604873E-3  
 2.744000000000000E10   -1.181455096229911E-3   7.054081652313471E-4  
 2.746000000000000E10    5.611411761492491E-4   1.194940763525665E-3  
 2.748000000000000E10    1.039621187373996E-3  -9.931063978001475E-4  
 2.750000000000000E10   -8.098048274405301E-4  -6.214507156983018E-4  
 2.752000000000000E10   -7.951927254907787E-4   7.621860713697970E-4  
 2.754000000000000E10    1.342788455076516E-3   6.329668685793877E-4  
 2.756000000000000E10    3.338704991620034E-4  -8.978492696769536E-4  
