#  HZ   S   RI   R     50.00 
! Rohde & Schwarz ZVA40 4Ports - Version 3.90 - 1145.1110k42 SN: 100403
! Date: 2023-10-04 07:40:46
! Measurement: S12 
! 
 2.200000000000000E10   -2.760076313279569E-4   6.833206280134618E-4  
 2.202000000000000E10    1.053731073625386E-3   2.167720231227577E-4  
 2.204000000000000E10    6.221381772775203E-5  -1.344317221082747E-3  
 2.206000000000000E10   -1.287845778279007E-3  -1.018401162582450E-4  
 2.208000000000000E10    9.819318802328780E-5   1.186950365081430E-3  
 2.210000000000000E10    1.306934165768325E-3  -2.354004100197926E-4  
 2.212000000000000E10   -5.063068820163608E-4  -9.373275679536164E-4  
 2.214000000000000E10   -1.204264350235462E-3   4.745158075820655E-4  
 2.216000000000000E10    5.721367197111249E-4   1.047797966748476E-3  
 2.218000000000000E10    8.925164001993835E-4  -4.227078170515597E-4  
 2.220000000000000E10   -7.691829232499003E-4  -8.326282259076834E-4  
 2.222000000000000E10   -9.693480096757412E-4   6.913205143064261E-4  
 2.224000000000000E10    6.291682948358357E-4   1.787109504221007E-4  
 2.226000000000000E10    2.156268164981157E-4  -4.612671909853816E-4  
 2.228000000000000E10   -4.665104497689754E-4  -1.199102844111621E-4  
 2.230000000000000E10    1.193013522424735E-4   4.712548688985407E-4  
 2.232000000000000E10    4.561541718430817E-4  -1.020893687382340E-4  
 2.234000000000000E10   -9.108328231377527E-5  -5.349672283045948E-4  
 2.236000000000000E10   -6.626751273870468E-4   2.745478996075690E-4  
 2.238000000000000E10    5.650024395436049E-4   5.471303011290729E-4  
 2.240000000000000E10    4.682189901359379E-4  -6.405565072782338E-4  
 2.242000000000000E10   -8.364078821614385E-4  -5.011999164707959E-4  
 2.244000000000000E10   -5.023846752010286E-4   1.027810736559331E-3  
 2.246000000000000E10    6.073131808079779E-4   3.495245473459363E-4  
 2.248000000000000E10    1.499500795034692E-4  -5.232692346908152E-4  
 2.250000000000000E10   -6.656791083514690E-4  -1.638475441723131E-5  
 2.252000000000000E10   -4.635291115846485E-4   8.330014534294605E-4  
 2.254000000000000E10    5.691341939382255E-4   2.607956703286618E-4  
 2.256000000000000E10    3.867263731081039E-4  -3.923974581994116E-4  
 2.258000000000000E10   -6.033332902006805E-4  -3.620235656853765E-4  
 2.260000000000000E10   -4.380887257866561E-4   4.032603756058961E-4  
 2.262000000000000E10    2.459845854900777E-4   5.837386706843972E-4  
 2.264000000000000E10    1.690123172011226E-4  -3.121470508631319E-4  
 2.266000000000000E10   -5.043899291194975E-4  -1.398672902723774E-4  
 2.268000000000000E10   -5.167580093257129E-4   2.492466301191598E-4  
 2.270000000000000E10    2.230609388789162E-4  -1.324240874964744E-4  
 2.272000000000000E10   -1.907474324980285E-5  -1.362358161713928E-4  
 2.274000000000000E10   -1.069097124855034E-4   1.033484586514533E-4  
 2.276000000000000E10    9.124822827288881E-5   1.886971294879913E-4  
 2.278000000000000E10    3.382910290383734E-5  -2.487863530404866E-4  
 2.280000000000000E10   -3.612889850046486E-4   8.640490705147386E-5  
 2.282000000000000E10    4.259094203007408E-5   4.314520338084549E-4  
 2.284000000000000E10    1.722995802992955E-4  -6.310734897851944E-5  
 2.286000000000000E10   -1.704378810245544E-4  -9.871414658846334E-5  
 2.288000000000000E10   -5.169867654331029E-4   1.321525051025674E-4  
 2.290000000000000E10   -2.341152139706537E-5   5.406449781730771E-4  
 2.292000000000000E10    4.064119129907340E-4  -2.926925117208157E-5  
 2.294000000000000E10   -3.788195899687707E-4  -4.438407777342945E-4  
 2.296000000000000E10   -5.792906158603728E-4  -1.814956885937136E-5  
 2.298000000000000E10   -1.560429227538407E-4   2.810760634019971E-4  
 2.300000000000000E10    4.894984303973615E-4   1.286795304622501E-4  
 2.302000000000000E10   -1.550195884192362E-4   3.128193566226400E-5  
 2.304000000000000E10    3.067648140131496E-5  -1.412735437043011E-4  
 2.306000000000000E10   -2.667721419129521E-4   2.387188287684694E-4  
 2.308000000000000E10   -4.341590465628542E-5   5.148532800376415E-4  
 2.310000000000000E10    5.433916812762618E-4  -2.266060037072748E-4  
 2.312000000000000E10    1.933871390065178E-4  -5.962478462606669E-4  
 2.314000000000000E10   -9.386852034367621E-4  -1.462976215407252E-4  
 2.316000000000000E10    1.357358560198918E-4   1.262517995201051E-3  
 2.318000000000000E10    1.619426649995148E-3  -2.925962035078555E-4  
 2.320000000000000E10   -4.632830969057977E-4  -1.171978306956589E-3  
 2.322000000000000E10   -7.538085337728262E-4   4.712497757282108E-4  
 2.324000000000000E10    3.374836524017155E-4   1.148501527495682E-3  
 2.326000000000000E10    1.066689263097942E-3  -3.916524874512106E-4  
 2.328000000000000E10   -6.971841794438660E-4  -1.142450259067118E-3  
 2.330000000000000E10   -4.753401444759220E-4   1.183970016427338E-3  
 2.332000000000000E10    8.709749090485275E-4   4.333662218414247E-4  
 2.334000000000000E10    4.521060618571937E-4  -9.931537788361311E-4  
 2.336000000000000E10   -1.513854833319783E-3  -2.157225098926574E-4  
 2.338000000000000E10    6.356375524774194E-4   1.497002202086151E-3  
 2.340000000000000E10    1.389708719216287E-3  -9.096912690438330E-4  
 2.342000000000000E10   -7.996561471372843E-4  -1.045022741891444E-3  
 2.344000000000000E10   -1.214112737216055E-3   1.284953788854182E-3  
 2.346000000000000E10    1.516866730526090E-3   1.238220254890621E-3  
 2.348000000000000E10    1.460544881410897E-3  -2.182782627642155E-3  
 2.350000000000000E10   -2.449541585519910E-3  -5.521521088667214E-4  
 2.352000000000000E10   -1.813192939152941E-4   2.735750516876578E-3  
 2.354000000000000E10    2.507255412638187E-3  -4.641414852812886E-5  
 2.356000000000000E10   -7.644261495443061E-5  -2.733448753133416E-3  
 2.358000000000000E10   -3.110693534836173E-3   3.863510210067034E-4  
 2.360000000000000E10    1.236468669958413E-3   2.997975097969174E-3  
 2.362000000000000E10    2.718348521739245E-3  -1.398702850565314E-3  
 2.364000000000000E10   -1.658707158640027E-3  -2.669133944436908E-3  
 2.366000000000000E10   -2.701652236282826E-3   2.069398993626237E-3  
 2.368000000000000E10    2.311349380761385E-3   2.584184287115932E-3  
 2.370000000000000E10    1.827583415433765E-3  -3.228629939258099E-3  
 2.372000000000000E10   -3.442632034420967E-3  -1.232261420227587E-3  
 2.374000000000000E10   -5.183508619666100E-4   3.032507607713342E-3  
 2.376000000000000E10    2.793847350403667E-3   3.700557281263173E-4  
 2.378000000000000E10    5.508834874490276E-5  -2.813008381053805E-3  
 2.380000000000000E10   -3.343422664329410E-3   5.797440535388887E-4  
 2.382000000000000E10    9.011631482280791E-4   2.845935290679336E-3  
 2.384000000000000E10    2.950139576569200E-3  -1.368135679513216E-3  
 2.386000000000000E10   -1.989822369068861E-3  -2.289125928655267E-3  
 2.388000000000000E10   -2.418937394395471E-3   2.344698412343860E-3  
 2.390000000000000E10    2.767916070297360E-3   1.441162079572678E-3  
 2.392000000000000E10    1.221040613017976E-3  -3.165814094245434E-3  
 2.394000000000000E10   -3.651301609352231E-3  -9.508858202025294E-4  
 2.396000000000000E10    3.216320692445152E-5   3.415796672925353E-3  
 2.398000000000000E10    3.537630196660757E-3  -4.843676288146526E-4  
 2.400000000000000E10   -7.088819402270019E-4  -3.478544764220715E-3  
 2.402000000000000E10   -3.578613512217999E-3   1.485579065047205E-3  
 2.404000000000000E10    2.255577361211181E-3   3.258912591263652E-3  
 2.406000000000000E10    2.849265001714230E-3  -2.560429507866502E-3  
 2.408000000000000E10   -2.760375617071986E-3  -2.739608287811279E-3  
 2.410000000000000E10   -2.148440107703209E-3   3.016297472640872E-3  
 2.412000000000000E10    2.892165910452604E-3   1.864329678937793E-3  
 2.414000000000000E10    1.745278481394053E-3  -3.048225538805127E-3  
 2.416000000000000E10   -3.100462257862091E-3  -1.577797695063055E-3  
 2.418000000000000E10   -1.018584705889225E-3   3.502092324197292E-3  
 2.420000000000000E10    3.535758703947067E-3   6.330308970063925E-4  
 2.422000000000000E10    1.531513989903033E-4  -3.045427612960339E-3  
 2.424000000000000E10   -3.612830536440015E-3   2.748432161752135E-4  
 2.426000000000000E10    7.967401179485023E-4   3.576818155124784E-3  
 2.428000000000000E10    3.270825138315558E-3  -1.497448189184070E-3  
 2.430000000000000E10   -1.652484061196446E-3  -2.798421774059534E-3  
 2.432000000000000E10   -2.649555914103985E-3   2.542118541896343E-3  
 2.434000000000000E10    2.580912318080664E-3   1.899569411762059E-3  
 2.436000000000000E10    1.642537652514875E-3  -2.703436184674501E-3  
 2.438000000000000E10   -2.769183367490768E-3  -1.430792151950300E-3  
 2.440000000000000E10   -1.441356609575450E-3   2.956849755719304E-3  
 2.442000000000000E10    3.381054615601897E-3   7.714042440056801E-4  
 2.444000000000000E10    4.530089208856225E-4  -2.820009132847190E-3  
 2.446000000000000E10   -3.031260333955288E-3  -3.889344225171953E-4  
 2.448000000000000E10   -5.618276554741897E-5   3.155717626214027E-3  
 2.450000000000000E10    3.001890145242214E-3  -1.567159051774070E-4  
 2.452000000000000E10   -5.303490906953812E-4  -3.206727327778935E-3  
 2.454000000000000E10   -2.817078260704875E-3   1.137274317443371E-3  
 2.456000000000000E10    1.353509258478880E-3   2.537352964282036E-3  
 2.458000000000000E10    2.106316620483995E-3  -1.998495776206255E-3  
 2.460000000000000E10   -1.957286614924669E-3  -2.000262495130301E-3  
 2.462000000000000E10   -1.964897848665714E-3   2.316593425348401E-3  
 2.464000000000000E10    2.456184476613998E-3   1.375501509755850E-3  
 2.466000000000000E10    1.343392650596798E-3  -2.385498955845833E-3  
 2.468000000000000E10   -2.824545139446855E-3  -1.000246265903115E-3  
 2.470000000000000E10   -5.492126219905913E-4   2.725671045482159E-3  
 2.472000000000000E10    2.735290909186006E-3   8.079563849605620E-4  
 2.474000000000000E10    4.776516288984567E-4  -2.721874741837382E-3  
 2.476000000000000E10   -2.771835541352630E-3  -2.031717303907499E-4  
 2.478000000000000E10    1.734364632284269E-4   3.249191911891103E-3  
 2.480000000000000E10    3.224760759621859E-3  -6.775018991902471E-4  
 2.482000000000000E10   -9.084025514312089E-4  -2.840153407305479E-3  
 2.484000000000000E10   -2.881868276745081E-3   1.248858636245132E-3  
 2.486000000000000E10    1.597073744051158E-3   2.536994870752096E-3  
 2.488000000000000E10    2.253882586956024E-3  -1.753930584527552E-3  
 2.490000000000000E10   -2.067702356725931E-3  -1.985089387744665E-3  
 2.492000000000000E10   -1.414739759638906E-3   2.388184890151024E-3  
 2.494000000000000E10    2.198663773015142E-3   1.285128411836922E-3  
 2.496000000000000E10    1.080936868675053E-3  -2.557393629103899E-3  
 2.498000000000000E10   -2.578708808869124E-3  -5.297896568663418E-4  
 2.500000000000000E10   -5.900237592868507E-4   2.611603122204542E-3  
 2.502000000000000E10    2.767343772575259E-3   1.095777988666669E-4  
 2.504000000000000E10    1.555122726131231E-4  -2.590814838185906E-3  
 2.506000000000000E10   -2.485472708940506E-3   3.906644415110350E-4  
 2.508000000000000E10    6.241192459128797E-4   2.773866755887866E-3  
 2.510000000000000E10    2.847181865945458E-3  -7.808246882632375E-4  
 2.512000000000000E10   -1.490221358835697E-3  -2.686788327991962E-3  
 2.514000000000000E10   -2.337916055694223E-3   1.745486049912870E-3  
 2.516000000000000E10    1.931686419993639E-3   2.146016806364059E-3  
 2.518000000000000E10    1.887186313979328E-3  -1.832394627854228E-3  
 2.520000000000000E10   -2.206169301643968E-3  -1.392896636389196E-3  
 2.522000000000000E10   -1.200597616843879E-3   2.333598444238305E-3  
 2.524000000000000E10    2.634820295497775E-3   8.845160482451320E-4  
 2.526000000000000E10    8.414383046329022E-4  -2.488877158612013E-3  
 2.528000000000000E10   -2.968917135149241E-3  -5.647891084663570E-4  
 2.530000000000000E10   -2.380542136961594E-4   3.243566257879138E-3  
 2.532000000000000E10    3.333418630063534E-3  -1.411736302543432E-4  
 2.534000000000000E10   -7.444146904163063E-4  -3.117393469437957E-3  
 2.536000000000000E10   -3.029131563380361E-3   1.049663056619465E-3  
 2.538000000000000E10    1.085565076209605E-3   3.284311154857278E-3  
 2.540000000000000E10    2.849803306162357E-3  -1.834641210734844E-3  
 2.542000000000000E10   -2.112793503329158E-3  -2.986062783747912E-3  
 2.544000000000000E10   -2.588699571788311E-3   2.605057787150145E-3  
 2.546000000000000E10    2.718886593356729E-3   1.780494349077344E-3  
 2.548000000000000E10    1.544148195534945E-3  -2.684007398784161E-3  
 2.550000000000000E10   -2.981606638059020E-3  -1.251591718755662E-3  
 2.552000000000000E10   -5.945767043158412E-4   2.883085515350103E-3  
 2.554000000000000E10    2.825348172336817E-3   6.779392133466899E-4  
 2.556000000000000E10    3.868518251692876E-5  -2.608110895380378E-3  
 2.558000000000000E10   -2.644428517669439E-3   3.919592418242246E-4  
 2.560000000000000E10    8.191542001441121E-4   2.974891569465399E-3  
 2.562000000000000E10    2.619693288579583E-3  -1.027745893225074E-3  
 2.564000000000000E10   -1.637586741708219E-3  -2.635928103700280E-3  
 2.566000000000000E10   -2.290857490152121E-3   2.267537172883749E-3  
 2.568000000000000E10    2.582322806119919E-3   1.839312026277185E-3  
 2.570000000000000E10    1.694019534625113E-3  -2.721827477216721E-3  
 2.572000000000000E10   -3.139263484627008E-3  -1.332032959908247E-3  
 2.574000000000000E10   -8.205593330785632E-4   3.342891111969948E-3  
 2.576000000000000E10    3.307296195998788E-3   4.636195371858776E-4  
 2.578000000000000E10    1.178778984467499E-4  -3.661476308479905E-3  
 2.580000000000000E10   -3.458853345364332E-3   3.576730377972126E-4  
 2.582000000000000E10    6.221460644155741E-4   3.638074034824967E-3  
 2.584000000000000E10    3.448082599788904E-3  -1.198899466544390E-3  
 2.586000000000000E10   -1.432853168807924E-3  -3.083796938881278E-3  
 2.588000000000000E10   -3.195886500179768E-3   1.929805963300169E-3  
 2.590000000000000E10    1.847783452831209E-3   2.456171670928598E-3  
 2.592000000000000E10    2.823712537065148E-3  -1.930434489622712E-3  
 2.594000000000000E10   -3.108438802883029E-3  -2.480786526575685E-3  
 2.596000000000000E10   -1.660703914240003E-3   3.029569517821074E-3  
 2.598000000000000E10    3.364365780726075E-3   1.513355528004468E-3  
 2.600000000000000E10    8.065177244134247E-4  -3.301214193925262E-3  
 2.602000000000000E10   -3.491691546514630E-3  -5.191068048588932E-4  
 2.604000000000000E10    4.368525987956673E-4   3.359902882948518E-3  
 2.606000000000000E10    2.927053021267057E-3  -6.012322264723480E-4  
 2.608000000000000E10   -3.722071123775095E-4  -3.217200515791774E-3  
 2.610000000000000E10   -3.104409435763955E-3   9.554429561831057E-4  
 2.612000000000000E10    1.298568444326520E-3   3.152233315631747E-3  
 2.614000000000000E10    3.111338010057807E-3  -1.800922211259604E-3  
 2.616000000000000E10   -2.468751510605216E-3  -2.928436500951648E-3  
 2.618000000000000E10   -2.577881095930934E-3   2.881535328924656E-3  
 2.620000000000000E10    3.176777856424451E-3   1.927682547830045E-3  
 2.622000000000000E10    1.582214725203812E-3  -3.314458765089512E-3  
 2.624000000000000E10   -3.670478705316782E-3  -1.415819162502885E-3  
 2.626000000000000E10   -5.709010874852538E-4   3.869329346343875E-3  
 2.628000000000000E10    3.706164192408323E-3   9.767435403773561E-5  
 2.630000000000000E10   -3.506632638163865E-4  -3.913263324648142E-3  
 2.632000000000000E10   -3.660784335806966E-3   9.198281913995743E-4  
 2.634000000000000E10    1.338180969469249E-3   3.134269500151277E-3  
 2.636000000000000E10    3.080042311921716E-3  -1.640048925764859E-3  
 2.638000000000000E10   -1.610491424798966E-3  -3.019342897459865E-3  
 2.640000000000000E10   -2.685435116291046E-3   2.013288903981447E-3  
 2.642000000000000E10    2.208503428846598E-3   2.107073785737157E-3  
 2.644000000000000E10    2.055184217169881E-3  -2.557720756158233E-3  
 2.646000000000000E10   -3.085459349676967E-3  -1.755001721903682E-3  
 2.648000000000000E10   -1.270594657398760E-3   3.380413167178631E-3  
 2.650000000000000E10    3.187203314155340E-3   4.676322278100997E-4  
 2.652000000000000E10    2.839401131495833E-4  -3.545538056641817E-3  
 2.654000000000000E10   -3.500988241285086E-3   7.644318393431604E-4  
 2.656000000000000E10    7.403831696137786E-4   3.178497543558478E-3  
 2.658000000000000E10    3.239633981138468E-3  -1.220804988406599E-3  
 2.660000000000000E10   -2.192275132983923E-3  -2.484840573742986E-3  
 2.662000000000000E10   -2.719807671383023E-3   2.047838643193245E-3  
 2.664000000000000E10    2.466544741764665E-3   2.074120333418250E-3  
 2.666000000000000E10    1.437965896911919E-3  -2.325175097212195E-3  
 2.668000000000000E10   -2.850235905498266E-3  -1.334921806119382E-3  
 2.670000000000000E10   -7.431330159306526E-4   2.964570885524154E-3  
 2.672000000000000E10    2.564498456194997E-3   7.771532400511205E-4  
 2.674000000000000E10    2.578592393547297E-4  -2.792856888845563E-3  
 2.676000000000000E10   -2.707968000322580E-3   3.400642308406532E-4  
 2.678000000000000E10    3.320185351185501E-4   2.767579862847924E-3  
 2.680000000000000E10    2.488979604095221E-3  -7.352665415965021E-4  
 2.682000000000000E10   -1.098480075597763E-3  -2.286699600517750E-3  
 2.684000000000000E10   -2.206018660217524E-3   1.443826942704618E-3  
 2.686000000000000E10    1.540458062663674E-3   1.807777327485383E-3  
 2.688000000000000E10    1.774272648617625E-3  -1.637455308809876E-3  
 2.690000000000000E10   -1.854181638918817E-3  -1.504203537479043E-3  
 2.692000000000000E10   -1.212333212606609E-3   2.110468223690987E-3  
 2.694000000000000E10    2.324316650629044E-3   1.124020316638053E-3  
 2.696000000000000E10    9.161388734355569E-4  -2.328953472897410E-3  
 2.698000000000000E10   -2.396065043285489E-3  -3.639005881268531E-4  
 2.700000000000000E10   -4.582450856105425E-5   2.212961902841926E-3  
 2.702000000000000E10    2.304773544892669E-3  -1.915871980600059E-4  
 2.704000000000000E10   -5.028840969316661E-4  -2.214458771049976E-3  
 2.706000000000000E10   -1.873469562269747E-3   6.037011044099927E-4  
 2.708000000000000E10    1.029292005114257E-3   1.672381651587784E-3  
 2.710000000000000E10    1.907604048028588E-3  -1.173693570308387E-3  
 2.712000000000000E10   -1.225651009008288E-3  -1.485664281062782E-3  
 2.714000000000000E10   -1.151001430116594E-3   1.462950138375163E-3  
 2.716000000000000E10    1.508917077444494E-3   9.253466269001365E-4  
 2.718000000000000E10    8.643927285447717E-4  -1.410604105331004E-3  
 2.720000000000000E10   -1.594713656231761E-3  -1.161754480563104E-3  
 2.722000000000000E10   -5.054257926531136E-4   1.552360365167260E-3  
 2.724000000000000E10    1.776151591911912E-3   2.908865280915052E-4  
 2.726000000000000E10    2.939400146715343E-4  -1.762359635904431E-3  
 2.728000000000000E10   -1.747746486216784E-3  -1.403283135914535E-6  
 2.730000000000000E10    4.308905918151140E-4   1.516507356427610E-3  
 2.732000000000000E10    1.462478190660477E-3  -3.847186453640461E-4  
 2.734000000000000E10   -3.862000012304634E-4  -1.555184368044138E-3  
 2.736000000000000E10   -1.262012054212391E-3   7.098253117874265E-4  
 2.738000000000000E10    5.329522537067533E-4   9.180856286548078E-4  
 2.740000000000000E10    1.070003374479711E-3  -7.920324569568038E-4  
 2.742000000000000E10   -1.081366091966629E-3  -7.466542301699519E-4  
 2.744000000000000E10   -6.928327493369579E-4   9.352966444566846E-4  
 2.746000000000000E10    1.251096487976611E-3   4.099271318409592E-4  
 2.748000000000000E10    2.912719210144132E-4  -1.004554214887321E-3  
 2.750000000000000E10   -1.423353212885559E-3  -2.381735830567777E-4  
 2.752000000000000E10    2.755892637651414E-4   1.195398275740445E-3  
 2.754000000000000E10    9.605602826923132E-4   8.264574717031792E-5  
 2.756000000000000E10   -3.232442250009626E-4  -1.411424484103918E-3  
