#  HZ   S   RI   R     50.00 
! Rohde & Schwarz ZVA40 4Ports - Version 3.90 - 1145.1110k42 SN: 100403
! Date: 2023-10-04 07:41:13
! Measurement: S12 
! 
 2.200000000000000E10   -1.420441985828802E-4   5.846986314281821E-4  
 2.202000000000000E10    5.966870230622590E-4   4.067247500643134E-4  
 2.204000000000000E10    4.218988397042267E-5  -5.359395872801542E-4  
 2.206000000000000E10   -3.628143749665469E-4  -4.276504478184506E-5  
 2.208000000000000E10   -8.352264558197931E-5   2.718983159866184E-4  
 2.210000000000000E10    6.531220278702676E-4  -1.047927944455296E-4  
 2.212000000000000E10   -4.299483407521620E-5  -1.753992110025138E-4  
 2.214000000000000E10    8.499759132973850E-5  -2.556310500949621E-4  
 2.216000000000000E10   -3.234102041460574E-4   3.667313139885664E-4  
 2.218000000000000E10    3.913321415893734E-4  -2.684495411813259E-4  
 2.220000000000000E10   -2.461656986270100E-4  -3.341053961776197E-4  
 2.222000000000000E10   -1.925751275848597E-4   2.939003752544522E-4  
 2.224000000000000E10    1.596576330484822E-4  -9.933501860359684E-5  
 2.226000000000000E10    1.212305069202557E-4  -4.576812207233161E-4  
 2.228000000000000E10   -5.526566528715193E-4  -7.833287236280739E-5  
 2.230000000000000E10    7.829553214833140E-5   6.626232643611729E-4  
 2.232000000000000E10    9.105157223530114E-4  -3.056540444958955E-4  
 2.234000000000000E10   -3.596770111471415E-4  -6.253919564187527E-4  
 2.236000000000000E10   -7.383967749774456E-4   3.886444319505245E-4  
 2.238000000000000E10    5.604846519418061E-4   1.029267092235386E-3  
 2.240000000000000E10    7.741670124232769E-4  -5.371199222281575E-4  
 2.242000000000000E10   -8.446077699773014E-4  -6.305767456069589E-4  
 2.244000000000000E10   -6.273502949625254E-4   4.833706771023572E-4  
 2.246000000000000E10    6.817461689934135E-4   3.298201190773398E-4  
 2.248000000000000E10    5.206972127780318E-4  -5.321456701494753E-4  
 2.250000000000000E10   -4.584131238516420E-4  -5.034634959883988E-4  
 2.252000000000000E10   -4.623811109922826E-4   4.287125775590539E-4  
 2.254000000000000E10    5.125866737216711E-4   3.944933414459229E-4  
 2.256000000000000E10    1.913602027343586E-4  -2.176689886255190E-4  
 2.258000000000000E10   -3.322374832350761E-4  -2.660759782884270E-4  
 2.260000000000000E10   -2.391389862168580E-4   5.200830055400729E-4  
 2.262000000000000E10    1.594485802343115E-4   7.200732943601906E-5  
 2.264000000000000E10   -5.184503243071958E-5  -2.679694152902812E-4  
 2.266000000000000E10   -3.864903410430998E-4   6.927989034011262E-6  
 2.268000000000000E10   -1.708869967842475E-4   4.109969086130150E-5  
 2.270000000000000E10    2.801323425956070E-4  -1.540235971333459E-4  
 2.272000000000000E10   -2.686743937374558E-5  -5.195145495235920E-4  
 2.274000000000000E10   -3.330379840917885E-4   1.346787757938728E-4  
 2.276000000000000E10    3.463856701273471E-4   3.228578134439886E-4  
 2.278000000000000E10    2.276990853715688E-4  -1.272068038815633E-4  
 2.280000000000000E10   -6.651143485214561E-5  -5.483047061716206E-5  
 2.282000000000000E10   -2.931261551566422E-4  -1.267958723474294E-4  
 2.284000000000000E10    2.123314625350758E-4   2.623672480694950E-4  
 2.286000000000000E10    6.574446451850236E-4  -4.711138171842322E-5  
 2.288000000000000E10   -2.008321753237397E-4  -6.707085412926972E-4  
 2.290000000000000E10   -5.916968802921474E-4   3.515836942824535E-5  
 2.292000000000000E10    1.588516606716439E-4   7.712751976214349E-4  
 2.294000000000000E10    4.955572076141834E-4  -1.257451367564499E-4  
 2.296000000000000E10   -1.723010063869879E-4  -1.086749602109194E-3  
 2.298000000000000E10   -6.672564195469022E-4   2.669241512194276E-4  
 2.300000000000000E10    1.357232540613040E-4   7.903812220320106E-4  
 2.302000000000000E10    1.037891721352935E-3  -2.898056118283421E-4  
 2.304000000000000E10   -5.062642158009112E-4  -6.068647489883006E-4  
 2.306000000000000E10   -8.675060234963894E-4   5.855048075318337E-4  
 2.308000000000000E10    1.563487749081105E-4   5.881145480088890E-4  
 2.310000000000000E10    6.850008503533900E-4  -3.642948868218809E-4  
 2.312000000000000E10   -5.982539150863886E-4  -6.893513491377235E-4  
 2.314000000000000E10   -7.002800120972097E-4   4.214861837681383E-4  
 2.316000000000000E10    5.902001867070794E-4   6.853906088508666E-4  
 2.318000000000000E10    4.379031888674945E-4  -9.135245345532894E-4  
 2.320000000000000E10   -8.282315684482455E-4  -4.122542450204492E-4  
 2.322000000000000E10   -4.033709701616317E-4   8.749307598918676E-4  
 2.324000000000000E10    1.039781607687473E-3   2.466036821715534E-4  
 2.326000000000000E10   -4.761721065733582E-4  -1.045806333422661E-3  
 2.328000000000000E10   -1.064206706359983E-3   1.833725691540167E-4  
 2.330000000000000E10    5.498611135408282E-4   1.171046984381974E-3  
 2.332000000000000E10    1.337749534286559E-3  -1.023235847242177E-3  
 2.334000000000000E10   -9.428801713511348E-4  -1.504528569057584E-3  
 2.336000000000000E10   -1.351673738099635E-3   1.608840771950781E-3  
 2.338000000000000E10    1.889139646664262E-3   9.080118616111577E-4  
 2.340000000000000E10    1.011508051306009E-3  -2.336738631129265E-3  
 2.342000000000000E10   -2.211279468610883E-3  -1.032955711707473E-3  
 2.344000000000000E10   -1.030276878736913E-3   2.239533234387636E-3  
 2.346000000000000E10    2.918167738243938E-3   4.389226378407329E-4  
 2.348000000000000E10    3.297723305877298E-4  -3.129114862531424E-3  
 2.350000000000000E10   -3.069199621677399E-3  -1.199950929731131E-4  
 2.352000000000000E10    5.691327387467027E-4   3.483617911115289E-3  
 2.354000000000000E10    2.899984596297145E-3  -1.146987546235323E-3  
 2.356000000000000E10   -1.255034469068050E-3  -3.108005039393902E-3  
 2.358000000000000E10   -2.697353018447757E-3   1.880844472907484E-3  
 2.360000000000000E10    2.202898962423205E-3   2.078016521409154E-3  
 2.362000000000000E10    1.741985324770212E-3  -2.570867305621505E-3  
 2.364000000000000E10   -2.671141875907779E-3  -1.451197662390769E-3  
 2.366000000000000E10   -1.256758347153664E-3   2.617102349177003E-3  
 2.368000000000000E10    3.435084596276283E-3   6.733919726684690E-4  
 2.370000000000000E10   -1.498940400779247E-4  -3.169339383020997E-3  
 2.372000000000000E10   -3.587125334888697E-3   9.147968376055360E-4  
 2.374000000000000E10    1.730240299366415E-3   3.168271621689200E-3  
 2.376000000000000E10    3.290801076218486E-3  -1.700583961792290E-3  
 2.378000000000000E10   -2.339781494811177E-3  -2.769536105915904E-3  
 2.380000000000000E10   -2.626500092446804E-3   2.989331260323525E-3  
 2.382000000000000E10    3.178525483235717E-3   1.970715820789337E-3  
 2.384000000000000E10    1.725018140859902E-3  -3.124893177300692E-3  
 2.386000000000000E10   -3.613753244280815E-3  -1.046483404934406E-3  
 2.388000000000000E10   -8.279444300569594E-4   4.044956061989069E-3  
 2.390000000000000E10    4.173534922301769E-3   4.009195836260915E-4  
 2.392000000000000E10   -2.193845284637064E-4  -3.897570772096515E-3  
 2.394000000000000E10   -4.022176843136549E-3   6.722403923049569E-4  
 2.396000000000000E10    1.649604062549770E-3   3.871111664921045E-3  
 2.398000000000000E10    3.628250444307923E-3  -1.902439398691058E-3  
 2.400000000000000E10   -2.120719291269779E-3  -3.064941149204969E-3  
 2.402000000000000E10   -2.585843671113253E-3   2.916675759479404E-3  
 2.404000000000000E10    3.563216654583812E-3   1.957640051841736E-3  
 2.406000000000000E10    1.334951259195805E-3  -3.202172694727778E-3  
 2.408000000000000E10   -3.013663925230503E-3  -1.320356968790293E-3  
 2.410000000000000E10   -7.548750727437437E-4   3.136841114610434E-3  
 2.412000000000000E10    3.285357728600502E-3   4.930910654366016E-4  
 2.414000000000000E10    3.306115104351193E-4  -3.084833268076181E-3  
 2.416000000000000E10   -2.721039112657309E-3  -2.383245591772720E-4  
 2.418000000000000E10    5.733275902457535E-4   3.133351914584637E-3  
 2.420000000000000E10    3.081640461459756E-3  -1.003395998850465E-3  
 2.422000000000000E10   -7.989219739101827E-4  -2.887480426579714E-3  
 2.424000000000000E10   -3.346257377415896E-3   1.551578985527158E-3  
 2.426000000000000E10    2.522860420867801E-3   2.623322186991572E-3  
 2.428000000000000E10    1.887012855149806E-3  -3.093394683673978E-3  
 2.430000000000000E10   -2.629608148708940E-3  -1.751713105477393E-3  
 2.432000000000000E10   -1.492729876190424E-3   2.965929685160518E-3  
 2.434000000000000E10    3.656920744106174E-3   6.840394344180822E-4  
 2.436000000000000E10    3.753927012439817E-4  -3.426402574405074E-3  
 2.438000000000000E10   -3.184183035045862E-3  -3.118934691883624E-4  
 2.440000000000000E10    1.650177582632750E-4   3.336688037961721E-3  
 2.442000000000000E10    3.328148275613785E-3  -4.044678935315460E-4  
 2.444000000000000E10   -7.015633163973689E-4  -3.407053882256150E-3  
 2.446000000000000E10   -3.562092548236251E-3   1.149154617451131E-3  
 2.448000000000000E10    1.477181096561253E-3   3.176612081006169E-3  
 2.450000000000000E10    3.081666538491845E-3  -1.796816941350699E-3  
 2.452000000000000E10   -1.895176013931632E-3  -2.705137711018324E-3  
 2.454000000000000E10   -2.518365625292063E-3   2.455906011164188E-3  
 2.456000000000000E10    2.693443326279521E-3   2.093370305374265E-3  
 2.458000000000000E10    1.501341932453215E-3  -2.931340830400586E-3  
 2.460000000000000E10   -3.211687318980694E-3  -1.101769157685340E-3  
 2.462000000000000E10   -8.238494629040361E-4   3.086268436163664E-3  
 2.464000000000000E10    2.706225961446762E-3   3.943523042835295E-4  
 2.466000000000000E10   -4.340981831774116E-5  -3.102785442024469E-3  
 2.468000000000000E10   -3.045521210879087E-3   7.789115625200793E-5  
 2.470000000000000E10    5.696262232959271E-4   2.919584745541215E-3  
 2.472000000000000E10    2.428262727335095E-3  -1.143630361184478E-3  
 2.474000000000000E10   -1.111109391786158E-3  -2.509155310690403E-3  
 2.476000000000000E10   -2.731511136516929E-3   1.257842406630516E-3  
 2.478000000000000E10    1.657079556025565E-3   2.525770338252187E-3  
 2.480000000000000E10    2.119605662301183E-3  -1.814355142414570E-3  
 2.482000000000000E10   -2.380099846050143E-3  -2.196951303631067E-3  
 2.484000000000000E10   -2.044218359515071E-3   2.424690173938870E-3  
 2.486000000000000E10    2.545602619647980E-3   1.181653351522982E-3  
 2.488000000000000E10    7.456939783878624E-4  -2.675827359780669E-3  
 2.490000000000000E10   -2.347463974729180E-3  -7.682249997742474E-4  
 2.492000000000000E10   -4.244852461852133E-4   2.338753547519445E-3  
 2.494000000000000E10    2.846424933522940E-3   5.175040769245243E-7  
 2.496000000000000E10   -3.774937067646533E-4  -2.488142577931285E-3  
 2.498000000000000E10   -2.266763010993600E-3   7.527361158281565E-4  
 2.500000000000000E10    1.084495102986693E-3   2.437237650156021E-3  
 2.502000000000000E10    2.152273664250970E-3  -1.175135257653892E-3  
 2.504000000000000E10   -1.445394591428340E-3  -2.170521998777986E-3  
 2.506000000000000E10   -2.169353421777487E-3   1.669931341893971E-3  
 2.508000000000000E10    1.740222563967109E-3   2.007928676903248E-3  
 2.510000000000000E10    2.075924770906568E-3  -2.195911249145865E-3  
 2.512000000000000E10   -2.650708658620715E-3  -1.657204120419920E-3  
 2.514000000000000E10   -1.465721987187862E-3   2.957355231046677E-3  
 2.516000000000000E10    3.032151842489839E-3   7.618527160957456E-4  
 2.518000000000000E10    9.055172267835587E-5  -2.644092310220003E-3  
 2.520000000000000E10   -2.905503613874316E-3  -3.651352308224887E-4  
 2.522000000000000E10    2.177999122068286E-4   2.615774283185601E-3  
 2.524000000000000E10    2.529178978875279E-3   9.346591104986146E-5  
 2.526000000000000E10   -6.133919232524931E-4  -2.969585126265883E-3  
 2.528000000000000E10   -2.670355606824160E-3   8.089578477665782E-4  
 2.530000000000000E10    1.044005155563355E-3   3.054734086617827E-3  
 2.532000000000000E10    2.455397509038448E-3  -1.414723694324493E-3  
 2.534000000000000E10   -1.349776168353856E-3  -2.282312605530024E-3  
 2.536000000000000E10   -2.492555649951100E-3   2.116155810654163E-3  
 2.538000000000000E10    2.418790245428681E-3   1.965614268556237E-3  
 2.540000000000000E10    1.587153412401676E-3  -2.568325959146023E-3  
 2.542000000000000E10   -2.783516654744744E-3  -1.048063510097563E-3  
 2.544000000000000E10   -8.021258981898427E-4   2.839300781488419E-3  
 2.546000000000000E10    3.024504985660315E-3   4.522698291111738E-4  
 2.548000000000000E10   -3.580036282073706E-4  -3.151658922433853E-3  
 2.550000000000000E10   -2.916567726060748E-3   5.592755042016506E-4  
 2.552000000000000E10    8.535162778571248E-4   2.850078511983156E-3  
 2.554000000000000E10    2.334549790248275E-3  -1.512823044322431E-3  
 2.556000000000000E10   -1.204168656840920E-3  -2.237165812402964E-3  
 2.558000000000000E10   -2.119557699188590E-3   1.621111528947949E-3  
 2.560000000000000E10    2.135091926902533E-3   1.941915834322572E-3  
 2.562000000000000E10    1.995603786781430E-3  -2.433415967971087E-3  
 2.564000000000000E10   -2.767113503068686E-3  -1.558044692501426E-3  
 2.566000000000000E10   -1.027597580105066E-3   3.028320847079158E-3  
 2.568000000000000E10    3.286087187007070E-3   8.314831648021936E-4  
 2.570000000000000E10    1.696839026408270E-4  -3.179961815476418E-3  
 2.572000000000000E10   -3.354454645887017E-3  -1.361819740850478E-4  
 2.574000000000000E10    7.294305250979960E-4   3.925680182874203E-3  
 2.576000000000000E10    3.362987190485001E-3  -1.275317859835923E-3  
 2.578000000000000E10   -1.374352839775384E-3  -3.325215773656964E-3  
 2.580000000000000E10   -2.935389522463083E-3   1.771674142219126E-3  
 2.582000000000000E10    1.766709727235138E-3   2.758519025519490E-3  
 2.584000000000000E10    2.749582985416055E-3  -2.186449477449060E-3  
 2.586000000000000E10   -2.749347826465964E-3  -2.313671633601189E-3  
 2.588000000000000E10   -1.671138685196638E-3   2.601567422971129E-3  
 2.590000000000000E10    2.693617483600974E-3   1.484890119172633E-3  
 2.592000000000000E10    1.046025310643017E-3  -3.328646067529917E-3  
 2.594000000000000E10   -3.270209534093738E-3  -8.326627430506051E-4  
 2.596000000000000E10   -3.831066424027085E-4   3.577683819457889E-3  
 2.598000000000000E10    3.480849089100957E-3  -7.774730911478400E-4  
 2.600000000000000E10   -1.159227569587529E-3  -3.192864125594497E-3  
 2.602000000000000E10   -2.906664041802287E-3   1.578941592015326E-3  
 2.604000000000000E10    1.790930400602520E-3   2.892509335651994E-3  
 2.606000000000000E10    2.830720972269774E-3  -2.048820490017533E-3  
 2.608000000000000E10   -2.499652327969670E-3  -2.361744875088334E-3  
 2.610000000000000E10   -2.495898632332683E-3   2.711500972509384E-3  
 2.612000000000000E10    3.180296625941992E-3   2.078900579363108E-3  
 2.614000000000000E10    1.666550757363439E-3  -3.300477284938097E-3  
 2.616000000000000E10   -3.601745702326298E-3  -1.533326809294522E-3  
 2.618000000000000E10   -8.817792404443026E-4   3.748378949239850E-3  
 2.620000000000000E10    4.036392085254192E-3   1.764629123499617E-4  
 2.622000000000000E10   -1.147258662967943E-4  -3.720229957252741E-3  
 2.624000000000000E10   -3.668465651571751E-3   5.437667132355273E-4  
 2.626000000000000E10    7.751928642392159E-4   3.589836414903402E-3  
 2.628000000000000E10    3.604327328503132E-3  -1.412744284607470E-3  
 2.630000000000000E10   -2.058823360130191E-3  -2.880865940824151E-3  
 2.632000000000000E10   -2.442325465381146E-3   1.961108297109604E-3  
 2.634000000000000E10    2.302787499502301E-3   2.156009664759040E-3  
 2.636000000000000E10    1.660904847085476E-3  -2.592684701085091E-3  
 2.638000000000000E10   -2.649324480444193E-3  -1.631454215385020E-3  
 2.640000000000000E10   -1.403993694111705E-3   2.775540575385094E-3  
 2.642000000000000E10    3.072922350838780E-3   6.853294908069074E-4  
 2.644000000000000E10    2.799241337925196E-4  -3.257010132074356E-3  
 2.646000000000000E10   -3.224930958822370E-3   7.033757719909772E-5  
 2.648000000000000E10    5.021328688599169E-4   3.114994848147035E-3  
 2.650000000000000E10    3.246600506827235E-3  -1.062102150171995E-3  
 2.652000000000000E10   -1.630933256819844E-3  -3.028880571946502E-3  
 2.654000000000000E10   -2.624779706820846E-3   1.966884592548013E-3  
 2.656000000000000E10    2.514114370569587E-3   2.256700769066811E-3  
 2.658000000000000E10    1.913590822368860E-3  -2.598250284790993E-3  
 2.660000000000000E10   -2.810166915878654E-3  -1.567949308082461E-3  
 2.662000000000000E10   -9.680291404947639E-4   3.013393143191934E-3  
 2.664000000000000E10    2.819610061123967E-3   6.256955675780773E-4  
 2.666000000000000E10    1.035580207826570E-4  -3.023260971531272E-3  
 2.668000000000000E10   -2.778802532702684E-3   4.008280811831355E-4  
 2.670000000000000E10    5.742211360484362E-4   2.511517843231559E-3  
 2.672000000000000E10    2.786911791190505E-3  -4.767909413203597E-4  
 2.674000000000000E10   -1.380888745188713E-3  -2.476315712556243E-3  
 2.676000000000000E10   -2.454826375469565E-3   1.373397768475115E-3  
 2.678000000000000E10    1.691689016297460E-3   2.342260908335447E-3  
 2.680000000000000E10    1.966653158888221E-3  -2.076098928228021E-3  
 2.682000000000000E10   -2.019511070102453E-3  -1.622242038138211E-3  
 2.684000000000000E10   -1.314371707849205E-3   2.469790168106556E-3  
 2.686000000000000E10    2.207624027505517E-3   1.270264037884772E-3  
 2.688000000000000E10    8.141605649143457E-4  -2.660727128386498E-3  
 2.690000000000000E10   -2.284701215103269E-3  -4.242627474013716E-4  
 2.692000000000000E10   -4.484650853555650E-4   2.687377156689763E-3  
 2.694000000000000E10    2.731512067839503E-3  -6.146069063106552E-5  
 2.696000000000000E10   -4.946975968778133E-4  -2.321902895346284E-3  
 2.698000000000000E10   -2.096662530675530E-3   6.421895814128220E-4  
 2.700000000000000E10    8.099318947643042E-4   1.984331058338285E-3  
 2.702000000000000E10    1.743979519233108E-3  -1.264252234250307E-3  
 2.704000000000000E10   -1.419899868778884E-3  -1.491212053224444E-3  
 2.706000000000000E10   -1.183044747449458E-3   1.525927218608558E-3  
 2.708000000000000E10    1.534428331069648E-3   1.197972334921360E-3  
 2.710000000000000E10    9.259333019144833E-4  -1.896047033369541E-3  
 2.712000000000000E10   -1.936788321472704E-3  -7.215556106530130E-4  
 2.714000000000000E10   -5.529410555027425E-4   1.904603908769786E-3  
 2.716000000000000E10    2.154955873265863E-3   4.936745972372592E-4  
 2.718000000000000E10   -2.856486244127154E-4  -1.896720612421632E-3  
 2.720000000000000E10   -1.598649192601442E-3   3.534801362548024E-4  
 2.722000000000000E10    2.124815946444869E-4   2.089708810672164E-3  
 2.724000000000000E10    1.873190049082041E-3  -8.397567435167730E-4  
 2.726000000000000E10   -7.345896447077394E-4  -1.694212551228702E-3  
 2.728000000000000E10   -1.563933561556041E-3   1.068588113412261E-3  
 2.730000000000000E10    1.255163922905922E-3   1.340753864496946E-3  
 2.732000000000000E10    1.249600783921778E-3  -1.457078033126891E-3  
 2.734000000000000E10   -1.355451298877597E-3  -9.621032513678074E-4  
 2.736000000000000E10   -8.427623542957008E-4   1.306422054767609E-3  
 2.738000000000000E10    1.659619156271219E-3   3.412899677641690E-4  
 2.740000000000000E10   -6.633300017711008E-6  -1.406693598255515E-3  
 2.742000000000000E10   -1.127635245211422E-3  -2.388522698311135E-4  
 2.744000000000000E10   -1.245268504135311E-4   1.626790501177311E-3  
 2.746000000000000E10    1.358463894575834E-3  -2.991061774082482E-4  
 2.748000000000000E10   -2.887399459723383E-4  -1.392458565533161E-3  
 2.750000000000000E10   -1.277812174521387E-3   4.585336719173938E-4  
 2.752000000000000E10    3.263066173531115E-4   1.363233081065118E-3  
 2.754000000000000E10    1.341253868304193E-3  -9.536305442452431E-4  
 2.756000000000000E10   -7.597798248752952E-4  -9.840253042057157E-4  
