#  HZ   S   RI   R     50.00 
! Rohde & Schwarz ZVA40 4Ports - Version 3.90 - 1145.1110k42 SN: 100403
! Date: 2023-10-04 07:41:45
! Measurement: S12 
! 
 2.200000000000000E10   -1.924316457007080E-4   2.999022835865617E-4  
 2.202000000000000E10   -1.677566615398973E-5   2.118671691277996E-4  
 2.204000000000000E10    1.212989081977867E-4  -2.294561563758180E-4  
 2.206000000000000E10   -9.188865078613162E-5   2.381731756031513E-4  
 2.208000000000000E10    1.438504550606012E-4  -5.820897058583796E-4  
 2.210000000000000E10   -2.617954451125115E-4   3.903208562405780E-5  
 2.212000000000000E10    1.945386611623690E-5   3.863387391902506E-4  
 2.214000000000000E10    3.133357968181372E-4   2.066423039650545E-4  
 2.216000000000000E10    1.131022581830621E-4  -4.054731398355216E-4  
 2.218000000000000E10   -3.513419360388070E-4  -1.149471645476297E-4  
 2.220000000000000E10   -4.136148490943015E-4   2.094364172080532E-4  
 2.222000000000000E10    2.811278682202101E-4   3.604640078265220E-4  
 2.224000000000000E10    3.089108504354954E-4  -9.538391168462113E-5  
 2.226000000000000E10   -9.220196807291359E-5  -6.884812610223889E-4  
 2.228000000000000E10   -4.748901119455695E-4  -8.651892130728811E-5  
 2.230000000000000E10   -1.766775676514953E-4   1.817401061998680E-4  
 2.232000000000000E10    5.803019739687443E-4   1.780926831997931E-4  
 2.234000000000000E10    2.127939515048638E-4  -7.494314340874553E-4  
 2.236000000000000E10   -9.107528603635728E-4  -3.709371667355299E-4  
 2.238000000000000E10   -3.108752425760031E-4   6.675260956399143E-4  
 2.240000000000000E10    1.141236047260463E-3   1.860698248492554E-4  
 2.242000000000000E10    2.646926150191575E-4  -7.054289453662932E-4  
 2.244000000000000E10   -6.266467389650643E-4  -8.156908734235913E-5  
 2.246000000000000E10   -2.840300439856947E-4   7.357260328717530E-4  
 2.248000000000000E10    9.511279058642685E-4   3.149808326270431E-4  
 2.250000000000000E10    5.710031837224960E-4  -4.582390829455108E-4  
 2.252000000000000E10   -9.983048075810075E-4  -2.420818491373211E-4  
 2.254000000000000E10   -1.205306834890507E-4   6.881383596919477E-4  
 2.256000000000000E10    5.755672464147210E-4  -3.020284639205784E-4  
 2.258000000000000E10   -2.020725514739752E-4  -4.016942693851888E-4  
 2.260000000000000E10   -4.176479415036738E-4   2.780377399176359E-4  
 2.262000000000000E10    3.543472848832607E-4  -1.635564403841272E-4  
 2.264000000000000E10    3.980917390435934E-4  -1.967755961231887E-4  
 2.266000000000000E10   -3.611191932577640E-4   7.071004802128300E-5  
 2.268000000000000E10   -2.289562835358083E-4   5.364694516174495E-4  
 2.270000000000000E10    5.403636605478823E-4  -9.497103746980429E-5  
 2.272000000000000E10    5.256340955384076E-5  -4.162848636042327E-4  
 2.274000000000000E10   -7.017806055955589E-4   5.410244557424448E-5  
 2.276000000000000E10   -1.073697931133211E-4   6.246478878892958E-4  
 2.278000000000000E10    6.385427550412715E-4  -2.490732003934681E-4  
 2.280000000000000E10    2.297286264365539E-4  -7.877723546698690E-4  
 2.282000000000000E10   -3.632717125583440E-4  -6.007840274833143E-4  
 2.284000000000000E10   -1.764705084497109E-4   9.244009852409363E-4  
 2.286000000000000E10    1.395584316924214E-3  -6.064907938707620E-5  
 2.288000000000000E10    1.318037975579500E-4  -6.894244579598308E-4  
 2.290000000000000E10   -1.140177715569735E-3   4.846988304052502E-5  
 2.292000000000000E10    2.283085486851633E-4   8.581518777646124E-4  
 2.294000000000000E10    7.250249618664384E-4   5.859559678356163E-5  
 2.296000000000000E10    1.977742249437142E-5  -8.982806466519833E-4  
 2.298000000000000E10   -1.128965173847973E-3  -6.782315904274583E-5  
 2.300000000000000E10    2.571048098616302E-4   9.579935576766729E-4  
 2.302000000000000E10    1.195220043882728E-3  -4.827767552342266E-4  
 2.304000000000000E10   -4.778163565788418E-4  -1.033754902891815E-3  
 2.306000000000000E10   -7.907926337793469E-4   8.562900475226343E-4  
 2.308000000000000E10    8.375997422263026E-4   4.457516770344228E-4  
 2.310000000000000E10    6.790871848352253E-4  -7.949199061840773E-4  
 2.312000000000000E10   -1.329994411207736E-3  -7.722685695625842E-4  
 2.314000000000000E10   -4.107136046513915E-4   1.532502821646631E-3  
 2.316000000000000E10    1.669211429543793E-3   1.920196082210168E-4  
 2.318000000000000E10    3.040442788915243E-5  -1.850098138675094E-3  
 2.320000000000000E10   -1.719166641123593E-3   6.025645416229963E-4  
 2.322000000000000E10    1.104804687201977E-3   2.143280580639839E-3  
 2.324000000000000E10    2.002650173380971E-3  -6.254699546843767E-4  
 2.326000000000000E10   -1.238882890902460E-3  -2.027670620009303E-3  
 2.328000000000000E10   -1.854673493653536E-3   1.470039365813136E-3  
 2.330000000000000E10    1.621672650799155E-3   1.678039785474539E-3  
 2.332000000000000E10    1.491810777224600E-3  -1.720758969895542E-3  
 2.334000000000000E10   -2.104365965351462E-3  -1.634054584428668E-3  
 2.336000000000000E10   -1.458596205338836E-3   2.609416609629989E-3  
 2.338000000000000E10    2.804139163345099E-3   1.103902584873140E-3  
 2.340000000000000E10    6.124795181676745E-4  -3.123987698927522E-3  
 2.342000000000000E10   -2.927790163084865E-3  -2.520176640246064E-4  
 2.344000000000000E10   -2.958390687126666E-4   3.011675551533699E-3  
 2.346000000000000E10    2.726589562371373E-3  -3.069144440814853E-4  
 2.348000000000000E10   -7.651723572053015E-4  -3.161059925332665E-3  
 2.350000000000000E10   -3.079233458265662E-3   1.246797735802829E-3  
 2.352000000000000E10    1.837750081904233E-3   2.649537753313780E-3  
 2.354000000000000E10    2.313632518053055E-3  -2.293255180120468E-3  
 2.356000000000000E10   -2.724365098401904E-3  -2.019511535763741E-3  
 2.358000000000000E10   -1.682772068306804E-3   2.668967004865408E-3  
 2.360000000000000E10    3.454462857916951E-3   1.113221514970064E-3  
 2.362000000000000E10    5.892634508199990E-4  -3.486937610432506E-3  
 2.364000000000000E10   -3.628144506365061E-3  -3.662502567749471E-4  
 2.366000000000000E10    5.712886922992766E-4   3.696603234857321E-3  
 2.368000000000000E10    3.568147774785757E-3  -9.678844362497330E-4  
 2.370000000000000E10   -1.844681799411774E-3  -3.933365922421217E-3  
 2.372000000000000E10   -3.952377475798130E-3   2.441354561597109E-3  
 2.374000000000000E10    3.091498045250773E-3   2.904306864365935E-3  
 2.376000000000000E10    2.872122684493661E-3  -3.432592842727900E-3  
 2.378000000000000E10   -3.589736297726631E-3  -2.089747926220298E-3  
 2.380000000000000E10   -1.936706248670816E-3   3.987979609519243E-3  
 2.382000000000000E10    4.156976006925106E-3   1.346747973002493E-3  
 2.384000000000000E10    1.087616314180195E-3  -4.495992790907621E-3  
 2.386000000000000E10   -4.151707980781794E-3  -3.366002929396927E-4  
 2.388000000000000E10    1.751848685671575E-5   4.666458349674940E-3  
 2.390000000000000E10    4.477073438465595E-3  -6.595551967620850E-4  
 2.392000000000000E10   -1.015031361021102E-3  -4.571571946144104E-3  
 2.394000000000000E10   -4.064583685249090E-3   1.770652714185417E-3  
 2.396000000000000E10    2.516371896490455E-3   3.568099811673164E-3  
 2.398000000000000E10    2.991254208609462E-3  -3.121002810075879E-3  
 2.400000000000000E10   -3.135011764243245E-3  -1.924352371133864E-3  
 2.402000000000000E10   -1.509343273937702E-3   3.445187350735068E-3  
 2.404000000000000E10    3.494370263069868E-3   6.505227065645158E-4  
 2.406000000000000E10    2.272973943036050E-4  -3.627802710980177E-3  
 2.408000000000000E10   -3.226978238672018E-3   3.064605989493430E-4  
 2.410000000000000E10    6.131185218691826E-4   3.231848590075970E-3  
 2.412000000000000E10    3.287645755335689E-3  -1.166485482826829E-3  
 2.414000000000000E10   -1.594531582668424E-3  -2.944085747003555E-3  
 2.416000000000000E10   -2.588675823062658E-3   1.528317341580987E-3  
 2.418000000000000E10    2.032130490988493E-3   2.702489029616118E-3  
 2.420000000000000E10    2.775520086288452E-3  -2.234618179500103E-3  
 2.422000000000000E10   -2.801482565701008E-3  -2.361995633691549E-3  
 2.424000000000000E10   -2.196280984207988E-3   3.063726238906384E-3  
 2.426000000000000E10    3.189853159710765E-3   1.959770452231169E-3  
 2.428000000000000E10    1.169299590401352E-3  -3.715579863637686E-3  
 2.430000000000000E10   -3.502209438011050E-3  -7.464250666089356E-4  
 2.432000000000000E10   -6.979851168580353E-4   3.556724172085524E-3  
 2.434000000000000E10    3.337227273732424E-3  -2.473599743098021E-4  
 2.436000000000000E10   -1.658921391936019E-4  -3.204937325790525E-3  
 2.438000000000000E10   -3.015254857018590E-3   3.951218095608056E-4  
 2.440000000000000E10    7.800151943229139E-4   2.831810619682074E-3  
 2.442000000000000E10    3.207161789759994E-3  -1.186641515232623E-3  
 2.444000000000000E10   -1.354417530819774E-3  -2.739382442086935E-3  
 2.446000000000000E10   -2.793902531266213E-3   1.367497723549604E-3  
 2.448000000000000E10    2.118550008162856E-3   2.413345035165548E-3  
 2.450000000000000E10    2.430858789011836E-3  -2.072805305942893E-3  
 2.452000000000000E10   -2.722575794905424E-3  -2.224328694865108E-3  
 2.454000000000000E10   -1.621626783162355E-3   2.703764010220766E-3  
 2.456000000000000E10    2.885174937546253E-3   1.242713653482497E-3  
 2.458000000000000E10    1.156697631813586E-3  -3.267971565946937E-3  
 2.460000000000000E10   -3.214461263269186E-3  -6.117505836300552E-4  
 2.462000000000000E10   -1.200315455207601E-4   3.216272685676813E-3  
 2.464000000000000E10    2.911827526986599E-3  -1.770477683749050E-4  
 2.466000000000000E10   -5.041887634433806E-4  -2.522568218410015E-3  
 2.468000000000000E10   -2.650234382599592E-3   6.135936127975583E-4  
 2.470000000000000E10    1.012067892588675E-3   2.816749271005392E-3  
 2.472000000000000E10    2.476896625012159E-3  -1.376307453028858E-3  
 2.474000000000000E10   -1.716003403998911E-3  -2.353108022361994E-3  
 2.476000000000000E10   -2.084776293486357E-3   1.995968865230680E-3  
 2.478000000000000E10    2.333324169740081E-3   1.803059945814312E-3  
 2.480000000000000E10    1.888113445602357E-3  -2.597669139504433E-3  
 2.482000000000000E10   -2.873257035389543E-3  -1.587221515364945E-3  
 2.484000000000000E10   -1.092053949832916E-3   2.836359664797783E-3  
 2.486000000000000E10    3.506478620693088E-3   5.467574810609222E-4  
 2.488000000000000E10    7.353706314461306E-5  -2.876530401408672E-3  
 2.490000000000000E10   -2.946599852293730E-3  -5.617304395855172E-6  
 2.492000000000000E10    3.789702896028757E-4   2.977205440402031E-3  
 2.494000000000000E10    2.842163434252143E-3  -8.028334123082459E-4  
 2.496000000000000E10   -1.061365474015474E-3  -3.057344118133187E-3  
 2.498000000000000E10   -2.590765478089452E-3   1.369615318253636E-3  
 2.500000000000000E10    1.250208239071071E-3   2.562456298619509E-3  
 2.502000000000000E10    2.273360500112176E-3  -1.848147716373205E-3  
 2.504000000000000E10   -2.081881975755096E-3  -1.938765170052648E-3  
 2.506000000000000E10   -1.761430874466896E-3   1.850035740062594E-3  
 2.508000000000000E10    2.370024332776666E-3   1.735769328661263E-3  
 2.510000000000000E10    1.295611262321472E-3  -2.586705144494772E-3  
 2.512000000000000E10   -2.388800028711557E-3  -1.053293817676604E-3  
 2.514000000000000E10   -3.986608644481748E-4   3.131158882752061E-3  
 2.516000000000000E10    2.770345658063889E-3   7.785917114233598E-5  
 2.518000000000000E10    2.048566529992968E-4  -2.847684547305107E-3  
 2.520000000000000E10   -2.629181835800409E-3   8.351359283551574E-4  
 2.522000000000000E10    5.597741110250354E-4   2.512132516130805E-3  
 2.524000000000000E10    2.676276024430990E-3  -1.094942446798086E-3  
 2.526000000000000E10   -1.172339892946184E-3  -2.141354372724891E-3  
 2.528000000000000E10   -2.519718138501048E-3   1.334776636213064E-3  
 2.530000000000000E10    1.891260035336018E-3   2.185011049732566E-3  
 2.532000000000000E10    1.941931899636984E-3  -1.815400784835219E-3  
 2.534000000000000E10   -2.272306010127068E-3  -2.016292652115226E-3  
 2.536000000000000E10   -1.141382846981287E-3   2.609495306387544E-3  
 2.538000000000000E10    2.394284121692181E-3   1.243822858668864E-3  
 2.540000000000000E10    1.037344918586314E-3  -2.992499852553010E-3  
 2.542000000000000E10   -2.638223581016064E-3  -1.368061784887686E-4  
 2.544000000000000E10    1.722181186778471E-4   3.114600665867329E-3  
 2.546000000000000E10    2.882329514250159E-3  -7.311258232221007E-4  
 2.548000000000000E10   -9.269873844459653E-4  -2.509713172912598E-3  
 2.550000000000000E10   -2.737216884270310E-3   1.384278875775635E-3  
 2.552000000000000E10    1.761936815455556E-3   1.930374419316649E-3  
 2.554000000000000E10    2.170425141230226E-3  -1.720477943308651E-3  
 2.556000000000000E10   -2.327231457456946E-3  -2.082412131130695E-3  
 2.558000000000000E10   -1.755572855472565E-3   2.410883782431483E-3  
 2.560000000000000E10    2.740791067481041E-3   1.729806186631322E-3  
 2.562000000000000E10    1.221311511471868E-3  -3.196456469595432E-3  
 2.564000000000000E10   -3.331362968310714E-3  -9.919453877955675E-4  
 2.566000000000000E10   -9.211593423970044E-4   3.271499881520867E-3  
 2.568000000000000E10    3.225544933229685E-3   5.518706529983319E-5  
 2.570000000000000E10   -5.262654740363360E-4  -3.315256442874670E-3  
 2.572000000000000E10   -3.527002409100533E-3   6.308709271252155E-4  
 2.574000000000000E10    1.429545460268855E-3   3.240833524614573E-3  
 2.576000000000000E10    2.919052261859179E-3  -1.749752787873149E-3  
 2.578000000000000E10   -1.980448141694069E-3  -2.829652046784759E-3  
 2.580000000000000E10   -2.026950474828482E-3   2.392525086179376E-3  
 2.582000000000000E10    2.262213267385960E-3   1.845021033659577E-3  
 2.584000000000000E10    1.501893857493997E-3  -2.713113790377975E-3  
 2.586000000000000E10   -2.763174008578062E-3  -1.057672896422446E-3  
 2.588000000000000E10   -6.060921587049961E-4   2.938863355666399E-3  
 2.590000000000000E10    3.099598921835423E-3   1.853989233495668E-4  
 2.592000000000000E10    3.851588407997042E-4  -3.263845806941390E-3  
 2.594000000000000E10   -3.569833701476455E-3   1.626751472940669E-4  
 2.596000000000000E10    1.247667940333486E-3   3.268894506618381E-3  
 2.598000000000000E10    3.133651567623019E-3  -1.256877440027893E-3  
 2.600000000000000E10   -1.885005622170866E-3  -3.132782177999616E-3  
 2.602000000000000E10   -2.819960005581379E-3   2.056932076811791E-3  
 2.604000000000000E10    2.490607788786292E-3   2.449786523357034E-3  
 2.606000000000000E10    2.158620394766331E-3  -3.074201056733728E-3  
 2.608000000000000E10   -3.043053206056356E-3  -2.102057915180922E-3  
 2.610000000000000E10   -1.700364402495325E-3   3.174838842824101E-3  
 2.612000000000000E10    3.677887609228492E-3   1.311513246037066E-3  
 2.614000000000000E10    9.776258375495672E-4  -3.525080624967814E-3  
 2.616000000000000E10   -4.100768361240625E-3  -2.937222307082266E-4  
 2.618000000000000E10    3.745276189874858E-4   4.026829730719328E-3  
 2.620000000000000E10    3.699666121974587E-3  -5.488508031703532E-4  
 2.622000000000000E10   -8.852303144522011E-4  -3.906811121851206E-3  
 2.624000000000000E10   -3.535207593813539E-3   1.559338998049498E-3  
 2.626000000000000E10    2.033086493611336E-3   3.339581424370408E-3  
 2.628000000000000E10    3.040972631424666E-3  -2.290305914357305E-3  
 2.630000000000000E10   -2.779966918751597E-3  -2.326522255316377E-3  
 2.632000000000000E10   -1.725984970107675E-3   3.060890361666679E-3  
 2.634000000000000E10    2.980117686092854E-3   1.486175809986889E-3  
 2.636000000000000E10    1.247794600203633E-3  -3.050604835152626E-3  
 2.638000000000000E10   -3.004175843670964E-3  -5.136752733960748E-4  
 2.640000000000000E10   -2.073309733532369E-4   2.981568221002817E-3  
 2.642000000000000E10    2.613091608509421E-3   4.435214577824809E-5  
 2.644000000000000E10   -6.231175502762198E-4  -3.081731498241425E-3  
 2.646000000000000E10   -2.904615364968777E-3   1.158753293566406E-3  
 2.648000000000000E10    1.587961334735155E-3   2.926959656178951E-3  
 2.650000000000000E10    2.384193474426866E-3  -2.115454291924834E-3  
 2.652000000000000E10   -2.244365867227316E-3  -2.180971205234528E-3  
 2.654000000000000E10   -2.172252861782908E-3   2.767479745671153E-3  
 2.656000000000000E10    2.942518563941121E-3   1.418198575265706E-3  
 2.658000000000000E10    1.253624097444117E-3  -2.962314756587148E-3  
 2.660000000000000E10   -3.364145290106535E-3  -5.650398088619113E-4  
 2.662000000000000E10   -3.712360630743206E-4   3.293773857876658E-3  
 2.664000000000000E10    3.165340982377529E-3   5.456213330035098E-5  
 2.666000000000000E10   -4.525821132119745E-4  -3.130128607153893E-3  
 2.668000000000000E10   -3.012747503817082E-3   8.839992224238813E-4  
 2.670000000000000E10    1.124759903177619E-3   2.581186825409532E-3  
 2.672000000000000E10    2.242282731458545E-3  -1.388322911225259E-3  
 2.674000000000000E10   -1.145723159424961E-3  -2.180234529078007E-3  
 2.676000000000000E10   -2.322281710803509E-3   1.782677718438208E-3  
 2.678000000000000E10    2.346516121178865E-3   1.572616980411112E-3  
 2.680000000000000E10    1.537662581540644E-3  -2.349832095205784E-3  
 2.682000000000000E10   -2.807066077366471E-3  -1.292952336370945E-3  
 2.684000000000000E10   -6.751821492798626E-4   2.781425137072802E-3  
 2.686000000000000E10    2.427387051284313E-3   5.259050521999598E-4  
 2.688000000000000E10   -2.353921736357734E-4  -2.708988264203072E-3  
 2.690000000000000E10   -2.365469466894865E-3   2.544834569562227E-4  
 2.692000000000000E10    4.475656605791301E-4   2.467099577188492E-3  
 2.694000000000000E10    1.875441404990852E-3  -8.754851296544075E-4  
 2.696000000000000E10   -8.045813301578164E-4  -2.094966592267156E-3  
 2.698000000000000E10   -1.754231750965118E-3   1.432007062248886E-3  
 2.700000000000000E10    1.366304117254913E-3   1.401315676048398E-3  
 2.702000000000000E10    1.259134383872151E-3  -1.366880023851991E-3  
 2.704000000000000E10   -1.621059258468449E-3  -9.605478262528777E-4  
 2.706000000000000E10   -7.971342420205474E-4   1.686575124040246E-3  
 2.708000000000000E10    1.667793025262654E-3   5.046630394645035E-4  
 2.710000000000000E10    4.046266840305179E-4  -1.777014811523259E-3  
 2.712000000000000E10   -1.899934490211308E-3  -1.435793674318120E-4  
 2.714000000000000E10    2.435116912238300E-4   1.810805988498032E-3  
 2.716000000000000E10    1.884771394543350E-3  -3.624215023592114E-4  
 2.718000000000000E10   -5.001823883503676E-4  -1.799505320377648E-3  
 2.720000000000000E10   -1.912340638227761E-3   7.318035932257772E-4  
 2.722000000000000E10    1.136065344326198E-3   1.577310380525887E-3  
 2.724000000000000E10    1.445968984626234E-3  -1.069590565748513E-3  
 2.726000000000000E10   -1.456361031159759E-3  -1.509650726802647E-3  
 2.728000000000000E10   -1.183741143904626E-3   1.410893397405744E-3  
 2.730000000000000E10    1.581203658133745E-3   1.151276519522071E-3  
 2.732000000000000E10    1.005652826279402E-3  -1.472949516028166E-3  
 2.734000000000000E10   -1.541879144497216E-3  -9.363905410282314E-4  
 2.736000000000000E10   -4.622139094863087E-4   1.757125835865736E-3  
 2.738000000000000E10    1.633116859011352E-3   3.343735879752785E-4  
 2.740000000000000E10    3.170311174471863E-5  -1.656480948440731E-3  
 2.742000000000000E10   -1.759350881911814E-3   3.311090404167771E-4  
 2.744000000000000E10    3.444838512223214E-4   1.424005604349077E-3  
 2.746000000000000E10    1.482684514485300E-3  -4.203791322652251E-4  
 2.748000000000000E10   -9.096652502194047E-4  -1.421688590198755E-3  
 2.750000000000000E10   -1.168536604382098E-3   8.747891406528652E-4  
 2.752000000000000E10    9.820013074204326E-4   1.136020990088582E-3  
 2.754000000000000E10    9.160242625512183E-4  -9.429791243746877E-4  
 2.756000000000000E10   -1.136462902650237E-3  -1.011764630675316E-3  
