#  HZ   S   RI   R     50.00 
! Rohde & Schwarz ZVA40 4Ports - Version 3.90 - 1145.1110k42 SN: 100403
! Date: 2023-10-04 07:43:44
! Measurement: S12 
! 
 2.200000000000000E10   -1.933046587510034E-4   2.478278474882245E-4  
 2.202000000000000E10    6.575036968570203E-5   1.652204518904910E-4  
 2.204000000000000E10    1.400607288815081E-4   1.285645557800308E-4  
 2.206000000000000E10   -9.585499356035143E-5  -2.336792822461575E-4  
 2.208000000000000E10    2.261344197904691E-4   2.650507376529276E-4  
 2.210000000000000E10    4.125633950025076E-6  -1.441373897250742E-4  
 2.212000000000000E10    1.661688584135845E-4  -6.790071347495541E-5  
 2.214000000000000E10   -2.102486905641854E-4   3.206867258995771E-4  
 2.216000000000000E10    2.111948997480795E-4   1.816992735257372E-4  
 2.218000000000000E10    1.941684167832136E-4  -1.709577190922573E-4  
 2.220000000000000E10   -3.365083830431104E-4  -3.074152627959848E-4  
 2.222000000000000E10   -7.457638275809586E-4   2.810940495692194E-4  
 2.224000000000000E10   -1.088665594579652E-4   5.078507820144296E-4  
 2.226000000000000E10    4.193219065200537E-4  -1.458562619518489E-4  
 2.228000000000000E10   -1.823914644774050E-4  -8.614857215434313E-4  
 2.230000000000000E10   -5.022665718570352E-4   2.541842113714665E-4  
 2.232000000000000E10    2.028318558586761E-4   8.337656036019325E-4  
 2.234000000000000E10    8.255089051090181E-4  -1.570369495311752E-4  
 2.236000000000000E10   -5.283130449242890E-4  -8.844935218803585E-4  
 2.238000000000000E10   -8.878511725924909E-4   1.125246562878601E-4  
 2.240000000000000E10    1.253341033589095E-4   6.463240715675056E-4  
 2.242000000000000E10    4.752733802888542E-4  -1.807226217351854E-4  
 2.244000000000000E10   -3.615135210566223E-4  -8.319928892888129E-4  
 2.246000000000000E10   -4.026696260552853E-4  -7.543169340351597E-5  
 2.248000000000000E10    7.474356243619695E-5   5.016062059439719E-4  
 2.250000000000000E10    6.707510328851640E-4  -2.189986698795110E-4  
 2.252000000000000E10   -5.505740991793573E-4  -4.640243423637003E-4  
 2.254000000000000E10   -2.383276441833004E-4   3.046166675630957E-4  
 2.256000000000000E10    6.863719900138676E-4  -1.325817356701009E-5  
 2.258000000000000E10   -1.450637792004272E-4  -2.891381736844778E-4  
 2.260000000000000E10   -2.844220143742859E-4   3.587359387893230E-4  
 2.262000000000000E10    4.097915953025222E-4   4.955736221745610E-4  
 2.264000000000000E10    5.848549189977348E-4  -4.006078816018999E-4  
 2.266000000000000E10   -6.775867659598589E-4  -6.502323085442185E-4  
 2.268000000000000E10   -5.310585838742554E-4   8.334986632689834E-4  
 2.270000000000000E10    7.532320450991392E-4   5.157330888323486E-4  
 2.272000000000000E10    7.392538827843964E-4  -9.641592623665929E-4  
 2.274000000000000E10   -1.155059435404837E-3  -6.224665557965636E-4  
 2.276000000000000E10   -7.717012194916606E-4   1.127667725086212E-3  
 2.278000000000000E10    1.181954168714583E-3   1.028719707392156E-3  
 2.280000000000000E10    5.986549658700824E-4  -1.017301110550761E-3  
 2.282000000000000E10   -5.848991568200290E-4  -1.380896195769310E-3  
 2.284000000000000E10   -6.078833248466253E-4   1.482280436903238E-3  
 2.286000000000000E10    1.578878145664930E-3   5.710320547223091E-4  
 2.288000000000000E10    5.106623939354904E-5  -1.321964082308114E-3  
 2.290000000000000E10   -1.356191816739738E-3  -8.553469524485990E-5  
 2.292000000000000E10   -1.548587351862807E-5   1.387021038681269E-3  
 2.294000000000000E10    1.180944265797734E-3  -3.162647190038115E-4  
 2.296000000000000E10   -1.979409134946764E-4  -8.102644351311028E-4  
 2.298000000000000E10   -1.134533318690956E-3   2.119976998073980E-4  
 2.300000000000000E10    2.890623873099685E-4   1.100883120670915E-3  
 2.302000000000000E10    1.044870587065816E-3  -6.337740342132747E-4  
 2.304000000000000E10   -8.835749467834830E-4  -1.119639724493027E-3  
 2.306000000000000E10   -9.559754980728030E-4   1.266830950044096E-3  
 2.308000000000000E10    1.648185076192021E-3   6.634316523559392E-4  
 2.310000000000000E10    6.638728082180023E-4  -1.948822988197208E-3  
 2.312000000000000E10   -1.838123193010688E-3  -6.042371387593448E-4  
 2.314000000000000E10   -5.958473775535822E-4   2.372489077970386E-3  
 2.316000000000000E10    2.571054035797715E-3  -2.295812300872058E-4  
 2.318000000000000E10   -4.073956006322987E-5  -2.585895825177431E-3  
 2.320000000000000E10   -2.579820575192571E-3   7.033011934254319E-5  
 2.322000000000000E10    1.053495681844652E-3   2.442887518554926E-3  
 2.324000000000000E10    2.407772699370980E-3  -1.051245140843093E-3  
 2.326000000000000E10   -1.484693842940033E-3  -2.360889455303550E-3  
 2.328000000000000E10   -2.445455174893141E-3   1.525358879007399E-3  
 2.330000000000000E10    2.011199248954654E-3   1.960127614438534E-3  
 2.332000000000000E10    1.731829368509352E-3  -1.577921444550157E-3  
 2.334000000000000E10   -2.101658843457699E-3  -1.881538075394929E-3  
 2.336000000000000E10   -1.767759560607374E-3   2.617078833281994E-3  
 2.338000000000000E10    3.161573782563210E-3   1.057596062310040E-3  
 2.340000000000000E10    6.417295080609620E-4  -3.045981517061591E-3  
 2.342000000000000E10   -3.336844500154257E-3   1.894979686767329E-5  
 2.344000000000000E10    7.155030034482479E-4   3.429401898756623E-3  
 2.346000000000000E10    2.990319859236479E-3  -1.040840521454811E-3  
 2.348000000000000E10   -1.697616768069565E-3  -2.957228571176529E-3  
 2.350000000000000E10   -3.051716368645430E-3   2.361987251788378E-3  
 2.352000000000000E10    2.757423790171742E-3   3.015578957274556E-3  
 2.354000000000000E10    1.929436344653368E-3  -3.308468731120229E-3  
 2.356000000000000E10   -3.551034023985267E-3  -2.138216746971011E-3  
 2.358000000000000E10   -1.490985392592847E-3   4.180487245321274E-3  
 2.360000000000000E10    4.059292841702700E-3   7.696229731664062E-4  
 2.362000000000000E10    3.317660011816770E-4  -4.245596937835217E-3  
 2.364000000000000E10   -4.657477606087923E-3   1.195516597363167E-4  
 2.366000000000000E10    5.643133190460503E-4   4.487773403525353E-3  
 2.368000000000000E10    4.367208573967218E-3  -9.393981890752912E-4  
 2.370000000000000E10   -1.997681567445397E-3  -4.117661621421576E-3  
 2.372000000000000E10   -4.177478607743979E-3   2.395309042185545E-3  
 2.374000000000000E10    2.930630464106798E-3   3.408805932849646E-3  
 2.376000000000000E10    2.640861552208662E-3  -3.392556915059686E-3  
 2.378000000000000E10   -3.684217575937510E-3  -2.170301508158445E-3  
 2.380000000000000E10   -2.078967168927193E-3   3.670343197882175E-3  
 2.382000000000000E10    3.600954310968518E-3   9.426651522517204E-4  
 2.384000000000000E10    1.026761485263705E-3  -4.217114765197039E-3  
 2.386000000000000E10   -3.820605576038361E-3  -2.868355950340629E-4  
 2.388000000000000E10    3.989933466073126E-4   4.379405640065670E-3  
 2.390000000000000E10    4.103005863726139E-3  -1.080980175174773E-3  
 2.392000000000000E10   -1.938112895004451E-3  -4.026940092444420E-3  
 2.394000000000000E10   -3.470924915745854E-3   2.209960715845227E-3  
 2.396000000000000E10    3.002976067364216E-3   3.551007015630603E-3  
 2.398000000000000E10    2.355417702347040E-3  -3.392714541405439E-3  
 2.400000000000000E10   -3.724099835380912E-3  -1.904976554214954E-3  
 2.402000000000000E10   -1.154119148850441E-3   3.936174325644970E-3  
 2.404000000000000E10    4.042786546051502E-3   4.948240239173174E-4  
 2.406000000000000E10    2.288093310198747E-5  -3.993608523160219E-3  
 2.408000000000000E10   -3.793561365455389E-3   5.725633236579597E-4  
 2.410000000000000E10    1.043677795678377E-3   3.989269956946373E-3  
 2.412000000000000E10    3.779156133532524E-3  -1.363166025839746E-3  
 2.414000000000000E10   -1.845605438575149E-3  -3.394644241780043E-3  
 2.416000000000000E10   -3.290205029770732E-3   2.025493420660496E-3  
 2.418000000000000E10    2.536528743803501E-3   3.352289320901036E-3  
 2.420000000000000E10    2.844976028427482E-3  -2.948918147012591E-3  
 2.422000000000000E10   -2.718732226639986E-3  -2.836865372955799E-3  
 2.424000000000000E10   -2.399485558271408E-3   3.505684668198228E-3  
 2.426000000000000E10    3.964123316109181E-3   2.130604349076748E-3  
 2.428000000000000E10    1.286131679080427E-3  -4.010164178907871E-3  
 2.430000000000000E10   -3.768930910155177E-3  -8.862009271979332E-4  
 2.432000000000000E10   -3.969647514168173E-4   3.733297111466527E-3  
 2.434000000000000E10    3.411879064515233E-3   8.098054968286306E-5  
 2.436000000000000E10   -6.490996456705034E-4  -3.161316039040685E-3  
 2.438000000000000E10   -3.128989133983851E-3   5.245591164566577E-4  
 2.440000000000000E10    6.240392103791237E-4   2.921943785622716E-3  
 2.442000000000000E10    2.827453892678022E-3  -1.386905554682016E-3  
 2.444000000000000E10   -1.297255628742278E-3  -2.014395780861378E-3  
 2.446000000000000E10   -2.503901487216353E-3   1.575078931637108E-3  
 2.448000000000000E10    2.103147795423865E-3   1.873228582553566E-3  
 2.450000000000000E10    1.688918098807335E-3  -2.167207887396216E-3  
 2.452000000000000E10   -2.611648291349411E-3  -1.149350078776479E-3  
 2.454000000000000E10   -8.806759142316878E-4   2.621118910610676E-3  
 2.456000000000000E10    3.097624750807881E-3   9.863360319286585E-4  
 2.458000000000000E10    2.930493792518973E-5  -2.982759615406394E-3  
 2.460000000000000E10   -3.071762388572097E-3   1.349087688140571E-4  
 2.462000000000000E10    3.031064406968653E-4   3.194623626768589E-3  
 2.464000000000000E10    3.010170999914408E-3  -9.812867501750588E-4  
 2.466000000000000E10   -7.753993268124759E-4  -2.807699842378497E-3  
 2.468000000000000E10   -2.893697703257203E-3   1.250541885383427E-3  
 2.470000000000000E10    1.500027370639145E-3   3.020926378667355E-3  
 2.472000000000000E10    2.425316488370299E-3  -1.571551896631718E-3  
 2.474000000000000E10   -1.637978595681489E-3  -2.135553164407611E-3  
 2.476000000000000E10   -2.546764444559813E-3   1.709555159322918E-3  
 2.478000000000000E10    2.504912903532386E-3   2.377525437623262E-3  
 2.480000000000000E10    1.848790911026299E-3  -2.527134027332068E-3  
 2.482000000000000E10   -2.609457354992628E-3  -1.539945602416992E-3  
 2.484000000000000E10   -1.309749088250101E-3   2.854423131793737E-3  
 2.486000000000000E10    2.874315250664949E-3   6.892916280776262E-4  
 2.488000000000000E10    1.167654409073293E-4  -2.715919399634004E-3  
 2.490000000000000E10   -2.765669254586101E-3   2.128605119651184E-4  
 2.492000000000000E10    3.793927608057857E-4   2.858549123629928E-3  
 2.494000000000000E10    2.661878010258079E-3  -8.158580749295652E-4  
 2.496000000000000E10   -9.350106702186167E-4  -2.456849208101630E-3  
 2.498000000000000E10   -2.353736897930503E-3   1.267318031750619E-3  
 2.500000000000000E10    1.485798158682883E-3   2.497760811820626E-3  
 2.502000000000000E10    1.890137325972319E-3  -1.858525793068111E-3  
 2.504000000000000E10   -1.437900820747018E-3  -1.686247764155269E-3  
 2.506000000000000E10   -1.634393585845828E-3   1.959234243258834E-3  
 2.508000000000000E10    2.017294289544225E-3   1.539434189908207E-3  
 2.510000000000000E10    1.550849410705268E-3  -2.426693215966225E-3  
 2.512000000000000E10   -2.696613781154156E-3  -8.827808196656406E-4  
 2.514000000000000E10   -8.087454480119050E-4   2.519384725019336E-3  
 2.516000000000000E10    2.912005409598351E-3   2.128318592440337E-4  
 2.518000000000000E10   -2.612047828733921E-4  -2.719942014664412E-3  
 2.520000000000000E10   -2.594541525468230E-3   3.101494803559035E-4  
 2.522000000000000E10    9.126374498009682E-4   2.653196454048157E-3  
 2.524000000000000E10    2.665303880348802E-3  -1.058646594174206E-3  
 2.526000000000000E10   -1.496801036410034E-3  -2.298466162756085E-3  
 2.528000000000000E10   -2.285619964823127E-3   1.728085801005364E-3  
 2.530000000000000E10    2.169764135032892E-3   2.398919779807329E-3  
 2.532000000000000E10    1.739801256917417E-3  -2.305087400600314E-3  
 2.534000000000000E10   -2.323180437088013E-3  -1.324096811003983E-3  
 2.536000000000000E10   -1.474815537221730E-3   2.509838668629527E-3  
 2.538000000000000E10    2.852239646017551E-3   1.079738140106201E-3  
 2.540000000000000E10    5.993245285935700E-4  -2.922868588939309E-3  
 2.542000000000000E10   -2.999673597514629E-3  -3.352099738549441E-4  
 2.544000000000000E10    2.276174200233072E-4   3.104201285168529E-3  
 2.546000000000000E10    2.879784442484379E-3  -5.735590239055455E-4  
 2.548000000000000E10   -8.101558196358383E-4  -2.663675695657730E-3  
 2.550000000000000E10   -2.569477073848248E-3   1.412646495737135E-3  
 2.552000000000000E10    1.714856829494238E-3   2.564731752499938E-3  
 2.554000000000000E10    2.370576839894056E-3  -1.966429175809026E-3  
 2.556000000000000E10   -2.095878822728992E-3  -1.870401552878320E-3  
 2.558000000000000E10   -1.896881149150431E-3   2.295990474522114E-3  
 2.560000000000000E10    2.555452054366469E-3   1.518579316325486E-3  
 2.562000000000000E10    1.320624956861138E-3  -2.427915344014764E-3  
 2.564000000000000E10   -2.891010371968150E-3  -1.173578435555100E-3  
 2.566000000000000E10   -8.054772042669356E-4   3.074641572311521E-3  
 2.568000000000000E10    3.245776752009988E-3   1.718252897262573E-4  
 2.570000000000000E10   -4.670847556553781E-4  -3.359116381034255E-3  
 2.572000000000000E10   -3.261068370193243E-3   8.660990279167891E-4  
 2.574000000000000E10    9.287770953960717E-4   2.905328059569001E-3  
 2.576000000000000E10    2.789703663438559E-3  -1.763436361216009E-3  
 2.578000000000000E10   -1.869925763458014E-3  -2.256943378597498E-3  
 2.580000000000000E10   -1.977419946342707E-3   2.162965247407556E-3  
 2.582000000000000E10    2.584339817985892E-3   1.706211245618761E-3  
 2.584000000000000E10    1.369941979646683E-3  -2.841418841853738E-3  
 2.586000000000000E10   -3.075740998610854E-3  -8.963148575276136E-4  
 2.588000000000000E10   -5.274952272884548E-4   2.997747156769037E-3  
 2.590000000000000E10    2.956978045403957E-3   2.566936018411070E-4  
 2.592000000000000E10   -2.945991036540363E-5  -3.268024185672402E-3  
 2.594000000000000E10   -3.212303854525089E-3   3.642957599367946E-4  
 2.596000000000000E10    4.757512942887843E-4   3.259691176936030E-3  
 2.598000000000000E10    3.727177157998085E-3  -1.448396709747613E-3  
 2.600000000000000E10   -1.758649945259094E-3  -3.283799160271883E-3  
 2.602000000000000E10   -3.315873444080353E-3   1.912227016873658E-3  
 2.604000000000000E10    2.633100375533104E-3   2.983414335176349E-3  
 2.606000000000000E10    2.292648656293750E-3  -3.115842817351222E-3  
 2.608000000000000E10   -2.860272536054254E-3  -2.142793266102672E-3  
 2.610000000000000E10   -1.778512843884528E-3   3.093542065471411E-3  
 2.612000000000000E10    3.380802227184176E-3   1.372826634906232E-3  
 2.614000000000000E10    9.215946192853153E-4  -3.753591096028686E-3  
 2.616000000000000E10   -3.591209417209029E-3  -5.537434481084347E-4  
 2.618000000000000E10   -1.600411342224106E-4   3.877485170960426E-3  
 2.620000000000000E10    3.818082390353084E-3  -9.474321268498898E-4  
 2.622000000000000E10   -1.248186104930937E-3  -3.351218765601516E-3  
 2.624000000000000E10   -3.393651917576790E-3   1.617244561202824E-3  
 2.626000000000000E10    2.090051770210266E-3   3.120908513665199E-3  
 2.628000000000000E10    2.593907061964274E-3  -2.526463940739632E-3  
 2.630000000000000E10   -3.153643570840359E-3  -2.248353324830532E-3  
 2.632000000000000E10   -1.766982371918857E-3   3.540381323546171E-3  
 2.634000000000000E10    3.432163503021002E-3   1.069218036718667E-3  
 2.636000000000000E10    4.289573989808559E-4  -3.577634692192078E-3  
 2.638000000000000E10   -3.357000416144729E-3  -1.817827142076567E-4  
 2.640000000000000E10    6.443257734645158E-5   3.147695446386933E-3  
 2.642000000000000E10    3.312170039862394E-3  -3.023048921022564E-4  
 2.644000000000000E10   -9.524283232167363E-4  -2.949509536847472E-3  
 2.646000000000000E10   -3.264988772571087E-3   1.311932457610965E-3  
 2.648000000000000E10    1.809823093935847E-3   3.349981969222426E-3  
 2.650000000000000E10    2.651446266099811E-3  -2.445580903440714E-3  
 2.652000000000000E10   -2.752511529251933E-3  -2.228541066870093E-3  
 2.654000000000000E10   -1.677408698014915E-3   3.155839163810015E-3  
 2.656000000000000E10    2.992414869368076E-3   1.340309740044177E-3  
 2.658000000000000E10    9.557161829434335E-4  -3.255323739722371E-3  
 2.660000000000000E10   -3.203841624781489E-3  -3.027872298844159E-4  
 2.662000000000000E10   -1.597237423993647E-4   3.083571093156934E-3  
 2.664000000000000E10    3.234442090615630E-3  -1.719171850709245E-4  
 2.666000000000000E10   -7.227688911370933E-4  -2.833650214597583E-3  
 2.668000000000000E10   -2.702011959627271E-3   9.462409652769566E-4  
 2.670000000000000E10    1.006242586299777E-3   2.517221728339791E-3  
 2.672000000000000E10    2.279496053233743E-3  -1.292956992983818E-3  
 2.674000000000000E10   -1.664610579609871E-3  -2.123123267665505E-3  
 2.676000000000000E10   -1.744661014527082E-3   1.520921825431287E-3  
 2.678000000000000E10    2.116814954206348E-3   1.744632027111948E-3  
 2.680000000000000E10    1.294974819757044E-3  -2.585723530501127E-3  
 2.682000000000000E10   -2.099725417792797E-3  -1.005181926302612E-3  
 2.684000000000000E10   -7.315062684938312E-4   2.395092509686947E-3  
 2.686000000000000E10    2.661851700395346E-3   2.869766613002867E-4  
 2.688000000000000E10    7.682544674025849E-5  -2.308457158505917E-3  
 2.690000000000000E10   -2.301602391526103E-3   3.103444760199636E-4  
 2.692000000000000E10    5.952736828476191E-4   2.254252322018147E-3  
 2.694000000000000E10    2.386901294812560E-3  -9.484917391091585E-4  
 2.696000000000000E10   -1.299202791415155E-3  -2.155227120965719E-3  
 2.698000000000000E10   -1.786099048331380E-3   1.306632882915437E-3  
 2.700000000000000E10    1.829318469390273E-3   1.661339309066534E-3  
 2.702000000000000E10    1.310550724156201E-3  -2.240818692371249E-3  
 2.704000000000000E10   -1.851150067523122E-3  -9.044708567671478E-4  
 2.706000000000000E10   -7.154404884204269E-4   1.792108290828764E-3  
 2.708000000000000E10    2.141462173312903E-3   6.644770619459450E-4  
 2.710000000000000E10    2.292872522957623E-4  -2.228603698313236E-3  
 2.712000000000000E10   -2.002538880333304E-3   2.264074100821745E-5  
 2.714000000000000E10    2.366177068324760E-4   1.993690384551883E-3  
 2.716000000000000E10    2.097094664350152E-3  -6.177781033329666E-4  
 2.718000000000000E10   -8.011255413293839E-4  -1.793138333596289E-3  
 2.720000000000000E10   -1.838814001530409E-3   7.194190984591842E-4  
 2.722000000000000E10    9.426999022252858E-4   1.806562067940831E-3  
 2.724000000000000E10    1.434865756891668E-3  -1.339807640761137E-3  
 2.726000000000000E10   -1.139149302616715E-3  -1.134364632889628E-3  
 2.728000000000000E10   -1.251918612979353E-3   1.164508052170277E-3  
 2.730000000000000E10    1.359592191874981E-3   1.112617086619139E-3  
 2.732000000000000E10    8.416886557824910E-4  -1.570837572216988E-3  
 2.734000000000000E10   -1.510318368673325E-3  -8.367315167561173E-4  
 2.736000000000000E10   -5.748153780587018E-4   1.295728143304586E-3  
 2.738000000000000E10    1.643420429900289E-3   1.745875342749059E-4  
 2.740000000000000E10   -1.060621070791967E-4  -1.551373163238168E-3  
 2.742000000000000E10   -1.385392388328910E-3   2.767375844996423E-4  
 2.744000000000000E10    2.828764845617116E-4   1.528663095086813E-3  
 2.746000000000000E10    1.304958132095635E-3  -6.346371956169605E-4  
 2.748000000000000E10   -7.343484903685749E-4  -1.062366995029151E-3  
 2.750000000000000E10   -1.109093544073403E-3   5.819950019940734E-4  
 2.752000000000000E10    1.071583596058190E-3   9.950232924893498E-4  
 2.754000000000000E10    6.817579269409180E-4  -9.822808206081390E-4  
 2.756000000000000E10   -1.011087209917605E-3  -8.113692165352404E-4  
