#  HZ   S   RI   R     50.00 
! Rohde & Schwarz ZVA40 4Ports - Version 3.90 - 1145.1110k42 SN: 100403
! Date: 2023-10-04 07:44:08
! Measurement: S12 
! 
 2.200000000000000E10   -7.008473039604724E-4  -9.724867413751781E-5  
 2.202000000000000E10    3.143460198771209E-4   3.374404623173177E-4  
 2.204000000000000E10    5.772253498435020E-4  -2.512382634449750E-4  
 2.206000000000000E10   -2.197508438257501E-4  -3.287181316409260E-4  
 2.208000000000000E10   -5.386081174947321E-4   3.716387436725199E-4  
 2.210000000000000E10    4.192710039205849E-4   2.310074341949076E-5  
 2.212000000000000E10    2.462039119563997E-4  -6.949251110199839E-5  
 2.214000000000000E10   -5.228373920544982E-4  -4.933915915898979E-4  
 2.216000000000000E10   -2.405968989478424E-4   2.655738790053874E-4  
 2.218000000000000E10   -1.944922041730024E-5   4.659300902858377E-4  
 2.220000000000000E10    4.656428354792297E-4  -3.256101335864514E-4  
 2.222000000000000E10   -3.183581866323948E-4  -3.009288047906011E-4  
 2.224000000000000E10   -4.174867062829435E-4   3.717489598784596E-4  
 2.226000000000000E10    1.854911679401994E-4   5.166064947843552E-4  
 2.228000000000000E10    4.788877849932760E-4  -3.381188435014337E-4  
 2.230000000000000E10   -3.786388842854649E-4   7.328264473471791E-5  
 2.232000000000000E10   -3.707268433572608E-6   3.225295222364366E-4  
 2.234000000000000E10    5.252872360870242E-4   3.778233949560672E-4  
 2.236000000000000E10   -2.880287065636367E-4  -3.819562261924148E-4  
 2.238000000000000E10   -2.704525832086802E-4   5.283052450977266E-4  
 2.240000000000000E10    5.331176216714084E-4   3.377520479261875E-4  
 2.242000000000000E10    1.830000692280009E-4  -4.535101470537484E-4  
 2.244000000000000E10   -3.813623625319451E-4  -1.657379325479269E-4  
 2.246000000000000E10   -2.262019697809592E-4   5.754726589657366E-4  
 2.248000000000000E10    6.003722664900124E-4   4.779766313731670E-4  
 2.250000000000000E10    7.881183992139995E-4  -6.859341519884765E-4  
 2.252000000000000E10   -1.364105264656246E-3  -4.185924481134862E-4  
 2.254000000000000E10   -6.098545854911208E-4   1.248523942194879E-3  
 2.256000000000000E10    1.166282687336206E-3   6.830540369264782E-4  
 2.258000000000000E10    3.975676372647286E-4  -1.428314601071179E-3  
 2.260000000000000E10   -1.562021323479712E-3  -1.110911171053886E-6  
 2.262000000000000E10   -9.942874748958275E-5   1.480056555010378E-3  
 2.264000000000000E10    1.457733684219420E-3   3.060606250073761E-4  
 2.266000000000000E10    5.256588337942958E-5  -1.743138185702264E-3  
 2.268000000000000E10   -1.776747754774988E-3   2.438173833070323E-4  
 2.270000000000000E10    3.516525321174413E-4   1.298544928431511E-3  
 2.272000000000000E10    1.355525688268244E-3  -1.803710911190137E-4  
 2.274000000000000E10   -7.763717439956963E-4  -1.376294880174100E-3  
 2.276000000000000E10   -1.025667414069176E-3   5.746612441726029E-4  
 2.278000000000000E10    4.902746877633035E-4   1.204949803650379E-3  
 2.280000000000000E10    8.834406617097557E-4  -9.498877334408462E-4  
 2.282000000000000E10   -2.067945169983432E-4  -1.170755364000797E-3  
 2.284000000000000E10   -7.685865857638419E-4   1.071619917638600E-3  
 2.286000000000000E10    1.331564737483859E-3   5.426463321782649E-4  
 2.288000000000000E10    3.071340906899422E-4  -1.364070689305663E-3  
 2.290000000000000E10   -1.854471396654844E-3   1.721143053146079E-4  
 2.292000000000000E10    3.986960800830275E-4   1.544403494335711E-3  
 2.294000000000000E10    1.638169167563319E-3  -4.170740430708975E-4  
 2.296000000000000E10   -8.577096159569919E-4  -1.577429706230760E-3  
 2.298000000000000E10   -1.508376793935895E-3   7.326279301196337E-4  
 2.300000000000000E10    5.349853890947998E-4   1.884264289401472E-3  
 2.302000000000000E10    1.965683884918690E-3  -1.251506037078798E-3  
 2.304000000000000E10   -1.286324113607407E-3  -1.657470827922225E-3  
 2.306000000000000E10   -1.707308576442301E-3   1.757897669449449E-3  
 2.308000000000000E10    1.515665906481445E-3   1.475113676860929E-3  
 2.310000000000000E10    1.419394975528121E-3  -1.950651407241821E-3  
 2.312000000000000E10   -2.069335663691163E-3  -1.059880247339606E-3  
 2.314000000000000E10   -1.361930975690484E-3   2.234048675745726E-3  
 2.316000000000000E10    2.719824668020010E-3   7.707578479312360E-4  
 2.318000000000000E10    5.719785112887621E-4  -2.654470503330231E-3  
 2.320000000000000E10   -2.741428557783365E-3  -5.263231651042588E-5  
 2.322000000000000E10    3.642380470409989E-4   2.920989412814379E-3  
 2.324000000000000E10    2.674484625458717E-3  -7.860389305278659E-4  
 2.326000000000000E10   -1.456504222005606E-3  -2.405582694336772E-3  
 2.328000000000000E10   -2.331299241632223E-3   1.795453601516783E-3  
 2.330000000000000E10    2.205986296758056E-3   1.918309601023793E-3  
 2.332000000000000E10    1.679192529991269E-3  -2.274735830724239E-3  
 2.334000000000000E10   -2.598656574264169E-3  -1.809762208722532E-3  
 2.336000000000000E10   -1.617714995518327E-3   3.244941588491201E-3  
 2.338000000000000E10    3.739868989214301E-3   9.456247207708657E-4  
 2.340000000000000E10    3.548123640939593E-4  -3.880820004269481E-3  
 2.342000000000000E10   -3.932734951376915E-3   1.675718376645818E-4  
 2.344000000000000E10    6.589130498468876E-4   4.412217997014523E-3  
 2.346000000000000E10    4.010192584246397E-3  -1.276392024010420E-3  
 2.348000000000000E10   -1.431586570106447E-3  -3.923850134015083E-3  
 2.350000000000000E10   -3.876678412780166E-3   2.199490321800113E-3  
 2.352000000000000E10    2.705283928662539E-3   3.754442092031241E-3  
 2.354000000000000E10    3.147355280816555E-3  -2.986742416396737E-3  
 2.356000000000000E10   -3.214175114408135E-3  -2.925829729065299E-3  
 2.358000000000000E10   -2.031822921708226E-3   3.720035776495934E-3  
 2.360000000000000E10    4.256417043507099E-3   1.674105413258076E-3  
 2.362000000000000E10    1.086702570319176E-3  -3.951918799430132E-3  
 2.364000000000000E10   -4.157395567744970E-3  -6.029012729413807E-4  
 2.366000000000000E10    9.198806219501421E-5   4.413277842104435E-3  
 2.368000000000000E10    3.775962395593524E-3  -6.691722082905471E-4  
 2.370000000000000E10   -1.640096888877451E-3  -3.991153556853533E-3  
 2.372000000000000E10   -3.917348105460405E-3   2.204952761530876E-3  
 2.374000000000000E10    3.073521191254258E-3   3.290987107902765E-3  
 2.376000000000000E10    2.688111737370491E-3  -3.453364362940192E-3  
 2.378000000000000E10   -3.754467004910111E-3  -2.037188503891230E-3  
 2.380000000000000E10   -1.584931393153966E-3   3.919827286154032E-3  
 2.382000000000000E10    4.107652232050896E-3   1.146555645391345E-3  
 2.384000000000000E10    6.284632836468518E-4  -4.281036555767059E-3  
 2.386000000000000E10   -3.994584083557129E-3  -3.524243220454082E-5  
 2.388000000000000E10    2.184735058108345E-4   4.806714598089457E-3  
 2.390000000000000E10    4.510639235377312E-3  -8.571845246478915E-4  
 2.392000000000000E10   -1.521394588053227E-3  -4.532550927251577E-3  
 2.394000000000000E10   -4.229100421071053E-3   2.017672406509519E-3  
 2.396000000000000E10    2.586194779723883E-3   3.668623045086861E-3  
 2.398000000000000E10    3.314603585749865E-3  -3.414397360756993E-3  
 2.400000000000000E10   -3.453355282545090E-3  -2.628786256536841E-3  
 2.402000000000000E10   -1.989136682823300E-3   3.656283952295780E-3  
 2.404000000000000E10    3.982041962444782E-3   1.106753596104682E-3  
 2.406000000000000E10    7.879384211264551E-4  -3.892143256962299E-3  
 2.408000000000000E10   -3.839398035779595E-3  -9.297440556110814E-5  
 2.410000000000000E10    1.517304044682533E-4   3.685966832563281E-3  
 2.412000000000000E10    3.663474461063743E-3  -5.307726678438485E-4  
 2.414000000000000E10   -1.009493716992438E-3  -3.618769580498338E-3  
 2.416000000000000E10   -3.581413533538580E-3   1.235514297150075E-3  
 2.418000000000000E10    1.608115388080478E-3   3.297736635431647E-3  
 2.420000000000000E10    3.328418359160423E-3  -2.261135494336486E-3  
 2.422000000000000E10   -2.662329701706767E-3  -3.034562338143587E-3  
 2.424000000000000E10   -2.583516761660576E-3   2.802056260406971E-3  
 2.426000000000000E10    3.422417910769582E-3   2.330777700990439E-3  
 2.428000000000000E10    1.470116898417473E-3  -3.614335553720594E-3  
 2.430000000000000E10   -3.497570287436247E-3  -1.015353598631918E-3  
 2.432000000000000E10   -5.229089292697609E-4   3.585191443562508E-3  
 2.434000000000000E10    3.676644759252667E-3   5.994912862661295E-5  
 2.436000000000000E10   -4.503246454987675E-4  -3.216963494196534E-3  
 2.438000000000000E10   -3.031011437997222E-3   6.268057622946799E-4  
 2.440000000000000E10    9.172574500553310E-4   2.987843938171864E-3  
 2.442000000000000E10    2.931312890723348E-3  -1.189295435324311E-3  
 2.444000000000000E10   -1.709251664578915E-3  -2.464832039549947E-3  
 2.446000000000000E10   -2.756997011601925E-3   2.168074715882540E-3  
 2.448000000000000E10    2.235615858808160E-3   2.424795413389802E-3  
 2.450000000000000E10    2.054769312962890E-3  -2.516424050554633E-3  
 2.452000000000000E10   -2.863904694095254E-3  -1.925377990119159E-3  
 2.454000000000000E10   -1.663026399910450E-3   2.872130833566189E-3  
 2.456000000000000E10    2.971301553770900E-3   1.374714891426265E-3  
 2.458000000000000E10    1.026960206218064E-3  -3.274976741522551E-3  
 2.460000000000000E10   -3.336458001285791E-3  -7.376025314442813E-4  
 2.462000000000000E10   -1.460000639781356E-4   3.288455540314317E-3  
 2.464000000000000E10    3.281464334577322E-3  -7.999270746950060E-5  
 2.466000000000000E10   -3.597929899115115E-4  -2.830526791512966E-3  
 2.468000000000000E10   -2.611106261610985E-3   3.374229127075523E-4  
 2.470000000000000E10    5.454882048070431E-4   2.853816375136375E-3  
 2.472000000000000E10    2.385136671364307E-3  -9.103615302592516E-4  
 2.474000000000000E10   -1.028089667670429E-3  -2.286873059347272E-3  
 2.476000000000000E10   -2.361488528549671E-3   1.265192404389381E-3  
 2.478000000000000E10    1.791526214219630E-3   1.954758074134588E-3  
 2.480000000000000E10    1.832369249314070E-3  -1.876319642178714E-3  
 2.482000000000000E10   -2.023763954639435E-3  -1.293310429900885E-3  
 2.484000000000000E10   -1.102619222365320E-3   2.213073894381523E-3  
 2.486000000000000E10    2.896648133173585E-3   5.040683317929506E-4  
 2.488000000000000E10    5.271083864499815E-5  -2.451937180012465E-3  
 2.490000000000000E10   -2.607138594612479E-3   7.301623554667458E-5  
 2.492000000000000E10    4.107628192286938E-4   2.771376166492701E-3  
 2.494000000000000E10    2.747384365648031E-3  -6.862997543066740E-4  
 2.496000000000000E10   -1.032878761179745E-3  -2.770433668047190E-3  
 2.498000000000000E10   -2.563094953075051E-3   1.511458656750619E-3  
 2.500000000000000E10    1.286279642954469E-3   2.316807862371206E-3  
 2.502000000000000E10    2.505544340237975E-3  -1.533677335828543E-3  
 2.504000000000000E10   -1.945110270753503E-3  -1.979753840714693E-3  
 2.506000000000000E10   -1.993504120036960E-3   1.856422866694629E-3  
 2.508000000000000E10    2.112581860274077E-3   2.003431785851717E-3  
 2.510000000000000E10    1.587368315085769E-3  -2.436561742797494E-3  
 2.512000000000000E10   -2.559680491685867E-3  -1.173616154119372E-3  
 2.514000000000000E10   -7.532124873250723E-4   2.742600161582232E-3  
 2.516000000000000E10    2.684606239199638E-3   4.832469858229160E-4  
 2.518000000000000E10    1.291413500439376E-4  -2.788360696285963E-3  
 2.520000000000000E10   -2.536617452278733E-3   3.858987474814057E-4  
 2.522000000000000E10    4.456641036085784E-4   2.463426906615496E-3  
 2.524000000000000E10    2.417474053800106E-3  -5.509742768481374E-4  
 2.526000000000000E10   -1.224488718435168E-3  -2.155068796128035E-3  
 2.528000000000000E10   -2.317921957001090E-3   1.034464803524315E-3  
 2.530000000000000E10    1.410079072229564E-3   2.566633047536016E-3  
 2.532000000000000E10    2.216478111222386E-3  -1.811622409150004E-3  
 2.534000000000000E10   -1.907938974909484E-3  -2.378239063546062E-3  
 2.536000000000000E10   -1.720490981824696E-3   2.395548857748509E-3  
 2.538000000000000E10    2.215130021795631E-3   1.627350458875299E-3  
 2.540000000000000E10    1.302695600315929E-3  -2.790141152217984E-3  
 2.542000000000000E10   -2.804804127663374E-3  -8.287097443826497E-4  
 2.544000000000000E10   -3.407515760045499E-4   2.821526722982526E-3  
 2.546000000000000E10    3.015135647729039E-3  -1.168778253486380E-4  
 2.548000000000000E10   -5.690403049811721E-4  -2.720897085964680E-3  
 2.550000000000000E10   -2.560165477916598E-3   7.417419110424817E-4  
 2.552000000000000E10    1.172761316411197E-3   2.374445321038365E-3  
 2.554000000000000E10    2.246992662549019E-3  -1.222849357873201E-3  
 2.556000000000000E10   -1.655702246353030E-3  -2.095184754580259E-3  
 2.558000000000000E10   -1.743838540278375E-3   1.658020541071892E-3  
 2.560000000000000E10    2.067688386887312E-3   1.728363684378564E-3  
 2.562000000000000E10    1.474488642998040E-3  -2.423288300633431E-3  
 2.564000000000000E10   -2.585429465398192E-3  -1.354711595922709E-3  
 2.566000000000000E10   -8.451199391856790E-4   2.615467645227909E-3  
 2.568000000000000E10    3.126885043457151E-3   5.146057810634375E-4  
 2.570000000000000E10    1.839792457758449E-5  -3.043509088456631E-3  
 2.572000000000000E10   -3.296052804216743E-3   5.007701693102717E-4  
 2.574000000000000E10    1.026054378598929E-3   3.257363103330135E-3  
 2.576000000000000E10    3.033307613804936E-3  -1.291686319746077E-3  
 2.578000000000000E10   -1.848148414865136E-3  -2.613214543089271E-3  
 2.580000000000000E10   -2.155719557777047E-3   2.234852174296975E-3  
 2.582000000000000E10    2.231170423328877E-3   2.256932202726603E-3  
 2.584000000000000E10    2.007986651733518E-3  -2.471032086759806E-3  
 2.586000000000000E10   -2.931234892457724E-3  -1.374428626149893E-3  
 2.588000000000000E10   -9.330985485576093E-4   2.975042676553130E-3  
 2.590000000000000E10    2.892887685447931E-3   1.227936008945108E-3  
 2.592000000000000E10    7.584742852486670E-4  -3.186091780662537E-3  
 2.594000000000000E10   -3.286464139819145E-3  -1.487266854383051E-4  
 2.596000000000000E10    1.295544643653557E-4   3.441074863076210E-3  
 2.598000000000000E10    3.675990505144000E-3  -5.725554074160755E-4  
 2.600000000000000E10   -1.123753492720425E-3  -3.261276287958026E-3  
 2.602000000000000E10   -2.947737695649266E-3   1.704003545455635E-3  
 2.604000000000000E10    1.687444979324937E-3   2.501916373148561E-3  
 2.606000000000000E10    2.551789162680507E-3  -2.228936646133661E-3  
 2.608000000000000E10   -2.294771140441299E-3  -2.089530928060412E-3  
 2.610000000000000E10   -1.860675751231611E-3   2.529466291889548E-3  
 2.612000000000000E10    2.818518551066518E-3   1.859704731032252E-3  
 2.614000000000000E10    1.289355102926493E-3  -3.083648392930627E-3  
 2.616000000000000E10   -3.347918158397079E-3  -7.851197733543813E-4  
 2.618000000000000E10   -4.595711652655155E-4   3.585061989724636E-3  
 2.620000000000000E10    3.805288346484304E-3  -2.929033071268350E-4  
 2.622000000000000E10   -7.977253408171237E-4  -3.935637883841991E-3  
 2.624000000000000E10   -3.675473155453801E-3   1.187891699373722E-3  
 2.626000000000000E10    1.735528814606369E-3   3.490164643153548E-3  
 2.628000000000000E10    3.526058280840516E-3  -2.343107713386416E-3  
 2.630000000000000E10   -2.960857935249806E-3  -2.966167172417045E-3  
 2.632000000000000E10   -2.605609595775604E-3   3.027286380529404E-3  
 2.634000000000000E10    3.465239191427827E-3   1.982204848900437E-3  
 2.636000000000000E10    1.597104943357408E-3  -3.474525874480605E-3  
 2.638000000000000E10   -3.497182624414563E-3  -1.264217076823115E-3  
 2.640000000000000E10   -7.636054651811719E-4   3.355510067194700E-3  
 2.642000000000000E10    3.182047512382269E-3   4.117652424611151E-4  
 2.644000000000000E10    3.847432890324853E-5  -3.477802267298102E-3  
 2.646000000000000E10   -3.496198449283838E-3   4.883965011686087E-4  
 2.648000000000000E10    1.073163584806025E-3   3.405461320653558E-3  
 2.650000000000000E10    3.157313214614987E-3  -1.599216833710671E-3  
 2.652000000000000E10   -2.241779351606965E-3  -2.851979807019234E-3  
 2.654000000000000E10   -2.310748910531402E-3   2.656009048223496E-3  
 2.656000000000000E10    2.993649337440729E-3   1.751349656842649E-3  
 2.658000000000000E10    1.308763399720192E-3  -3.091992810368538E-3  
 2.660000000000000E10   -3.460090374574065E-3  -7.186736911535263E-4  
 2.662000000000000E10   -2.328100672457367E-4   3.352954518049955E-3  
 2.664000000000000E10    2.974899718537927E-3  -2.289086696691811E-4  
 2.666000000000000E10   -3.777582605835050E-4  -3.184619126841426E-3  
 2.668000000000000E10   -2.851590514183044E-3   1.160998363047838E-3  
 2.670000000000000E10    1.241928897798061E-3   2.516767242923379E-3  
 2.672000000000000E10    2.414740622043610E-3  -1.268701278604567E-3  
 2.674000000000000E10   -1.558417105115950E-3  -2.267258008942008E-3  
 2.676000000000000E10   -1.961473375558853E-3   2.210599137470126E-3  
 2.678000000000000E10    2.093542600050569E-3   1.553833601064980E-3  
 2.680000000000000E10    1.363206072710455E-3  -2.164939418435097E-3  
 2.682000000000000E10   -2.653098665177822E-3  -1.054656924679875E-3  
 2.684000000000000E10   -6.119101308286190E-4   2.302562817931175E-3  
 2.686000000000000E10    2.165008801966906E-3   8.270155522041023E-4  
 2.688000000000000E10    1.118037980631925E-4  -2.400904428213835E-3  
 2.690000000000000E10   -2.409024862572551E-3   7.267446198966354E-5  
 2.692000000000000E10    5.216661375015974E-4   2.381591591984034E-3  
 2.694000000000000E10    2.459840616211295E-3  -6.643151282332838E-4  
 2.696000000000000E10   -9.769906755536795E-4  -2.559268381446600E-3  
 2.698000000000000E10   -2.045760396867991E-3   1.295058289542794E-3  
 2.700000000000000E10    1.376765314489603E-3   2.022532979026437E-3  
 2.702000000000000E10    1.724184490740299E-3  -1.696234452538192E-3  
 2.704000000000000E10   -1.728995819576085E-3  -1.375040155835450E-3  
 2.706000000000000E10   -9.491382515989244E-4   1.861991244368255E-3  
 2.708000000000000E10    1.880393363535404E-3   8.395359618589282E-4  
 2.710000000000000E10    7.460583001375198E-4  -1.928181387484074E-3  
 2.712000000000000E10   -1.924246666021645E-3  -2.815144544001669E-4  
 2.714000000000000E10   -8.968686597654596E-5   1.723306137137115E-3  
 2.716000000000000E10    1.817738753743470E-3   2.994511851284187E-5  
 2.718000000000000E10   -1.247037871507928E-4  -1.817484735511243E-3  
 2.720000000000000E10   -1.569817657582462E-3   3.557093150448054E-4  
 2.722000000000000E10    5.898727686144412E-4   1.600253395736218E-3  
 2.724000000000000E10    1.496687065809965E-3  -6.084891501814127E-4  
 2.726000000000000E10   -1.038024667650461E-3  -1.470803981646895E-3  
 2.728000000000000E10   -9.699108777567744E-4   1.324761775322259E-3  
 2.730000000000000E10    1.137615181505680E-3   8.755553863011301E-4  
 2.732000000000000E10    8.862442336976528E-4  -1.218067132867873E-3  
 2.734000000000000E10   -1.504933927208185E-3  -6.025101756677032E-4  
 2.736000000000000E10   -4.607901501003653E-4   1.328419195488095E-3  
 2.738000000000000E10    1.441395957954228E-3   3.074710548389703E-4  
 2.740000000000000E10   -5.623047400149517E-5  -1.647942583076656E-3  
 2.742000000000000E10   -1.582042546942830E-3   1.019356568576768E-4  
 2.744000000000000E10    1.640058035263792E-4   1.519540906883776E-3  
 2.746000000000000E10    1.429451396688819E-3  -3.556051815394312E-4  
 2.748000000000000E10   -6.229305290617049E-4  -1.416966202668846E-3  
 2.750000000000000E10   -1.271640183404088E-3   7.557748467661440E-4  
 2.752000000000000E10    8.495738729834557E-4   1.384866656735539E-3  
 2.754000000000000E10    1.195206656120718E-3  -9.805792942643166E-4  
 2.756000000000000E10   -9.869531495496631E-4  -9.742796537466347E-4  
