#  HZ   S   RI   R     50.00 
! Rohde & Schwarz ZVA40 4Ports - Version 3.90 - 1145.1110k42 SN: 100403
! Date: 2023-10-04 07:44:45
! Measurement: S12 
! 
 2.200000000000000E10    1.069212332367897E-3  -5.774914752691984E-4  
 2.202000000000000E10   -6.977387820370495E-4  -1.265238854102790E-3  
 2.204000000000000E10   -1.056917360983789E-3   1.018901239149272E-3  
 2.206000000000000E10    7.417062879540026E-4   1.022819546051323E-3  
 2.208000000000000E10    8.922935812734067E-4  -9.529335657134652E-4  
 2.210000000000000E10   -8.036913350224495E-4  -8.530207560397685E-4  
 2.212000000000000E10   -4.578625957947224E-4   7.574824849143624E-4  
 2.214000000000000E10    9.560821927152574E-4   7.396813598461449E-4  
 2.216000000000000E10    4.747568164020777E-4  -9.327331790700555E-4  
 2.218000000000000E10   -1.016103778965771E-3  -2.436886425130069E-4  
 2.220000000000000E10    9.170035627903417E-5   9.790566982701421E-4  
 2.222000000000000E10    1.150820404291153E-3   7.641703996341676E-5  
 2.224000000000000E10   -2.136756520485506E-4  -1.302283257246018E-3  
 2.226000000000000E10   -7.936749607324600E-4   3.101420588791370E-4  
 2.228000000000000E10    5.321561475284398E-4   1.052392181009054E-3  
 2.230000000000000E10    1.068902900442481E-3  -8.271675906144083E-4  
 2.232000000000000E10   -7.877939497120678E-4  -8.852239698171616E-4  
 2.234000000000000E10   -1.109105767682195E-3   7.482555229216814E-4  
 2.236000000000000E10    1.419813954271376E-3   1.113709760829806E-3  
 2.238000000000000E10    9.594133007340133E-4  -1.292864442802966E-3  
 2.240000000000000E10   -1.266625826247037E-3  -8.332253200933337E-4  
 2.242000000000000E10   -5.848097498528659E-4   1.505569671280682E-3  
 2.244000000000000E10    1.730244257487357E-3   4.790885432157666E-4  
 2.246000000000000E10    4.844315117225051E-4  -1.336277346126735E-3  
 2.248000000000000E10   -1.764580490998924E-3  -4.737164126709104E-4  
 2.250000000000000E10   -3.640582144726068E-4   2.302866196259856E-3  
 2.252000000000000E10    2.360787009820342E-3  -2.902244450524449E-4  
 2.254000000000000E10   -6.630072020925582E-4  -2.127390122041106E-3  
 2.256000000000000E10   -1.921285409480333E-3   5.472788470797241E-4  
 2.258000000000000E10    1.036969246342778E-3   2.147514140233398E-3  
 2.260000000000000E10    2.010103780776262E-3  -8.000697707757354E-4  
 2.262000000000000E10   -1.277345465496182E-3  -1.637428416870534E-3  
 2.264000000000000E10   -1.878548064269126E-3   1.145941670984030E-3  
 2.266000000000000E10    1.331092906184495E-3   1.454731682315469E-3  
 2.268000000000000E10    1.679959823377430E-3  -1.700530410744250E-3  
 2.270000000000000E10   -1.858872943557799E-3  -1.500032143667340E-3  
 2.272000000000000E10   -1.440293272025883E-3   2.274325583130121E-3  
 2.274000000000000E10    2.387525280937553E-3   8.954145596362650E-4  
 2.276000000000000E10    6.393711664713919E-4  -2.632592804729939E-3  
 2.278000000000000E10   -2.639149548485875E-3  -2.651729155331850E-4  
 2.280000000000000E10    4.988592263543978E-5   2.665569772943854E-3  
 2.282000000000000E10    2.513282699510455E-3   1.378956250846386E-3  
 2.284000000000000E10   -9.006492327898741E-4  -2.855000784620643E-3  
 2.286000000000000E10   -2.760682720690966E-3   1.226738677360117E-3  
 2.288000000000000E10    1.495455508120358E-3   2.483449643477798E-3  
 2.290000000000000E10    2.589412033557892E-3  -1.534288283437491E-3  
 2.292000000000000E10   -2.343392232432962E-3  -2.037892583757639E-3  
 2.294000000000000E10   -2.022880129516125E-3   2.357413293793798E-3  
 2.296000000000000E10    2.235487801954150E-3   1.909056329168379E-3  
 2.298000000000000E10    1.524886465631425E-3  -2.754384884610772E-3  
 2.300000000000000E10   -2.855929313227534E-3  -1.311076688580215E-3  
 2.302000000000000E10   -1.435264945030212E-3   3.640854498371482E-3  
 2.304000000000000E10    3.139206441119313E-3   9.783714776858687E-4  
 2.306000000000000E10    3.861485311063007E-5  -3.952552564442158E-3  
 2.308000000000000E10   -3.604066092520952E-3   7.386375800706446E-4  
 2.310000000000000E10    6.760531687177718E-4   3.453659825026989E-3  
 2.312000000000000E10    3.559246193617582E-3  -1.266711391508579E-3  
 2.314000000000000E10   -1.905876328237355E-3  -3.029135521501303E-3  
 2.316000000000000E10   -2.996682887896895E-3   2.392427995800972E-3  
 2.318000000000000E10    2.691825386136770E-3   2.609814051538706E-3  
 2.320000000000000E10    2.574027748778462E-3  -3.392879851162434E-3  
 2.322000000000000E10   -3.784144995734096E-3  -1.756813959218562E-3  
 2.324000000000000E10   -1.348651829175651E-3   3.860723227262497E-3  
 2.326000000000000E10    3.890809370204806E-3   8.320942870341241E-4  
 2.328000000000000E10    2.713089634198695E-4  -4.251056816428900E-3  
 2.330000000000000E10   -4.237094894051552E-3   3.209104179404676E-4  
 2.332000000000000E10    7.894624723121524E-4   3.828505752608180E-3  
 2.334000000000000E10    4.611065145581961E-3  -7.498930208384991E-4  
 2.336000000000000E10   -1.816354109905660E-3  -4.448488820344210E-3  
 2.338000000000000E10   -4.309469368308783E-3   2.757998416200280E-3  
 2.340000000000000E10    3.312282962724567E-3   3.608231898397207E-3  
 2.342000000000000E10    3.124789567664266E-3  -4.045222420245409E-3  
 2.344000000000000E10   -4.159083589911461E-3  -2.370317699387670E-3  
 2.346000000000000E10   -1.618071808479726E-3   4.384458065032959E-3  
 2.348000000000000E10    4.473710432648659E-3   1.143410569056869E-3  
 2.350000000000000E10    6.564841605722904E-4  -4.555618390440941E-3  
 2.352000000000000E10   -4.846862517297268E-3   1.250619679922238E-4  
 2.354000000000000E10    1.007852610200644E-3   4.731455352157354E-3  
 2.356000000000000E10    4.712189082056284E-3  -1.444290042854846E-3  
 2.358000000000000E10   -1.961626112461090E-3  -4.122845828533173E-3  
 2.360000000000000E10   -3.842731937766075E-3   2.673682756721973E-3  
 2.362000000000000E10    3.061432857066393E-3   3.488364629447460E-3  
 2.364000000000000E10    2.772960811853409E-3  -3.511797403916717E-3  
 2.366000000000000E10   -3.692336380481720E-3  -2.479212125763297E-3  
 2.368000000000000E10   -1.676200423389673E-3   4.472371656447649E-3  
 2.370000000000000E10    4.591118544340134E-3   1.368788653053343E-3  
 2.372000000000000E10    5.222087493166328E-4  -4.472373984754086E-3  
 2.374000000000000E10   -4.400930833071470E-3   2.037194499280304E-4  
 2.376000000000000E10    1.287571620196104E-3   4.194084089249373E-3  
 2.378000000000000E10    3.965173847973347E-3  -1.373787294141948E-3  
 2.380000000000000E10   -1.569646061398089E-3  -3.607224905863404E-3  
 2.382000000000000E10   -3.294176422059536E-3   1.885886536911130E-3  
 2.384000000000000E10    2.446757396683097E-3   3.097560256719589E-3  
 2.386000000000000E10    2.466454170644283E-3  -2.790312515571713E-3  
 2.388000000000000E10   -2.791243605315685E-3  -2.129584318026900E-3  
 2.390000000000000E10   -1.661417656578124E-3   3.289196407422423E-3  
 2.392000000000000E10    3.020819276571274E-3   1.047735335305333E-3  
 2.394000000000000E10    8.237226284109056E-4  -3.222577506676316E-3  
 2.396000000000000E10   -3.617102047428489E-3  -3.500404709484428E-4  
 2.398000000000000E10    4.919414641335607E-4   3.549662418663502E-3  
 2.400000000000000E10    3.086623735725880E-3  -8.681270410306752E-4  
 2.402000000000000E10   -1.851816195994616E-3  -2.773223211988807E-3  
 2.404000000000000E10   -2.499639522284269E-3   2.171790227293968E-3  
 2.406000000000000E10    2.132692839950323E-3   2.193366410210729E-3  
 2.408000000000000E10    1.936661312356591E-3  -2.619235310703516E-3  
 2.410000000000000E10   -2.613635268062353E-3  -1.563266734592617E-3  
 2.412000000000000E10   -1.465717563405633E-3   2.841334789991379E-3  
 2.414000000000000E10    2.864631591364741E-3   1.342464354820550E-3  
 2.416000000000000E10    1.031016581691802E-3  -3.088415833190084E-3  
 2.418000000000000E10   -2.997063565999270E-3  -5.995823303237557E-4  
 2.420000000000000E10   -4.447137180250138E-4   3.029280807822943E-3  
 2.422000000000000E10    3.223906503990293E-3   6.673878524452448E-4  
 2.424000000000000E10   -5.106212120153941E-5  -3.182915272191167E-3  
 2.426000000000000E10   -3.249035449698567E-3   4.785058990819380E-5  
 2.428000000000000E10    3.459274012129754E-4   2.921153325587511E-3  
 2.430000000000000E10    2.750850515440106E-3  -9.113501873798668E-4  
 2.432000000000000E10   -1.095821964554489E-3  -2.311326796188951E-3  
 2.434000000000000E10   -2.342143096029759E-3   1.403893926180899E-3  
 2.436000000000000E10    1.507947221398354E-3   1.893686014227569E-3  
 2.438000000000000E10    1.321594580076635E-3  -1.246752100996673E-3  
 2.440000000000000E10   -1.707289600744844E-3  -1.221224782057107E-3  
 2.442000000000000E10   -1.346806180663407E-3   1.970813143998385E-3  
 2.444000000000000E10    1.866135280579329E-3   9.120918693952262E-4  
 2.446000000000000E10    6.091713439673185E-4  -2.029059687629342E-3  
 2.448000000000000E10   -2.012682147324085E-3  -5.385741824284196E-4  
 2.450000000000000E10   -7.998375804163516E-5   2.326193032786250E-3  
 2.452000000000000E10    2.253598067909479E-3  -4.735502589028329E-4  
 2.454000000000000E10   -2.002120018005371E-4  -2.050737151876092E-3  
 2.456000000000000E10   -2.474043285474181E-3   6.621695938520134E-4  
 2.458000000000000E10    9.182538487948477E-4   2.314018551260233E-3  
 2.460000000000000E10    2.266522264108062E-3  -9.803568245843053E-4  
 2.462000000000000E10   -1.445832895115018E-3  -2.115478506311774E-3  
 2.464000000000000E10   -1.596880494616926E-3   1.660123234614730E-3  
 2.466000000000000E10    1.575322239659727E-3   1.619695685803890E-3  
 2.468000000000000E10    1.372863189317286E-3  -1.961881294846535E-3  
 2.470000000000000E10   -1.845600316300988E-3  -1.353911939077079E-3  
 2.472000000000000E10   -8.781127980910242E-4   2.268974902108312E-3  
 2.474000000000000E10    1.854728790931404E-3   7.680698763579130E-4  
 2.476000000000000E10    7.366258651018143E-4  -2.114616567268968E-3  
 2.478000000000000E10   -2.364136511459947E-3  -1.640924892853946E-4  
 2.480000000000000E10   -2.579476276878268E-4   2.027471782639623E-3  
 2.482000000000000E10    2.559400862082839E-3   1.788517984095961E-4  
 2.484000000000000E10   -4.332512035034597E-4  -2.292698482051492E-3  
 2.486000000000000E10   -2.141849370673299E-3   7.028474938124418E-4  
 2.488000000000000E10    5.424764240160584E-4   2.213667379692197E-3  
 2.490000000000000E10    1.914859982207418E-3  -9.598389151506126E-4  
 2.492000000000000E10   -9.910768130794168E-4  -1.632055500522256E-3  
 2.494000000000000E10   -1.747323665767908E-3   1.149449031800032E-3  
 2.496000000000000E10    1.341663300991058E-3   1.419864478521049E-3  
 2.498000000000000E10    1.068257959559560E-3  -1.439946470782161E-3  
 2.500000000000000E10   -1.494418014772236E-3  -1.316588721238077E-3  
 2.502000000000000E10   -1.128293108195067E-3   1.623157877475023E-3  
 2.504000000000000E10    1.809585257433355E-3   7.498703198507428E-4  
 2.506000000000000E10    6.056620622985065E-4  -1.777551253326237E-3  
 2.508000000000000E10   -1.653342624194920E-3  -4.636061203200370E-4  
 2.510000000000000E10   -5.483977729454637E-4   2.142575569450855E-3  
 2.512000000000000E10    1.789164729416370E-3  -1.410122786182910E-5  
 2.514000000000000E10   -1.557218056404963E-4  -2.021211432293057E-3  
 2.516000000000000E10   -2.205098746344447E-3   6.805107695981860E-4  
 2.518000000000000E10    6.135528092272580E-4   1.912622712552548E-3  
 2.520000000000000E10    1.805729349143803E-3  -1.077207620255649E-3  
 2.522000000000000E10   -1.428558141924441E-3  -1.433316851034761E-3  
 2.524000000000000E10   -1.397382933646441E-3   1.378932967782021E-3  
 2.526000000000000E10    1.535698887892067E-3   1.184412511065602E-3  
 2.528000000000000E10    9.880828438326716E-4  -1.360668917186558E-3  
 2.530000000000000E10   -1.909885555505753E-3  -1.080060028471053E-3  
 2.532000000000000E10   -6.203328957781196E-4   1.926471129991114E-3  
 2.534000000000000E10    1.915485714562237E-3   3.450371150393039E-4  
 2.536000000000000E10    3.351279883645475E-4  -2.187577076256275E-3  
 2.538000000000000E10   -1.928585814312100E-3   1.767719804774970E-4  
 2.540000000000000E10    2.724897349253297E-4   2.104713581502438E-3  
 2.542000000000000E10    2.033350756391883E-3  -4.948666901327670E-4  
 2.544000000000000E10   -8.464683778584003E-4  -1.929840072989464E-3  
 2.546000000000000E10   -1.732784206978977E-3   1.076871645636857E-3  
 2.548000000000000E10    1.232598093338311E-3   1.824942650273442E-3  
 2.550000000000000E10    1.880107331089675E-3  -1.649266108870506E-3  
 2.552000000000000E10   -1.844585873186588E-3  -1.322113559581339E-3  
 2.554000000000000E10   -1.316811190918088E-3   1.819598604924977E-3  
 2.556000000000000E10    1.851876149885356E-3   8.521492709405720E-4  
 2.558000000000000E10    1.012630178593099E-3  -2.056981902569532E-3  
 2.560000000000000E10   -2.041171770542860E-3  -5.359792266972363E-4  
 2.562000000000000E10   -7.678125984966755E-4   1.959672197699547E-3  
 2.564000000000000E10    2.431171713396907E-3   3.922855830751360E-4  
 2.566000000000000E10    1.396072184434161E-4  -2.665215404704213E-3  
 2.568000000000000E10   -2.655489835888147E-3   4.754959372803569E-4  
 2.570000000000000E10    9.629455744288862E-4   2.373599912971258E-3  
 2.572000000000000E10    2.075978787615895E-3  -1.210986520163715E-3  
 2.574000000000000E10   -1.199472579173744E-3  -2.081149490550160E-3  
 2.576000000000000E10   -1.870885374955833E-3   1.428335672244430E-3  
 2.578000000000000E10    1.658810302615166E-3   1.690551871433854E-3  
 2.580000000000000E10    1.611141720786691E-3  -1.870451727882028E-3  
 2.582000000000000E10   -2.143460558727384E-3  -9.463264723308384E-4  
 2.584000000000000E10   -7.521461229771376E-4   2.251170109957457E-3  
 2.586000000000000E10    2.306420123204589E-3   5.771100986748934E-4  
 2.588000000000000E10    3.774357610382140E-4  -2.520553534850478E-3  
 2.590000000000000E10   -2.090683439746499E-3   6.141296762507409E-5  
 2.592000000000000E10   -8.266546501545236E-5   2.480058465152979E-3  
 2.594000000000000E10    2.739318413659930E-3  -6.738004158250988E-4  
 2.596000000000000E10   -1.028374535962939E-3  -2.802916103973985E-3  
 2.598000000000000E10   -2.530577359721065E-3   1.162359490990639E-3  
 2.600000000000000E10    1.642519142478705E-3   2.370968693867326E-3  
 2.602000000000000E10    2.274272497743368E-3  -2.362891333177686E-3  
 2.604000000000000E10   -2.546999137848616E-3  -1.530173700302839E-3  
 2.606000000000000E10   -1.223061000928283E-3   2.214444801211357E-3  
 2.608000000000000E10    2.485320903360844E-3   1.418494153767824E-3  
 2.610000000000000E10    1.312026171945036E-3  -2.817207481712103E-3  
 2.612000000000000E10   -2.896370831876993E-3  -1.072610379196703E-3  
 2.614000000000000E10   -6.455347756855190E-4   2.695085480809212E-3  
 2.616000000000000E10    3.022783901542425E-3   3.194154123775661E-4  
 2.618000000000000E10   -4.296303086448461E-4  -3.252367023378611E-3  
 2.620000000000000E10   -3.064432647079229E-3   7.689117337577045E-4  
 2.622000000000000E10    7.862481870688498E-4   2.769676502794027E-3  
 2.624000000000000E10    2.895361045375466E-3  -1.166106667369604E-3  
 2.626000000000000E10   -2.041458850726485E-3  -2.723370213061571E-3  
 2.628000000000000E10   -2.343749860301614E-3   2.217396860942245E-3  
 2.630000000000000E10    2.601703861728311E-3   2.242539077997208E-3  
 2.632000000000000E10    1.338609145022929E-3  -2.928944537416101E-3  
 2.634000000000000E10   -3.023850498721004E-3  -1.032227766700089E-3  
 2.636000000000000E10   -5.569074419327080E-4   3.188585862517357E-3  
 2.638000000000000E10    3.171750111505389E-3   2.986769541166723E-4  
 2.640000000000000E10    1.004656005534343E-4  -3.119975561276078E-3  
 2.642000000000000E10   -3.384951036423445E-3   3.047370701096952E-4  
 2.644000000000000E10    5.342225194908679E-4   3.155744401738048E-3  
 2.646000000000000E10    3.244217718020082E-3  -9.579832549206913E-4  
 2.648000000000000E10   -1.833918388001621E-3  -2.976225223392248E-3  
 2.650000000000000E10   -2.772044390439987E-3   1.960682682693005E-3  
 2.652000000000000E10    2.408612519502640E-3   2.257676795125008E-3  
 2.654000000000000E10    1.663213595747948E-3  -2.583638997748494E-3  
 2.656000000000000E10   -2.943532308563590E-3  -1.492532319389284E-3  
 2.658000000000000E10   -8.031382458284497E-4   3.093061735853553E-3  
 2.660000000000000E10    3.004377707839012E-3   3.495368291623890E-4  
 2.662000000000000E10    6.145009683677927E-5  -2.976997289806604E-3  
 2.664000000000000E10   -2.830542856827378E-3   4.458825278561562E-4  
 2.666000000000000E10    6.784854340367019E-4   2.643682761117816E-3  
 2.668000000000000E10    2.494429005309939E-3  -1.356594031676650E-3  
 2.670000000000000E10   -1.546401646919549E-3  -2.378149656578898E-3  
 2.672000000000000E10   -2.239928813651204E-3   1.476972829550505E-3  
 2.674000000000000E10    1.865657046437264E-3   2.191554754972458E-3  
 2.676000000000000E10    1.979503082111478E-3  -2.056544646620750E-3  
 2.678000000000000E10   -2.421714598312974E-3  -1.684194081462920E-3  
 2.680000000000000E10   -1.262902165763080E-3   2.733772387728095E-3  
 2.682000000000000E10    2.591780852526426E-3   1.016273396089673E-3  
 2.684000000000000E10    6.256713531911373E-4  -2.704642945900559E-3  
 2.686000000000000E10   -2.832883503288031E-3   3.689402728923596E-5  
 2.688000000000000E10    2.703175123315305E-4   2.340129809454083E-3  
 2.690000000000000E10    2.473613945767283E-3  -3.987878735642880E-4  
 2.692000000000000E10   -6.171184941194952E-4  -2.493272535502911E-3  
 2.694000000000000E10   -2.013479359447956E-3   9.540371247567236E-4  
 2.696000000000000E10    1.013251719996333E-3   1.874458859674633E-3  
 2.698000000000000E10    1.865134225226939E-3  -1.329981954768300E-3  
 2.700000000000000E10   -1.668234239332378E-3  -1.470361603423953E-3  
 2.702000000000000E10   -1.249275170266628E-3   1.818703371100128E-3  
 2.704000000000000E10    1.909394282847643E-3   1.213135197758675E-3  
 2.706000000000000E10    9.226535330526531E-4  -1.782381441444159E-3  
 2.708000000000000E10   -1.986197195947170E-3  -5.066678859293461E-4  
 2.710000000000000E10   -1.550819433759898E-4   1.855081412941217E-3  
 2.712000000000000E10    2.017306629568338E-3   6.784840661566705E-5  
 2.714000000000000E10   -7.243100117193535E-5  -2.010123105719686E-3  
 2.716000000000000E10   -1.637931331060827E-3   3.826758475042880E-4  
 2.718000000000000E10    3.687763528432697E-4   1.726703718304634E-3  
 2.720000000000000E10    1.605116063728929E-3  -6.722160032950342E-4  
 2.722000000000000E10   -9.971959516406059E-4  -1.760512473993003E-3  
 2.724000000000000E10   -1.424778020009399E-3   1.032778993248940E-3  
 2.726000000000000E10    1.177887083031237E-3   1.221852144226432E-3  
 2.728000000000000E10    1.256288844160736E-3  -1.298183924518526E-3  
 2.730000000000000E10   -1.630149432457984E-3  -1.128637231886387E-3  
 2.732000000000000E10   -7.495899917557836E-4   1.577835297212005E-3  
 2.734000000000000E10    1.426084083504975E-3   6.848786724731326E-4  
 2.736000000000000E10    6.650775321759284E-4  -1.990593969821930E-3  
 2.738000000000000E10   -1.991094322875142E-3  -1.745904155541211E-4  
 2.740000000000000E10   -1.150355528807268E-4   1.669972785748541E-3  
 2.742000000000000E10    1.769518246874213E-3  -2.245095820399001E-4  
 2.744000000000000E10   -2.670995017979294E-4  -1.504936371929944E-3  
 2.746000000000000E10   -1.521709607914090E-3   4.540869267657399E-4  
 2.748000000000000E10    4.816229338757694E-4   1.308900071308017E-3  
 2.750000000000000E10    1.300085103139281E-3  -5.208509392105043E-4  
 2.752000000000000E10   -9.247263078577817E-4  -1.307806232944131E-3  
 2.754000000000000E10   -9.261819650419056E-4   9.092137916013598E-4  
 2.756000000000000E10    7.836304721422494E-4   7.647202000953257E-4  
