#  HZ   S   RI   R     50.00 
! Rohde & Schwarz ZVA40 4Ports - Version 3.90 - 1145.1110k42 SN: 100403
! Date: 2023-10-04 07:45:16
! Measurement: S12 
! 
 2.200000000000000E10    1.408955198712647E-3   1.114859478548169E-3  
 2.202000000000000E10    1.289187464863062E-3  -1.618754235096276E-3  
 2.204000000000000E10   -1.661192625761032E-3  -7.833427516743541E-4  
 2.206000000000000E10   -5.861644167453051E-4   1.921950490213931E-3  
 2.208000000000000E10    2.296678489074111E-3  -6.974039570195600E-5  
 2.210000000000000E10    9.638972551329061E-5  -2.014703582972288E-3  
 2.212000000000000E10   -2.288499148562551E-3   4.176955917500891E-5  
 2.214000000000000E10    2.652084222063422E-4   2.317613689228892E-3  
 2.216000000000000E10    2.184596378356218E-3  -4.276331455912441E-4  
 2.218000000000000E10   -3.422739100642502E-4  -2.615429693832994E-3  
 2.220000000000000E10   -2.326662885025144E-3   9.133892017416656E-4  
 2.222000000000000E10    1.075213425792754E-3   2.421208890154958E-3  
 2.224000000000000E10    1.961115514859557E-3  -1.389885903336108E-3  
 2.226000000000000E10   -1.600611489266157E-3  -1.853120164014399E-3  
 2.228000000000000E10   -1.782200415618718E-3   1.613087602891028E-3  
 2.230000000000000E10    1.748444279655814E-3   1.384318107739091E-3  
 2.232000000000000E10    1.533921109512448E-3  -1.638599438592792E-3  
 2.234000000000000E10   -2.214508363977075E-3  -1.170491799712181E-3  
 2.236000000000000E10   -1.200541038997471E-3   2.244681818410754E-3  
 2.238000000000000E10    1.928168698213995E-3   4.017442988697439E-4  
 2.240000000000000E10    2.908883907366544E-4  -2.325185807421804E-3  
 2.242000000000000E10   -2.323060762137175E-3   9.648955165175721E-5  
 2.244000000000000E10    1.066591721610166E-4   2.378401812165976E-3  
 2.246000000000000E10    2.156638307496905E-3  -5.285282386466861E-4  
 2.248000000000000E10   -1.010578591376543E-3  -2.531885635107756E-3  
 2.250000000000000E10   -2.568554831668735E-3   9.081792668439448E-4  
 2.252000000000000E10    1.507834414951503E-3   2.489023841917515E-3  
 2.254000000000000E10    2.055785385891795E-3  -1.917709596455097E-3  
 2.256000000000000E10   -2.486817305907607E-3  -1.950647099874914E-3  
 2.258000000000000E10   -1.705855480395258E-3   2.338727470487356E-3  
 2.260000000000000E10    2.293671481311321E-3   1.403751200996339E-3  
 2.262000000000000E10    9.505277266725898E-4  -2.192886546254158E-3  
 2.264000000000000E10   -2.121201017871499E-3  -1.273885369300842E-3  
 2.266000000000000E10   -8.453070768155158E-4   2.443240955471993E-3  
 2.268000000000000E10    2.646675566211343E-3   6.343754939734936E-4  
 2.270000000000000E10    4.008726682513952E-4  -2.927201567217708E-3  
 2.272000000000000E10   -2.885688561946154E-3  -1.444708905182779E-4  
 2.274000000000000E10    1.945430703926832E-4   2.711848588660359E-3  
 2.276000000000000E10    2.673627110198140E-3  -2.678738965187222E-4  
 2.278000000000000E10   -1.071103150025010E-3  -2.520282054319978E-3  
 2.280000000000000E10   -2.371842274442315E-3   1.091079204343259E-3  
 2.282000000000000E10   -2.326907415408641E-4   2.781617222353816E-3  
 2.284000000000000E10    2.465982921421528E-3  -1.735781552270055E-3  
 2.286000000000000E10   -1.951047102920711E-3  -2.179563278332353E-3  
 2.288000000000000E10   -1.609188620932400E-3   2.643832471221685E-3  
 2.290000000000000E10    2.853579819202423E-3   1.389675424434245E-3  
 2.292000000000000E10    7.143545080907643E-4  -2.911086427047849E-3  
 2.294000000000000E10   -3.037403570488095E-3  -7.108137942850590E-4  
 2.296000000000000E10   -8.178969146683812E-4   3.013844834640622E-3  
 2.298000000000000E10    3.296117298305035E-3   3.370138874743134E-4  
 2.300000000000000E10   -1.038443151628599E-4  -3.616983303800225E-3  
 2.302000000000000E10   -3.783024847507477E-3   5.965416785329580E-4  
 2.304000000000000E10    9.728634031489492E-4   3.549150656908751E-3  
 2.306000000000000E10    3.437470179051161E-3  -1.667982898652554E-3  
 2.308000000000000E10   -2.199874492362142E-3  -3.215705743059516E-3  
 2.310000000000000E10   -3.157930681481957E-3   2.613208955153823E-3  
 2.312000000000000E10    2.857223385944963E-3   2.873416757211089E-3  
 2.314000000000000E10    2.243361202999950E-3  -3.152261488139629E-3  
 2.316000000000000E10   -3.650660626590252E-3  -1.913798390887678E-3  
 2.318000000000000E10   -1.354092964902520E-3   3.887029131874442E-3  
 2.320000000000000E10    4.097131546586752E-3   8.530595805495977E-4  
 2.322000000000000E10    1.568438892718405E-4  -4.188575781881809E-3  
 2.324000000000000E10   -4.311615601181984E-3   7.502242806367576E-4  
 2.326000000000000E10    9.654356981627643E-4   3.844879567623138E-3  
 2.328000000000000E10    3.706644056364894E-3  -1.482993597164750E-3  
 2.330000000000000E10   -1.962976995855570E-3  -3.272382309660316E-3  
 2.332000000000000E10   -3.067440353333950E-3   2.571754390373826E-3  
 2.334000000000000E10    2.494149608537555E-3   3.141802735626698E-3  
 2.336000000000000E10    3.121189540252090E-3  -3.352478379383683E-3  
 2.338000000000000E10   -4.048855043947697E-3  -2.347161760553718E-3  
 2.340000000000000E10   -1.611938700079918E-3   3.892432898283005E-3  
 2.342000000000000E10    4.428839776664972E-3   1.072501298040152E-3  
 2.344000000000000E10    3.254469193052501E-4  -4.338103812187910E-3  
 2.346000000000000E10   -4.205073229968548E-3   4.331485542934388E-4  
 2.348000000000000E10    8.722189231775701E-4   3.902551485225558E-3  
 2.350000000000000E10    3.864442463964224E-3  -1.214795629493892E-3  
 2.352000000000000E10   -1.838497584685683E-3  -3.742207773029804E-3  
 2.354000000000000E10   -3.083449555560947E-3   2.669889945536852E-3  
 2.356000000000000E10    2.875067992135882E-3   2.982360776513815E-3  
 2.358000000000000E10    2.401998499408364E-3  -3.411537734791637E-3  
 2.360000000000000E10   -3.698528045788407E-3  -1.663982751779258E-3  
 2.362000000000000E10   -1.142628258094192E-3   3.533114679157734E-3  
 2.364000000000000E10    3.779462072998285E-3   4.480383358895779E-4  
 2.366000000000000E10    2.762942167464644E-4  -3.798677353188396E-3  
 2.368000000000000E10   -3.805687185376883E-3   6.148138199932873E-4  
 2.370000000000000E10    1.123157329857349E-3   3.629965241998434E-3  
 2.372000000000000E10    3.780003171414137E-3  -1.494733034633100E-3  
 2.374000000000000E10   -2.231882652267814E-3  -3.155840327963233E-3  
 2.376000000000000E10   -2.182684140279889E-3   3.338361158967018E-3  
 2.378000000000000E10    2.782329218462110E-3   2.221114467829466E-3  
 2.380000000000000E10    1.789971836842597E-3  -2.948094159364700E-3  
 2.382000000000000E10   -2.914719982072711E-3  -1.442256383597851E-3  
 2.384000000000000E10   -8.129019406624138E-4   2.961802063509822E-3  
 2.386000000000000E10    3.237082157284021E-3   1.010174863040447E-3  
 2.388000000000000E10    5.367704434320331E-4  -3.300762968137860E-3  
 2.390000000000000E10   -3.433463862165809E-3   4.881523636868224E-5  
 2.392000000000000E10    5.209941300563514E-4   2.978138392791152E-3  
 2.394000000000000E10    2.810623496770859E-3  -8.139507845044136E-4  
 2.396000000000000E10   -9.139049798250198E-4  -2.802045084536076E-3  
 2.398000000000000E10   -2.200156217440963E-3   1.666922704316676E-3  
 2.400000000000000E10    1.683353446424007E-3   2.048310358077288E-3  
 2.402000000000000E10    1.456353231333196E-3  -2.332971198484302E-3  
 2.404000000000000E10   -2.012921264395118E-3  -1.141140935942531E-3  
 2.406000000000000E10   -7.829210953786969E-4   2.009169664233923E-3  
 2.408000000000000E10    2.339472528547049E-3   4.539239453151822E-4  
 2.410000000000000E10    1.900081042549573E-5  -2.124163554981351E-3  
 2.412000000000000E10   -2.109614666551352E-3   2.821841626428068E-4  
 2.414000000000000E10    3.965432988479734E-4   1.619153073988855E-3  
 2.416000000000000E10    1.846597879193723E-3  -8.039643289521337E-4  
 2.418000000000000E10   -7.783740875311196E-4  -1.809868961572647E-3  
 2.420000000000000E10   -1.877678208984435E-3   9.519719751551747E-4  
 2.422000000000000E10    1.136258710175753E-3   1.685784780420363E-3  
 2.424000000000000E10    1.509459805674851E-3  -1.498899771831930E-3  
 2.426000000000000E10   -1.605189405381680E-3  -1.674825674854219E-3  
 2.428000000000000E10   -1.135234721004963E-3   1.648619654588401E-3  
 2.430000000000000E10    1.835879753343761E-3   1.144718728028238E-3  
 2.432000000000000E10    8.819781360216439E-4  -1.805033418349922E-3  
 2.434000000000000E10   -1.908610924147070E-3  -8.919684914872050E-4  
 2.436000000000000E10   -3.676862979773432E-4   1.666011521592736E-3  
 2.438000000000000E10    1.376045751385391E-3   2.158819261239842E-4  
 2.440000000000000E10    4.540336667560041E-4  -1.781541039235890E-3  
 2.442000000000000E10   -1.863753772340715E-3  -2.813445462379605E-4  
 2.444000000000000E10    1.479381899116561E-4   1.592317014001310E-3  
 2.446000000000000E10    1.527370768599212E-3   3.052461834158748E-4  
 2.448000000000000E10   -1.376625586999580E-4  -1.688657910563052E-3  
 2.450000000000000E10   -1.446947455406189E-3   2.523512812331319E-4  
 2.452000000000000E10    3.817076794803143E-4   1.447244081646204E-3  
 2.454000000000000E10    1.286123064346612E-3  -2.849756856448948E-4  
 2.456000000000000E10   -6.665959954261780E-4  -1.303501427173615E-3  
 2.458000000000000E10   -1.044799224473536E-3   8.513288339599967E-4  
 2.460000000000000E10    5.273264832794666E-4   1.031812280416489E-3  
 2.462000000000000E10    6.451562512665987E-4  -6.019180291332305E-4  
 2.464000000000000E10   -7.138255750760436E-4  -6.069521186873317E-4  
 2.466000000000000E10   -6.843302398920059E-4   5.625626072287560E-4  
 2.468000000000000E10    5.404762341640890E-4   2.919858670793474E-4  
 2.470000000000000E10    3.528913948684931E-4  -8.766271057538688E-4  
 2.472000000000000E10   -7.316461997106671E-4  -7.814753917045891E-5  
 2.474000000000000E10   -3.487887079245411E-5   6.962137413211167E-4  
 2.476000000000000E10    9.169124532490969E-4  -1.549721346236765E-4  
 2.478000000000000E10   -2.852288598660380E-4  -9.030975052155554E-4  
 2.480000000000000E10   -1.069444115273655E-3   2.037225931417197E-4  
 2.482000000000000E10    6.279443041421473E-4   5.331241991370916E-4  
 2.484000000000000E10    8.468737942166627E-4  -8.106316090561450E-4  
 2.486000000000000E10   -1.123487949371338E-3  -1.049502519890666E-3  
 2.488000000000000E10   -7.799962186254561E-4   9.974081767722964E-4  
 2.490000000000000E10    8.924053399823606E-4   8.716777665540576E-4  
 2.492000000000000E10    6.595315062440932E-4  -9.579806355759502E-4  
 2.494000000000000E10   -1.244049635715783E-3  -8.163261809386313E-4  
 2.496000000000000E10   -8.439423982053995E-4   1.086830394342542E-3  
 2.498000000000000E10    1.052624662406743E-3   5.673916311934590E-4  
 2.500000000000000E10    7.427934906445444E-4  -1.235932344570756E-3  
 2.502000000000000E10   -1.498520141467452E-3  -5.619169678539038E-4  
 2.504000000000000E10   -6.066584028303623E-4   1.543488004244864E-3  
 2.506000000000000E10    1.560989883728325E-3   4.259905836079270E-4  
 2.508000000000000E10    1.472738367738202E-4  -1.547829830087721E-3  
 2.510000000000000E10   -1.625293400138617E-3  -1.772754767443985E-4  
 2.512000000000000E10   -2.582344859547447E-5   1.153812627308071E-3  
 2.514000000000000E10    1.140533015131950E-3  -9.088347724173218E-5  
 2.516000000000000E10   -1.459037448512390E-4  -1.195112592540681E-3  
 2.518000000000000E10   -1.207586028613150E-3   1.002796852844767E-4  
 2.520000000000000E10    6.243064999580383E-4   1.120391301810741E-3  
 2.522000000000000E10    1.069472986273468E-3  -4.384156782180071E-4  
 2.524000000000000E10   -6.454992108047009E-4  -7.257075631059706E-4  
 2.526000000000000E10   -9.695218759588897E-4   4.299801366869360E-4  
 2.528000000000000E10    4.385784559417516E-4   7.324264734052122E-4  
 2.530000000000000E10    7.543058600276709E-4  -7.024502847343683E-4  
 2.532000000000000E10   -8.442544494755566E-4  -6.691189482808113E-4  
 2.534000000000000E10   -2.357558842049912E-4   1.195504213683307E-3  
 2.536000000000000E10    1.068404992111027E-3   4.909306881017983E-5  
 2.538000000000000E10   -5.866891297046095E-5  -1.248301821760833E-3  
 2.540000000000000E10   -1.370778074488044E-3   3.285929851699621E-4  
 2.542000000000000E10    7.872301503084600E-4   1.150838099420071E-3  
 2.544000000000000E10    8.835897315293551E-4  -5.763705703429878E-4  
 2.546000000000000E10   -1.050172257237136E-3  -1.050314283929765E-3  
 2.548000000000000E10   -9.017757256515324E-4   1.276094117201865E-3  
 2.550000000000000E10    1.219925587065518E-3   7.915901951491833E-4  
 2.552000000000000E10    8.986485772766173E-4  -1.467575202696025E-3  
 2.554000000000000E10   -1.159741543233395E-3  -7.895787712186575E-4  
 2.556000000000000E10   -4.049955750815570E-4   1.635940861888230E-3  
 2.558000000000000E10    1.384239760227501E-3   6.674946052953601E-4  
 2.560000000000000E10    3.159037441946566E-4  -1.590112573467195E-3  
 2.562000000000000E10   -1.601182506419718E-3  -1.988762087421492E-4  
 2.564000000000000E10   -1.769467344274744E-4   1.705302973277867E-3  
 2.566000000000000E10    2.006746828556061E-3  -2.419101219857112E-4  
 2.568000000000000E10   -3.421367728151381E-4  -1.736031263135374E-3  
 2.570000000000000E10   -1.763887004926801E-3   7.347159553319216E-4  
 2.572000000000000E10    9.634487796574831E-4   1.652982784435153E-3  
 2.574000000000000E10    1.224288949742913E-3  -1.090810634195805E-3  
 2.576000000000000E10   -9.754761122167110E-4  -1.499305828474462E-3  
 2.578000000000000E10   -1.206288114190102E-3   1.261997967958450E-3  
 2.580000000000000E10    1.338308560661972E-3   8.641887689009309E-4  
 2.582000000000000E10    3.475638804957271E-4  -1.580208190716803E-3  
 2.584000000000000E10   -1.633155858144164E-3  -6.889247451908886E-4  
 2.586000000000000E10   -5.001358804292977E-4   1.441335538402200E-3  
 2.588000000000000E10    1.751362113282085E-3   4.384763888083398E-4  
 2.590000000000000E10    1.414835860487074E-4  -1.594867440871894E-3  
 2.592000000000000E10   -1.790282549336553E-3   4.539981091511436E-5  
 2.594000000000000E10    2.416822244413197E-4   1.907418132759631E-3  
 2.596000000000000E10    1.764591201208532E-3  -7.261799182742834E-4  
 2.598000000000000E10   -9.699238580651581E-4  -1.864846562966704E-3  
 2.600000000000000E10   -1.672682585194707E-3   1.056635519489646E-3  
 2.602000000000000E10    1.416187151335180E-3   1.242458238266408E-3  
 2.604000000000000E10    8.975095697678626E-4  -1.472255797125399E-3  
 2.606000000000000E10   -1.505435444414616E-3  -8.495885995216668E-4  
 2.608000000000000E10   -8.734226576052606E-4   1.796186435967684E-3  
 2.610000000000000E10    2.031146315857768E-3   8.409661822952330E-4  
 2.612000000000000E10    2.803436073008925E-4  -2.088128821924329E-3  
 2.614000000000000E10   -2.203597221523523E-3  -1.488459820393473E-4  
 2.616000000000000E10   -5.469293228088645E-6   2.435933565720916E-3  
 2.618000000000000E10    2.454300876706839E-3  -4.415742878336459E-4  
 2.620000000000000E10   -9.248722926713526E-4  -2.525983378291130E-3  
 2.622000000000000E10   -2.469554543495178E-3   8.091960335150361E-4  
 2.624000000000000E10    1.177431084215641E-3   2.593684475868940E-3  
 2.626000000000000E10    1.918358611874282E-3  -1.910106977447867E-3  
 2.628000000000000E10   -2.081983955577016E-3  -2.020616084337235E-3  
 2.630000000000000E10   -2.011535223573446E-3   2.314717043191195E-3  
 2.632000000000000E10    2.613962395116687E-3   1.149838906712830E-3  
 2.634000000000000E10    7.388242520391941E-4  -2.446903614327312E-3  
 2.636000000000000E10   -2.213969593867660E-3  -4.560343222692609E-4  
 2.638000000000000E10   -6.044415640644729E-4   2.256017411127687E-3  
 2.640000000000000E10    2.577601000666618E-3   6.311843753792346E-5  
 2.642000000000000E10   -3.651761508081108E-4  -2.309916308149695E-3  
 2.644000000000000E10   -2.168020699173212E-3   2.922709973063320E-4  
 2.646000000000000E10    8.206221973523498E-4   2.471305662766099E-3  
 2.648000000000000E10    2.402694197371602E-3  -1.348989433608949E-3  
 2.650000000000000E10   -1.628934405744076E-3  -2.244330244138837E-3  
 2.652000000000000E10   -1.647254335694015E-3   1.836655428633094E-3  
 2.654000000000000E10    2.261563669890165E-3   1.252843067049980E-3  
 2.656000000000000E10    1.159282634034753E-3  -2.468267921358347E-3  
 2.658000000000000E10   -2.476993715390563E-3  -3.164724330417812E-4  
 2.660000000000000E10   -2.749124250840396E-4   2.413581823930144E-3  
 2.662000000000000E10    2.402876503765583E-3  -3.029126310138963E-5  
 2.664000000000000E10   -3.524275962263346E-4  -1.999947242438793E-3  
 2.666000000000000E10   -1.825000392273068E-3   5.726233939640224E-4  
 2.668000000000000E10    9.974172571673989E-4   1.997367013245821E-3  
 2.670000000000000E10    1.811731373891234E-3  -1.003366545774043E-3  
 2.672000000000000E10   -1.025016070343554E-3  -1.586759462952614E-3  
 2.674000000000000E10   -1.346570323221386E-3   1.325916615314782E-3  
 2.676000000000000E10    1.747643807902932E-3   1.581734512001276E-3  
 2.678000000000000E10    1.107595977373421E-3  -1.709494157694280E-3  
 2.680000000000000E10   -1.767934183590114E-3  -1.070414669811726E-3  
 2.682000000000000E10   -8.788635605014861E-4   1.939470297656953E-3  
 2.684000000000000E10    1.848151092417538E-3   7.423247443512082E-4  
 2.686000000000000E10    4.873361613135785E-4  -1.884907833300531E-3  
 2.688000000000000E10   -1.930127269588411E-3  -1.809215318644419E-4  
 2.690000000000000E10    3.510271926643327E-5   2.150470623746514E-3  
 2.692000000000000E10    2.087440807372332E-3  -2.190160303143784E-4  
 2.694000000000000E10   -3.800202102866024E-4  -2.004856010898948E-3  
 2.696000000000000E10   -1.770484144799411E-3   6.296237697824836E-4  
 2.698000000000000E10    8.912759949453175E-4   1.716083032079041E-3  
 2.700000000000000E10    1.445474219508469E-3  -1.006435602903366E-3  
 2.702000000000000E10   -1.209442270919681E-3  -1.435028971172869E-3  
 2.704000000000000E10   -1.233648043125868E-3   1.301193493418396E-3  
 2.706000000000000E10    1.383312977850437E-3   1.198639511130750E-3  
 2.708000000000000E10    8.112840587273240E-4  -1.547283725813031E-3  
 2.710000000000000E10   -1.526910346001387E-3  -8.765687816776335E-4  
 2.712000000000000E10   -2.363512321608141E-4   1.580887706950307E-3  
 2.714000000000000E10    1.466597313992679E-3   1.370608806610107E-4  
 2.716000000000000E10   -1.186285044241231E-5  -1.388717791996896E-3  
 2.718000000000000E10   -1.191536895930767E-3   2.599516592454165E-4  
 2.720000000000000E10    3.751506737899035E-4   1.313767628744245E-3  
 2.722000000000000E10    1.218991936184466E-3  -7.278364500962198E-4  
 2.724000000000000E10   -6.181260105222464E-4  -1.125359791330993E-3  
 2.726000000000000E10   -9.458662243559957E-4   5.895340000279248E-4  
 2.728000000000000E10    9.254200267605484E-4   8.523651631549001E-4  
 2.730000000000000E10    8.645929628983140E-4  -1.027155667543411E-3  
 2.732000000000000E10   -1.086944248527288E-3  -6.805159500800073E-4  
 2.734000000000000E10   -6.506766076199710E-4   1.126905437558889E-3  
 2.736000000000000E10    1.640959293581545E-3   3.797230310738087E-4  
 2.738000000000000E10    4.574001941364259E-4  -1.344964024610817E-3  
 2.740000000000000E10   -1.327986945398152E-3  -3.754575736820698E-4  
 2.742000000000000E10   -2.385516418144107E-4   1.384684350341559E-3  
 2.744000000000000E10    1.469809212721884E-3  -5.093763684271835E-5  
 2.746000000000000E10   -3.257023490732536E-5  -1.591379404999316E-3  
 2.748000000000000E10   -1.132420729845762E-3   3.548884415067732E-4  
 2.750000000000000E10    1.935793989105150E-4   1.389976940117776E-3  
 2.752000000000000E10    1.167820882983506E-3  -5.160393775440753E-4  
 2.754000000000000E10   -3.850253997370601E-4  -1.189347356557846E-3  
 2.756000000000000E10   -1.082757138647139E-3   6.590107805095613E-4  
