#  HZ   S   RI   R     50.00 
! Rohde & Schwarz ZVA40 4Ports - Version 3.90 - 1145.1110k42 SN: 100403
! Date: 2023-10-04 07:45:48
! Measurement: S12 
! 
 2.200000000000000E10    1.598702045157552E-3   7.070924038998783E-4  
 2.202000000000000E10    7.200246327556670E-4  -1.264126505702734E-3  
 2.204000000000000E10   -1.515611773356795E-3  -5.841348902322352E-4  
 2.206000000000000E10   -3.769303148146719E-4   1.419967156834900E-3  
 2.208000000000000E10    1.485418411903083E-3   1.941283262567595E-4  
 2.210000000000000E10    9.321807738160715E-5  -1.645501353777945E-3  
 2.212000000000000E10   -1.717483159154654E-3   1.729427895043045E-4  
 2.214000000000000E10    2.093547373078764E-4   1.709686475805938E-3  
 2.216000000000000E10    1.788111054338515E-3  -5.181009764783084E-4  
 2.218000000000000E10   -4.685037129092962E-4  -1.752070034854114E-3  
 2.220000000000000E10   -1.721888664178550E-3   7.152347243390977E-4  
 2.222000000000000E10    1.068960293196142E-3   1.578975934535265E-3  
 2.224000000000000E10    1.412011566571891E-3  -1.232609502039850E-3  
 2.226000000000000E10   -1.143830944783986E-3  -1.313730259425938E-3  
 2.228000000000000E10   -1.110692159272730E-3   1.376375672407448E-3  
 2.230000000000000E10    1.086582778953016E-3   1.175117213279009E-3  
 2.232000000000000E10    1.140315202064812E-3  -1.231474219821394E-3  
 2.234000000000000E10   -1.732678967528045E-3  -8.304707007482648E-4  
 2.236000000000000E10   -1.142755150794983E-3   1.768115209415555E-3  
 2.238000000000000E10    1.745623885653913E-3   5.970550701022148E-4  
 2.240000000000000E10    3.921988827642053E-4  -1.945128082297742E-3  
 2.242000000000000E10   -1.895697670988739E-3  -2.089086483465508E-4  
 2.244000000000000E10   -3.532657283358276E-4   1.793049392290413E-3  
 2.246000000000000E10    1.617041998542845E-3  -5.700100518879481E-5  
 2.248000000000000E10   -5.465059075504541E-4  -2.194061176851392E-3  
 2.250000000000000E10   -2.041642554104328E-3   4.762400349136442E-4  
 2.252000000000000E10    1.196510274894536E-3   1.617073197849095E-3  
 2.254000000000000E10    1.545787788927555E-3  -1.556282513774931E-3  
 2.256000000000000E10   -1.943679526448250E-3  -1.372151775285602E-3  
 2.258000000000000E10   -9.399792179465294E-4   1.960512483492494E-3  
 2.260000000000000E10    1.793449511751533E-3   3.963509225286543E-4  
 2.262000000000000E10    5.237821023911238E-4  -2.363334875553846E-3  
 2.264000000000000E10   -1.899309689179063E-3  -6.552662816829979E-4  
 2.266000000000000E10   -1.864371588453651E-4   2.075884956866503E-3  
 2.268000000000000E10    2.380357589572668E-3   3.639117057900876E-4  
 2.270000000000000E10   -3.616801986936480E-4  -2.605925546959043E-3  
 2.272000000000000E10   -2.280232729390264E-3   6.218227790668607E-4  
 2.274000000000000E10    1.076599932275713E-3   2.105623949319124E-3  
 2.276000000000000E10    2.218771958723664E-3  -9.220929350703955E-4  
 2.278000000000000E10   -1.482757390476763E-3  -1.926415716297925E-3  
 2.280000000000000E10   -1.734866644255817E-3   1.233711838722229E-3  
 2.282000000000000E10    2.521441201679409E-4   2.057927194982767E-3  
 2.284000000000000E10    1.830976456403732E-3  -1.617501373402774E-3  
 2.286000000000000E10   -1.986606977880001E-3  -1.127255847677589E-3  
 2.288000000000000E10   -9.606913081370294E-4   2.238121116533876E-3  
 2.290000000000000E10    2.078297547996044E-3   8.372099837288261E-4  
 2.292000000000000E10    3.076223656535149E-4  -2.449891064316034E-3  
 2.294000000000000E10   -1.973659498617053E-3  -2.918394457083195E-4  
 2.296000000000000E10   -4.578527659759857E-5   2.225274685770273E-3  
 2.298000000000000E10    2.343259518966079E-3  -6.056093843653798E-5  
 2.300000000000000E10   -4.222791467327625E-4  -2.455092500895262E-3  
 2.302000000000000E10   -2.573756966739893E-3   8.347465191036463E-4  
 2.304000000000000E10    1.185266650281847E-3   2.150739077478647E-3  
 2.306000000000000E10    2.314259530976415E-3  -1.724903704598546E-3  
 2.308000000000000E10   -1.811988069675863E-3  -1.777617726475000E-3  
 2.310000000000000E10   -1.541311037726700E-3   2.099689561873674E-3  
 2.312000000000000E10    2.183853881433606E-3   1.265395898371935E-3  
 2.314000000000000E10    1.119321794249117E-3  -2.638214966282249E-3  
 2.316000000000000E10   -2.429202897474170E-3  -8.721308549866080E-4  
 2.318000000000000E10   -8.567166514694691E-5   2.939591882750392E-3  
 2.320000000000000E10    2.717636525630951E-3  -1.656474923947826E-4  
 2.322000000000000E10   -1.048427773639560E-3  -2.612322336062789E-3  
 2.324000000000000E10   -2.609008923172951E-3   9.390373015776277E-4  
 2.326000000000000E10    1.455534482374787E-3   2.154772868379951E-3  
 2.328000000000000E10    2.278306521475315E-3  -1.815579831600189E-3  
 2.330000000000000E10   -1.932490849867463E-3  -1.659532077610493E-3  
 2.332000000000000E10   -1.426829490810633E-3   2.455846406519413E-3  
 2.334000000000000E10    2.295698272064328E-3   1.298198942095041E-3  
 2.336000000000000E10    1.194785698316991E-3  -2.813984639942646E-3  
 2.338000000000000E10   -2.939296653494239E-3  -7.493289886042476E-4  
 2.340000000000000E10    2.133225352736190E-4   3.094261977821589E-3  
 2.342000000000000E10    3.141067689284682E-3  -2.437821531202644E-4  
 2.344000000000000E10   -1.194010023027659E-3  -3.004663158208132E-3  
 2.346000000000000E10   -2.885142108425498E-3   1.064034644514322E-3  
 2.348000000000000E10    1.574422232806683E-3   2.277821768075228E-3  
 2.350000000000000E10    2.652948489412665E-3  -1.819822355173528E-3  
 2.352000000000000E10   -2.143260091543198E-3  -1.928991987369955E-3  
 2.354000000000000E10   -1.988661708310247E-3   2.560093533247709E-3  
 2.356000000000000E10    2.363367239013314E-3   1.160987420007587E-3  
 2.358000000000000E10    1.021599513478577E-3  -2.714538248255849E-3  
 2.360000000000000E10   -2.499694237485528E-3  -5.067656747996807E-4  
 2.362000000000000E10   -6.317137012956664E-5   2.168309409171343E-3  
 2.364000000000000E10    2.534797182306647E-3  -1.055145403370261E-4  
 2.366000000000000E10   -5.667447694577277E-4  -2.198123605921865E-3  
 2.368000000000000E10   -2.321222331374884E-3   9.804359870031476E-4  
 2.370000000000000E10    1.247495296411216E-3   1.905880868434906E-3  
 2.372000000000000E10    1.633526291698217E-3  -1.702538225799799E-3  
 2.374000000000000E10   -1.804270432330668E-3  -1.105922623537481E-3  
 2.376000000000000E10   -1.134992344304919E-3   2.116551157087088E-3  
 2.378000000000000E10    1.644775504246354E-3   3.533827548380941E-4  
 2.380000000000000E10    5.246453220024705E-4  -2.195939887315035E-3  
 2.382000000000000E10   -2.045334083959460E-3  -2.380521182203665E-4  
 2.384000000000000E10    2.110924397129566E-4   2.211450599133968E-3  
 2.386000000000000E10    1.827655942179263E-3  -6.570684490725398E-5  
 2.388000000000000E10   -6.634584860876203E-4  -2.170993480831385E-3  
 2.390000000000000E10   -1.927734585478902E-3   6.282833637669683E-4  
 2.392000000000000E10    8.574893581680954E-4   1.510709407739341E-3  
 2.394000000000000E10    1.606917125172913E-3  -1.066598226316273E-3  
 2.396000000000000E10   -1.061809132806957E-3  -1.540257362648845E-3  
 2.398000000000000E10   -1.445200061425567E-3   1.465103123337030E-3  
 2.400000000000000E10    9.798584505915642E-4   1.163991633802652E-3  
 2.402000000000000E10    1.034356537275016E-3  -1.199942314997315E-3  
 2.404000000000000E10   -1.400479697622359E-3  -4.581380635499954E-4  
 2.406000000000000E10   -2.969990600831807E-4   1.259452779777348E-3  
 2.408000000000000E10    1.313632004894316E-3   4.779183946084231E-4  
 2.410000000000000E10    4.896961036138237E-5  -1.615401357412338E-3  
 2.412000000000000E10   -1.544794184155762E-3   2.135626418748871E-4  
 2.414000000000000E10    1.064792813849635E-4   1.184214488603175E-3  
 2.416000000000000E10    1.332096057012677E-3  -1.225951709784567E-4  
 2.418000000000000E10   -3.460167790763080E-4  -1.404286245815456E-3  
 2.420000000000000E10   -1.042682211846113E-3   4.710963985417038E-4  
 2.422000000000000E10    6.163667421787977E-4   1.137070357799530E-3  
 2.424000000000000E10    7.306395564228296E-4  -4.842365451622754E-4  
 2.426000000000000E10   -6.502238684333861E-4  -7.483887020498514E-4  
 2.428000000000000E10   -3.187353140674532E-4   8.619943400844932E-4  
 2.430000000000000E10    7.412876584567130E-4   5.494058714248240E-4  
 2.432000000000000E10    3.183283552061766E-4  -7.513362797908485E-4  
 2.434000000000000E10   -7.711545331403613E-4  -5.083727301098406E-4  
 2.436000000000000E10   -9.277432400267571E-5   6.169361295178533E-4  
 2.438000000000000E10    7.889124681241810E-4   2.823476970661432E-4  
 2.440000000000000E10   -5.023449193686247E-4  -1.029745908454061E-3  
 2.442000000000000E10   -9.349829051643610E-4   3.883221070282161E-4  
 2.444000000000000E10    1.617999951122329E-4   6.072452524676919E-4  
 2.446000000000000E10    6.722114630974829E-4  -4.662745632231236E-4  
 2.448000000000000E10   -3.663989773485810E-4  -5.806849221698940E-4  
 2.450000000000000E10   -7.388563244603574E-4   5.742914509028196E-4  
 2.452000000000000E10    5.125643801875413E-4   4.471721476875246E-4  
 2.454000000000000E10    5.119956331327558E-4  -5.712689016945660E-4  
 2.456000000000000E10   -6.809738697484136E-4  -6.896049599163234E-4  
 2.458000000000000E10   -5.134713719598949E-4   6.785934674553573E-4  
 2.460000000000000E10    4.994301125407219E-4   6.162379868328571E-4  
 2.462000000000000E10    6.904873880557716E-4  -7.045210804790258E-4  
 2.464000000000000E10   -5.684635834768415E-4  -5.835262127220631E-4  
 2.466000000000000E10   -5.392021848820150E-4   6.744664860889316E-4  
 2.468000000000000E10    6.928233196958900E-4   6.389520131051540E-4  
 2.470000000000000E10    4.480101924855262E-4  -8.455155766569078E-4  
 2.472000000000000E10   -7.710887002758682E-4  -5.056989612057805E-4  
 2.474000000000000E10   -5.644686752930284E-4   7.729833596386015E-4  
 2.476000000000000E10    9.719395311549306E-4   2.699935284908861E-4  
 2.478000000000000E10    1.377408771077171E-4  -1.264984020963311E-3  
 2.480000000000000E10   -8.768373518250883E-4  -1.090383375412785E-4  
 2.482000000000000E10    3.377140819793567E-5   7.799530867487192E-4  
 2.484000000000000E10    8.280623587779701E-4  -2.238532615592703E-4  
 2.486000000000000E10   -3.336136578582227E-4  -7.842157501727343E-4  
 2.488000000000000E10   -7.556172204203904E-4   1.044735035975464E-4  
 2.490000000000000E10    1.195670993183740E-4   6.895210244692862E-4  
 2.492000000000000E10    6.508779479190707E-4  -2.255124272778630E-4  
 2.494000000000000E10   -2.980006684083492E-4  -5.970158963464201E-4  
 2.496000000000000E10   -5.191008676774800E-4   5.156219704076648E-4  
 2.498000000000000E10    4.460790951270610E-4   3.940679016523063E-4  
 2.500000000000000E10    1.415765727870166E-4  -4.448097024578601E-4  
 2.502000000000000E10   -3.641603398136795E-4  -3.565315273590386E-4  
 2.504000000000000E10   -2.203901822213084E-4   6.768066086806357E-4  
 2.506000000000000E10    5.268856184557080E-4   8.821513620205224E-5  
 2.508000000000000E10   -2.492573694325984E-4  -6.639907369390130E-4  
 2.510000000000000E10   -6.663120584562421E-4   2.365565742366016E-4  
 2.512000000000000E10    5.017450894229114E-4   4.988571745343506E-4  
 2.514000000000000E10    5.908510065637529E-4  -4.319059662520886E-4  
 2.516000000000000E10   -4.150726599618793E-4  -4.540213558357209E-4  
 2.518000000000000E10   -5.715487059205771E-4   6.563175702467561E-4  
 2.520000000000000E10    6.865413743071258E-4   5.232625990174711E-4  
 2.522000000000000E10    4.923868109472096E-4  -6.702831597067416E-4  
 2.524000000000000E10   -6.877040723338723E-4  -5.959760164842010E-4  
 2.526000000000000E10   -8.438716176897287E-4   6.948165246285498E-4  
 2.528000000000000E10    8.800936629995704E-4   1.556038769194856E-4  
 2.530000000000000E10    5.205697380006313E-4  -8.755528251640499E-4  
 2.532000000000000E10   -9.975674329325557E-4  -3.217632474843413E-4  
 2.534000000000000E10   -4.769138176925480E-4   8.474104106426239E-4  
 2.536000000000000E10    1.033552340231836E-3   3.696165222208947E-4  
 2.538000000000000E10    8.137535769492388E-5  -1.144051668234170E-3  
 2.540000000000000E10   -1.135037629865110E-3  -2.520442649256438E-4  
 2.542000000000000E10    8.938036626204848E-5   1.176931662485004E-3  
 2.544000000000000E10    7.676351233385503E-4  -2.674414718057960E-4  
 2.546000000000000E10   -4.062936350237578E-4  -1.008462393656373E-3  
 2.548000000000000E10   -1.146370079368353E-3   5.087994504719973E-4  
 2.550000000000000E10    7.325548795051873E-4   8.293133578263223E-4  
 2.552000000000000E10    7.509018178097904E-4  -7.692814688198268E-4  
 2.554000000000000E10   -8.078450919128954E-4  -6.634044693782926E-4  
 2.556000000000000E10   -8.150363573804498E-4   9.476522100158036E-4  
 2.558000000000000E10    9.474579128436744E-4   3.804582520388067E-4  
 2.560000000000000E10    3.647749545052648E-4  -9.901865851134062E-4  
 2.562000000000000E10   -1.013074885122478E-3  -3.249394358135760E-4  
 2.564000000000000E10   -1.160058600362390E-4   1.142707187682390E-3  
 2.566000000000000E10    1.287893741391599E-3   6.495568413811270E-6  
 2.568000000000000E10   -2.976608811877668E-4  -1.347096520476043E-3  
 2.570000000000000E10   -1.562770805321634E-3   6.491666426882148E-4  
 2.572000000000000E10    6.376475794240832E-4   1.454505370929837E-3  
 2.574000000000000E10    1.036733272485435E-3  -1.057259272783995E-3  
 2.576000000000000E10   -1.044921460561454E-3  -1.296014059334993E-3  
 2.578000000000000E10   -9.479852742515504E-4   1.712824101559818E-3  
 2.580000000000000E10    1.491631963290274E-3   5.969151970930398E-4  
 2.582000000000000E10    3.177029720973223E-4  -1.545183942653239E-3  
 2.584000000000000E10   -1.695411396212876E-3  -4.858117026742548E-4  
 2.586000000000000E10   -1.233951770700514E-4   1.620580442249775E-3  
 2.588000000000000E10    1.734844408929348E-3   4.470769490581006E-4  
 2.590000000000000E10    3.467285932856612E-5  -1.790252979844809E-3  
 2.592000000000000E10   -1.889187609776855E-3  -2.740942545642611E-5  
 2.594000000000000E10    5.547560867853463E-4   1.861830591224134E-3  
 2.596000000000000E10    2.035219222307205E-3  -4.573500191327184E-4  
 2.598000000000000E10   -6.114117568358779E-4  -1.760565792210400E-3  
 2.600000000000000E10   -1.705313101410866E-3   8.816560730338097E-4  
 2.602000000000000E10    1.032184227369726E-3   1.284678815864027E-3  
 2.604000000000000E10    1.242356607690454E-3  -1.307338243350387E-3  
 2.606000000000000E10   -1.469871960580349E-3  -1.091768732294440E-3  
 2.608000000000000E10   -9.027575724758208E-4   1.558872638270259E-3  
 2.610000000000000E10    1.332183019258082E-3   6.862347945570946E-4  
 2.612000000000000E10    6.627134862355888E-4  -1.488423207774758E-3  
 2.614000000000000E10   -1.660158392041922E-3  -2.290706179337576E-4  
 2.616000000000000E10    3.122394264210016E-5   1.976790139451623E-3  
 2.618000000000000E10    1.996313221752644E-3   1.216408127220348E-4  
 2.620000000000000E10   -4.017899627797306E-4  -2.008011331781745E-3  
 2.622000000000000E10   -1.713761594146490E-3   6.437830161303282E-4  
 2.624000000000000E10    9.504311601631343E-4   1.969208009541035E-3  
 2.626000000000000E10    1.865152386017144E-3  -1.496627344749868E-3  
 2.628000000000000E10   -1.674090512096882E-3  -1.747977803461254E-3  
 2.630000000000000E10   -1.812143367715180E-3   2.002676716074348E-3  
 2.632000000000000E10    2.451463369652629E-3   1.300083822570741E-3  
 2.634000000000000E10    9.286535205319524E-4  -2.215115120634437E-3  
 2.636000000000000E10   -2.385904081165791E-3  -8.728011162020266E-4  
 2.638000000000000E10   -6.063411128707230E-4   2.287173410877585E-3  
 2.640000000000000E10    2.687542699277401E-3   2.426283172098920E-4  
 2.642000000000000E10   -2.064121690636966E-5  -2.467412268742919E-3  
 2.644000000000000E10   -2.394273877143860E-3   2.842986723408103E-4  
 2.646000000000000E10    7.528105052188039E-4   2.710048109292984E-3  
 2.648000000000000E10    2.593975281342864E-3  -1.126509858295322E-3  
 2.650000000000000E10   -1.482939696870744E-3  -2.406447660177946E-3  
 2.652000000000000E10   -1.967246877029538E-3   1.720272586680949E-3  
 2.654000000000000E10    1.765985740348697E-3   1.939934561960399E-3  
 2.656000000000000E10    1.336688408628106E-3  -2.120500896126032E-3  
 2.658000000000000E10   -2.442114055156708E-3  -1.062390161678195E-3  
 2.660000000000000E10   -6.699021323584020E-4   2.362830564379692E-3  
 2.662000000000000E10    2.249302808195353E-3   4.085013351868838E-4  
 2.664000000000000E10   -3.859620846924372E-5  -2.166921272873879E-3  
 2.666000000000000E10   -2.083208179101348E-3   2.921410487033427E-4  
 2.668000000000000E10    5.849704029969871E-4   1.947574317455292E-3  
 2.670000000000000E10    1.940241316333413E-3  -7.510281866416335E-4  
 2.672000000000000E10   -9.636352770030499E-4  -1.882317708805203E-3  
 2.674000000000000E10   -1.384348608553410E-3   9.731692261993885E-4  
 2.676000000000000E10    1.267019775696099E-3   1.392289297655225E-3  
 2.678000000000000E10    1.525141415186226E-3  -1.786584383808076E-3  
 2.680000000000000E10   -1.761362189427018E-3  -9.643902303650975E-4  
 2.682000000000000E10   -7.355855195783079E-4   2.006472786888480E-3  
 2.684000000000000E10    1.785248517990112E-3   3.483254986349493E-4  
 2.686000000000000E10    1.545543491374701E-4  -1.786955166608095E-3  
 2.688000000000000E10   -1.787514076568186E-3   1.462184882257134E-4  
 2.690000000000000E10    2.673775306902826E-4   1.736560952849686E-3  
 2.692000000000000E10    1.837593037635088E-3  -2.965923922602087E-4  
 2.694000000000000E10   -6.493070395663381E-4  -1.503307721577585E-3  
 2.696000000000000E10   -1.423814101144671E-3   1.029412145726383E-3  
 2.698000000000000E10    8.533734944649041E-4   1.207576948218048E-3  
 2.700000000000000E10    1.254792907275260E-3  -1.099902903661132E-3  
 2.702000000000000E10   -1.499689882621169E-3  -9.561856277287006E-4  
 2.704000000000000E10   -9.906864725053310E-4   1.089800265617669E-3  
 2.706000000000000E10    1.438737148419023E-3   1.025906763970852E-3  
 2.708000000000000E10    6.436246330849826E-4  -1.701841247268021E-3  
 2.710000000000000E10   -1.598200178705156E-3  -7.353837718255818E-4  
 2.712000000000000E10   -3.953532432205975E-4   1.681954599916935E-3  
 2.714000000000000E10    1.704039867036045E-3   2.831067831721157E-4  
 2.716000000000000E10   -4.636520316125825E-5  -1.589895342476666E-3  
 2.718000000000000E10   -1.895371126011014E-3  -2.787906123558059E-5  
 2.720000000000000E10    3.223938692826778E-4   1.689923694357276E-3  
 2.722000000000000E10    1.718810992315412E-3  -1.986518327612430E-4  
 2.724000000000000E10   -5.396002670750022E-4  -1.351536368019879E-3  
 2.726000000000000E10   -1.501549500972033E-3   6.009313510730863E-4  
 2.728000000000000E10    8.096597157418728E-4   1.274084206670523E-3  
 2.730000000000000E10    1.133217476308346E-3  -9.227815899066627E-4  
 2.732000000000000E10   -7.970940205268562E-4  -9.487851057201624E-4  
 2.734000000000000E10   -6.449605571106076E-4   1.027885708026588E-3  
 2.736000000000000E10    1.045682700350881E-3   7.865652441978455E-4  
 2.738000000000000E10    5.078440299257636E-4  -1.227076281793416E-3  
 2.740000000000000E10   -1.362332259304822E-3   4.334696495789103E-5  
 2.742000000000000E10   -1.930128346430138E-4   1.125089474953711E-3  
 2.744000000000000E10    1.025463105179369E-3  -1.034332526614890E-4  
 2.746000000000000E10   -2.947893226519227E-4  -9.765421273186803E-4  
 2.748000000000000E10   -7.724081515334547E-4   3.110588004346937E-4  
 2.750000000000000E10    5.204545450396836E-4   9.625818347558379E-4  
 2.752000000000000E10    7.640284020453692E-4  -4.805434728041291E-4  
 2.754000000000000E10   -5.053086206316948E-4  -5.930739571340382E-4  
 2.756000000000000E10   -4.901356296613812E-4   4.883685614913702E-4  
