#  HZ   S   RI   R     50.00 
! Rohde & Schwarz ZVA40 4Ports - Version 3.90 - 1145.1110k42 SN: 100403
! Date: 2023-10-04 07:46:34
! Measurement: S12 
! 
 2.200000000000000E10    8.397505735047162E-4   8.465991122648120E-4  
 2.202000000000000E10    8.504672441631556E-4  -9.240321815013886E-4  
 2.204000000000000E10   -8.799001807346940E-4  -6.775103975087404E-4  
 2.206000000000000E10   -2.630419330671430E-4   5.208183429203928E-4  
 2.208000000000000E10    7.120035006664693E-4   5.514077492989600E-4  
 2.210000000000000E10    4.276059335097671E-4  -8.739071199670434E-4  
 2.212000000000000E10   -9.297063224948943E-4  -2.970857312902808E-4  
 2.214000000000000E10   -1.074008541763760E-4   6.041062879376113E-4  
 2.216000000000000E10    8.828123682178557E-4   1.364041527267546E-4  
 2.218000000000000E10    1.102567912312225E-4  -1.038871356286109E-3  
 2.220000000000000E10   -9.264415712095797E-4   2.422807738184929E-4  
 2.222000000000000E10    7.233790820464492E-4   9.908276842907071E-4  
 2.224000000000000E10    1.339073758572340E-3  -8.730160188861191E-4  
 2.226000000000000E10   -1.010186388157308E-3  -1.086525502614677E-3  
 2.228000000000000E10   -8.911018376238644E-4   1.185397268272936E-3  
 2.230000000000000E10    1.197438570670784E-3   1.113099628128111E-3  
 2.232000000000000E10    8.164146565832198E-4  -1.493930118158460E-3  
 2.234000000000000E10   -1.764695276506245E-3  -5.894408677704632E-4  
 2.236000000000000E10   -4.304397152736783E-4   1.547738211229444E-3  
 2.238000000000000E10    1.461785286664963E-3   8.136172546073794E-4  
 2.240000000000000E10    6.463137688115239E-4  -1.628924044780433E-3  
 2.242000000000000E10   -1.792992581613362E-3  -2.054122014669702E-4  
 2.244000000000000E10   -4.844533395953476E-4   1.818997552618384E-3  
 2.246000000000000E10    1.845072023570538E-3   4.824261704925448E-4  
 2.248000000000000E10    2.066772867692635E-4  -1.627580728381872E-3  
 2.250000000000000E10   -1.605896395631135E-3   1.017833274090663E-4  
 2.252000000000000E10   -4.673257353715599E-5   1.644017873331904E-3  
 2.254000000000000E10    1.486053457483649E-3  -2.640152815729380E-4  
 2.256000000000000E10   -5.297984462231398E-4  -1.256067422218621E-3  
 2.258000000000000E10   -8.070353069342673E-4   6.014234386384487E-4  
 2.260000000000000E10    3.899606817867607E-4   7.250782800838351E-4  
 2.262000000000000E10    5.497986567206681E-4  -7.275937823578715E-4  
 2.264000000000000E10   -3.196914331056178E-4  -5.747081013396382E-4  
 2.266000000000000E10   -3.230801376048476E-4   2.391822927165777E-4  
 2.268000000000000E10    5.002006073482335E-4   5.016379291191697E-4  
 2.270000000000000E10    1.030149724101648E-4  -7.937544141896069E-4  
 2.272000000000000E10   -6.885256152600050E-4  -1.201087161462056E-5  
 2.274000000000000E10   -8.076275844359770E-5   8.694368880242109E-4  
 2.276000000000000E10    7.148229633457959E-4  -2.434680645819753E-4  
 2.278000000000000E10   -4.011056153103709E-4  -7.787468493916094E-4  
 2.280000000000000E10   -1.015003887005150E-3   4.472454602364451E-4  
 2.282000000000000E10   -1.031754291034304E-4   1.206719898618758E-3  
 2.284000000000000E10    8.564229356124997E-4  -9.048883803188801E-4  
 2.286000000000000E10   -1.330031780526042E-3  -1.057499088346958E-3  
 2.288000000000000E10   -7.629675674252212E-4   1.405040267854929E-3  
 2.290000000000000E10    1.533134724013507E-3   6.482509779743850E-4  
 2.292000000000000E10    4.422974889166653E-4  -1.633159816265106E-3  
 2.294000000000000E10   -1.307504717260599E-3   3.581204146030359E-5  
 2.296000000000000E10   -1.087937489501201E-4   1.404586480930448E-3  
 2.298000000000000E10    1.461769803427160E-3   1.626040757400915E-4  
 2.300000000000000E10   -2.204423217335716E-4  -1.350520178675652E-3  
 2.302000000000000E10   -1.821039360947907E-3   2.470586914569140E-4  
 2.304000000000000E10    3.483887994661927E-4   1.691657118499279E-3  
 2.306000000000000E10    1.393189653754234E-3  -5.801752558909357E-4  
 2.308000000000000E10   -8.601461886428297E-4  -1.251308247447014E-3  
 2.310000000000000E10   -1.482909545302391E-3   1.268679043278098E-3  
 2.312000000000000E10    1.312334672547877E-3   1.012353575788438E-3  
 2.314000000000000E10    8.171756635420024E-4  -1.495462609454989E-3  
 2.316000000000000E10   -1.410468714311719E-3  -6.402987637557089E-4  
 2.318000000000000E10   -4.132280009798706E-4   1.676662708632648E-3  
 2.320000000000000E10    1.858328469097614E-3   6.630316056543961E-5  
 2.322000000000000E10   -3.251621674280614E-4  -1.638610847294331E-3  
 2.324000000000000E10   -1.899179304018617E-3   6.543775671161711E-4  
 2.326000000000000E10    8.083452703431249E-4   1.442313543520868E-3  
 2.328000000000000E10    1.247432315722108E-3  -8.210329106077552E-4  
 2.330000000000000E10   -7.406181539408863E-4  -1.205505221150816E-3  
 2.332000000000000E10   -1.412923331372440E-3   1.181284547783434E-3  
 2.334000000000000E10    1.391902565956116E-3   1.153675490058959E-3  
 2.336000000000000E10    1.067180186510086E-3  -1.541339093819261E-3  
 2.338000000000000E10   -1.604538061656058E-3  -7.333898684009910E-4  
 2.340000000000000E10   -6.765648722648621E-4   1.701002125628293E-3  
 2.342000000000000E10    1.773668802343309E-3   7.634214853169397E-5  
 2.344000000000000E10   -2.314256562385708E-5  -1.855727401562035E-3  
 2.346000000000000E10   -1.607918995432556E-3   4.520103975664824E-4  
 2.348000000000000E10    6.689171423204243E-4   1.472191186621785E-3  
 2.350000000000000E10    1.483990577980876E-3  -6.074779666960239E-4  
 2.352000000000000E10   -1.050565741024911E-3  -1.241880585439503E-3  
 2.354000000000000E10   -1.102151698432863E-3   1.333390828222036E-3  
 2.356000000000000E10    1.379958586767316E-3   6.516305729746819E-4  
 2.358000000000000E10    6.933842669241130E-4  -1.261598430573940E-3  
 2.360000000000000E10   -1.298224204219878E-3  -2.920244296547025E-4  
 2.362000000000000E10   -4.403001366881654E-5   1.451683463528752E-3  
 2.364000000000000E10    1.504879212006927E-3   4.582077053782996E-6  
 2.366000000000000E10   -3.117988817393780E-4  -1.302006188780069E-3  
 2.368000000000000E10   -1.185033121146262E-3   6.221235380508006E-4  
 2.370000000000000E10    2.792226150631905E-4   9.392810170538724E-4  
 2.372000000000000E10    1.163710374385119E-3  -4.043539811391383E-4  
 2.374000000000000E10   -7.258905679918826E-4  -8.928927709348500E-4  
 2.376000000000000E10   -5.871392786502838E-4   9.046081686392427E-4  
 2.378000000000000E10    6.611197022721171E-4   4.302118904888630E-4  
 2.380000000000000E10    4.912583972327411E-4  -7.415778236463666E-4  
 2.382000000000000E10   -7.761106244288385E-4  -5.177191342227161E-4  
 2.384000000000000E10   -4.747724597109482E-5   9.132117847912014E-4  
 2.386000000000000E10    8.201415766961873E-4   1.388485979987308E-4  
 2.388000000000000E10   -5.488885653903708E-5  -9.880206780508161E-4  
 2.390000000000000E10   -9.031121153384447E-4   2.249947865493596E-4  
 2.392000000000000E10    4.033182631246746E-4   7.238805992528796E-4  
 2.394000000000000E10    5.206176429055631E-4  -7.531976443715394E-4  
 2.396000000000000E10   -6.663721869699657E-4  -6.678886711597443E-4  
 2.398000000000000E10   -5.341280484572053E-4   3.519898164086044E-4  
 2.400000000000000E10    5.692976410500705E-4   2.087473985739052E-4  
 2.402000000000000E10    4.257033579051495E-4  -4.873734142165631E-4  
 2.404000000000000E10   -6.031682714819908E-4  -1.138210063800216E-4  
 2.406000000000000E10   -1.584301935508847E-4   1.750371739035472E-4  
 2.408000000000000E10    2.913711359724402E-4   2.126405452145264E-4  
 2.410000000000000E10    5.083257565274835E-4  -4.282960726413876E-4  
 2.412000000000000E10   -6.606824463233352E-4  -4.140364180784673E-4  
 2.414000000000000E10   -1.619429967831820E-4   7.210068288259208E-4  
 2.416000000000000E10    6.459191790781915E-4   2.879536477848887E-4  
 2.418000000000000E10    3.724487032741308E-4  -9.381315321661532E-4  
 2.420000000000000E10   -8.854127954691649E-4  -4.365213972050697E-4  
 2.422000000000000E10    5.738972049584845E-6   9.027980850078166E-4  
 2.424000000000000E10    5.240385653451085E-4   1.290857617277652E-4  
 2.426000000000000E10    9.483341273153201E-5  -7.147279684431851E-4  
 2.428000000000000E10   -4.313538083806634E-4   3.593832079786807E-4  
 2.430000000000000E10    2.086804852297064E-5   5.397423519752920E-4  
 2.432000000000000E10    6.623448571190238E-4  -1.673375518294051E-4  
 2.434000000000000E10    1.596959045855328E-4  -5.275157745927572E-4  
 2.436000000000000E10   -3.804326406680048E-4  -8.622054156148806E-5  
 2.438000000000000E10   -3.547789528965950E-4   4.425142542459071E-4  
 2.440000000000000E10    2.973916998598725E-4   5.840421363245696E-5  
 2.442000000000000E10   -2.823678369168192E-5  -3.209517162758857E-4  
 2.444000000000000E10   -2.569109492469579E-4  -1.295700258197030E-5  
 2.446000000000000E10   -2.582739398349077E-4   1.939608773682267E-4  
 2.448000000000000E10    8.358500781469047E-5   1.044733144226484E-4  
 2.450000000000000E10   -1.609146856935695E-4  -1.064813550328836E-4  
 2.452000000000000E10   -1.424808724550530E-4  -6.831352948211134E-5  
 2.454000000000000E10    8.015452476684004E-5   1.035800596582703E-4  
 2.456000000000000E10    2.602819877211005E-4   2.021274704020470E-4  
 2.458000000000000E10   -6.903432949911803E-5  -1.470064889872447E-4  
 2.460000000000000E10   -3.844260354526341E-4   8.200701995519921E-5  
 2.462000000000000E10    2.241042675450444E-4   2.895712968893349E-4  
 2.464000000000000E10    2.616328420117497E-4  -1.822231861297041E-4  
 2.466000000000000E10   -8.998753764899448E-5  -3.396297106519342E-4  
 2.468000000000000E10   -2.272807796543930E-5   2.796898188535124E-4  
 2.470000000000000E10    2.824061666615307E-4   3.806760360021144E-4  
 2.472000000000000E10   -2.969362867588643E-5  -5.711095873266459E-4  
 2.474000000000000E10   -2.757633337751031E-4   1.741597516229376E-4  
 2.476000000000000E10    3.253485774621368E-4  -4.726534098153934E-5  
 2.478000000000000E10    2.918694517575204E-4  -2.280977932969108E-4  
 2.480000000000000E10   -2.340857608942315E-4  -1.560858072480187E-4  
 2.482000000000000E10   -1.087212876882404E-4   2.047402231255546E-4  
 2.484000000000000E10    3.772258351091296E-4  -8.888369484338909E-5  
 2.486000000000000E10    1.645152406126726E-5  -4.527358978521079E-4  
 2.488000000000000E10   -7.229726761579514E-4   1.518800563644618E-4  
 2.490000000000000E10    1.530992594780400E-4   2.746308455243707E-4  
 2.492000000000000E10    4.363873449619860E-4  -1.764608896337450E-4  
 2.494000000000000E10    1.690180579316802E-5  -7.327393395826221E-4  
 2.496000000000000E10   -7.157619693316519E-4   2.705728402361274E-4  
 2.498000000000000E10    4.870480915997177E-4   7.646160083822906E-4  
 2.500000000000000E10    5.632457905448973E-4  -5.111604114063084E-4  
 2.502000000000000E10   -4.662960709538311E-4  -7.082428783178330E-4  
 2.504000000000000E10   -5.116614047437906E-4   5.477297236211598E-4  
 2.506000000000000E10    6.094084237702191E-4   5.992350052110851E-4  
 2.508000000000000E10    5.196653073653579E-4  -6.576711894012988E-4  
 2.510000000000000E10   -6.725329440087080E-4  -7.225509034469724E-4  
 2.512000000000000E10   -7.395204738713801E-4   4.013432480860502E-4  
 2.514000000000000E10    8.164463215507567E-4   3.362049174029380E-4  
 2.516000000000000E10    2.189366641687229E-4  -5.772585282102227E-4  
 2.518000000000000E10   -6.058869184926152E-4  -4.082662344444543E-4  
 2.520000000000000E10   -1.093584214686416E-4   9.741971152834594E-4  
 2.522000000000000E10    6.129421526566148E-4   1.385721698170528E-4  
 2.524000000000000E10    1.668711629463360E-4  -7.571249152533710E-4  
 2.526000000000000E10   -5.478511448018253E-4  -3.337555390316993E-4  
 2.528000000000000E10   -1.402274483552901E-5   7.775441044941545E-4  
 2.530000000000000E10    7.895893650129437E-4   2.664440544322133E-4  
 2.532000000000000E10    1.287334453081712E-4  -6.195829482749105E-4  
 2.534000000000000E10   -8.304835646413267E-4  -1.298896222579060E-5  
 2.536000000000000E10    6.495889974758029E-4   4.256528045516461E-4  
 2.538000000000000E10    4.403509956318885E-4  -3.259462246205658E-4  
 2.540000000000000E10   -4.563679394777864E-4  -4.349831724539399E-4  
 2.542000000000000E10   -5.352853331714869E-4   5.759040941484273E-4  
 2.544000000000000E10    5.087304743938148E-4   2.952408976852894E-4  
 2.546000000000000E10   -5.200664963922463E-5  -4.529107245616615E-4  
 2.548000000000000E10   -7.162973051890731E-4  -7.793342228978872E-5  
 2.550000000000000E10    2.266398587380536E-5   5.447385483421385E-4  
 2.552000000000000E10    5.256329895928502E-4  -2.799204958137125E-4  
 2.554000000000000E10   -2.274985745316371E-4  -4.727443738374859E-4  
 2.556000000000000E10   -7.869490655139089E-4   8.135762182064354E-4  
 2.558000000000000E10    7.286637555807829E-4   5.868375301361084E-4  
 2.560000000000000E10    7.549045258201659E-4  -8.442357066087425E-4  
 2.562000000000000E10   -7.850443362258375E-4  -3.798766119871289E-4  
 2.564000000000000E10   -5.450217286124826E-4   1.035522087477148E-3  
 2.566000000000000E10    1.116007915697992E-3   5.434824270196259E-4  
 2.568000000000000E10    4.451808927115053E-4  -1.122490968555212E-3  
 2.570000000000000E10   -1.277676201425493E-3  -3.929921076633036E-4  
 2.572000000000000E10    8.020427776500583E-5   1.700985594652593E-3  
 2.574000000000000E10    1.460935571230948E-3  -1.785461936378852E-4  
 2.576000000000000E10   -1.731912052491680E-4  -1.662527094595134E-3  
 2.578000000000000E10   -1.512099173851311E-3   2.950475609395653E-4  
 2.580000000000000E10    2.704475482460111E-4   1.197654055431485E-3  
 2.582000000000000E10    1.244115061126649E-3  -7.221302948892117E-4  
 2.584000000000000E10   -7.689617341384292E-4  -1.430534757673740E-3  
 2.586000000000000E10   -1.007654587738216E-3   1.008003135211766E-3  
 2.588000000000000E10    9.628890547901392E-4   1.018377719447017E-3  
 2.590000000000000E10    7.879570475779474E-4  -8.335965103469789E-4  
 2.592000000000000E10   -1.040398259647191E-3  -6.554417195729911E-4  
 2.594000000000000E10   -4.190969921182841E-4   1.020561554469168E-3  
 2.596000000000000E10    1.215999596752226E-3   3.183734952472150E-4  
 2.598000000000000E10    2.887973096221685E-4  -9.220560896210372E-4  
 2.600000000000000E10   -1.029950100928545E-3   5.212571340962313E-5  
 2.602000000000000E10    7.426883530570194E-5   5.852319882251322E-4  
 2.604000000000000E10    9.148127865046263E-4  -1.734308316372335E-4  
 2.606000000000000E10   -3.952804254367948E-4  -9.967418154701591E-4  
 2.608000000000000E10   -7.655856898054481E-4   7.670749910175800E-4  
 2.610000000000000E10    4.619661485776305E-4   5.077890236862004E-4  
 2.612000000000000E10    2.938449324574322E-4  -6.820262060500681E-4  
 2.614000000000000E10   -7.118142093531787E-4  -1.987330615520477E-4  
 2.616000000000000E10   -3.809148620348424E-4   1.134706428274512E-3  
 2.618000000000000E10    1.224668463692069E-3   2.035618963418528E-4  
 2.620000000000000E10    1.937702327268198E-4  -1.090368372388184E-3  
 2.622000000000000E10   -1.364776864647865E-3   1.028868282446638E-4  
 2.624000000000000E10    3.004510654136539E-4   1.202145358547568E-3  
 2.626000000000000E10    1.249203458428383E-3  -5.203231121413410E-4  
 2.628000000000000E10   -5.088783218525350E-4  -1.383352791890502E-3  
 2.630000000000000E10   -1.524587045423687E-3   7.977292989380658E-4  
 2.632000000000000E10    1.161953317932785E-3   1.587552018463612E-3  
 2.634000000000000E10    1.006304984912276E-3  -1.217992277815938E-3  
 2.636000000000000E10   -1.162123051472008E-3  -8.602575981058180E-4  
 2.638000000000000E10   -9.012919617816806E-4   1.345179509371519E-3  
 2.640000000000000E10    1.290505984798074E-3   6.914200494065881E-4  
 2.642000000000000E10    4.428013926371932E-4  -1.380752772092819E-3  
 2.644000000000000E10   -1.394623541273177E-3  -3.867619379889220E-4  
 2.646000000000000E10   -1.809898240026087E-4   1.628497499041259E-3  
 2.648000000000000E10    1.503763953223825E-3   1.874551235232502E-4  
 2.650000000000000E10   -3.371944694663398E-5  -1.396160223521292E-3  
 2.652000000000000E10   -1.121493289247155E-3   2.257473388453946E-4  
 2.654000000000000E10    2.373838215135038E-4   1.425671740435064E-3  
 2.656000000000000E10    1.216293894685805E-3  -4.079499340150505E-4  
 2.658000000000000E10   -8.527367608621717E-4  -1.106351730413735E-3  
 2.660000000000000E10   -8.304913644678891E-4   8.208192884922028E-4  
 2.662000000000000E10    8.915676735341549E-4   5.610880325548351E-4  
 2.664000000000000E10    6.007043411955237E-4  -1.038648770190775E-3  
 2.666000000000000E10   -1.319045433774591E-3  -1.417813764419407E-4  
 2.668000000000000E10    9.114509157370776E-5   1.209024921990931E-3  
 2.670000000000000E10    1.022104988805950E-3  -5.050398758612573E-4  
 2.672000000000000E10   -2.138055860996246E-4  -1.139476080425084E-3  
 2.674000000000000E10   -7.496316102333367E-4   3.889995277859271E-4  
 2.676000000000000E10    4.333349061198533E-4   9.346334263682365E-4  
 2.678000000000000E10    1.014969777315855E-3  -1.012005493976176E-3  
 2.680000000000000E10   -9.502677130512893E-4  -9.124828502535820E-4  
 2.682000000000000E10   -5.373253370635212E-4   1.150745782069862E-3  
 2.684000000000000E10    8.860586094669998E-4   3.495358978398144E-4  
 2.686000000000000E10    5.398722714744508E-4  -1.038172282278538E-3  
 2.688000000000000E10   -1.385301002301276E-3  -4.368810623418540E-4  
 2.690000000000000E10   -1.814273709896952E-4   1.165792113170028E-3  
 2.692000000000000E10    1.114360173232853E-3   1.972675272554625E-5  
 2.694000000000000E10   -2.331178693566471E-4  -1.184109481982887E-3  
 2.696000000000000E10   -1.093878760002554E-3   2.505761804059148E-4  
 2.698000000000000E10    2.521567803341895E-4   7.301088771782816E-4  
 2.700000000000000E10    9.767239680513740E-4  -3.787919995374978E-4  
 2.702000000000000E10   -6.102595361880958E-4  -9.984235512092710E-4  
 2.704000000000000E10   -9.282091632485390E-4   5.968954646959901E-4  
 2.706000000000000E10    6.125619402155280E-4   6.711636669933796E-4  
 2.708000000000000E10    7.369678933173418E-4  -7.442018832080066E-4  
 2.710000000000000E10   -7.735762046650052E-4  -8.508720784448087E-4  
 2.712000000000000E10   -4.927833215333521E-4   8.453106856904924E-4  
 2.714000000000000E10    9.478415013290942E-4   5.963058792985976E-4  
 2.716000000000000E10    3.018350980710238E-4  -8.928391616791487E-4  
 2.718000000000000E10   -1.014966284856200E-3  -5.000710370950401E-4  
 2.720000000000000E10   -1.629097532713786E-4   1.092902966775000E-3  
 2.722000000000000E10    8.524126023985446E-4  -1.649339901632629E-5  
 2.724000000000000E10   -1.125882554333657E-4  -8.514422224834561E-4  
 2.726000000000000E10   -7.627981831319630E-4   1.919272763188928E-4  
 2.728000000000000E10   -1.283467372559244E-5   6.695716292597354E-4  
 2.730000000000000E10    6.861173314973712E-4  -2.046533045358956E-4  
 2.732000000000000E10   -1.423064386472106E-4  -5.545892636291683E-4  
 2.734000000000000E10   -4.795082495547831E-4   2.247620577691123E-4  
 2.736000000000000E10    2.451925247441977E-4   3.223736421205103E-4  
 2.738000000000000E10    5.447275470942259E-4  -3.255022456869483E-4  
 2.740000000000000E10   -3.715378988999873E-4  -3.689131990540773E-4  
 2.742000000000000E10   -1.649805199122056E-4   2.850846212822944E-4  
 2.744000000000000E10    2.989109198097140E-4   3.474974364507943E-4  
 2.746000000000000E10    1.382106129312888E-4  -3.360177215654403E-4  
 2.748000000000000E10   -2.240475005237386E-4  -1.920541690196842E-4  
 2.750000000000000E10   -2.501384878996760E-4   3.815133241005242E-4  
 2.752000000000000E10    2.728344406932592E-4  -1.803581253625453E-4  
 2.754000000000000E10    1.280865717490087E-6  -2.369757276028395E-4  
 2.756000000000000E10   -2.341661747777835E-4  -9.007185872178525E-5  
