#Parameters = {C=0; C_off=4.48e-14; C_on=0; H_add_decoupl=0.338; Hair=10; Hair_lower=10; Hpre1=0.204; Hpre1_2=0.306; Hsub1=0.508; Hsub_add1=0.168; Hsub_bottom=0.101; Hsub_top2=0.762; L=1.3e-10; L1=0.02; L2_buf=0.26; L_add_cut=0.66; L_off=0; L_on=1.3e-10; L_stub_low=1.5; Ldiode=0.3302; Lline_low=1; Lp=1.52; Period_wall=0.5; Px=5; R=5.2; R_bottom_in=0.86; R_bottom_out=0.96; R_inner_bottom_ring=0.96; R_off=2.5; R_on=5.2; R_out_bottom_ring=1.11; Sigma_copper=58000000; W_ring_inner=0.15; WcircleInner_2=0.4; Wcut=0.9; Wp=1.52; X1Stub=-1.15; angle_stub=30; delta=0.3; deltaHAdd=0.101; deltaL1=0.14; deltaR2=0.15; deltaRCircle=0.2; deltaStubY=0.1; deltaStubY_top=0.3; delta_annual_ring=0.1; delta_edge=0.1; delta_via=0.9; delta_via_screen_center=0.25; h2_fr4=0.25; h2_prepreg=0.138; hSub=1.067; hfr4=0.102; l_add=0.76; phi=0; r_area=0.2; r_area_center=0.225; r_bottom_2=1.8; r_circle=0; r_out1=0; r_par=0.1; r_par_w=0.05; r_per=0.1; r_rez=0; r_road=0.05; r_shaped=1.15; r_shaped_2=1.2; r_shaped_low=1.2; r_via=0.1; r_via_center=0.125; r_via_wall=0.1; rad_circle=0.65; rez=0; roughness=0.0028; t_pog=0; th=0.018; th2=0.204; th3=0.5; th_top=0.07; theta=0; wDiode=0.3048; w_add=0.1; wstub=0.2}
#"Frequency / GHz"	"SZmax(1),Zmax(1) (theta=0) [Real/Imaginary Part] [Re]"	"SZmax(1),Zmax(1) (theta=0) [Real/Imaginary Part] [Im]"
#---------------------------------------------------------------------------------------------------------------------------------
22.000000000000	0.56150204297778	0.70404126557910
22.007000000000	0.56501142103106	0.70081956603867
22.014000000000	0.56851123717757	0.69757305925595
22.021000000000	0.57200128949061	0.69430173122365
22.028000000000	0.57548137476311	0.69100556981318
22.035000000000	0.57895128852693	0.68768456480309
22.042000000000	0.58241082507269	0.68433870790728
22.049000000000	0.58585977747004	0.68096799280314
22.056000000000	0.58929793758852	0.67757241515948
22.063000000000	0.59272509611881	0.67415197266431
22.070000000000	0.59614104259461	0.67070666505249
22.077000000000	0.59954556541492	0.66723649413309
22.084000000000	0.60293845186692	0.66374146381668
22.091000000000	0.60631948814931	0.66022158014230
22.098000000000	0.60968845939617	0.65667685130432
22.105000000000	0.61304514970135	0.65310728767901
22.112000000000	0.61638934214335	0.64951290185090
22.119000000000	0.61972081881078	0.64589370863889
22.126000000000	0.62303936082824	0.64224972512210
22.133000000000	0.62634474838279	0.63858097066552
22.140000000000	0.62963676075095	0.63488746694528
22.147000000000	0.63291517632612	0.63116923797370
22.154000000000	0.63617977264665	0.62742631012407
22.161000000000	0.63943032642430	0.62365871215507
22.168000000000	0.64266661357332	0.61986647523489
22.175000000000	0.64588840923997	0.61604963296504
22.182000000000	0.64909548783260	0.61220822140380
22.189000000000	0.65228762305222	0.60834227908936
22.196000000000	0.65546458792357	0.60445184706253
22.203000000000	0.65862615482673	0.60053696888914
22.210000000000	0.66177209552921	0.59659769068205
22.217000000000	0.66490218121854	0.59263406112273
22.224000000000	0.66801618253537	0.58864613148247
22.231000000000	0.67111386960709	0.58463395564315
22.238000000000	0.67419501208186	0.58059759011761
22.245000000000	0.67725937916325	0.57653709406954
22.252000000000	0.68030673964525	0.57245252933295
22.259000000000	0.68333686194784	0.56834396043115
22.266000000000	0.68634951415297	0.56421145459531
22.273000000000	0.68934446404110	0.56005508178244
22.280000000000	0.69232147912810	0.55587491469298
22.287000000000	0.69528032670267	0.55167102878777
22.294000000000	0.69822077386424	0.54744350230461
22.301000000000	0.70114258756122	0.54319241627420
22.308000000000	0.70404553462982	0.53891785453557
22.315000000000	0.70692938183315	0.53461990375096
22.322000000000	0.70979389590093	0.53029865342012
22.329000000000	0.71263884356945	0.52595419589404
22.336000000000	0.71546399162203	0.52158662638808
22.343000000000	0.71826910692987	0.51719604299451
22.350000000000	0.72105395649329	0.51278254669442
22.357000000000	0.72381830748338	0.50834624136905
22.364000000000	0.72656192728396	0.50388723381042
22.371000000000	0.72928458353398	0.49940563373139
22.378000000000	0.73198604417024	0.49490155377498
22.385000000000	0.73466607747047	0.49037510952309
22.392000000000	0.73732445209677	0.48582641950456
22.399000000000	0.73996093713930	0.48125560520244
22.406000000000	0.74257530216040	0.47666279106067
22.413000000000	0.74516731723890	0.47204810448999
22.420000000000	0.74773675301484	0.46741167587320
22.427000000000	0.75028338073434	0.46275363856959
22.434000000000	0.75280697229486	0.45807412891874
22.441000000000	0.75530730029066	0.45337328624351
22.448000000000	0.75778413805849	0.44865125285230
22.455000000000	0.76023725972358	0.44390817404054
22.462000000000	0.76266644024572	0.43914419809142
22.469000000000	0.76507145546572	0.43435947627585
22.476000000000	0.76745208215191	0.42955416285156
22.483000000000	0.76980809804690	0.42472841506154
22.490000000000	0.77213928191446	0.41988239313154
22.497000000000	0.77444541358656	0.41501626026684
22.504000000000	0.77672627401057	0.41013018264821
22.511000000000	0.77898164529657	0.40522432942696
22.518000000000	0.78121131076469	0.40029887271929
22.525000000000	0.78341505499264	0.39535398759969
22.532000000000	0.78559266386327	0.39038985209355
22.539000000000	0.78774392461215	0.38540664716895
22.546000000000	0.78986862587524	0.38040455672752
22.553000000000	0.79196655773655	0.37538376759452
22.560000000000	0.79403751177585	0.37034446950803
22.567000000000	0.79608128111629	0.36528685510726
22.574000000000	0.79809766047205	0.36021111992002
22.581000000000	0.80008644619595	0.35511746234930
22.588000000000	0.80204743632696	0.35000608365895
22.595000000000	0.80398043063766	0.34487718795859
22.602000000000	0.80588523068158	0.33973098218747
22.609000000000	0.80776163984040	0.33456767609760
22.616000000000	0.80960946337111	0.32938748223595
22.623000000000	0.81142850845291	0.32419061592572
22.630000000000	0.81321858423398	0.31897729524676
22.637000000000	0.81497950187811	0.31374774101515
22.644000000000	0.81671107461099	0.30850217676185
22.651000000000	0.81841311776645	0.30324082871042
22.658000000000	0.82008544883230	0.29796392575398
22.665000000000	0.82172788749601	0.29267169943119
22.672000000000	0.82334025569004	0.28736438390137
22.679000000000	0.82492237763690	0.28204221591880
22.686000000000	0.82647407989391	0.27670543480607
22.693000000000	0.82799519139756	0.27135428242662
22.700000000000	0.82948554350757	0.26598900315638
22.707000000000	0.83094497005056	0.26060984385457
22.714000000000	0.83237330736331	0.25521705383364
22.721000000000	0.83377039433561	0.24981088482834
22.728000000000	0.83513607245267	0.24439159096398
22.735000000000	0.83647018583714	0.23895942872382
22.742000000000	0.83777258129053	0.23351465691563
22.749000000000	0.83904310833430	0.22805753663748
22.756000000000	0.84028161925032	0.22258833124259
22.763000000000	0.84148796912086	0.21710730630354
22.770000000000	0.84266201586803	0.21161472957549
22.777000000000	0.84380362029266	0.20611087095879
22.784000000000	0.84491264611260	0.20059600246067
22.791000000000	0.84598896000039	0.19507039815620
22.798000000000	0.84703243162038	0.18953433414856
22.805000000000	0.84804293366520	0.18398808852840
22.812000000000	0.84902034189152	0.17843194133265
22.819000000000	0.84996453515521	0.17286617450241
22.826000000000	0.85087539544580	0.16729107184028
22.833000000000	0.85175280792026	0.16170691896690
22.840000000000	0.85259666093602	0.15611400327682
22.847000000000	0.85340684608328	0.15051261389369
22.854000000000	0.85418325821661	0.14490304162476
22.861000000000	0.85492579548570	0.13928557891480
22.868000000000	0.85563435936548	0.13366051979932
22.875000000000	0.85630885468524	0.12802815985716
22.882000000000	0.85694918965715	0.12238879616253
22.889000000000	0.85755527590386	0.11674272723642
22.896000000000	0.85812702848521	0.11109025299745
22.903000000000	0.85866436592426	0.10543167471215
22.910000000000	0.85916721023225	0.099767294944721
22.917000000000	0.85963548693288	0.094097417506231
22.924000000000	0.86006912508557	0.088422347403360
22.931000000000	0.86046805730790	0.082742390786603
22.938000000000	0.86083221979708	0.077057854898052
22.945000000000	0.86116155235055	0.071369048018672
22.952000000000	0.86145599838563	0.065676279415196
22.959000000000	0.86171550495821	0.059979859286574
22.966000000000	0.86194002278054	0.054280098710019
22.973000000000	0.86212950623800	0.048577309586723
22.980000000000	0.86228391340493	0.042871804587153
22.987000000000	0.86240320605949	0.037163897096073
22.994000000000	0.86248734969750	0.031453901157208
23.001000000000	0.86253631354536	0.025742131417624
23.008000000000	0.86255007057185	0.020028903071851
23.015000000000	0.86252859749905	0.014314531805718
23.022000000000	0.86247187481216	0.0085993337399962
23.029000000000	0.86237988676835	0.0028836253737978
23.036000000000	0.86225262140453	-0.0028322764722084
23.043000000000	0.86209007054419	-0.0085480547127262
23.050000000000	0.86189222980310	-0.014263392054949
23.057000000000	0.86165909859402	-0.019977971055761
23.064000000000	0.86139068013041	-0.025691474179068
23.071000000000	0.86108698142904	-0.031403583853210
23.078000000000	0.86074801331156	-0.037113982528410
23.085000000000	0.86037379040508	-0.042822352734294
23.092000000000	0.85996433114167	-0.048528377137391
23.099000000000	0.85951965775678	-0.054231738598664
23.106000000000	0.85903979628666	-0.059932120230974
23.113000000000	0.85852477656477	-0.065629205456521
23.120000000000	0.85797463221703	-0.071322678064213
23.127000000000	0.85738940065615	-0.077012222266913
23.134000000000	0.85676912307486	-0.082697522758597
23.141000000000	0.85611384443811	-0.088378264771373
23.148000000000	0.85542361347424	-0.094054134132310
23.155000000000	0.85469848266511	-0.099724817320127
23.162000000000	0.85393850823525	-0.10539000152164
23.169000000000	0.85314375013993	-0.11104937468802
23.176000000000	0.85231427205227	-0.11670262559076
23.183000000000	0.85145014134927	-0.12234944387743
23.190000000000	0.85055142909693	-0.12798952012709
23.197000000000	0.84961821003432	-0.13362254590541
23.204000000000	0.84865056255663	-0.13924821381951
23.211000000000	0.84764856869735	-0.14486621757237
23.218000000000	0.84661231410934	-0.15047625201688
23.225000000000	0.84554188804508	-0.15607801320959
23.232000000000	0.84443738333582	-0.16167119846393
23.239000000000	0.84329889636993	-0.16725550640308
23.246000000000	0.84212652707019	-0.17283063701233
23.253000000000	0.84092037887029	-0.17839629169104
23.260000000000	0.83968055869027	-0.18395217330407
23.267000000000	0.83840717691119	-0.18949798623267
23.274000000000	0.83710034734883	-0.19503343642495
23.281000000000	0.83576018722660	-0.20055823144567
23.288000000000	0.83438681714745	-0.20607208052564
23.295000000000	0.83298036106509	-0.21157469461036
23.302000000000	0.83154094625428	-0.21706578640817
23.309000000000	0.83006870328028	-0.22254507043785
23.316000000000	0.82856376596761	-0.22801226307543
23.323000000000	0.82702627136787	-0.23346708260049
23.330000000000	0.82545635972690	-0.23890924924177
23.337000000000	0.82385417445111	-0.24433848522207
23.344000000000	0.82221986207309	-0.24975451480253
23.351000000000	0.82055357221650	-0.25515706432617
23.358000000000	0.81885545756025	-0.26054586226069
23.365000000000	0.81712567380190	-0.26592063924061
23.372000000000	0.81536437962053	-0.27128112810862
23.379000000000	0.81357173663880	-0.27662706395621
23.386000000000	0.81174790938449	-0.28195818416349
23.393000000000	0.80989306525128	-0.28727422843829
23.400000000000	0.80800737445905	-0.29257493885444
23.407000000000	0.80609101001349	-0.29786005988926
23.414000000000	0.80414414766520	-0.30312933846026
23.421000000000	0.80216696586821	-0.30838252396097
23.428000000000	0.80015964573791	-0.31361936829604
23.435000000000	0.79812237100858	-0.31883962591539
23.442000000000	0.79605532799033	-0.32404305384760
23.449000000000	0.79395870552556	-0.32922941173245
23.456000000000	0.79183269494501	-0.33439846185253
23.463000000000	0.78967749002330	-0.33954996916408
23.470000000000	0.78749328693416	-0.34468370132686
23.477000000000	0.78528028420508	-0.34979942873325
23.484000000000	0.78303868267177	-0.35489692453637
23.491000000000	0.78076868543210	-0.35997596467738
23.498000000000	0.77847049779979	-0.36503632791186
23.505000000000	0.77614432725772	-0.37007779583531
23.512000000000	0.77379038341098	-0.37510015290772
23.519000000000	0.77140887793956	-0.38010318647727
23.526000000000	0.76900002455090	-0.38508668680312
23.533000000000	0.76656403893202	-0.39005044707729
23.540000000000	0.76410113870159	-0.39499426344561
23.547000000000	0.76161154336165	-0.39991793502783
23.554000000000	0.75909547424927	-0.40482126393672
23.561000000000	0.75655315448794	-0.40970405529633
23.568000000000	0.75398480893883	-0.41456611725935
23.575000000000	0.75139066415197	-0.41940726102349
23.582000000000	0.74877094831724	-0.42422730084702
23.589000000000	0.74612589121535	-0.42902605406339
23.596000000000	0.74345572416865	-0.43380334109492
23.603000000000	0.74076067999196	-0.43855898546559
23.610000000000	0.73804099294333	-0.44329281381298
23.617000000000	0.73529689867480	-0.44800465589923
23.624000000000	0.73252863418310	-0.45269434462121
23.631000000000	0.72973643776045	-0.45736171601969
23.638000000000	0.72692054894534	-0.46200660928775
23.645000000000	0.72408120847335	-0.46662886677816
23.652000000000	0.72121865822810	-0.47122833401006
23.659000000000	0.71833314119222	-0.47580485967460
23.666000000000	0.71542490139847	-0.48035829563985
23.673000000000	0.71249418388092	-0.48488849695480
23.680000000000	0.70954123462637	-0.48939532185247
23.687000000000	0.70656630052581	-0.49387863175228
23.694000000000	0.70356962932612	-0.49833829126147
23.701000000000	0.70055146958191	-0.50277416817579
23.708000000000	0.69751207060759	-0.50718613347929
23.715000000000	0.69445168242968	-0.51157406134335
23.722000000000	0.69137055573922	-0.51593782912491
23.729000000000	0.68826894184465	-0.52027731736383
23.736000000000	0.68514709262468	-0.52459240977960
23.743000000000	0.68200526048168	-0.52888299326713
23.750000000000	0.67884369829519	-0.53314895789184
23.757000000000	0.67566265937578	-0.53739019688405
23.764000000000	0.67246239741927	-0.54160660663249
23.771000000000	0.66924316646118	-0.54579808667720
23.778000000000	0.66600522083161	-0.54996453970162
23.785000000000	0.66274881511043	-0.55410587152400
23.792000000000	0.65947420408282	-0.55822199108813
23.799000000000	0.65618164269520	-0.56231281045331
23.806000000000	0.65287138601157	-0.56637824478370
23.813000000000	0.64954368917017	-0.57041821233695
23.820000000000	0.64619880734065	-0.57443263445224
23.827000000000	0.64283699568157	-0.57842143553758
23.834000000000	0.63945850929837	-0.58238454305655
23.841000000000	0.63606360320178	-0.58632188751442
23.848000000000	0.63265253226663	-0.59023340244354
23.855000000000	0.62922555119120	-0.59411902438832
23.862000000000	0.62578291445691	-0.59797869288948
23.869000000000	0.62232487628864	-0.60181235046775
23.876000000000	0.61885169061536	-0.60561994260708
23.883000000000	0.61536361103138	-0.60940141773721
23.890000000000	0.61186089075804	-0.61315672721575
23.897000000000	0.60834378260587	-0.61688582530978
23.904000000000	0.60481253893734	-0.62058866917680
23.911000000000	0.60126741163007	-0.62426521884539
23.918000000000	0.59770865204054	-0.62791543719517
23.925000000000	0.59413651096837	-0.63153928993643
23.932000000000	0.59055123862113	-0.63513674558929
23.939000000000	0.58695308457966	-0.63870777546234
23.946000000000	0.58334229776396	-0.64225235363092
23.953000000000	0.57971912639958	-0.64577045691493
23.960000000000	0.57608381798460	-0.64926206485631
23.967000000000	0.57243661925717	-0.65272715969601
23.974000000000	0.56877777616360	-0.65616572635070
23.981000000000	0.56510753382693	-0.65957775238903
23.988000000000	0.56142613651621	-0.66296322800758
23.995000000000	0.55773382761624	-0.66632214600642
24.002000000000	0.55403084959789	-0.66965450176442
24.009000000000	0.55031744398903	-0.67296029321417
24.016000000000	0.54659385134599	-0.67623952081664
24.023000000000	0.54286031122560	-0.67949218753553
24.030000000000	0.53911706215785	-0.68271829881131
24.037000000000	0.53536434161906	-0.68591786253511
24.044000000000	0.53160238600566	-0.68909088902222
24.051000000000	0.52783143060852	-0.69223739098540
24.058000000000	0.52405170958792	-0.69535738350801
24.065000000000	0.52026345594901	-0.69845088401687
24.072000000000	0.51646690151792	-0.70151791225491
24.079000000000	0.51266227691836	-0.70455849025365
24.086000000000	0.50884981154892	-0.70757264230551
24.093000000000	0.50502973356079	-0.71056039493594
24.100000000000	0.50120226983618	-0.71352177687535
24.107000000000	0.49736764596724	-0.71645681903096
24.114000000000	0.49352608623558	-0.71936555445851
24.121000000000	0.48967781359231	-0.72224801833375
24.128000000000	0.48582304963873	-0.72510424792397
24.135000000000	0.48196201460748	-0.72793428255929
24.142000000000	0.47809492734430	-0.73073816360395
24.149000000000	0.47422200529038	-0.73351593442747
24.156000000000	0.47034346446519	-0.73626764037575
24.163000000000	0.46645951944992	-0.73899332874214
24.170000000000	0.46257038337140	-0.74169304873838
24.177000000000	0.45867626788666	-0.74436685146563
24.184000000000	0.45477738316795	-0.74701478988533
24.191000000000	0.45087393788829	-0.74963691879014
24.198000000000	0.44696613920764	-0.75223329477479
24.205000000000	0.44305419275948	-0.75480397620704
24.212000000000	0.43913830263801	-0.75734902319849
24.219000000000	0.43521867138583	-0.75986849757557
24.226000000000	0.43129549998211	-0.76236246285041
24.233000000000	0.42736898783129	-0.76483098419186
24.240000000000	0.42343933275233	-0.76727412839649
24.247000000000	0.41950673096839	-0.76969196385961
24.254000000000	0.41557137709700	-0.77208456054647
24.261000000000	0.41163346414084	-0.77445198996335
24.268000000000	0.40769318347882	-0.77679432512889
24.275000000000	0.40375072485779	-0.77911164054542
24.282000000000	0.39980627638467	-0.78140401217035
24.289000000000	0.39586002451900	-0.78367151738772
24.296000000000	0.39191215406607	-0.78591423497984
24.303000000000	0.38796284817037	-0.78813224509899
24.310000000000	0.38401228830960	-0.79032562923931
24.317000000000	0.38006065428905	-0.79249447020874
24.324000000000	0.37610812423649	-0.79463885210115
24.331000000000	0.37215487459739	-0.79675886026856
24.338000000000	0.36820108013073	-0.79885458129355
24.345000000000	0.36424691390501	-0.80092610296173
24.352000000000	0.36029254729492	-0.80297351423447
24.359000000000	0.35633814997821	-0.80499690522172
24.366000000000	0.35238388993307	-0.80699636715502
24.373000000000	0.34842993343590	-0.80897199236063
24.380000000000	0.34447644505947	-0.81092387423292
24.387000000000	0.34052358767141	-0.81285210720786
24.394000000000	0.33657152243314	-0.81475678673674
24.401000000000	0.33262040879914	-0.81663800926003
24.408000000000	0.32867040451661	-0.81849587218150
24.415000000000	0.32472166562545	-0.82033047384245
24.422000000000	0.32077434645866	-0.82214191349623
24.429000000000	0.31682859964295	-0.82393029128289
24.436000000000	0.31288457609990	-0.82569570820408
24.443000000000	0.30894242504722	-0.82743826609812
24.450000000000	0.30500229400053	-0.82915806761535
24.457000000000	0.30106432877534	-0.83085521619362
24.464000000000	0.29712867348940	-0.83252981603406
24.471000000000	0.29319547056534	-0.83418197207703
24.478000000000	0.28926486073359	-0.83581178997833
24.485000000000	0.28533698303566	-0.83741937608560
24.492000000000	0.28141197482764	-0.83900483741502
24.499000000000	0.27748997178401	-0.84056828162814
24.506000000000	0.27357110790174	-0.84210981700905
24.513000000000	0.26965551550462	-0.84362955244169
24.520000000000	0.26574332524791	-0.84512759738750
24.527000000000	0.26183466612321	-0.84660406186323
24.534000000000	0.25792966546355	-0.84805905641902
24.541000000000	0.25402844894882	-0.84949269211673
24.548000000000	0.25013114061136	-0.85090508050855
