#Parameters = {C=0; C_off=4.48e-14; C_on=0; H_add_decoupl=0.338; Hair=10; Hair_lower=10; Hpre1=0.204; Hpre1_2=0.306; Hsub1=0.508; Hsub_add1=0.168; Hsub_bottom=0.101; Hsub_top2=0.762; L=1.3e-10; L1=0.02; L2_buf=0.26; L_add_cut=0.66; L_off=0; L_on=1.3e-10; L_stub_low=1.5; Ldiode=0.3302; Lline_low=1; Lp=1.52; Period_wall=0.5; Px=5; R=5.2; R_bottom_in=0.86; R_bottom_out=0.96; R_inner_bottom_ring=0.96; R_off=2.5; R_on=5.2; R_out_bottom_ring=1.11; Sigma_copper=58000000; W_ring_inner=0.15; WcircleInner_2=0.4; Wcut=0.9; Wp=1.52; X1Stub=-1.15; angle_stub=30; delta=0.3; deltaHAdd=0.101; deltaL1=0.14; deltaR2=0.15; deltaRCircle=0.2; deltaStubY=0.1; deltaStubY_top=0.3; delta_annual_ring=0.1; delta_edge=0.1; delta_via=0.9; delta_via_screen_center=0.25; h2_fr4=0.25; h2_prepreg=0.138; hSub=1.067; hfr4=0.102; l_add=0.76; phi=0; r_area=0.2; r_area_center=0.225; r_bottom_2=1.8; r_circle=0; r_out1=0; r_par=0.1; r_par_w=0.05; r_per=0.1; r_rez=0; r_road=0.05; r_shaped=1.15; r_shaped_2=1.2; r_shaped_low=1.2; r_via=0.1; r_via_center=0.125; r_via_wall=0.1; rad_circle=0.65; rez=0; roughness=0.0028; t_pog=0; th=0.018; th2=0.204; th3=0.5; th_top=0.07; theta=30; wDiode=0.3048; w_add=0.1; wstub=0.2}
#"Frequency / GHz"	"SZmax(1),Zmax(1) (theta=30) [Real/Imaginary Part] [Re]"	"SZmax(1),Zmax(1) (theta=30) [Real/Imaginary Part] [Im]"
#-----------------------------------------------------------------------------------------------------------------------------------
22.000000000000	0.43273888919523	0.78039689039537
22.007000000000	0.43699348394177	0.77752285764566
22.014000000000	0.44124492693662	0.77461595169636
22.021000000000	0.44549293042594	0.77167604429471
22.028000000000	0.44973720343366	0.76870300958002
22.035000000000	0.45397745176976	0.76569672414706
22.042000000000	0.45821337803957	0.76265706711005
22.049000000000	0.46244468165430	0.75958392016702
22.056000000000	0.46667105884265	0.75647716766453
22.063000000000	0.47089220266378	0.75333669666293
22.070000000000	0.47510780302136	0.75016239700185
22.077000000000	0.47931754667891	0.74695416136616
22.084000000000	0.48352111727648	0.74371188535220
22.091000000000	0.48771819534847	0.74043546753438
22.098000000000	0.49190845834290	0.73712480953202
22.105000000000	0.49609158064189	0.73377981607653
22.112000000000	0.50026723358356	0.73040039507874
22.119000000000	0.50443508548528	0.72698645769656
22.126000000000	0.50859480166822	0.72353791840278
22.133000000000	0.51274604448346	0.72005469505303
22.140000000000	0.51688847333934	0.71653670895391
22.147000000000	0.52102174473037	0.71298388493127
22.154000000000	0.52514551226757	0.70939615139848
22.161000000000	0.52925942671020	0.70577344042488
22.168000000000	0.53336313599910	0.70211568780416
22.175000000000	0.53745628529141	0.69842283312281
22.182000000000	0.54153851699691	0.69469481982852
22.189000000000	0.54560947081578	0.69093159529847
22.196000000000	0.54966878377804	0.68713311090760
22.203000000000	0.55371609028440	0.68329932209670
22.210000000000	0.55775102214880	0.67943018844036
22.217000000000	0.56177320864244	0.67552567371472
22.224000000000	0.56578227653950	0.67158574596497
22.231000000000	0.56977785016435	0.66761037757260
22.238000000000	0.57375955144046	0.66359954532235
22.245000000000	0.57772699994093	0.65955323046881
22.252000000000	0.58167981294055	0.65547141880261
22.259000000000	0.58561760546965	0.65135410071626
22.266000000000	0.58953999036946	0.64720127126947
22.273000000000	0.59344657834919	0.64301293025398
22.280000000000	0.59733697804478	0.63878908225789
22.287000000000	0.60121079607920	0.63452973672942
22.294000000000	0.60506763712458	0.63023490803992
22.301000000000	0.60890710396583	0.62590461554644
22.308000000000	0.61272879756603	0.62153888365340
22.315000000000	0.61653231713347	0.61713774187359
22.322000000000	0.62031726019031	0.61270122488842
22.329000000000	0.62408322264293	0.60822937260726
22.336000000000	0.62782979885394	0.60372223022598
22.343000000000	0.63155658171581	0.59917984828446
22.350000000000	0.63526316272617	0.59460228272329
22.357000000000	0.63894913206473	0.58998959493933
22.364000000000	0.64261407867186	0.58534185184024
22.371000000000	0.64625759032875	0.58065912589797
22.378000000000	0.64987925373920	0.57594149520102
22.385000000000	0.65347865461299	0.57118904350560
22.392000000000	0.65705537775086	0.56640186028545
22.399000000000	0.66060900713105	0.56158004078045
22.406000000000	0.66413912599734	0.55672368604389
22.413000000000	0.66764531694872	0.55183290298833
22.420000000000	0.67112716203050	0.54690780443008
22.427000000000	0.67458424282694	0.54194850913218
22.434000000000	0.67801614055536	0.53695514184586
22.441000000000	0.68142243616170	0.53192783335052
22.448000000000	0.68480271041749	0.52686672049197
22.455000000000	0.68815654401826	0.52177194621917
22.462000000000	0.69148351768327	0.51664365961914
22.469000000000	0.69478321225664	0.51148201595023
22.476000000000	0.69805520880976	0.50628717667353
22.483000000000	0.70129908874499	0.50105930948254
22.490000000000	0.70451443390066	0.49579858833088
22.497000000000	0.70770082665719	0.49050519345814
22.504000000000	0.71085785004449	0.48517931141374
22.511000000000	0.71398508785044	0.47982113507885
22.518000000000	0.71708212473052	0.47443086368619
22.525000000000	0.72014854631849	0.46900870283781
22.532000000000	0.72318393933806	0.46355486452072
22.539000000000	0.72618789171562	0.45806956712041
22.546000000000	0.72915999269384	0.45255303543209
22.553000000000	0.73209983294618	0.44700550066977
22.560000000000	0.73500700469229	0.44142720047302
22.567000000000	0.73788110181414	0.43581837891149
22.574000000000	0.74072171997294	0.43017928648702
22.581000000000	0.74352845672674	0.42451018013341
22.588000000000	0.74630091164873	0.41881132321379
22.595000000000	0.74903868644603	0.41308298551555
22.602000000000	0.75174138507911	0.40732544324280
22.609000000000	0.75440861388167	0.40153897900632
22.616000000000	0.75703998168088	0.39572388181107
22.623000000000	0.75963509991812	0.38988044704104
22.630000000000	0.76219358276989	0.38400897644161
22.637000000000	0.76471504726906	0.37810977809930
22.644000000000	0.76719911342626	0.37218316641888
22.651000000000	0.76964540435143	0.36622946209791
22.658000000000	0.77205354637541	0.36024899209853
22.665000000000	0.77442316917149	0.35424208961672
22.672000000000	0.77675390587701	0.34820909404870
22.679000000000	0.77904539321469	0.34215035095485
22.686000000000	0.78129727161383	0.33606621202072
22.693000000000	0.78350918533128	0.32995703501544
22.700000000000	0.78568078257198	0.32382318374742
22.707000000000	0.78781171560914	0.31766502801721
22.714000000000	0.78990164090403	0.31148294356777
22.721000000000	0.79195021922508	0.30527731203190
22.728000000000	0.79395711576647	0.29904852087698
22.735000000000	0.79592200026602	0.29279696334697
22.742000000000	0.79784454712231	0.28652303840168
22.749000000000	0.79972443551099	0.28022715065331
22.756000000000	0.80156134950018	0.27390971030031
22.763000000000	0.80335497816494	0.26757113305848
22.770000000000	0.80510501570065	0.26121184008944
22.777000000000	0.80681116153533	0.25483225792635
22.784000000000	0.80847312044076	0.24843281839705
22.791000000000	0.81009060264235	0.24201395854448
22.798000000000	0.81166332392767	0.23557612054454
22.805000000000	0.81319100575364	0.22911975162133
22.812000000000	0.81467337535219	0.22264530395975
22.819000000000	0.81611016583444	0.21615323461571
22.826000000000	0.81750111629327	0.20964400542361
22.833000000000	0.81884597190418	0.20311808290154
22.840000000000	0.82014448402444	0.19657593815387
22.847000000000	0.82139641029048	0.19001804677149
22.854000000000	0.82260151471329	0.18344488872969
22.861000000000	0.82375956777200	0.17685694828362
22.868000000000	0.82487034650538	0.17025471386151
22.875000000000	0.82593363460130	0.16363867795566
22.882000000000	0.82694922248407	0.15700933701108
22.889000000000	0.82791690739954	0.15036719131218
22.896000000000	0.82883649349798	0.14371274486712
22.903000000000	0.82970779191466	0.13704650529026
22.910000000000	0.83053062084805	0.13036898368253
22.917000000000	0.83130480563551	0.12368069450987
22.924000000000	0.83203017882663	0.11698215547972
22.931000000000	0.83270658025396	0.11027388741574
22.938000000000	0.83333385710110	0.10355641413073
22.945000000000	0.83391186396827	0.096830262297775
22.952000000000	0.83444046293506	0.090095961319829
22.959000000000	0.83491952362054	0.083354043197647
22.966000000000	0.83534892324054	0.076605042396200
22.973000000000	0.83572854666208	0.069849495709676
22.980000000000	0.83605828645502	0.063087942125038
22.987000000000	0.83633804294068	0.056320922684328
22.994000000000	0.83656772423760	0.049548980345694
23.001000000000	0.83674724630431	0.042772659843239
23.008000000000	0.83687653297901	0.035992507545829
23.015000000000	0.83695551601633	0.029209071314818
23.022000000000	0.83698413512087	0.022422900360890
23.029000000000	0.83696233797773	0.015634545100003
23.036000000000	0.83689008027990	0.0088445570085468
23.043000000000	0.83676732575244	0.0020534884778336
23.050000000000	0.83659404617358	-0.0047381073320943
23.057000000000	0.83637022139252	-0.011529676639141
23.064000000000	0.83609583934412	-0.018320665186340
23.071000000000	0.83577089606031	-0.025110518389407
23.078000000000	0.83539539567831	-0.031898681484579
23.085000000000	0.83496935044555	-0.038684599676691
23.092000000000	0.83449278072142	-0.045467718287355
23.099000000000	0.83396571497570	-0.052247482903241
23.106000000000	0.83338818978381	-0.059023339524258
23.113000000000	0.83276024981873	-0.065794734711682
23.120000000000	0.83208194783974	-0.072561115736053
23.127000000000	0.83135334467789	-0.079321930724787
23.134000000000	0.83057450921824	-0.086076628809434
23.141000000000	0.82974551837888	-0.092824660272506
23.148000000000	0.82886645708676	-0.099565476693720
23.155000000000	0.82793741825027	-0.10629853109571
23.162000000000	0.82695850272873	-0.11302327808898
23.169000000000	0.82592981929865	-0.11973917401609
23.176000000000	0.82485148461693	-0.12644567709505
23.183000000000	0.82372362318085	-0.13314224756172
23.190000000000	0.82254636728512	-0.13982834781120
23.197000000000	0.82131985697574	-0.14650344253820
23.204000000000	0.82004424000096	-0.15316699887614
23.211000000000	0.81871967175914	-0.15981848653514
23.218000000000	0.81734631524380	-0.16645737793855
23.225000000000	0.81592434098563	-0.17308314835823
23.232000000000	0.81445392699168	-0.17969527604829
23.239000000000	0.81293525868177	-0.18629324237734
23.246000000000	0.81136852882204	-0.19287653195907
23.253000000000	0.80975393745581	-0.19944463278129
23.260000000000	0.80809169183171	-0.20599703633315
23.267000000000	0.80638200632924	-0.21253323773053
23.274000000000	0.80462510238164	-0.21905273583969
23.281000000000	0.80282120839635	-0.22555503339891
23.288000000000	0.80097055967287	-0.23203963713813
23.295000000000	0.79907339831824	-0.23850605789667
23.302000000000	0.79712997316022	-0.24495381073870
23.309000000000	0.79514053965804	-0.25138241506669
23.316000000000	0.79310535981101	-0.25779139473257
23.323000000000	0.79102470206488	-0.26418027814673
23.330000000000	0.78889884121611	-0.27054859838459
23.337000000000	0.78672805831408	-0.27689589329096
23.344000000000	0.78451264056131	-0.28322170558194
23.351000000000	0.78225288121173	-0.28952558294436
23.358000000000	0.77994907946712	-0.29580707813281
23.365000000000	0.77760154037179	-0.30206574906411
23.372000000000	0.77521057470546	-0.30830115890925
23.379000000000	0.77277649887454	-0.31451287618279
23.386000000000	0.77029963480188	-0.32070047482951
23.393000000000	0.76778030981490	-0.32686353430860
23.400000000000	0.76521885653238	-0.33300163967504
23.407000000000	0.76261561274987	-0.33911438165833
23.414000000000	0.75997092132373	-0.34520135673852
23.421000000000	0.75728513005409	-0.35126216721945
23.428000000000	0.75455859156657	-0.35729642129927
23.435000000000	0.75179166319293	-0.36330373313818
23.442000000000	0.74898470685076	-0.36928372292335
23.449000000000	0.74613808892224	-0.37523601693110
23.456000000000	0.74325218013206	-0.38116024758614
23.463000000000	0.74032735542451	-0.38705605351815
23.470000000000	0.73736399383991	-0.39292307961542
23.477000000000	0.73436247839047	-0.39876097707568
23.484000000000	0.73132319593543	-0.40456940345413
23.491000000000	0.72824653705588	-0.41034802270860
23.498000000000	0.72513289592911	-0.41609650524189
23.505000000000	0.72198267020255	-0.42181452794130
23.512000000000	0.71879626086757	-0.42750177421532
23.519000000000	0.71557407213297	-0.43315793402751
23.526000000000	0.71231651129842	-0.43878270392760
23.533000000000	0.70902398862774	-0.44437578707977
23.540000000000	0.70569691722231	-0.44993689328814
23.547000000000	0.70233571289449	-0.45546573901959
23.554000000000	0.69894079404113	-0.46096204742372
23.561000000000	0.69551258151742	-0.46642554835016
23.568000000000	0.69205149851087	-0.47185597836319
23.575000000000	0.68855797041575	-0.47725308075357
23.582000000000	0.68503242470779	-0.48261660554788
23.589000000000	0.68147529081951	-0.48794630951507
23.596000000000	0.67788700001591	-0.49324195617052
23.603000000000	0.67426798527082	-0.49850331577750
23.610000000000	0.67061868114390	-0.50373016534600
23.617000000000	0.66693952365829	-0.50892228862919
23.624000000000	0.66323095017902	-0.51407947611728
23.631000000000	0.65949339929222	-0.51920152502901
23.638000000000	0.65572731068524	-0.52428823930068
23.645000000000	0.65193312502760	-0.52933942957281
23.652000000000	0.64811128385291	-0.53435491317453
23.659000000000	0.64426222944189	-0.53933451410554
23.666000000000	0.64038640470629	-0.54427806301597
23.673000000000	0.63648425307403	-0.54918539718387
23.680000000000	0.63255621837547	-0.55405636049064
23.687000000000	0.62860274473078	-0.55889080339427
23.694000000000	0.62462427643866	-0.56368858290045
23.701000000000	0.62062125786621	-0.56844956253175
23.708000000000	0.61659413334023	-0.57317361229466
23.715000000000	0.61254334703973	-0.57786060864479
23.722000000000	0.60846934288993	-0.58251043445005
23.729000000000	0.60437256445764	-0.58712297895204
23.736000000000	0.60025345484801	-0.59169813772562
23.743000000000	0.59611245660290	-0.59623581263663
23.750000000000	0.59195001160062	-0.60073591179800
23.757000000000	0.58776656095728	-0.60519834952406
23.764000000000	0.58356254492967	-0.60962304628332
23.771000000000	0.57933840281975	-0.61400992864966
23.778000000000	0.57509457288072	-0.61835892925190
23.785000000000	0.57083149222471	-0.62266998672198
23.792000000000	0.56654959673217	-0.62694304564167
23.799000000000	0.56224932096289	-0.63117805648794
23.806000000000	0.55793109806872	-0.63537497557689
23.813000000000	0.55359535970795	-0.63953376500650
23.820000000000	0.54924253596152	-0.64365439259809
23.827000000000	0.54487305525080	-0.64773683183665
23.834000000000	0.54048734425727	-0.65178106180988
23.841000000000	0.53608582784383	-0.65578706714636
23.848000000000	0.53166892897795	-0.65975483795248
23.855000000000	0.52723706865655	-0.66368436974851
23.862000000000	0.52279066583267	-0.66757566340363
23.869000000000	0.51833013734394	-0.67142872507012
23.876000000000	0.51385589784278	-0.67524356611668
23.883000000000	0.50936835972844	-0.67902020306095
23.890000000000	0.50486793308085	-0.68275865750124
23.897000000000	0.50035502559616	-0.68645895604760
23.904000000000	0.49583004252418	-0.69012113025220
23.911000000000	0.49129338660757	-0.69374521653906
23.918000000000	0.48674545802275	-0.69733125613324
23.925000000000	0.48218665432274	-0.70087929498948
23.932000000000	0.47761737038159	-0.70438938372037
23.939000000000	0.47303799834076	-0.70786157752402
23.946000000000	0.46844892755711	-0.71129593611140
23.953000000000	0.46385054455276	-0.71469252363326
23.960000000000	0.45924323296662	-0.71805140860673
23.967000000000	0.45462737350772	-0.72137266384167
23.974000000000	0.45000334391018	-0.72465636636676
23.981000000000	0.44537151888998	-0.72790259735538
23.988000000000	0.44073227010342	-0.73111144205133
23.995000000000	0.43608596610717	-0.73428298969440
24.002000000000	0.43143297232015	-0.73741733344592
24.009000000000	0.42677365098693	-0.74051457031416
24.016000000000	0.42210836114288	-0.74357480107976
24.023000000000	0.41743745858087	-0.74659813022117
24.030000000000	0.41276129581962	-0.74958466584017
24.037000000000	0.40808022207366	-0.75253451958736
24.044000000000	0.40339458322483	-0.75544780658791
24.051000000000	0.39870472179535	-0.75832464536734
24.058000000000	0.39401097692247	-0.76116515777755
24.065000000000	0.38931368433456	-0.76396946892298
24.072000000000	0.38461317632878	-0.76673770708708
24.079000000000	0.37990978175019	-0.76947000365897
24.086000000000	0.37520382597234	-0.77216649306046
24.093000000000	0.37049563087925	-0.77482731267334
24.100000000000	0.36578551484889	-0.77745260276700
24.107000000000	0.36107379273798	-0.78004250642644
24.114000000000	0.35636077586821	-0.78259716948070
24.121000000000	0.35164677201379	-0.78511674043161
24.128000000000	0.34693208539034	-0.78760137038309
24.135000000000	0.34221701664508	-0.79005121297081
24.142000000000	0.33750186284828	-0.79246642429241
24.149000000000	0.33278691748603	-0.79484716283813
24.156000000000	0.32807247045420	-0.79719358942206
24.163000000000	0.32335880805360	-0.79950586711381
24.170000000000	0.31864621298637	-0.80178416117088
24.177000000000	0.31393496435354	-0.80402863897143
24.184000000000	0.30922533765364	-0.80623946994781
24.191000000000	0.30451760478260	-0.80841682552054
24.198000000000	0.29981203403452	-0.81056087903304
24.205000000000	0.29510889010373	-0.81267180568689
24.212000000000	0.29040843408775	-0.81474978247780
24.219000000000	0.28571092349132	-0.81679498813223
24.226000000000	0.28101661223143	-0.81880760304462
24.233000000000	0.27632575064331	-0.82078780921543
24.240000000000	0.27163858548739	-0.82273579018973
24.247000000000	0.26695535995719	-0.82465173099660
24.254000000000	0.26227631368806	-0.82653581808917
24.261000000000	0.25760168276686	-0.82838823928547
24.268000000000	0.25293169974246	-0.83020918370988
24.275000000000	0.24826659363711	-0.83199884173548
24.282000000000	0.24360658995857	-0.83375740492699
24.289000000000	0.23895191071302	-0.83548506598458
24.296000000000	0.23430277441884	-0.83718201868835
24.303000000000	0.22965939612098	-0.83884845784363
24.310000000000	0.22502198740615	-0.84048457922705
24.317000000000	0.22039075641868	-0.84209057953333
24.324000000000	0.21576590787700	-0.84366665632287
24.331000000000	0.21114764309091	-0.84521300797018
24.338000000000	0.20653615997930	-0.84672983361295
24.345000000000	0.20193165308860	-0.84821733310209
24.352000000000	0.19733431361182	-0.84967570695239
24.359000000000	0.19274432940805	-0.85110515629403
24.366000000000	0.18816188502264	-0.85250588282494
24.373000000000	0.18358716170779	-0.85387808876382
24.380000000000	0.17902033744373	-0.85522197680406
24.387000000000	0.17446158696034	-0.85653775006840
24.394000000000	0.16991108175923	-0.85782561206436
24.401000000000	0.16536899013631	-0.85908576664052
24.408000000000	0.16083547720473	-0.86031841794349
24.415000000000	0.15631070491828	-0.86152377037576
24.422000000000	0.15179483209512	-0.86270202855426
24.429000000000	0.14728801444195	-0.86385339726971
24.436000000000	0.14279040457851	-0.86497808144682
24.443000000000	0.13830215206236	-0.86607628610511
24.450000000000	0.13382340341404	-0.86714821632066
24.457000000000	0.12935430214257	-0.86819407718851
24.464000000000	0.12489498877109	-0.86921407378586
24.471000000000	0.12044560086295	-0.87020841113607
24.478000000000	0.11600627304788	-0.87117729417332
24.485000000000	0.11157713704856	-0.87212092770806
24.492000000000	0.10715832170727	-0.87303951639325
24.499000000000	0.10274995301282	-0.87393326469127
24.506000000000	0.098352154127702	-0.87480237684155
24.513000000000	0.093965045415311	-0.87564705682900
24.520000000000	0.089588744467443	-0.87646750835308
24.527000000000	0.085223366131877	-0.87726393479766
24.534000000000	0.080869022540104	-0.87803653920150
24.541000000000	0.076525823135194	-0.87878552422946
24.548000000000	0.072193874699752	-0.87951109214449
