#Parameters = {C=0; C_off=4.48e-14; C_on=0; H_add_decoupl=0.338; Hair=10; Hair_lower=10; Hpre1=0.204; Hpre1_2=0.306; Hsub1=0.508; Hsub_add1=0.168; Hsub_bottom=0.101; Hsub_top2=0.762; L=1.3e-10; L1=0.02; L2_buf=0.26; L_add_cut=0.66; L_off=0; L_on=1.3e-10; L_stub_low=1.5; Ldiode=0.3302; Lline_low=1; Lp=1.52; Period_wall=0.5; Px=5; R=5.2; R_bottom_in=0.86; R_bottom_out=0.96; R_inner_bottom_ring=0.96; R_off=2.5; R_on=5.2; R_out_bottom_ring=1.11; Sigma_copper=58000000; W_ring_inner=0.15; WcircleInner_2=0.4; Wcut=0.9; Wp=1.52; X1Stub=-1.15; angle_stub=30; delta=0.3; deltaHAdd=0.101; deltaL1=0.14; deltaR2=0.15; deltaRCircle=0.2; deltaStubY=0.1; deltaStubY_top=0.3; delta_annual_ring=0.1; delta_edge=0.1; delta_via=0.9; delta_via_screen_center=0.25; h2_fr4=0.25; h2_prepreg=0.138; hSub=1.067; hfr4=0.102; l_add=0.76; phi=0; r_area=0.2; r_area_center=0.225; r_bottom_2=1.8; r_circle=0; r_out1=0; r_par=0.1; r_par_w=0.05; r_per=0.1; r_rez=0; r_road=0.05; r_shaped=1.15; r_shaped_2=1.2; r_shaped_low=1.2; r_via=0.1; r_via_center=0.125; r_via_wall=0.1; rad_circle=0.65; rez=0; roughness=0.0028; t_pog=0; th=0.018; th2=0.204; th3=0.5; th_top=0.07; theta=45; wDiode=0.3048; w_add=0.1; wstub=0.2}
#"Frequency / GHz"	"SZmax(1),Zmax(1) (theta=45) [Real/Imaginary Part] [Re]"	"SZmax(1),Zmax(1) (theta=45) [Real/Imaginary Part] [Im]"
#-----------------------------------------------------------------------------------------------------------------------------------
22.000000000000	0.24077817180417	0.85041944144829
22.007000000000	0.24595410185347	0.84828386677994
22.014000000000	0.25113893402612	0.84610640265684
22.021000000000	0.25633233700254	0.84388668988160
22.028000000000	0.26153397207531	0.84162437023185
22.035000000000	0.26674349308353	0.83931908658656
22.042000000000	0.27196054634864	0.83697048305526
22.049000000000	0.27718477061189	0.83457820511012
22.056000000000	0.28241579697347	0.83214189972099
22.063000000000	0.28765324883348	0.82966121549331
22.070000000000	0.29289674183474	0.82713580280904
22.077000000000	0.29814588380756	0.82456531397040
22.084000000000	0.30340027471663	0.82194940334662
22.091000000000	0.30865950661008	0.81928772752354
22.098000000000	0.31392316357074	0.81657994545627
22.105000000000	0.31919082166981	0.81382571862455
22.112000000000	0.32446204892305	0.81102471119121
22.119000000000	0.32973640524942	0.80817659016336
22.126000000000	0.33501344243255	0.80528102555659
22.133000000000	0.34029270408486	0.80233769056185
22.140000000000	0.34557372561467	0.79934626171533
22.147000000000	0.35085603419622	0.79630641907102
22.154000000000	0.35613914874293	0.79321784637608
22.161000000000	0.36142257988374	0.79008023124894
22.168000000000	0.36670582994288	0.78689326536008
22.175000000000	0.37198839292304	0.78365664461552
22.182000000000	0.37726975449214	0.78037006934289
22.189000000000	0.38254939197373	0.77703324448002
22.196000000000	0.38782677434121	0.77364587976615
22.203000000000	0.39310136221592	0.77020768993549
22.210000000000	0.39837260786932	0.76671839491326
22.217000000000	0.40363995522919	0.76317772001400
22.224000000000	0.40890283989022	0.75958539614219
22.231000000000	0.41416068912883	0.75594115999504
22.238000000000	0.41941292192256	0.75224475426740
22.245000000000	0.42465894897403	0.74849592785869
22.252000000000	0.42989817273962	0.74469443608180
22.259000000000	0.43512998746293	0.74084004087381
22.266000000000	0.44035377921323	0.73693251100853
22.273000000000	0.44556892592895	0.73297162231061
22.280000000000	0.45077479746629	0.72895715787127
22.287000000000	0.45597075565314	0.72488890826545
22.294000000000	0.46115615434838	0.72076667177030
22.301000000000	0.46633033950662	0.71659025458484
22.308000000000	0.47149264924855	0.71235947105077
22.315000000000	0.47664241393701	0.70807414387414
22.322000000000	0.48177895625879	0.70373410434793
22.329000000000	0.48690159131237	0.69933919257523
22.336000000000	0.49200962670160	0.69488925769304
22.343000000000	0.49710236263547	0.69038415809632
22.350000000000	0.50217909203403	0.68582376166243
22.357000000000	0.50723910064059	0.68120794597550
22.364000000000	0.51228166714020	0.67653659855078
22.371000000000	0.51730606328455	0.67180961705869
22.378000000000	0.52231155402339	0.66702690954845
22.385000000000	0.52729739764238	0.66218839467108
22.392000000000	0.53226284590773	0.65729400190156
22.399000000000	0.53720714421735	0.65234367176011
22.406000000000	0.54212953175878	0.64733735603211
22.413000000000	0.54702924167399	0.64227501798681
22.420000000000	0.55190550123079	0.63715663259435
22.427000000000	0.55675753200134	0.63198218674103
22.434000000000	0.56158455004738	0.62675167944252
22.441000000000	0.56638576611244	0.62146512205500
22.448000000000	0.57116038582101	0.61612253848368
22.455000000000	0.57590760988461	0.61072396538883
22.462000000000	0.58062663431485	0.60526945238884
22.469000000000	0.58531665064346	0.59975906226017
22.476000000000	0.58997684614921	0.59419287113409
22.483000000000	0.59460640409189	0.58857096868966
22.490000000000	0.59920450395302	0.58289345834308
22.497000000000	0.60377032168359	0.57716045743291
22.504000000000	0.60830302995863	0.57137209740102
22.511000000000	0.61280179843846	0.56552852396906
22.518000000000	0.61726579403681	0.55962989731008
22.525000000000	0.62169418119554	0.55367639221527
22.532000000000	0.62608612216598	0.54766819825530
22.539000000000	0.63044077729680	0.54160551993632
22.546000000000	0.63475730532832	0.53548857685004
22.553000000000	0.63903486369308	0.52931760381798
22.560000000000	0.64327260882271	0.52309285102938
22.567000000000	0.64746969646085	0.51681458417270
22.574000000000	0.65162528198207	0.51048308456033
22.581000000000	0.65573852071659	0.50409864924641
22.588000000000	0.65980856828070	0.49766159113737
22.595000000000	0.66383458091271	0.49117223909513
22.602000000000	0.66781571581427	0.48463093803249
22.609000000000	0.67175113149683	0.47803804900077
22.616000000000	0.67563998813314	0.47139394926918
22.623000000000	0.67948144791352	0.46469903239594
22.630000000000	0.68327467540674	0.45795370829072
22.637000000000	0.68701883792526	0.45115840326840
22.644000000000	0.69071310589464	0.44431356009375
22.651000000000	0.69435665322685	0.43741963801696
22.658000000000	0.69794865769724	0.43047711279969
22.665000000000	0.70148830132498	0.42348647673164
22.672000000000	0.70497477075657	0.41644823863725
22.679000000000	0.70840725765234	0.40936292387253
22.686000000000	0.71178495907547	0.40223107431166
22.693000000000	0.71510707788335	0.39505324832344
22.700000000000	0.71837282312099	0.38783002073719
22.707000000000	0.72158141041609	0.38056198279816
22.714000000000	0.72473206237557	0.37324974211219
22.721000000000	0.72782400898313	0.36589392257954
22.728000000000	0.73085648799763	0.35849516431777
22.735000000000	0.73382874535182	0.35105412357363
22.742000000000	0.73674003555118	0.34357147262368
22.749000000000	0.73958962207257	0.33604789966387
22.756000000000	0.74237677776213	0.32848410868764
22.763000000000	0.74510078523233	0.32088081935286
22.770000000000	0.74776093725760	0.31323876683721
22.777000000000	0.75035653716835	0.30555870168227
22.784000000000	0.75288689924287	0.29784138962613
22.791000000000	0.75535134909678	0.29008761142447
22.798000000000	0.75774922406971	0.28229816266036
22.805000000000	0.76007987360873	0.27447385354256
22.812000000000	0.76234265964834	0.26661550869234
22.819000000000	0.76453695698633	0.25872396691920
22.826000000000	0.76666215365541	0.25080008098508
22.833000000000	0.76871765129020	0.24284471735758
22.840000000000	0.77070286548893	0.23485875595189
22.847000000000	0.77261722616987	0.22684308986190
22.854000000000	0.77446017792181	0.21879862508033
22.861000000000	0.77623118034832	0.21072628020812
22.868000000000	0.77792970840541	0.20262698615331
22.875000000000	0.77955525273229	0.19450168581941
22.882000000000	0.78110731997474	0.18635133378355
22.889000000000	0.78258543310075	0.17817689596459
22.896000000000	0.78398913170828	0.16997934928137
22.903000000000	0.78531797232440	0.16175968130132
22.910000000000	0.78657152869591	0.15351888987966
22.917000000000	0.78774939207077	0.14525798278952
22.924000000000	0.78885117147013	0.13697797734308
22.931000000000	0.78987649395074	0.12867990000416
22.938000000000	0.79082500485722	0.12036478599246
22.945000000000	0.79169636806414	0.11203367887978
22.952000000000	0.79249026620733	0.10368763017852
22.959000000000	0.79320640090445	0.095327698922784
22.966000000000	0.79384449296431	0.086954951242406
22.973000000000	0.79440428258479	0.078570459930319
22.980000000000	0.79488552953913	0.070175304003490
22.987000000000	0.79528801335027	0.061770568257925
22.994000000000	0.79561153345318	0.053357342818022
23.001000000000	0.79585590934474	0.044936722680677
23.008000000000	0.79602098072125	0.036509807254598
23.015000000000	0.79610660760316	0.028077699895112
23.022000000000	0.79611267044696	0.019641507434993
23.029000000000	0.79603907024418	0.011202339711637
23.036000000000	0.79588572860712	0.0027613090910238
23.043000000000	0.79565258784145	-0.0056804700110484
23.050000000000	0.79533961100539	-0.014121881610142
23.057000000000	0.79494678195553	-0.022561808636207
23.064000000000	0.79447410537911	-0.030999133418127
23.071000000000	0.79392160681277	-0.039432738169302
23.078000000000	0.79328933264769	-0.047861505473777
23.085000000000	0.79257735012117	-0.056284318772594
23.092000000000	0.79178574729455	-0.064700062849768
23.099000000000	0.79091463301760	-0.073107624317607
23.106000000000	0.78996413687928	-0.081505892100776
23.113000000000	0.78893440914503	-0.089893757918785
23.120000000000	0.78782562068057	-0.098270116766413
23.127000000000	0.78663796286239	-0.10663386739159
23.134000000000	0.78537164747486	-0.11498391277039
23.141000000000	0.78402690659427	-0.12331916057866
23.148000000000	0.78260399245978	-0.13163852365980
23.155000000000	0.78110317733150	-0.13994092048841
23.162000000000	0.77952475333576	-0.14822527562930
23.169000000000	0.77786903229794	-0.15649052019144
23.176000000000	0.77613634556282	-0.16473559227650
23.183000000000	0.77432704380280	-0.17295943742160
23.190000000000	0.77244149681412	-0.18116100903582
23.197000000000	0.77048009330145	-0.18933926883020
23.204000000000	0.76844324065086	-0.19749318724070
23.211000000000	0.76633136469168	-0.20562174384401
23.218000000000	0.76414490944733	-0.21372392776557
23.225000000000	0.76188433687549	-0.22179873807979
23.232000000000	0.75955012659790	-0.22984518420186
23.239000000000	0.75714277562003	-0.23786228627102
23.246000000000	0.75466279804103	-0.24584907552494
23.253000000000	0.75211072475417	-0.25380459466492
23.260000000000	0.74948710313817	-0.26172789821165
23.267000000000	0.74679249673983	-0.26961805285128
23.274000000000	0.74402748494806	-0.27747413777155
23.281000000000	0.74119266266001	-0.28529524498771
23.288000000000	0.73828863993935	-0.29308047965810
23.295000000000	0.73531604166721	-0.30082896038916
23.302000000000	0.73227550718625	-0.30853981952957
23.309000000000	0.72916768993797	-0.31621220345356
23.316000000000	0.72599325709390	-0.32384527283305
23.323000000000	0.72275288918094	-0.33143820289858
23.330000000000	0.71944727970121	-0.33899018368879
23.337000000000	0.71607713474687	-0.34650042028857
23.344000000000	0.71264317261028	-0.35396813305547
23.351000000000	0.70914612338989	-0.36139255783450
23.358000000000	0.70558672859217	-0.36877294616127
23.365000000000	0.70196574073020	-0.37610856545321
23.372000000000	0.69828392291899	-0.38339869918908
23.379000000000	0.69454204846826	-0.39064264707658
23.386000000000	0.69074090047277	-0.39783972520805
23.393000000000	0.68688127140079	-0.40498926620445
23.400000000000	0.68296396268101	-0.41209061934735
23.407000000000	0.67898978428831	-0.41914315069918
23.414000000000	0.67495955432866	-0.42614624321175
23.421000000000	0.67087409862368	-0.43309929682298
23.428000000000	0.66673425029513	-0.44000172854206
23.435000000000	0.66254084934967	-0.44685297252303
23.442000000000	0.65829474226432	-0.45365248012685
23.449000000000	0.65399678157294	-0.46039971997225
23.456000000000	0.64964782545401	-0.46709417797515
23.463000000000	0.64524873732015	-0.47373535737717
23.470000000000	0.64080038540961	-0.48032277876298
23.477000000000	0.63630364238018	-0.48685598006701
23.484000000000	0.63175938490561	-0.49333451656933
23.491000000000	0.62716849327509	-0.49975796088118
23.498000000000	0.62253185099594	-0.50612590292004
23.505000000000	0.61785034439980	-0.51243794987471
23.512000000000	0.61312486225264	-0.51869372616034
23.519000000000	0.60835629536888	-0.52489287336379
23.526000000000	0.60354553622975	-0.53103505017940
23.533000000000	0.59869347860628	-0.53711993233554
23.540000000000	0.59380101718715	-0.54314721251191
23.547000000000	0.58886904721141	-0.54911660024817
23.554000000000	0.58389846410666	-0.55502782184379
23.561000000000	0.57889016313256	-0.56088062024950
23.568000000000	0.57384503902999	-0.56667475495073
23.575000000000	0.56876398567617	-0.57241000184295
23.582000000000	0.56364789574566	-0.57808615309947
23.589000000000	0.55849766037766	-0.58370301703182
23.596000000000	0.55331416884955	-0.58926041794289
23.603000000000	0.54809830825702	-0.59475819597331
23.610000000000	0.54285096320073	-0.60019620694106
23.617000000000	0.53757301547974	-0.60557432217477
23.624000000000	0.53226534379189	-0.61089242834088
23.631000000000	0.52692882344095	-0.61615042726499
23.638000000000	0.52156432605105	-0.62134823574751
23.645000000000	0.51617271928807	-0.62648578537410
23.652000000000	0.51075486658839	-0.63156302232099
23.659000000000	0.50531162689482	-0.63657990715545
23.666000000000	0.49984385439994	-0.64153641463176
23.673000000000	0.49435239829676	-0.64643253348289
23.680000000000	0.48883810253693	-0.65126826620813
23.687000000000	0.48330180559624	-0.65604362885693
23.694000000000	0.47774434024775	-0.66075865080925
23.701000000000	0.47216653334231	-0.66541337455255
23.708000000000	0.46656920559664	-0.67000785545589
23.715000000000	0.46095317138886	-0.67454216154105
23.722000000000	0.45531923856153	-0.67901637325129
23.729000000000	0.44966820823214	-0.68343058321770
23.736000000000	0.44400087461104	-0.68778489602343
23.743000000000	0.43831802482679	-0.69207942796618
23.750000000000	0.43262043875884	-0.69631430681898
23.757000000000	0.42690888887760	-0.70048967158963
23.764000000000	0.42118414009172	-0.70460567227883
23.771000000000	0.41544694960258	-0.70866246963751
23.778000000000	0.40969806676599	-0.71266023492320
23.785000000000	0.40393823296093	-0.71659914965599
23.792000000000	0.39816818146526	-0.72047940537400
23.799000000000	0.39238863733847	-0.72430120338871
23.806000000000	0.38660031731113	-0.72806475454032
23.813000000000	0.38080392968122	-0.73177027895324
23.820000000000	0.37500017421708	-0.73541800579196
23.827000000000	0.36918974206692	-0.73900817301747
23.834000000000	0.36337331567477	-0.74254102714437
23.841000000000	0.35755156870292	-0.74601682299877
23.848000000000	0.35172516596046	-0.74943582347733
23.855000000000	0.34589476333808	-0.75279829930727
23.862000000000	0.34006100774890	-0.75610452880791
23.869000000000	0.33422453707517	-0.75935479765339
23.876000000000	0.32838598012084	-0.76254939863721
23.883000000000	0.32254595656978	-0.76568863143826
23.890000000000	0.31670507694963	-0.76877280238880
23.897000000000	0.31086394260101	-0.77180222424433
23.904000000000	0.30502314565211	-0.77477721595544
23.911000000000	0.29918326899851	-0.77769810244195
23.918000000000	0.29334488628800	-0.78056521436917
23.925000000000	0.28750856191042	-0.78337888792655
23.932000000000	0.28167485099225	-0.78613946460880
23.939000000000	0.27584429939599	-0.78884729099945
23.946000000000	0.27001744372398	-0.79150271855708
23.953000000000	0.26419481132680	-0.79410610340419
23.960000000000	0.25837692031584	-0.79665780611883
23.967000000000	0.25256427958017	-0.79915819152900
23.974000000000	0.24675738880740	-0.80160762850997
23.981000000000	0.24095673850843	-0.80400648978451
23.988000000000	0.23516281004613	-0.80635515172607
23.995000000000	0.22937607566755	-0.80865399416505
24.002000000000	0.22359699853976	-0.81090340019804
24.009000000000	0.21782603278909	-0.81310375600027
24.016000000000	0.21206362354368	-0.81525545064116
24.023000000000	0.20631020697920	-0.81735887590303
24.030000000000	0.20056621036762	-0.81941442610304
24.037000000000	0.19483205212895	-0.82142249791835
24.044000000000	0.18910814188574	-0.82338349021450
24.051000000000	0.18339488052035	-0.82529780387712
24.058000000000	0.17769266023478	-0.82716584164683
24.065000000000	0.17200186461291	-0.82898800795753
24.072000000000	0.16632286868524	-0.83076470877785
24.079000000000	0.16065603899574	-0.83249635145605
24.086000000000	0.15500173367095	-0.83418334456813
24.093000000000	0.14936030249101	-0.83582609776924
24.100000000000	0.14373208696274	-0.83742502164839
24.107000000000	0.13811742039444	-0.83898052758651
24.114000000000	0.13251662797250	-0.84049302761769
24.121000000000	0.12693002683959	-0.84196293429375
24.128000000000	0.12135792617440	-0.84339066055203
24.135000000000	0.11580062727278	-0.84477661958648
24.142000000000	0.11025842363032	-0.84612122472185
24.149000000000	0.10473160102607	-0.84742488929119
24.156000000000	0.099220437607467	-0.84868802651646
24.163000000000	0.093725203976401	-0.84991104939234
24.170000000000	0.088246163276170	-0.85109437057309
24.177000000000	0.082783571279433	-0.85223840226259
24.184000000000	0.077337676476936	-0.85334355610741
24.191000000000	0.071908720167042	-0.85441024309291
24.198000000000	0.066496936545901	-0.85543887344236
24.205000000000	0.061102552798231	-0.85642985651905
24.212000000000	0.055725789188660	-0.85738360073130
24.219000000000	0.050366859153488	-0.85830051344043
24.226000000000	0.045025969392893	-0.85918100087155
24.233000000000	0.039703319963420	-0.86002546802718
24.240000000000	0.034399104370765	-0.86083431860374
24.247000000000	0.029113509662772	-0.86160795491069
24.254000000000	0.023846716522548	-0.86234677779248
24.261000000000	0.018598899361694	-0.86305118655310
24.268000000000	0.013370226413565	-0.86372157888332
24.275000000000	0.0081608598264858	-0.86435835079048
24.282000000000	0.0029709557569442	-0.86496189653088
24.289000000000	-0.0021993355373913	-0.86553260854467
24.296000000000	-0.0073498696047716	-0.86607087739315
24.303000000000	-0.012480507706723	-0.86657709169857
24.310000000000	-0.017591116725628	-0.86705163808629
24.317000000000	-0.022681569072624	-0.86749490112925
24.324000000000	-0.027751742595851	-0.86790726329476
24.331000000000	-0.032801520489052	-0.86828910489358
24.338000000000	-0.037830791200619	-0.86864080403110
24.345000000000	-0.042839448343074	-0.86896273656082
24.352000000000	-0.047827390603039	-0.86925527603985
24.359000000000	-0.052794521651749	-0.86951879368655
24.366000000000	-0.057740750056059	-0.86975365834015
24.373000000000	-0.062665989190110	-0.86996023642242
24.380000000000	-0.067570157147521	-0.87013889190126
24.387000000000	-0.072453176654276	-0.87028998625618
24.394000000000	-0.077314974982242	-0.87041387844568
24.401000000000	-0.082155483863373	-0.87051092487642
24.408000000000	-0.086974639404630	-0.87058147937421
24.415000000000	-0.091772382003606	-0.87062589315667
24.422000000000	-0.096548656264918	-0.87064451480765
24.429000000000	-0.10130341091737	-0.87063769025330
24.436000000000	-0.10603659873184	-0.87060576273970
24.443000000000	-0.11074817644009	-0.87054907281210
24.450000000000	-0.11543810465422	-0.87046795829574
24.457000000000	-0.12010634778711	-0.87036275427809
24.464000000000	-0.12475287397359	-0.87023379309254
24.471000000000	-0.12937765499254	-0.87008140430362
24.478000000000	-0.13398066618979	-0.86990591469346
24.485000000000	-0.13856188640195	-0.86970764824968
24.492000000000	-0.14312129788107	-0.86948692615456
24.499000000000	-0.14765888622024	-0.86924406677545
24.506000000000	-0.15217464028007	-0.86897938565650
24.513000000000	-0.15666855211606	-0.86869319551146
24.520000000000	-0.16114061690689	-0.86838580621772
24.527000000000	-0.16559083288363	-0.86805752481152
24.534000000000	-0.17001920125987	-0.86770865548414
24.541000000000	-0.17442572616279	-0.86733949957922
