#Parameters = {L=6; d=0.018; h=0.508; h_air=12; w=2.75}
#"Frequency / GHz"	"SZmax(2),Zmax(2) [Real/Imaginary Part] [Re]"	"SZmax(2),Zmax(2) [Real/Imaginary Part] [Im]"
#-------------------------------------------------------------------------------------------------------------
20.000000000000	-0.60712894506762	0.78909603200424
20.010000000000	-0.60630974167339	0.78970824959577
20.020000000000	-0.60548773740274	0.79032118491546
20.030000000000	-0.60466291244177	0.79093483732440
20.040000000000	-0.60383524374260	0.79154920531505
20.050000000000	-0.60300470093385	0.79216428717580
20.060000000000	-0.60217123607847	0.79278008719573
20.070000000000	-0.60133476674768	0.79339665342567
20.080000000000	-0.60049526717076	0.79401421280867
20.090000000000	-0.59965322815207	0.79463286154015
20.100000000000	-0.59880864503954	0.79525189421832
20.110000000000	-0.59796097459495	0.79587139418803
20.120000000000	-0.59711020581307	0.79649159939676
20.130000000000	-0.59625638981729	0.79711255908236
20.140000000000	-0.59539954061906	0.79773427662663
20.150000000000	-0.59453965361072	0.79835674958823
20.156250000000	-0.59400067631804	0.79874617787068
20.160000000000	-0.59367671655087	0.79897997597548
20.170000000000	-0.59281071386868	0.79960395479814
20.180000000000	-0.59194162837795	0.80022868582549
20.190000000000	-0.59106944201053	0.80085416933078
20.200000000000	-0.59019413615453	0.80148040591302
20.210000000000	-0.58931569182076	0.80210739638197
20.220000000000	-0.58843408972935	0.80273514168450
20.230000000000	-0.58754931035679	0.80336364285685
20.240000000000	-0.58666133396237	0.80399290099301
20.250000000000	-0.58577014060324	0.80462291722340
20.260000000000	-0.58487571014317	0.80525369270007
20.270000000000	-0.58397802225738	0.80588522858621
20.280000000000	-0.58307705643505	0.80651752604851
20.290000000000	-0.58217279198043	0.80715058625158
20.300000000000	-0.58126520801293	0.80778441035362
20.310000000000	-0.58035428346658	0.80841899950310
20.312500000000	-0.58012602787815	0.80857776646258
20.320000000000	-0.57943999708907	0.80905435483612
20.330000000000	-0.57852232744049	0.80969047747423
20.340000000000	-0.57760125289180	0.81032736852264
20.350000000000	-0.57667675162318	0.81096502906871
20.360000000000	-0.57574880162220	0.81160346018056
20.370000000000	-0.57481738068194	0.81224266290592
20.380000000000	-0.57388246639896	0.81288263827105
20.390000000000	-0.57294403617123	0.81352338727972
20.400000000000	-0.57200206719596	0.81416491091226
20.410000000000	-0.57105653646736	0.81480721012471
20.420000000000	-0.57010742077438	0.81545028584790
20.430000000000	-0.56915469669828	0.81609413898663
20.440000000000	-0.56819834061023	0.81673877041881
20.450000000000	-0.56723832866872	0.81738418099460
20.460000000000	-0.56627463681698	0.81803037153556
20.468750000000	-0.56542836869255	0.81859642869746
20.470000000000	-0.56530724078022	0.81867734283372
20.480000000000	-0.56433611606280	0.81932509565062
20.490000000000	-0.56336123794521	0.81997363071629
20.500000000000	-0.56238258148100	0.82062294872805
20.510000000000	-0.56140012149343	0.82127305034925
20.520000000000	-0.56041383257203	0.82192393620770
20.530000000000	-0.55942368906886	0.82257560689381
20.540000000000	-0.55842966509465	0.82322806295834
20.550000000000	-0.55743173451471	0.82388130490948
20.560000000000	-0.55642987094473	0.82453533320916
20.570000000000	-0.55542404774658	0.82519014826821
20.580000000000	-0.55441423802446	0.82584575044004
20.590000000000	-0.55340041462177	0.82650214001231
20.600000000000	-0.55238255011978	0.82715931719631
20.610000000000	-0.55136061683930	0.82781728211342
20.620000000000	-0.55033458684766	0.82847603477903
20.625000000000	-0.54982002679043	0.82880570648897
20.630000000000	-0.54930443197406	0.82913557508478
20.640000000000	-0.54827012383709	0.82979590278246
20.650000000000	-0.54723163388809	0.83045701747609
20.660000000000	-0.54618893347123	0.83111891863378
20.670000000000	-0.54514199389365	0.83178160563541
20.680000000000	-0.54409078648492	0.83244507787239
20.690000000000	-0.54303528260723	0.83310933490275
20.700000000000	-0.54197545356897	0.83377437663330
20.710000000000	-0.54091127041524	0.83444020345742
20.720000000000	-0.53984270363168	0.83510681625610
20.730000000000	-0.53876972287247	0.83577421621162
20.740000000000	-0.53769229684242	0.83644240448407
20.750000000000	-0.53661039338910	0.83711138188762
20.760000000000	-0.53552397974420	0.83778114869819
20.770000000000	-0.53443302278999	0.83845170463519
20.780000000000	-0.53333748925156	0.83912304896880
20.781250000000	-0.53320022410803	0.83920702239572
20.790000000000	-0.53223734578312	0.83979518067181
20.800000000000	-0.53113255896975	0.84046809855458
20.810000000000	-0.53002309528283	0.84114180135760
20.820000000000	-0.52890892102105	0.84181628780213
20.830000000000	-0.52779000225489	0.84249155661011
20.840000000000	-0.52666630478153	0.84316760650569
20.850000000000	-0.52553779409090	0.84384443620749
20.860000000000	-0.52440443534048	0.84452204441744
20.870000000000	-0.52326619333641	0.84520042980906
20.880000000000	-0.52212303251815	0.84587959101657
20.890000000000	-0.52097491694469	0.84655952662488
20.900000000000	-0.51982181028058	0.84724023516006
20.910000000000	-0.51866367578035	0.84792171507933
20.920000000000	-0.51750047627008	0.84860396475878
20.930000000000	-0.51633217412486	0.84928698247641
20.937500000000	-0.51545257600922	0.84979974868504
20.940000000000	-0.51515873124160	0.84997076638648
20.950000000000	-0.51398010900747	0.85065531447870
20.960000000000	-0.51279626826719	0.85134062451255
20.970000000000	-0.51160716929923	0.85202669391264
20.980000000000	-0.51041277182481	0.85271351960746
20.990000000000	-0.50921303510040	0.85340109779876
21.000000000000	-0.50800791818595	0.85408942367904
21.010000000000	-0.50679738051918	0.85477849120708
21.020000000000	-0.50558138288124	0.85546829323982
21.030000000000	-0.50435988853182	0.85615882253274
21.040000000000	-0.50313286361053	0.85685007396259
21.050000000000	-0.50190027542454	0.85754204718657
21.060000000000	-0.50066208845962	0.85823474736001
21.070000000000	-0.49941826079525	0.85892818216562
21.080000000000	-0.49816874416304	0.85962235707665
21.090000000000	-0.49691348727040	0.86031727268190
21.093750000000	-0.49644127557526	0.86057805632554
21.100000000000	-0.49565243919180	0.86101292524090
21.110000000000	-0.49438555086661	0.86170930871596
21.120000000000	-0.49311277500736	0.86240641650189
21.130000000000	-0.49183406541951	0.86310424233304
21.140000000000	-0.49054937635611	0.86380278059182
21.150000000000	-0.48925866209195	0.86450202635087
21.160000000000	-0.48796187669695	0.86520197537206
21.170000000000	-0.48665897394013	0.86590262419074
21.180000000000	-0.48534990725535	0.86660397039013
21.190000000000	-0.48403462968290	0.86730601322395
21.200000000000	-0.48271309359224	0.86800875491328
21.210000000000	-0.48138524956455	0.86871220332978
21.220000000000	-0.48005104218965	0.86941637751706
21.230000000000	-0.47871039413239	0.87012131755842
21.240000000000	-0.47736314725597	0.87082708462331
21.250000000000	-0.47600892959859	0.87153359805914
21.260000000000	-0.47464760578018	0.87224008826165
21.270000000000	-0.47328030965878	0.87294643741876
21.280000000000	-0.47190697876305	0.87365371522983
21.290000000000	-0.47052698026052	0.87436196100181
21.300000000000	-0.46914013202676	0.87507097612580
21.310000000000	-0.46774638501844	0.87578066340008
21.320000000000	-0.46634570160038	0.87649098022620
21.330000000000	-0.46493803869534	0.87720190467173
21.340000000000	-0.46352334792330	0.87791342267818
21.350000000000	-0.46210157722245	0.87862552333236
21.360000000000	-0.46067267201579	0.87933819700067
21.370000000000	-0.45923657591985	0.88005143453500
21.380000000000	-0.45779323116391	0.88076522690982
21.390000000000	-0.45634257884009	0.88147956504492
21.400000000000	-0.45488455905465	0.88219443971342
21.406250000000	-0.45396952842527	0.88264150466114
21.410000000000	-0.45341911102102	0.88290984149069
21.420000000000	-0.45194617311727	0.88362576072411
21.430000000000	-0.45046568292141	0.88434218751355
21.440000000000	-0.44897757723255	0.88505911169781
21.450000000000	-0.44748179208277	0.88577652284416
21.460000000000	-0.44597826274263	0.88649441023978
21.470000000000	-0.44446692372238	0.88721276288420
21.480000000000	-0.44294770877009	0.88793156948226
21.490000000000	-0.44142055086752	0.88865081843755
21.500000000000	-0.43988538222427	0.88937049784592
21.510000000000	-0.43834213427057	0.89009059548931
21.520000000000	-0.43679073764898	0.89081109882966
21.530000000000	-0.43523112220500	0.89153199500310
21.540000000000	-0.43366321697671	0.89225327081450
21.550000000000	-0.43208695018324	0.89297491273255
21.560000000000	-0.43050224921182	0.89369690688561
21.562500000000	-0.43010474753897	0.89387745880236
21.570000000000	-0.42890904060295	0.89441923905886
21.580000000000	-0.42730725003262	0.89514189469327
21.590000000000	-0.42569680229003	0.89586485888743
21.600000000000	-0.42407762124768	0.89658811640356
21.610000000000	-0.42244962981788	0.89731165168003
21.620000000000	-0.42081274988433	0.89803544885278
21.630000000000	-0.41916690218476	0.89875949178853
21.640000000000	-0.41751200609309	0.89948376412666
21.650000000000	-0.41584797918392	0.90020824929982
21.660000000000	-0.41417473630608	0.90093293038125
21.670000000000	-0.41249218756351	0.90165778907454
21.680000000000	-0.41080023447364	0.90238280085906
21.690000000000	-0.40909876987911	0.90310791551481
21.700000000000	-0.40738773411175	0.90383302340227
21.710000000000	-0.40566722557899	0.90455810864889
21.718750000000	-0.40415394586156	0.90519271483440
21.720000000000	-0.40393715275920	0.90528338673499
21.730000000000	-0.40219724505507	0.90600883479349
21.740000000000	-0.40044739006729	0.90673434256638
21.750000000000	-0.39868752005556	0.90745985772696
21.760000000000	-0.39691755839356	0.90818535179119
21.770000000000	-0.39513741990129	0.90891080126334
21.780000000000	-0.39334701457995	0.90963618294150
21.790000000000	-0.39154624955360	0.91036147293156
21.800000000000	-0.38973502994570	0.91108664649084
21.810000000000	-0.38791325927590	0.91181167803951
21.820000000000	-0.38608083964288	0.91253654119206
21.830000000000	-0.38423767180691	0.91326120877903
21.840000000000	-0.38238365522198	0.91398565285642
21.850000000000	-0.38051868803975	0.91470984470513
21.860000000000	-0.37864266709509	0.91543375482419
21.870000000000	-0.37675548787715	0.91615735292121
21.875000000000	-0.37580768087780	0.91651902527667
21.880000000000	-0.37485704448637	0.91688060790481
21.890000000000	-0.37294722957724	0.91760348788599
21.900000000000	-0.37102593428718	0.91832596019913
21.910000000000	-0.36909304815746	0.91904799145869
21.920000000000	-0.36714845906416	0.91976954767202
21.930000000000	-0.36519205320036	0.92049059442559
21.940000000000	-0.36322371518183	0.92121109713562
21.950000000000	-0.36124332836666	0.92193102128669
21.960000000000	-0.35925077542806	0.92265033247395
21.970000000000	-0.35724593903816	0.92336899599854
21.980000000000	-0.35522870225796	0.92408697591045
21.990000000000	-0.35319894817051	0.92480423382092
22.000000000000	-0.35115655872154	0.92552072818069
22.010000000000	-0.34910141337705	0.92623641451358
22.020000000000	-0.34703338835542	0.92695124638585
22.030000000000	-0.34495235667233	0.92766517643661
22.031250000000	-0.34469130674858	0.92775435191048
22.040000000000	-0.34285818867681	0.92837815697737
22.050000000000	-0.34075075263973	0.92909014010785
22.060000000000	-0.33862991515730	0.92980107754420
22.070000000000	-0.33649554134131	0.93051092036029
22.080000000000	-0.33434749486014	0.93121961875289
22.090000000000	-0.33218563790198	0.93192712186505
22.100000000000	-0.33000983110788	0.93263337766394
22.110000000000	-0.32781993349985	0.93333833285833
22.120000000000	-0.32561580241429	0.93404193284083
22.130000000000	-0.32339729344358	0.93474412164454
22.140000000000	-0.32116426038535	0.93544484190704
22.150000000000	-0.31891655519796	0.93614403483768
22.160000000000	-0.31665402796059	0.93684164018581
22.170000000000	-0.31437652683656	0.93753759620873
22.180000000000	-0.31208389803893	0.93823183963864
22.187500000000	-0.31035440527480	0.93875135938396
22.190000000000	-0.30977598579738	0.93892430564839
22.200000000000	-0.30745263232612	0.93961492781573
22.210000000000	-0.30511367779214	0.94030363808622
22.220000000000	-0.30275896028370	0.94099036673464
22.230000000000	-0.30038831577884	0.94167504232496
22.240000000000	-0.29800157811373	0.94235759166898
22.250000000000	-0.29559857895079	0.94303793978341
22.260000000000	-0.29317914774646	0.94371600984571
22.270000000000	-0.29074311171877	0.94439172314841
22.280000000000	-0.28829029581435	0.94506499905203
22.290000000000	-0.28582052267515	0.94573575493657
22.300000000000	-0.28333361260475	0.94640390615147
22.310000000000	-0.28082938353419	0.94706936596409
22.320000000000	-0.27830765098746	0.94773204550657
22.330000000000	-0.27576822804649	0.94839185372107
22.340000000000	-0.27321092531588	0.94904869730324
22.343750000000	-0.27224728807073	0.94929422988809
22.350000000000	-0.27063555088715	0.94970248064388
22.360000000000	-0.26804191030276	0.95035310576865
22.370000000000	-0.26542980651990	0.95100047227561
22.380000000000	-0.26279903987411	0.95164447727050
22.390000000000	-0.26014940804302	0.95228501529928
22.400000000000	-0.25748070601042	0.95292197827779
22.410000000000	-0.25479272603114	0.95355525541776
22.420000000000	-0.25208525759739	0.95418473314870
22.430000000000	-0.24935808740788	0.95481029503438
22.440000000000	-0.24661099934166	0.95543182168270
22.450000000000	-0.24384377444018	0.95604919064684
22.460000000000	-0.24105619090410	0.95666227631513
22.470000000000	-0.23824802411623	0.95727094978652
22.480000000000	-0.23541904671269	0.95787507872939
22.490000000000	-0.23256902874463	0.95847452722685
22.500000000000	-0.22969773801319	0.95906915563365
22.510000000000	-0.22680494073653	0.95965882054386
22.520000000000	-0.22389040282413	0.96024337520755
22.530000000000	-0.22095389204306	0.96082267145909
22.540000000000	-0.21799518021493	0.96139656604628
22.550000000000	-0.21501403785778	0.96196493594398
22.560000000000	-0.21201019725360	0.96252769121325
22.570000000000	-0.20898329511108	0.96308471231033
22.580000000000	-0.20593296311331	0.96363573286561
22.590000000000	-0.20285898281054	0.96418045209396
22.600000000000	-0.19976118100025	0.96471867845901
22.610000000000	-0.19663932771804	0.96525026715773
22.620000000000	-0.19349315336784	0.96577506108032
22.630000000000	-0.19032237457022	0.96629288438922
22.640000000000	-0.18712670348956	0.96680354816162
22.650000000000	-0.18390584976330	0.96730685450535
22.652500000000	-0.18309666727680	0.96743150762304
22.660000000000	-0.18065952045378	0.96780259854720
22.670000000000	-0.17738741966195	0.96829056926907
22.680000000000	-0.17408924817855	0.96877054980853
22.690000000000	-0.17076470322314	0.96924231751603
22.700000000000	-0.16741347825451	0.96970564389930
22.710000000000	-0.16403526283026	0.97016029451290
22.720000000000	-0.16062974249848	0.97060602881915
22.730000000000	-0.15719659871066	0.97104260003270
22.740000000000	-0.15373550874865	0.97146975495416
22.750000000000	-0.15024614566113	0.97188723379556
22.760000000000	-0.14672817820683	0.97229476999881
22.770000000000	-0.14318127080269	0.97269209004773
22.780000000000	-0.13960508347576	0.97307891327401
22.790000000000	-0.13599927181827	0.97345495165714
22.800000000000	-0.13236348694545	0.97381990961879
22.805000000000	-0.13053424429283	0.97399813895490
22.810000000000	-0.12869737545599	0.97417348381178
22.820000000000	-0.12500057939530	0.97451536290444
22.830000000000	-0.12127273622146	0.97484522736134
22.840000000000	-0.11751347877396	0.97516274922207
22.850000000000	-0.11372243524454	0.97546759188082
22.860000000000	-0.10989922914809	0.97575940987067
22.870000000000	-0.10604347928870	0.97603784865832
22.880000000000	-0.10215479970994	0.97630254445585
22.890000000000	-0.098232799607467	0.97655312405404
22.900000000000	-0.094277083165645	0.97678920467001
22.910000000000	-0.090287249261527	0.97701039376731
22.920000000000	-0.086262890986154	0.97721628873194
22.930000000000	-0.082203595029171	0.97740647618103
22.940000000000	-0.078108941244085	0.97758053065619
22.950000000000	-0.073978503070514	0.97773801279749
22.957500000000	-0.070856931670367	0.97784497587562
22.960000000000	-0.069811849360458	0.97787846793673
22.970000000000	-0.065608546904053	0.97800142652191
22.980000000000	-0.061368161611144	0.97810640647169
22.990000000000	-0.057090257199721	0.97819291543403
23.000000000000	-0.052774392694502	0.97826045104492
23.010000000000	-0.048420120710516	0.97830849943863
23.020000000000	-0.044026987102957	0.97833653340072
23.030000000000	-0.039594531427001	0.97834401101238
23.040000000000	-0.035122287594709	0.97833037484044
23.050000000000	-0.030609784490102	0.97829505141923
23.060000000000	-0.026056546624725	0.97823745077542
23.070000000000	-0.021462095243825	0.97815696574930
23.080000000000	-0.016825951266207	0.97805297049625
23.090000000000	-0.012147646719387	0.97792481471019
23.100000000000	-0.0074268017509843	0.97777177081584
23.110000000000	-0.0026606263146375	0.97759148092099
23.120000000000	0.0021463557760537	0.97738893397797
23.130000000000	0.0069983486715174	0.97715746292165
23.140000000000	0.011895202394812	0.97689834732220
23.150000000000	0.016837340305747	0.97661084758318
23.160000000000	0.021825265058815	0.97629418751603
23.170000000000	0.026859497183122	0.97594756804486
23.180000000000	0.031940565268421	0.97557016751376
23.190000000000	0.037069003302535	0.97516114111462
23.200000000000	0.042245349649461	0.97471962020034
23.210000000000	0.047470146518491	0.97424471156797
23.220000000000	0.052743939602729	0.97373549672240
23.230000000000	0.058067277777248	0.97319103112117
23.240000000000	0.063440712813254	0.97261034339996
23.250000000000	0.068864799088122	0.97199243457882
23.260000000000	0.074340093280536	0.97133627725021
23.270000000000	0.079867154043621	0.97064081475206
23.280000000000	0.085446541650907	0.96990496033277
23.290000000000	0.091078817612005	0.96912759632255
23.300000000000	0.096764544261901	0.96830757334153
23.310000000000	0.10250428435327	0.96744370960541
23.320000000000	0.10829860076943	0.96653479044114
23.330000000000	0.11414805675935	0.96557956814206
23.332500000000	0.11561910247719	0.96533337834436
23.340000000000	0.12005321783755	0.96457676184238
23.350000000000	0.12601465708924	0.96352505430844
23.360000000000	0.13203295837245	0.96242307647059
23.370000000000	0.13810868982756	0.96126938873105
23.380000000000	0.14424236926128	0.96006251869137
23.390000000000	0.15043451017278	0.95880100106434
23.400000000000	0.15668565626462	0.95748333613701
23.410000000000	0.16299635781140	0.95610796398721
23.415000000000	0.16617421145575	0.95539813511562
23.420000000000	0.16936715606563	0.95467327011361
23.430000000000	0.17579858138848	0.95317759093593
23.440000000000	0.18229115388037	0.95161921479929
23.450000000000	0.18884538346501	0.94999638111722
23.460000000000	0.19546176936451	0.94830727899109
23.470000000000	0.20214079921326	0.94655004570683
23.480000000000	0.20888294796150	0.94472276520497
23.490000000000	0.21568867663890	0.94282346653913
23.500000000000	0.22255843100820	0.94085012232085
23.510000000000	0.22949264012005	0.93880064714618
23.520000000000	0.23649171477198	0.93667289600076
23.530000000000	0.24355604587018	0.93446466264154
23.540000000000	0.25068600269096	0.93217367795431
23.550000000000	0.25788193103738	0.92979760828726
23.560000000000	0.26514415128612	0.92733405376125
23.567500000000	0.27063449781495	0.92542749398420
23.570000000000	0.27247295631883	0.92478054655800
23.580000000000	0.27986860933228	0.92213454918797
23.590000000000	0.28733134152039	0.91939345274012
23.600000000000	0.29486134962172	0.91655457511600
23.610000000000	0.30245879332448	0.91361515925148
23.620000000000	0.31012379252107	0.91057237132988
23.630000000000	0.31785642440233	0.90742329899109
23.640000000000	0.32565672038028	0.90416494954277
23.650000000000	0.33352466282424	0.90079424818196
