#  HZ   S   RI   R     50.00 
! Rohde & Schwarz ZVA40 4Ports - Version 3.90 - 1145.1110k42 SN: 100403
! Date: 2023-08-22 06:29:44
! Measurements: S11 S21 S12 S22 
! 
 2.000000000000000E10   -2.197559475898743E-1  -1.580861955881119E-1  -6.443984602810815E-5   7.430987170664594E-5  -2.999061252921820E-4   1.394567952957004E-4   8.513562083244324E-1  -1.629955530166626  
 2.000125000000000E10   -2.066276818513870E-1  -1.532090157270432E-1   8.640882151667029E-5   7.000871119089425E-5   3.975664640165633E-6   4.456111346371472E-4   9.271116852760315E-1  -1.557919144630432  
 2.000250000000000E10   -1.925196498632431E-1  -1.481944471597672E-1  -1.547873921481369E-6   1.542048412375152E-4  -1.113933278247714E-3   7.880632765591145E-4   1.059857606887817  -1.521785736083984  
 2.000375000000000E10   -1.785875409841538E-1  -1.423400938510895E-1  -9.532648255117238E-5   1.751009403960779E-4  -2.473072090651840E-4  -2.466801197442692E-5   1.147753477096558  -1.422624588012695  
 2.000500000000000E10   -1.639629006385803E-1  -1.362363845109940E-1   3.237010241718963E-5   1.628594473004341E-4   2.794763422571123E-4  -6.193091976456344E-4   1.228610634803772  -1.364682197570801  
 2.000625000000000E10   -1.491936147212982E-1  -1.292348206043243E-1   2.587385279184673E-5   6.909840158186853E-5   1.651190221309662E-3  -5.668066442012787E-4   1.337723374366760  -1.290316343307495  
 2.000750000000000E10   -1.341073215007782E-1  -1.217232123017311E-1   6.589164695469663E-5   1.201364648295566E-4  -8.214834087993950E-5  -4.556772473733872E-4   1.421019792556763  -1.178601861000061  
 2.000875000000000E10   -1.184125021100044E-1  -1.140959784388542E-1   3.611757711041719E-5  -1.803228951757774E-5   1.030277227982879E-3  -1.579677453264594E-3   1.501614689826965  -1.107058048248291  
 2.001000000000000E10   -1.026322245597839E-1  -1.058129593729973E-1   4.677501419791952E-5   9.959162525774445E-6   1.033565858961083E-4  -1.641936250962317E-3   1.558868765830994  -9.772195816040039E-1  
 2.001125000000000E10   -8.641773462295532E-2  -9.745997190475464E-2  -2.095537456625607E-5   6.281604873947799E-5   6.357750389724970E-4  -8.617427083663642E-4   1.651902794837952  -9.088352918624878E-1  
 2.001250000000000E10   -7.044599950313568E-2  -8.807998150587082E-2   1.603277996764518E-5  -9.347405284643173E-5   8.738262113183737E-4   1.429459778591991E-3   1.705368638038635  -7.536730766296387E-1  
 2.001375000000000E10   -5.459988862276077E-2  -7.947062700986862E-2  -1.076690750778653E-4  -2.473573113093153E-5  -4.043734516017139E-4   3.417638436076231E-5   1.781854152679443  -6.528418064117432E-1  
 2.001500000000000E10   -3.739172592759132E-2  -6.864037364721298E-2   3.742023181985132E-5  -8.249031088780612E-5   2.122800069628283E-4  -5.169081850908697E-4   1.818122982978821  -5.370692610740662E-1  
 2.001625000000000E10   -2.196327224373817E-2  -5.956877395510674E-2  -1.506729604443535E-4  -9.344066347694024E-5  -6.416137330234051E-4  -6.926004425622523E-4   1.858559489250183  -3.813285827636719E-1  
 2.001750000000000E10   -6.098322104662657E-3  -4.918401688337326E-2  -5.232871990301646E-5  -6.427719927160069E-5  -3.956487635150552E-4   9.013682720251381E-4   1.873857736587524  -2.696754336357117E-1  
 2.001875000000000E10    9.159335866570473E-3  -3.864969313144684E-2  -1.224744337378070E-4  -8.615091792307794E-5   4.094296309631318E-4   1.235879259184003E-3   1.898101449012756  -1.299602091312408E-1  
 2.002000000000000E10    2.464884705841541E-2  -2.868652157485485E-2  -2.145195467164740E-4  -5.646843055728823E-5  -9.146127267740667E-4  -2.415797644061968E-5   1.907698273658752  -6.424178369343281E-3  
 2.002125000000000E10    3.873634338378906E-2  -1.818640343844891E-2  -2.048101741820574E-4  -2.380057412665337E-5   4.699922865256667E-4  -5.152884405106306E-4   1.901699900627136   1.713401377201080E-1  
 2.002250000000000E10    5.285618081688881E-2  -8.717351593077183E-3  -1.309563667746261E-4   7.826576620573178E-5   9.954752022167668E-5   9.840356651693583E-4   1.866617560386658   2.958267033100128E-1  
 2.002375000000000E10    6.565666943788528E-2   1.294156420044601E-3  -5.085139491711743E-5   1.415915321558714E-4   2.068840840365738E-4   4.478487535379827E-4   1.867259860038757   4.314423501491547E-1  
 2.002500000000000E10    7.794947922229767E-2   1.115061994642019E-2  -7.343556353589520E-5   8.164485916495323E-5  -2.499425027053803E-4  -2.969421038869768E-4   1.824104547500610   5.765806436538696E-1  
 2.002625000000000E10    8.926405757665634E-2   2.149406261742115E-2  -2.356120967306197E-4   1.482337538618594E-4   4.329158691689372E-4   9.361373668070883E-5   1.801400780677795   6.778680086135864E-1  
 2.002750000000000E10    9.985360503196716E-2   3.139560669660568E-2  -3.778580867219716E-5   2.029717579716817E-4  -4.481338692130521E-5   9.835915407165885E-4   1.756647944450378   8.324556946754456E-1  
 2.002875000000000E10    1.097541302442551E-1   4.066212475299835E-2   5.908066304982640E-5  -2.523299542644963E-7   2.260349865537137E-4   2.211582177551463E-4   1.647116422653198   9.721758365631104E-1  
 2.003000000000000E10    1.183926314115524E-1   5.082060769200325E-2  -7.599065429531038E-5   5.910794061492197E-5   1.984844857361168E-5   2.741860516835004E-4   1.586434364318848   1.113668680191040  
 2.003125000000000E10    1.262784153223038E-1   6.018982455134392E-2  -6.340133404592052E-5   9.164613584289327E-5   1.000728341750801E-3   1.133765443228185E-3   1.505985260009766   1.251736760139465  
 2.003250000000000E10    1.332703828811646E-1   6.881005316972733E-2   3.723370537045412E-5   7.982458191690967E-5   1.001481199637055E-3   8.478828385705128E-5   1.409559965133667   1.301432013511658  
 2.003375000000000E10    1.393205970525742E-1   7.776852697134018E-2   1.224727457156405E-4  -5.611823144135997E-5   3.338802343932912E-5  -3.534184652380645E-4   1.335343241691589   1.424001812934876  
 2.003500000000000E10    1.442655473947525E-1   8.603227883577347E-2  -4.936651384923607E-5  -3.598978582886048E-5   8.262371993623674E-4  -5.955833330517635E-5   1.218917131423950   1.532701849937439  
 2.003625000000000E10    1.470530927181244E-1   9.432374686002731E-2  -1.147085422417149E-4  -6.639497587457299E-5  -9.362929267808795E-5   7.416078005917370E-4   1.109257102012634   1.620532989501953  
 2.003750000000000E10    1.490123867988586E-1   1.027088165283203E-1   1.799248639144935E-5  -7.528642163379118E-5  -7.982957176864147E-4  -1.696576829999685E-3   9.450420141220093E-1   1.705770611763001  
 2.003875000000000E10    1.503688097000122E-1   1.099015697836876E-1  -1.474297459935769E-4  -1.053900050465018E-4  -1.236133859492838E-3   1.233699382282794E-3   8.434510231018066E-1   1.825869321823120  
 2.004000000000000E10    1.500602066516876E-1   1.177967041730881E-1  -1.670045894570649E-4  -3.614628076320514E-5  -5.753298173658550E-4  -9.741164394654334E-4   7.111157774925232E-1   1.811792135238648  
 2.004125000000000E10    1.488462537527084E-1   1.245680302381516E-1  -1.491912989877164E-4   1.446991518605501E-5   8.128629415296018E-4  -2.269190503284335E-3   5.500863194465637E-1   1.857814073562622  
 2.004250000000000E10    1.469580829143524E-1   1.307677328586578E-1  -6.505842611659318E-5   7.958778951433487E-6  -3.339952963870019E-4   3.719778615050018E-4   4.282116591930389E-1   1.914924979209900  
 2.004375000000000E10    1.431599408388138E-1   1.367397308349609E-1  -9.976593719329685E-5   1.089123688871041E-4   1.204353990033269E-3  -4.806098004337400E-4   2.563870549201965E-1   1.939172148704529  
 2.004500000000000E10    1.380303204059601E-1   1.420924812555313E-1  -5.104061347083189E-5   5.496508674696088E-5  -7.593354675918818E-4   1.434871228411794E-3   9.530992060899735E-2   1.970021128654480  
 2.004625000000000E10    1.331586837768555E-1   1.471724063158035E-1  -9.060752927325666E-5   1.099846049328335E-4  -5.780286155641079E-4   5.214886623434722E-4  -2.885271981358528E-2   1.957814693450928  
 2.004750000000000E10    1.257579028606415E-1   1.514609158039093E-1  -5.590738874161616E-5   7.953537715366110E-5   4.950421280227602E-4  -3.545047075022012E-4  -1.648340225219727E-1   1.888431429862976  
 2.004875000000000E10    1.181050613522530E-1   1.560072153806686E-1  -7.440611807396635E-5   1.135403144871816E-4  -1.354687992716208E-4   4.439914191607386E-4  -3.402408659458160E-1   1.859344482421875  
 2.005000000000000E10    1.090038940310478E-1   1.599380373954773E-1   6.414723611669615E-5   1.177758167614229E-4   5.003826809115708E-4   5.908362218178809E-4  -4.416424334049225E-1   1.880109429359436  
 2.005125000000000E10    9.985448420047760E-2   1.629146784543991E-1   6.171695713419467E-5  -3.709285465447465E-6  -2.237316803075373E-4   9.918392170220614E-4  -6.116459965705872E-1   1.823296070098877  
 2.005250000000000E10    8.959420770406723E-2   1.641354709863663E-1   1.895822642836720E-4   1.054267486324534E-4  -4.570138407871127E-4  -3.263316757511348E-4  -7.579283714294434E-1   1.763810515403748  
 2.005375000000000E10    7.827267050743103E-2   1.657293736934662E-1   1.604058197699487E-4  -4.822260507353349E-6  -2.565912145655602E-4  -1.076907152310014E-3  -8.678992986679077E-1   1.686814308166504  
 2.005500000000000E10    6.569110602140427E-2   1.670321971178055E-1   9.674854482000228E-6  -3.502200706861913E-5   8.942397107603028E-5   3.789165057241917E-4  -9.785798788070679E-1   1.668549537658691  
 2.005625000000000E10    5.318367108702660E-2   1.665506958961487E-1   6.331095210043714E-5  -1.064922835212201E-4  -9.917007264448330E-5   5.568831111304462E-4  -1.108606576919556   1.571029782295227  
 2.005750000000000E10    3.956325724720955E-2   1.657163649797440E-1  -7.475723123206990E-6  -1.259660639334470E-4  -6.261990056373179E-4  -3.967199882026762E-4  -1.212080717086792   1.487332463264465  
 2.005875000000000E10    2.457256801426411E-2   1.645204573869705E-1  -6.016884799464606E-5   1.501698989159195E-5  -5.455070058815181E-4   6.757127121090889E-4  -1.326170325279236   1.414296746253967  
 2.006000000000000E10    9.023444727063179E-3   1.630800068378449E-1  -1.339729351457208E-4   2.926940396719147E-5   1.336389919742942E-3  -4.641299601644278E-4  -1.369887709617615   1.286108970642090  
 2.006125000000000E10   -6.353103555738926E-3   1.611982882022858E-1  -3.403500886633992E-5  -3.395208477741107E-5   5.839545701746829E-5   4.566677089314908E-4  -1.482343316078186   1.163600921630859  
 2.006250000000000E10   -2.271565236151218E-2   1.580406278371811E-1  -1.159506573458202E-4  -5.804587635793723E-5  -2.399857767159119E-4  -6.992341950535774E-4  -1.560809850692749   1.060742855072022  
 2.006375000000000E10   -3.923698887228966E-2   1.551006585359573E-1  -2.167617058148608E-4  -1.382396112603601E-5  -1.188216032460332E-3   6.688113790005446E-4  -1.614323258399963   9.364238381385803E-1  
 2.006500000000000E10   -5.647581443190575E-2   1.518261432647705E-1  -1.747329806676135E-4   9.598927863407880E-5  -7.958640926517546E-4   1.908413250930607E-4  -1.661239027976990   8.125643730163574E-1  
 2.006625000000000E10   -7.361618429422379E-2   1.483792513608933E-1  -7.010968693066388E-5   1.195787554024719E-4  -8.501504635205492E-5   3.523586201481521E-4  -1.702026486396790   7.118891477584839E-1  
 2.006750000000000E10   -9.021244943141937E-2   1.449039578437805E-1  -7.107718556653708E-5   1.711325458018109E-4   1.814006245695055E-4   5.267487140372396E-4  -1.755748033523560   5.520828962326050E-1  
 2.006875000000000E10   -1.060277745127678E-1   1.409723758697510E-1   9.356373993796296E-6   1.973634207388386E-4   5.873782210983336E-4  -7.824114873073995E-4  -1.780133605003357   4.408736526966095E-1  
 2.007000000000000E10   -1.226321905851364E-1   1.361776143312454E-1   1.972844074771274E-5   1.592355547472835E-4   6.180958589538932E-4  -6.038614083081484E-4  -1.800973534584045   3.458774089813232E-1  
 2.007125000000000E10   -1.386377364397049E-1   1.300610303878784E-1   6.184208905324340E-5   8.085878653218970E-5   9.381833369843662E-4   1.160412328317761E-3  -1.831121683120728   2.409707754850388E-1  
 2.007250000000000E10   -1.545454859733582E-1   1.244370862841606E-1  -2.505092925275676E-5   1.005282101687044E-4   2.192877436755225E-4  -1.460506755392999E-4  -1.824562788009644   8.242250233888626E-2  
 2.007375000000000E10   -1.697675287723541E-1   1.183157861232758E-1   3.567286694305949E-5   8.477839514853258E-7   4.368536247056909E-5  -3.315846261102706E-4  -1.827820897102356  -2.898856438696384E-2  
 2.007500000000000E10   -1.847555786371231E-1   1.122137308120728E-1   6.539519381476566E-5  -6.130526162451133E-5  -5.931637133471668E-4   5.068021127954125E-4  -1.821946024894714  -1.650854945182800E-1  
 2.007625000000000E10   -1.992716640233994E-1   1.052120700478554E-1   2.086720269289799E-5  -2.314324046892580E-5   1.204615109600127E-4  -7.703313167439774E-5  -1.782636642456055  -2.763159871101379E-1  
 2.007750000000000E10   -2.136773765087128E-1   9.810575842857361E-2   1.096336636692286E-4   5.649161175824702E-5  -1.153517150669359E-4  -4.098560311831534E-4  -1.747583866119385  -3.778153657913208E-1  
 2.007875000000000E10   -2.267171591520309E-1   9.060949087142944E-2  -1.476194302085787E-5   4.893585810350487E-6   1.799182937247679E-4   3.887377679347992E-4  -1.716665148735046  -5.202211737632752E-1  
 2.008000000000000E10   -2.387629747390747E-1   8.282163739204407E-2  -2.119035343639553E-5   7.857606760808267E-7   1.028315818984993E-4  -2.540630812291056E-4  -1.678637266159058  -6.245925426483154E-1  
 2.008125000000000E10   -2.510966360569000E-1   7.538464665412903E-2   6.537290028063580E-5   8.304808579850942E-5  -3.775912628043443E-4  -1.744923501973972E-4  -1.626582622528076  -7.219392061233521E-1  
 2.008250000000000E10   -2.622765302658081E-1   6.695108860731125E-2  -5.396332926466130E-5  -7.216377707663924E-5  -9.165525552816689E-4   2.993282396346331E-4  -1.603012442588806  -8.518223166465759E-1  
 2.008375000000000E10   -2.722817659378052E-1   5.897208675742149E-2  -2.857872277672868E-5   3.387431934243068E-5  -5.265212894300930E-5   7.614218047820032E-4  -1.529673457145691  -9.322920441627502E-1  
 2.008500000000000E10   -2.817253470420837E-1   5.122840031981468E-2  -1.061039365595207E-4   1.128811854869127E-4  -3.821423888439313E-5  -2.268548414576799E-4  -1.457828044891357  -1.029426455497742  
 2.008625000000000E10   -2.904797494411469E-1   4.334716126322746E-2  -1.098771390388720E-4   1.791220711311325E-4  -1.116656116209924E-3  -8.779611671343446E-4  -1.393824815750122  -1.121587038040161  
 2.008750000000000E10   -2.982967197895050E-1   3.549701347947121E-2   3.930259117623791E-5   1.091301601263695E-4   9.319562232121825E-4   8.325193630298600E-5  -1.340310931205750  -1.177476286888123  
 2.008875000000000E10   -3.044490516185761E-1   2.766605094075203E-2  -6.597988249268383E-5   4.805635398952290E-5  -1.082568778656423E-3  -1.153394114226103E-3  -1.234927177429199  -1.267256021499634  
 2.009000000000000E10   -3.096595406532288E-1   2.052539400756359E-2   6.656905316049233E-5   1.606738951522857E-4   1.250360364792869E-4   5.055609508417547E-4  -1.150565385818481  -1.365058422088623  
 2.009125000000000E10   -3.146269321441650E-1   1.291124895215035E-2   2.054190554190427E-5   1.254623493878171E-4   1.832585432566702E-3  -6.377012468874455E-4  -1.055715799331665  -1.435309290885925  
 2.009250000000000E10   -3.175406455993652E-1   5.567230749875307E-3   1.411776611348614E-4   1.249260967597365E-4   2.966774627566338E-4   1.826337938837241E-5  -9.972072243690491E-1  -1.488037109375000  
 2.009375000000000E10   -3.201205730438232E-1  -1.730188960209489E-3   1.248549087904394E-4   1.809293644328136E-5   8.951121708378196E-4   9.900714503601193E-4  -8.866878151893616E-1  -1.530864000320435  
 2.009500000000000E10   -3.215825259685516E-1  -8.326754905283451E-3   6.627332913922146E-5  -4.950165748596191E-5   4.058753838762641E-4  -1.628382306080312E-4  -7.772628664970398E-1  -1.587357163429260  
 2.009625000000000E10   -3.222440779209137E-1  -1.483084075152874E-2   9.726888674777001E-5  -4.336669735494070E-5   1.203370993607678E-4   2.895907673519105E-4  -6.676294207572937E-1  -1.658336639404297  
 2.009750000000000E10   -3.220436871051788E-1  -2.163369953632355E-2   4.783879194292240E-5  -5.186810449231416E-5  -7.117796922102571E-4  -3.547795931808651E-4  -5.663674473762512E-1  -1.688860177993774  
 2.009875000000000E10   -3.195530772209168E-1  -2.627403847873211E-2  -9.225577377947047E-5  -6.801995914429426E-5   2.230731770396233E-4   5.469345342135057E-5  -4.540292620658875E-1  -1.705644726753235  
 2.010000000000000E10   -3.172791898250580E-1  -3.145825117826462E-2  -9.797017264645547E-5  -3.094596468145028E-5  -1.151493925135583E-4  -4.710032371804118E-4  -3.388096690177918E-1  -1.747565984725952  
 2.010125000000000E10   -3.135911822319031E-1  -3.592722490429878E-2  -5.534199226531200E-5  -1.250597706530243E-4  -1.009312458336353E-3  -7.442668429575861E-4  -2.574513256549835E-1  -1.777463912963867  
 2.010250000000000E10   -3.082803189754486E-1  -3.955017030239105E-2  -1.421105989720672E-4  -5.271116242511198E-5   5.833715549670160E-4   4.733269743155688E-4  -1.235904470086098E-1  -1.797568082809448  
 2.010375000000000E10   -3.025873303413391E-1  -4.271266609430313E-2  -1.481562067056075E-4  -2.606369343993720E-5  -2.970590721815825E-4  -7.988950237631798E-4   3.470171475782991E-3  -1.785988926887512  
 2.010500000000000E10   -2.947287261486054E-1  -4.600623622536659E-2  -1.794748532120138E-4  -1.311250071012182E-5  -3.643009404186159E-4   1.073322855518200E-4   1.071854382753372E-1  -1.788677215576172  
 2.010625000000000E10   -2.868098318576813E-1  -4.875560104846954E-2  -3.647212724899873E-5   1.131155586335808E-4  -2.396041963947937E-5   3.878224815707654E-4   2.205563932657242E-1  -1.799351692199707  
 2.010750000000000E10   -2.773520648479462E-1  -5.126107856631279E-2  -1.900510505947750E-5   1.240208512172103E-4  -5.113612278364599E-4  -4.085081454832107E-4   3.510664999485016E-1  -1.750383853912354  
 2.010875000000000E10   -2.674550712108612E-1  -5.195752531290054E-2  -3.380858106538653E-5   1.011194835882634E-4   5.868254811502993E-4  -1.082325936295092E-3   4.644202589988709E-1  -1.733240723609924  
 2.011000000000000E10   -2.568325996398926E-1  -5.312915891408920E-2  -7.731591176707298E-5   1.226386084454134E-4   6.187583785504103E-4   3.091776743531227E-4   5.667689442634583E-1  -1.707185387611389  
 2.011125000000000E10   -2.447180598974228E-1  -5.307272449135780E-2   5.412961036199704E-5   9.514150588074699E-5   8.761585340835154E-4   8.039192180149257E-4   6.810579299926758E-1  -1.649357557296753  
 2.011250000000000E10   -2.320111095905304E-1  -5.228071287274361E-2   1.134005797212012E-4   1.360456371912733E-4   1.300295698456466E-3   1.169627066701651E-4   8.011881709098816E-1  -1.643971681594849  
 2.011375000000000E10   -2.196977883577347E-1  -5.106021463871002E-2   3.206153269275092E-5   1.237895921804011E-4   1.141679822467268E-4   1.241797697730362E-3   9.047820568084717E-1  -1.561916589736939  
 2.011500000000000E10   -2.055349797010422E-1  -4.873709008097649E-2  -4.268045086064376E-5   2.325911009393167E-5   7.727078627794981E-4  -9.336470975540578E-5   1.004526019096375  -1.550174951553345  
 2.011625000000000E10   -1.910594105720520E-1  -4.579401761293411E-2   1.770279050106183E-5  -1.484549648012035E-5   4.639953258447349E-4  -4.904594607069157E-5   1.086215496063232  -1.443222880363464  
 2.011750000000000E10   -1.757416725158691E-1  -4.222612455487251E-2   4.383212944958359E-5   6.933541385478748E-7   5.723861977458000E-4  -7.932998123578727E-4   1.209002375602722  -1.386621117591858  
 2.011875000000000E10   -1.599202007055283E-1  -3.748714178800583E-2  -7.036065653664991E-5  -1.181739207822830E-4   6.011007353663445E-4  -4.055471799802035E-4   1.328950285911560  -1.294561147689819  
