#  HZ   S   RI   R     50.00 
! Rohde & Schwarz ZVA40 4Ports - Version 3.90 - 1145.1110k42 SN: 100403
! Date: 2023-10-04 08:25:01
! Measurement: S12 
! 
 2.200000000000000E10   -1.173867471516132E-2  -4.528288729488850E-3  
 2.202000000000000E10   -3.518634941428900E-3   1.269122771918774E-2  
 2.204000000000000E10    1.162869576364756E-2   2.027364447712898E-3  
 2.206000000000000E10   -9.342239354737103E-4  -1.044178195297718E-2  
 2.208000000000000E10   -9.877458214759827E-3   2.023282926529646E-3  
 2.210000000000000E10    2.295588841661811E-3   9.467084892094135E-3  
 2.212000000000000E10    9.806342422962189E-3  -4.694366361945868E-3  
 2.214000000000000E10   -5.504339002072811E-3  -9.362655691802502E-3  
 2.216000000000000E10   -9.130780585110188E-3   7.024852093309164E-3  
 2.218000000000000E10    8.950494229793549E-3   9.110244922339916E-3  
 2.220000000000000E10    8.901868946850300E-3  -9.795400314033032E-3  
 2.222000000000000E10   -1.109264697879553E-2  -7.882670499384403E-3  
 2.224000000000000E10   -6.990556139498949E-3   1.279126387089491E-2  
 2.226000000000000E10    1.243495754897595E-2   5.198713857680559E-3  
 2.228000000000000E10    3.256531432271004E-3  -1.258063223212957E-2  
 2.230000000000000E10   -1.279121544212103E-2  -2.127023413777351E-3  
 2.232000000000000E10   -9.109271923080087E-4   1.225603371858597E-2  
 2.234000000000000E10    1.247572246938944E-2  -1.506516360677779E-3  
 2.236000000000000E10   -3.699687542393804E-3  -1.223126612603664E-2  
 2.238000000000000E10   -1.101815979927778E-2   4.669679328799248E-3  
 2.240000000000000E10    6.801271811127663E-3   1.036225724965334E-2  
 2.242000000000000E10    1.030450500547886E-2  -8.080507628619671E-3  
 2.244000000000000E10   -9.611119516193867E-3  -8.959654718637466E-3  
 2.246000000000000E10   -8.000556379556656E-3   1.031444314867258E-2  
 2.248000000000000E10    1.077408809214830E-2   7.970525883138180E-3  
 2.250000000000000E10    6.652547512203455E-3  -1.225098408758640E-2  
 2.252000000000000E10   -1.279619615525007E-2  -6.060240790247917E-3  
 2.254000000000000E10   -5.006499588489533E-3   1.308007445186377E-2  
 2.256000000000000E10    1.359265297651291E-2   2.225905423983932E-3  
 2.258000000000000E10    4.091911541763693E-4  -1.325025409460068E-2  
 2.260000000000000E10   -1.219537109136581E-2   4.113372997380793E-4  
 2.262000000000000E10    2.182989148423076E-3   1.136434357613325E-2  
 2.264000000000000E10    1.139307208359242E-2  -3.511331509798765E-3  
 2.266000000000000E10   -5.397138185799122E-3  -1.175463385879993E-2  
 2.268000000000000E10   -1.144877914339304E-2   6.486252881586552E-3  
 2.270000000000000E10    8.429246023297310E-3   1.075682789087296E-2  
 2.272000000000000E10    1.016590744256973E-2  -9.863405488431454E-3  
 2.274000000000000E10   -1.082353480160236E-2  -9.808997623622417E-3  
 2.276000000000000E10   -8.884659036993980E-3   1.180727872997522E-2  
 2.278000000000000E10    1.234520971775055E-2   6.495898123830557E-3  
 2.280000000000000E10    5.814263131469488E-3  -1.231824606657028E-2  
 2.282000000000000E10   -7.364879362285137E-3  -1.138624548912048E-2  
 2.284000000000000E10   -3.649012651294470E-3   1.347376219928265E-2  
 2.286000000000000E10    1.420934963971376E-2   5.965553573332727E-4  
 2.288000000000000E10   -1.686101779341698E-3  -1.384127512574196E-2  
 2.290000000000000E10   -1.313198450952768E-2   3.438140731304884E-3  
 2.292000000000000E10    5.392695311456919E-3   1.214935258030891E-2  
 2.294000000000000E10    1.125725731253624E-2  -6.814857479184866E-3  
 2.296000000000000E10   -8.159129880368710E-3  -1.074973214417696E-2  
 2.298000000000000E10   -1.053778268396854E-2   8.827988058328629E-3  
 2.300000000000000E10    9.716180153191090E-3   9.911762550473213E-3  
 2.302000000000000E10    9.478189982473850E-3  -1.216569542884827E-2  
 2.304000000000000E10   -1.300491578876972E-2  -8.398368023335934E-3  
 2.306000000000000E10   -6.984943058341742E-3   1.381156500428915E-2  
 2.308000000000000E10    1.470349729061127E-2   4.454802721738815E-3  
 2.310000000000000E10    2.695803763344884E-3  -1.397494599223137E-2  
 2.312000000000000E10   -1.446928922086954E-2  -1.547033898532391E-3  
 2.314000000000000E10    2.281077177030966E-4   1.417936384677887E-2  
 2.316000000000000E10    1.357278227806091E-2  -1.892900792881846E-3  
 2.318000000000000E10   -5.294348113238812E-3  -1.404922176152468E-2  
 2.320000000000000E10   -1.257735490798950E-2   7.614030502736569E-3  
 2.322000000000000E10    8.193635381758213E-3   1.073012966662645E-2  
 2.324000000000000E10    1.040835492312908E-2  -1.102571841329336E-2  
 2.326000000000000E10   -1.218896638602018E-2  -1.001295726746321E-2  
 2.328000000000000E10   -8.679802529513836E-3   1.263494975864887E-2  
 2.330000000000000E10    1.452140137553215E-2   6.967003457248211E-3  
 2.332000000000000E10    7.182201836258173E-3  -1.432556845247746E-2  
 2.334000000000000E10   -1.463205926120281E-2  -6.228609476238489E-3  
 2.336000000000000E10   -4.276003222912550E-3   1.627486012876034E-2  
 2.338000000000000E10    1.654727570712566E-2   1.490334048867226E-3  
 2.340000000000000E10   -2.095077652484179E-3  -1.559816207736731E-2  
 2.342000000000000E10   -1.449210103601217E-2   3.805531188845635E-3  
 2.344000000000000E10    5.534646101295948E-3   1.279416028410196E-2  
 2.346000000000000E10    1.253643259406090E-2  -8.549425750970841E-3  
 2.348000000000000E10   -9.675610810518265E-3  -1.174291130155325E-2  
 2.350000000000000E10   -1.033872738480568E-2   1.103738602250814E-2  
 2.352000000000000E10    1.375074218958616E-2   9.419192560017109E-3  
 2.354000000000000E10    8.654323406517506E-3  -1.492746639996767E-2  
 2.356000000000000E10   -1.572726480662823E-2  -6.434556562453508E-3  
 2.358000000000000E10   -4.960337188094854E-3   1.600527204573154E-2  
 2.360000000000000E10    1.636491529643536E-2   3.192986361682415E-3  
 2.362000000000000E10    1.807913649827242E-3  -1.654386520385742E-2  
 2.364000000000000E10   -1.665752381086350E-2  -5.041901022195816E-4  
 2.366000000000000E10    1.665177056565881E-3   1.619738712906838E-2  
 2.368000000000000E10    1.576343923807144E-2  -4.118929151445627E-3  
 2.370000000000000E10   -6.864531431347132E-3  -1.525743864476681E-2  
 2.372000000000000E10   -1.284987479448319E-2   8.688887581229210E-3  
 2.374000000000000E10    1.068160124123097E-2   1.137146446853876E-2  
 2.376000000000000E10    9.732057340443134E-3  -1.199387479573488E-2  
 2.378000000000000E10   -1.333021931350231E-2  -7.849044166505337E-3  
 2.380000000000000E10   -6.486581172794104E-3   1.430884562432766E-2  
 2.382000000000000E10    1.548508368432522E-2   5.396861117333174E-3  
 2.384000000000000E10    3.521340899169445E-3  -1.714840531349182E-2  
 2.386000000000000E10   -1.794510334730148E-2  -1.758380909450352E-3  
 2.388000000000000E10   -1.230180641869083E-4   1.833762414753437E-2  
 2.390000000000000E10    1.857175491750240E-2  -2.431398956105113E-3  
 2.392000000000000E10   -4.496144130825996E-3  -1.733141392469406E-2  
 2.394000000000000E10   -1.573133468627930E-2   5.881275981664658E-3  
 2.396000000000000E10    8.062964305281639E-3   1.508049666881561E-2  
 2.398000000000000E10    1.307797525078058E-2  -1.011044625192881E-2  
 2.400000000000000E10   -1.199110597372055E-2  -1.024101022630930E-2  
 2.402000000000000E10   -6.529717240482569E-3   1.404281612485647E-2  
 2.404000000000000E10    1.472278963774443E-2   4.659351892769337E-3  
 2.406000000000000E10    2.916679950430989E-3  -1.557539775967598E-2  
 2.408000000000000E10   -1.597002521157265E-2  -1.112404745072126E-3  
 2.410000000000000E10   -1.058694106177427E-4   1.641256734728813E-2  
 2.412000000000000E10    1.644719578325748E-2  -1.568515202961862E-3  
 2.414000000000000E10   -2.292553428560495E-3  -1.554323639720678E-2  
 2.416000000000000E10   -1.609862223267555E-2   3.162883687764406E-3  
 2.418000000000000E10    5.064942408353090E-3   1.523838005959988E-2  
 2.420000000000000E10    1.377564854919910E-2  -6.977416574954987E-3  
 2.422000000000000E10   -8.583721704781056E-3  -1.257069595158100E-2  
 2.424000000000000E10   -1.076796744018793E-2   9.882000274956226E-3  
 2.426000000000000E10    1.152063626796007E-2   9.042425081133843E-3  
 2.428000000000000E10    7.500316482037306E-3  -1.305495481938124E-2  
 2.430000000000000E10   -1.393082644790411E-2  -5.887100473046303E-3  
 2.432000000000000E10   -4.369425121694803E-3   1.511140074580908E-2  
 2.434000000000000E10    1.565457694232464E-2   2.238138346001506E-3  
 2.436000000000000E10    4.398566379677504E-4  -1.638081483542919E-2  
 2.438000000000000E10   -1.584582217037678E-2   7.702303119003773E-4  
 2.440000000000000E10    1.817836891859770E-3   1.529235113412142E-2  
 2.442000000000000E10    1.574871130287647E-2  -3.476729383692145E-3  
 2.444000000000000E10   -4.714907146990299E-3  -1.456619519740343E-2  
 2.446000000000000E10   -1.326750405132771E-2   5.913685541599989E-3  
 2.448000000000000E10    7.064645178616047E-3   1.273211836814880E-2  
 2.450000000000000E10    1.144383102655411E-2  -8.203296922147274E-3  
 2.452000000000000E10   -9.730083867907524E-3  -9.626948274672031E-3  
 2.454000000000000E10   -7.224252913147211E-3   1.084780413657427E-2  
 2.456000000000000E10    1.118553895503283E-2   6.123025435954332E-3  
 2.458000000000000E10    4.507634323090315E-3  -1.267257146537304E-2  
 2.460000000000000E10   -1.295056100934744E-2  -2.708862768486142E-3  
 2.462000000000000E10   -8.861774113029242E-4   1.365754008293152E-2  
 2.464000000000000E10    1.489438302814961E-2  -6.985015352256596E-4  
 2.466000000000000E10   -8.585121831856668E-4  -1.468150224536657E-2  
 2.468000000000000E10   -1.520722918212414E-2   1.982779474928975E-3  
 2.470000000000000E10    4.023943096399307E-3   1.518595684319735E-2  
 2.472000000000000E10    1.382219512015581E-2  -4.462521988898516E-3  
 2.474000000000000E10   -5.278674419969320E-3  -1.341941207647324E-2  
 2.476000000000000E10   -1.229959540069103E-2   6.376282311975956E-3  
 2.478000000000000E10    7.412096019834280E-3   1.044216752052307E-2  
 2.480000000000000E10    9.470899589359760E-3  -8.913151919841766E-3  
 2.482000000000000E10   -9.785819798707962E-3  -6.992049049586058E-3  
 2.484000000000000E10   -5.200754385441542E-3   1.065242383629084E-2  
 2.486000000000000E10    1.254246290773153E-2   3.284588921815157E-3  
 2.488000000000000E10    1.223413506522775E-3  -1.230167411267757E-2  
 2.490000000000000E10   -1.329738926142454E-2   6.386180757544935E-4  
 2.492000000000000E10    1.692183432169259E-3   1.375870313495398E-2  
 2.494000000000000E10    1.378383953124285E-2  -2.011745702475309E-3  
 2.496000000000000E10   -3.564022714272142E-3  -1.352308411151171E-2  
 2.498000000000000E10   -1.310417242348194E-2   4.881418775767088E-3  
 2.500000000000000E10    4.577999468892813E-3   1.281686313450337E-2  
 2.502000000000000E10    1.214587036520243E-2  -5.545048974454403E-3  
 2.504000000000000E10   -7.360613439232111E-3  -1.071918383240700E-2  
 2.506000000000000E10   -8.902008645236492E-3   7.634314708411694E-3  
 2.508000000000000E10    8.096952922642231E-3   8.137502707540989E-3  
 2.510000000000000E10    6.712809670716524E-3  -9.286631830036640E-3  
 2.512000000000000E10   -1.000740937888622E-2  -4.385891836136580E-3  
 2.514000000000000E10   -3.451088443398476E-3   1.108932960778475E-2  
 2.516000000000000E10    1.188478711992502E-2   2.037549158558250E-3  
 2.518000000000000E10    2.557260741014034E-4  -1.187421567738056E-2  
 2.520000000000000E10   -1.334138307720423E-2   1.433279248885810E-3  
 2.522000000000000E10    2.924951957538724E-3   1.330832205712795E-2  
 2.524000000000000E10    1.333395019173622E-2  -3.728084964677692E-3  
 2.526000000000000E10   -5.535437725484371E-3  -1.364290248602629E-2  
 2.528000000000000E10   -1.234820112586021E-2   5.797913763672113E-3  
 2.530000000000000E10    6.742302328348160E-3   1.184976287186146E-2  
 2.532000000000000E10    1.063045673072338E-2  -7.977870292961597E-3  
 2.534000000000000E10   -8.369025774300098E-3  -9.832027368247509E-3  
 2.536000000000000E10   -7.315467111766338E-3   9.127487428486347E-3  
 2.538000000000000E10    9.305655024945736E-3   5.416822619736195E-3  
 2.540000000000000E10    4.111466929316521E-3  -1.036113314330578E-2  
 2.542000000000000E10   -1.160548720508814E-2  -2.258233260363340E-3  
 2.544000000000000E10   -2.452654298394918E-4   1.130682136863470E-2  
 2.546000000000000E10    1.143254432827234E-2  -1.790161360986531E-3  
 2.548000000000000E10   -3.673795377835631E-3  -1.261540502309799E-2  
 2.550000000000000E10   -1.273260172456503E-2   4.577036947011948E-3  
 2.552000000000000E10    6.316128652542830E-3   1.173170749098063E-2  
 2.554000000000000E10    1.165221445262432E-2  -7.667965255677700E-3  
 2.556000000000000E10   -8.361488580703735E-3  -1.102379336953163E-2  
 2.558000000000000E10   -9.563597850501537E-3   8.304093964397907E-3  
 2.560000000000000E10    9.333580732345581E-3   8.831916376948357E-3  
 2.562000000000000E10    7.067365106195211E-3  -9.984606876969338E-3  
 2.564000000000000E10   -1.057558134198189E-2  -5.454059224575758E-3  
 2.566000000000000E10   -3.590917214751244E-3   1.112875808030367E-2  
 2.568000000000000E10    1.151661574840546E-2   7.185604772530496E-4  
 2.570000000000000E10   -6.019286811351776E-4  -1.179606840014458E-2  
 2.572000000000000E10   -1.164953876286745E-2   2.715623471885920E-3  
 2.574000000000000E10    4.861610475927591E-3   1.127005834132433E-2  
 2.576000000000000E10    1.118540391325951E-2  -6.269448902457953E-3  
 2.578000000000000E10   -7.318672258406878E-3  -1.054485980421305E-2  
 2.580000000000000E10   -9.650124236941338E-3   8.956691250205040E-3  
 2.582000000000000E10    9.509412571787834E-3   9.225921705365181E-3  
 2.584000000000000E10    8.709651418030262E-3  -1.048226375132799E-2  
 2.586000000000000E10   -1.078944932669401E-2  -7.543007377535105E-3  
 2.588000000000000E10   -5.670591257512569E-3   1.092820893973112E-2  
 2.590000000000000E10    1.084526255726814E-2   4.385039675980806E-3  
 2.592000000000000E10    3.959729801863432E-3  -1.097518205642700E-2  
 2.594000000000000E10   -1.124508678913117E-2  -1.883146818727255E-3  
 2.596000000000000E10    2.979827695526183E-4   1.072910148650408E-2  
 2.598000000000000E10    1.051906961947680E-2  -1.562267425470054E-3  
 2.600000000000000E10   -3.429629141464829E-3  -1.059945207089186E-2  
 2.602000000000000E10   -1.069135405123234E-2   5.468049086630344E-3  
 2.604000000000000E10    7.103176787495613E-3   1.028877124190331E-2  
 2.606000000000000E10    8.745859377086163E-3  -8.034506812691689E-3  
 2.608000000000000E10   -8.862035349011421E-3  -8.962522260844708E-3  
 2.610000000000000E10   -8.264600299298763E-3   1.030478719621897E-2  
 2.612000000000000E10    1.039400324225426E-2   7.302696816623211E-3  
 2.614000000000000E10    6.167588755488396E-3  -1.048211380839348E-2  
 2.616000000000000E10   -1.070193480700254E-2  -4.604326561093330E-3  
 2.618000000000000E10   -3.727352479472756E-3   1.068206224590540E-2  
 2.620000000000000E10    1.068997755646706E-2   1.952748512849212E-3  
 2.622000000000000E10    2.464328426867724E-4  -1.010918058454990E-2  
 2.624000000000000E10   -9.696170687675476E-3   1.327381469309330E-3  
 2.626000000000000E10    3.110816236585379E-3   9.861124679446220E-3  
 2.628000000000000E10    9.111273102462292E-3  -4.455660935491324E-3  
 2.630000000000000E10   -5.736204795539379E-3  -8.397194556891918E-3  
 2.632000000000000E10   -8.340403437614441E-3   7.062052376568317E-3  
 2.634000000000000E10    7.405848708003759E-3   7.524737156927586E-3  
 2.636000000000000E10    6.520604714751244E-3  -8.250708691775799E-3  
 2.638000000000000E10   -9.154666215181351E-3  -5.936661735177040E-3  
 2.640000000000000E10   -5.635270848870277E-3   9.014786221086979E-3  
 2.642000000000000E10    9.094071574509144E-3   4.070281516760588E-3  
 2.644000000000000E10    3.185983048751950E-3  -9.499636478722096E-3  
 2.646000000000000E10   -9.385201148688793E-3  -2.094074152410030E-3  
 2.648000000000000E10   -1.455988734960556E-3   9.215142577886581E-3  
 2.650000000000000E10    8.912272751331329E-3  -4.605697758961469E-4  
 2.652000000000000E10   -1.989976270124316E-3  -8.254281245172024E-3  
 2.654000000000000E10   -8.726327680051327E-3   3.407770767807961E-3  
 2.656000000000000E10    4.647087771445513E-3   7.760288659483194E-3  
 2.658000000000000E10    6.083806511014700E-3  -5.973708350211382E-3  
 2.660000000000000E10   -7.079301867634058E-3  -5.933804437518120E-3  
 2.662000000000000E10   -5.704347044229507E-3   7.390713784843683E-3  
 2.664000000000000E10    8.208662271499634E-3   4.656186792999506E-3  
 2.666000000000000E10    4.101230297237635E-3  -8.877402171492577E-3  
 2.668000000000000E10   -8.252320811152458E-3  -3.744847606867552E-3  
 2.670000000000000E10   -2.935556229203939E-3   8.583690971136093E-3  
 2.672000000000000E10    8.202858269214630E-3   2.528653480112553E-3  
 2.674000000000000E10    1.741906977258623E-3  -7.701847236603499E-3  
 2.676000000000000E10   -7.444049697369337E-3  -3.153391007799655E-4  
 2.678000000000000E10    2.004944981308654E-4   7.256579585373402E-3  
 2.680000000000000E10    6.515175569802523E-3  -1.927261822856963E-3  
 2.682000000000000E10   -2.698975149542093E-3  -6.030213087797165E-3  
 2.684000000000000E10   -6.303161382675171E-3   3.386217169463635E-3  
 2.686000000000000E10    5.362667143344879E-3   5.769248586148024E-3  
 2.688000000000000E10    4.611233249306679E-3  -6.338498089462519E-3  
 2.690000000000000E10   -6.183445919305086E-3  -4.886686336249113E-3  
 2.692000000000000E10   -3.926632925868034E-3   6.799720693379641E-3  
 2.694000000000000E10    7.383689284324646E-3   3.614457789808512E-3  
 2.696000000000000E10    3.102948889136314E-3  -7.318584248423576E-3  
 2.698000000000000E10   -6.833769381046295E-3  -2.644452266395092E-3  
 2.700000000000000E10   -2.163867466151714E-3   7.076160982251167E-3  
 2.702000000000000E10    6.885872688144445E-3   1.122003421187401E-3  
 2.704000000000000E10    4.155227215960622E-4  -6.832948420196772E-3  
 2.706000000000000E10   -6.920860148966312E-3   3.515572170726955E-4  
 2.708000000000000E10    1.475712400861085E-3   6.193047389388084E-3  
 2.710000000000000E10    5.336665082722902E-3  -2.133368747308850E-3  
 2.712000000000000E10   -2.888812450692058E-3  -5.288738291710615E-3  
 2.714000000000000E10   -4.720671102404594E-3   3.664056537672877E-3  
 2.716000000000000E10    4.795578774064779E-3   4.395345225930214E-3  
 2.718000000000000E10    3.299808595329523E-3  -4.932230804115534E-3  
 2.720000000000000E10   -4.911558702588081E-3  -3.070191480219364E-3  
 2.722000000000000E10   -2.795383799821138E-3   5.659200716763735E-3  
 2.724000000000000E10    5.966850556433201E-3   1.896578469313681E-3  
 2.726000000000000E10    1.550266053527594E-3  -5.684166681021452E-3  
 2.728000000000000E10   -6.681533530354500E-3  -1.080396585166454E-3  
 2.730000000000000E10   -5.950194899924099E-4   6.213925778865814E-3  
 2.732000000000000E10    6.357505451887846E-3   1.169391325674951E-4  
 2.734000000000000E10   -6.050292868167162E-4  -6.266561802476645E-3  
 2.736000000000000E10   -5.384585820138454E-3   1.071203849278390E-3  
 2.738000000000000E10    1.881386153399944E-3   5.629161838442087E-3  
 2.740000000000000E10    4.729393869638443E-3  -2.755339257419109E-3  
 2.742000000000000E10   -2.965594409033656E-3  -3.876635106280446E-3  
 2.744000000000000E10   -3.852843306958675E-3   3.804704174399376E-3  
 2.746000000000000E10    4.301473032683134E-3   3.337325761094689E-3  
 2.748000000000000E10    2.736566821113229E-3  -4.102217033505440E-3  
 2.750000000000000E10   -4.163677804172039E-3  -2.500182949006558E-3  
 2.752000000000000E10   -1.721877022646368E-3   4.757611546665430E-3  
 2.754000000000000E10    4.487152211368084E-3   1.371744670905173E-3  
 2.756000000000000E10    1.088327378965914E-3  -5.010467022657394E-3  
