#  HZ   S   RI   R     50.00 
! Rohde & Schwarz ZVA40 4Ports - Version 3.90 - 1145.1110k42 SN: 100403
! Date: 2023-10-04 08:26:01
! Measurement: S12 
! 
 2.200000000000000E10   -1.061881706118584E-2   2.596341772004962E-3  
 2.202000000000000E10    2.710086759179831E-3   1.120830699801445E-2  
 2.204000000000000E10    1.033206377178431E-2  -3.693351754918695E-3  
 2.206000000000000E10   -5.540443118661642E-3  -8.004890754818916E-3  
 2.208000000000000E10   -7.198554929345846E-3   5.095213185995817E-3  
 2.210000000000000E10    5.428793374449015E-3   6.526609882712364E-3  
 2.212000000000000E10    5.845479667186737E-3  -6.369901355355978E-3  
 2.214000000000000E10   -6.878050509840250E-3  -4.679341334849596E-3  
 2.216000000000000E10   -3.371223108842969E-3   8.373807184398174E-3  
 2.218000000000000E10    9.386598132550716E-3   2.560550812631846E-3  
 2.220000000000000E10    1.599942916072905E-3  -9.594708681106567E-3  
 2.222000000000000E10   -1.023413147777319E-2   7.401059701805934E-5  
 2.224000000000000E10    6.513715488836169E-4   1.129351649433374E-2  
 2.226000000000000E10    1.098474673926830E-2  -1.872340915724635E-3  
 2.228000000000000E10   -3.280408680438995E-3  -1.055666524916887E-2  
 2.230000000000000E10   -1.080212462693453E-2   3.426869865506887E-3  
 2.232000000000000E10    4.937065765261650E-3   1.009946595877409E-2  
 2.234000000000000E10    8.750574663281441E-3  -6.191959138959646E-3  
 2.236000000000000E10   -6.936015561223030E-3  -7.344972342252731E-3  
 2.238000000000000E10   -5.810983944684267E-3   7.441406603902578E-3  
 2.240000000000000E10    8.437946438789368E-3   4.862807691097260E-3  
 2.242000000000000E10    4.493690561503172E-3  -8.973362855613232E-3  
 2.244000000000000E10   -9.567504748702049E-3  -2.948308829218149E-3  
 2.246000000000000E10   -1.956746680662036E-3   1.006429083645344E-2  
 2.248000000000000E10    1.073092035949230E-2   1.444119261577725E-3  
 2.250000000000000E10   -2.999851130880415E-4  -1.198843773454428E-2  
 2.252000000000000E10   -1.212140172719955E-2   1.223658793605864E-3  
 2.254000000000000E10    2.684332663193345E-3   1.155736017972231E-2  
 2.256000000000000E10    1.077708136290312E-2  -4.622658248990774E-3  
 2.258000000000000E10   -5.217596888542175E-3  -1.017852686345577E-2  
 2.260000000000000E10   -9.182913228869438E-3   5.035407375544310E-3  
 2.262000000000000E10    6.321381311863661E-3   8.251830935478210E-3  
 2.264000000000000E10    7.670487742871046E-3  -6.924079265445471E-3  
 2.266000000000000E10   -8.463898673653603E-3  -6.997953634709120E-3  
 2.268000000000000E10   -5.805229768157005E-3   9.427846409380436E-3  
 2.270000000000000E10    1.036698650568724E-2   4.001207184046507E-3  
 2.272000000000000E10    2.744181314483285E-3  -1.117574796080589E-2  
 2.274000000000000E10   -1.183152850717306E-2  -2.060373779386282E-3  
 2.276000000000000E10   -5.947337485849857E-4   1.174762658774853E-2  
 2.278000000000000E10    1.195762678980827E-2  -8.978355326689780E-4  
 2.280000000000000E10   -1.281167264096439E-3  -1.163151953369379E-2  
 2.282000000000000E10   -1.063421182334423E-2  -5.196546204388142E-3  
 2.284000000000000E10    3.169722389429808E-3   1.208226103335619E-2  
 2.286000000000000E10    1.137170568108559E-2  -5.179688800126314E-3  
 2.288000000000000E10   -6.032340694218874E-3  -9.823436848819256E-3  
 2.290000000000000E10   -8.354324847459793E-3   6.874408107250929E-3  
 2.292000000000000E10    8.188338950276375E-3   6.708303000777960E-3  
 2.294000000000000E10    5.650683771818876E-3  -8.728016167879105E-3  
 2.296000000000000E10   -1.024300139397383E-2  -4.798671696335077E-3  
 2.298000000000000E10   -3.636952955275774E-3   1.096147391945124E-2  
 2.300000000000000E10    1.212099194526672E-2   2.554025966674089E-3  
 2.302000000000000E10    8.830569568090141E-4  -1.427315548062325E-2  
 2.304000000000000E10   -1.364638097584248E-2   5.277898744679987E-4  
 2.306000000000000E10    1.322244759649038E-3   1.350086461752653E-2  
 2.308000000000000E10    1.356691308319569E-2  -3.185344627127051E-3  
 2.310000000000000E10   -3.870233194902539E-3  -1.235714461654425E-2  
 2.312000000000000E10   -1.231899298727512E-2   5.076156929135323E-3  
 2.314000000000000E10    6.024417001754046E-3   1.167585328221321E-2  
 2.316000000000000E10    1.018266566097736E-2  -7.173407822847366E-3  
 2.318000000000000E10   -9.528755210340023E-3  -8.845474570989609E-3  
 2.320000000000000E10   -6.313132587820292E-3   1.084258314222097E-2  
 2.322000000000000E10    1.028491929173470E-2   4.180157557129860E-3  
 2.324000000000000E10    2.932566916570067E-3  -1.163798850029707E-2  
 2.326000000000000E10   -1.209490187466145E-2  -2.097833203151822E-3  
 2.328000000000000E10   -4.434472648426890E-4   1.266800612211227E-2  
 2.330000000000000E10    1.384244300425053E-2  -1.797457691282034E-3  
 2.332000000000000E10   -1.784426392987371E-3  -1.410610042512417E-2  
 2.334000000000000E10   -1.413916982710362E-2   3.674335079267621E-3  
 2.336000000000000E10    5.938326474279165E-3   1.478125993162394E-2  
 2.338000000000000E10    1.429367996752262E-2  -7.534901145845652E-3  
 2.340000000000000E10   -8.959635160863400E-3  -1.190750952810049E-2  
 2.342000000000000E10   -1.112889964133501E-2   8.951661176979542E-3  
 2.344000000000000E10    9.817744605243206E-3   9.668443351984024E-3  
 2.346000000000000E10    7.458643522113562E-3  -1.133665256202221E-2  
 2.348000000000000E10   -1.210166513919830E-2  -6.030092481523752E-3  
 2.350000000000000E10   -3.533495590090752E-3   1.192247774451971E-2  
 2.352000000000000E10    1.314552593976259E-2   7.684393203817308E-4  
 2.354000000000000E10   -1.006789156235755E-3  -1.399205904453993E-2  
 2.356000000000000E10   -1.383032370358706E-2   3.628956852480769E-3  
 2.358000000000000E10    5.348267033696175E-3   1.385816279798746E-2  
 2.360000000000000E10    1.434653904289007E-2  -6.834275554865599E-3  
 2.362000000000000E10   -7.789171766489744E-3  -1.401823200285435E-2  
 2.364000000000000E10   -1.351215038448572E-2   8.542610332369804E-3  
 2.366000000000000E10    1.013119611889124E-2   1.291071716696024E-2  
 2.368000000000000E10    1.111759897321463E-2  -1.144813280552626E-2  
 2.370000000000000E10   -1.208511460572481E-2  -9.583443403244019E-3  
 2.372000000000000E10   -7.099585141986609E-3   1.234359852969647E-2  
 2.374000000000000E10    1.337472535669804E-2   4.312580451369286E-3  
 2.376000000000000E10    2.479869173839688E-3  -1.303463894873858E-2  
 2.378000000000000E10   -1.354771293699741E-2  -4.587617877405137E-4  
 2.380000000000000E10    1.992857782170177E-3   1.398565899580717E-2  
 2.382000000000000E10    1.429358404129744E-2  -4.144255071878433E-3  
 2.384000000000000E10   -6.560765672475100E-3  -1.466442365199328E-2  
 2.386000000000000E10   -1.406798046082258E-2   8.367107249796391E-3  
 2.388000000000000E10    1.011922024190426E-2   1.332986541092396E-2  
 2.390000000000000E10    1.205352600663900E-2  -1.190061774104834E-2  
 2.392000000000000E10   -1.310329232364893E-2  -1.071348879486322E-2  
 2.394000000000000E10   -9.117600508034229E-3   1.350047346204519E-2  
 2.396000000000000E10    1.441360730677843E-2   7.854076102375984E-3  
 2.398000000000000E10    5.666890647262335E-3  -1.478853262960911E-2  
 2.400000000000000E10   -1.489743497222662E-2  -3.064472693949938E-3  
 2.402000000000000E10    4.731355293188244E-4   1.469143945723772E-2  
 2.404000000000000E10    1.370329037308693E-2  -2.347420202568173E-3  
 2.406000000000000E10   -4.534462466835976E-3  -1.268706563860178E-2  
 2.408000000000000E10   -1.172646693885326E-2   5.987375508993864E-3  
 2.410000000000000E10    7.548328489065170E-3   1.140223070979118E-2  
 2.412000000000000E10    1.047343108803034E-2  -9.504074230790138E-3  
 2.414000000000000E10   -1.071224641054869E-2  -9.364603087306023E-3  
 2.416000000000000E10   -9.568343870341778E-3   1.218197867274284E-2  
 2.418000000000000E10    1.387579925358295E-2   8.379718288779259E-3  
 2.420000000000000E10    7.191249635070562E-3  -1.481747813522816E-2  
 2.422000000000000E10   -1.461369823664427E-2  -5.769175477325916E-3  
 2.424000000000000E10   -4.725513979792595E-3   1.469226088374853E-2  
 2.426000000000000E10    1.442049909383059E-2   2.561997622251511E-3  
 2.428000000000000E10    9.370765765197575E-4  -1.376933511346579E-2  
 2.430000000000000E10   -1.332184206694365E-2   6.191044230945408E-4  
 2.432000000000000E10    2.995346672832966E-3   1.255734544247389E-2  
 2.434000000000000E10    1.148172747343779E-2  -5.167223047465086E-3  
 2.436000000000000E10   -7.319820113480091E-3  -1.111909002065659E-2  
 2.438000000000000E10   -9.840332902967930E-3   9.052968584001064E-3  
 2.440000000000000E10    1.037262938916683E-2   8.952335454523563E-3  
 2.442000000000000E10    8.789116516709328E-3  -1.251990906894207E-2  
 2.444000000000000E10   -1.202581450343132E-2  -7.038552779704332E-3  
 2.446000000000000E10   -7.059612777084112E-3   1.230078469961882E-2  
 2.448000000000000E10    1.313153747469187E-2   5.891270935535431E-3  
 2.450000000000000E10    5.284870043396950E-3  -1.334166061133146E-2  
 2.452000000000000E10   -1.365321595221758E-2  -3.296402515843511E-3  
 2.454000000000000E10   -1.200820202939212E-3   1.258881669491530E-2  
 2.456000000000000E10    1.200663112103939E-2   5.171402590349317E-4  
 2.458000000000000E10   -1.586159807629883E-3  -1.228783372789621E-2  
 2.460000000000000E10   -1.046816259622574E-2   3.104406176134944E-3  
 2.462000000000000E10    4.431713372468948E-3   1.008574664592743E-2  
 2.464000000000000E10    1.013116538524628E-2  -6.777946371585131E-3  
 2.466000000000000E10   -7.236193865537643E-3  -9.291475638747215E-3  
 2.468000000000000E10   -8.984782733023167E-3   8.860893547534943E-3  
 2.470000000000000E10    1.094104815274477E-2   7.940824143588543E-3  
 2.472000000000000E10    6.888082716614008E-3  -1.161612011492252E-2  
 2.474000000000000E10   -1.231585163623095E-2  -5.835914984345436E-3  
 2.476000000000000E10   -5.011599510908127E-3   1.268283650279045E-2  
 2.478000000000000E10    1.360717229545116E-2   3.823520615696907E-3  
 2.480000000000000E10    2.519762143492699E-3  -1.306628994643688E-2  
 2.482000000000000E10   -1.207033637911081E-2  -1.611616229638457E-3  
 2.484000000000000E10    2.018244849750772E-4   1.219900976866484E-2  
 2.486000000000000E10    1.209976151585579E-2  -2.028404036536813E-3  
 2.488000000000000E10   -3.297416027635336E-3  -1.027937605977058E-2  
 2.490000000000000E10   -8.876305073499680E-3   5.163407884538174E-3  
 2.492000000000000E10    6.620581727474928E-3   8.427105844020844E-3  
 2.494000000000000E10    8.024101145565510E-3  -7.694290950894356E-3  
 2.496000000000000E10   -9.073964320123196E-3  -6.522304844111204E-3  
 2.498000000000000E10   -5.773813929408789E-3   1.068929024040699E-2  
 2.500000000000000E10    1.114465668797493E-2   5.771811585873365E-3  
 2.502000000000000E10    5.300646182149649E-3  -1.157543063163757E-2  
 2.504000000000000E10   -1.212454587221146E-2  -4.090261645615101E-3  
 2.506000000000000E10   -2.938007470220327E-3   1.179438084363937E-2  
 2.508000000000000E10    1.163696497678757E-2   3.081417176872492E-3  
 2.510000000000000E10    2.178538590669632E-3  -1.182782743126154E-2  
 2.512000000000000E10   -1.108888816088438E-2   2.448398736305535E-4  
 2.514000000000000E10    1.323210657574236E-3   1.104199420660734E-2  
 2.516000000000000E10    1.074896659702063E-2  -2.726678736507893E-3  
 2.518000000000000E10   -4.263362847268581E-3  -9.110047481954098E-3  
 2.520000000000000E10   -8.816250599920750E-3   6.453152280300856E-3  
 2.522000000000000E10    7.778624072670937E-3   8.183351717889309E-3  
 2.524000000000000E10    7.700223010033369E-3  -9.179826825857163E-3  
 2.526000000000000E10   -1.061256602406502E-2  -6.877835839986801E-3  
 2.528000000000000E10   -5.986373871564865E-3   1.119166333228350E-2  
 2.530000000000000E10    1.172701269388199E-2   5.144338123500347E-3  
 2.532000000000000E10    4.146001767367125E-3  -1.259817648679018E-2  
 2.534000000000000E10   -1.311097107827663E-2  -3.426772309467197E-3  
 2.536000000000000E10   -1.005012774839997E-3   1.277740299701691E-2  
 2.538000000000000E10    1.184153836220503E-2  -5.573972011916339E-4  
 2.540000000000000E10   -1.050320570357144E-3  -1.145111490041018E-2  
 2.542000000000000E10   -1.151128113269806E-2   2.909355331212282E-3  
 2.544000000000000E10    4.074222408235073E-3   9.951627813279629E-3  
 2.546000000000000E10    9.112778119742870E-3  -5.545627791434526E-3  
 2.548000000000000E10   -7.694217376410961E-3  -8.640094660222530E-3  
 2.550000000000000E10   -7.405254989862442E-3   8.950559422373772E-3  
 2.552000000000000E10    1.035135518759489E-2   5.236663389950991E-3  
 2.554000000000000E10    4.186321981251240E-3  -1.164253707975149E-2  
 2.556000000000000E10   -1.266604848206043E-2  -3.488872200250626E-3  
 2.558000000000000E10   -1.535286079160869E-3   1.269179675728083E-2  
 2.560000000000000E10    1.275144238024950E-2   8.893943740986288E-4  
 2.562000000000000E10    2.713319554459304E-4  -1.333225145936012E-2  
 2.564000000000000E10   -1.341182552278042E-2   1.698588486760855E-3  
 2.566000000000000E10    2.550214761868119E-3   1.236079353839159E-2  
 2.568000000000000E10    1.192992366850376E-2  -4.157505463808775E-3  
 2.570000000000000E10   -5.964158568531275E-3  -1.051189471036196E-2  
 2.572000000000000E10   -8.723109960556030E-3   6.936952471733093E-3  
 2.574000000000000E10    8.048441261053085E-3   7.029876112937927E-3  
 2.576000000000000E10    6.260402966290712E-3  -9.190373122692108E-3  
 2.578000000000000E10   -1.062783133238554E-2  -4.059721250087023E-3  
 2.580000000000000E10   -2.426354214549065E-3   1.113824546337128E-2  
 2.582000000000000E10    1.191322226077318E-2   1.855315640568733E-3  
 2.584000000000000E10    7.968581048771739E-4  -1.356638316065073E-2  
 2.586000000000000E10   -1.364715490490198E-2   1.213937764987350E-3  
 2.588000000000000E10    2.420926466584206E-3   1.268730778247118E-2  
 2.590000000000000E10    1.269182097166777E-2  -3.205931512638927E-3  
 2.592000000000000E10   -3.473597113043070E-3  -1.285257469862700E-2  
 2.594000000000000E10   -1.144306175410748E-2   5.101343616843224E-3  
 2.596000000000000E10    5.829296540468931E-3   1.045701839029789E-2  
 2.598000000000000E10    9.340229444205761E-3  -6.967664696276188E-3  
 2.600000000000000E10   -7.896172814071178E-3  -8.405056782066822E-3  
 2.602000000000000E10   -6.633360404521227E-3   8.974806405603886E-3  
 2.604000000000000E10    9.623279795050621E-3   4.663383588194847E-3  
 2.606000000000000E10    2.497418783605099E-3  -1.011201646178961E-2  
 2.608000000000000E10   -1.039769500494003E-2  -1.765826018527150E-3  
 2.610000000000000E10   -5.586890620179474E-4   1.125146914273500E-2  
 2.612000000000000E10    1.152098830789328E-2  -7.117571658454835E-4  
 2.614000000000000E10   -1.843544072471559E-3  -1.195261068642139E-2  
 2.616000000000000E10   -1.189273688942194E-2   3.624820616096258E-3  
 2.618000000000000E10    4.348625894635916E-3   1.192782074213028E-2  
 2.620000000000000E10    1.119253505021334E-2  -5.424748640507460E-3  
 2.622000000000000E10   -6.348802242428064E-3  -1.017549540847540E-2  
 2.624000000000000E10   -8.863552473485470E-3   6.792585365474224E-3  
 2.626000000000000E10    7.070014718919992E-3   8.277554996311665E-3  
 2.628000000000000E10    6.808051839470863E-3  -7.504015229642391E-3  
 2.630000000000000E10   -8.075775578618050E-3  -5.193674005568028E-3  
 2.632000000000000E10   -4.113642498850822E-3   8.933926932513714E-3  
 2.634000000000000E10    8.748452179133892E-3   2.816702937707305E-3  
 2.636000000000000E10    9.728701552376151E-4  -9.425166994333267E-3  
 2.638000000000000E10   -1.005158480256796E-2   6.074059638194740E-4  
 2.640000000000000E10    1.221472863107920E-3   1.013148296624422E-2  
 2.642000000000000E10    9.770219214260578E-3  -2.747720107436180E-3  
 2.644000000000000E10   -4.006193485110998E-3  -9.624621830880642E-3  
 2.646000000000000E10   -9.727773256599903E-3   4.818527959287167E-3  
 2.648000000000000E10    5.375294946134090E-3   8.799197152256966E-3  
 2.650000000000000E10    7.716607768088579E-3  -6.454376038163900E-3  
 2.652000000000000E10   -7.325923070311546E-3  -6.711755879223347E-3  
 2.654000000000000E10   -6.176478229463100E-3   8.005338720977306E-3  
 2.656000000000000E10    8.167182095348835E-3   4.484304226934910E-3  
 2.658000000000000E10    2.677230630069971E-3  -8.165766485035420E-3  
 2.660000000000000E10   -8.538205176591873E-3  -1.471041934564710E-3  
 2.662000000000000E10   -1.195676159113646E-3   8.477251045405865E-3  
 2.664000000000000E10    8.336093276739121E-3  -3.965632931794971E-4  
 2.666000000000000E10   -1.606288249604404E-3  -8.219965733587742E-3  
 2.668000000000000E10   -8.110209368169308E-3   1.798145822249353E-3  
 2.670000000000000E10    3.285889979451895E-3   8.250907063484192E-3  
 2.672000000000000E10    7.255079224705696E-3  -3.908622078597546E-3  
 2.674000000000000E10   -3.884574631229043E-3  -7.335510104894638E-3  
 2.676000000000000E10   -6.762327160686255E-3   5.291564855724573E-3  
 2.678000000000000E10    5.693883635103703E-3   6.405931431800127E-3  
 2.680000000000000E10    5.343869328498840E-3  -5.990989506244659E-3  
 2.682000000000000E10   -6.308265961706638E-3  -4.861407913267613E-3  
 2.684000000000000E10   -4.564068280160427E-3   6.696852855384350E-3  
 2.686000000000000E10    7.198068313300610E-3   2.632641466334462E-3  
 2.688000000000000E10    1.293764798901975E-3  -7.327280472964048E-3  
 2.690000000000000E10   -7.308149710297585E-3  -1.388579257763922E-3  
 2.692000000000000E10    3.481888561509550E-4   6.840523332357407E-3  
 2.694000000000000E10    6.729487795382738E-3  -1.244983985088766E-3  
 2.696000000000000E10   -2.017707098275423E-3  -7.180983200669289E-3  
 2.698000000000000E10   -6.551658269017935E-3   2.201163908466697E-3  
 2.700000000000000E10    3.641607472673059E-3   6.885790266096592E-3  
 2.702000000000000E10    6.041105370968580E-3  -4.282146692276001E-3  
 2.704000000000000E10   -4.187236540019512E-3  -6.067476235330105E-3  
 2.706000000000000E10   -5.850738380104303E-3   4.956609103828669E-3  
 2.708000000000000E10    5.093283485621214E-3   4.415715113282204E-3  
 2.710000000000000E10    3.885445185005665E-3  -5.143402144312859E-3  
 2.712000000000000E10   -5.757011007517576E-3  -3.566053928807378E-3  
 2.714000000000000E10   -2.279881155118346E-3   5.679382011294365E-3  
 2.716000000000000E10    6.649185903370380E-3   1.592634129337966E-3  
 2.718000000000000E10    4.257903201505542E-4  -6.113311275839806E-3  
 2.720000000000000E10   -5.832125898450613E-3  -3.307153237983584E-4  
 2.722000000000000E10    6.708379951305687E-4   6.246562581509352E-3  
 2.724000000000000E10    5.750532727688551E-3  -1.174921286292374E-3  
 2.726000000000000E10   -1.449666451662779E-3  -5.352962762117386E-3  
 2.728000000000000E10   -5.697506479918957E-3   2.153031295165420E-3  
 2.730000000000000E10    2.932807896286249E-3   5.018556956201792E-3  
 2.732000000000000E10    4.408841952681541E-3  -3.036688547581434E-3  
 2.734000000000000E10   -3.414953593164682E-3  -4.465945996344090E-3  
 2.736000000000000E10   -4.078337457031012E-3   4.368666559457779E-3  
 2.738000000000000E10    5.251363385468721E-3   3.210325958207250E-3  
 2.740000000000000E10    2.644940046593547E-3  -5.658771377056837E-3  
 2.742000000000000E10   -5.948538891971111E-3  -1.714077196083963E-3  
 2.744000000000000E10   -1.088028890080750E-3   6.255708169192076E-3  
 2.746000000000000E10    6.166290491819382E-3   7.711924263276160E-4  
 2.748000000000000E10    7.750635268166661E-4  -5.705766845494509E-3  
 2.750000000000000E10   -5.532997194677591E-3  -3.562993369996548E-4  
 2.752000000000000E10    5.216222689341521E-6   5.279755685478449E-3  
 2.754000000000000E10    5.083966534584761E-3  -5.576918483711779E-4  
 2.756000000000000E10   -1.019203336909413E-3  -4.835138097405434E-3  
