#  HZ   S   RI   R     50.00 
! Rohde & Schwarz ZVA40 4Ports - Version 3.90 - 1145.1110k42 SN: 100403
! Date: 2023-10-04 08:26:43
! Measurement: S12 
! 
 2.200000000000000E10   -8.609242737293243E-3  -2.401587553322315E-3  
 2.202000000000000E10    2.567528863437474E-4   8.847462013363838E-3  
 2.204000000000000E10    8.434846065938473E-3  -1.238711294718087E-3  
 2.206000000000000E10   -2.646825974807143E-3  -8.455984294414520E-3  
 2.208000000000000E10   -8.386551402509213E-3   3.807608969509602E-3  
 2.210000000000000E10    4.048767033964396E-3   7.705460768193007E-3  
 2.212000000000000E10    7.899439893662930E-3  -4.618643783032894E-3  
 2.214000000000000E10   -5.932535044848919E-3  -7.650753017514944E-3  
 2.216000000000000E10   -7.243006955832243E-3   6.864579394459724E-3  
 2.218000000000000E10    6.732960231602192E-3   7.032468449324369E-3  
 2.220000000000000E10    5.511609837412834E-3  -7.403046358376741E-3  
 2.222000000000000E10   -8.549614809453487E-3  -4.372901283204556E-3  
 2.224000000000000E10   -3.165372414514422E-3   8.557502180337906E-3  
 2.226000000000000E10    7.960444316267967E-3   1.580787822604179E-3  
 2.228000000000000E10    4.139253287576139E-4  -8.330577984452248E-3  
 2.230000000000000E10   -9.080202318727970E-3   8.227475918829441E-4  
 2.232000000000000E10    2.628098707646132E-3   8.777838200330734E-3  
 2.234000000000000E10    9.192639030516148E-3  -3.761821659281850E-3  
 2.236000000000000E10   -5.064919590950012E-3  -7.924669422209263E-3  
 2.238000000000000E10   -7.833777926862240E-3   5.816111341118813E-3  
 2.240000000000000E10    6.866740994155407E-3   8.586885407567024E-3  
 2.242000000000000E10    7.646772544831038E-3  -7.595080416649580E-3  
 2.244000000000000E10   -8.193870075047016E-3  -6.468074396252632E-3  
 2.246000000000000E10   -5.987252574414015E-3   8.256687782704830E-3  
 2.248000000000000E10    8.129885420203209E-3   5.136115010827780E-3  
 2.250000000000000E10    3.952419850975275E-3  -8.682711981236935E-3  
 2.252000000000000E10   -9.329562075436115E-3  -2.168163657188416E-3  
 2.254000000000000E10   -3.558348689693958E-4   8.712690323591232E-3  
 2.256000000000000E10    8.812990970909596E-3  -7.524045649915934E-4  
 2.258000000000000E10   -2.668743953108788E-3  -8.706295862793922E-3  
 2.260000000000000E10   -8.363852277398109E-3   3.929615952074528E-3  
 2.262000000000000E10    4.962375853210688E-3   8.644743822515011E-3  
 2.264000000000000E10    8.301406167447567E-3  -6.111735012382269E-3  
 2.266000000000000E10   -7.340040057897568E-3  -8.368508890271187E-3  
 2.268000000000000E10   -8.346232585608959E-3   8.811709471046925E-3  
 2.270000000000000E10    8.856551721692085E-3   7.560581434518099E-3  
 2.272000000000000E10    7.271170616149902E-3  -9.168301708996296E-3  
 2.274000000000000E10   -9.483852423727512E-3  -5.518930498510599E-3  
 2.276000000000000E10   -4.435630049556494E-3   1.007661689072847E-2  
 2.278000000000000E10    9.822539053857327E-3   3.280252916738391E-3  
 2.280000000000000E10    1.605422352440655E-3  -8.758738636970520E-3  
 2.282000000000000E10   -6.948688533157110E-3  -4.722515121102333E-3  
 2.284000000000000E10    1.481466344557703E-3   9.159572422504425E-3  
 2.286000000000000E10    8.166858926415443E-3  -2.575779100880027E-3  
 2.288000000000000E10   -4.366052802652121E-3  -7.945461198687553E-3  
 2.290000000000000E10   -7.522013969719410E-3   6.304278038442135E-3  
 2.292000000000000E10    7.040072698146105E-3   7.503363769501448E-3  
 2.294000000000000E10    7.460551336407661E-3  -8.599294349551201E-3  
 2.296000000000000E10   -9.695807471871376E-3  -6.211888510733843E-3  
 2.298000000000000E10   -5.924526602029800E-3   1.008792314678431E-2  
 2.300000000000000E10    1.101537141948938E-2   6.462434772402048E-3  
 2.302000000000000E10    4.723896738141775E-3  -1.129481010138989E-2  
 2.304000000000000E10   -1.102636009454727E-2  -3.508049994707108E-3  
 2.306000000000000E10   -2.174318535253406E-3   1.150965597480536E-2  
 2.308000000000000E10    1.026761997491121E-2   6.323584238998592E-4  
 2.310000000000000E10   -1.037212088704109E-3  -9.377812035381794E-3  
 2.312000000000000E10   -8.901918306946755E-3   2.552945166826248E-3  
 2.314000000000000E10    3.760884283110499E-3   8.057815954089165E-3  
 2.316000000000000E10    8.183119818568230E-3  -6.112480536103249E-3  
 2.318000000000000E10   -8.134939707815647E-3  -7.615255657583475E-3  
 2.320000000000000E10   -5.935200955718756E-3   9.890914894640446E-3  
 2.322000000000000E10    1.096055563539267E-2   5.943107884377241E-3  
 2.324000000000000E10    4.653751384466887E-3  -1.111576892435551E-2  
 2.326000000000000E10   -1.230094861239195E-2  -3.993485588580370E-3  
 2.328000000000000E10   -3.970097750425339E-3   1.304999832063913E-2  
 2.330000000000000E10    1.200973987579346E-2   2.245196606963873E-3  
 2.332000000000000E10    7.897817413322628E-4  -1.189426612108946E-2  
 2.334000000000000E10   -1.153511833399534E-2   1.806187065085396E-4  
 2.336000000000000E10    1.189942238852382E-3   1.138306502252817E-2  
 2.338000000000000E10    1.016634982079268E-2  -3.575827227905393E-3  
 2.340000000000000E10   -5.377321038395166E-3  -8.618574589490891E-3  
 2.342000000000000E10   -8.113815449178219E-3   7.105149794369936E-3  
 2.344000000000000E10    8.029879070818424E-3   7.359133567661047E-3  
 2.346000000000000E10    6.136632524430752E-3  -9.151629172265530E-3  
 2.348000000000000E10   -1.126698311418295E-2  -4.462261218577623E-3  
 2.350000000000000E10   -3.639662172645330E-3   1.247145328670740E-2  
 2.352000000000000E10    1.256203651428223E-2   2.600377891212702E-3  
 2.354000000000000E10    4.977982025593519E-4  -1.332689076662064E-2  
 2.356000000000000E10   -1.412144023925066E-2   4.893417353741825E-4  
 2.358000000000000E10    1.712314668111503E-3   1.413082703948021E-2  
 2.360000000000000E10    1.277228444814682E-2  -2.971936250105500E-3  
 2.362000000000000E10   -3.703086636960506E-3  -1.236827485263348E-2  
 2.364000000000000E10   -1.144504733383656E-2   5.426845513284206E-3  
 2.366000000000000E10    6.597798317670822E-3   9.575258009135723E-3  
 2.368000000000000E10    8.161035366356373E-3  -6.703536491841078E-3  
 2.370000000000000E10   -8.434238843619824E-3  -6.383613217622042E-3  
 2.372000000000000E10   -4.733156878501177E-3   9.953957982361317E-3  
 2.374000000000000E10    1.078772451728582E-2   3.082076087594032E-3  
 2.376000000000000E10    1.204503583721817E-3  -1.180501282215118E-2  
 2.378000000000000E10   -1.301532331854105E-2   1.906759571284056E-4  
 2.380000000000000E10    1.270553097128868E-3   1.371645182371140E-2  
 2.382000000000000E10    1.392807345837355E-2  -3.104177070781589E-3  
 2.384000000000000E10   -3.981901332736015E-3  -1.417680736631155E-2  
 2.386000000000000E10   -1.395126245915890E-2   5.053608678281307E-3  
 2.388000000000000E10    6.317581050097942E-3   1.230891980230808E-2  
 2.390000000000000E10    1.149537414312363E-2  -7.211183197796345E-3  
 2.392000000000000E10   -8.609736338257790E-3  -9.151528589427471E-3  
 2.394000000000000E10   -7.460720371454954E-3   9.132275357842445E-3  
 2.396000000000000E10    9.639929980039597E-3   5.992251913994551E-3  
 2.398000000000000E10    3.079876536503434E-3  -9.908038191497326E-3  
 2.400000000000000E10   -1.103684492409229E-2  -2.105892170220614E-3  
 2.402000000000000E10    1.252472982741892E-3   1.142919063568115E-2  
 2.404000000000000E10    1.070246286690235E-2  -2.756634494289756E-3  
 2.406000000000000E10   -4.026927053928375E-3  -1.183377858251333E-2  
 2.408000000000000E10   -1.159111876040697E-2   4.751693457365036E-3  
 2.410000000000000E10    6.167696323245764E-3   1.135800499469042E-2  
 2.412000000000000E10    1.037740428000689E-2  -7.735839579254389E-3  
 2.414000000000000E10   -8.195552043616772E-3  -9.863487444818020E-3  
 2.416000000000000E10   -9.321122430264950E-3   9.257473982870579E-3  
 2.418000000000000E10    9.914626367390156E-3   7.888268679380417E-3  
 2.420000000000000E10    6.052263546735048E-3  -1.026981510221958E-2  
 2.422000000000000E10   -1.061828806996346E-2  -5.109284073114395E-3  
 2.424000000000000E10   -3.619158174842596E-3   1.079453714191914E-2  
 2.426000000000000E10    1.046567223966122E-2   1.930361613631249E-3  
 2.428000000000000E10    5.401115049608052E-4  -1.106105372309685E-2  
 2.430000000000000E10   -1.156688574701548E-2   5.240910686552525E-4  
 2.432000000000000E10    2.998578827828169E-3   1.106524839997292E-2  
 2.434000000000000E10    1.040490251034498E-2  -5.105677060782909E-3  
 2.436000000000000E10   -6.475429516285658E-3  -1.043330878019333E-2  
 2.438000000000000E10   -9.766183793544769E-3   7.270081434398890E-3  
 2.440000000000000E10    8.433074690401554E-3   8.737207390367985E-3  
 2.442000000000000E10    8.310634642839432E-3  -8.747065439820290E-3  
 2.444000000000000E10   -9.229764342308044E-3  -7.412008009850979E-3  
 2.446000000000000E10   -5.462734960019589E-3   9.456749074161053E-3  
 2.448000000000000E10    9.245071560144424E-3   4.743537865579128E-3  
 2.450000000000000E10    3.908208105713129E-3  -9.871844202280045E-3  
 2.452000000000000E10   -9.373567998409271E-3  -2.076265634968877E-3  
 2.454000000000000E10   -3.129688848275691E-4   8.671888150274754E-3  
 2.456000000000000E10    9.194776415824890E-3  -5.362122901715338E-4  
 2.458000000000000E10   -1.715222839266062E-3  -9.959436953067780E-3  
 2.460000000000000E10   -9.637027047574520E-3   3.217542776837945E-3  
 2.462000000000000E10    4.833375569432974E-3   9.265950880944729E-3  
 2.464000000000000E10    9.836111217737198E-3  -5.660365335643292E-3  
 2.466000000000000E10   -6.468489766120911E-3  -9.643978439271450E-3  
 2.468000000000000E10   -8.939687162637711E-3   7.410586345940828E-3  
 2.470000000000000E10    8.063616231083870E-3   7.947417907416821E-3  
 2.472000000000000E10    6.655741017311811E-3  -8.566950447857380E-3  
 2.474000000000000E10   -7.691102568060160E-3  -5.463142879307270E-3  
 2.476000000000000E10   -4.827417433261871E-3   8.297216147184372E-3  
 2.478000000000000E10    9.071893990039825E-3   3.437026636675000E-3  
 2.480000000000000E10    2.076244680210948E-3  -9.058053605258465E-3  
 2.482000000000000E10   -8.747589774429798E-3  -8.810483268462122E-5  
 2.484000000000000E10    7.724925526417792E-4   9.477814659476280E-3  
 2.486000000000000E10    9.546102955937386E-3  -2.110566943883896E-3  
 2.488000000000000E10   -4.203013144433498E-3  -8.893303573131561E-3  
 2.490000000000000E10   -8.714495226740837E-3   4.938707686960697E-3  
 2.492000000000000E10    5.436510313302279E-3   9.150330908596516E-3  
 2.494000000000000E10    8.493584580719471E-3  -6.608380936086178E-3  
 2.496000000000000E10   -7.333905901759863E-3  -7.871951907873154E-3  
 2.498000000000000E10   -7.374743930995464E-3   8.361682295799255E-3  
 2.500000000000000E10    8.064184337854385E-3   6.675035227090120E-3  
 2.502000000000000E10    5.794397089630365E-3  -8.100843057036400E-3  
 2.504000000000000E10   -8.770702406764031E-3  -4.147536586970091E-3  
 2.506000000000000E10   -3.562462283298373E-3   8.427836932241917E-3  
 2.508000000000000E10    8.484930731356144E-3   3.247921587899327E-3  
 2.510000000000000E10    9.324721759185195E-4  -8.394255302846432E-3  
 2.512000000000000E10   -8.753581903874874E-3   2.887174487113953E-4  
 2.514000000000000E10    1.083803945221007E-3   9.628532454371452E-3  
 2.516000000000000E10    9.124246425926685E-3  -3.148478455841541E-3  
 2.518000000000000E10   -4.918137099593878E-3  -8.431370370090008E-3  
 2.520000000000000E10   -8.963612839579582E-3   6.225887686014175E-3  
 2.522000000000000E10    6.815474014729261E-3   8.580388501286507E-3  
 2.524000000000000E10    7.947022095322609E-3  -7.821002043783665E-3  
 2.526000000000000E10   -9.283845312893391E-3  -7.113568950444460E-3  
 2.528000000000000E10   -7.282399106770754E-3   9.394068270921707E-3  
 2.530000000000000E10    1.001805812120438E-2   6.357656326144934E-3  
 2.532000000000000E10    4.299205727875233E-3  -9.680211544036865E-3  
 2.534000000000000E10   -1.012299768626690E-2  -3.582719480618835E-3  
 2.536000000000000E10   -2.065604319795966E-3   1.031800918281078E-2  
 2.538000000000000E10    9.250588715076447E-3   4.991889582015574E-4  
 2.540000000000000E10   -3.853005473501980E-4  -8.771702647209168E-3  
 2.542000000000000E10   -9.200330823659897E-3   1.798594254069030E-3  
 2.544000000000000E10    3.788486588746309E-3   9.909401647746563E-3  
 2.546000000000000E10    9.211013093590736E-3  -5.720372311770916E-3  
 2.548000000000000E10   -6.731703877449036E-3  -8.094622753560543E-3  
 2.550000000000000E10   -7.941503077745438E-3   8.100333623588085E-3  
 2.552000000000000E10    9.757125750184059E-3   6.405389867722988E-3  
 2.554000000000000E10    5.652787629514933E-3  -9.715844877064228E-3  
 2.556000000000000E10   -1.089097000658512E-2  -4.973682574927807E-3  
 2.558000000000000E10   -3.436162602156401E-3   1.063574664294720E-2  
 2.560000000000000E10    1.102147251367569E-2   2.492379164323211E-3  
 2.562000000000000E10    1.375962863676250E-3  -1.163964439183474E-2  
 2.564000000000000E10   -1.092834398150444E-2  -2.681293408386409E-4  
 2.566000000000000E10    1.355012063868344E-3   1.108554098755121E-2  
 2.568000000000000E10    1.049822941422463E-2  -3.437417792156339E-3  
 2.570000000000000E10   -4.300486296415329E-3  -9.373730979859829E-3  
 2.572000000000000E10   -8.760035037994385E-3   6.077674683183432E-3  
 2.574000000000000E10    7.276374846696854E-3   8.368577808141708E-3  
 2.576000000000000E10    7.020513992756605E-3  -8.775620721280575E-3  
 2.578000000000000E10   -1.017042342573404E-2  -5.574216600507498E-3  
 2.580000000000000E10   -3.845758968964219E-3   1.070296671241522E-2  
 2.582000000000000E10    1.150904223322868E-2   3.531381487846375E-3  
 2.584000000000000E10    2.119479235261679E-3  -1.212575286626816E-2  
 2.586000000000000E10   -1.168367452919483E-2  -4.621781117748469E-4  
 2.588000000000000E10    8.801373769529164E-4   1.189324539154768E-2  
 2.590000000000000E10    1.162954512983561E-2  -1.498734578490257E-3  
 2.592000000000000E10   -1.977696316316724E-3  -1.159503590315580E-2  
 2.594000000000000E10   -1.130991987884045E-2   3.955199848860502E-3  
 2.596000000000000E10    5.525809247046709E-3   1.053839549422264E-2  
 2.598000000000000E10    1.001279801130295E-2  -6.090178620070219E-3  
 2.600000000000000E10   -7.341222837567329E-3  -8.882266469299793E-3  
 2.602000000000000E10   -7.320160977542400E-3   9.011317044496536E-3  
 2.604000000000000E10    1.055038347840309E-2   6.148344371467829E-3  
 2.606000000000000E10    4.556201398372650E-3  -1.035390980541706E-2  
 2.608000000000000E10   -1.036157459020615E-2  -3.570825327187777E-3  
 2.610000000000000E10   -2.090984489768744E-3   1.119678746908903E-2  
 2.612000000000000E10    1.148544624447823E-2   1.048614387400448E-3  
 2.614000000000000E10    9.483640315011144E-5  -1.179770845919848E-2  
 2.616000000000000E10   -1.189278718084097E-2   1.674915314652026E-3  
 2.618000000000000E10    2.820732304826379E-3   1.098542474210262E-2  
 2.620000000000000E10    1.120316050946713E-2  -3.924254793673754E-3  
 2.622000000000000E10   -5.634535569697619E-3  -1.061420608311892E-2  
 2.624000000000000E10   -9.602067060768604E-3   5.956758279353380E-3  
 2.626000000000000E10    7.010542787611485E-3   9.327454492449760E-3  
 2.628000000000000E10    8.312634192407131E-3  -8.020444773137569E-3  
 2.630000000000000E10   -9.190009906888008E-3  -6.737313233315945E-3  
 2.632000000000000E10   -5.959247238934040E-3   9.577605873346329E-3  
 2.634000000000000E10    9.153100661933422E-3   4.392836242914200E-3  
 2.636000000000000E10    2.795702777802944E-3  -1.015155110508204E-2  
 2.638000000000000E10   -1.020261365920305E-2  -1.385883195325732E-3  
 2.640000000000000E10   -4.682623257394880E-4   9.782298468053341E-3  
 2.642000000000000E10    9.850731119513512E-3  -8.515911758877337E-4  
 2.644000000000000E10   -2.405407838523388E-3  -9.919419884681702E-3  
 2.646000000000000E10   -9.876793250441551E-3   3.688864177092910E-3  
 2.648000000000000E10    4.787955898791552E-3   9.521471336483955E-3  
 2.650000000000000E10    8.993364870548248E-3  -5.884337704628706E-3  
 2.652000000000000E10   -7.420021574944258E-3  -8.404519408941269E-3  
 2.654000000000000E10   -6.994522642344236E-3   8.481243625283241E-3  
 2.656000000000000E10    8.271829225122929E-3   6.118987221270800E-3  
 2.658000000000000E10    5.018721334636211E-3  -8.940547704696655E-3  
 2.660000000000000E10   -9.324677288532257E-3  -3.293875604867935E-3  
 2.662000000000000E10   -2.835042076185346E-3   9.059891104698181E-3  
 2.664000000000000E10    8.821872062981129E-3   1.361471484415233E-3  
 2.666000000000000E10    3.778487152885646E-4  -9.246695786714554E-3  
 2.668000000000000E10   -8.717207238078117E-3  -3.428636046010070E-5  
 2.670000000000000E10    1.630242099054158E-3   7.587973494082689E-3  
 2.672000000000000E10    8.022129535675049E-3  -2.094188239425421E-3  
 2.674000000000000E10   -3.131698817014694E-3  -8.036190643906593E-3  
 2.676000000000000E10   -6.570617202669382E-3   4.328356124460697E-3  
 2.678000000000000E10    5.322535522282124E-3   6.924659013748169E-3  
 2.680000000000000E10    6.566580850630999E-3  -6.271991413086653E-3  
 2.682000000000000E10   -7.161166518926621E-3  -5.301357246935368E-3  
 2.684000000000000E10   -4.702783655375242E-3   7.655284833163023E-3  
 2.686000000000000E10    8.146736770868301E-3   4.101173486560583E-3  
 2.688000000000000E10    3.648627083748579E-3  -8.730088360607624E-3  
 2.690000000000000E10   -8.596428669989109E-3  -2.592900302261114E-3  
 2.692000000000000E10   -1.494403462857008E-3   7.986865006387234E-3  
 2.694000000000000E10    9.037495590746403E-3   1.504923100583255E-3  
 2.696000000000000E10    5.236453725956380E-4  -8.502168580889702E-3  
 2.698000000000000E10   -7.241604849696159E-3   5.742462235502899E-4  
 2.700000000000000E10    1.948127755895257E-3   7.784885820001364E-3  
 2.702000000000000E10    7.291342131793499E-3  -2.424753969535232E-3  
 2.704000000000000E10   -3.838785924017429E-3  -6.666284054517746E-3  
 2.706000000000000E10   -5.822019185870886E-3   4.799422342330217E-3  
 2.708000000000000E10    5.040340125560761E-3   5.604836624115706E-3  
 2.710000000000000E10    5.895637441426516E-3  -6.271787453442812E-3  
 2.712000000000000E10   -6.645406130701304E-3  -4.539007321000099E-3  
 2.714000000000000E10   -3.871073480695486E-3   6.444679573178291E-3  
 2.716000000000000E10    7.754626218229532E-3   3.395179752260447E-3  
 2.718000000000000E10    3.123537404462695E-3  -7.758247200399637E-3  
 2.720000000000000E10   -7.236692588776350E-3  -2.167527331039310E-3  
 2.722000000000000E10   -1.446350128389895E-3   7.275637704879046E-3  
 2.724000000000000E10    7.462869398295879E-3   7.583596161566675E-4  
 2.726000000000000E10   -1.190183902508579E-4  -7.605231832712889E-3  
 2.728000000000000E10   -7.137689739465714E-3   8.198391296900809E-4  
 2.730000000000000E10    1.307213678956032E-3   7.153924554586411E-3  
 2.732000000000000E10    7.168809417635202E-3  -2.697739750146866E-3  
 2.734000000000000E10   -3.498821984976530E-3  -6.954377982765436E-3  
 2.736000000000000E10   -6.294804625213146E-3   4.444194491952658E-3  
 2.738000000000000E10    5.327884573489428E-3   5.274201743304730E-3  
 2.740000000000000E10    4.874128848314285E-3  -6.384072359651327E-3  
 2.742000000000000E10   -6.684953812509775E-3  -3.935613669455051E-3  
 2.744000000000000E10   -3.297347808256745E-3   6.782266777008772E-3  
 2.746000000000000E10    7.234117481857538E-3   3.193542128428817E-3  
 2.748000000000000E10    2.012570155784488E-3  -7.360964547842741E-3  
 2.750000000000000E10   -7.061524782329798E-3  -1.379387336783111E-3  
 2.752000000000000E10   -1.557390205562115E-3   7.095939014106989E-3  
 2.754000000000000E10    7.000366225838661E-3   5.290592671371996E-4  
 2.756000000000000E10   -8.552125655114651E-4  -6.975217256695032E-3  
