#  HZ   S   RI   R     50.00 
! Rohde & Schwarz ZVA40 4Ports - Version 3.90 - 1145.1110k42 SN: 100403
! Date: 2023-10-04 08:27:24
! Measurement: S12 
! 
 2.200000000000000E10   -7.904685102403164E-3  -9.889914654195309E-4  
 2.202000000000000E10    3.769327013287693E-4   8.568564429879189E-3  
 2.204000000000000E10    8.533576503396034E-3  -1.729750656522811E-3  
 2.206000000000000E10   -2.384700113907456E-3  -8.561068214476109E-3  
 2.208000000000000E10   -8.844733238220215E-3   2.965200925245881E-3  
 2.210000000000000E10    4.204181954264641E-3   9.197969920933247E-3  
 2.212000000000000E10    9.082601405680180E-3  -4.521848633885384E-3  
 2.214000000000000E10   -4.599355626851320E-3  -8.298146538436413E-3  
 2.216000000000000E10   -8.387860842049122E-3   5.473039112985134E-3  
 2.218000000000000E10    5.705953110009432E-3   7.676745764911175E-3  
 2.220000000000000E10    5.887414794415236E-3  -6.160637363791466E-3  
 2.222000000000000E10   -6.516247056424618E-3  -5.416903644800186E-3  
 2.224000000000000E10   -4.196011461317539E-3   7.452576886862516E-3  
 2.226000000000000E10    7.839879021048546E-3   1.503089326433837E-3  
 2.228000000000000E10    5.010032327845693E-4  -7.596608251333237E-3  
 2.230000000000000E10   -7.675712928175926E-3   1.429260009899736E-3  
 2.232000000000000E10    2.488424303010106E-3   7.840667851269245E-3  
 2.234000000000000E10    7.857439108192921E-3  -3.495441749691963E-3  
 2.236000000000000E10   -4.836095031350851E-3  -7.524014450609684E-3  
 2.238000000000000E10   -8.087162859737873E-3   5.301941186189652E-3  
 2.240000000000000E10    5.965730175375938E-3   8.003138937056065E-3  
 2.242000000000000E10    7.161641027778387E-3  -6.515929941087961E-3  
 2.244000000000000E10   -7.013930939137936E-3  -7.009409833699465E-3  
 2.246000000000000E10   -6.217069923877716E-3   7.720106281340122E-3  
 2.248000000000000E10    7.888957858085632E-3   5.207906011492014E-3  
 2.250000000000000E10    4.077587742358446E-3  -7.154779508709908E-3  
 2.252000000000000E10   -7.286161184310913E-3  -2.391021233052015E-3  
 2.254000000000000E10   -1.583968987688422E-3   7.862189784646034E-3  
 2.256000000000000E10    7.818491198122501E-3   3.017396666109562E-4  
 2.258000000000000E10   -1.456828904338181E-3  -7.601821795105934E-3  
 2.260000000000000E10   -7.524956483393908E-3   2.644506981596351E-3  
 2.262000000000000E10    3.808603156358004E-3   7.401719689369202E-3  
 2.264000000000000E10    7.484286557883024E-3  -4.376392811536789E-3  
 2.266000000000000E10   -5.992557853460312E-3  -7.466346025466919E-3  
 2.268000000000000E10   -6.628032308071852E-3   6.973965093493462E-3  
 2.270000000000000E10    6.757903378456831E-3   6.264921743422747E-3  
 2.272000000000000E10    6.318877451121807E-3  -7.232813164591789E-3  
 2.274000000000000E10   -7.474285084754229E-3  -6.004394497722387E-3  
 2.276000000000000E10   -4.940833430737257E-3   8.216629736125469E-3  
 2.278000000000000E10    8.051387034356594E-3   3.216912038624287E-3  
 2.280000000000000E10    1.215788302943111E-3  -7.086404133588076E-3  
 2.282000000000000E10   -5.138826090842485E-3  -4.630086943507195E-3  
 2.284000000000000E10    5.323962541297078E-4   7.381607778370380E-3  
 2.286000000000000E10    6.691686343401671E-3  -1.774256350472570E-3  
 2.288000000000000E10   -3.531067632138729E-3  -6.759138312190771E-3  
 2.290000000000000E10   -7.367677520960569E-3   4.532800987362862E-3  
 2.292000000000000E10    5.127111915498972E-3   7.155523169785738E-3  
 2.294000000000000E10    6.636264268308878E-3  -6.862673442810774E-3  
 2.296000000000000E10   -7.810941897332668E-3  -6.356141064316034E-3  
 2.298000000000000E10   -5.717788822948933E-3   7.433084305375814E-3  
 2.300000000000000E10    7.411430124193430E-3   5.487694405019283E-3  
 2.302000000000000E10    4.774347878992558E-3  -7.459385320544243E-3  
 2.304000000000000E10   -7.820577360689640E-3  -3.889105049893260E-3  
 2.306000000000000E10   -2.818162320181727E-3   8.650722913444042E-3  
 2.308000000000000E10    8.196610957384110E-3   1.892898930236697E-3  
 2.310000000000000E10   -6.754391943104565E-4  -7.831363938748837E-3  
 2.312000000000000E10   -7.203812245279551E-3   2.235495252534747E-3  
 2.314000000000000E10    2.426475752145052E-3   6.707374937832356E-3  
 2.316000000000000E10    6.235995795577765E-3  -4.449290223419666E-3  
 2.318000000000000E10   -5.685143638402224E-3  -5.755524151027203E-3  
 2.320000000000000E10   -4.901890177279711E-3   5.823184270411730E-3  
 2.322000000000000E10    7.041472941637039E-3   5.042098928242922E-3  
 2.324000000000000E10    5.008730106055737E-3  -7.714603561908007E-3  
 2.326000000000000E10   -8.989731781184673E-3  -4.079357720911503E-3  
 2.328000000000000E10   -3.150792559608817E-3   9.194029495120049E-3  
 2.330000000000000E10    9.432313963770866E-3   2.387126674875617E-3  
 2.332000000000000E10    1.381811685860157E-3  -9.318151511251926E-3  
 2.334000000000000E10   -8.575543761253357E-3  -1.020291703753173E-3  
 2.336000000000000E10   -4.018373438157141E-4   8.397820405662060E-3  
 2.338000000000000E10    7.751775439828634E-3  -1.258414355106652E-3  
 2.340000000000000E10   -2.535128733143210E-3  -7.499446161091328E-3  
 2.342000000000000E10   -6.628512870520353E-3   3.671398153528571E-3  
 2.344000000000000E10    4.943968728184700E-3   5.378169473260641E-3  
 2.346000000000000E10    4.584330134093761E-3  -6.363071035593748E-3  
 2.348000000000000E10   -7.585212588310242E-3  -3.684721188619733E-3  
 2.350000000000000E10   -3.125595860183239E-3   8.242744021117687E-3  
 2.352000000000000E10    9.102424606680870E-3   3.041138174012303E-3  
 2.354000000000000E10    1.290617627091706E-3  -1.043488178402185E-2  
 2.356000000000000E10   -1.068746112287045E-2  -1.319998409599066E-3  
 2.358000000000000E10   -2.591749653220177E-4   9.951259940862656E-3  
 2.360000000000000E10    9.848815388977528E-3  -9.350242326036096E-4  
 2.362000000000000E10   -1.479152590036392E-3  -9.238776750862598E-3  
 2.364000000000000E10   -7.603588048368692E-3   2.869688207283616E-3  
 2.366000000000000E10    3.165738191455603E-3   6.847000215202570E-3  
 2.368000000000000E10    6.710936315357685E-3  -4.225083626806736E-3  
 2.370000000000000E10   -5.932242143899202E-3  -5.545541644096375E-3  
 2.372000000000000E10   -4.487892612814903E-3   6.865784991532564E-3  
 2.374000000000000E10    7.472103927284479E-3   3.113657468929887E-3  
 2.376000000000000E10    2.079735742881894E-3  -9.219066239893436E-3  
 2.378000000000000E10   -9.724028408527374E-3  -1.567617407999933E-3  
 2.380000000000000E10    1.141990869655274E-4   9.949271567165852E-3  
 2.382000000000000E10    1.040357630699873E-2  -1.340763526968658E-3  
 2.384000000000000E10   -2.168127568438649E-3  -9.939574636518955E-3  
 2.386000000000000E10   -9.353932924568653E-3   3.095482243224978E-3  
 2.388000000000000E10    3.637605113908649E-3   8.588102646172047E-3  
 2.390000000000000E10    7.925389334559441E-3  -4.853831138461828E-3  
 2.392000000000000E10   -5.692420527338982E-3  -6.734381895512343E-3  
 2.394000000000000E10   -6.225648336112499E-3   5.935559514909983E-3  
 2.396000000000000E10    5.975298583507538E-3   4.828684963285923E-3  
 2.398000000000000E10    4.096725024282932E-3  -6.524842698127031E-3  
 2.400000000000000E10   -7.217112928628922E-3  -3.177807200700045E-3  
 2.402000000000000E10   -6.068641087040305E-4   7.349504623562098E-3  
 2.404000000000000E10    7.461936678737402E-3  -3.010718210134655E-4  
 2.406000000000000E10   -1.342140138149262E-3  -7.782096043229103E-3  
 2.408000000000000E10   -7.794883102178574E-3   2.659529447555542E-3  
 2.410000000000000E10    4.442991688847542E-3   8.089898154139519E-3  
 2.412000000000000E10    7.494463585317135E-3  -5.298286676406860E-3  
 2.414000000000000E10   -5.331141408532858E-3  -6.936187390238047E-3  
 2.416000000000000E10   -6.972687318921089E-3   5.770387593656778E-3  
 2.418000000000000E10    6.330247502774000E-3   6.231892853975296E-3  
 2.420000000000000E10    5.700014531612396E-3  -6.611466873437166E-3  
 2.422000000000000E10   -6.080810911953449E-3  -5.264421459287405E-3  
 2.424000000000000E10   -4.520135000348091E-3   6.216098088771105E-3  
 2.426000000000000E10    7.186720147728920E-3   3.109557554125786E-3  
 2.428000000000000E10    2.283665351569653E-3  -7.348920684307814E-3  
 2.430000000000000E10   -7.708159275352955E-3  -9.937835857272148E-4  
 2.432000000000000E10    9.474306716583669E-4   7.722542621195316E-3  
 2.434000000000000E10    7.933816872537136E-3  -2.773545915260911E-3  
 2.436000000000000E10   -3.595024114474654E-3  -7.394415326416493E-3  
 2.438000000000000E10   -7.133455481380224E-3   4.280769266188145E-3  
 2.440000000000000E10    5.146053154021502E-3   6.825971882790327E-3  
 2.442000000000000E10    5.601547192782164E-3  -5.670106504112482E-3  
 2.444000000000000E10   -5.824017338454723E-3  -5.658655893057585E-3  
 2.446000000000000E10   -5.140732508152723E-3   5.880395416170359E-3  
 2.448000000000000E10    6.078379694372416E-3   4.377887118607760E-3  
 2.450000000000000E10    3.893104381859303E-3  -6.468146108090878E-3  
 2.452000000000000E10   -6.862663198262453E-3  -3.063173033297062E-3  
 2.454000000000000E10   -1.778700854629278E-3   7.540940772742033E-3  
 2.456000000000000E10    7.514464203268290E-3   1.846586237661541E-3  
 2.458000000000000E10    8.035208447836340E-4  -7.334134075790644E-3  
 2.460000000000000E10   -8.402321487665176E-3   1.508257002569735E-3  
 2.462000000000000E10    2.130241133272648E-3   8.205473423004150E-3  
 2.464000000000000E10    6.995462812483311E-3  -2.416372066363692E-3  
 2.466000000000000E10   -3.762313863262534E-3  -6.873728707432747E-3  
 2.468000000000000E10   -6.266328506171703E-3   4.833343438804150E-3  
 2.470000000000000E10    5.101384595036507E-3   5.489543080329895E-3  
 2.472000000000000E10    4.880815744400024E-3  -5.505214445292950E-3  
 2.474000000000000E10   -5.506001412868500E-3  -3.913003951311112E-3  
 2.476000000000000E10   -3.349634353071451E-3   6.732122506946325E-3  
 2.478000000000000E10    6.616518367081881E-3   3.040719311684370E-3  
 2.480000000000000E10    2.584442729130387E-3  -7.107075769454241E-3  
 2.482000000000000E10   -7.509795017540455E-3  -1.060716109350324E-3  
 2.484000000000000E10   -6.859127315692604E-4   7.496735546737909E-3  
 2.486000000000000E10    7.561354897916317E-3  -5.921621777815744E-5  
 2.488000000000000E10   -1.825610059313476E-3  -7.595383562147617E-3  
 2.490000000000000E10   -7.180824875831604E-3   2.601565327495337E-3  
 2.492000000000000E10    2.738455310463905E-3   7.228249683976173E-3  
 2.494000000000000E10    6.844812072813511E-3  -4.226850345730782E-3  
 2.496000000000000E10   -5.656593944877386E-3  -6.166172213852406E-3  
 2.498000000000000E10   -5.052645225077868E-3   5.916302558034658E-3  
 2.500000000000000E10    5.045487079769373E-3   4.494989290833473E-3  
 2.502000000000000E10    4.195956978946924E-3  -6.088730879127979E-3  
 2.504000000000000E10   -6.456244271248579E-3  -3.125241957604885E-3  
 2.506000000000000E10   -2.613735618069768E-3   5.795164965093136E-3  
 2.508000000000000E10    6.023906171321869E-3   2.841948531568050E-3  
 2.510000000000000E10    1.742778113111854E-3  -7.050252985209227E-3  
 2.512000000000000E10   -8.078434504568577E-3  -2.792261948343366E-4  
 2.514000000000000E10    6.641899235546589E-4   8.106645196676254E-3  
 2.516000000000000E10    7.774286903440952E-3  -1.924918848089874E-3  
 2.518000000000000E10   -3.542427206411958E-3  -7.749198470264673E-3  
 2.520000000000000E10   -6.918844766914845E-3   4.194268956780434E-3  
 2.522000000000000E10    4.140211734920740E-3   6.396879907697439E-3  
 2.524000000000000E10    6.576340645551682E-3  -5.127759650349617E-3  
 2.526000000000000E10   -5.668056197464466E-3  -5.929739680141211E-3  
 2.528000000000000E10   -5.258593708276749E-3   5.711633712053299E-3  
 2.530000000000000E10    6.641024257987738E-3   4.477223847061396E-3  
 2.532000000000000E10    3.441389184445143E-3  -6.711658090353012E-3  
 2.534000000000000E10   -6.963203661143780E-3  -2.316922647878528E-3  
 2.536000000000000E10   -1.909212442114949E-3   6.687663029879332E-3  
 2.538000000000000E10    7.405787706375122E-3   1.034445944242179E-3  
 2.540000000000000E10   -2.893479540944099E-4  -8.306550793349743E-3  
 2.542000000000000E10   -7.875795476138592E-3   7.803864427842200E-4  
 2.544000000000000E10    2.387421671301127E-3   8.564357645809650E-3  
 2.546000000000000E10    8.772569708526135E-3  -4.558478482067585E-3  
 2.548000000000000E10   -5.453224293887615E-3  -7.263088598847389E-3  
 2.550000000000000E10   -6.726425606757402E-3   6.100574973970652E-3  
 2.552000000000000E10    6.653700955212116E-3   6.264311261475086E-3  
 2.554000000000000E10    4.789534024894238E-3  -7.163210306316614E-3  
 2.556000000000000E10   -6.950659677386284E-3  -4.056096076965332E-3  
 2.558000000000000E10   -4.001985304057598E-3   7.399714086204767E-3  
 2.560000000000000E10    8.097698912024498E-3   2.668180735781789E-3  
 2.562000000000000E10    1.588121405802667E-3  -7.923789322376251E-3  
 2.564000000000000E10   -7.909500040113926E-3  -8.810326107777655E-4  
 2.566000000000000E10    5.870210006833077E-4   8.690968155860901E-3  
 2.568000000000000E10    8.243602700531483E-3  -1.815230119973421E-3  
 2.570000000000000E10   -2.680065575987101E-3  -7.833235897123814E-3  
 2.572000000000000E10   -7.662828546017408E-3   4.530085716396570E-3  
 2.574000000000000E10    5.960605572909117E-3   7.764140143990517E-3  
 2.576000000000000E10    6.834297440946102E-3  -7.653255946934223E-3  
 2.578000000000000E10   -8.315190672874451E-3  -5.529688205569983E-3  
 2.580000000000000E10   -4.588222596794367E-3   8.786532096564770E-3  
 2.582000000000000E10    9.086587466299534E-3   3.939141985028982E-3  
 2.584000000000000E10    2.910193055868149E-3  -8.860472589731216E-3  
 2.586000000000000E10   -9.357381612062454E-3  -2.050076611340046E-3  
 2.588000000000000E10   -1.557623967528343E-3   8.886380121111870E-3  
 2.590000000000000E10    8.418597280979157E-3   9.199064807035029E-4  
 2.592000000000000E10   -3.596036112867296E-4  -8.781887590885162E-3  
 2.594000000000000E10   -9.227205999195576E-3   1.578305382281542E-3  
 2.596000000000000E10    3.043624339625239E-3   9.094240143895149E-3  
 2.598000000000000E10    8.082859218120575E-3  -4.403216764330864E-3  
 2.600000000000000E10   -5.892559885978699E-3  -7.493490353226662E-3  
 2.602000000000000E10   -7.464481983333826E-3   7.652339991182089E-3  
 2.604000000000000E10    8.657133206725121E-3   6.810441613197327E-3  
 2.606000000000000E10    4.479493014514446E-3  -8.596301078796387E-3  
 2.608000000000000E10   -9.781945496797562E-3  -4.314842168241739E-3  
 2.610000000000000E10   -3.905564080923796E-3   1.055819634348154E-2  
 2.612000000000000E10    1.018342282623053E-2   2.369071356952190E-3  
 2.614000000000000E10    1.179303042590618E-3  -1.004896406084299E-2  
 2.616000000000000E10   -1.006471272557974E-2  -6.739567033946514E-4  
 2.618000000000000E10    7.455298909917474E-4   1.010767370462418E-2  
 2.620000000000000E10    9.694156236946583E-3  -1.289002946577966E-3  
 2.622000000000000E10   -2.333309501409531E-3  -8.947932161390781E-3  
 2.624000000000000E10   -9.250896982848644E-3   4.009352531284094E-3  
 2.626000000000000E10    5.238360725343227E-3   9.275976568460465E-3  
 2.628000000000000E10    7.962529547512531E-3  -6.337573751807213E-3  
 2.630000000000000E10   -8.048270829021931E-3  -7.443618029356003E-3  
 2.632000000000000E10   -6.059622857719660E-3   8.838161826133728E-3  
 2.634000000000000E10    8.769934065639973E-3   4.248521756380796E-3  
 2.636000000000000E10    3.648197278380394E-3  -9.825319051742554E-3  
 2.638000000000000E10   -9.567824192345142E-3  -3.053077496588230E-3  
 2.640000000000000E10   -2.064183587208390E-3   9.798178449273109E-3  
 2.642000000000000E10    1.016395166516304E-2   8.145684842020273E-4  
 2.644000000000000E10    2.439312520436943E-4  -9.820424951612949E-3  
 2.646000000000000E10   -1.034535281360149E-2   1.331198960542679E-3  
 2.648000000000000E10    2.266868017613888E-3   9.426850825548172E-3  
 2.650000000000000E10    8.812738582491875E-3  -3.627031110227108E-3  
 2.652000000000000E10   -4.999488126486540E-3  -9.012937545776367E-3  
 2.654000000000000E10   -8.071620017290115E-3   6.296879611909390E-3  
 2.656000000000000E10    7.251592352986336E-3   6.700631231069565E-3  
 2.658000000000000E10    5.712524522095919E-3  -8.671364746987820E-3  
 2.660000000000000E10   -8.968451060354710E-3  -4.938879050314426E-3  
 2.662000000000000E10   -3.590205451473594E-3   9.632979519665241E-3  
 2.664000000000000E10    9.561844170093536E-3   2.008763607591391E-3  
 2.666000000000000E10    1.774514093995094E-3  -9.704614058136940E-3  
 2.668000000000000E10   -9.728653356432915E-3  -8.237697184085846E-4  
 2.670000000000000E10   -1.541733363410458E-4   9.251030161976814E-3  
 2.672000000000000E10    9.102483280003071E-3  -3.435115795582533E-4  
 2.674000000000000E10   -2.167850034311414E-3  -9.322215802967548E-3  
 2.676000000000000E10   -9.128577075898647E-3   2.991081681102514E-3  
 2.678000000000000E10    4.326128866523504E-3   8.438166230916977E-3  
 2.680000000000000E10    7.444108370691538E-3  -5.621886346489191E-3  
 2.682000000000000E10   -6.421627942472696E-3  -7.638334296643734E-3  
 2.684000000000000E10   -6.237394176423550E-3   7.646286860108376E-3  
 2.686000000000000E10    8.106973953545094E-3   5.152039695531130E-3  
 2.688000000000000E10    4.835852887481451E-3  -8.797489106655121E-3  
 2.690000000000000E10   -9.414738044142723E-3  -3.601776435971260E-3  
 2.692000000000000E10   -2.811959711834788E-3   9.758407250046730E-3  
 2.694000000000000E10    9.521706961095333E-3   2.045828150585294E-3  
 2.696000000000000E10    6.240612710826099E-4  -9.697060100734234E-3  
 2.698000000000000E10   -1.017358247190714E-2  -3.729234449565411E-4  
 2.700000000000000E10    8.503348799422383E-4   9.557743556797504E-3  
 2.702000000000000E10    8.989959955215454E-3  -2.240915317088366E-3  
 2.704000000000000E10   -3.444278147071600E-3  -9.377547539770603E-3  
 2.706000000000000E10   -8.377240039408207E-3   4.366285167634487E-3  
 2.708000000000000E10    4.963811952620745E-3   7.726634386926889E-3  
 2.710000000000000E10    7.279268465936184E-3  -6.174008827656508E-3  
 2.712000000000000E10   -7.416106760501862E-3  -6.144051440060139E-3  
 2.714000000000000E10   -5.313656758517027E-3   8.367403410375118E-3  
 2.716000000000000E10    8.670691400766373E-3   4.461425822228193E-3  
 2.718000000000000E10    3.456897102296352E-3  -8.741759695112705E-3  
 2.720000000000000E10   -9.683458134531975E-3  -2.735161921009421E-3  
 2.722000000000000E10   -1.812509377487004E-3   9.306090883910656E-3  
 2.724000000000000E10    9.755206294357777E-3   1.180259976536036E-3  
 2.726000000000000E10   -3.707317519001663E-4  -1.030765008181334E-2  
 2.728000000000000E10   -9.520220570266247E-3   1.199779682792723E-3  
 2.730000000000000E10    1.758889178745449E-3   9.837449528276920E-3  
 2.732000000000000E10    9.499056264758110E-3  -3.336548106744885E-3  
 2.734000000000000E10   -3.983647562563419E-3  -8.784768171608448E-3  
 2.736000000000000E10   -8.340306580066681E-3   5.258314777165651E-3  
 2.738000000000000E10    6.684290245175362E-3   7.213182281702757E-3  
 2.740000000000000E10    5.807434674352408E-3  -7.632387336343527E-3  
 2.742000000000000E10   -8.196265436708927E-3  -4.528946243226528E-3  
 2.744000000000000E10   -3.659761510789394E-3   8.279506117105484E-3  
 2.746000000000000E10    8.909421041607857E-3   3.076910972595215E-3  
 2.748000000000000E10    1.877857022918761E-3  -9.357078000903130E-3  
 2.750000000000000E10   -9.069299325346947E-3  -1.269952743314207E-3  
 2.752000000000000E10   -4.740468284580857E-4   9.455773048102856E-3  
 2.754000000000000E10    9.745546616613865E-3  -1.541079545859247E-4  
 2.756000000000000E10   -1.273883040994406E-3  -9.690050035715103E-3  
