#  HZ   S   RI   R     50.00 
! Rohde & Schwarz ZVA40 4Ports - Version 3.90 - 1145.1110k42 SN: 100403
! Date: 2023-10-04 08:27:44
! Measurement: S12 
! 
 2.200000000000000E10   -1.013974752277136E-2  -3.570080036297441E-3  
 2.202000000000000E10   -1.771372393704951E-3   9.654218330979347E-3  
 2.204000000000000E10    9.066620841622353E-3  -1.171943076769821E-4  
 2.206000000000000E10   -6.559884059242904E-4  -8.609762415289879E-3  
 2.208000000000000E10   -8.516615256667137E-3   2.388190478086472E-3  
 2.210000000000000E10    4.146269522607327E-3   7.945516146719456E-3  
 2.212000000000000E10    7.661088835448027E-3  -4.516707733273506E-3  
 2.214000000000000E10   -6.453504785895348E-3  -7.409785408526659E-3  
 2.216000000000000E10   -6.870462093502283E-3   8.204762823879719E-3  
 2.218000000000000E10    7.864574901759625E-3   5.913430359214544E-3  
 2.220000000000000E10    5.460871849209070E-3  -8.886250667273998E-3  
 2.222000000000000E10   -9.825965389609337E-3  -6.009215023368597E-3  
 2.224000000000000E10   -5.415181163698435E-3   1.008212100714445E-2  
 2.226000000000000E10    1.072715409100056E-2   3.790304530411959E-3  
 2.228000000000000E10    2.538184635341167E-3  -1.064431015402079E-2  
 2.230000000000000E10   -1.043963525444269E-2  -7.116190972737968E-4  
 2.232000000000000E10    6.045019254088402E-4   9.390322491526604E-3  
 2.234000000000000E10    8.642787113785744E-3  -1.888873521238565E-3  
 2.236000000000000E10   -2.832505619153380E-3  -7.703575771301985E-3  
 2.238000000000000E10   -7.339918520301580E-3   3.585978643968701E-3  
 2.240000000000000E10    5.102891940623522E-3   6.998924538493156E-3  
 2.242000000000000E10    6.277237087488174E-3  -6.586826406419277E-3  
 2.244000000000000E10   -8.585542440414429E-3  -5.903505254536867E-3  
 2.246000000000000E10   -4.588788375258446E-3   9.414353407919407E-3  
 2.248000000000000E10    9.745201095938683E-3   3.767149755731225E-3  
 2.250000000000000E10    3.192032687366009E-3  -1.020493917167187E-2  
 2.252000000000000E10   -9.785572066903114E-3  -2.423726720735431E-3  
 2.254000000000000E10   -2.415727591142058E-3   9.992912411689758E-3  
 2.256000000000000E10    9.826948866248131E-3   1.565902726724744E-3  
 2.258000000000000E10    3.125607327092439E-4  -9.813703596591950E-3  
 2.260000000000000E10   -9.956661611795425E-3   9.446695912629366E-4  
 2.262000000000000E10    2.531443955376744E-3   7.990748621523380E-3  
 2.264000000000000E10    7.481100969016552E-3  -3.085277974605560E-3  
 2.266000000000000E10   -4.570005461573601E-3  -7.157495710998774E-3  
 2.268000000000000E10   -5.932224448770285E-3   5.720369983464479E-3  
 2.270000000000000E10    5.656186956912279E-3   5.263681989163160E-3  
 2.272000000000000E10    5.372960120439529E-3  -6.814375519752502E-3  
 2.274000000000000E10   -8.414964191615582E-3  -5.103103816509247E-3  
 2.276000000000000E10   -3.985363058745861E-3   9.375800378620625E-3  
 2.278000000000000E10    9.572052396833897E-3   2.982127713039517E-3  
 2.280000000000000E10    1.405604882165790E-3  -9.865019470453262E-3  
 2.282000000000000E10   -7.245740853250027E-3  -6.311052478849888E-3  
 2.284000000000000E10   -5.649702507071197E-4   9.003782644867897E-3  
 2.286000000000000E10    8.618230000138283E-3  -2.328132977709174E-4  
 2.288000000000000E10   -1.224187901243568E-3  -8.341591805219650E-3  
 2.290000000000000E10   -8.057561703026295E-3   1.560964738018811E-3  
 2.292000000000000E10    2.504792995750904E-3   7.564177736639977E-3  
 2.294000000000000E10    6.802154704928398E-3  -4.695519804954529E-3  
 2.296000000000000E10   -5.605255253612995E-3  -5.992461927235127E-3  
 2.298000000000000E10   -4.492400679737330E-3   6.136364769190550E-3  
 2.300000000000000E10    6.793469190597534E-3   3.280917881056666E-3  
 2.302000000000000E10    2.944886451587081E-3  -7.847161032259464E-3  
 2.304000000000000E10   -8.732632733881474E-3  -2.084167907014489E-3  
 2.306000000000000E10   -1.803827355615795E-3   9.394204244017601E-3  
 2.308000000000000E10    9.601773694157600E-3   9.979187743738294E-4  
 2.310000000000000E10   -6.029736832715571E-4  -1.018588058650494E-2  
 2.312000000000000E10   -1.004238706082106E-2   9.525401401333511E-4  
 2.314000000000000E10    1.218189368955791E-3   9.467462077736855E-3  
 2.316000000000000E10    8.425580337643623E-3  -2.476794412359595E-3  
 2.318000000000000E10   -3.162850392982364E-3  -7.968569174408913E-3  
 2.320000000000000E10   -6.752774585038424E-3   3.834268311038613E-3  
 2.322000000000000E10    4.614165052771568E-3   5.558723118156195E-3  
 2.324000000000000E10    4.883272107690573E-3  -5.213111173361540E-3  
 2.326000000000000E10   -6.821961607784033E-3  -3.730529686436057E-3  
 2.328000000000000E10   -2.486357931047678E-3   7.909099571406841E-3  
 2.330000000000000E10    8.192993700504303E-3   7.687411853112280E-4  
 2.332000000000000E10   -3.275110793765634E-5  -7.950006984174252E-3  
 2.334000000000000E10   -8.336453698575497E-3  -1.109003715100698E-4  
 2.336000000000000E10    1.831862464314327E-4   8.728044107556343E-3  
 2.338000000000000E10    9.053275920450687E-3  -1.390003599226475E-3  
 2.340000000000000E10   -2.022899454459548E-3  -9.123783558607101E-3  
 2.342000000000000E10   -9.103601798415184E-3   2.740827854722738E-3  
 2.344000000000000E10    4.574542865157127E-3   7.906781509518623E-3  
 2.346000000000000E10    7.077495567500591E-3  -5.205923225730658E-3  
 2.348000000000000E10   -5.779636092483997E-3  -5.890211556106806E-3  
 2.350000000000000E10   -4.861935973167419E-3   6.240772549062967E-3  
 2.352000000000000E10    6.946587469428778E-3   3.647413570433855E-3  
 2.354000000000000E10    2.492935396730900E-3  -7.591207511723042E-3  
 2.356000000000000E10   -8.403223939239979E-3  -1.901446026749909E-3  
 2.358000000000000E10   -2.122493169736117E-4   8.348979987204075E-3  
 2.360000000000000E10    8.506585843861103E-3  -1.310793915763497E-3  
 2.362000000000000E10   -1.936146407388151E-3  -8.203025907278061E-3  
 2.364000000000000E10   -7.882548496127129E-3   3.670807462185621E-3  
 2.366000000000000E10    3.919084556400776E-3   7.776159327477217E-3  
 2.368000000000000E10    7.751196622848511E-3  -4.466278478503227E-3  
 2.370000000000000E10   -5.566535051912069E-3  -7.425394374877214E-3  
 2.372000000000000E10   -6.661141291260719E-3   6.111529190093279E-3  
 2.374000000000000E10    6.770730018615723E-3   5.911681335419416E-3  
 2.376000000000000E10    4.609821829944849E-3  -7.592475041747093E-3  
 2.378000000000000E10   -7.499082945287228E-3  -3.634040709584951E-3  
 2.380000000000000E10   -1.446335576474667E-3   7.612658198922873E-3  
 2.382000000000000E10    7.662863470613957E-3   1.388846285408363E-4  
 2.384000000000000E10   -1.139556989073753E-3  -7.378771435469389E-3  
 2.386000000000000E10   -6.882712710648775E-3   2.431287663057447E-3  
 2.388000000000000E10    3.089290810748935E-3   7.130482699722052E-3  
 2.390000000000000E10    7.122700102627277E-3  -4.754630848765373E-3  
 2.392000000000000E10   -5.900107324123383E-3  -6.884139962494373E-3  
 2.394000000000000E10   -6.834083236753941E-3   6.187696009874344E-3  
 2.396000000000000E10    6.459060590714216E-3   5.141695495694876E-3  
 2.398000000000000E10    5.036843474954367E-3  -7.094120606780052E-3  
 2.400000000000000E10   -7.468095980584621E-3  -4.946787375956774E-3  
 2.402000000000000E10   -2.662772778421640E-3   7.685179822146893E-3  
 2.404000000000000E10    7.178590632975102E-3   1.694079837761819E-3  
 2.406000000000000E10    3.740260726772249E-4  -7.197215221822262E-3  
 2.408000000000000E10   -7.212084718048573E-3   7.866092491894960E-4  
 2.410000000000000E10    2.077251207083464E-3   6.872812751680613E-3  
 2.412000000000000E10    6.166860461235046E-3  -3.484398592263460E-3  
 2.414000000000000E10   -4.082005470991135E-3  -5.514521617442370E-3  
 2.416000000000000E10   -5.535338073968887E-3   4.584548529237509E-3  
 2.418000000000000E10    5.204902496188879E-3   4.874389152973890E-3  
 2.420000000000000E10    4.971296060830355E-3  -5.398042965680361E-3  
 2.422000000000000E10   -5.843967664986849E-3  -4.397945012897253E-3  
 2.424000000000000E10   -3.821122460067272E-3   6.563439499586821E-3  
 2.426000000000000E10    6.800055503845215E-3   3.116763429716229E-3  
 2.428000000000000E10    2.581011969596148E-3  -7.169981952756643E-3  
 2.430000000000000E10   -7.419895380735397E-3  -1.519762794487178E-3  
 2.432000000000000E10   -1.939851790666580E-4   7.426574826240540E-3  
 2.434000000000000E10    7.638916838914156E-3  -6.070189410820603E-4  
 2.436000000000000E10   -1.597796566784382E-3  -7.433855906128883E-3  
 2.438000000000000E10   -6.521028932183981E-3   2.316960599273443E-3  
 2.440000000000000E10    2.956897951662540E-3   5.844973959028721E-3  
 2.442000000000000E10    5.449712276458740E-3  -3.727761562913656E-3  
 2.444000000000000E10   -3.878422779962421E-3  -4.828092176467180E-3  
 2.446000000000000E10   -3.784945467486978E-3   3.834654577076435E-3  
 2.448000000000000E10    4.597222898155451E-3   3.710628952831030E-3  
 2.450000000000000E10    3.306977683678269E-3  -5.500699393451214E-3  
 2.452000000000000E10   -5.470866337418556E-3  -2.402720041573048E-3  
 2.454000000000000E10   -2.135955728590488E-3   5.706243216991425E-3  
 2.456000000000000E10    5.890097934752703E-3   1.896567409858108E-3  
 2.458000000000000E10    1.171345356851816E-3  -6.484429817646742E-3  
 2.460000000000000E10   -6.900356616824865E-3  -9.847646288108081E-5  
 2.462000000000000E10    1.683558657532558E-4   6.757645402103663E-3  
 2.464000000000000E10    6.434365641325712E-3  -1.501032151281834E-3  
 2.466000000000000E10   -2.181012183427811E-3  -6.009668111801148E-3  
 2.468000000000000E10   -5.727135110646486E-3   2.662649611011148E-3  
 2.470000000000000E10    3.629340091720223E-3   5.346822086721659E-3  
 2.472000000000000E10    4.692873451858759E-3  -3.875389695167542E-3  
 2.474000000000000E10   -4.290313925594091E-3  -3.978087566792965E-3  
 2.476000000000000E10   -4.282494075596333E-3   4.815779160708189E-3  
 2.478000000000000E10    5.416510626673698E-3   4.285892471671104E-3  
 2.480000000000000E10    2.891227602958679E-3  -5.891380831599236E-3  
 2.482000000000000E10   -5.943498108536005E-3  -2.558586187660694E-3  
 2.484000000000000E10   -2.108077052980661E-3   5.775521509349346E-3  
 2.486000000000000E10    6.223845295608044E-3   1.245614723302424E-3  
 2.488000000000000E10   -4.487165424507111E-4  -6.034449208527803E-3  
 2.490000000000000E10   -5.302003119140863E-3   7.386102806776762E-4  
 2.492000000000000E10    1.464955275878310E-3   5.442530848085880E-3  
 2.494000000000000E10    5.170887336134911E-3  -2.605881076306105E-3  
 2.496000000000000E10   -4.242748487740755E-3  -5.207416601479054E-3  
 2.498000000000000E10   -4.518500994890928E-3   4.291639663279057E-3  
 2.500000000000000E10    3.879907075315714E-3   4.009530879557133E-3  
 2.502000000000000E10    4.160800483077765E-3  -5.244179163128138E-3  
 2.504000000000000E10   -5.018205381929874E-3  -3.572450950741768E-3  
 2.506000000000000E10   -4.115439951419830E-3   4.468688275665045E-3  
 2.508000000000000E10    5.678702145814896E-3   4.140530247241259E-3  
 2.510000000000000E10    2.953052986413240E-3  -5.893934518098831E-3  
 2.512000000000000E10   -6.264104507863522E-3  -2.834331709891558E-3  
 2.514000000000000E10   -2.030139323323965E-3   7.034341339021921E-3  
 2.516000000000000E10    6.452851928770542E-3   5.178175051696599E-4  
 2.518000000000000E10   -8.446727297268808E-4  -6.465119309723377E-3  
 2.520000000000000E10   -5.752291064709425E-3   1.480539911426604E-3  
 2.522000000000000E10    2.105766907334328E-3   5.569848697632551E-3  
 2.524000000000000E10    5.303842015564442E-3  -3.582813544198871E-3  
 2.526000000000000E10   -3.571698674932122E-3  -4.895626567304134E-3  
 2.528000000000000E10   -5.028943531215191E-3   4.670595284551382E-3  
 2.530000000000000E10    5.519215948879719E-3   4.386766348034143E-3  
 2.532000000000000E10    3.861460834741592E-3  -5.892967805266380E-3  
 2.534000000000000E10   -6.158561445772648E-3  -3.699051216244698E-3  
 2.536000000000000E10   -3.080972237512469E-3   6.939205806702375E-3  
 2.538000000000000E10    6.851841695606709E-3   2.321779727935791E-3  
 2.540000000000000E10    2.166268415749073E-3  -7.260461803525686E-3  
 2.542000000000000E10   -7.603135425597429E-3  -1.500655082054436E-3  
 2.544000000000000E10    1.648890611249954E-4   7.867374457418919E-3  
 2.546000000000000E10    7.432210724800825E-3  -1.415422302670777E-3  
 2.548000000000000E10   -2.585568698123097E-3  -6.716820877045393E-3  
 2.550000000000000E10   -5.778796505182982E-3   3.975768107920885E-3  
 2.552000000000000E10    4.363922402262688E-3   4.938544239848852E-3  
 2.554000000000000E10    4.330970812588930E-3  -5.054009146988392E-3  
 2.556000000000000E10   -5.724702030420303E-3  -3.942500799894333E-3  
 2.558000000000000E10   -3.710943274199963E-3   6.470393389463425E-3  
 2.560000000000000E10    7.696181535720825E-3   2.986539853736758E-3  
 2.562000000000000E10    2.228250727057457E-3  -8.003628812730312E-3  
 2.564000000000000E10   -8.420609869062901E-3  -2.195746870711446E-3  
 2.566000000000000E10   -9.869559435173869E-4   9.460228495299816E-3  
 2.568000000000000E10    9.079362265765667E-3   3.178129263687879E-4  
 2.570000000000000E10   -1.076208660379052E-3  -8.681070059537888E-3  
 2.572000000000000E10   -8.529810234904289E-3   2.158085815608501E-3  
 2.574000000000000E10    3.051108680665493E-3   8.171472698450089E-3  
 2.576000000000000E10    7.737318053841591E-3  -4.494514781981707E-3  
 2.578000000000000E10   -5.785502493381500E-3  -5.961944814771414E-3  
 2.580000000000000E10   -4.873428493738174E-3   6.626967806369066E-3  
 2.582000000000000E10    6.872648838907480E-3   3.830330213531852E-3  
 2.584000000000000E10    3.040511393919587E-3  -7.008406799286604E-3  
 2.586000000000000E10   -8.159056305885315E-3  -2.338238758966327E-3  
 2.588000000000000E10   -1.398031366989017E-3   8.170031942427158E-3  
 2.590000000000000E10    7.917339913547039E-3   1.332542276941240E-3  
 2.592000000000000E10    7.049273117445409E-4  -9.404826909303665E-3  
 2.594000000000000E10   -1.021836791187525E-2   2.399193326709792E-4  
 2.596000000000000E10    1.346161472611129E-3   1.014691311866045E-2  
 2.598000000000000E10    9.457583539187908E-3  -2.952171023935080E-3  
 2.600000000000000E10   -3.836724674329162E-3  -9.340759366750717E-3  
 2.602000000000000E10   -8.952224627137184E-3   5.183743778616190E-3  
 2.604000000000000E10    5.531990434974432E-3   6.930756382644177E-3  
 2.606000000000000E10    5.978435743600130E-3  -6.182225421071053E-3  
 2.608000000000000E10   -7.790828123688698E-3  -5.582832265645266E-3  
 2.610000000000000E10   -4.252758342772722E-3   7.769610267132521E-3  
 2.612000000000000E10    7.922992110252380E-3   3.165930043905973E-3  
 2.614000000000000E10    2.006066963076592E-3  -8.982740342617035E-3  
 2.616000000000000E10   -9.280850179493427E-3  -1.111787860281766E-3  
 2.618000000000000E10   -4.292759113013744E-4   9.891882538795471E-3  
 2.620000000000000E10    9.562940336763859E-3  -6.941070896573365E-4  
 2.622000000000000E10   -1.666584867052734E-3  -1.028078887611628E-2  
 2.624000000000000E10   -1.053423434495926E-2   2.937823068350554E-3  
 2.626000000000000E10    3.362026996910572E-3   9.832444600760937E-3  
 2.628000000000000E10    1.001264620572329E-2  -4.936111159622669E-3  
 2.630000000000000E10   -6.500497926026583E-3  -8.905647322535515E-3  
 2.632000000000000E10   -7.001764606684446E-3   6.747256498783827E-3  
 2.634000000000000E10    7.370252627879381E-3   5.678139161318541E-3  
 2.636000000000000E10    5.177647341042757E-3  -7.951004430651665E-3  
 2.638000000000000E10   -8.437200449407101E-3  -4.083304200321436E-3  
 2.640000000000000E10   -2.557221101596952E-3   8.910109288990498E-3  
 2.642000000000000E10    9.205866605043411E-3   1.753722201101482E-3  
 2.644000000000000E10    1.005982863716781E-3  -1.050306949764490E-2  
 2.646000000000000E10   -1.077003870159388E-2   6.014693062752485E-4  
 2.648000000000000E10    1.947398995980620E-3   1.039214432239533E-2  
 2.650000000000000E10    1.058204099535942E-2  -3.041983349248767E-3  
 2.652000000000000E10   -4.296284634619951E-3  -1.071924809366465E-2  
 2.654000000000000E10   -9.789316914975643E-3   5.498774815350771E-3  
 2.656000000000000E10    7.052964996546507E-3   8.861944079399109E-3  
 2.658000000000000E10    7.743160706013441E-3  -7.763006724417210E-3  
 2.660000000000000E10   -8.722818456590176E-3  -7.045053876936436E-3  
 2.662000000000000E10   -4.870302043855190E-3   9.098067879676819E-3  
 2.664000000000000E10    9.310057386755943E-3   3.274985821917653E-3  
 2.666000000000000E10    2.821455942466855E-3  -9.993516840040684E-3  
 2.668000000000000E10   -9.846654720604420E-3  -1.519241253845394E-3  
 2.670000000000000E10   -6.310928147286177E-4   9.319849312305450E-3  
 2.672000000000000E10    9.846361353993416E-3   7.430535333696753E-5  
 2.674000000000000E10   -1.724023488350213E-3  -1.046659890562296E-2  
 2.676000000000000E10   -1.036004535853863E-2   2.376948716118932E-3  
 2.678000000000000E10    3.680621273815632E-3   9.678347036242485E-3  
 2.680000000000000E10    9.562883526086807E-3  -5.079608410596848E-3  
 2.682000000000000E10   -6.184799596667290E-3  -9.491121396422386E-3  
 2.684000000000000E10   -8.012565784156323E-3   6.879092194139957E-3  
 2.686000000000000E10    8.039239794015884E-3   7.102638017386198E-3  
 2.688000000000000E10    5.900416057556868E-3  -9.238488040864468E-3  
 2.690000000000000E10   -9.276168420910835E-3  -4.538372624665499E-3  
 2.692000000000000E10   -3.715099301189184E-3   9.425323456525803E-3  
 2.694000000000000E10    9.752691723406315E-3   2.114024944603443E-3  
 2.696000000000000E10    4.446867969818413E-4  -9.936348535120487E-3  
 2.698000000000000E10   -1.025663502514362E-2  -2.015870413742960E-4  
 2.700000000000000E10    1.420756219886243E-3   9.772355668246746E-3  
 2.702000000000000E10    1.025311648845673E-2  -2.986247884109616E-3  
 2.704000000000000E10   -4.219567868858576E-3  -1.026542205363512E-2  
 2.706000000000000E10   -9.255743585526943E-3   4.841358866542578E-3  
 2.708000000000000E10    5.727224983274937E-3   9.113674052059650E-3  
 2.710000000000000E10    8.624848909676075E-3  -7.146194577217102E-3  
 2.712000000000000E10   -7.690611761063337E-3  -7.512467447668314E-3  
 2.714000000000000E10   -6.810530088841915E-3   8.512178435921669E-3  
 2.716000000000000E10    8.734205737709999E-3   5.321750883013010E-3  
 2.718000000000000E10    4.172997083514929E-3  -9.439446963369846E-3  
 2.720000000000000E10   -9.645836427807808E-3  -3.509768983349204E-3  
 2.722000000000000E10   -1.823039958253503E-3   9.665890596807003E-3  
 2.724000000000000E10    1.024421770125628E-2   6.772964843548834E-4  
 2.726000000000000E10   -4.309783980716020E-4  -1.047078799456358E-2  
 2.728000000000000E10   -1.012382656335831E-2   1.153261167928577E-3  
 2.730000000000000E10    2.997698727995157E-3   1.011151075363159E-2  
 2.732000000000000E10    9.672647342085838E-3  -4.035926889628172E-3  
 2.734000000000000E10   -4.725732840597630E-3  -9.651055559515953E-3  
 2.736000000000000E10   -8.875116705894470E-3   5.741911474615336E-3  
 2.738000000000000E10    6.885619834065437E-3   7.922721095383167E-3  
 2.740000000000000E10    6.959528662264347E-3  -8.182787336409092E-3  
 2.742000000000000E10   -8.604039438068867E-3  -5.756728351116180E-3  
 2.744000000000000E10   -4.418920725584030E-3   8.897018618881702E-3  
 2.746000000000000E10    9.360487572848797E-3   3.274906892329454E-3  
 2.748000000000000E10    2.040544757619500E-3  -9.567253291606903E-3  
 2.750000000000000E10   -9.751308709383011E-3  -1.492892159149051E-3  
 2.752000000000000E10   -2.461171825416386E-4   9.696748107671738E-3  
 2.754000000000000E10    9.967688471078873E-3  -7.276114774867892E-4  
 2.756000000000000E10   -1.402256428264082E-3  -9.571501985192299E-3  
