#  HZ   S   RI   R     50.00 
! Rohde & Schwarz ZVA40 4Ports - Version 3.90 - 1145.1110k42 SN: 100403
! Date: 2023-10-04 08:28:23
! Measurement: S12 
! 
 2.200000000000000E10   -1.193595957010984E-2  -4.022813867777586E-3  
 2.202000000000000E10   -1.905247219838202E-3   1.223912090063095E-2  
 2.204000000000000E10    1.280299946665764E-2   1.650681486353278E-3  
 2.206000000000000E10    8.571732905693352E-4  -1.264167763292790E-2  
 2.208000000000000E10   -1.258448045700789E-2   6.373900105245411E-4  
 2.210000000000000E10    1.220407430082560E-3   1.229558326303959E-2  
 2.212000000000000E10    1.105905044823885E-2  -2.064706990495324E-3  
 2.214000000000000E10   -3.895225934684277E-3  -1.036426052451134E-2  
 2.216000000000000E10   -9.783608838915825E-3   4.622179083526135E-3  
 2.218000000000000E10    6.068767514079809E-3   8.230117149651051E-3  
 2.220000000000000E10    6.837241817265749E-3  -6.737658753991127E-3  
 2.222000000000000E10   -6.974793970584869E-3  -6.174352951347828E-3  
 2.224000000000000E10   -4.156866110861301E-3   8.742463774979115E-3  
 2.226000000000000E10    1.006415393203497E-2   4.349166527390480E-3  
 2.228000000000000E10    2.888991963118315E-3  -1.080374792218208E-2  
 2.230000000000000E10   -1.141244452446699E-2  -1.750614901538938E-4  
 2.232000000000000E10   -2.671887705218978E-5   1.175904553383589E-2  
 2.234000000000000E10    1.199229620397091E-2  -8.062968845479190E-4  
 2.236000000000000E10   -1.969398697838187E-3  -1.159189268946648E-2  
 2.238000000000000E10   -1.113761775195599E-2   2.653942443430424E-3  
 2.240000000000000E10    3.434956306591630E-3   1.061090454459190E-2  
 2.242000000000000E10    1.068075373768807E-2  -3.767488058656454E-3  
 2.244000000000000E10   -5.246862303465605E-3  -9.544302709400654E-3  
 2.246000000000000E10   -7.752981036901474E-3   7.071049883961678E-3  
 2.248000000000000E10    7.407538592815399E-3   6.934190634638071E-3  
 2.250000000000000E10    5.345610901713371E-3  -7.575156167149544E-3  
 2.252000000000000E10   -7.875630632042885E-3  -3.298698458820581E-3  
 2.254000000000000E10   -2.934660296887159E-3   8.395059034228325E-3  
 2.256000000000000E10    9.669296443462372E-3   2.369039691984654E-3  
 2.258000000000000E10    9.518144652247429E-4  -1.044220570474863E-2  
 2.260000000000000E10   -9.848073124885559E-3  -2.435906790196896E-4  
 2.262000000000000E10    1.261738361790776E-3   1.036496646702290E-2  
 2.264000000000000E10    1.143351662904024E-2  -1.562162418849766E-3  
 2.266000000000000E10   -2.716111950576305E-3  -1.084583345800638E-2  
 2.268000000000000E10   -9.230847470462322E-3   4.084163345396519E-3  
 2.270000000000000E10    3.916217014193535E-3   9.467366151511669E-3  
 2.272000000000000E10    8.907441981136799E-3  -4.567420110106468E-3  
 2.274000000000000E10   -5.421488080173731E-3  -8.070942945778370E-3  
 2.276000000000000E10   -7.467515300959349E-3   6.335313897579908E-3  
 2.278000000000000E10    7.587135769426823E-3   5.533710587769747E-3  
 2.280000000000000E10    3.629482584074140E-3  -8.070034906268120E-3  
 2.282000000000000E10   -5.335474386811256E-3  -6.658914033323526E-3  
 2.284000000000000E10   -9.469182114116848E-4   7.983467541635037E-3  
 2.286000000000000E10    8.775508962571621E-3   1.735278929118067E-4  
 2.288000000000000E10   -4.502390511333942E-4  -8.907144889235497E-3  
 2.290000000000000E10   -9.103397838771343E-3   1.039606984704733E-3  
 2.292000000000000E10    1.694013830274344E-3   1.003166940063238E-2  
 2.294000000000000E10    9.853168390691280E-3  -2.907078247517347E-3  
 2.296000000000000E10   -3.942183684557676E-3  -9.555961005389690E-3  
 2.298000000000000E10   -8.859122171998024E-3   4.669851157814264E-3  
 2.300000000000000E10    5.362042225897312E-3   7.932323031127453E-3  
 2.302000000000000E10    6.814021617174149E-3  -5.833806470036507E-3  
 2.304000000000000E10   -5.999968387186527E-3  -5.862446501851082E-3  
 2.306000000000000E10   -4.725439939647913E-3   6.193195004016161E-3  
 2.308000000000000E10    6.912829354405403E-3   3.728439798578620E-3  
 2.310000000000000E10    2.831856021657586E-3  -8.332141675055027E-3  
 2.312000000000000E10   -8.796776644885540E-3  -1.437249942682684E-3  
 2.314000000000000E10    4.716312105301768E-4   8.563307113945484E-3  
 2.316000000000000E10    8.260171860456467E-3  -1.432043849490583E-3  
 2.318000000000000E10   -2.161510521546006E-3  -8.682655170559883E-3  
 2.320000000000000E10   -8.451754227280617E-3   2.753633772954345E-3  
 2.322000000000000E10    3.397702239453793E-3   7.699746638536453E-3  
 2.324000000000000E10    7.929081097245216E-3  -3.689138451591134E-3  
 2.326000000000000E10   -5.406048148870468E-3  -7.751517929136753E-3  
 2.328000000000000E10   -6.848274264484644E-3   6.301062647253275E-3  
 2.330000000000000E10    6.722897756844759E-3   5.262085702270269E-3  
 2.332000000000000E10    4.142074380069971E-3  -7.122467737644911E-3  
 2.334000000000000E10   -7.202595472335815E-3  -3.584725782275200E-3  
 2.336000000000000E10   -2.982585225254297E-3   7.531566079705954E-3  
 2.338000000000000E10    7.803536951541901E-3   1.695074490271509E-3  
 2.340000000000000E10    9.587503736838698E-4  -8.154389448463917E-3  
 2.342000000000000E10   -8.361597545444965E-3   3.257717471569777E-4  
 2.344000000000000E10    1.551269670017064E-3   8.742956444621086E-3  
 2.346000000000000E10    8.367111906409264E-3  -2.871766220778227E-3  
 2.348000000000000E10   -4.482940770685673E-3  -7.557082455605269E-3  
 2.350000000000000E10   -6.790123414248228E-3   4.785322584211826E-3  
 2.352000000000000E10    5.472165998071432E-3   6.789010018110275E-3  
 2.354000000000000E10    6.046395748853684E-3  -6.530817132443190E-3  
 2.356000000000000E10   -6.981577724218369E-3  -5.356819368898869E-3  
 2.358000000000000E10   -4.211207386106253E-3   7.325656246393919E-3  
 2.360000000000000E10    7.864169776439667E-3   3.659940091893077E-3  
 2.362000000000000E10    2.199268434196711E-3  -7.712101098150015E-3  
 2.364000000000000E10   -7.722220849245787E-3  -3.139322798233479E-4  
 2.366000000000000E10    2.259281463921070E-4   6.852680817246437E-3  
 2.368000000000000E10    6.586741656064987E-3  -1.493260147981346E-3  
 2.370000000000000E10   -2.621334977447987E-3  -6.842292379587889E-3  
 2.372000000000000E10   -7.054689340293407E-3   3.238837467506528E-3  
 2.374000000000000E10    4.523652140051127E-3   7.140929810702801E-3  
 2.376000000000000E10    6.962880957871676E-3  -5.693668499588966E-3  
 2.378000000000000E10   -6.741615477949381E-3  -6.278256885707378E-3  
 2.380000000000000E10   -5.499996710568667E-3   7.335587870329619E-3  
 2.382000000000000E10    7.702791597694159E-3   4.532709717750549E-3  
 2.384000000000000E10    3.188641974702478E-3  -6.957859732210636E-3  
 2.386000000000000E10   -6.998363416641951E-3  -2.687236526980996E-3  
 2.388000000000000E10   -2.106606261804700E-3   6.519347429275513E-3  
 2.390000000000000E10    6.830987986177206E-3   9.194746380671859E-4  
 2.392000000000000E10   -1.396867155563086E-4  -6.976350210607052E-3  
 2.394000000000000E10   -5.962011404335499E-3   1.361887319944799E-3  
 2.396000000000000E10    2.773712854832411E-3   5.739564076066017E-3  
 2.398000000000000E10    6.275494582951069E-3  -3.365716198459268E-3  
 2.400000000000000E10   -4.288974683731794E-3  -5.882056895643473E-3  
 2.402000000000000E10   -3.848008578643203E-3   5.528192967176437E-3  
 2.404000000000000E10    6.141536403447390E-3   3.585910191759467E-3  
 2.406000000000000E10    3.350347047671676E-3  -6.570375058799982E-3  
 2.408000000000000E10   -6.316128652542830E-3  -2.633327851071954E-3  
 2.410000000000000E10   -1.801788806915283E-3   6.433599162846804E-3  
 2.412000000000000E10    6.794162560254335E-3   7.747423369437456E-4  
 2.414000000000000E10    4.375883436296135E-4  -7.073689717799425E-3  
 2.416000000000000E10   -6.756690796464682E-3   9.729414159664884E-6  
 2.418000000000000E10    7.377453730441630E-4   6.184340454638004E-3  
 2.420000000000000E10    6.763298995792866E-3  -1.367570715956390E-3  
 2.422000000000000E10   -1.907485071569681E-3  -6.299774628132582E-3  
 2.424000000000000E10   -6.118723656982184E-3   2.574927872046828E-3  
 2.426000000000000E10    3.388799028471112E-3   6.204249337315559E-3  
 2.428000000000000E10    5.234370008111000E-3  -4.256946500390768E-3  
 2.430000000000000E10   -5.019853357225657E-3  -4.366375040262938E-3  
 2.432000000000000E10   -3.799917409196496E-3   5.752333905547857E-3  
 2.434000000000000E10    6.350921466946602E-3   2.958412282168865E-3  
 2.436000000000000E10    2.069098176434636E-3  -6.333301775157452E-3  
 2.438000000000000E10   -6.189416162669659E-3  -1.190786599181593E-3  
 2.440000000000000E10   -3.062008181586862E-4   6.964696571230888E-3  
 2.442000000000000E10    6.570930592715740E-3   5.433013257061248E-7  
 2.444000000000000E10   -1.922295778058469E-4  -6.101815495640039E-3  
 2.446000000000000E10   -5.614234600216150E-3   1.007615937851369E-3  
 2.448000000000000E10    1.817860873416066E-3   6.240428891032934E-3  
 2.450000000000000E10    5.679210182279348E-3  -2.100519370287657E-3  
 2.452000000000000E10   -2.199518727138639E-3  -4.995536990463734E-3  
 2.454000000000000E10   -4.658021964132786E-3   3.474920522421598E-3  
 2.456000000000000E10    4.381292033940554E-3   4.607735667377710E-3  
 2.458000000000000E10    4.428893327713013E-3  -4.934939555823803E-3  
 2.460000000000000E10   -5.599863827228546E-3  -3.826922504231334E-3  
 2.462000000000000E10   -3.186029149219394E-3   5.920805037021637E-3  
 2.464000000000000E10    6.924706976860762E-3   2.333163749426603E-3  
 2.466000000000000E10    1.952950144186616E-3  -6.346236914396286E-3  
 2.468000000000000E10   -6.029482930898666E-3  -1.549553591758013E-3  
 2.470000000000000E10   -7.755090482532978E-4   6.415807176381350E-3  
 2.472000000000000E10    5.241048987954855E-3  -2.605996560305357E-4  
 2.474000000000000E10   -2.667519438546151E-4  -5.005591548979282E-3  
 2.476000000000000E10   -5.170155782252550E-3   1.387490308843553E-3  
 2.478000000000000E10    2.154025482013822E-3   4.806332755833864E-3  
 2.480000000000000E10    4.323912784457207E-3  -3.350784070789814E-3  
 2.482000000000000E10   -3.734657075256109E-3  -4.460407420992851E-3  
 2.484000000000000E10   -4.130825400352478E-3   4.979919176548719E-3  
 2.486000000000000E10    6.398693192750216E-3   3.307592589408159E-3  
 2.488000000000000E10    2.408453961834312E-3  -6.035480648279190E-3  
 2.490000000000000E10   -5.882419645786285E-3  -2.334774704650044E-3  
 2.492000000000000E10   -1.875513000413775E-3   6.778715178370476E-3  
 2.494000000000000E10    6.656729616224766E-3   9.458746062591672E-4  
 2.496000000000000E10    3.569597320165485E-4  -6.279909517616034E-3  
 2.498000000000000E10   -5.849225446581841E-3   7.049333362374455E-5  
 2.500000000000000E10    8.540477720089257E-4   5.298015661537647E-3  
 2.502000000000000E10    5.260820034891367E-3  -1.105928793549538E-3  
 2.504000000000000E10   -1.415319973602891E-3  -4.894129000604153E-3  
 2.506000000000000E10   -4.427673295140266E-3   2.182854805141687E-3  
 2.508000000000000E10    2.294111298397183E-3   4.165732767432928E-3  
 2.510000000000000E10    4.410520195960999E-3  -3.035948844626546E-3  
 2.512000000000000E10   -5.051599815487862E-3  -4.272829741239548E-3  
 2.514000000000000E10   -3.497616387903690E-3   5.459336563944817E-3  
 2.516000000000000E10    5.605888087302446E-3   2.499313093721867E-3  
 2.518000000000000E10    2.087035914883018E-3  -7.070459891110659E-3  
 2.520000000000000E10   -7.398918736726046E-3  -8.518995600752533E-4  
 2.522000000000000E10   -4.967818967998028E-4   6.979547906666994E-3  
 2.524000000000000E10    6.738071795552969E-3   1.608592720003799E-4  
 2.526000000000000E10   -3.215277683921158E-4  -6.428544875234366E-3  
 2.528000000000000E10   -7.269968744367361E-3   1.264284597709775E-3  
 2.530000000000000E10    1.199943246319890E-3   6.810315884649754E-3  
 2.532000000000000E10    5.879972595721483E-3  -1.401955494657159E-3  
 2.534000000000000E10   -2.662015613168478E-3  -5.582698620855808E-3  
 2.536000000000000E10   -4.756102804094553E-3   3.582394449040294E-3  
 2.538000000000000E10    3.715024562552571E-3   4.698746837675571E-3  
 2.540000000000000E10    3.835101844742894E-3  -4.422613885253668E-3  
 2.542000000000000E10   -5.457438994199038E-3  -2.394464798271656E-3  
 2.544000000000000E10   -1.796050579287112E-3   6.749734282493591E-3  
 2.546000000000000E10    7.454582024365664E-3   1.636289176531136E-3  
 2.548000000000000E10   -1.270063949050382E-4  -7.157780230045319E-3  
 2.550000000000000E10   -7.683216128498316E-3   1.444603200070560E-3  
 2.552000000000000E10    1.906190533190966E-3   7.608832791447640E-3  
 2.554000000000000E10    6.939534097909927E-3  -2.019109204411507E-3  
 2.556000000000000E10   -2.326881047338247E-3  -5.859177093952894E-3  
 2.558000000000000E10   -5.733293946832418E-3   3.425822127610445E-3  
 2.560000000000000E10    4.059725906699896E-3   5.563254002481699E-3  
 2.562000000000000E10    5.121929571032524E-3  -3.878805786371231E-3  
 2.564000000000000E10   -4.684890620410442E-3  -4.290234763175249E-3  
 2.566000000000000E10   -3.738897154107690E-3   6.049087271094322E-3  
 2.568000000000000E10    6.552177481353283E-3   2.729126485064626E-3  
 2.570000000000000E10    1.801259699277580E-3  -7.241166196763516E-3  
 2.572000000000000E10   -7.220500148832798E-3  -7.105814293026924E-4  
 2.574000000000000E10    3.731126198545098E-4   7.806020323187113E-3  
 2.576000000000000E10    8.487456478178501E-3  -1.724428730085492E-3  
 2.578000000000000E10   -3.067585406824946E-3  -8.448526263237000E-3  
 2.580000000000000E10   -7.462934125214815E-3   4.146670922636986E-3  
 2.582000000000000E10    4.365927074104548E-3   7.003134116530418E-3  
 2.584000000000000E10    6.352646276354790E-3  -4.792463500052691E-3  
 2.586000000000000E10   -5.585136823356152E-3  -5.877596791833639E-3  
 2.588000000000000E10   -5.279041826725006E-3   5.153630860149860E-3  
 2.590000000000000E10    5.385803058743477E-3   5.139806773513556E-3  
 2.592000000000000E10    4.526705481112003E-3  -6.497025955468416E-3  
 2.594000000000000E10   -7.026085164397955E-3  -3.766649169847369E-3  
 2.596000000000000E10   -2.945489482954145E-3   7.477304432541132E-3  
 2.598000000000000E10    8.363099768757820E-3   1.491180853918195E-3  
 2.600000000000000E10   -5.070956540293992E-4  -8.876156061887741E-3  
 2.602000000000000E10   -8.711981587111950E-3   1.426377100870013E-3  
 2.604000000000000E10    2.871254226192832E-3   8.266080170869827E-3  
 2.606000000000000E10    8.083258755505085E-3  -4.112430848181248E-3  
 2.608000000000000E10   -4.541357979178429E-3  -7.822129875421524E-3  
 2.610000000000000E10   -7.444882299751043E-3   4.857879597693682E-3  
 2.612000000000000E10    5.849323235452175E-3   7.376319263130426E-3  
 2.614000000000000E10    6.982330232858658E-3  -6.349631585180759E-3  
 2.616000000000000E10   -6.678889505565167E-3  -6.069923285394907E-3  
 2.618000000000000E10   -5.513681564480066E-3   7.191124837845564E-3  
 2.620000000000000E10    7.689069025218487E-3   4.600871820002794E-3  
 2.622000000000000E10    3.274034708738327E-3  -7.886496372520924E-3  
 2.624000000000000E10   -8.116868324577808E-3  -2.334499964490533E-3  
 2.626000000000000E10   -1.202024403028190E-3   8.656665682792664E-3  
 2.628000000000000E10    9.299376979470253E-3  -1.999246887862682E-4  
 2.630000000000000E10   -2.286139875650406E-3  -9.335556067526341E-3  
 2.632000000000000E10   -8.357668295502663E-3   3.771247109398246E-3  
 2.634000000000000E10    4.803826566785574E-3   8.250144310295582E-3  
 2.636000000000000E10    7.639220450073481E-3  -5.215647630393505E-3  
 2.638000000000000E10   -6.470950320363045E-3  -6.762301083654165E-3  
 2.640000000000000E10   -6.465611513704062E-3   6.958051584661007E-3  
 2.642000000000000E10    7.793688680976629E-3   6.377601530402899E-3  
 2.644000000000000E10    5.722484085708857E-3  -8.303851820528507E-3  
 2.646000000000000E10   -8.715732023119927E-3  -4.500170703977346E-3  
 2.648000000000000E10   -3.516403958201408E-3   9.449275210499764E-3  
 2.650000000000000E10    1.005058456212282E-2   2.671695081517100E-3  
 2.652000000000000E10    1.096918247640133E-3  -9.847003966569901E-3  
 2.654000000000000E10   -9.812031872570515E-3   6.994547438807786E-4  
 2.656000000000000E10    1.765744993463159E-3   9.973984211683273E-3  
 2.658000000000000E10    9.711192920804024E-3  -3.175089834257960E-3  
 2.660000000000000E10   -4.413961432874203E-3  -8.726160973310471E-3  
 2.662000000000000E10   -7.574882823973894E-3   6.176588591188192E-3  
 2.664000000000000E10    7.436203770339489E-3   7.196418475359678E-3  
 2.666000000000000E10    6.588808726519346E-3  -7.709167897701263E-3  
 2.668000000000000E10   -7.960965856909752E-3  -5.202842410653830E-3  
 2.670000000000000E10   -4.757101181894541E-3   8.899681270122528E-3  
 2.672000000000000E10    9.360926225781441E-3   4.465610720217228E-3  
 2.674000000000000E10    3.159722546115518E-3  -9.672621265053749E-3  
 2.676000000000000E10   -1.010116934776306E-2  -2.881814260035753E-3  
 2.678000000000000E10   -8.940642001107335E-4   1.037736516445875E-2  
 2.680000000000000E10    1.071446668356657E-2  -4.307599447201937E-4  
 2.682000000000000E10   -8.211111417040229E-4  -1.058110594749451E-2  
 2.684000000000000E10   -9.925318881869316E-3   2.603792818263173E-3  
 2.686000000000000E10    4.402219317853451E-3   9.741006419062614E-3  
 2.688000000000000E10    9.020342491567135E-3  -5.358135793358088E-3  
 2.690000000000000E10   -6.331788375973702E-3  -8.227638900279999E-3  
 2.692000000000000E10   -7.584276609122753E-3   7.372927386313677E-3  
 2.694000000000000E10    8.362025022506714E-3   6.659546401351690E-3  
 2.696000000000000E10    5.778765305876732E-3  -9.142247959971428E-3  
 2.698000000000000E10   -9.092332795262337E-3  -4.955421201884747E-3  
 2.700000000000000E10   -3.421017201617360E-3   9.679270908236504E-3  
 2.702000000000000E10    1.050626579672098E-2   1.971911406144500E-3  
 2.704000000000000E10    1.299284980632365E-3  -1.040118001401424E-2  
 2.706000000000000E10   -1.030012127012014E-2   4.944835673086345E-4  
 2.708000000000000E10    1.440620748326182E-3   1.065315678715706E-2  
 2.710000000000000E10    1.037196815013886E-2  -2.435820875689387E-3  
 2.712000000000000E10   -4.076169803738594E-3  -9.656343609094620E-3  
 2.714000000000000E10   -9.408514946699143E-3   5.439156666398048E-3  
 2.716000000000000E10    6.447819527238607E-3   8.353627286851406E-3  
 2.718000000000000E10    8.242423646152020E-3  -6.818301044404507E-3  
 2.720000000000000E10   -7.695174310356379E-3  -7.235031574964523E-3  
 2.722000000000000E10   -5.910120438784361E-3   8.713391609489918E-3  
 2.724000000000000E10    9.661372750997543E-3   5.676168017089367E-3  
 2.726000000000000E10    4.812477622181177E-3  -9.775448590517044E-3  
 2.728000000000000E10   -1.027864497154951E-2  -2.678506309166551E-3  
 2.730000000000000E10   -1.451036077924073E-3   1.092044077813625E-2  
 2.732000000000000E10    1.136949937790632E-2   6.766997976228595E-4  
 2.734000000000000E10   -6.381893763318658E-4  -1.101633813232184E-2  
 2.736000000000000E10   -1.093900762498379E-2   2.351172966882587E-3  
 2.738000000000000E10    3.420501947402954E-3   1.049062144011259E-2  
 2.740000000000000E10    1.055458281189203E-2  -4.469694569706917E-3  
 2.742000000000000E10   -5.673291161656380E-3  -9.116961620748043E-3  
 2.744000000000000E10   -8.238185197114945E-3   6.766735110431910E-3  
 2.746000000000000E10    7.991425693035126E-3   7.711096666753292E-3  
 2.748000000000000E10    6.729600951075554E-3  -8.167518302798271E-3  
 2.750000000000000E10   -8.945780806243420E-3  -5.528518464416266E-3  
 2.752000000000000E10   -4.301282577216625E-3   9.816053323447704E-3  
 2.754000000000000E10    9.836272336542606E-3   3.668724326416850E-3  
 2.756000000000000E10    2.587372669950128E-3  -1.046698540449143E-2  
