#  HZ   S   RI   R     50.00 
! Rohde & Schwarz ZVA40 4Ports - Version 3.90 - 1145.1110k42 SN: 100403
! Date: 2023-10-04 08:33:04
! Measurement: S12 
! 
 2.200000000000000E10   -2.543098106980324E-2   5.246659740805626E-3  
 2.202000000000000E10    7.461872417479754E-3   2.421894855797291E-2  
 2.204000000000000E10    2.294940687716007E-2  -1.058277580887079E-2  
 2.206000000000000E10   -1.304400619119406E-2  -2.248200960457325E-2  
 2.208000000000000E10   -2.087509632110596E-2   1.552224066108465E-2  
 2.210000000000000E10    1.808241009712219E-2   1.818415708839893E-2  
 2.212000000000000E10    1.588373444974423E-2  -1.918437331914902E-2  
 2.214000000000000E10   -2.043242380023003E-2  -1.367783639580011E-2  
 2.216000000000000E10   -1.131908223032951E-2   2.172467112541199E-2  
 2.218000000000000E10    2.175710909068584E-2   8.472543209791184E-3  
 2.220000000000000E10    6.534184794872999E-3  -2.211052924394608E-2  
 2.222000000000000E10   -2.350999228656292E-2  -5.034370813518763E-3  
 2.224000000000000E10   -1.635915250517428E-3   2.356444485485554E-2  
 2.226000000000000E10    2.366267703473568E-2  -2.718873787671328E-3  
 2.228000000000000E10   -4.530995152890682E-3  -2.366946823894978E-2  
 2.230000000000000E10   -2.274248749017716E-2   6.621052511036396E-3  
 2.232000000000000E10    1.055081840604544E-2   2.120070904493332E-2  
 2.234000000000000E10    1.940266042947769E-2  -1.274003833532333E-2  
 2.236000000000000E10   -1.381506025791168E-2  -1.855038292706013E-2  
 2.238000000000000E10   -1.710037328302860E-2   1.520962826907635E-2  
 2.240000000000000E10    1.716544479131699E-2   1.464869640767574E-2  
 2.242000000000000E10    1.339899469166994E-2  -2.029951661825180E-2  
 2.244000000000000E10   -2.124791406095028E-2  -1.084580179303885E-2  
 2.246000000000000E10   -7.618495263159275E-3   2.057202346622944E-2  
 2.248000000000000E10    2.187920548021793E-2   4.715488292276859E-3  
 2.250000000000000E10    2.854273887351155E-3  -2.274108305573463E-2  
 2.252000000000000E10   -2.150139212608337E-2  -9.153784485533834E-4  
 2.254000000000000E10    1.837547053582966E-3   2.049901336431503E-2  
 2.256000000000000E10    2.132568694651127E-2  -4.184030927717686E-3  
 2.258000000000000E10   -5.975874606519938E-3  -2.139270678162575E-2  
 2.260000000000000E10   -2.041229046881199E-2   6.843718700110912E-3  
 2.262000000000000E10    1.003455650061369E-2   1.818679273128510E-2  
 2.264000000000000E10    1.804709061980248E-2  -1.237865351140499E-2  
 2.266000000000000E10   -1.359086297452450E-2  -1.745759136974812E-2  
 2.268000000000000E10   -1.476455852389336E-2   1.496820244938135E-2  
 2.270000000000000E10    1.623976603150368E-2   1.227293349802494E-2  
 2.272000000000000E10    1.158266048878431E-2  -1.789460144937038E-2  
 2.274000000000000E10   -1.855629868805409E-2  -9.856972843408585E-3  
 2.276000000000000E10   -6.776154041290283E-3   1.957129314541817E-2  
 2.278000000000000E10    2.008994109928608E-2   3.419192740693688E-3  
 2.280000000000000E10    5.687592783942819E-4  -2.024876885116100E-2  
 2.282000000000000E10   -1.654674671590328E-2  -1.023441273719072E-2  
 2.284000000000000E10    3.088273806497455E-3   1.875307969748974E-2  
 2.286000000000000E10    1.783417910337448E-2  -5.183786153793335E-3  
 2.288000000000000E10   -6.410778034478426E-3  -1.807269826531410E-2  
 2.290000000000000E10   -1.816547475755215E-2   8.072516880929470E-3  
 2.292000000000000E10    1.022779196500778E-2   1.698743179440498E-2  
 2.294000000000000E10    1.582606323063374E-2  -1.195205934345722E-2  
 2.296000000000000E10   -1.427493896335363E-2  -1.400567498058081E-2  
 2.298000000000000E10   -1.184963807463646E-2   1.502389088273048E-2  
 2.300000000000000E10    1.592070236802101E-2   1.020689867436886E-2  
 2.302000000000000E10    7.474571466445923E-3  -1.675226353108883E-2  
 2.304000000000000E10   -1.713371835649014E-2  -5.666003096848726E-3  
 2.306000000000000E10   -3.728066803887487E-3   1.731577701866627E-2  
 2.308000000000000E10    1.768034510314465E-2   1.894697081297636E-3  
 2.310000000000000E10   -3.389032790437341E-4  -1.810962520539761E-2  
 2.312000000000000E10   -1.783010363578796E-2   3.512683324515820E-3  
 2.314000000000000E10    5.345729645341635E-3   1.654245145618916E-2  
 2.316000000000000E10    1.581353135406971E-2  -6.856052204966545E-3  
 2.318000000000000E10   -8.619477972388268E-3  -1.462292205542326E-2  
 2.320000000000000E10   -1.334803085774183E-2   9.548431262373924E-3  
 2.322000000000000E10    1.120411232113838E-2   1.250232849270105E-2  
 2.324000000000000E10    1.158689986914396E-2  -1.236474234610796E-2  
 2.326000000000000E10   -1.382637396454811E-2  -1.054353266954422E-2  
 2.328000000000000E10   -8.541634306311607E-3   1.552135217934847E-2  
 2.330000000000000E10    1.596266217529774E-2   5.676727741956711E-3  
 2.332000000000000E10    4.029453266412020E-3  -1.625685393810272E-2  
 2.334000000000000E10   -1.533520501106978E-2  -2.221844391897321E-3  
 2.336000000000000E10   -8.168473141267896E-4   1.568251848220825E-2  
 2.338000000000000E10    1.570211164653301E-2  -1.202001236379147E-3  
 2.340000000000000E10   -2.836905652657151E-3  -1.501051522791386E-2  
 2.342000000000000E10   -1.449170336127281E-2   4.751957021653652E-3  
 2.344000000000000E10    7.208565715700388E-3   1.361886505037546E-2  
 2.346000000000000E10    1.209763344377279E-2  -8.803661912679672E-3  
 2.348000000000000E10   -1.013301033526659E-2  -1.133842486888170E-2  
 2.350000000000000E10   -1.024872809648514E-2   1.148096751421690E-2  
 2.352000000000000E10    1.273985113948584E-2   8.849818259477615E-3  
 2.354000000000000E10    7.307591382414103E-3  -1.423263177275658E-2  
 2.356000000000000E10   -1.456038746982813E-2  -6.067522801458836E-3  
 2.358000000000000E10   -3.856147872284055E-3   1.463599968701601E-2  
 2.360000000000000E10    1.478839479386807E-2   2.087606582790613E-3  
 2.362000000000000E10    8.282043272629380E-4  -1.459403336048126E-2  
 2.364000000000000E10   -1.337775215506554E-2   1.252171932719648E-3  
 2.366000000000000E10    3.043225267902017E-3   1.257353182882071E-2  
 2.368000000000000E10    1.143755856901407E-2  -4.154411610215902E-3  
 2.370000000000000E10   -5.563272628933191E-3  -1.077947299927473E-2  
 2.372000000000000E10   -9.977076202630997E-3   6.637149956077337E-3  
 2.374000000000000E10    8.320190943777561E-3   9.127048775553703E-3  
 2.376000000000000E10    8.485430851578713E-3  -9.807700291275978E-3  
 2.378000000000000E10   -1.077811699360609E-2  -7.383910007774830E-3  
 2.380000000000000E10   -6.147286854684353E-3   1.133527792990208E-2  
 2.382000000000000E10    1.234834454953671E-2   4.802722483873367E-3  
 2.384000000000000E10    3.699718276038766E-3  -1.259293965995312E-2  
 2.386000000000000E10   -1.267204992473126E-2  -2.533554099500179E-3  
 2.388000000000000E10   -1.136211096309125E-3   1.219904981553555E-2  
 2.390000000000000E10    1.157287228852511E-2  -4.144761624047533E-5  
 2.392000000000000E10   -1.940768444910646E-3  -1.119070407003164E-2  
 2.394000000000000E10   -1.043577026575804E-2   2.572842175140977E-3  
 2.396000000000000E10    3.858211450278759E-3   9.406838566064835E-3  
 2.398000000000000E10    8.384733460843563E-3  -5.233222153037787E-3  
 2.400000000000000E10   -6.269027944654226E-3  -7.448521442711353E-3  
 2.402000000000000E10   -5.460679065436125E-3   7.314933463931084E-3  
 2.404000000000000E10    7.790258619934320E-3   4.642082843929529E-3  
 2.406000000000000E10    4.128109198063612E-3  -8.228275924921036E-3  
 2.408000000000000E10   -8.733510971069336E-3  -3.211090806871653E-3  
 2.410000000000000E10   -1.951093436218798E-3   8.963256143033505E-3  
 2.412000000000000E10    9.578276425600052E-3   1.621199422515929E-3  
 2.414000000000000E10    6.295130006037653E-4  -9.400275535881519E-3  
 2.416000000000000E10   -9.794166311621666E-3   4.171704931650311E-4  
 2.418000000000000E10    1.140178297646344E-3   9.583116509020329E-3  
 2.420000000000000E10    9.416677989065647E-3  -1.589572406373918E-3  
 2.422000000000000E10   -1.936694025062025E-3  -8.968131616711617E-3  
 2.424000000000000E10   -8.896256797015667E-3   2.209868980571628E-3  
 2.426000000000000E10    3.054951550439000E-3   8.394033648073673E-3  
 2.428000000000000E10    8.188633248209953E-3  -3.803390078246594E-3  
 2.430000000000000E10   -3.943132236599922E-3  -7.499927654862404E-3  
 2.432000000000000E10   -6.401216145604849E-3   4.577742889523506E-3  
 2.434000000000000E10    5.676359403878450E-3   5.845014937222004E-3  
 2.436000000000000E10    4.342974163591862E-3  -6.796034052968025E-3  
 2.438000000000000E10   -6.482541095465422E-3  -3.185700392350555E-3  
 2.440000000000000E10   -2.327016554772854E-3   7.146303076297045E-3  
 2.442000000000000E10    7.528707850724459E-3   8.257042500190437E-4  
 2.444000000000000E10    1.313424436375499E-4  -8.097052574157715E-3  
 2.446000000000000E10   -8.140586316585541E-3   4.879484768025577E-4  
 2.448000000000000E10    7.522438536398113E-4   7.321326062083244E-3  
 2.450000000000000E10    8.131065405905247E-3  -1.482909661717713E-3  
 2.452000000000000E10   -1.257784431800246E-3  -8.106611669063568E-3  
 2.454000000000000E10   -7.385233882814646E-3   1.571099157445133E-3  
 2.456000000000000E10    2.163897268474102E-3   7.536026649177074E-3  
 2.458000000000000E10    7.097977213561535E-3  -2.061709063127637E-3  
 2.460000000000000E10   -2.875304315239191E-3  -6.871665827929974E-3  
 2.462000000000000E10   -6.420777179300785E-3   4.072160460054874E-3  
 2.464000000000000E10    3.977153450250626E-3   5.169938318431377E-3  
 2.466000000000000E10    4.817865323275328E-3  -5.201248452067375E-3  
 2.468000000000000E10   -5.734608042985201E-3  -4.362354055047035E-3  
 2.470000000000000E10   -2.537474734708667E-3   6.258288398385048E-3  
 2.472000000000000E10    6.987768691033125E-3   1.778571167960763E-3  
 2.474000000000000E10    1.498328754678369E-3  -6.153047550469637E-3  
 2.476000000000000E10   -6.553803570568562E-3  -5.514955846592784E-4  
 2.478000000000000E10    2.137199335265905E-4   7.069526705890894E-3  
 2.480000000000000E10    6.627032533288002E-3  -3.178586484864354E-4  
 2.482000000000000E10   -1.185726723633707E-3  -6.964601110666990E-3  
 2.484000000000000E10   -6.946216803044081E-3   1.458797371014953E-3  
 2.486000000000000E10    2.618054859340191E-3   6.916292943060398E-3  
 2.488000000000000E10    6.346217356622219E-3  -3.343419404700398E-3  
 2.490000000000000E10   -3.281350480392575E-3  -6.242418196052313E-3  
 2.492000000000000E10   -6.137405056506395E-3   4.241433925926685E-3  
 2.494000000000000E10    4.974706564098597E-3   5.246398970484734E-3  
 2.496000000000000E10    4.693787544965744E-3  -5.145139992237091E-3  
 2.498000000000000E10   -6.200237665325403E-3  -3.422913607209921E-3  
 2.500000000000000E10   -2.546286443248391E-3   5.862700752913952E-3  
 2.502000000000000E10    6.201912648975849E-3   1.923390780575573E-3  
 2.504000000000000E10    4.065370012540370E-4  -6.534482818096876E-3  
 2.506000000000000E10   -5.780542735010386E-3  -5.042972043156624E-4  
 2.508000000000000E10   -2.895345387514681E-4   6.171369925141335E-3  
 2.510000000000000E10    6.447793915867806E-3  -1.491681177867577E-4  
 2.512000000000000E10   -7.520471699535847E-4  -6.580349989235401E-3  
 2.514000000000000E10   -7.077297195792198E-3   1.490998663939536E-3  
 2.516000000000000E10    2.120184013620019E-3   7.229242008179426E-3  
 2.518000000000000E10    7.126847282052040E-3  -3.293591085821390E-3  
 2.520000000000000E10   -4.219662398099899E-3  -6.898225285112858E-3  
 2.522000000000000E10   -5.444240290671587E-3   4.641560837626457E-3  
 2.524000000000000E10    5.415581632405520E-3   4.823997151106596E-3  
 2.526000000000000E10    4.460847005248070E-3  -5.760097410529852E-3  
 2.528000000000000E10   -5.921988282352686E-3  -3.511969465762377E-3  
 2.530000000000000E10   -2.960871206596494E-3   6.849618162959814E-3  
 2.532000000000000E10    7.156095933169127E-3   1.713854260742664E-3  
 2.534000000000000E10    4.450585984159261E-4  -7.525659166276455E-3  
 2.536000000000000E10   -7.458766922354698E-3   4.982306854799390E-4  
 2.538000000000000E10    1.292083179578185E-3   6.899821572005749E-3  
 2.540000000000000E10    6.820437032729387E-3  -2.267472911626101E-3  
 2.542000000000000E10   -2.441393444314599E-3  -6.924901623278856E-3  
 2.544000000000000E10   -6.811859551817179E-3   3.017375478520989E-3  
 2.546000000000000E10    4.908437374979258E-3   6.814651191234589E-3  
 2.548000000000000E10    6.291747558861971E-3  -5.451752804219723E-3  
 2.550000000000000E10   -6.499235518276691E-3  -5.097588058561087E-3  
 2.552000000000000E10   -3.625518642365933E-3   6.885598413646221E-3  
 2.554000000000000E10    7.151864469051361E-3   2.762274118140340E-3  
 2.556000000000000E10    1.970532815903425E-3  -7.772535551339388E-3  
 2.558000000000000E10   -7.238758727908135E-3  -1.011344138532877E-3  
 2.560000000000000E10    1.755910489009693E-4   7.029063068330288E-3  
 2.562000000000000E10    7.730537559837103E-3  -1.400658511556685E-3  
 2.564000000000000E10   -1.724232686683536E-3  -7.645525969564915E-3  
 2.566000000000000E10   -7.070493884384632E-3   2.708584070205689E-3  
 2.568000000000000E10    4.706613253802061E-3   6.690347101539373E-3  
 2.570000000000000E10    6.649542599916458E-3  -5.808121524751186E-3  
 2.572000000000000E10   -5.786939524114132E-3  -5.452503450214863E-3  
 2.574000000000000E10   -4.314537625759840E-3   6.116429343819618E-3  
 2.576000000000000E10    7.855487056076527E-3   3.721443470567465E-3  
 2.578000000000000E10    2.992214867845178E-3  -8.636287413537502E-3  
 2.580000000000000E10   -8.182184770703316E-3  -1.883037504740059E-3  
 2.582000000000000E10   -9.680585935711861E-4   8.130299858748913E-3  
 2.584000000000000E10    9.417238645255566E-3  -8.054344798438251E-4  
 2.586000000000000E10   -1.984360627830029E-3  -9.009100496768951E-3  
 2.588000000000000E10   -7.463369052857161E-3   2.906638663262129E-3  
 2.590000000000000E10    3.666266333311796E-3   6.963809952139854E-3  
 2.592000000000000E10    7.254286669194698E-3  -4.768411628901959E-3  
 2.594000000000000E10   -5.072470754384995E-3  -6.712963338941336E-3  
 2.596000000000000E10   -6.143942940980196E-3   5.913743749260902E-3  
 2.598000000000000E10    7.118656765669584E-3   5.505721084773541E-3  
 2.600000000000000E10    4.220085684210062E-3  -8.342524059116840E-3  
 2.602000000000000E10   -8.894257247447968E-3  -3.228464862331748E-3  
 2.604000000000000E10   -2.028252230957151E-3   9.007941931486130E-3  
 2.606000000000000E10    9.028006345033646E-3   1.336392888333648E-4  
 2.608000000000000E10   -3.957670705858618E-4  -9.499068371951580E-3  
 2.610000000000000E10   -8.806611411273480E-3   1.344772754237056E-3  
 2.612000000000000E10    2.875201171264052E-3   8.403449319303036E-3  
 2.614000000000000E10    8.496494032442570E-3  -4.305370617657900E-3  
 2.616000000000000E10   -4.877019207924604E-3  -7.328463718295097E-3  
 2.618000000000000E10   -7.000700104981661E-3   6.159552838653326E-3  
 2.620000000000000E10    7.086036726832390E-3   6.402561441063881E-3  
 2.622000000000000E10    4.617250058799982E-3  -7.887531071901321E-3  
 2.624000000000000E10   -8.112562820315361E-3  -3.582972567528486E-3  
 2.626000000000000E10   -3.334731096401811E-3   8.381632156670094E-3  
 2.628000000000000E10    9.491617791354656E-3   2.125917235389352E-3  
 2.630000000000000E10    1.338779111392796E-3  -9.464504197239876E-3  
 2.632000000000000E10   -9.348546154797077E-3   5.074664950370789E-4  
 2.634000000000000E10    2.071090973913670E-3   9.888761676847935E-3  
 2.636000000000000E10    9.448512457311153E-3  -2.693785121664405E-3  
 2.638000000000000E10   -4.099444020539522E-3  -8.160570636391640E-3  
 2.640000000000000E10   -7.466702722012997E-3   5.499628372490406E-3  
 2.642000000000000E10    5.917945411056280E-3   7.731373887509108E-3  
 2.644000000000000E10    6.514033768326044E-3  -7.000084966421127E-3  
 2.646000000000000E10   -7.983176037669182E-3  -5.212361458688974E-3  
 2.648000000000000E10   -4.164529964327812E-3   8.981378749012947E-3  
 2.650000000000000E10    9.649826213717461E-3   2.933599054813385E-3  
 2.652000000000000E10    1.675905659794807E-3  -9.718744084239006E-3  
 2.654000000000000E10   -1.003835443407297E-2   6.156995077617466E-4  
 2.656000000000000E10    2.098748926073313E-3   1.062061265110970E-2  
 2.658000000000000E10    1.014908030629158E-2  -2.984714228659868E-3  
 2.660000000000000E10   -4.578960593789816E-3  -8.504889905452728E-3  
 2.662000000000000E10   -8.214657194912434E-3   5.801440682262182E-3  
 2.664000000000000E10    6.983859464526177E-3   8.058356121182442E-3  
 2.666000000000000E10    6.980661302804947E-3  -7.488487754017115E-3  
 2.668000000000000E10   -7.953029125928879E-3  -5.663884337991476E-3  
 2.670000000000000E10   -4.573517944663763E-3   9.149898774921894E-3  
 2.672000000000000E10    9.279670193791390E-3   4.203074146062136E-3  
 2.674000000000000E10    2.768959617242217E-3  -9.774821810424328E-3  
 2.676000000000000E10   -9.985375218093395E-3  -1.228740322403610E-3  
 2.678000000000000E10    2.851486206054688E-4   1.039814669638872E-2  
 2.680000000000000E10    1.026077382266522E-2  -1.376229454763234E-3  
 2.682000000000000E10   -2.691620495170355E-3  -1.002609729766846E-2  
 2.684000000000000E10   -9.554842486977577E-3   4.355636890977621E-3  
 2.686000000000000E10    5.650600884109736E-3   9.018676355481148E-3  
 2.688000000000000E10    7.892037741839886E-3  -6.564396433532238E-3  
 2.690000000000000E10   -7.907839491963387E-3  -7.270761299878359E-3  
 2.692000000000000E10   -6.060464307665825E-3   8.786011487245560E-3  
 2.694000000000000E10    9.753618389368057E-3   4.931172821670771E-3  
 2.696000000000000E10    3.641051473096013E-3  -1.030044816434383E-2  
 2.698000000000000E10   -1.024859305471182E-2  -2.994077745825052E-3  
 2.700000000000000E10   -1.238855998963118E-3   1.056643575429916E-2  
 2.702000000000000E10    1.080624666064978E-2  -6.904320907779038E-4  
 2.704000000000000E10   -1.584275742061436E-3  -1.111687161028385E-2  
 2.706000000000000E10   -1.016004383563995E-2   2.537685679271817E-3  
 2.708000000000000E10    3.547121770679951E-3   9.492420591413975E-3  
 2.710000000000000E10    9.609841741621494E-3  -5.391378421336412E-3  
 2.712000000000000E10   -6.304893642663956E-3  -9.023684076964855E-3  
 2.714000000000000E10   -7.687749341130257E-3   7.060263771563768E-3  
 2.716000000000000E10    8.562829345464706E-3   6.267286371439695E-3  
 2.718000000000000E10    5.336754955351353E-3  -9.525181725621223E-3  
 2.720000000000000E10   -1.011694967746735E-2  -4.829608835279942E-3  
 2.722000000000000E10   -3.399439854547381E-3   1.019899267703295E-2  
 2.724000000000000E10    1.043537631630898E-2   1.684234128333628E-3  
 2.726000000000000E10    6.470492226071656E-4  -1.169006898999214E-2  
 2.728000000000000E10   -1.130777876824141E-2   2.658555167727172E-4  
 2.730000000000000E10    1.553214504383504E-3   1.067203935235739E-2  
 2.732000000000000E10    1.094671245664358E-2  -3.276587231084704E-3  
 2.734000000000000E10   -4.121191799640656E-3  -1.079839468002319E-2  
 2.736000000000000E10   -1.015182863920927E-2   5.071187857538462E-3  
 2.738000000000000E10    6.628925912082195E-3   9.286288172006607E-3  
 2.740000000000000E10    7.805600762367249E-3  -8.189917542040348E-3  
 2.742000000000000E10   -9.072463959455490E-3  -6.660376675426960E-3  
 2.744000000000000E10   -5.277662072330713E-3   9.391813538968563E-3  
 2.746000000000000E10    1.025928929448128E-2   3.804883453994989E-3  
 2.748000000000000E10    2.494721906259656E-3  -1.087861321866512E-2  
 2.750000000000000E10   -1.084000896662474E-2  -1.552159665152431E-3  
 2.752000000000000E10   -4.029834526591003E-4   1.103672757744789E-2  
 2.754000000000000E10    1.146058831363916E-2  -3.076684079132974E-4  
 2.756000000000000E10   -2.412514062598348E-3  -1.131800748407841E-2  
