#  HZ   S   RI   R     50.00 
! Rohde & Schwarz ZVA40 4Ports - Version 3.90 - 1145.1110k42 SN: 100403
! Date: 2023-10-04 08:34:14
! Measurement: S12 
! 
 2.200000000000000E10   -2.952249534428120E-2   9.686972014605999E-3  
 2.202000000000000E10    1.387153565883637E-2   2.753177657723427E-2  
 2.204000000000000E10    2.692884579300880E-2  -1.564213074743748E-2  
 2.206000000000000E10   -1.902410760521889E-2  -2.417124249041081E-2  
 2.208000000000000E10   -2.073034830391407E-2   2.214475534856319E-2  
 2.210000000000000E10    2.355913817882538E-2   1.851236820220947E-2  
 2.212000000000000E10    1.610271073877811E-2  -2.497674897313118E-2  
 2.214000000000000E10   -2.632186561822891E-2  -1.319224387407303E-2  
 2.216000000000000E10   -1.043020747601986E-2   2.757642231881619E-2  
 2.218000000000000E10    2.820619940757752E-2   6.923625245690346E-3  
 2.220000000000000E10    4.796449560672045E-3  -2.884645387530327E-2  
 2.222000000000000E10   -2.933789417147636E-2  -1.945338211953640E-3  
 2.224000000000000E10    2.277248073369265E-3   2.940731681883335E-2  
 2.226000000000000E10    2.886513061821461E-2  -5.513269919902086E-3  
 2.228000000000000E10   -9.021636098623276E-3  -2.796313911676407E-2  
 2.230000000000000E10   -2.641143091022968E-2   1.213259529322386E-2  
 2.232000000000000E10    1.507815904915333E-2   2.524373121559620E-2  
 2.234000000000000E10    2.212317287921906E-2  -1.840499415993691E-2  
 2.236000000000000E10   -1.970619335770607E-2  -1.911266520619392E-2  
 2.238000000000000E10   -1.755172014236450E-2   2.153629623353481E-2  
 2.240000000000000E10    2.356007695198059E-2   1.525302138179541E-2  
 2.242000000000000E10    1.203037984669209E-2  -2.531872130930424E-2  
 2.244000000000000E10   -2.620458044111729E-2  -8.991997689008713E-3  
 2.246000000000000E10   -6.205690558999777E-3   2.656139805912972E-2  
 2.248000000000000E10    2.728068269789219E-2   4.259785171598196E-3  
 2.250000000000000E10    9.335145005024970E-4  -2.836241200566292E-2  
 2.252000000000000E10   -2.744763903319836E-2   2.772011794149876E-3  
 2.254000000000000E10    5.407202057540417E-3   2.678766474127770E-2  
 2.256000000000000E10    2.584116905927658E-2  -8.309337310492992E-3  
 2.258000000000000E10   -1.092835236340761E-2  -2.436239272356033E-2  
 2.260000000000000E10   -2.337210439145565E-2   1.247780118137598E-2  
 2.262000000000000E10    1.425965409725905E-2   2.040991745889187E-2  
 2.264000000000000E10    1.959175430238247E-2  -1.624753698706627E-2  
 2.266000000000000E10   -1.965534873306751E-2  -1.820598170161247E-2  
 2.268000000000000E10   -1.492554508149624E-2   2.089707553386688E-2  
 2.270000000000000E10    2.183569408953190E-2   1.266569271683693E-2  
 2.272000000000000E10    1.028951164335012E-2  -2.288798801600933E-2  
 2.274000000000000E10   -2.428624592721462E-2  -7.596906274557114E-3  
 2.276000000000000E10   -5.540320649743080E-3   2.520437724888325E-2  
 2.278000000000000E10    2.518682368099690E-2   2.343817614018917E-3  
 2.280000000000000E10   -1.351871876977384E-3  -2.462468110024929E-2  
 2.282000000000000E10   -2.204171195626259E-2  -1.096616871654987E-2  
 2.284000000000000E10    5.799247883260250E-3   2.391789481043816E-2  
 2.286000000000000E10    2.293552644550800E-2  -8.694763295352459E-3  
 2.288000000000000E10   -1.092540565878153E-2  -2.114407904446125E-2  
 2.290000000000000E10   -2.011414803564549E-2   1.367161329835653E-2  
 2.292000000000000E10    1.541692484170198E-2   1.876757107675076E-2  
 2.294000000000000E10    1.633708551526070E-2  -1.665520295500755E-2  
 2.296000000000000E10   -1.849310658872128E-2  -1.373627968132496E-2  
 2.298000000000000E10   -1.169020216912031E-2   1.990273594856262E-2  
 2.300000000000000E10    2.126100845634937E-2   9.646592661738396E-3  
 2.302000000000000E10    7.174117956310511E-3  -2.187168598175049E-2  
 2.304000000000000E10   -2.189665473997593E-2  -3.835259703919292E-3  
 2.306000000000000E10   -1.505287014879286E-3   2.242008410394192E-2  
 2.308000000000000E10    2.279678732156754E-2  -7.191537879407406E-4  
 2.310000000000000E10   -3.710468998178840E-3  -2.229523845016956E-2  
 2.312000000000000E10   -2.205207198858261E-2   6.944947410374880E-3  
 2.314000000000000E10    9.088607504963875E-3   2.077856659889221E-2  
 2.316000000000000E10    1.940237358212471E-2  -1.106291543692350E-2  
 2.318000000000000E10   -1.353775896131992E-2  -1.775526627898216E-2  
 2.320000000000000E10   -1.543365791440010E-2   1.508878823369741E-2  
 2.322000000000000E10    1.598740182816982E-2   1.349250786006451E-2  
 2.324000000000000E10    1.209319196641445E-2  -1.753023453056812E-2  
 2.326000000000000E10   -1.835748180747032E-2  -9.457458741962910E-3  
 2.328000000000000E10   -6.864832714200020E-3   1.972258463501930E-2  
 2.330000000000000E10    2.004257962107658E-2   4.089486319571734E-3  
 2.332000000000000E10    1.595666981302202E-3  -1.942759193480015E-2  
 2.334000000000000E10   -1.989343203604221E-2   3.869887732435018E-4  
 2.336000000000000E10    2.567659830674529E-3   1.957010291516781E-2  
 2.338000000000000E10    1.978384517133236E-2  -5.073639564216137E-3  
 2.340000000000000E10   -7.425946183502674E-3  -1.896607875823975E-2  
 2.342000000000000E10   -1.781139709055424E-2   9.425290860235691E-3  
 2.344000000000000E10    1.187453418970108E-2   1.681903377175331E-2  
 2.346000000000000E10    1.496444735676050E-2  -1.288900151848793E-2  
 2.348000000000000E10   -1.431378815323114E-2  -1.285036653280258E-2  
 2.350000000000000E10   -1.114951353520155E-2   1.545339263975620E-2  
 2.352000000000000E10    1.656047068536282E-2   8.260728791356087E-3  
 2.354000000000000E10    6.036738865077496E-3  -1.778270117938519E-2  
 2.356000000000000E10   -1.781637035310268E-2  -3.531669965013862E-3  
 2.358000000000000E10   -6.490672240033746E-4   1.705685816705227E-2  
 2.360000000000000E10    1.750559173524380E-2  -1.145101734437048E-3  
 2.362000000000000E10   -3.056020708754659E-3  -1.727548427879810E-2  
 2.364000000000000E10   -1.630978100001812E-2   5.425977520644665E-3  
 2.366000000000000E10    7.140240631997585E-3   1.538888365030289E-2  
 2.368000000000000E10    1.468150597065687E-2  -8.501517586410046E-3  
 2.370000000000000E10   -1.015206426382065E-2  -1.369290798902512E-2  
 2.372000000000000E10   -1.191250700503588E-2   1.133823674172163E-2  
 2.374000000000000E10    1.244029123336077E-2   1.044480875134468E-2  
 2.376000000000000E10    9.278637357056141E-3  -1.327309757471085E-2  
 2.378000000000000E10   -1.348309963941574E-2  -7.445806637406349E-3  
 2.380000000000000E10   -5.607598461210728E-3   1.405392214655876E-2  
 2.382000000000000E10    1.477634720504284E-2   3.278274554759264E-3  
 2.384000000000000E10    1.685434486716986E-3  -1.467138621956110E-2  
 2.386000000000000E10   -1.412823889404535E-2   5.322705255821347E-4  
 2.388000000000000E10    2.160664182156324E-3   1.321427244693041E-2  
 2.390000000000000E10    1.290472503751516E-2  -3.856914350762963E-3  
 2.392000000000000E10   -5.110672675073147E-3  -1.213012821972370E-2  
 2.394000000000000E10   -1.115236710757017E-2   6.208763457834721E-3  
 2.396000000000000E10    7.135311607271433E-3   1.020181551575661E-2  
 2.398000000000000E10    8.842106908559799E-3  -8.475832641124725E-3  
 2.400000000000000E10   -9.602817706763744E-3  -7.664545439183712E-3  
 2.402000000000000E10   -4.976739641278982E-3   1.074221823364496E-2  
 2.404000000000000E10    1.088313013315201E-2   4.418227355927229E-3  
 2.406000000000000E10    3.544961102306843E-3  -1.096728816628456E-2  
 2.408000000000000E10   -1.155454292893410E-2  -2.363299485296011E-3  
 2.410000000000000E10   -1.983106136322022E-3   1.160555519163609E-2  
 2.412000000000000E10    1.090672332793474E-2   1.191481831483543E-3  
 2.414000000000000E10    5.756198152084835E-5  -1.035410538315773E-2  
 2.416000000000000E10   -1.034529134631157E-2   1.006130245514214E-3  
 2.418000000000000E10    1.643159775994718E-3   9.829303249716759E-3  
 2.420000000000000E10    8.823847398161888E-3  -2.542140893638134E-3  
 2.422000000000000E10   -2.790890401229262E-3  -7.988858968019486E-3  
 2.424000000000000E10   -7.434559054672718E-3   4.352359566837549E-3  
 2.426000000000000E10    5.105706397444010E-3   7.529072929173708E-3  
 2.428000000000000E10    6.567585747689009E-3  -5.571279209107161E-3  
 2.430000000000000E10   -7.212572731077671E-3  -5.295689217746258E-3  
 2.432000000000000E10   -5.119662731885910E-3   7.908122614026070E-3  
 2.434000000000000E10    8.325522765517235E-3   4.333878401666880E-3  
 2.436000000000000E10    3.362974617630243E-3  -9.136044420301914E-3  
 2.438000000000000E10   -8.851695805788040E-3  -2.614836441352963E-3  
 2.440000000000000E10   -1.563577214255929E-3   9.277666918933392E-3  
 2.442000000000000E10    9.704912081360817E-3   1.291601918637753E-3  
 2.444000000000000E10    2.805996336974204E-4  -8.909479714930058E-3  
 2.446000000000000E10   -8.392556570470333E-3   4.524338291957974E-4  
 2.448000000000000E10    5.945365992374718E-4   8.289067074656487E-3  
 2.450000000000000E10    7.615690585225821E-3  -1.496577402576804E-3  
 2.452000000000000E10   -2.473880304023624E-3  -7.672957610338926E-3  
 2.454000000000000E10   -7.005164399743080E-3   2.166168997064233E-3  
 2.456000000000000E10    3.140631830319762E-3   6.526808254420757E-3  
 2.458000000000000E10    6.707340478897095E-3  -3.993155900388956E-3  
 2.460000000000000E10   -4.670991096645594E-3  -5.730999168008566E-3  
 2.462000000000000E10   -5.175470840185881E-3   5.809374153614044E-3  
 2.464000000000000E10    5.296169780194759E-3   4.517545457929373E-3  
 2.466000000000000E10    3.589584026485682E-3  -6.162981968373060E-3  
 2.468000000000000E10   -7.222688291221857E-3  -3.610405605286360E-3  
 2.470000000000000E10   -2.450615167617798E-3   7.184880785644054E-3  
 2.472000000000000E10    7.239758968353272E-3   8.384004468098283E-4  
 2.474000000000000E10    1.164796762168407E-3  -7.636001799255610E-3  
 2.476000000000000E10   -7.006078492850065E-3  -3.486708737909794E-4  
 2.478000000000000E10    8.111745701171458E-4   7.814531214535236E-3  
 2.480000000000000E10    7.596572861075401E-3  -8.528337930329144E-4  
 2.482000000000000E10   -1.500135636888444E-3  -7.114660926163197E-3  
 2.484000000000000E10   -7.458426058292389E-3   2.114490838721395E-3  
 2.486000000000000E10    2.983538201078773E-3   7.370577659457922E-3  
 2.488000000000000E10    6.095257587730885E-3  -3.943239804357290E-3  
 2.490000000000000E10   -4.003772512078285E-3  -5.885709542781115E-3  
 2.492000000000000E10   -5.009776446968317E-3   4.616084042936564E-3  
 2.494000000000000E10    5.378096364438534E-3   4.366140346974134E-3  
 2.496000000000000E10    3.925555385649204E-3  -5.662198178470135E-3  
 2.498000000000000E10   -5.808012094348669E-3  -2.532257931306958E-3  
 2.500000000000000E10   -2.316873986274004E-3   6.318729370832443E-3  
 2.502000000000000E10    6.361807696521282E-3   1.803767634555697E-3  
 2.504000000000000E10    7.954438333399594E-4  -6.589463911950588E-3  
 2.506000000000000E10   -6.807370111346245E-3  -8.134774980135262E-4  
 2.508000000000000E10   -2.203515032306314E-4   6.612251978367567E-3  
 2.510000000000000E10    6.932581774890423E-3  -1.853762078098953E-4  
 2.512000000000000E10   -7.880876655690372E-4  -7.101468276232481E-3  
 2.514000000000000E10   -6.947083864361048E-3   1.710511161945760E-3  
 2.516000000000000E10    2.403621096163988E-3   7.152060978114605E-3  
 2.518000000000000E10    6.652842275798321E-3  -2.608299255371094E-3  
 2.520000000000000E10   -4.703343380242586E-3  -5.992027930915356E-3  
 2.522000000000000E10   -5.159315187484026E-3   5.074616521596909E-3  
 2.524000000000000E10    5.416310857981443E-3   4.519933369010687E-3  
 2.526000000000000E10    3.892123466357589E-3  -6.030417513102293E-3  
 2.528000000000000E10   -5.973679944872856E-3  -3.225405002012849E-3  
 2.530000000000000E10   -2.497625537216663E-3   6.981422659009695E-3  
 2.532000000000000E10    7.090400904417038E-3   2.028180519118905E-3  
 2.534000000000000E10    9.826233144849539E-4  -7.144729141145945E-3  
 2.536000000000000E10   -7.699175272136927E-3   8.681181498104706E-5  
 2.538000000000000E10    4.084051179233939E-4   7.410914637148380E-3  
 2.540000000000000E10    7.110295351594687E-3  -1.488751149736345E-3  
 2.542000000000000E10   -2.395774703472853E-3  -7.620608899742365E-3  
 2.544000000000000E10   -7.044783793389797E-3   3.026398131623864E-3  
 2.546000000000000E10    4.568709526211023E-3   6.840026006102562E-3  
 2.548000000000000E10    6.368924863636494E-3  -5.144120659679174E-3  
 2.550000000000000E10   -6.396706681698561E-3  -5.225725471973419E-3  
 2.552000000000000E10   -4.583520349115133E-3   7.021822035312653E-3  
 2.554000000000000E10    7.097272202372551E-3   3.488129237666726E-3  
 2.556000000000000E10    2.082020975649357E-3  -7.724147755652666E-3  
 2.558000000000000E10   -7.783351466059685E-3  -1.856348477303982E-3  
 2.560000000000000E10   -5.544219166040421E-4   7.446432020515204E-3  
 2.562000000000000E10    7.422098424285650E-3  -5.610951338894665E-4  
 2.564000000000000E10   -8.912252960726619E-4  -7.210217416286469E-3  
 2.566000000000000E10   -7.479483261704445E-3   2.411416964605451E-3  
 2.568000000000000E10    3.483157372102141E-3   7.298087701201439E-3  
 2.570000000000000E10    6.434584967792034E-3  -4.632813856005669E-3  
 2.572000000000000E10   -6.351820658892393E-3  -6.001593079417944E-3  
 2.574000000000000E10   -5.806204397231340E-3   6.361810024827719E-3  
 2.576000000000000E10    7.106406148523092E-3   3.849015338346362E-3  
 2.578000000000000E10    2.503016265109181E-3  -8.671603165566921E-3  
 2.580000000000000E10   -8.180608972907066E-3  -1.987881958484650E-3  
 2.582000000000000E10   -8.419032674282789E-4   8.391463197767735E-3  
 2.584000000000000E10    8.491960354149342E-3   9.799580584513024E-5  
 2.586000000000000E10   -1.807377091608942E-3  -7.991234771907330E-3  
 2.588000000000000E10   -8.237140253186226E-3   3.077381756156683E-3  
 2.590000000000000E10    2.134996931999922E-3   7.492485921829939E-3  
 2.592000000000000E10    6.496740039438009E-3  -3.267941297963262E-3  
 2.594000000000000E10   -4.823906812816858E-3  -6.849435623735189E-3  
 2.596000000000000E10   -6.888849660754204E-3   4.978920333087444E-3  
 2.598000000000000E10    6.105736829340458E-3   5.853883922100067E-3  
 2.600000000000000E10    5.362962372601032E-3  -7.005176506936550E-3  
 2.602000000000000E10   -7.856550626456738E-3  -3.938210196793079E-3  
 2.604000000000000E10   -2.450247528031468E-3   9.238124825060368E-3  
 2.606000000000000E10    8.671058341860771E-3   1.914769643917680E-3  
 2.608000000000000E10   -3.775804361794144E-4  -8.049691095948219E-3  
 2.610000000000000E10   -9.122620336711407E-3   1.882542157545686E-3  
 2.612000000000000E10    2.087154658511281E-3   8.585040457546711E-3  
 2.614000000000000E10    7.841782644391060E-3  -3.613071748986840E-3  
 2.616000000000000E10   -4.523443989455700E-3  -7.537966594099999E-3  
 2.618000000000000E10   -6.880759727209806E-3   5.269446410238743E-3  
 2.620000000000000E10    6.529709324240685E-3   6.934079341590405E-3  
 2.622000000000000E10    5.857355426996946E-3  -5.981273017823696E-3  
 2.624000000000000E10   -6.951506715267897E-3  -4.305045120418072E-3  
 2.626000000000000E10   -4.376304801553488E-3   8.363972418010235E-3  
 2.628000000000000E10    8.076560683548451E-3   3.456413047388196E-3  
 2.630000000000000E10    1.564719015732408E-3  -8.970225229859352E-3  
 2.632000000000000E10   -9.306780062615871E-3  -6.541865877807140E-4  
 2.634000000000000E10    1.123875146731734E-3   8.683509193360806E-3  
 2.636000000000000E10    9.241748601198196E-3  -2.714881207793951E-3  
 2.638000000000000E10   -3.686616430059075E-3  -8.068368770182133E-3  
 2.640000000000000E10   -6.881213746964932E-3   5.261593498289585E-3  
 2.642000000000000E10    6.221854127943516E-3   6.342403590679169E-3  
 2.644000000000000E10    5.757169798016548E-3  -6.382178049534559E-3  
 2.646000000000000E10   -7.704203948378563E-3  -4.762978758662939E-3  
 2.648000000000000E10   -4.106028936803341E-3   8.081332780420780E-3  
 2.650000000000000E10    8.575411513447762E-3   2.854831516742706E-3  
 2.652000000000000E10    1.838505617342889E-3  -9.553360752761364E-3  
 2.654000000000000E10   -9.216220118105412E-3  -8.533698273822665E-4  
 2.656000000000000E10    8.276676526293159E-4   9.198693558573723E-3  
 2.658000000000000E10    9.336731396615505E-3  -2.215579152107239E-3  
 2.660000000000000E10   -3.136936109513044E-3  -8.717651478946209E-3  
 2.662000000000000E10   -7.843664847314358E-3   4.345448222011328E-3  
 2.664000000000000E10    5.789339542388916E-3   6.791201420128346E-3  
 2.666000000000000E10    6.008087191730738E-3  -7.091024890542030E-3  
 2.668000000000000E10   -7.641068194061518E-3  -5.302103701978922E-3  
 2.670000000000000E10   -3.764534834772348E-3   7.722517941147089E-3  
 2.672000000000000E10    8.463394828140736E-3   2.426667604595423E-3  
 2.674000000000000E10    1.670681638643146E-3  -9.348644874989986E-3  
 2.676000000000000E10   -8.869008161127567E-3  -1.291580381803215E-3  
 2.678000000000000E10    4.771323001477867E-4   8.968429639935494E-3  
 2.680000000000000E10    9.261320345103741E-3  -1.648837933316827E-3  
 2.682000000000000E10   -2.486403100192547E-3  -9.470174089074135E-3  
 2.684000000000000E10   -9.339998476207256E-3   3.449869109317660E-3  
 2.686000000000000E10    4.757723771035671E-3   7.962474599480629E-3  
 2.688000000000000E10    7.259619887918234E-3  -6.599571555852890E-3  
 2.690000000000000E10   -7.156244013458490E-3  -6.812932435423136E-3  
 2.692000000000000E10   -5.567139014601708E-3   7.594825234264135E-3  
 2.694000000000000E10    8.625445887446404E-3   4.207855090498924E-3  
 2.696000000000000E10    2.745710080489516E-3  -9.327833540737629E-3  
 2.698000000000000E10   -9.652132168412209E-3  -2.157884882763028E-3  
 2.700000000000000E10   -1.045490731485188E-3   9.545923210680485E-3  
 2.702000000000000E10    9.495371952652931E-3  -6.335203070193529E-4  
 2.704000000000000E10   -2.436112612485886E-3  -9.932920336723328E-3  
 2.706000000000000E10   -9.234150871634483E-3   3.575594630092382E-3  
 2.708000000000000E10    4.100240301340818E-3   8.192447945475578E-3  
 2.710000000000000E10    7.951003499329090E-3  -5.292173475027084E-3  
 2.712000000000000E10   -6.610594689846039E-3  -7.320100907236338E-3  
 2.714000000000000E10   -6.696503609418869E-3   7.021468598395586E-3  
 2.716000000000000E10    8.086609654128552E-3   5.626315250992775E-3  
 2.718000000000000E10    4.563332535326481E-3  -8.534136228263378E-3  
 2.720000000000000E10   -9.695910848677158E-3  -3.976052161306143E-3  
 2.722000000000000E10   -2.189613645896316E-3   9.608421474695206E-3  
 2.724000000000000E10    9.638172574341297E-3   1.260969787836075E-3  
 2.726000000000000E10    2.289618132635951E-4  -1.007233653217554E-2  
 2.728000000000000E10   -1.018895395100117E-2   1.464574015699327E-3  
 2.730000000000000E10    2.404573839157820E-3   9.764758870005608E-3  
 2.732000000000000E10    9.344066493213177E-3  -3.447772003710270E-3  
 2.734000000000000E10   -4.613872617483139E-3  -9.181436151266098E-3  
 2.736000000000000E10   -8.493336848914623E-3   5.900093354284763E-3  
 2.738000000000000E10    7.494462188333273E-3   7.495968136936426E-3  
 2.740000000000000E10    6.515042390674353E-3  -8.254541084170342E-3  
 2.742000000000000E10   -8.718996308743954E-3  -5.079239606857300E-3  
 2.744000000000000E10   -4.143909085541964E-3   9.599908255040646E-3  
 2.746000000000000E10    1.007952354848385E-2   3.273389535024762E-3  
 2.748000000000000E10    1.790531678125262E-3  -1.057687401771545E-2  
 2.750000000000000E10   -1.041594240814447E-2  -7.496285252273083E-4  
 2.752000000000000E10    6.123739294707775E-4   1.076281163841486E-2  
 2.754000000000000E10    1.099425833672285E-2  -1.838337630033493E-3  
 2.756000000000000E10   -2.912239171564579E-3  -1.029127836227417E-2  
