#  HZ   S   RI   R     50.00 
! Rohde & Schwarz ZVA40 4Ports - Version 3.90 - 1145.1110k42 SN: 100403
! Date: 2023-10-04 08:34:38
! Measurement: S12 
! 
 2.200000000000000E10   -3.210544213652611E-2   2.869066549465060E-3  
 2.202000000000000E10    6.121269427239895E-3   3.110955655574799E-2  
 2.204000000000000E10    3.006502240896225E-2  -8.455956354737282E-3  
 2.206000000000000E10   -1.295046135783196E-2  -2.854033187031746E-2  
 2.208000000000000E10   -2.592154778540134E-2   1.605147682130337E-2  
 2.210000000000000E10    1.805867999792099E-2   2.419337630271912E-2  
 2.212000000000000E10    2.175341732800007E-2  -1.994433254003525E-2  
 2.214000000000000E10   -2.193433418869972E-2  -1.870638877153397E-2  
 2.216000000000000E10   -1.630682498216629E-2   2.469204366207123E-2  
 2.218000000000000E10    2.557770721614361E-2   1.327180396765471E-2  
 2.220000000000000E10    1.129025500267744E-2  -2.629423327744007E-2  
 2.222000000000000E10   -2.819444239139557E-2  -8.523416705429554E-3  
 2.224000000000000E10   -4.315471742302179E-3   2.950246632099152E-2  
 2.226000000000000E10    2.984653785824776E-2   7.834698772057891E-4  
 2.228000000000000E10   -2.572560450062156E-3  -2.953495271503925E-2  
 2.230000000000000E10   -2.892257273197174E-2   5.823298357427120E-3  
 2.232000000000000E10    9.069157764315605E-3   2.818440459668636E-2  
 2.234000000000000E10    2.624966949224472E-2  -1.255656033754349E-2  
 2.236000000000000E10   -1.523049641400576E-2  -2.403027564287186E-2  
 2.238000000000000E10   -2.308467216789722E-2   1.664566062390804E-2  
 2.240000000000000E10    1.909383945167065E-2   2.054397761821747E-2  
 2.242000000000000E10    1.795496977865696E-2  -2.223727479577065E-2  
 2.244000000000000E10   -2.379177324473858E-2  -1.541357394307852E-2  
 2.246000000000000E10   -1.235800515860319E-2   2.391876652836800E-2  
 2.248000000000000E10    2.492255903780460E-2   1.059324946254492E-2  
 2.250000000000000E10    7.427098229527473E-3  -2.670275792479515E-2  
 2.252000000000000E10   -2.739555016160011E-2  -3.818229539319873E-3  
 2.254000000000000E10   -1.772272866219282E-3   2.687792852520943E-2  
 2.256000000000000E10    2.748480625450611E-2  -1.631666091270745E-3  
 2.258000000000000E10   -5.742730107158423E-3  -2.682101912796497E-2  
 2.260000000000000E10   -2.566383592784405E-2   7.228332571685314E-3  
 2.262000000000000E10    9.837922640144825E-3   2.390505187213421E-2  
 2.264000000000000E10    2.320594899356365E-2  -1.220533344894648E-2  
 2.266000000000000E10   -1.490643061697483E-2  -2.223523706197739E-2  
 2.268000000000000E10   -1.988920196890831E-2   1.715516299009323E-2  
 2.270000000000000E10    1.837854646146298E-2   1.800682023167610E-2  
 2.272000000000000E10    1.579135097563267E-2  -2.041037566959858E-2  
 2.274000000000000E10   -2.234705537557602E-2  -1.415493991225958E-2  
 2.276000000000000E10   -1.168917026370764E-2   2.329544350504875E-2  
 2.278000000000000E10    2.396514825522900E-2   7.573020644485951E-3  
 2.280000000000000E10    4.659048747271299E-3  -2.455797232687473E-2  
 2.282000000000000E10   -1.815485954284668E-2  -1.635472662746906E-2  
 2.284000000000000E10   -2.015108038904145E-4   2.420066483318806E-2  
 2.286000000000000E10    2.413097769021988E-2  -3.066066186875105E-3  
 2.288000000000000E10   -5.946738179773092E-3  -2.364305220544338E-2  
 2.290000000000000E10   -2.308709360659123E-2   8.521975018084049E-3  
 2.292000000000000E10    1.092490274459124E-2   2.123854495584965E-2  
 2.294000000000000E10    1.944579184055328E-2  -1.308135502040386E-2  
 2.296000000000000E10   -1.510529778897762E-2  -1.823336817324162E-2  
 2.298000000000000E10   -1.667163707315922E-2   1.626827567815781E-2  
 2.300000000000000E10    1.791485399007797E-2   1.485342346131802E-2  
 2.302000000000000E10    1.198996324092150E-2  -1.978030055761337E-2  
 2.304000000000000E10   -2.129327505826950E-2  -9.071869775652885E-3  
 2.306000000000000E10   -7.078884635120630E-3   2.129885740578175E-2  
 2.308000000000000E10    2.214823104441166E-2   4.716803785413504E-3  
 2.310000000000000E10    1.148065552115440E-3  -2.294548973441124E-2  
 2.312000000000000E10   -2.296052500605583E-2   1.772363553754985E-3  
 2.314000000000000E10    3.692864207550883E-3   2.199382893741131E-2  
 2.316000000000000E10    2.125814184546471E-2  -6.990578025579453E-3  
 2.318000000000000E10   -9.648626670241356E-3  -2.038946561515331E-2  
 2.320000000000000E10   -1.838897727429867E-2   1.145278662443161E-2  
 2.322000000000000E10    1.309355720877647E-2   1.686345040798187E-2  
 2.324000000000000E10    1.558282691985369E-2  -1.478634774684906E-2  
 2.326000000000000E10   -1.630228199064732E-2  -1.327538676559925E-2  
 2.328000000000000E10   -1.139289140701294E-2   1.815993152558804E-2  
 2.330000000000000E10    1.848997920751572E-2   8.707500994205475E-3  
 2.332000000000000E10    6.336017977446318E-3  -1.872794888913631E-2  
 2.334000000000000E10   -1.948679052293301E-2  -4.616712685674429E-3  
 2.336000000000000E10   -2.251822035759687E-3   1.955152116715908E-2  
 2.338000000000000E10    2.030672505497932E-2  -1.978317886823788E-4  
 2.340000000000000E10   -2.297676168382168E-3  -2.006410434842110E-2  
 2.342000000000000E10   -1.892352476716042E-2   5.175570026040077E-3  
 2.344000000000000E10    7.432482205331326E-3   1.847163215279579E-2  
 2.346000000000000E10    1.684893667697907E-2  -9.448888711631298E-3  
 2.348000000000000E10   -1.163986604660749E-2  -1.481804996728897E-2  
 2.350000000000000E10   -1.441395189613104E-2   1.296194922178984E-2  
 2.352000000000000E10    1.462646853178740E-2   1.189742423593998E-2  
 2.354000000000000E10    1.005460508167744E-2  -1.658361963927746E-2  
 2.356000000000000E10   -1.722976192831993E-2  -7.631288375705481E-3  
 2.358000000000000E10   -5.128479562699795E-3   1.725438609719276E-2  
 2.360000000000000E10    1.798990741372109E-2   3.818445373326540E-3  
 2.362000000000000E10    1.776877907104790E-3  -1.812475733458996E-2  
 2.364000000000000E10   -1.743859797716141E-2   7.384730270132422E-4  
 2.366000000000000E10    2.609793096780777E-3   1.701312884688377E-2  
 2.368000000000000E10    1.626260392367840E-2  -4.098108038306236E-3  
 2.370000000000000E10   -6.461121607571840E-3  -1.511856541037560E-2  
 2.372000000000000E10   -1.367941778153181E-2   8.010053075850010E-3  
 2.374000000000000E10    9.644581936299801E-3   1.189269591122866E-2  
 2.376000000000000E10    1.055269036442041E-2  -1.077551767230034E-2  
 2.378000000000000E10   -1.195946987718344E-2  -8.852103725075722E-3  
 2.380000000000000E10   -7.093637250363827E-3   1.304052863270044E-2  
 2.382000000000000E10    1.425062492489815E-2   6.145034451037645E-3  
 2.384000000000000E10    4.130306188017130E-3  -1.444771233946085E-2  
 2.386000000000000E10   -1.474528852850199E-2  -1.943572773598135E-3  
 2.388000000000000E10   -7.578067597933114E-4   1.476351357996464E-2  
 2.390000000000000E10    1.410950720310211E-2  -7.593363407067955E-4  
 2.392000000000000E10   -2.026529051363468E-3  -1.394109334796667E-2  
 2.394000000000000E10   -1.310215611010790E-2   2.894275588914752E-3  
 2.396000000000000E10    4.284883383661509E-3   1.183843892067671E-2  
 2.398000000000000E10    1.134465727955103E-2  -5.306632723659277E-3  
 2.400000000000000E10   -6.188758183270693E-3  -1.029722299426794E-2  
 2.402000000000000E10   -7.422110065817833E-3   8.248726837337017E-3  
 2.404000000000000E10    8.867765776813030E-3   6.229531019926071E-3  
 2.406000000000000E10    4.838367924094200E-3  -9.265635162591934E-3  
 2.408000000000000E10   -1.009518560022116E-2  -3.883908269926906E-3  
 2.410000000000000E10   -3.167786402627826E-3   9.383674710988998E-3  
 2.412000000000000E10    9.618169628083706E-3   1.694743055850267E-3  
 2.414000000000000E10    5.629105144180358E-4  -1.036637555807829E-2  
 2.416000000000000E10   -1.064238417893648E-2   1.577529765199870E-4  
 2.418000000000000E10    9.899556171149015E-4   9.672564454376698E-3  
 2.420000000000000E10    9.198879823088646E-3  -1.777464523911476E-3  
 2.422000000000000E10   -2.344712615013123E-3  -9.454656392335892E-3  
 2.424000000000000E10   -9.943027049303055E-3   3.034244291484356E-3  
 2.426000000000000E10    3.153678262606263E-3   8.823931217193604E-3  
 2.428000000000000E10    8.501904085278511E-3  -4.324969835579395E-3  
 2.430000000000000E10   -5.899578332901001E-3  -8.495010435581207E-3  
 2.432000000000000E10   -7.578383665531874E-3   5.607201717793942E-3  
 2.434000000000000E10    6.117844954133034E-3   6.628459319472313E-3  
 2.436000000000000E10    5.538076162338257E-3  -7.369139697402716E-3  
 2.438000000000000E10   -6.913668941706419E-3  -4.244317300617695E-3  
 2.440000000000000E10   -3.916887100785971E-3   7.375388871878386E-3  
 2.442000000000000E10    7.324497681111097E-3   3.049925435334444E-3  
 2.444000000000000E10    1.082383561879396E-3  -7.019690237939358E-3  
 2.446000000000000E10   -7.190148811787367E-3  -8.721003541722894E-4  
 2.448000000000000E10   -6.066029309295118E-4   6.705517880618572E-3  
 2.450000000000000E10    7.268812507390976E-3  -8.926749578677118E-4  
 2.452000000000000E10   -8.905942086130381E-4  -7.641838397830725E-3  
 2.454000000000000E10   -6.687661632895470E-3   1.533363014459610E-3  
 2.456000000000000E10    2.696784213185310E-3   7.146779447793961E-3  
 2.458000000000000E10    7.740876171737909E-3  -2.683662343770266E-3  
 2.460000000000000E10   -3.609203267842531E-3  -6.827912759035826E-3  
 2.462000000000000E10   -6.922975648194552E-3   4.304640926420689E-3  
 2.464000000000000E10    4.410811699926853E-3   6.031355354934931E-3  
 2.466000000000000E10    5.452820099890232E-3  -5.265031009912491E-3  
 2.468000000000000E10   -4.858260974287987E-3  -5.779106635600328E-3  
 2.470000000000000E10   -3.816454438492656E-3   5.149274598807097E-3  
 2.472000000000000E10    6.119860801845789E-3   2.761837560683489E-3  
 2.474000000000000E10    3.067168407142162E-3  -5.518331658095121E-3  
 2.476000000000000E10   -5.727948620915413E-3  -1.879287417978048E-3  
 2.478000000000000E10   -9.117703302763403E-4   6.654327735304833E-3  
 2.480000000000000E10    6.181165110319853E-3   6.498767179436982E-4  
 2.482000000000000E10   -9.869777568383142E-5  -6.597666535526514E-3  
 2.484000000000000E10   -6.874559912830591E-3   4.188281600363553E-4  
 2.486000000000000E10    1.408165320754051E-3   6.892927922308445E-3  
 2.488000000000000E10    6.552328355610371E-3  -2.467895392328501E-3  
 2.490000000000000E10   -2.710548229515553E-3  -6.188043393194675E-3  
 2.492000000000000E10   -5.892781075090170E-3   3.857496660202742E-3  
 2.494000000000000E10    4.402360413223505E-3   5.660125985741615E-3  
 2.496000000000000E10    4.754441790282726E-3  -4.249145276844502E-3  
 2.498000000000000E10   -4.940191749483347E-3  -3.826349740847945E-3  
 2.500000000000000E10   -3.863153513520956E-3   5.003171972930431E-3  
 2.502000000000000E10    4.801305010914803E-3   3.258232725784183E-3  
 2.504000000000000E10    2.411587163805962E-3  -5.695658735930920E-3  
 2.506000000000000E10   -5.212608259171248E-3  -2.092187991365790E-3  
 2.508000000000000E10   -1.731861499138176E-3   5.332382861524820E-3  
 2.510000000000000E10    6.335772108286619E-3   1.941944239661098E-3  
 2.512000000000000E10    1.006534672342241E-3  -6.234697066247463E-3  
 2.514000000000000E10   -6.708107888698578E-3   4.474107845453546E-5  
 2.516000000000000E10    4.712431982625276E-4   6.915393751114607E-3  
 2.518000000000000E10    6.623079534620047E-3  -1.671093748882413E-3  
 2.520000000000000E10   -3.031929722055793E-3  -6.559999659657478E-3  
 2.522000000000000E10   -6.061349529772997E-3   3.456938546150923E-3  
 2.524000000000000E10    4.200695082545281E-3   5.519823171198368E-3  
 2.526000000000000E10    5.469092633575201E-3  -4.650635644793510E-3  
 2.528000000000000E10   -5.129400640726090E-3  -4.552723374217749E-3  
 2.530000000000000E10   -4.345525521785021E-3   6.073623429983854E-3  
 2.532000000000000E10    5.987579002976418E-3   3.792126197367907E-3  
 2.534000000000000E10    3.045284887775779E-3  -6.242175586521626E-3  
 2.536000000000000E10   -6.648277863860130E-3  -2.045397879555821E-3  
 2.538000000000000E10   -1.668222132138908E-3   6.458240095525980E-3  
 2.540000000000000E10    6.856623105704784E-3   6.707131979055703E-4  
 2.542000000000000E10   -3.870315595122520E-6  -7.346692495048046E-3  
 2.544000000000000E10   -6.932007148861885E-3   1.535969320684671E-3  
 2.546000000000000E10    2.308604540303350E-3   6.854216102510691E-3  
 2.548000000000000E10    6.362206302583218E-3  -3.229382913559675E-3  
 2.550000000000000E10   -4.699302371591330E-3  -5.599898751825094E-3  
 2.552000000000000E10   -4.877930507063866E-3   5.310529377311468E-3  
 2.554000000000000E10    5.431023426353931E-3   4.365524742752314E-3  
 2.556000000000000E10    3.472586395218968E-3  -6.059016566723585E-3  
 2.558000000000000E10   -5.995380226522684E-3  -2.887908369302750E-3  
 2.560000000000000E10   -1.850440632551909E-3   6.625363137573004E-3  
 2.562000000000000E10    7.010156754404306E-3   1.271734363399446E-3  
 2.564000000000000E10    7.530659204348922E-4  -6.944335065782070E-3  
 2.566000000000000E10   -7.418641820549965E-3   4.507658304646611E-4  
 2.568000000000000E10    1.439170911908150E-3   8.151399902999401E-3  
 2.570000000000000E10    7.551893126219511E-3  -2.745491918176413E-3  
 2.572000000000000E10   -3.739263396710157E-3  -7.250382564961910E-3  
 2.574000000000000E10   -6.174163427203894E-3   4.017914179712534E-3  
 2.576000000000000E10    5.851508118212223E-3   5.619112402200699E-3  
 2.578000000000000E10    4.966768901795149E-3  -6.572243757545948E-3  
 2.580000000000000E10   -6.153436843305826E-3  -3.687550313770771E-3  
 2.582000000000000E10   -2.730917884036899E-3   7.293784525245428E-3  
 2.584000000000000E10    7.208845112472773E-3   2.089384710416198E-3  
 2.586000000000000E10    8.671061368659139E-4  -7.240393664687872E-3  
 2.588000000000000E10   -7.353527005761862E-3  -4.992777394363657E-5  
 2.590000000000000E10    7.692398503422737E-4   6.128755863755941E-3  
 2.592000000000000E10    6.872863974422216E-3  -1.842525321990252E-3  
 2.594000000000000E10   -2.025844063609839E-3  -7.355842273682356E-3  
 2.596000000000000E10   -6.813054438680410E-3   2.886994043365121E-3  
 2.598000000000000E10    4.175581969320774E-3   6.526203360408545E-3  
 2.600000000000000E10    6.575956474989653E-3  -4.983185790479183E-3  
 2.602000000000000E10   -6.654606666415930E-3  -5.555892363190651E-3  
 2.604000000000000E10   -5.183577071875334E-3   7.142659742385149E-3  
 2.606000000000000E10    6.829480640590191E-3   3.272705478593707E-3  
 2.608000000000000E10    1.869173836894333E-3  -8.223885670304298E-3  
 2.610000000000000E10   -8.517218753695488E-3  -1.980561064556241E-3  
 2.612000000000000E10   -8.853531908243895E-4   7.165376562625170E-3  
 2.614000000000000E10    8.040588349103928E-3  -8.654718403704464E-4  
 2.616000000000000E10   -1.555308001115918E-3  -7.648582570254803E-3  
 2.618000000000000E10   -7.467488292604685E-3   2.777289832010865E-3  
 2.620000000000000E10    3.134583821520209E-3   7.547987159341574E-3  
 2.622000000000000E10    5.761275999248028E-3  -4.027035087347031E-3  
 2.624000000000000E10   -5.581839941442013E-3  -5.743103101849556E-3  
 2.626000000000000E10   -5.940312054008246E-3   5.580736789852381E-3  
 2.628000000000000E10    6.478348746895790E-3   4.532524384558201E-3  
 2.630000000000000E10    3.418495412915945E-3  -8.477511815726757E-3  
 2.632000000000000E10   -8.254377171397209E-3  -2.339451108127832E-3  
 2.634000000000000E10   -7.717910339124501E-4   8.790794759988785E-3  
 2.636000000000000E10    8.740129880607128E-3   1.235378440469503E-4  
 2.638000000000000E10   -1.352835563011468E-3  -7.802328094840050E-3  
 2.640000000000000E10   -8.217921480536461E-3   2.780688926577568E-3  
 2.642000000000000E10    2.778779016807675E-3   7.731033489108086E-3  
 2.644000000000000E10    6.567407865077257E-3  -3.683836432173848E-3  
 2.646000000000000E10   -5.061699077486992E-3  -6.647286936640739E-3  
 2.648000000000000E10   -5.697755608707666E-3   5.384288262575865E-3  
 2.650000000000000E10    6.609562784433365E-3   4.822012968361378E-3  
 2.652000000000000E10    4.441104829311371E-3  -7.098186761140823E-3  
 2.654000000000000E10   -7.486129645258188E-3  -2.587032737210393E-3  
 2.656000000000000E10   -1.166516565717757E-3   8.703335188329220E-3  
 2.658000000000000E10    8.583623915910721E-3   7.044006488285959E-4  
 2.660000000000000E10   -1.159876352176070E-3  -8.386341854929924E-3  
 2.662000000000000E10   -8.318738080561161E-3   2.885666210204363E-3  
 2.664000000000000E10    3.668918274343014E-3   8.170797489583492E-3  
 2.666000000000000E10    7.944299839437008E-3  -4.731047432869673E-3  
 2.668000000000000E10   -5.346945952624083E-3  -6.590608973056078E-3  
 2.670000000000000E10   -5.722676403820515E-3   6.188452709466219E-3  
 2.672000000000000E10    6.986743770539761E-3   5.431288387626410E-3  
 2.674000000000000E10    4.928603302687407E-3  -6.880939006805420E-3  
 2.676000000000000E10   -7.365161553025246E-3  -3.598203184083104E-3  
 2.678000000000000E10   -2.059411955997348E-3   8.038297295570374E-3  
 2.680000000000000E10    8.571857586503029E-3   1.950072241015732E-3  
 2.682000000000000E10    1.047194818966091E-3  -8.724840357899666E-3  
 2.684000000000000E10   -8.624807000160217E-3   5.984522867947817E-4  
 2.686000000000000E10    2.451928798109293E-3   8.904153481125832E-3  
 2.688000000000000E10    8.593595586717129E-3  -3.582783741876483E-3  
 2.690000000000000E10   -4.771488718688488E-3  -7.940681651234627E-3  
 2.692000000000000E10   -6.937027908861637E-3   6.210960447788239E-3  
 2.694000000000000E10    7.386903278529644E-3   6.288246251642704E-3  
 2.696000000000000E10    5.794020369648933E-3  -8.125239051878452E-3  
 2.698000000000000E10   -8.109211921691895E-3  -4.716109950095415E-3  
 2.700000000000000E10   -3.174815094098449E-3   8.714652620255947E-3  
 2.702000000000000E10    9.737756103277206E-3   1.779345911927521E-3  
 2.704000000000000E10    1.108750002458692E-3  -9.594197385013104E-3  
 2.706000000000000E10   -9.022338315844536E-3   2.738175098784268E-4  
 2.708000000000000E10    1.303305500186980E-3   9.130879305303097E-3  
 2.710000000000000E10    9.038745425641537E-3  -2.155196387320757E-3  
 2.712000000000000E10   -3.384293522685766E-3  -8.922806940972805E-3  
 2.714000000000000E10   -8.027508854866028E-3   4.216006956994534E-3  
 2.716000000000000E10    5.604504141956568E-3   7.408845704048872E-3  
 2.718000000000000E10    6.857410538941622E-3  -6.929216440767050E-3  
 2.720000000000000E10   -7.432507816702128E-3  -6.014202721416950E-3  
 2.722000000000000E10   -4.715407732874155E-3   8.276392705738545E-3  
 2.724000000000000E10    8.857854641973972E-3   3.879788564518094E-3  
 2.726000000000000E10    2.871032804250717E-3  -9.623314253985882E-3  
 2.728000000000000E10   -1.011674292385578E-2  -1.383156282827258E-3  
 2.730000000000000E10   -4.651978670153767E-4   1.000184472650290E-2  
 2.732000000000000E10    9.855318814516068E-3  -1.106004579924047E-3  
 2.734000000000000E10   -2.230840502306819E-3  -1.028315816074610E-2  
 2.736000000000000E10   -1.000877469778061E-2   3.373456187546253E-3  
 2.738000000000000E10    4.732942674309015E-3   9.424041025340557E-3  
 2.740000000000000E10    8.180074393749237E-3  -5.756118800491095E-3  
 2.742000000000000E10   -6.676616147160530E-3  -7.620146032422781E-3  
 2.744000000000000E10   -7.323367055505514E-3   7.532608229666948E-3  
 2.746000000000000E10    7.834472693502903E-3   6.072359159588814E-3  
 2.748000000000000E10    5.192751996219158E-3  -9.066618047654629E-3  
 2.750000000000000E10   -9.511367417871952E-3  -4.004631191492081E-3  
 2.752000000000000E10   -2.742429031059146E-3   9.878198616206646E-3  
 2.754000000000000E10    1.008818112313747E-2   1.599070033989847E-3  
 2.756000000000000E10    2.104881714330986E-4  -9.972648695111275E-3  
