#  HZ   S   RI   R     50.00 
! Rohde & Schwarz ZVA40 4Ports - Version 3.90 - 1145.1110k42 SN: 100403
! Date: 2023-10-04 08:36:26
! Measurement: S12 
! 
 2.200000000000000E10   -1.951978728175163E-2  -5.934542044997215E-3  
 2.202000000000000E10   -4.470014944672585E-3   1.990119926631451E-2  
 2.204000000000000E10    1.996780186891556E-2   1.981913112103939E-3  
 2.206000000000000E10   -1.326222904026508E-3  -2.028177492320538E-2  
 2.208000000000000E10   -1.987887546420097E-2   3.156522288918495E-3  
 2.210000000000000E10    4.600791726261377E-3   1.974456012248993E-2  
 2.212000000000000E10    1.849477551877499E-2  -6.784928031265736E-3  
 2.214000000000000E10   -8.908622898161411E-3  -1.725321263074875E-2  
 2.216000000000000E10   -1.705431193113327E-2   1.091026887297630E-2  
 2.218000000000000E10    1.260637491941452E-2   1.546249724924564E-2  
 2.220000000000000E10    1.326188445091248E-2  -1.301886700093746E-2  
 2.222000000000000E10   -1.482054404914379E-2  -1.238606963306665E-2  
 2.224000000000000E10   -1.085581071674824E-2   1.686941646039486E-2  
 2.226000000000000E10    1.792261376976967E-2   8.479753509163857E-3  
 2.228000000000000E10    5.819277372211218E-3  -1.797791756689549E-2  
 2.230000000000000E10   -1.897657103836536E-2  -3.567961975932121E-3  
 2.232000000000000E10   -1.581846503540874E-3   1.997837796807289E-2  
 2.234000000000000E10    1.916706562042236E-2  -1.678122906014323E-3  
 2.236000000000000E10   -3.308082232251763E-3  -1.766078546643257E-2  
 2.238000000000000E10   -1.792188733816147E-2   5.015405360609293E-3  
 2.240000000000000E10    7.097208872437477E-3   1.753421500325203E-2  
 2.242000000000000E10    1.653603836894035E-2  -9.550308808684349E-3  
 2.244000000000000E10   -1.160775311291218E-2  -1.483331061899662E-2  
 2.246000000000000E10   -1.328896079212427E-2   1.271161437034607E-2  
 2.248000000000000E10    1.371278706938028E-2   1.237980555742979E-2  
 2.250000000000000E10    1.056632772088051E-2  -1.549667771905661E-2  
 2.252000000000000E10   -1.621185429394245E-2  -8.118364028632641E-3  
 2.254000000000000E10   -6.074334960430861E-3   1.696307770907879E-2  
 2.256000000000000E10    1.742044650018215E-2   4.509761929512024E-3  
 2.258000000000000E10    2.828910946846008E-3  -1.748265139758587E-2  
 2.260000000000000E10   -1.738371886312962E-2  -1.152284094132483E-3  
 2.262000000000000E10    1.235068775713444E-3   1.706676371395588E-2  
 2.264000000000000E10    1.714841462671757E-2  -2.450056141242385E-3  
 2.266000000000000E10   -3.663663519546390E-3  -1.667610742151737E-2  
 2.268000000000000E10   -1.576281525194645E-2   6.290154065936804E-3  
 2.270000000000000E10    7.968736812472343E-3   1.476744841784239E-2  
 2.272000000000000E10    1.415332872420549E-2  -9.482518769800663E-3  
 2.274000000000000E10   -1.068528089672327E-2  -1.291619334369898E-2  
 2.276000000000000E10   -1.164523884654045E-2   1.244169753044844E-2  
 2.278000000000000E10    1.428392715752125E-2   9.573612362146378E-3  
 2.280000000000000E10    8.084189146757126E-3  -1.489411946386099E-2  
 2.282000000000000E10   -8.688517846167088E-3  -1.382277440279722E-2  
 2.284000000000000E10   -3.801424521952868E-3   1.588163897395134E-2  
 2.286000000000000E10    1.607510074973106E-2   2.058812882751226E-3  
 2.288000000000000E10    9.168491233140230E-4  -1.583945192396641E-2  
 2.290000000000000E10   -1.572099141776562E-2   1.345223747193813E-3  
 2.292000000000000E10    3.092462196946144E-3   1.521737314760685E-2  
 2.294000000000000E10    1.459142006933689E-2  -5.275103729218245E-3  
 2.296000000000000E10   -6.603515241295099E-3  -1.419528294354677E-2  
 2.298000000000000E10   -1.277798600494862E-2   7.557950448244810E-3  
 2.300000000000000E10    9.551743976771832E-3   1.171076297760010E-2  
 2.302000000000000E10    1.064789202064276E-2  -1.168508827686310E-2  
 2.304000000000000E10   -1.203390117734671E-2  -9.056647308170795E-3  
 2.306000000000000E10   -7.462723180651665E-3   1.291535515338182E-2  
 2.308000000000000E10    1.371550466865301E-2   6.094843149185181E-3  
 2.310000000000000E10    4.544867668300867E-3  -1.455893646925688E-2  
 2.312000000000000E10   -1.512311305850744E-2  -2.770153572782874E-3  
 2.314000000000000E10   -1.211863709613681E-3   1.461703795939684E-2  
 2.316000000000000E10    1.472712680697441E-2  -1.351657556369901E-3  
 2.318000000000000E10   -3.509235335513949E-3  -1.447444595396519E-2  
 2.320000000000000E10   -1.323340833187103E-2   4.597604740411043E-3  
 2.322000000000000E10    6.249383557587862E-3   1.207010541111231E-2  
 2.324000000000000E10    1.139684673398733E-2  -8.146026171743870E-3  
 2.326000000000000E10   -9.643434546887875E-3  -1.026604510843754E-2  
 2.328000000000000E10   -8.941632695496082E-3   1.092302799224854E-2  
 2.330000000000000E10    1.130119338631630E-2   7.056986447423697E-3  
 2.332000000000000E10    5.376382730901241E-3  -1.194638013839722E-2  
 2.334000000000000E10   -1.270469278097153E-2  -4.799483809620142E-3  
 2.336000000000000E10   -3.144569694995880E-3   1.319320779293776E-2  
 2.338000000000000E10    1.350028160959482E-2   1.212380244396627E-3  
 2.340000000000000E10   -3.592236680560745E-5  -1.330287847667933E-2  
 2.342000000000000E10   -1.339876931160688E-2   1.544712344184518E-3  
 2.344000000000000E10    3.168518422171474E-3   1.299251522868872E-2  
 2.346000000000000E10    1.173187699168921E-2  -4.769300110638142E-3  
 2.348000000000000E10   -6.766301114112139E-3  -1.092782616615295E-2  
 2.350000000000000E10   -9.951243177056313E-3   7.401248440146446E-3  
 2.352000000000000E10    9.150792844593525E-3   8.402604609727860E-3  
 2.354000000000000E10    6.398057099431753E-3  -1.043747272342444E-2  
 2.356000000000000E10   -1.077207550406456E-2  -5.025927443057299E-3  
 2.358000000000000E10   -3.778652520850301E-3   1.098117977380753E-2  
 2.360000000000000E10    1.120403781533241E-2   2.308194991201162E-3  
 2.362000000000000E10    7.548067369498313E-4  -1.180113945156336E-2  
 2.364000000000000E10   -1.170433219522238E-2   1.150002935901284E-3  
 2.366000000000000E10    2.245428739115596E-3   1.092220470309258E-2  
 2.368000000000000E10    1.061397977173328E-2  -3.561181249096990E-3  
 2.370000000000000E10   -5.098856985569000E-3  -1.027255877852440E-2  
 2.372000000000000E10   -9.282544255256653E-3   5.765188485383987E-3  
 2.374000000000000E10    6.849497556686401E-3   8.109492249786854E-3  
 2.376000000000000E10    6.554210092872381E-3  -7.681323215365410E-3  
 2.378000000000000E10   -8.116030134260654E-3  -5.880700889974833E-3  
 2.380000000000000E10   -4.894837271422148E-3   8.426656946539879E-3  
 2.382000000000000E10    8.687627501785755E-3   3.080361289903522E-3  
 2.384000000000000E10    1.962970243766904E-3  -9.306574240326881E-3  
 2.386000000000000E10   -8.955487981438637E-3  -4.818648449145258E-4  
 2.388000000000000E10    6.370917544700205E-4   8.387282490730286E-3  
 2.390000000000000E10    7.909985259175301E-3  -2.004231559112668E-3  
 2.392000000000000E10   -3.145869821310043E-3  -7.445366587489843E-3  
 2.394000000000000E10   -6.537328939884901E-3   4.091199021786451E-3  
 2.396000000000000E10    4.852210637181997E-3   5.682189017534256E-3  
 2.398000000000000E10    5.461720749735832E-3  -5.197128280997276E-3  
 2.400000000000000E10   -6.395352073013783E-3  -4.656777251511812E-3  
 2.402000000000000E10   -2.547730924561620E-3   7.527758367359638E-3  
 2.404000000000000E10    6.818302441388369E-3   1.653550309129059E-3  
 2.406000000000000E10    1.629538834095001E-3  -6.655395496636629E-3  
 2.408000000000000E10   -6.461819633841515E-3  -6.278255023062229E-4  
 2.410000000000000E10    1.721529952192213E-5   6.391874514520168E-3  
 2.412000000000000E10    6.601030007004738E-3  -4.758235882036388E-4  
 2.414000000000000E10   -4.344934714026749E-4  -5.519136786460877E-3  
 2.416000000000000E10   -5.009038373827934E-3   1.506636035628617E-3  
 2.418000000000000E10    2.218991750851274E-3   4.467257298529148E-3  
 2.420000000000000E10    3.867019666358829E-3  -2.273865975439549E-3  
 2.422000000000000E10   -2.457925118505955E-3  -3.278599819168448E-3  
 2.424000000000000E10   -2.062852494418621E-3   2.923906315118074E-3  
 2.426000000000000E10    3.335073124617338E-3   2.165615791454911E-3  
 2.428000000000000E10    2.616987563669682E-3  -3.597720758989453E-3  
 2.430000000000000E10   -3.976126201450825E-3  -1.043472206220031E-3  
 2.432000000000000E10   -7.530160364694893E-4   4.642334766685963E-3  
 2.434000000000000E10    4.683553706854582E-3   6.565617513842881E-4  
 2.436000000000000E10    1.054355816449970E-4  -4.452858585864306E-3  
 2.438000000000000E10   -4.302667453885078E-3   4.334056575316936E-4  
 2.440000000000000E10    9.805765002965927E-4   3.980106674134731E-3  
 2.442000000000000E10    3.861208213493228E-3  -9.892540983855724E-4  
 2.444000000000000E10   -1.104936585761607E-3  -3.530010115355253E-3  
 2.446000000000000E10   -2.522734226658940E-3   8.772703004069626E-4  
 2.448000000000000E10    1.319391420111060E-3   3.306180005893111E-3  
 2.450000000000000E10    2.661429112777114E-3  -1.389740384183824E-3  
 2.452000000000000E10   -1.601908006705344E-3  -1.829077373258770E-3  
 2.454000000000000E10   -1.614926266483963E-3   2.031142124906182E-3  
 2.456000000000000E10    1.896348781883717E-3   1.376055995933712E-3  
 2.458000000000000E10    1.191882067359984E-3  -1.815677736885846E-3  
 2.460000000000000E10   -2.439429983496666E-3  -6.540351896546781E-4  
 2.462000000000000E10   -4.027826071251184E-4   2.309086266905069E-3  
 2.464000000000000E10    2.620459999889135E-3  -1.098736902349629E-4  
 2.466000000000000E10   -3.461197484284639E-4  -2.377137541770935E-3  
 2.468000000000000E10   -2.033586381003261E-3   5.026621511206031E-4  
 2.470000000000000E10    1.037332229316235E-3   1.896964269690216E-3  
 2.472000000000000E10    1.653349958360195E-3  -8.316173334605992E-4  
 2.474000000000000E10   -9.940215386450291E-4  -1.371478778310120E-3  
 2.476000000000000E10   -1.813394133932889E-3   1.295936293900013E-3  
 2.478000000000000E10    7.943286909721792E-4   1.185517059639096E-3  
 2.480000000000000E10    1.490162103436887E-3  -1.000029151327908E-3  
 2.482000000000000E10   -8.856392232701182E-4  -1.543159596621990E-3  
 2.484000000000000E10   -1.199807971715927E-3   9.241258958354592E-4  
 2.486000000000000E10    9.584078215993941E-4   1.474933698773384E-3  
 2.488000000000000E10    9.182408102788031E-4  -1.199885387904942E-3  
 2.490000000000000E10   -1.353785861283541E-3  -6.740582757629454E-4  
 2.492000000000000E10   -8.046484435908496E-4   1.159701030701399E-3  
 2.494000000000000E10    1.280999626033008E-3   1.682597144281317E-6  
 2.496000000000000E10   -1.867399550974369E-4  -1.414093421772122E-3  
 2.498000000000000E10   -8.148051565513015E-4   2.351354924030602E-4  
 2.500000000000000E10    6.071174866519868E-4   6.105880020186305E-4  
 2.502000000000000E10    1.078679924830794E-3  -5.902366247028112E-4  
 2.504000000000000E10   -5.005259881727397E-4  -8.944315486587584E-4  
 2.506000000000000E10   -1.156275975517929E-3   8.416974451392889E-4  
 2.508000000000000E10    1.797338773030788E-4   1.115967868827283E-3  
 2.510000000000000E10    8.986667962744832E-4  -7.267218315973878E-4  
 2.512000000000000E10   -7.541656377725303E-4  -1.300242962315679E-3  
 2.514000000000000E10   -1.135796890594065E-3   3.414231759961695E-4  
 2.516000000000000E10    4.439341719262302E-4   6.988286622799933E-4  
 2.518000000000000E10    1.112672267481685E-3  -7.897504256106913E-4  
 2.520000000000000E10   -6.713834009133279E-4  -8.649207884445787E-4  
 2.522000000000000E10   -9.131885017268360E-4   7.440251647494733E-4  
 2.524000000000000E10    9.316450450569391E-4   7.035983726382256E-4  
 2.526000000000000E10   -9.486371709499508E-5  -6.193026783876121E-4  
 2.528000000000000E10   -6.747125298716128E-4  -2.366917469771579E-4  
 2.530000000000000E10   -2.590745571069419E-4   6.223161472007632E-4  
 2.532000000000000E10    2.217779110651463E-4  -7.814485434209928E-5  
 2.534000000000000E10    1.399611937813461E-4  -9.629427804611623E-4  
 2.536000000000000E10   -8.869618177413940E-4  -3.687651042127982E-5  
 2.538000000000000E10   -3.350370388943702E-4   1.252308138646185E-3  
 2.540000000000000E10    1.320421346463263E-3   1.019185947370715E-4  
 2.542000000000000E10   -7.498365594074130E-4  -1.310656894929707E-3  
 2.544000000000000E10   -1.652608858421445E-3   1.130599295720458E-3  
 2.546000000000000E10    6.635271129198372E-4   1.338723115622997E-3  
 2.548000000000000E10    7.532938034273684E-4  -1.298804534599185E-3  
 2.550000000000000E10   -1.632786355912685E-3  -8.097852114588022E-4  
 2.552000000000000E10   -4.585459828376770E-4   1.597558264620602E-3  
 2.554000000000000E10    1.121266279369593E-3   5.041309050284326E-4  
 2.556000000000000E10    3.704110858961940E-4  -9.025089675560594E-4  
 2.558000000000000E10   -1.272259862162173E-3   1.238665136042982E-4  
 2.560000000000000E10   -1.358445879304782E-4   1.685494091361761E-3  
 2.562000000000000E10    1.037318259477615E-3   2.166989434044808E-4  
 2.564000000000000E10   -3.764397988561541E-4  -1.146833528764546E-3  
 2.566000000000000E10   -1.437740167602897E-3   1.121280947700143E-4  
 2.568000000000000E10    1.508009736426175E-4   1.238099532201886E-3  
 2.570000000000000E10    1.518011675216258E-3  -3.692983009386808E-4  
 2.572000000000000E10   -6.304380367510021E-4  -1.328672398813069E-3  
 2.574000000000000E10   -9.635739843361080E-4   1.113776816055179E-3  
 2.576000000000000E10    1.430465723387897E-3   1.510626636445522E-3  
 2.578000000000000E10    6.326906150206924E-4  -1.756167272105813E-3  
 2.580000000000000E10   -2.159326104447246E-3  -5.432117613963783E-4  
 2.582000000000000E10   -5.703381029888988E-4   1.847067149356008E-3  
 2.584000000000000E10    1.825033687055111E-3  -2.257896767332568E-6  
 2.586000000000000E10    1.174244534922764E-4  -2.382104285061359E-3  
 2.588000000000000E10   -1.675600884482265E-3   1.516328775323927E-4  
 2.590000000000000E10    1.023162971250713E-3   1.974862301722169E-3  
 2.592000000000000E10    2.776337321847677E-3  -1.050111022777855E-3  
 2.594000000000000E10   -1.020697876811028E-3  -2.077480079606175E-3  
 2.596000000000000E10   -2.225176664069295E-3   1.817623502574861E-3  
 2.598000000000000E10    1.530199544504285E-3   1.770560280419886E-3  
 2.600000000000000E10    1.537195756100118E-3  -2.263878239318728E-3  
 2.602000000000000E10   -2.329801209270954E-3  -1.958648441359401E-3  
 2.604000000000000E10   -9.068247745744884E-4   1.873135683126748E-3  
 2.606000000000000E10    2.916793571785092E-3   2.535394451115280E-4  
 2.608000000000000E10    6.204278906807303E-4  -2.590328222140670E-3  
 2.610000000000000E10   -2.122963545843959E-3   1.578887458890677E-4  
 2.612000000000000E10    3.954757994506508E-4   2.636250806972385E-3  
 2.614000000000000E10    2.298815641552210E-3  -5.324658122844994E-4  
 2.616000000000000E10   -1.283593708649278E-3  -2.186013152822852E-3  
 2.618000000000000E10   -2.302609616890550E-3   1.119631109759212E-3  
 2.620000000000000E10    1.549212145619094E-3   1.923101954162121E-3  
 2.622000000000000E10    2.022037282586098E-3  -2.205961849540472E-3  
 2.624000000000000E10   -1.877075410448015E-3  -1.998210325837135E-3  
 2.626000000000000E10   -1.368494820781052E-3   2.654221374541521E-3  
 2.628000000000000E10    2.991161542013288E-3   2.049907110631466E-3  
 2.630000000000000E10    1.709767500869930E-3  -3.207378787919879E-3  
 2.632000000000000E10   -3.211976028978825E-3  -1.140571548603475E-3  
 2.634000000000000E10   -1.088551594875753E-3   3.686720971018076E-3  
 2.636000000000000E10    3.965914249420166E-3   3.658430650830269E-4  
 2.638000000000000E10   -3.536718168106745E-6  -4.343830980360508E-3  
 2.640000000000000E10   -3.545809304341674E-3   3.529832756612450E-4  
 2.642000000000000E10    1.267336192540824E-3   3.613454289734364E-3  
 2.644000000000000E10    3.928979858756065E-3  -1.388473436236382E-3  
 2.646000000000000E10   -1.684806076809764E-3  -3.372323000803590E-3  
 2.648000000000000E10   -2.819170942530036E-3   2.311399439349771E-3  
 2.650000000000000E10    2.936723874881864E-3   2.997312694787979E-3  
 2.652000000000000E10    2.340284874662757E-3  -3.604715224355459E-3  
 2.654000000000000E10   -4.093426279723644E-3  -2.140128053724766E-3  
 2.656000000000000E10   -1.439716899767518E-3   4.159288015216589E-3  
 2.658000000000000E10    4.925999324768782E-3   5.592199740931392E-4  
 2.660000000000000E10    3.299782983958721E-4  -5.251692607998848E-3  
 2.662000000000000E10   -4.687281325459480E-3   5.109256599098444E-4  
 2.664000000000000E10    1.548597239889205E-3   4.864469636231661E-3  
 2.666000000000000E10    4.913643933832645E-3  -1.540064928121865E-3  
 2.668000000000000E10   -2.179402392357588E-3  -4.896502010524273E-3  
 2.670000000000000E10   -4.430881235748529E-3   2.618835074827075E-3  
 2.672000000000000E10    2.902392297983170E-3   4.263878334313631E-3  
 2.674000000000000E10    3.828912042081356E-3  -3.750064875930548E-3  
 2.676000000000000E10   -3.742670174688101E-3  -3.994343802332878E-3  
 2.678000000000000E10   -2.832271158695221E-3   3.886309685185552E-3  
 2.680000000000000E10    5.124378483742476E-3   2.652017865329981E-3  
 2.682000000000000E10    2.056144876405597E-3  -5.206531379371882E-3  
 2.684000000000000E10   -5.472280550748110E-3  -1.411838573403657E-3  
 2.686000000000000E10   -3.939909220207483E-4   5.590198561549187E-3  
 2.688000000000000E10    5.688916426151991E-3  -6.424015737138689E-4  
 2.690000000000000E10   -1.677017658948898E-3  -5.879094358533621E-3  
 2.692000000000000E10   -5.575357470661402E-3   2.072951756417751E-3  
 2.694000000000000E10    3.228748217225075E-3   5.075488705188036E-3  
 2.696000000000000E10    5.150960758328438E-3  -4.064112436026335E-3  
 2.698000000000000E10   -4.330958239734173E-3  -5.018240772187710E-3  
 2.700000000000000E10   -4.118797369301319E-3   4.582582507282496E-3  
 2.702000000000000E10    5.503550171852112E-3   3.702797926962376E-3  
 2.704000000000000E10    2.914306242018938E-3  -6.016915198415518E-3  
 2.706000000000000E10   -6.331636104732752E-3  -2.490390557795763E-3  
 2.708000000000000E10   -2.438376192003489E-3   6.651646923273802E-3  
 2.710000000000000E10    6.743249483406544E-3   1.533460919745266E-3  
 2.712000000000000E10    3.966351214330643E-4  -6.648038979619741E-3  
 2.714000000000000E10   -6.961814593523741E-3   2.211961400462315E-4  
 2.716000000000000E10    1.093346043489873E-3   6.884181406348944E-3  
 2.718000000000000E10    6.297589279711247E-3  -2.108930377289653E-3  
 2.720000000000000E10   -3.091576043516398E-3  -6.120500620454550E-3  
 2.722000000000000E10   -5.831062328070402E-3   3.702221903949976E-3  
 2.724000000000000E10    4.075560253113508E-3   5.390191450715065E-3  
 2.726000000000000E10    4.701372701674700E-3  -4.764363635331392E-3  
 2.728000000000000E10   -5.513061303645372E-3  -3.637402318418026E-3  
 2.730000000000000E10   -3.704275703057647E-3   6.903151050209999E-3  
 2.732000000000000E10    7.118178531527519E-3   3.200452541932464E-3  
 2.734000000000000E10    1.974017126485705E-3  -7.047046907246113E-3  
 2.736000000000000E10   -8.140708319842815E-3  -1.343591255135834E-3  
 2.738000000000000E10   -4.113826144021004E-4   8.238448761403561E-3  
 2.740000000000000E10    8.009139448404312E-3  -6.508141523227096E-4  
 2.742000000000000E10   -1.588551909662783E-3  -7.774610538035631E-3  
 2.744000000000000E10   -7.285706233233213E-3   2.543446607887745E-3  
 2.746000000000000E10    3.804638748988509E-3   7.519923150539398E-3  
 2.748000000000000E10    6.821545306593180E-3  -3.938689827919006E-3  
 2.750000000000000E10   -4.733570385724306E-3  -5.913147702813149E-3  
 2.752000000000000E10   -5.747674033045769E-3   5.717049818485975E-3  
 2.754000000000000E10    6.052181590348482E-3   4.873811732977629E-3  
 2.756000000000000E10    4.079567734152079E-3  -6.776961963623762E-3  
