#  HZ   S   RI   R     50.00 
! Rohde & Schwarz ZVA40 4Ports - Version 3.90 - 1145.1110k42 SN: 100403
! Date: 2023-10-04 08:36:57
! Measurement: S12 
! 
 2.200000000000000E10   -1.565181650221348E-2  -6.584228947758675E-3  
 2.202000000000000E10   -4.385766107589006E-3   1.623359508812428E-2  
 2.204000000000000E10    1.677950099110603E-2   1.961306203156710E-3  
 2.206000000000000E10   -2.260518085677177E-4  -1.692608930170536E-2  
 2.208000000000000E10   -1.622301526367664E-2   1.726261456497014E-3  
 2.210000000000000E10    3.374839201569557E-3   1.556987129151821E-2  
 2.212000000000000E10    1.470572594553232E-2  -5.084850359708071E-3  
 2.214000000000000E10   -6.316629238426685E-3  -1.448491029441357E-2  
 2.216000000000000E10   -1.415911037474871E-2   7.407278753817082E-3  
 2.218000000000000E10    9.330550208687782E-3   1.200070232152939E-2  
 2.220000000000000E10    1.127887237817049E-2  -1.038815267384052E-2  
 2.222000000000000E10   -1.162285823374987E-2  -1.045312825590372E-2  
 2.224000000000000E10   -8.903768844902515E-3   1.339550316333771E-2  
 2.226000000000000E10    1.438653096556664E-2   6.869148928672075E-3  
 2.228000000000000E10    5.260719917714596E-3  -1.503825373947620E-2  
 2.230000000000000E10   -1.563083007931709E-2  -3.508399473503232E-3  
 2.232000000000000E10   -2.358573721721768E-3   1.591685973107815E-2  
 2.234000000000000E10    1.583505235612392E-2  -1.127226511016488E-3  
 2.236000000000000E10   -2.661659382283688E-3  -1.521457824856043E-2  
 2.238000000000000E10   -1.510329637676477E-2   3.474106313660741E-3  
 2.240000000000000E10    5.829895846545696E-3   1.466479152441025E-2  
 2.242000000000000E10    1.371157728135586E-2  -7.420194800943136E-3  
 2.244000000000000E10   -8.717467077076435E-3  -1.253740582615137E-2  
 2.246000000000000E10   -1.153783407062292E-2   9.994612075388432E-3  
 2.248000000000000E10    1.079942099750042E-2   1.062177121639252E-2  
 2.250000000000000E10    8.617372252047062E-3  -1.266578491777182E-2  
 2.252000000000000E10   -1.310404017567635E-2  -6.513653788715601E-3  
 2.254000000000000E10   -5.775163881480694E-3   1.336173620074987E-2  
 2.256000000000000E10    1.414709631353617E-2   4.036212805658579E-3  
 2.258000000000000E10    2.290062839165330E-3  -1.407481264322996E-2  
 2.260000000000000E10   -1.413158979266882E-2  -9.141141781583428E-4  
 2.262000000000000E10    7.638217066414654E-4   1.407268457114697E-2  
 2.264000000000000E10    1.332736015319824E-2  -1.740075298584998E-3  
 2.266000000000000E10   -3.531443653628230E-3  -1.357634924352169E-2  
 2.268000000000000E10   -1.309272274374962E-2   5.505427718162537E-3  
 2.270000000000000E10    6.543450523167849E-3   1.227059960365295E-2  
 2.272000000000000E10    1.162131689488888E-2  -7.807757705450058E-3  
 2.274000000000000E10   -8.519794791936874E-3  -1.040587667375803E-2  
 2.276000000000000E10   -9.535061195492744E-3   1.034776773303747E-2  
 2.278000000000000E10    1.132362429052591E-2   8.179652504622936E-3  
 2.280000000000000E10    6.346091162413359E-3  -1.162189897149801E-2  
 2.282000000000000E10   -7.362924981862307E-3  -1.106372661888599E-2  
 2.284000000000000E10   -3.666093805804849E-3   1.314561720937491E-2  
 2.286000000000000E10    1.275260094553232E-2   2.366490894928575E-3  
 2.288000000000000E10    4.861373163294047E-4  -1.260388549417257E-2  
 2.290000000000000E10   -1.286317128688097E-2   9.982594056054950E-4  
 2.292000000000000E10    2.288583898916841E-3   1.263348385691643E-2  
 2.294000000000000E10    1.217817515134811E-2  -4.041554871946573E-3  
 2.296000000000000E10   -5.250876769423485E-3  -1.110779214650393E-2  
 2.298000000000000E10   -1.004881225526333E-2   6.776099558919668E-3  
 2.300000000000000E10    7.749105338007212E-3   9.986916556954384E-3  
 2.302000000000000E10    8.743871934711933E-3  -8.788735605776310E-3  
 2.304000000000000E10   -9.831095114350319E-3  -6.763027515262365E-3  
 2.306000000000000E10   -5.590057466179133E-3   1.100056339055300E-2  
 2.308000000000000E10    1.130503695458174E-2   4.776129499077797E-3  
 2.310000000000000E10    3.033217042684555E-3  -1.164147909730673E-2  
 2.312000000000000E10   -1.188264973461628E-2  -1.712746685370803E-3  
 2.314000000000000E10   -3.705383278429508E-4   1.231557410210371E-2  
 2.316000000000000E10    1.227981224656105E-2  -1.518497010692954E-3  
 2.318000000000000E10   -3.014376154169440E-3  -1.192240789532661E-2  
 2.320000000000000E10   -1.067314296960831E-2   4.709748085588217E-3  
 2.322000000000000E10    5.941407755017281E-3   1.018944848328829E-2  
 2.324000000000000E10    9.450082667171955E-3  -6.832707673311234E-3  
 2.326000000000000E10   -7.827568799257278E-3  -8.213783614337444E-3  
 2.328000000000000E10   -7.498434279114008E-3   8.856190368533135E-3  
 2.330000000000000E10    9.428036399185658E-3   5.773257464170456E-3  
 2.332000000000000E10    4.555991385132074E-3  -9.990337304770947E-3  
 2.334000000000000E10   -1.027395855635405E-2  -3.480554791167378E-3  
 2.336000000000000E10   -1.893224543891847E-3   1.054222509264946E-2  
 2.338000000000000E10    1.063005812466145E-2   3.936604480259121E-5  
 2.340000000000000E10   -9.264191030524671E-4  -1.015303842723370E-2  
 2.342000000000000E10   -1.034123077988625E-2   1.894739223644137E-3  
 2.344000000000000E10    3.702274523675442E-3   9.848689660429955E-3  
 2.346000000000000E10    8.992777206003666E-3  -5.376760382205248E-3  
 2.348000000000000E10   -6.640678271651268E-3  -8.411618880927563E-3  
 2.350000000000000E10   -7.783269509673119E-3   7.233676500618458E-3  
 2.352000000000000E10    8.766457438468933E-3   6.200560834258795E-3  
 2.354000000000000E10    5.042979959398508E-3  -9.629911743104458E-3  
 2.356000000000000E10   -9.810008108615875E-3  -3.571459325030446E-3  
 2.358000000000000E10   -2.404185011982918E-3   9.690828621387482E-3  
 2.360000000000000E10    9.751581586897373E-3   1.028737751767039E-3  
 2.362000000000000E10   -2.739380288403481E-4  -9.484837763011456E-3  
 2.364000000000000E10   -9.509883821010590E-3   1.208161935210228E-3  
 2.366000000000000E10    2.395580988377333E-3   8.359355852007866E-3  
 2.368000000000000E10    7.943318225443363E-3  -3.684325609356165E-3  
 2.370000000000000E10   -4.516711458563805E-3  -7.286688778549433E-3  
 2.372000000000000E10   -5.839205812662840E-3   5.343625321984291E-3  
 2.374000000000000E10    6.672810763120651E-3   5.248046480119228E-3  
 2.376000000000000E10    3.968044649809599E-3  -7.477161940187216E-3  
 2.378000000000000E10   -7.560227531939745E-3  -2.589049981907010E-3  
 2.380000000000000E10   -1.724501489661634E-3   7.959623821079731E-3  
 2.382000000000000E10    8.818679489195347E-3   5.651485989801586E-4  
 2.384000000000000E10   -2.095044037560001E-4  -9.061432443559170E-3  
 2.386000000000000E10   -7.986007258296013E-3   1.379529596306384E-3  
 2.388000000000000E10    2.625251654535532E-3   7.376302964985371E-3  
 2.390000000000000E10    7.003796752542257E-3  -3.213177900761366E-3  
 2.392000000000000E10   -3.759882645681500E-3  -6.212566979229450E-3  
 2.394000000000000E10   -5.192193668335676E-3   4.169156309217215E-3  
 2.396000000000000E10    4.448973573744297E-3   4.713347181677818E-3  
 2.398000000000000E10    3.610608866438270E-3  -4.735230933874846E-3  
 2.400000000000000E10   -5.228154826909304E-3  -2.849474549293518E-3  
 2.402000000000000E10   -1.595569890923798E-3   5.285430699586868E-3  
 2.404000000000000E10    5.349605344235897E-3   1.042263975250535E-4  
 2.406000000000000E10   -7.479951018467546E-4  -5.043109413236380E-3  
 2.408000000000000E10   -4.750672727823257E-3   1.300796051509678E-3  
 2.410000000000000E10    2.050962299108505E-3   4.921036772429943E-3  
 2.412000000000000E10    4.206428769975901E-3  -2.533310791477561E-3  
 2.414000000000000E10   -3.362985327839851E-3  -3.679573768749833E-3  
 2.416000000000000E10   -3.747049486264586E-3   3.659745911136270E-3  
 2.418000000000000E10    3.697310807183385E-3   2.890130504965782E-3  
 2.420000000000000E10    2.175274072214961E-3  -4.144636914134026E-3  
 2.422000000000000E10   -4.088968504220247E-3  -2.214048989117146E-3  
 2.424000000000000E10   -1.450364594347775E-3   4.374839365482330E-3  
 2.426000000000000E10    4.197675269097090E-3   1.361356000415981E-3  
 2.428000000000000E10    1.167159411124885E-3  -3.416734747588635E-3  
 2.430000000000000E10   -4.230759572237730E-3  -1.286312326556072E-4  
 2.432000000000000E10   -6.193915032781661E-4   4.056178499013186E-3  
 2.434000000000000E10    3.429861273616552E-3  -5.040114629082382E-4  
 2.436000000000000E10   -1.475788769312203E-3  -2.916650613769889E-3  
 2.438000000000000E10   -2.648758236318827E-3   1.131764147430658E-3  
 2.440000000000000E10    1.752355135977268E-3   2.381801372393966E-3  
 2.442000000000000E10    1.889600069262087E-3  -2.232830971479416E-3  
 2.444000000000000E10   -2.300343941897154E-3  -1.232387963682413E-3  
 2.446000000000000E10   -9.914191905409098E-4   2.680927515029907E-3  
 2.448000000000000E10    2.598598599433899E-3   6.942459149286151E-4  
 2.450000000000000E10   -6.327011215034872E-5  -3.174633253365755E-3  
 2.452000000000000E10   -3.181878244504333E-3   1.741111045703292E-4  
 2.454000000000000E10    2.387418498983607E-4   2.418573712930083E-3  
 2.456000000000000E10    2.825662028044462E-3  -3.908536455128342E-4  
 2.458000000000000E10   -3.844988241326064E-4  -2.404250670224428E-3  
 2.460000000000000E10   -2.168710110709071E-3   3.648138663265854E-4  
 2.462000000000000E10    5.402044043876231E-4   2.470168983563781E-3  
 2.464000000000000E10    1.866934471763670E-3  -6.971411057747901E-4  
 2.466000000000000E10   -9.930822998285294E-4  -1.790284295566380E-3  
 2.468000000000000E10   -1.617217436432838E-3   1.206720015034080E-3  
 2.470000000000000E10    1.270471024326980E-3   1.103982562199235E-3  
 2.472000000000000E10    4.325752088334411E-4  -1.870603999122977E-3  
 2.474000000000000E10   -1.456609927117825E-3  -1.637789391679689E-4  
 2.476000000000000E10    1.774942793417722E-4   1.537759089842439E-3  
 2.478000000000000E10    1.407426432706416E-3  -4.858545144088566E-4  
 2.480000000000000E10   -4.059749189764261E-4  -1.197707140818238E-3  
 2.482000000000000E10   -1.351810991764069E-3   8.662553154863417E-4  
 2.484000000000000E10    6.370295304805040E-4   1.423938549123704E-3  
 2.486000000000000E10    1.280812197364867E-3  -7.760523003526032E-4  
 2.488000000000000E10   -8.660671301186085E-4  -1.567471656017005E-3  
 2.490000000000000E10   -1.386501709930599E-3   5.336114554665983E-4  
 2.492000000000000E10    8.744547958485782E-4   1.472438452765346E-3  
 2.494000000000000E10    1.675990875810385E-3  -1.313377521000803E-3  
 2.496000000000000E10   -8.168749627657235E-4  -8.624651818536222E-4  
 2.498000000000000E10   -4.371864197310060E-4   1.590705709531903E-3  
 2.500000000000000E10    1.371643389575183E-3   5.631932290270925E-4  
 2.502000000000000E10    1.308357896050438E-4  -7.197858649305999E-4  
 2.504000000000000E10   -8.506414596922696E-4  -9.183059592032805E-5  
 2.506000000000000E10    7.821749750291929E-5   4.120260709896684E-4  
 2.508000000000000E10    6.479834555648267E-4  -3.175302408635616E-4  
 2.510000000000000E10    6.962707993807271E-5  -1.293644192628563E-3  
 2.512000000000000E10   -2.790459839161485E-4   5.924330907873809E-4  
 2.514000000000000E10    9.175579180009663E-4   5.668700323440135E-4  
 2.516000000000000E10    9.245848050341010E-4  -6.480164593085647E-4  
 2.518000000000000E10   -8.088218164630234E-4  -5.160426371730864E-4  
 2.520000000000000E10   -6.642774678766727E-4   1.042754156515002E-3  
 2.522000000000000E10    9.347053128294647E-4   3.290458116680384E-4  
 2.524000000000000E10    6.642034859396517E-4  -1.283245976082981E-3  
 2.526000000000000E10   -1.220411155372858E-3  -6.356480880640447E-4  
 2.528000000000000E10   -8.430429443251342E-5   9.512530523352325E-4  
 2.530000000000000E10    1.075483276508749E-3   1.445216621505097E-4  
 2.532000000000000E10    6.146533269202337E-5  -7.802100153639913E-4  
 2.534000000000000E10   -2.236399013781920E-4   2.868399315048009E-5  
 2.536000000000000E10   -2.228778757853434E-4   2.947207831311971E-4  
 2.538000000000000E10    2.602667373139411E-4  -3.809310437645763E-4  
 2.540000000000000E10   -1.384812203468755E-4  -4.844171344302595E-4  
 2.542000000000000E10   -3.302844706922770E-4  -4.239541885908693E-4  
 2.544000000000000E10   -9.937322465702891E-5  -3.364745498402044E-5  
 2.546000000000000E10    7.347253267653287E-4  -3.613357839640230E-4  
 2.548000000000000E10   -3.665211261250079E-4  -7.168104057200253E-4  
 2.550000000000000E10   -3.472024400252849E-4   2.503190771676600E-4  
 2.552000000000000E10    6.122241029515863E-4   5.028553423471749E-4  
 2.554000000000000E10   -1.145000424003229E-4  -8.532122010365129E-4  
 2.556000000000000E10   -9.203914087265730E-4  -4.139401426073164E-4  
 2.558000000000000E10   -3.989409015048295E-4   7.327978964895010E-4  
 2.560000000000000E10    6.225058459676802E-4  -2.584962348919362E-4  
 2.562000000000000E10    7.957545676617883E-6  -1.362175215035677E-3  
 2.564000000000000E10   -6.723357364535332E-4  -4.273068916518241E-4  
 2.566000000000000E10    4.704435705207288E-4   8.013319456949830E-4  
 2.568000000000000E10    7.781930034980178E-4  -4.545878618955612E-4  
 2.570000000000000E10    6.752512126695365E-5  -1.576990180183202E-4  
 2.572000000000000E10   -6.951992982067168E-4  -1.731561205815524E-4  
 2.574000000000000E10   -2.708219399210066E-4   1.175701501779258E-3  
 2.576000000000000E10    4.784514894708991E-4  -3.937124565709382E-4  
 2.578000000000000E10   -2.907072193920612E-4  -8.847459685057402E-4  
 2.580000000000000E10   -8.723522769287229E-4   1.813323469832540E-4  
 2.582000000000000E10    2.880259125959128E-4   2.926104643847793E-4  
 2.584000000000000E10    7.282823207788169E-4  -1.165307257906534E-4  
 2.586000000000000E10    2.179270813940093E-4  -6.259328220039606E-4  
 2.588000000000000E10   -4.163206613156945E-4   7.092786836437881E-4  
 2.590000000000000E10    3.510322130750865E-4   1.120001776143909E-3  
 2.592000000000000E10    9.056312264874578E-4  -6.918020517332479E-5  
 2.594000000000000E10   -7.044200901873410E-4  -4.227337485644966E-4  
 2.596000000000000E10   -8.607353083789349E-4   9.350015316158533E-4  
 2.598000000000000E10    6.869116914458573E-4   6.430420908145607E-4  
 2.600000000000000E10    9.518055594526231E-4  -1.245452091097832E-3  
 2.602000000000000E10   -1.398173393681645E-3  -3.867124614771456E-4  
 2.604000000000000E10    5.301903584040701E-4   1.841908553615212E-3  
 2.606000000000000E10    2.061935374513269E-3  -2.371260488871485E-4  
 2.608000000000000E10   -6.354103679768741E-4  -1.180381281301379E-3  
 2.610000000000000E10   -1.458561280742288E-3   1.383659546263516E-3  
 2.612000000000000E10    5.808864370919764E-4   1.346754957921803E-3  
 2.614000000000000E10    9.370822808705270E-4  -9.494106634519994E-4  
 2.616000000000000E10   -1.252493471838534E-3  -1.378347864374518E-3  
 2.618000000000000E10   -1.387862837873399E-3   6.505300407297909E-4  
 2.620000000000000E10    1.099041895940900E-3   1.558770891278982E-3  
 2.622000000000000E10    1.563919591717422E-3  -1.045286189764738E-3  
 2.624000000000000E10   -1.265883445739746E-3  -1.137322396971285E-3  
 2.626000000000000E10   -1.448949798941612E-3   1.827954547479749E-3  
 2.628000000000000E10    1.321956166066229E-3   1.535250339657068E-3  
 2.630000000000000E10    6.478198920376599E-4  -2.026498783379793E-3  
 2.632000000000000E10   -2.155169146135449E-3  -7.060666102916002E-4  
 2.634000000000000E10   -3.145842347294092E-4   2.010371768847108E-3  
 2.636000000000000E10    2.193973632529378E-3  -1.222131395479664E-4  
 2.638000000000000E10   -6.133396527729929E-4  -1.970834098756313E-3  
 2.640000000000000E10   -2.028198447078466E-3   6.753752240911126E-4  
 2.642000000000000E10    8.715233416296542E-4   2.092868089675903E-3  
 2.644000000000000E10    1.700126100331545E-3  -1.277756993658841E-3  
 2.646000000000000E10   -2.048397902399302E-3  -1.805241568945348E-3  
 2.648000000000000E10   -2.107519423589110E-3   1.714410376735032E-3  
 2.650000000000000E10    1.900152070447803E-3   2.327407477423549E-3  
 2.652000000000000E10    1.984416972845793E-3  -2.604336012154818E-3  
 2.654000000000000E10   -2.902861218899488E-3  -1.863625366240740E-3  
 2.656000000000000E10   -1.725179841741920E-3   3.637442598119378E-3  
 2.658000000000000E10    3.818440716713667E-3   1.394173596054316E-3  
 2.660000000000000E10    6.531769759021699E-4  -3.665274940431118E-3  
 2.662000000000000E10   -3.854389302432537E-3   4.353672557044774E-5  
 2.664000000000000E10    2.599094614197384E-6   4.065149929374456E-3  
 2.666000000000000E10    3.759184852242470E-3  -9.973283158615232E-4  
 2.668000000000000E10   -1.528699183836579E-3  -3.119420027360320E-3  
 2.670000000000000E10   -2.898242091760039E-3   1.665021758526564E-3  
 2.672000000000000E10    2.107207430526614E-3   3.072772873565555E-3  
 2.674000000000000E10    2.895903075113893E-3  -2.310449024662376E-3  
 2.676000000000000E10   -2.849976066499949E-3  -2.369834575802088E-3  
 2.678000000000000E10   -1.952692982740700E-3   3.987956792116165E-3  
 2.680000000000000E10    3.965053707361221E-3   2.367104170843959E-3  
 2.682000000000000E10    1.411802368238568E-3  -4.241827875375748E-3  
 2.684000000000000E10   -4.895427264273167E-3  -1.124562113545835E-3  
 2.686000000000000E10   -7.542615639977157E-4   5.214086733758450E-3  
 2.688000000000000E10    5.299113225191832E-3  -2.975589886773378E-4  
 2.690000000000000E10   -7.399540627375245E-4  -5.316624417901039E-3  
 2.692000000000000E10   -4.529552999883890E-3   1.383336493745446E-3  
 2.694000000000000E10    2.164169447496533E-3   5.179582629352808E-3  
 2.696000000000000E10    4.940032027661800E-3  -2.436149166896939E-3  
 2.698000000000000E10   -2.803358249366283E-3  -4.420615732669830E-3  
 2.700000000000000E10   -3.603349672630429E-3   3.597320755943656E-3  
 2.702000000000000E10    4.057026933878660E-3   3.586959093809128E-3  
 2.704000000000000E10    3.047670004889369E-3  -4.731120076030493E-3  
 2.706000000000000E10   -4.621480591595173E-3  -2.267363946884871E-3  
 2.708000000000000E10   -1.810965128242970E-3   4.893552977591753E-3  
 2.710000000000000E10    5.224015098065138E-3   9.543883497826755E-4  
 2.712000000000000E10    5.695206345990300E-4  -5.713633261620998E-3  
 2.714000000000000E10   -5.322486627846956E-3  -1.358666195301339E-4  
 2.716000000000000E10    7.951384177431464E-4   5.582350771874189E-3  
 2.718000000000000E10    5.757698789238930E-3  -1.880154828540981E-3  
 2.720000000000000E10   -2.349710091948509E-3  -5.706897005438805E-3  
 2.722000000000000E10   -5.445436574518681E-3   2.767177531495690E-3  
 2.724000000000000E10    3.460802370682359E-3   5.310172215104103E-3  
 2.726000000000000E10    4.535743501037359E-3  -4.569114185869694E-3  
 2.728000000000000E10   -5.024067126214504E-3  -4.186408128589392E-3  
 2.730000000000000E10   -4.198374692350626E-3   5.240812432020903E-3  
 2.732000000000000E10    5.686731077730656E-3   3.041099058464170E-3  
 2.734000000000000E10    2.543808659538627E-3  -6.338123697787523E-3  
 2.736000000000000E10   -6.456622388213873E-3  -2.473207423463464E-3  
 2.738000000000000E10   -1.067625358700752E-3   6.454060319811106E-3  
 2.740000000000000E10    6.531377322971821E-3   1.790555252227932E-4  
 2.742000000000000E10   -7.607849547639489E-4  -6.384407170116901E-3  
 2.744000000000000E10   -6.226946599781513E-3   1.494177267886698E-3  
 2.746000000000000E10    1.980573404580355E-3   6.363419815897942E-3  
 2.748000000000000E10    5.480025429278612E-3  -3.027427010238171E-3  
 2.750000000000000E10   -3.796742530539632E-3  -5.382341332733631E-3  
 2.752000000000000E10   -5.106712225824595E-3   3.988137934356928E-3  
 2.754000000000000E10    5.376168992370367E-3   4.477269481867552E-3  
 2.756000000000000E10    3.655370092019439E-3  -5.912098567932844E-3  
