#  HZ   S   RI   R     50.00 
! Rohde & Schwarz ZVA40 4Ports - Version 3.90 - 1145.1110k42 SN: 100403
! Date: 2023-10-04 08:37:27
! Measurement: S12 
! 
 2.200000000000000E10   -1.135856751352549E-2  -3.741600317880511E-3  
 2.202000000000000E10   -2.096189884468913E-3   1.202301867306233E-2  
 2.204000000000000E10    1.151056773960590E-2   8.206771453842521E-4  
 2.206000000000000E10   -1.001787371933460E-3  -1.129026152193546E-2  
 2.208000000000000E10   -1.119210198521614E-2   1.817617565393448E-3  
 2.210000000000000E10    3.017996205016971E-3   1.094173919409514E-2  
 2.212000000000000E10    1.049449481070042E-2  -4.353791940957308E-3  
 2.214000000000000E10   -4.923382773995400E-3  -9.954188950359821E-3  
 2.216000000000000E10   -9.503825567662716E-3   6.273745559155941E-3  
 2.218000000000000E10    7.634573150426149E-3   8.478824049234390E-3  
 2.220000000000000E10    7.321828976273537E-3  -8.153843693435192E-3  
 2.222000000000000E10   -8.639866486191750E-3  -6.523481570184231E-3  
 2.224000000000000E10   -5.875270348042250E-3   9.891632944345474E-3  
 2.226000000000000E10    1.050571259111166E-2   4.115621559321880E-3  
 2.228000000000000E10    2.919122343882918E-3  -1.056309416890144E-2  
 2.230000000000000E10   -1.078245043754578E-2  -1.629115780815482E-3  
 2.232000000000000E10   -4.886331735178828E-4   1.112945284694433E-2  
 2.234000000000000E10    1.135308481752873E-2  -1.651583355851471E-3  
 2.236000000000000E10   -2.562678419053555E-3  -1.013579592108727E-2  
 2.238000000000000E10   -1.007677894085646E-2   3.083322662860155E-3  
 2.240000000000000E10    4.385502077639103E-3   1.011267304420471E-2  
 2.242000000000000E10    9.176996536552906E-3  -5.597332958132029E-3  
 2.244000000000000E10   -6.665439810603857E-3  -8.630448952317238E-3  
 2.246000000000000E10   -7.651227992027998E-3   7.658064365386963E-3  
 2.248000000000000E10    8.290876634418964E-3   6.432405207306147E-3  
 2.250000000000000E10    5.457810591906309E-3  -9.700418449938297E-3  
 2.252000000000000E10   -9.591262787580490E-3  -3.729442600160837E-3  
 2.254000000000000E10   -2.881702501326799E-3   9.818541817367077E-3  
 2.256000000000000E10    1.050334703177214E-2   1.622222946025431E-3  
 2.258000000000000E10    2.678031451068819E-4  -1.051741559058428E-2  
 2.260000000000000E10   -1.003979705274105E-2  -1.516216289019212E-4  
 2.262000000000000E10    1.181735191494227E-3   9.604696184396744E-3  
 2.264000000000000E10    9.631237946450710E-3  -2.825935604050756E-3  
 2.266000000000000E10   -3.546970197930932E-3  -1.016038469970226E-2  
 2.268000000000000E10   -8.752443827688694E-3   4.885800182819367E-3  
 2.270000000000000E10    5.851699505001307E-3   7.601168937981129E-3  
 2.272000000000000E10    7.295293733477593E-3  -6.116846110671759E-3  
 2.274000000000000E10   -6.911832373589277E-3  -6.748447194695473E-3  
 2.276000000000000E10   -5.674661602824926E-3   7.912385277450085E-3  
 2.278000000000000E10    8.414526470005512E-3   4.039191175252199E-3  
 2.280000000000000E10    3.370495047420263E-3  -8.990704081952572E-3  
 2.282000000000000E10   -5.875525064766407E-3  -7.688297890126705E-3  
 2.284000000000000E10   -1.203028601594269E-3   9.105113334953785E-3  
 2.286000000000000E10    9.430488571524620E-3  -1.967966818483546E-4  
 2.288000000000000E10   -8.807659614831209E-4  -9.352492168545723E-3  
 2.290000000000000E10   -9.045857004821301E-3   2.014012774452567E-3  
 2.292000000000000E10    3.041176125407219E-3   8.182574994862080E-3  
 2.294000000000000E10    7.762438617646694E-3  -4.239014815539122E-3  
 2.296000000000000E10   -4.721643403172493E-3  -7.578498218208551E-3  
 2.298000000000000E10   -7.095279637724161E-3   5.403451155871153E-3  
 2.300000000000000E10    6.606292445212603E-3   5.704961717128754E-3  
 2.302000000000000E10    4.922348074615002E-3  -7.508223876357079E-3  
 2.304000000000000E10   -7.919990457594395E-3  -4.201306961476803E-3  
 2.306000000000000E10   -2.961351536214352E-3   8.451205678284168E-3  
 2.308000000000000E10    8.597014471888542E-3   1.592533430084586E-3  
 2.310000000000000E10    9.739011293277144E-4  -9.089561179280281E-3  
 2.312000000000000E10   -9.057505987584591E-3   2.704847247514408E-5  
 2.314000000000000E10    1.364511786960065E-3   8.684347383677959E-3  
 2.316000000000000E10    8.555962704122067E-3  -2.522269263863564E-3  
 2.318000000000000E10   -3.438872285187244E-3  -8.346900343894959E-3  
 2.320000000000000E10   -7.391531951725483E-3   4.385437350720167E-3  
 2.322000000000000E10    5.202353931963444E-3   6.865836679935455E-3  
 2.324000000000000E10    5.771032534539700E-3  -6.465217564254999E-3  
 2.326000000000000E10   -6.699374411255121E-3  -4.487054422497749E-3  
 2.328000000000000E10   -3.206343855708838E-3   7.785825990140438E-3  
 2.330000000000000E10    7.811641786247492E-3   2.262921072542667E-3  
 2.332000000000000E10    1.407125499099493E-3  -7.571071386337280E-3  
 2.334000000000000E10   -7.733963429927826E-3  -1.592216140124947E-4  
 2.336000000000000E10    6.975997821427882E-4   8.334928192198277E-3  
 2.338000000000000E10    8.151689544320107E-3  -2.017632592469454E-3  
 2.340000000000000E10   -2.689422108232975E-3  -7.371955085545778E-3  
 2.342000000000000E10   -6.905875168740749E-3   3.984936047345400E-3  
 2.344000000000000E10    4.944981075823307E-3   7.209834177047014E-3  
 2.346000000000000E10    6.133590359240770E-3  -5.284704733639956E-3  
 2.348000000000000E10   -5.918290466070175E-3  -5.425096489489079E-3  
 2.350000000000000E10   -4.686204250901938E-3   6.857829168438911E-3  
 2.352000000000000E10    7.714037317782641E-3   3.217088757082820E-3  
 2.354000000000000E10    1.626595621928573E-3  -7.753734011203051E-3  
 2.356000000000000E10   -6.999561563134193E-3  -5.534549709409475E-4  
 2.358000000000000E10    8.893731865100563E-4   7.059274241328239E-3  
 2.360000000000000E10    7.352136541157961E-3  -1.891564461402595E-3  
 2.362000000000000E10   -2.905623987317085E-3  -6.666431669145823E-3  
 2.364000000000000E10   -5.969203077256680E-3   3.560899989679456E-3  
 2.366000000000000E10    4.876374732702971E-3   5.675133783370256E-3  
 2.368000000000000E10    4.798734094947577E-3  -5.433008540421724E-3  
 2.370000000000000E10   -6.163197569549084E-3  -3.823686391115189E-3  
 2.372000000000000E10   -3.124883631244302E-3   6.741033401340246E-3  
 2.374000000000000E10    7.087706588208675E-3   2.303531626239419E-3  
 2.376000000000000E10    1.251834095455706E-3  -6.892690900713205E-3  
 2.378000000000000E10   -7.344896905124188E-3  -6.072942633181810E-4  
 2.380000000000000E10    4.020021297037602E-4   7.305131293833256E-3  
 2.382000000000000E10    7.045221049338579E-3  -1.115383114665747E-3  
 2.384000000000000E10   -2.455914858728647E-3  -5.923043936491013E-3  
 2.386000000000000E10   -5.644344259053469E-3   3.433574689552188E-3  
 2.388000000000000E10    4.149432759732008E-3   5.558276083320379E-3  
 2.390000000000000E10    3.498449921607971E-3  -4.601747728884220E-3  
 2.392000000000000E10   -5.435391329228878E-3  -2.218678593635559E-3  
 2.394000000000000E10   -2.225291915237904E-3   4.949565045535564E-3  
 2.396000000000000E10    4.972559399902821E-3   1.170399948023260E-3  
 2.398000000000000E10    2.812756574712694E-4  -5.081470590084791E-3  
 2.400000000000000E10   -5.220246035605669E-3   6.541940383613110E-4  
 2.402000000000000E10    2.849806100130081E-3   4.872966557741165E-3  
 2.404000000000000E10    4.940565209835768E-3  -2.639269689098001E-3  
 2.406000000000000E10   -3.655821783468127E-3  -4.105773754417896E-3  
 2.408000000000000E10   -3.945393487811089E-3   4.111604765057564E-3  
 2.410000000000000E10    4.376583267003298E-3   3.229264868423343E-3  
 2.412000000000000E10    2.808414399623871E-3  -4.363168962299824E-3  
 2.414000000000000E10   -4.645904060453177E-3  -2.826260635629296E-3  
 2.416000000000000E10   -1.798300305381417E-3   4.569904878735542E-3  
 2.418000000000000E10    4.459650255739689E-3   8.469125605188310E-4  
 2.420000000000000E10    1.137579558417201E-3  -4.221671260893345E-3  
 2.422000000000000E10   -3.656876273453236E-3  -5.866930587217212E-4  
 2.424000000000000E10    2.755193854682148E-4   3.507522633299232E-3  
 2.426000000000000E10    3.544724313542247E-3  -6.351143238134682E-4  
 2.428000000000000E10   -1.386444782838225E-3  -3.323247889056802E-3  
 2.430000000000000E10   -3.327612066641450E-3   2.198593690991402E-3  
 2.432000000000000E10    2.994963200762868E-3   2.260071458294988E-3  
 2.434000000000000E10    2.016877755522728E-3  -3.636435605585575E-3  
 2.436000000000000E10   -4.200328141450882E-3  -2.236958825960755E-3  
 2.438000000000000E10   -1.113374717533588E-3   4.028392489999533E-3  
 2.440000000000000E10    4.428460728377104E-3   8.188503561541438E-4  
 2.442000000000000E10    4.435893788468093E-4  -4.719080869108439E-3  
 2.444000000000000E10   -4.399755969643593E-3   4.074547323398292E-4  
 2.446000000000000E10    3.190827264916152E-4   3.713376354426146E-3  
 2.448000000000000E10    3.339123912155628E-3  -9.132543927989900E-4  
 2.450000000000000E10   -7.713867234997451E-4  -3.149701515212655E-3  
 2.452000000000000E10   -3.208603942766786E-3   1.022774376906455E-3  
 2.454000000000000E10    1.571943284943700E-3   2.373216673731804E-3  
 2.456000000000000E10    2.099153352901340E-3  -1.366755459457636E-3  
 2.458000000000000E10   -1.764731365256012E-3  -1.594323315657675E-3  
 2.460000000000000E10   -1.445381902158260E-3   2.125263912603259E-3  
 2.462000000000000E10    2.277842955663800E-3   1.937933848239481E-3  
 2.464000000000000E10    8.753741858527064E-4  -3.366586053743959E-3  
 2.466000000000000E10   -3.001317381858826E-3  -3.219399659428746E-4  
 2.468000000000000E10    6.037812272552401E-5   3.047166857868433E-3  
 2.470000000000000E10    3.322128672152758E-3  -6.050015799701214E-4  
 2.472000000000000E10   -9.603113867342472E-4  -2.927576890215278E-3  
 2.474000000000000E10   -3.197520039975643E-3   1.613229280337691E-3  
 2.476000000000000E10    1.461207168176770E-3   2.844647271558642E-3  
 2.478000000000000E10    2.309361705556512E-3  -1.960661960765719E-3  
 2.480000000000000E10   -2.220206195488572E-3  -2.493501175194979E-3  
 2.482000000000000E10   -1.882026903331280E-3   2.164963399991393E-3  
 2.484000000000000E10    2.005534945055842E-3   1.347682322375476E-3  
 2.486000000000000E10    1.241785241290927E-3  -2.396281575784087E-3  
 2.488000000000000E10   -1.834341092035174E-3  -1.050701714120805E-3  
 2.490000000000000E10   -7.690746570006013E-4   2.137280069291592E-3  
 2.492000000000000E10    2.233307575806975E-3   7.650015177205205E-4  
 2.494000000000000E10    3.643791424110532E-4  -2.107081701979041E-3  
 2.496000000000000E10   -2.658652374520898E-3   2.441461547277868E-4  
 2.498000000000000E10    3.820534911938012E-4   2.286967588588595E-3  
 2.500000000000000E10    2.025307854637504E-3  -1.270664739422500E-3  
 2.502000000000000E10   -1.866642967797816E-3  -2.359903650358319E-3  
 2.504000000000000E10   -1.656243461184204E-3   2.008126582950354E-3  
 2.506000000000000E10    2.094512572512031E-3   1.234365394338965E-3  
 2.508000000000000E10    1.593506545759738E-3  -2.314452780410647E-3  
 2.510000000000000E10   -1.903648488223553E-3  -1.401276560500264E-3  
 2.512000000000000E10   -9.466781048104167E-4   2.612810581922531E-3  
 2.514000000000000E10    2.118579111993313E-3   8.742799400351942E-4  
 2.516000000000000E10    7.679587579332292E-4  -2.044448861852288E-3  
 2.518000000000000E10   -2.532446524128318E-3  -4.049578274134547E-4  
 2.520000000000000E10   -1.037251568050124E-4   1.868725637905300E-3  
 2.522000000000000E10    2.038800856098533E-3   1.640052505536005E-5  
 2.524000000000000E10   -2.393457543803379E-4  -1.972496975213289E-3  
 2.526000000000000E10   -1.832083798944950E-3   4.440557968337089E-4  
 2.528000000000000E10    7.389927632175386E-4   1.998465042561293E-3  
 2.530000000000000E10    1.611652784049511E-3  -9.526418289169669E-4  
 2.532000000000000E10   -1.501552877016366E-3  -1.286555314436555E-3  
 2.534000000000000E10   -9.904369944706559E-4   2.285093534737825E-3  
 2.536000000000000E10    1.958975568413734E-3   4.644342989195138E-4  
 2.538000000000000E10    5.800088401883841E-4  -1.405300688929856E-3  
 2.540000000000000E10   -1.600072602741420E-3  -3.453846375123248E-6  
 2.542000000000000E10    4.056689431308769E-5   1.998392399400473E-3  
 2.544000000000000E10    2.025665249675512E-3   7.061460200930014E-5  
 2.546000000000000E10   -2.739711198955774E-4  -1.238920376636088E-3  
 2.548000000000000E10   -1.759187318384647E-3   3.512521507218480E-4  
 2.550000000000000E10    5.943123833276331E-4   2.009287010878325E-3  
 2.552000000000000E10    1.876413472928107E-3  -3.152087156195194E-4  
 2.554000000000000E10   -5.014861235395074E-4  -1.526746549643576E-3  
 2.556000000000000E10   -1.187913352623582E-3   6.675166077911854E-4  
 2.558000000000000E10    1.117345062084496E-3   1.642573974095285E-3  
 2.560000000000000E10    1.634531654417515E-3  -8.273015264421701E-4  
 2.562000000000000E10   -8.205220219679177E-4  -9.777668165042996E-4  
 2.564000000000000E10   -1.307298662140966E-3   1.726086484268308E-3  
 2.566000000000000E10    1.919867121614516E-3   1.318596070632339E-3  
 2.568000000000000E10    3.040850278921425E-4  -1.440639258362353E-3  
 2.570000000000000E10   -1.560462173074484E-3   2.256334119010717E-4  
 2.572000000000000E10    7.292271766345948E-5   1.163584180176258E-3  
 2.574000000000000E10    1.507351757027209E-3  -3.985943621955812E-4  
 2.576000000000000E10   -6.595162558369339E-4  -1.636307337321341E-3  
 2.578000000000000E10   -1.313323271460831E-3   9.240587241947651E-4  
 2.580000000000000E10    1.036273315548897E-3   1.225653453730047E-3  
 2.582000000000000E10    8.158450364135206E-4  -1.034395070746541E-3  
 2.584000000000000E10   -1.465378445573151E-3  -2.853352343663573E-4  
 2.586000000000000E10   -1.043724943883717E-3   6.376447272486985E-4  
 2.588000000000000E10    4.661343991756439E-4   6.565665826201439E-4  
 2.590000000000000E10    3.015473193954676E-4  -1.546421786770225E-3  
 2.592000000000000E10   -1.047526369802654E-3  -6.291987374424934E-4  
 2.594000000000000E10   -5.800777580589056E-4   9.359340183436871E-4  
 2.596000000000000E10    9.936604183167219E-4   3.910480591002852E-4  
 2.598000000000000E10    1.633132487768307E-4  -1.237113960087299E-3  
 2.600000000000000E10   -1.757269841618836E-3  -7.582668331451714E-5  
 2.602000000000000E10   -5.274123977869749E-4   9.760721004568040E-4  
 2.604000000000000E10    8.064688299782574E-4  -1.369436504319310E-4  
 2.606000000000000E10   -3.206185647286475E-4  -1.070689409971237E-3  
 2.608000000000000E10   -1.187863526865840E-3  -2.443408884573728E-4  
 2.610000000000000E10    4.896937753073871E-5   8.545710588805378E-4  
 2.612000000000000E10    8.202479220926762E-4  -3.808560722973198E-4  
 2.614000000000000E10   -2.408539148746058E-4  -1.049230573698878E-3  
 2.616000000000000E10   -5.373773165047169E-4   6.066160276532173E-4  
 2.618000000000000E10    3.364807635080069E-4   6.906613998580724E-5  
 2.620000000000000E10    3.712154284585267E-4   1.131776627971703E-7  
 2.622000000000000E10   -3.562027268344536E-5  -3.176139434799552E-4  
 2.624000000000000E10   -2.741551725193858E-4   1.013731016428210E-4  
 2.626000000000000E10    5.151143996044993E-4  -2.330006282136310E-5  
 2.628000000000000E10    4.907812690362334E-4  -3.388650366105139E-4  
 2.630000000000000E10   -2.579650208645035E-5  -8.078898536041379E-4  
 2.632000000000000E10    1.049108686856926E-4   4.175263165961951E-4  
 2.634000000000000E10    8.527353056706488E-4   3.411779762245715E-4  
 2.636000000000000E10    6.446679471991956E-4  -4.404814972076565E-4  
 2.638000000000000E10   -3.621087817009538E-4  -1.430687261745334E-4  
 2.640000000000000E10   -4.201449046377093E-4   8.281824411824346E-4  
 2.642000000000000E10    8.372479351237416E-4   4.573666665237397E-4  
 2.644000000000000E10    7.696856046095491E-4  -8.404542459174991E-4  
 2.646000000000000E10   -5.508096073754132E-4  -8.441237732768059E-4  
 2.648000000000000E10   -4.281186265870929E-4   2.715097798500210E-4  
 2.650000000000000E10    1.277836156077683E-3   1.091125886887312E-3  
 2.652000000000000E10    1.364916330203414E-3  -1.123595284298062E-3  
 2.654000000000000E10   -8.518728427588940E-4  -4.779283772222698E-4  
 2.656000000000000E10   -9.665784309618175E-4   1.234093913808465E-3  
 2.658000000000000E10    1.580322161316872E-3   1.021991833113134E-3  
 2.660000000000000E10    6.192492437548935E-4  -1.955950399860740E-3  
 2.662000000000000E10   -1.638904213905335E-3  -1.893895969260484E-4  
 2.664000000000000E10    1.835437287809327E-4   1.461424631997943E-3  
 2.666000000000000E10    1.885438687168062E-3  -7.742799352854490E-4  
 2.668000000000000E10   -8.987691835500300E-4  -1.929971622303128E-3  
 2.670000000000000E10   -1.849449938163161E-3   8.299744804389775E-4  
 2.672000000000000E10    9.480185690335929E-4   1.960156951099634E-3  
 2.674000000000000E10    1.716334023512900E-3  -1.892702188342810E-3  
 2.676000000000000E10   -2.126813400536776E-3  -1.836751005612314E-3  
 2.678000000000000E10   -1.879259594716132E-3   2.268381882458925E-3  
 2.680000000000000E10    2.423135098069906E-3   1.466833055019379E-3  
 2.682000000000000E10    1.097395899705589E-3  -3.203107742592692E-3  
 2.684000000000000E10   -3.464033594354987E-3  -1.408367301337421E-3  
 2.686000000000000E10   -1.058138790540397E-3   3.440579166635871E-3  
 2.688000000000000E10    3.837253898382187E-3  -4.004028160125017E-4  
 2.690000000000000E10   -7.306308252736926E-4  -3.799661295488477E-3  
 2.692000000000000E10   -3.447606693953276E-3   9.659930947236717E-4  
 2.694000000000000E10    1.115291845053434E-3   3.407812910154462E-3  
 2.696000000000000E10    3.132699755951762E-3  -1.745788729749620E-3  
 2.698000000000000E10   -1.949530211277306E-3  -2.813199302181602E-3  
 2.700000000000000E10   -2.953262999653816E-3   2.370192436501384E-3  
 2.702000000000000E10    2.332141390070319E-3   2.275716746225953E-3  
 2.704000000000000E10    1.573665416799486E-3  -2.834635786712170E-3  
 2.706000000000000E10   -3.404919058084488E-3  -1.379773835651577E-3  
 2.708000000000000E10   -1.348634134046733E-3   3.220866667106748E-3  
 2.710000000000000E10    3.763923654332757E-3   9.237098274752498E-4  
 2.712000000000000E10    3.612023720052093E-4  -3.849591827020049E-3  
 2.714000000000000E10   -3.720775945112109E-3   2.313115255674347E-4  
 2.716000000000000E10    6.891008233651519E-4   4.324919078499079E-3  
 2.718000000000000E10    4.454198293387890E-3  -5.797842168249190E-4  
 2.720000000000000E10   -1.496629323810339E-3  -3.946070093661547E-3  
 2.722000000000000E10   -4.533024504780769E-3   1.986557850614190E-3  
 2.724000000000000E10    2.232991391792893E-3   3.984609618782997E-3  
 2.726000000000000E10    3.782902378588915E-3  -2.738021546974778E-3  
 2.728000000000000E10   -3.224430605769157E-3  -3.302902681753039E-3  
 2.730000000000000E10   -2.757670357823372E-3   3.371551400050521E-3  
 2.732000000000000E10    4.048819653689861E-3   2.683607628569007E-3  
 2.734000000000000E10    2.539670793339610E-3  -4.031407181173563E-3  
 2.736000000000000E10   -4.337104968726635E-3  -1.590006751939654E-3  
 2.738000000000000E10   -8.217892027460039E-4   5.344293080270290E-3  
 2.740000000000000E10    4.917551763355732E-3   5.758928018622100E-4  
 2.742000000000000E10   -4.563250404316932E-4  -4.784457385540009E-3  
 2.744000000000000E10   -5.075815133750439E-3   9.834044612944126E-4  
 2.746000000000000E10    1.359630725346506E-3   4.742489662021399E-3  
 2.748000000000000E10    4.874929785728455E-3  -2.124508377164602E-3  
 2.750000000000000E10   -2.530817873775959E-3  -4.502910189330578E-3  
 2.752000000000000E10   -4.100629594177008E-3   2.944504376500845E-3  
 2.754000000000000E10    3.926107659935951E-3   4.355834797024727E-3  
 2.756000000000000E10    3.428532509133220E-3  -4.158328287303448E-3  
