#  HZ   S   RI   R     50.00 
! Rohde & Schwarz ZVA40 4Ports - Version 3.90 - 1145.1110k42 SN: 100403
! Date: 2023-10-04 08:38:05
! Measurement: S12 
! 
 2.200000000000000E10   -3.470017109066248E-3  -3.433682257309556E-3  
 2.202000000000000E10   -2.401787089183927E-3   3.774377284571528E-3  
 2.204000000000000E10    3.611819585785270E-3   1.884392229840159E-3  
 2.206000000000000E10    1.450667739845812E-3  -3.645008197054267E-3  
 2.208000000000000E10   -4.057560116052628E-3  -2.509964106138796E-4  
 2.210000000000000E10   -1.542707177577540E-4   3.744029672816396E-3  
 2.212000000000000E10    3.499675309285522E-3   5.347330807126127E-5  
 2.214000000000000E10   -1.685589381850150E-6  -3.595653222873807E-3  
 2.216000000000000E10   -3.756740130484104E-3   3.887624770868570E-4  
 2.218000000000000E10    1.202047569677234E-3   3.067236393690109E-3  
 2.220000000000000E10    3.097988665103912E-3  -1.462746527977288E-3  
 2.222000000000000E10   -1.929900376126170E-3  -3.378532826900482E-3  
 2.224000000000000E10   -2.718130126595497E-3   2.448348561301827E-3  
 2.226000000000000E10    2.827130258083344E-3   2.145080128684640E-3  
 2.228000000000000E10    1.646415563300252E-3  -2.669179113581777E-3  
 2.230000000000000E10   -3.061491064727306E-3  -1.621852163225412E-3  
 2.232000000000000E10   -9.191340068355203E-4   2.974935108795762E-3  
 2.234000000000000E10    3.057142719626427E-3   1.518545759608969E-4  
 2.236000000000000E10    1.920294598676264E-4  -3.102668095380068E-3  
 2.238000000000000E10   -3.378592198714614E-3  -2.742490032687783E-4  
 2.240000000000000E10    5.420994712039828E-4   3.176934551447630E-3  
 2.242000000000000E10    3.270159009844065E-3  -9.882199810817838E-4  
 2.244000000000000E10   -1.084321062080562E-3  -2.526002237573266E-3  
 2.246000000000000E10   -2.767652040347457E-3   9.262711391784251E-4  
 2.248000000000000E10    1.108987256884575E-3   2.497240668162704E-3  
 2.250000000000000E10    2.604753943160176E-3  -1.612742780707777E-3  
 2.252000000000000E10   -2.045012312009931E-3  -2.768848557025194E-3  
 2.254000000000000E10   -1.815605559386313E-3   2.682394580915570E-3  
 2.256000000000000E10    2.823354676365852E-3   1.376765430904925E-3  
 2.258000000000000E10    1.197295845486224E-3  -3.214440075680614E-3  
 2.260000000000000E10   -3.868422936648130E-3  -4.284995084162802E-4  
 2.262000000000000E10    6.627653056057170E-5   3.042450640350580E-3  
 2.264000000000000E10    2.691326662898064E-3  -6.583321955986321E-4  
 2.266000000000000E10   -8.317885803990066E-4  -2.839368069544435E-3  
 2.268000000000000E10   -3.268442815169692E-3   8.496413938701153E-4  
 2.270000000000000E10    1.439406536519527E-3   2.924610394984484E-3  
 2.272000000000000E10    2.289500320330262E-3  -2.222485374659300E-3  
 2.274000000000000E10   -1.527664368040860E-3  -2.703527687117457E-3  
 2.276000000000000E10   -2.381655387580395E-3   2.342629013583064E-3  
 2.278000000000000E10    2.535706851631403E-3   1.814094604924321E-3  
 2.280000000000000E10    1.197015400975943E-3  -2.740502590313554E-3  
 2.282000000000000E10   -1.333685475401580E-3  -2.438107272610068E-3  
 2.284000000000000E10   -9.321951074525714E-4   3.076012013480067E-3  
 2.286000000000000E10    3.244381863623858E-3   3.025079204235226E-4  
 2.288000000000000E10   -2.195390698034316E-4  -3.212312702089548E-3  
 2.290000000000000E10   -2.983572427183390E-3   5.906023434363306E-4  
 2.292000000000000E10    1.148206880316138E-3   2.730138367041946E-3  
 2.294000000000000E10    2.557145198807120E-3  -1.778822275809944E-3  
 2.296000000000000E10   -1.522021950222552E-3  -2.234600484371185E-3  
 2.298000000000000E10   -1.931007835082710E-3   1.732853823341429E-3  
 2.300000000000000E10    2.305861329659820E-3   1.273604342713952E-3  
 2.302000000000000E10    1.326962490566075E-3  -2.583825495094061E-3  
 2.304000000000000E10   -3.079037647694349E-3  -1.081706839613617E-3  
 2.306000000000000E10   -8.110413327813149E-4   3.009531646966934E-3  
 2.308000000000000E10    2.851302269846201E-3   3.677298664115369E-4  
 2.310000000000000E10    1.628238169359975E-5  -3.375692758709192E-3  
 2.312000000000000E10   -3.758156439289451E-3   4.678345867432654E-4  
 2.314000000000000E10    5.644058692269027E-4   3.357105655595660E-3  
 2.316000000000000E10    3.266659332439303E-3  -1.343977870419622E-3  
 2.318000000000000E10   -1.433131052181125E-3  -3.323387354612351E-3  
 2.320000000000000E10   -2.963871462270618E-3   1.955781597644091E-3  
 2.322000000000000E10    2.322348067536950E-3   2.629108494147658E-3  
 2.324000000000000E10    2.441710559651256E-3  -2.595470519736409E-3  
 2.326000000000000E10   -2.819820540025830E-3  -1.583589240908623E-3  
 2.328000000000000E10   -8.712248527444899E-4   3.467258065938950E-3  
 2.330000000000000E10    3.427764400839806E-3   5.673250998370349E-4  
 2.332000000000000E10    1.002520439215004E-4  -3.484327811747789E-3  
 2.334000000000000E10   -3.782916115596890E-3   6.221113726496697E-4  
 2.336000000000000E10    1.523584825918078E-3   4.223702009767294E-3  
 2.338000000000000E10    4.087516106665134E-3  -1.893130014650524E-3  
 2.340000000000000E10   -2.122005214914680E-3  -3.896186128258705E-3  
 2.342000000000000E10   -3.536131465807557E-3   3.415087470784783E-3  
 2.344000000000000E10    3.885055892169476E-3   2.898864215239883E-3  
 2.346000000000000E10    2.511412836611271E-3  -3.845253493636847E-3  
 2.348000000000000E10   -3.662982257083058E-3  -1.698700478300452E-3  
 2.350000000000000E10   -1.483118161559105E-3   4.120414610952139E-3  
 2.352000000000000E10    4.593873862177134E-3   1.409821561537683E-3  
 2.354000000000000E10    3.651808365248144E-4  -4.627452231943607E-3  
 2.356000000000000E10   -4.589220043271780E-3   7.042069337330759E-4  
 2.358000000000000E10    1.602883450686932E-3   4.303962923586369E-3  
 2.360000000000000E10    4.091734066605568E-3  -2.258172491565347E-3  
 2.362000000000000E10   -2.912633121013641E-3  -3.944321535527706E-3  
 2.364000000000000E10   -3.268769942224026E-3   3.634708933532238E-3  
 2.366000000000000E10    4.361560568213463E-3   2.597833983600140E-3  
 2.368000000000000E10    2.286439761519432E-3  -4.843540024012327E-3  
 2.370000000000000E10   -5.137898959219456E-3  -1.177186262793839E-3  
 2.372000000000000E10   -6.891632801853120E-4   5.381933879107237E-3  
 2.374000000000000E10    5.472012795507908E-3   3.673031460493803E-4  
 2.376000000000000E10   -8.643189212307334E-4  -5.172653123736382E-3  
 2.378000000000000E10   -5.636535584926605E-3   1.578327384777367E-3  
 2.380000000000000E10    1.982776215299964E-3   5.995046813040972E-3  
 2.382000000000000E10    5.521395243704319E-3  -2.937085460871458E-3  
 2.384000000000000E10   -3.302478697150946E-3  -4.726231098175049E-3  
 2.386000000000000E10   -4.153015092015266E-3   4.571808967739344E-3  
 2.388000000000000E10    5.009946878999472E-3   4.109514877200127E-3  
 2.390000000000000E10    2.818011445924640E-3  -4.953258205205202E-3  
 2.392000000000000E10   -5.308711435645819E-3  -1.436928170733154E-3  
 2.394000000000000E10   -1.000283984467387E-3   5.978460889309645E-3  
 2.396000000000000E10    5.840739700943232E-3   5.570451612584293E-4  
 2.398000000000000E10   -1.184485387057066E-3  -5.317554343491793E-3  
 2.400000000000000E10   -4.846590571105480E-3   1.976298633962870E-3  
 2.402000000000000E10    3.691755235195160E-3   4.614667966961861E-3  
 2.404000000000000E10    3.880695207044482E-3  -4.147631116211414E-3  
 2.406000000000000E10   -4.432030487805605E-3  -3.320568241178989E-3  
 2.408000000000000E10   -2.490800572559238E-3   5.700850859284401E-3  
 2.410000000000000E10    5.802893545478582E-3   2.217648783698678E-3  
 2.412000000000000E10    1.953618368133903E-3  -5.772588308900595E-3  
 2.414000000000000E10   -6.113162729889154E-3  -1.188402879051864E-3  
 2.416000000000000E10   -1.403267669957131E-4   6.003455258905888E-3  
 2.418000000000000E10    6.271689198911190E-3  -2.280242333654314E-4  
 2.420000000000000E10   -6.067691720090807E-4  -6.116949021816254E-3  
 2.422000000000000E10   -5.377621389925480E-3   8.003537659533322E-4  
 2.424000000000000E10    1.717459876090288E-3   5.097046028822660E-3  
 2.426000000000000E10    4.426732193678618E-3  -2.044954337179661E-3  
 2.428000000000000E10   -2.367582172155380E-3  -4.301097709685564E-3  
 2.430000000000000E10   -4.021829925477505E-3   3.092722501605749E-3  
 2.432000000000000E10    3.365227719768882E-3   2.667382592335343E-3  
 2.434000000000000E10    2.530984580516815E-3  -4.742619581520557E-3  
 2.436000000000000E10   -5.210398696362972E-3  -1.747180242091417E-3  
 2.438000000000000E10   -1.084838761016727E-3   5.012299399822950E-3  
 2.440000000000000E10    5.451282486319542E-3   5.155467079021037E-4  
 2.442000000000000E10   -1.650762133067474E-4  -5.496281664818525E-3  
 2.444000000000000E10   -5.840162746608257E-3   6.789779290556908E-4  
 2.446000000000000E10    1.326087978668511E-3   5.681699607521296E-3  
 2.448000000000000E10    5.170990712940693E-3  -1.926094177179039E-3  
 2.450000000000000E10   -2.547872718423605E-3  -5.557652562856674E-3  
 2.452000000000000E10   -4.784093238413334E-3   2.987091196700931E-3  
 2.454000000000000E10    3.334396751597524E-3   4.284844733774662E-3  
 2.456000000000000E10    3.999210428446531E-3  -3.498635953292251E-3  
 2.458000000000000E10   -3.687856486067176E-3  -3.321969648823142E-3  
 2.460000000000000E10   -2.832306548953056E-3   4.203754942864180E-3  
 2.462000000000000E10    4.245835356414318E-3   2.169888466596603E-3  
 2.464000000000000E10    1.708534546196461E-3  -3.892885055392981E-3  
 2.466000000000000E10   -4.692394752055407E-3  -1.165653578937054E-3  
 2.468000000000000E10   -4.354066331870854E-4   5.109531339257956E-3  
 2.470000000000000E10    4.804894328117371E-3  -2.898170205298811E-4  
 2.472000000000000E10   -1.414585742168129E-3  -4.766788799315691E-3  
 2.474000000000000E10   -4.259050358086824E-3   1.905953628011048E-3  
 2.476000000000000E10    2.330154180526733E-3   4.458898212760687E-3  
 2.478000000000000E10    4.088001325726509E-3  -2.985112369060516E-3  
 2.480000000000000E10   -3.027546918019652E-3  -3.342163981869817E-3  
 2.482000000000000E10   -3.698923159390688E-3   3.751028329133987E-3  
 2.484000000000000E10    3.898942610248923E-3   3.615819383412600E-3  
 2.486000000000000E10    2.752259839326143E-3  -4.313760437071323E-3  
 2.488000000000000E10   -4.806062206625938E-3  -2.297874772921205E-3  
 2.490000000000000E10   -1.895828638225794E-3   4.507776349782944E-3  
 2.492000000000000E10    4.324635956436396E-3   1.387659111060202E-3  
 2.494000000000000E10    9.325791615992785E-4  -5.081401206552982E-3  
 2.496000000000000E10   -5.068349651992321E-3  -3.571855195332319E-4  
 2.498000000000000E10    1.758674916345626E-4   4.617549013346434E-3  
 2.500000000000000E10    4.420749377459288E-3  -9.883994935080409E-4  
 2.502000000000000E10   -1.614885404706001E-3  -4.282515496015549E-3  
 2.504000000000000E10   -3.599969437345862E-3   2.207295503467321E-3  
 2.506000000000000E10    2.343953121453524E-3   3.082475392147899E-3  
 2.508000000000000E10    2.748982748016715E-3  -2.763886470347643E-3  
 2.510000000000000E10   -3.730783937498927E-3  -3.181290114298463E-3  
 2.512000000000000E10   -2.628390677273274E-3   3.460554871708155E-3  
 2.514000000000000E10    4.003963898867369E-3   2.092163078486919E-3  
 2.516000000000000E10    1.702614827081561E-3  -4.937896504998207E-3  
 2.518000000000000E10   -4.630730021744967E-3  -1.545418985188007E-3  
 2.520000000000000E10   -9.373725042678416E-4   4.812665749341250E-3  
 2.522000000000000E10    4.750723950564861E-3  -2.447335573378950E-4  
 2.524000000000000E10    1.070986763807014E-5  -4.466161131858826E-3  
 2.526000000000000E10   -4.583157133311033E-3   4.134207265451551E-4  
 2.528000000000000E10    7.292128284461796E-4   4.624227993190289E-3  
 2.530000000000000E10    4.907669033855200E-3  -1.203377265483141E-3  
 2.532000000000000E10   -2.663129707798362E-3  -4.226048942655325E-3  
 2.534000000000000E10   -3.433101344853640E-3   2.641403116285801E-3  
 2.536000000000000E10    3.473857650533319E-3   3.348154481500387E-3  
 2.538000000000000E10    2.420944161713123E-3  -4.011814948171377E-3  
 2.540000000000000E10   -3.728699870407581E-3  -1.592745189554989E-3  
 2.542000000000000E10   -6.639587227255106E-4   4.195970948785543E-3  
 2.544000000000000E10    4.052764736115933E-3   6.142244674265385E-4  
 2.546000000000000E10    4.987858701497316E-4  -4.076680634170771E-3  
 2.548000000000000E10   -4.127312451601028E-3   5.223698681220412E-4  
 2.550000000000000E10    1.166381873190403E-3   4.545160569250584E-3  
 2.552000000000000E10    3.923998679965735E-3  -1.177160651423037E-3  
 2.554000000000000E10   -1.958738313987851E-3  -3.358637681230903E-3  
 2.556000000000000E10   -3.353594802320004E-3   2.384144579991698E-3  
 2.558000000000000E10    2.888100687414408E-3   3.153852419927716E-3  
 2.560000000000000E10    2.747166436165571E-3  -2.804009011015296E-3  
 2.562000000000000E10   -2.946942811831832E-3  -2.341113286092877E-3  
 2.564000000000000E10   -2.126647159457207E-3   3.458098508417606E-3  
 2.566000000000000E10    3.908323589712381E-3   2.313666045665741E-3  
 2.568000000000000E10    1.576617592945695E-3  -4.521268419921398E-3  
 2.570000000000000E10   -4.640679340809584E-3  -5.866942228749394E-4  
 2.572000000000000E10    2.947640023194253E-4   4.757233895361424E-3  
 2.574000000000000E10    4.733396694064140E-3  -2.805511758197099E-4  
 2.576000000000000E10   -1.368841738440096E-3  -4.065516404807568E-3  
 2.578000000000000E10   -3.815043950453401E-3   1.813884475268424E-3  
 2.580000000000000E10    1.872653607279062E-3   3.794254269450903E-3  
 2.582000000000000E10    2.758695278316736E-3  -2.388903638347983E-3  
 2.584000000000000E10   -3.297978779301047E-3  -2.546946052461863E-3  
 2.586000000000000E10   -2.483948599547148E-3   3.571236738935113E-3  
 2.588000000000000E10    3.690797369927168E-3   1.558109768666327E-3  
 2.590000000000000E10    1.147101284004748E-3  -4.008220043033361E-3  
 2.592000000000000E10   -3.709916025400162E-3  -1.134672667831183E-3  
 2.594000000000000E10   -3.274183836765587E-4   3.922224510461092E-3  
 2.596000000000000E10    4.171579144895077E-3   1.590473402757198E-4  
 2.598000000000000E10   -9.180569904856384E-4  -3.950049635022879E-3  
 2.600000000000000E10   -4.111756104975939E-3   1.345010008662939E-3  
 2.602000000000000E10    1.447624177671969E-3   3.959557507187128E-3  
 2.604000000000000E10    3.135388949885964E-3  -2.164168050512672E-3  
 2.606000000000000E10   -2.592629985883832E-3  -3.100159112364054E-3  
 2.608000000000000E10   -2.820846159011126E-3   2.708511427044869E-3  
 2.610000000000000E10    3.191821509972215E-3   2.106663305312395E-3  
 2.612000000000000E10    2.144835656508803E-3  -3.345438512042165E-3  
 2.614000000000000E10   -3.368238452821970E-3  -1.619251910597086E-3  
 2.616000000000000E10   -1.241473481059074E-3   3.225527005270124E-3  
 2.618000000000000E10    3.787838388234377E-3   1.184989116154611E-3  
 2.620000000000000E10   -1.419909240212292E-4  -3.601484466344118E-3  
 2.622000000000000E10   -3.311001928523183E-3   4.073331365361810E-4  
 2.624000000000000E10    9.399504633620381E-4   2.982316771522164E-3  
 2.626000000000000E10    2.798678586259484E-3  -1.504934160038829E-3  
 2.628000000000000E10   -1.280268421396613E-3  -2.817459870129824E-3  
 2.630000000000000E10   -1.605343655683100E-3   1.479157246649265E-3  
 2.632000000000000E10    2.539668930694461E-3   1.530193141661584E-3  
 2.634000000000000E10    2.191874897107482E-3  -2.426048507913947E-3  
 2.636000000000000E10   -2.254915190860629E-3  -1.244436949491501E-3  
 2.638000000000000E10   -8.945527370087802E-4   2.508494770154357E-3  
 2.640000000000000E10    3.237390890717506E-3   3.441408043727279E-4  
 2.642000000000000E10    5.200242158025503E-4  -3.322475589811802E-3  
 2.644000000000000E10   -2.591018564999104E-3  -1.484067033743486E-4  
 2.646000000000000E10    7.148373406380415E-4   2.620786661282182E-3  
 2.648000000000000E10    2.937654498964548E-3  -1.229371526278555E-3  
 2.650000000000000E10   -1.222898019477725E-3  -2.720763906836510E-3  
 2.652000000000000E10   -1.947724726051092E-3   1.725448295474052E-3  
 2.654000000000000E10    2.054201439023018E-3   1.730912481434643E-3  
 2.656000000000000E10    1.697788713499904E-3  -2.495696302503347E-3  
 2.658000000000000E10   -2.001201268285513E-3  -3.229792928323150E-4  
 2.660000000000000E10   -7.812378316884860E-5   2.285593189299107E-3  
 2.662000000000000E10    2.413835609331727E-3  -2.431291213724762E-4  
 2.664000000000000E10   -1.886865502456203E-4  -1.948949880897999E-3  
 2.666000000000000E10   -2.171043539419770E-3   7.920995703898370E-4  
 2.668000000000000E10    1.081146532669663E-3   1.514573465101421E-3  
 2.670000000000000E10    1.216699369251728E-3  -1.541243167594075E-3  
 2.672000000000000E10   -1.636560773476958E-3  -1.318790717050433E-3  
 2.674000000000000E10   -9.657361661083996E-4   1.634174259379506E-3  
 2.676000000000000E10    1.584209268912673E-3   6.302319816313684E-4  
 2.678000000000000E10    4.120736557524651E-4  -2.114452887326479E-3  
 2.680000000000000E10   -1.734298770315945E-3   2.836481144186109E-5  
 2.682000000000000E10   -2.204474294558168E-4   1.804203027859330E-3  
 2.684000000000000E10    1.622347277589142E-3  -5.205505876801908E-4  
 2.686000000000000E10   -1.007919199764729E-3  -1.417292631231248E-3  
 2.688000000000000E10   -1.503491192124784E-3   8.159636054188013E-4  
 2.690000000000000E10    4.561471869237721E-4   7.742732414044440E-4  
 2.692000000000000E10    1.832152192946523E-4  -1.295659458264709E-3  
 2.694000000000000E10   -1.056401990354061E-3  -4.503356176428497E-4  
 2.696000000000000E10   -3.765172150451690E-4   8.134059025906026E-4  
 2.698000000000000E10    1.068665180355310E-3  -8.176507253665477E-5  
 2.700000000000000E10   -1.643264404265210E-4  -1.007336308248341E-3  
 2.702000000000000E10   -1.553421840071678E-3   4.790645907633007E-4  
 2.704000000000000E10    2.212747494922951E-4   1.625431701540947E-3  
 2.706000000000000E10    8.511953055858612E-4  -5.689122481271625E-4  
 2.708000000000000E10   -1.441687694750726E-3  -9.927990613505244E-4  
 2.710000000000000E10   -1.633550622500479E-3   1.222164020873606E-3  
 2.712000000000000E10    1.068109995685518E-3   1.075190841220319E-3  
 2.714000000000000E10    4.082380619365722E-4  -1.176122692413628E-3  
 2.716000000000000E10   -1.298520364798605E-3  -5.903877317905426E-4  
 2.718000000000000E10   -5.020468379370868E-4   1.412597135640681E-3  
 2.720000000000000E10    1.353964558802545E-3   2.986618528666440E-5  
 2.722000000000000E10   -1.437455939594656E-4  -1.200585742481053E-3  
 2.724000000000000E10   -1.513202674686909E-3   7.301612058654428E-4  
 2.726000000000000E10    2.792136219795793E-4   1.578238792717457E-3  
 2.728000000000000E10    1.367204706184566E-3  -8.026250288821757E-4  
 2.730000000000000E10   -1.243871869519353E-3  -9.389240294694901E-4  
 2.732000000000000E10   -1.399987144395709E-3   1.360670896247029E-3  
 2.734000000000000E10    1.948070479556918E-3   1.165704336017370E-3  
 2.736000000000000E10    8.302764035761356E-4  -1.886871992610395E-3  
 2.738000000000000E10   -1.909037469886243E-3  -5.095073720440269E-4  
 2.740000000000000E10   -3.445965121500194E-4   2.496981527656317E-3  
 2.742000000000000E10    2.192580141127110E-3   5.434982595033944E-4  
 2.744000000000000E10   -1.225427404278889E-4  -2.021140418946743E-3  
 2.746000000000000E10   -1.930299797095358E-3   8.133222581818700E-4  
 2.748000000000000E10    8.350621210411191E-4   2.114201197400689E-3  
 2.750000000000000E10    2.077039564028382E-3  -1.183335902169347E-3  
 2.752000000000000E10   -1.468584407120943E-3  -1.275259419344366E-3  
 2.754000000000000E10   -1.265562488697469E-3   1.655737403780222E-3  
 2.756000000000000E10    2.076123142614961E-3   1.356708700768650E-3  
