#  HZ   S   RI   R     50.00 
! Rohde & Schwarz ZVA40 4Ports - Version 3.90 - 1145.1110k42 SN: 100403
! Date: 2023-10-04 08:38:31
! Measurement: S12 
! 
 2.200000000000000E10   -3.345395671203733E-4   1.594352943357080E-4  
 2.202000000000000E10    6.606623646803200E-4   1.338231377303600E-3  
 2.204000000000000E10    1.252943649888039E-3  -7.603313424624503E-4  
 2.206000000000000E10   -1.235327799804509E-3  -2.421455428702757E-4  
 2.208000000000000E10   -7.757784624118358E-5   5.261467304080725E-4  
 2.210000000000000E10    8.523038704879582E-4   8.389775175601244E-4  
 2.212000000000000E10    5.213987315073609E-4  -9.006034233607352E-4  
 2.214000000000000E10   -1.277698785997927E-3   5.501537816599011E-4  
 2.216000000000000E10    3.534500428941101E-4   1.237811055034399E-3  
 2.218000000000000E10    1.482819672673941E-3  -1.171673648059368E-4  
 2.220000000000000E10   -9.152008569799364E-4  -1.084488350898027E-3  
 2.222000000000000E10   -4.187032463960350E-4   9.005965548567474E-4  
 2.224000000000000E10    9.924509795382619E-4   8.269406971521676E-4  
 2.226000000000000E10    1.022150623612106E-3  -7.216212688945234E-4  
 2.228000000000000E10   -1.100915018469095E-3  -1.195171280414797E-4  
 2.230000000000000E10    3.464531619101763E-4   1.398524036630988E-3  
 2.232000000000000E10    1.282031298615038E-3   4.419394535943866E-4  
 2.234000000000000E10   -1.220723061123863E-4  -1.174046308733523E-3  
 2.236000000000000E10   -1.348644378595054E-3   8.427322027273476E-4  
 2.238000000000000E10    2.938889374490827E-4   6.950694369152188E-4  
 2.240000000000000E10    1.113986596465111E-3  -1.223142608068883E-4  
 2.242000000000000E10   -1.101808389648795E-3  -1.112787402234972E-3  
 2.244000000000000E10   -7.241793209686875E-4   1.056882203556597E-3  
 2.246000000000000E10    8.235686109401286E-4   3.634311142377555E-4  
 2.248000000000000E10    4.126582352910191E-4  -3.441465087234974E-4  
 2.250000000000000E10   -1.018807524815202E-3  -5.872291512787342E-4  
 2.252000000000000E10   -5.313133588060737E-4   1.570398570038378E-3  
 2.254000000000000E10    1.366654760204256E-3   5.417588399723172E-4  
 2.256000000000000E10   -1.663322473177686E-4  -1.475217752158642E-3  
 2.258000000000000E10   -1.726619084365666E-3   6.875685648992658E-4  
 2.260000000000000E10    3.087599761784077E-4   1.574699883349240E-3  
 2.262000000000000E10    1.018226263113320E-3  -6.287263822741807E-4  
 2.264000000000000E10   -3.678625507745892E-4  -1.098673790693283E-3  
 2.266000000000000E10   -1.772424322552979E-3   4.384318890515715E-5  
 2.268000000000000E10    1.148846116848290E-3   1.511938986368477E-3  
 2.270000000000000E10    1.820180099457502E-3  -9.264186955988407E-4  
 2.272000000000000E10   -7.991958409547806E-4  -1.132978359237313E-3  
 2.274000000000000E10   -7.719809655100107E-4   1.641932642087340E-3  
 2.276000000000000E10    1.550545799545944E-3   8.688630769029260E-4  
 2.278000000000000E10    3.910088562406600E-4  -1.691351179033518E-3  
 2.280000000000000E10   -1.636858913116157E-3  -3.652595623861998E-4  
 2.282000000000000E10   -1.305045676417649E-3   1.081788446754217E-3  
 2.284000000000000E10    2.438851399347186E-3  -9.486958879278973E-5  
 2.286000000000000E10   -1.841204211814329E-4  -2.390564652159810E-3  
 2.288000000000000E10   -2.383566927164793E-3   9.443986346013844E-4  
 2.290000000000000E10    1.232109847478569E-3   2.184686949476600E-3  
 2.292000000000000E10    2.237824024632573E-3  -1.384750241413713E-3  
 2.294000000000000E10   -1.470100018195808E-3  -1.925780554302037E-3  
 2.296000000000000E10   -1.676230109296739E-3   1.548521569930017E-3  
 2.298000000000000E10    1.679009408690035E-3   1.848284155130386E-3  
 2.300000000000000E10    2.144723897799850E-3  -2.122165169566870E-3  
 2.302000000000000E10   -2.283518668264151E-3  -1.538531854748726E-3  
 2.304000000000000E10   -9.056505514308810E-4   2.314091194421053E-3  
 2.306000000000000E10    2.473149448633194E-3   5.137464031577110E-4  
 2.308000000000000E10    2.671757247298956E-4  -2.882810076698661E-3  
 2.310000000000000E10   -2.383638406172395E-3  -6.202208169270307E-5  
 2.312000000000000E10    6.284102564677596E-4   2.544300165027380E-3  
 2.314000000000000E10    2.563899848610163E-3  -1.253377296961844E-3  
 2.316000000000000E10   -1.003254204988480E-3  -2.411117311567068E-3  
 2.318000000000000E10   -2.382287057116628E-3   1.339062582701445E-3  
 2.320000000000000E10    2.096914453431964E-3   2.242289250716567E-3  
 2.322000000000000E10    2.398902550339699E-3  -2.160617848858237E-3  
 2.324000000000000E10   -2.486103679984808E-3  -2.099941484630108E-3  
 2.326000000000000E10   -2.102450933307409E-3   2.670425688847899E-3  
 2.328000000000000E10    2.994113136082888E-3   2.028790069743991E-3  
 2.330000000000000E10    1.195855322293937E-3  -3.208911046385765E-3  
 2.332000000000000E10   -3.541159676387906E-3  -1.309701241552830E-3  
 2.334000000000000E10   -7.858669850975275E-4   3.733659395948052E-3  
 2.336000000000000E10    3.936324734240770E-3   3.284917620476335E-4  
 2.338000000000000E10   -5.329641862772405E-5  -4.128398373723030E-3  
 2.340000000000000E10   -3.529705340042710E-3   8.714573923498392E-4  
 2.342000000000000E10    1.009955070912838E-3   3.814069321379066E-3  
 2.344000000000000E10    3.613943699747324E-3  -1.643335097469389E-3  
 2.346000000000000E10   -2.037973375990987E-3  -3.537822049111128E-3  
 2.348000000000000E10   -3.823243081569672E-3   2.382240490987897E-3  
 2.350000000000000E10    3.270876826718450E-3   2.882120665162802E-3  
 2.352000000000000E10    2.526966854929924E-3  -4.323337227106094E-3  
 2.354000000000000E10   -4.703416954725981E-3  -1.950677717104554E-3  
 2.356000000000000E10   -1.126190065406263E-3   4.971168935298920E-3  
 2.358000000000000E10    5.605828482657671E-3   4.806625656783581E-4  
 2.360000000000000E10   -5.026418948546052E-4  -5.906241945922375E-3  
 2.362000000000000E10   -5.616931710392237E-3   1.145445392467082E-3  
 2.364000000000000E10    1.654947060160339E-3   5.245386622846127E-3  
 2.366000000000000E10    5.136516410857439E-3  -2.304026857018471E-3  
 2.368000000000000E10   -2.622901927679777E-3  -5.103085190057755E-3  
 2.370000000000000E10   -5.088304169476032E-3   3.140450688079000E-3  
 2.372000000000000E10    3.690701210871339E-3   4.636595956981182E-3  
 2.374000000000000E10    3.827824490144849E-3  -4.562427289783955E-3  
 2.376000000000000E10   -4.967461805790663E-3  -3.588331397622824E-3  
 2.378000000000000E10   -2.923880238085985E-3   4.758454859256744E-3  
 2.380000000000000E10    5.308629479259253E-3   2.053895965218544E-3  
 2.382000000000000E10    1.113605103455484E-3  -6.118700839579105E-3  
 2.384000000000000E10   -5.896512884646654E-3   1.288864878006280E-4  
 2.386000000000000E10    7.812222465872765E-4   6.131349597126246E-3  
 2.388000000000000E10    5.798612721264362E-3  -2.370972419157624E-3  
 2.390000000000000E10   -3.775291610509157E-3  -5.624412093311548E-3  
 2.392000000000000E10   -5.185314454138279E-3   3.723355941474438E-3  
 2.394000000000000E10    4.840585403144360E-3   4.558246117085218E-3  
 2.396000000000000E10    4.023868124932051E-3  -5.770818330347538E-3  
 2.398000000000000E10   -6.752058863639832E-3  -3.712120931595564E-3  
 2.400000000000000E10   -2.577587030827999E-3   7.187227252870798E-3  
 2.402000000000000E10    7.167636882513762E-3   1.267172512598336E-3  
 2.404000000000000E10    3.361358249094337E-4  -7.225559558719397E-3  
 2.406000000000000E10   -7.734388113021851E-3   7.061106734909117E-4  
 2.408000000000000E10    8.198314462788403E-4   7.482585031539202E-3  
 2.410000000000000E10    6.393689662218094E-3  -2.016643760725856E-3  
 2.412000000000000E10   -3.027914557605982E-3  -6.184664554893971E-3  
 2.414000000000000E10   -5.979207810014486E-3   3.571352921426296E-3  
 2.416000000000000E10    4.488163162022829E-3   5.122833419591188E-3  
 2.418000000000000E10    4.120097495615482E-3  -4.616419319063425E-3  
 2.420000000000000E10   -5.115965381264687E-3  -3.553076414391398E-3  
 2.422000000000000E10   -2.854732098057866E-3   5.828682798892260E-3  
 2.424000000000000E10    5.990869365632534E-3   2.952200127765536E-3  
 2.426000000000000E10    1.313919085077941E-3  -6.325579714030027E-3  
 2.428000000000000E10   -6.690596695989370E-3  -1.472201256547123E-4  
 2.430000000000000E10   -1.255771203432232E-4   7.220149040222168E-3  
 2.432000000000000E10    6.864588707685471E-3  -1.281433971598744E-3  
 2.434000000000000E10   -2.165732439607382E-3  -6.560644134879112E-3  
 2.436000000000000E10   -7.031471002846956E-3   3.373395418748260E-3  
 2.438000000000000E10    3.833519062027335E-3   5.956462584435940E-3  
 2.440000000000000E10    5.454719532281160E-3  -4.156848881393671E-3  
 2.442000000000000E10   -4.782231524586678E-3  -4.715050105005503E-3  
 2.444000000000000E10   -3.904845565557480E-3   5.363124888390303E-3  
 2.446000000000000E10    5.159959197044373E-3   4.152821376919746E-3  
 2.448000000000000E10    3.165897214785218E-3  -5.135233514010906E-3  
 2.450000000000000E10   -5.108724813908339E-3  -2.435470698401332E-3  
 2.452000000000000E10   -1.892537344247103E-3   5.927679594606161E-3  
 2.454000000000000E10    5.684014875441790E-3   9.962922194972634E-4  
 2.456000000000000E10    7.212656200863421E-4  -5.765721667557955E-3  
 2.458000000000000E10   -5.772442091256380E-3   3.613277222029865E-4  
 2.460000000000000E10    1.222852501086891E-3   5.353422835469246E-3  
 2.462000000000000E10    5.533766932785511E-3  -2.077393699437380E-3  
 2.464000000000000E10   -2.838229062035680E-3  -5.230708979070187E-3  
 2.466000000000000E10   -5.296845454722643E-3   2.887788461521268E-3  
 2.468000000000000E10    4.063483793288469E-3   5.055439192801714E-3  
 2.470000000000000E10    4.435938782989979E-3  -5.256772972643375E-3  
 2.472000000000000E10   -5.602390505373478E-3  -3.833106253296137E-3  
 2.474000000000000E10   -3.386978758499026E-3   5.434407386928797E-3  
 2.476000000000000E10    5.783729255199432E-3   2.748134313151240E-3  
 2.478000000000000E10    2.412884728983045E-3  -6.318753119558096E-3  
 2.480000000000000E10   -6.014329846948385E-3  -1.689526019617915E-3  
 2.482000000000000E10   -1.180623774416745E-3   5.774133838713169E-3  
 2.484000000000000E10    6.416650954633951E-3   2.346221444895491E-4  
 2.486000000000000E10   -7.908726693131030E-4  -6.528516300022602E-3  
 2.488000000000000E10   -5.537567660212517E-3   1.383730792440474E-3  
 2.490000000000000E10    2.427819417789578E-3   5.219077691435814E-3  
 2.492000000000000E10    4.753579385578632E-3  -3.077147295698524E-3  
 2.494000000000000E10   -3.149105468764901E-3  -4.542840644717217E-3  
 2.496000000000000E10   -3.993953112512827E-3   4.035698249936104E-3  
 2.498000000000000E10    5.049614701420069E-3   3.319974523037672E-3  
 2.500000000000000E10    3.191307419911027E-3  -5.129616241902113E-3  
 2.502000000000000E10   -5.464455112814903E-3  -2.259813714772463E-3  
 2.504000000000000E10   -1.035858411341906E-3   5.556134507060051E-3  
 2.506000000000000E10    5.640483926981688E-3   1.201703795231879E-3  
 2.508000000000000E10    1.353727537207305E-3  -6.093179341405630E-3  
 2.510000000000000E10   -5.438777152448893E-3  -4.982228856533766E-4  
 2.512000000000000E10    7.524517131969333E-4   5.957263987511396E-3  
 2.514000000000000E10    6.118004210293293E-3  -8.315747836604714E-4  
 2.516000000000000E10   -7.830574759282172E-4  -6.053568329662085E-3  
 2.518000000000000E10   -5.579207092523575E-3   2.500736620277166E-3  
 2.520000000000000E10    3.264433471485972E-3   5.288171116262674E-3  
 2.522000000000000E10    5.085104610770941E-3  -3.464242676272988E-3  
 2.524000000000000E10   -3.855943912640214E-3  -4.227431956678629E-3  
 2.526000000000000E10   -3.929719328880310E-3   4.026748705655336E-3  
 2.528000000000000E10    4.559350665658712E-3   2.988078398630023E-3  
 2.530000000000000E10    2.449149964377284E-3  -4.968751687556505E-3  
 2.532000000000000E10   -5.447015631943941E-3  -2.149266423657537E-3  
 2.534000000000000E10   -8.458196534775198E-4   5.981239024549723E-3  
 2.536000000000000E10    5.958162713795900E-3   2.179877483285964E-4  
 2.538000000000000E10   -7.465900853276253E-4  -5.971469450742006E-3  
 2.540000000000000E10   -6.016570143401623E-3   1.816388801671565E-3  
 2.542000000000000E10    2.008845796808600E-3   5.448392592370510E-3  
 2.544000000000000E10    4.804598633199930E-3  -2.940315986052156E-3  
 2.546000000000000E10   -3.738838946446776E-3  -4.699047654867172E-3  
 2.548000000000000E10   -4.796184133738279E-3   3.448213450610638E-3  
 2.550000000000000E10    4.810631740838289E-3   4.110944457352161E-3  
 2.552000000000000E10    2.955557545647025E-3  -5.187966860830784E-3  
 2.554000000000000E10   -5.304714664816856E-3  -2.657345263287425E-3  
 2.556000000000000E10   -1.913203974254429E-3   5.333524663001299E-3  
 2.558000000000000E10    5.202508065849543E-3   1.645561540499330E-3  
 2.560000000000000E10   -5.699343091691844E-5  -5.637638736516237E-3  
 2.562000000000000E10   -5.599046591669321E-3  -9.041452722158283E-5  
 2.564000000000000E10    1.395458675688133E-4   5.716986022889614E-3  
 2.566000000000000E10    5.989283788949251E-3  -1.472440431825817E-3  
 2.568000000000000E10   -2.795614534988999E-3  -5.756293423473835E-3  
 2.570000000000000E10   -4.671922419220209E-3   3.593500703573227E-3  
 2.572000000000000E10    4.079345613718033E-3   4.070835188031197E-3  
 2.574000000000000E10    3.847360843792558E-3  -4.368216264992952E-3  
 2.576000000000000E10   -5.295610520988703E-3  -3.250062698498368E-3  
 2.578000000000000E10   -2.167130587622523E-3   5.392203573137522E-3  
 2.580000000000000E10    5.346283316612244E-3   1.602608128450811E-3  
 2.582000000000000E10    1.047013793140650E-3  -5.904638674110174E-3  
 2.584000000000000E10   -5.855967290699482E-3  -3.119357570540160E-4  
 2.586000000000000E10    8.393357857130468E-4   6.239809095859528E-3  
 2.588000000000000E10    5.564957857131958E-3  -1.729386975057423E-3  
 2.590000000000000E10   -1.583342440426350E-3  -5.116075742989779E-3  
 2.592000000000000E10   -5.140150897204876E-3   2.515345346182585E-3  
 2.594000000000000E10    3.312519984319806E-3   5.246719345450401E-3  
 2.596000000000000E10    4.739149473607540E-3  -3.533101640641689E-3  
 2.598000000000000E10   -4.102793522179127E-3  -4.830049350857735E-3  
 2.600000000000000E10   -3.774355631321669E-3   4.902040120214224E-3  
 2.602000000000000E10    5.691593047231436E-3   3.153723198920488E-3  
 2.604000000000000E10    2.315699588507414E-3  -6.413377821445465E-3  
 2.606000000000000E10   -5.456132348626852E-3  -1.111367833800614E-3  
 2.608000000000000E10   -5.556711694225669E-4   5.563060287386179E-3  
 2.610000000000000E10    5.730164237320423E-3   3.620063653215766E-4  
 2.612000000000000E10   -4.427995590958744E-4  -5.552433431148529E-3  
 2.614000000000000E10   -5.920485127717257E-3   1.387247466482222E-3  
 2.616000000000000E10    2.256555249914527E-3   5.015450995415449E-3  
 2.618000000000000E10    4.759175702929497E-3  -2.592281205579639E-3  
 2.620000000000000E10   -3.529998939484358E-3  -4.397397860884666E-3  
 2.622000000000000E10   -3.270287765190005E-3   3.855717368423939E-3  
 2.624000000000000E10    4.083837848156691E-3   3.386829048395157E-3  
 2.626000000000000E10    2.947039436548948E-3  -4.400020930916071E-3  
 2.628000000000000E10   -4.769488237798214E-3  -2.351595554500818E-3  
 2.630000000000000E10   -1.860929420217872E-3   5.351044703274965E-3  
 2.632000000000000E10    5.251230672001839E-3   8.523496217094362E-4  
 2.634000000000000E10    2.217639994341880E-4  -5.465207621455193E-3  
 2.636000000000000E10   -5.584769416600466E-3  -9.143650095211342E-5  
 2.638000000000000E10    6.936688441783190E-4   4.911137744784355E-3  
 2.640000000000000E10    4.890580661594868E-3  -1.157936174422503E-3  
 2.642000000000000E10   -2.188667654991150E-3  -4.481632262468338E-3  
 2.644000000000000E10   -4.440501797944307E-3   2.587004797533155E-3  
 2.646000000000000E10    2.429515356197953E-3   4.143020603805780E-3  
 2.648000000000000E10    3.391520818695426E-3  -3.527767723426223E-3  
 2.650000000000000E10   -4.056917503476143E-3  -3.287066938355565E-3  
 2.652000000000000E10   -2.769504673779011E-3   4.638305399566889E-3  
 2.654000000000000E10    4.926049616187811E-3   1.485205837525427E-3  
 2.656000000000000E10    5.996607360430062E-4  -4.703884012997150E-3  
 2.658000000000000E10   -4.950451664626598E-3   1.032101354212500E-4  
 2.660000000000000E10    4.082020313944668E-4   4.448578692972660E-3  
 2.662000000000000E10    4.443441517651081E-3  -1.184022752568126E-3  
 2.664000000000000E10   -2.169602783396840E-3  -3.989959601312876E-3  
 2.666000000000000E10   -3.912958782166243E-3   1.809292705729604E-3  
 2.668000000000000E10    2.867013216018677E-3   3.315486013889313E-3  
 2.670000000000000E10    2.899577375501394E-3  -3.189308801665902E-3  
 2.672000000000000E10   -3.091720631346107E-3  -2.417349955067039E-3  
 2.674000000000000E10   -1.744086621329188E-3   3.786900546401739E-3  
 2.676000000000000E10    3.935073968023062E-3   1.537229982204735E-3  
 2.678000000000000E10    1.267663086764514E-3  -3.287358442321420E-3  
 2.680000000000000E10   -3.492594230920076E-3  -5.930538754910231E-4  
 2.682000000000000E10   -2.613543765619397E-4   3.575844923034310E-3  
 2.684000000000000E10    3.570063272491098E-3  -5.642427131533623E-4  
 2.686000000000000E10   -1.278311829082668E-3  -3.229906084015966E-3  
 2.688000000000000E10   -2.914633834734559E-3   1.532454625703394E-3  
 2.690000000000000E10    2.480356488376856E-3   2.670475048944354E-3  
 2.692000000000000E10    2.688484499230981E-3  -2.216625493019819E-3  
 2.694000000000000E10   -2.119925571605563E-3  -1.372513244859874E-3  
 2.696000000000000E10   -1.026034704409540E-3   3.064058255404234E-3  
 2.698000000000000E10    3.357334528118372E-3   1.073947059921920E-3  
 2.700000000000000E10    6.836316315457225E-4  -2.734002191573381E-3  
 2.702000000000000E10   -3.174728248268366E-3  -3.561342309694737E-4  
 2.704000000000000E10    3.938366717193276E-4   3.112676087766886E-3  
 2.706000000000000E10    3.234368516132236E-3  -6.206097896210849E-4  
 2.708000000000000E10   -6.264051189646125E-4  -2.875217469409108E-3  
 2.710000000000000E10   -2.155591966584325E-3   9.424042655155063E-4  
 2.712000000000000E10    2.006409224122763E-3   2.430781489238143E-3  
 2.714000000000000E10    2.502642339095473E-3  -1.723185763694346E-3  
 2.716000000000000E10   -1.782959909178317E-3  -1.463345019146800E-3  
 2.718000000000000E10   -1.386366318911314E-3   2.025018213316798E-3  
 2.720000000000000E10    2.520913025364280E-3   1.299158786423504E-3  
 2.722000000000000E10    7.624292047694325E-4  -2.218330046162009E-3  
 2.724000000000000E10   -2.490524435415864E-3  -7.727530901320279E-4  
 2.726000000000000E10   -1.247221953235567E-4   2.390459412708879E-3  
 2.728000000000000E10    2.895431127399206E-3  -3.762801061384380E-4  
 2.730000000000000E10   -6.314677884802222E-4  -2.675543306395412E-3  
 2.732000000000000E10   -2.247290685772896E-3   6.675117183476687E-4  
 2.734000000000000E10    1.221338985487819E-3   1.949435449205339E-3  
 2.736000000000000E10    1.752040581777692E-3  -1.491098664700985E-3  
 2.738000000000000E10   -1.788177993148565E-3  -1.988804899156094E-3  
 2.740000000000000E10   -1.840708311647177E-3   1.669920049607754E-3  
 2.742000000000000E10    2.039984567090869E-3   1.027533784508705E-3  
 2.744000000000000E10    7.116575725376606E-4  -2.531605772674084E-3  
 2.746000000000000E10   -2.801528433337808E-3  -9.539320017211139E-4  
 2.748000000000000E10   -6.812128121964634E-4   2.150144893676043E-3  
 2.750000000000000E10    2.194084459915757E-3   4.664969674195163E-5  
 2.752000000000000E10   -4.260640707798302E-4  -2.601940650492907E-3  
 2.754000000000000E10   -2.421408193185926E-3   1.659010158618912E-4  
 2.756000000000000E10    6.494757835753262E-4   2.358617959544063E-3  
