#  HZ   S   RI   R     50.00 
! Rohde & Schwarz ZVA40 4Ports - Version 3.90 - 1145.1110k42 SN: 100403
! Date: 2023-10-04 08:39:17
! Measurement: S12 
! 
 2.200000000000000E10    3.374566091224551E-3   3.977029118686914E-3  
 2.202000000000000E10    3.495129756629467E-3  -3.933633212000132E-3  
 2.204000000000000E10   -4.257916938513517E-3  -2.616214565932751E-3  
 2.206000000000000E10   -2.787312725558877E-3   4.409233573824167E-3  
 2.208000000000000E10    4.938085097819567E-3   2.050678012892604E-3  
 2.210000000000000E10    1.402515219524503E-3  -4.560361150652170E-3  
 2.212000000000000E10   -4.475912544876337E-3  -9.533773409202695E-4  
 2.214000000000000E10   -5.991694051772356E-4   5.545173306018114E-3  
 2.216000000000000E10    5.290091503411531E-3  -8.981588325696066E-5  
 2.218000000000000E10   -1.351829851046205E-3  -5.398327484726906E-3  
 2.220000000000000E10   -5.605509970337153E-3   1.581385615281761E-3  
 2.222000000000000E10    1.870016567409039E-3   5.028158426284790E-3  
 2.224000000000000E10    4.991200286895037E-3  -3.091011662036181E-3  
 2.226000000000000E10   -3.569934517145157E-3  -4.748092964291573E-3  
 2.228000000000000E10   -4.893207922577858E-3   3.980503883212805E-3  
 2.230000000000000E10    4.716283176094294E-3   4.698413424193859E-3  
 2.232000000000000E10    3.934926819056273E-3  -5.383450537919998E-3  
 2.234000000000000E10   -6.076989695429802E-3  -3.054946660995483E-3  
 2.236000000000000E10   -2.586433663964272E-3   6.079893093556166E-3  
 2.238000000000000E10    5.936784669756889E-3   1.738643273711205E-3  
 2.240000000000000E10    7.593377376906574E-4  -6.979687605053186E-3  
 2.242000000000000E10   -6.834161467850208E-3  -2.512573555577546E-4  
 2.244000000000000E10    4.285856994101778E-5   6.418386474251747E-3  
 2.246000000000000E10    6.189057137817144E-3  -1.389854587614536E-3  
 2.248000000000000E10   -1.857413793914020E-3  -6.265216041356325E-3  
 2.250000000000000E10   -6.445441395044327E-3   2.886251546442509E-3  
 2.252000000000000E10    3.537801792845130E-3   5.939947441220284E-3  
 2.254000000000000E10    5.163190886378288E-3  -4.178944975137711E-3  
 2.256000000000000E10   -5.165519658476114E-3  -5.106231197714806E-3  
 2.258000000000000E10   -4.254099447280169E-3   5.225629545748234E-3  
 2.260000000000000E10    5.192893557250500E-3   4.250394180417061E-3  
 2.262000000000000E10    2.910682000219822E-3  -6.323272828012705E-3  
 2.264000000000000E10   -6.362685468047857E-3  -2.630349015817046E-3  
 2.266000000000000E10   -1.954072387889028E-3   6.693594157695770E-3  
 2.268000000000000E10    6.832602433860302E-3   1.105090952478349E-3  
 2.270000000000000E10    4.523645911831409E-4  -6.849904544651508E-3  
 2.272000000000000E10   -7.251234725117683E-3   4.823259369004518E-4  
 2.274000000000000E10    9.588830871507525E-4   6.915837060660124E-3  
 2.276000000000000E10    6.832762621343136E-3  -1.467058900743723E-3  
 2.278000000000000E10   -2.879165578633547E-3  -6.668360438197851E-3  
 2.280000000000000E10   -5.909063387662172E-3   3.438556334003806E-3  
 2.282000000000000E10   -1.209885595017113E-4   6.876646075397730E-3  
 2.284000000000000E10    5.608968436717987E-3  -4.754596855491400E-3  
 2.286000000000000E10   -5.044492892920971E-3  -4.405833780765533E-3  
 2.288000000000000E10   -4.024161491543055E-3   5.781146697700024E-3  
 2.290000000000000E10    6.199161522090435E-3   3.610708517953754E-3  
 2.292000000000000E10    2.907418413087726E-3  -6.280338391661644E-3  
 2.294000000000000E10   -6.458053831011057E-3  -2.012937795370817E-3  
 2.296000000000000E10   -7.294382085092366E-4   7.193831726908684E-3  
 2.298000000000000E10    7.339064031839371E-3   8.395538316108286E-4  
 2.300000000000000E10    1.736592967063189E-4  -7.206265348941088E-3  
 2.302000000000000E10   -7.025959901511669E-3   1.672397949732840E-3  
 2.304000000000000E10    2.191748935729265E-3   7.606565486639738E-3  
 2.306000000000000E10    7.130466867238283E-3  -3.035573288798332E-3  
 2.308000000000000E10   -3.564329352229834E-3  -6.716411560773850E-3  
 2.310000000000000E10   -6.549446843564510E-3   4.674664698541164E-3  
 2.312000000000000E10    5.884549114853144E-3   5.847957916557789E-3  
 2.314000000000000E10    5.457108374685049E-3  -5.990456324070692E-3  
 2.316000000000000E10   -6.155116949230433E-3  -4.508559126406908E-3  
 2.318000000000000E10   -3.676296677440405E-3   7.101966999471188E-3  
 2.320000000000000E10    7.574469782412052E-3   2.853094832971692E-3  
 2.322000000000000E10    2.074508229270577E-3  -7.730951998382807E-3  
 2.324000000000000E10   -7.785219233483076E-3  -1.353134517557919E-3  
 2.326000000000000E10   -9.895054972730577E-5   8.279249072074890E-3  
 2.328000000000000E10    8.450755849480629E-3  -1.480796490795910E-3  
 2.330000000000000E10   -2.212250838056207E-3  -7.730334997177124E-3  
 2.332000000000000E10   -7.658711634576321E-3   2.939594909548760E-3  
 2.334000000000000E10    4.095252137631178E-3   7.079322822391987E-3  
 2.336000000000000E10    6.746422965079546E-3  -5.127631593495607E-3  
 2.338000000000000E10   -5.796134937554598E-3  -5.976687651127577E-3  
 2.340000000000000E10   -5.325783044099808E-3   6.421161349862814E-3  
 2.342000000000000E10    6.949284113943577E-3   5.308389663696289E-3  
 2.344000000000000E10    4.023505840450525E-3  -7.897050119936466E-3  
 2.346000000000000E10   -7.962924428284168E-3  -3.626619931310415E-3  
 2.348000000000000E10   -2.742047188803554E-3   8.564125746488571E-3  
 2.350000000000000E10    8.791619911789894E-3   1.724606845527887E-3  
 2.352000000000000E10    7.779874431435019E-5  -9.715466760098934E-3  
 2.354000000000000E10   -9.570172987878323E-3   9.429597412236035E-4  
 2.356000000000000E10    2.001501154154539E-3   9.143172763288021E-3  
 2.358000000000000E10    9.059241972863674E-3  -3.055565757676959E-3  
 2.360000000000000E10   -4.369925707578659E-3  -8.450853638350964E-3  
 2.362000000000000E10   -7.669008336961269E-3   4.953308030962944E-3  
 2.364000000000000E10    6.081908009946346E-3   7.067407947033644E-3  
 2.366000000000000E10    5.773813929408789E-3  -6.921539083123207E-3  
 2.368000000000000E10   -7.324154954403639E-3  -5.522383842617273E-3  
 2.370000000000000E10   -4.394735675305128E-3   7.957823574542999E-3  
 2.372000000000000E10    8.306298404932022E-3   3.428570227697492E-3  
 2.374000000000000E10    2.508963691070676E-3  -9.819591417908669E-3  
 2.376000000000000E10   -1.021003723144531E-2  -1.361210946924985E-3  
 2.378000000000000E10    2.232948754681274E-4   1.020095963031054E-2  
 2.380000000000000E10    1.103495899587870E-2  -1.485292799770832E-3  
 2.382000000000000E10   -3.024365985766053E-3  -1.048428099602461E-2  
 2.384000000000000E10   -1.030508428812027E-2   4.616885446012020E-3  
 2.386000000000000E10    5.798532161861658E-3   1.002216618508101E-2  
 2.388000000000000E10    9.047884494066238E-3  -7.359083276242018E-3  
 2.390000000000000E10   -8.251000195741653E-3  -8.679799735546112E-3  
 2.392000000000000E10   -6.815611850470305E-3   8.770182728767395E-3  
 2.394000000000000E10    9.413619525730610E-3   5.817918106913567E-3  
 2.396000000000000E10    4.898452199995518E-3  -1.027647033333778E-2  
 2.398000000000000E10   -1.033696252852678E-2  -3.206345951184630E-3  
 2.400000000000000E10   -1.240073586814106E-3   1.039995625615120E-2  
 2.402000000000000E10    1.036500558257103E-2  -6.491343956440687E-4  
 2.404000000000000E10   -2.202528761699796E-3  -1.003670226782560E-2  
 2.406000000000000E10   -9.324287995696068E-3   3.415875602513552E-3  
 2.408000000000000E10    4.826482385396957E-3   9.070128202438355E-3  
 2.410000000000000E10    8.340992033481598E-3  -5.930983927100897E-3  
 2.412000000000000E10   -6.602710578590632E-3  -7.933986373245716E-3  
 2.414000000000000E10   -7.197629194706678E-3   8.080225437879562E-3  
 2.416000000000000E10    8.980226702988148E-3   6.279177963733673E-3  
 2.418000000000000E10    5.419414490461350E-3  -9.900351986289024E-3  
 2.420000000000000E10   -1.042492035776377E-2  -4.088339861482382E-3  
 2.422000000000000E10   -3.257170086726546E-3   1.050780713558197E-2  
 2.424000000000000E10    1.117806229740381E-2   2.323686145246029E-3  
 2.426000000000000E10    9.772891644388437E-4  -1.127814874053001E-2  
 2.428000000000000E10   -1.121307723224163E-2  -1.778189325705171E-4  
 2.430000000000000E10    1.100565306842327E-3   1.133188698440790E-2  
 2.432000000000000E10    1.060294732451439E-2  -2.519177272915840E-3  
 2.434000000000000E10   -4.092494025826454E-3  -1.047423295676708E-2  
 2.436000000000000E10   -9.583945386111736E-3   5.670875776559115E-3  
 2.438000000000000E10    5.916847847402096E-3   8.476634509861469E-3  
 2.440000000000000E10    7.432749029248953E-3  -7.152586244046688E-3  
 2.442000000000000E10   -8.127882145345211E-3  -6.302632857114077E-3  
 2.444000000000000E10   -5.230573937296867E-3   8.584013208746910E-3  
 2.446000000000000E10    8.873877115547657E-3   4.074381664395332E-3  
 2.448000000000000E10    2.580282278358936E-3  -9.062434546649456E-3  
 2.450000000000000E10   -9.876595810055733E-3  -2.233377890661359E-3  
 2.452000000000000E10   -7.194869103841484E-4   1.012075878679752E-2  
 2.454000000000000E10    9.516680613160133E-3  -3.885061305481941E-4  
 2.456000000000000E10   -1.263340353034437E-3  -9.953397326171398E-3  
 2.458000000000000E10   -1.002072822302580E-2   2.256847918033600E-3  
 2.460000000000000E10    3.315538400784135E-3   9.827634319663048E-3  
 2.462000000000000E10    9.109909646213055E-3  -4.495270084589720E-3  
 2.464000000000000E10   -5.101648159325123E-3  -8.420999161899090E-3  
 2.466000000000000E10   -8.533682674169540E-3   6.025939248502255E-3  
 2.468000000000000E10    6.811815779656172E-3   7.212076801806688E-3  
 2.470000000000000E10    6.152273621410132E-3  -7.776192855089903E-3  
 2.472000000000000E10   -8.246323093771935E-3  -5.258831195533276E-3  
 2.474000000000000E10   -4.418258555233479E-3   7.888306863605976E-3  
 2.476000000000000E10    8.574879728257656E-3   3.631777362897992E-3  
 2.478000000000000E10    2.663186751306057E-3  -8.858351968228817E-3  
 2.480000000000000E10   -8.837426081299782E-3  -1.470378250814974E-3  
 2.482000000000000E10   -3.270809247624129E-4   9.260390885174274E-3  
 2.484000000000000E10    9.554748423397541E-3  -6.053565302863717E-4  
 2.486000000000000E10   -2.503942931070924E-3  -9.373621083796024E-3  
 2.488000000000000E10   -8.942694403231144E-3   3.752504475414753E-3  
 2.490000000000000E10    4.741134587675333E-3   8.019891567528248E-3  
 2.492000000000000E10    7.504642475396395E-3  -5.565031431615353E-3  
 2.494000000000000E10   -6.395431701093912E-3  -7.503596600145102E-3  
 2.496000000000000E10   -6.239016540348530E-3   7.341390941292048E-3  
 2.498000000000000E10    7.838073186576366E-3   5.696196574717760E-3  
 2.500000000000000E10    4.798274021595717E-3  -8.096333593130112E-3  
 2.502000000000000E10   -9.128064848482609E-3  -3.721952205523849E-3  
 2.504000000000000E10   -2.787570469081402E-3   9.195138700306416E-3  
 2.506000000000000E10    8.621041662991047E-3   1.826972584240139E-3  
 2.508000000000000E10    8.342412183992565E-4  -8.507751859724522E-3  
 2.510000000000000E10   -9.445935487747192E-3  -2.571892109699547E-4  
 2.512000000000000E10    6.046736962161958E-4   9.287460707128048E-3  
 2.514000000000000E10    8.704038336873055E-3  -1.344589632935822E-3  
 2.516000000000000E10   -2.551388461142778E-3  -8.632061071693897E-3  
 2.518000000000000E10   -8.449351415038109E-3   4.207454621791840E-3  
 2.520000000000000E10    5.090073216706514E-3   8.424660190939903E-3  
 2.522000000000000E10    7.166341878473759E-3  -6.125107873231173E-3  
 2.524000000000000E10   -7.065955549478531E-3  -6.049729418009520E-3  
 2.526000000000000E10   -5.497621838003397E-3   7.910609245300293E-3  
 2.528000000000000E10    8.313945494592190E-3   4.421719815582037E-3  
 2.530000000000000E10    3.859144635498524E-3  -9.030546061694622E-3  
 2.532000000000000E10   -9.596524760127068E-3  -2.072268398478627E-3  
 2.534000000000000E10   -1.197935082018375E-3   1.009236834943295E-2  
 2.536000000000000E10    1.010662317276001E-2   8.446651918347925E-5  
 2.538000000000000E10   -1.398204592987895E-3  -9.865676984190941E-3  
 2.540000000000000E10   -9.423028677701950E-3   2.423812868073583E-3  
 2.542000000000000E10    3.415132407099009E-3   9.097794070839882E-3  
 2.544000000000000E10    8.704446256160736E-3  -4.144543781876564E-3  
 2.546000000000000E10   -4.342884756624699E-3  -8.819322101771832E-3  
 2.548000000000000E10   -7.533770985901356E-3   5.870181135833263E-3  
 2.550000000000000E10    7.563390769064426E-3   7.097736466675997E-3  
 2.552000000000000E10    6.248256657272577E-3  -8.541746996343136E-3  
 2.554000000000000E10   -8.761158213019371E-3  -4.639921709895134E-3  
 2.556000000000000E10   -3.031459636986256E-3   8.882296271622181E-3  
 2.558000000000000E10    9.779680520296097E-3   1.673050923272967E-3  
 2.560000000000000E10    5.836574127897620E-4  -9.973262436687946E-3  
 2.562000000000000E10   -9.204478003084660E-3  -1.420574408257380E-4  
 2.564000000000000E10    1.741122337989509E-3   9.191050194203854E-3  
 2.566000000000000E10    1.037350576370955E-2  -3.069869475439191E-3  
 2.568000000000000E10   -4.348354879766703E-3  -9.975279681384563E-3  
 2.570000000000000E10   -8.338942192494869E-3   6.158830132335424E-3  
 2.572000000000000E10    7.381427567452192E-3   7.357671856880188E-3  
 2.574000000000000E10    6.729425862431526E-3  -8.162359707057476E-3  
 2.576000000000000E10   -8.988751098513603E-3  -5.795047618448734E-3  
 2.578000000000000E10   -4.196909256279469E-3   9.494071826338768E-3  
 2.580000000000000E10    9.884910658001900E-3   3.163028741255403E-3  
 2.582000000000000E10    2.391651505604386E-3  -1.045448053628206E-2  
 2.584000000000000E10   -1.058615185320377E-2  -1.098392414860427E-3  
 2.586000000000000E10    4.384172789286822E-4   1.080186944454908E-2  
 2.588000000000000E10    1.003266591578722E-2  -1.734607969410718E-3  
 2.590000000000000E10   -2.522800350561738E-3  -9.486009366810322E-3  
 2.592000000000000E10   -9.325754828751087E-3   3.241407452151179E-3  
 2.594000000000000E10    4.323437809944153E-3   9.186795912683010E-3  
 2.596000000000000E10    8.829701691865921E-3  -4.873523022979498E-3  
 2.598000000000000E10   -6.263677496463060E-3  -8.296552114188671E-3  
 2.600000000000000E10   -7.782727479934692E-3   7.561428938060999E-3  
 2.602000000000000E10    8.798408322036266E-3   7.213248871266842E-3  
 2.604000000000000E10    4.545618314296007E-3  -9.536029770970345E-3  
 2.606000000000000E10   -1.017924118787050E-2  -3.214517608284950E-3  
 2.608000000000000E10   -2.496677218005061E-3   1.005132496356964E-2  
 2.610000000000000E10    9.972106665372849E-3   1.402005087584257E-3  
 2.612000000000000E10    1.294956891797483E-4  -1.056920737028122E-2  
 2.614000000000000E10   -1.086111459881067E-2   1.020651194266975E-3  
 2.616000000000000E10    2.517794258892536E-3   1.054401975125074E-2  
 2.618000000000000E10    1.046722661703825E-2  -4.004270769655705E-3  
 2.620000000000000E10   -5.912712309509516E-3  -9.201912209391594E-3  
 2.622000000000000E10   -8.592532016336918E-3   6.534330546855927E-3  
 2.624000000000000E10    6.616049911826849E-3   8.347338065505028E-3  
 2.626000000000000E10    6.893613841384649E-3  -7.822935469448566E-3  
 2.628000000000000E10   -8.835718967020512E-3  -6.816443055868149E-3  
 2.630000000000000E10   -5.415797699242830E-3   9.515135549008846E-3  
 2.632000000000000E10    1.033351756632328E-2   3.437591949477792E-3  
 2.634000000000000E10    2.376303076744080E-3  -1.079168636351824E-2  
 2.636000000000000E10   -1.043589226901531E-2  -7.802484324201942E-4  
 2.638000000000000E10    4.149914020672441E-4   1.018003467470408E-2  
 2.640000000000000E10    9.939281269907951E-3  -1.284436671994627E-3  
 2.642000000000000E10   -2.471783431246877E-3  -9.399557486176491E-3  
 2.644000000000000E10   -9.488791227340698E-3   3.432421013712883E-3  
 2.646000000000000E10    4.638568032532930E-3   8.845318108797073E-3  
 2.648000000000000E10    8.206915110349655E-3  -6.296690553426743E-3  
 2.650000000000000E10   -7.171840872615576E-3  -7.660245057195425E-3  
 2.652000000000000E10   -5.974686238914728E-3   8.436063304543495E-3  
 2.654000000000000E10    9.435069747269154E-3   4.783056210726500E-3  
 2.656000000000000E10    3.498788690194488E-3  -9.542617015540600E-3  
 2.658000000000000E10   -9.945451281964779E-3  -1.383127528242767E-3  
 2.660000000000000E10   -5.887094885110855E-4   1.005993597209454E-2  
 2.662000000000000E10    9.992508217692375E-3  -8.154490496963263E-4  
 2.664000000000000E10   -1.883624703623354E-3  -9.775795973837376E-3  
 2.666000000000000E10   -9.150670841336250E-3   2.786448691040278E-3  
 2.668000000000000E10    4.135790280997753E-3   8.335893042385578E-3  
 2.670000000000000E10    8.074830286204815E-3  -4.533939529210329E-3  
 2.672000000000000E10   -5.320330616086721E-3  -7.383843418210745E-3  
 2.674000000000000E10   -6.523592397570610E-3   6.506576668471098E-3  
 2.676000000000000E10    6.506071425974369E-3   6.003348156809807E-3  
 2.678000000000000E10    4.925243556499481E-3  -7.412074133753777E-3  
 2.680000000000000E10   -7.664576638489962E-3  -3.806855063885450E-3  
 2.682000000000000E10   -3.300311742350459E-3   8.237849920988083E-3  
 2.684000000000000E10    8.295032195746899E-3   1.707060611806810E-3  
 2.686000000000000E10    7.097854395397008E-4  -8.871778845787048E-3  
 2.688000000000000E10   -8.663226850330830E-3   6.649628630839288E-4  
 2.690000000000000E10    1.259348355233669E-3   7.891548797488213E-3  
 2.692000000000000E10    7.911057211458683E-3  -2.373542170971632E-3  
 2.694000000000000E10   -3.614817978814244E-3  -7.681030314415693E-3  
 2.696000000000000E10   -7.336324080824852E-3   4.327582661062479E-3  
 2.698000000000000E10    4.888838622719050E-3   6.259417161345482E-3  
 2.700000000000000E10    5.625258665531874E-3  -5.670056212693453E-3  
 2.702000000000000E10   -6.507654208689928E-3  -5.190581548959017E-3  
 2.704000000000000E10   -4.442489705979824E-3   6.829099729657173E-3  
 2.706000000000000E10    6.499155890196562E-3   3.235606942325831E-3  
 2.708000000000000E10    2.367137698456645E-3  -6.949756294488907E-3  
 2.710000000000000E10   -7.784947287291288E-3  -1.815209747292101E-3  
 2.712000000000000E10   -1.068641431629658E-3   7.309374865144491E-3  
 2.714000000000000E10    7.132034748792648E-3  -3.506314824335277E-4  
 2.716000000000000E10   -1.065534539520741E-3  -7.031650748103857E-3  
 2.718000000000000E10   -6.703708786517382E-3   1.792930997908115E-3  
 2.720000000000000E10    2.686687745153904E-3   5.912848282605410E-3  
 2.722000000000000E10    5.973284132778645E-3  -2.779176225885749E-3  
 2.724000000000000E10   -3.936877008527517E-3  -5.860167089849711E-3  
 2.726000000000000E10   -5.550664849579334E-3   4.482469987124205E-3  
 2.728000000000000E10    5.176670849323273E-3   4.993448033928871E-3  
 2.730000000000000E10    4.155523143708706E-3  -5.774160381406546E-3  
 2.732000000000000E10   -5.964518059045076E-3  -3.567042294889689E-3  
 2.734000000000000E10   -2.882540458813310E-3   6.148143671452999E-3  
 2.736000000000000E10    6.969398818910122E-3   1.984959933906794E-3  
 2.738000000000000E10    1.847885665483773E-3  -6.907660979777575E-3  
 2.740000000000000E10   -6.598511710762978E-3  -2.032605116255581E-4  
 2.742000000000000E10    7.483332883566618E-4   6.796269677579403E-3  
 2.744000000000000E10    6.744058337062597E-3  -7.613526540808380E-4  
 2.746000000000000E10   -1.793375937268138E-3  -5.786161404103041E-3  
 2.748000000000000E10   -5.222614854574204E-3   2.897374331951141E-3  
 2.750000000000000E10    3.452768083661795E-3   5.059672985225916E-3  
 2.752000000000000E10    4.919453058391810E-3  -3.675439627841115E-3  
 2.754000000000000E10   -3.526263637468219E-3  -4.413206595927477E-3  
 2.756000000000000E10   -3.653820138424635E-3   5.058080889284611E-3  
