#  HZ   S   RI   R     50.00 
! Rohde & Schwarz ZVA40 4Ports - Version 3.90 - 1145.1110k42 SN: 100403
! Date: 2023-10-04 08:40:15
! Measurement: S12 
! 
 2.200000000000000E10    6.879448890686035E-3   1.233439077623189E-3  
 2.202000000000000E10    1.658917462918907E-4  -7.314394693821669E-3  
 2.204000000000000E10   -6.935449782758951E-3   1.168083981610835E-3  
 2.206000000000000E10    1.537622767500579E-3   6.711348425596952E-3  
 2.208000000000000E10    6.802066694945097E-3  -1.641647424548864E-3  
 2.210000000000000E10   -3.217014716938138E-3  -6.619832944124937E-3  
 2.212000000000000E10   -6.323343142867088E-3   3.591245738789439E-3  
 2.214000000000000E10    3.681891597807407E-3   6.027219351381064E-3  
 2.216000000000000E10    5.821705795824528E-3  -5.220459774136543E-3  
 2.218000000000000E10   -5.281170830130577E-3  -5.613225046545267E-3  
 2.220000000000000E10   -4.889059346169233E-3   5.653211846947670E-3  
 2.222000000000000E10    6.630605086684227E-3   4.239991307258606E-3  
 2.224000000000000E10    4.186398349702358E-3  -7.103717420250177E-3  
 2.226000000000000E10   -7.510630879551172E-3  -2.807697514072061E-3  
 2.228000000000000E10   -1.979040214791894E-3   8.049849420785904E-3  
 2.230000000000000E10    8.051014505326748E-3   9.060460724867880E-4  
 2.232000000000000E10   -3.741313994396478E-4  -8.250528015196323E-3  
 2.234000000000000E10   -7.586639374494553E-3   1.550658722408116E-3  
 2.236000000000000E10    2.003609901294112E-3   7.140048779547215E-3  
 2.238000000000000E10    7.485930807888508E-3  -3.026629099622369E-3  
 2.240000000000000E10   -3.737465245649219E-3  -7.566597312688828E-3  
 2.242000000000000E10   -6.626178976148367E-3   5.121293012052774E-3  
 2.244000000000000E10    6.305193062871695E-3   6.201572716236115E-3  
 2.246000000000000E10    5.590284708887339E-3  -6.879421882331371E-3  
 2.248000000000000E10   -6.981006357818842E-3  -4.540305119007826E-3  
 2.250000000000000E10   -3.816669341176748E-3   8.104055188596249E-3  
 2.252000000000000E10    8.545548655092716E-3   2.817687811329961E-3  
 2.254000000000000E10    2.582245739176869E-3  -8.587796241044998E-3  
 2.256000000000000E10   -8.786982856690884E-3  -1.926596392877400E-3  
 2.258000000000000E10   -2.297604805789888E-4   9.340413846075535E-3  
 2.260000000000000E10    9.419098496437073E-3  -4.242844297550619E-4  
 2.262000000000000E10   -1.634083455428481E-3  -9.298784658312798E-3  
 2.264000000000000E10   -8.563508279621601E-3   2.205585828050971E-3  
 2.266000000000000E10    3.531683003529906E-3   7.880937308073044E-3  
 2.268000000000000E10    7.908173836767674E-3  -4.591246135532856E-3  
 2.270000000000000E10   -4.641683772206307E-3  -7.455388549715281E-3  
 2.272000000000000E10   -7.109864614903927E-3   5.359424743801355E-3  
 2.274000000000000E10    6.963047198951244E-3   5.852948408573866E-3  
 2.276000000000000E10    5.172875244170427E-3  -7.781358435750008E-3  
 2.278000000000000E10   -8.450000546872616E-3  -4.593242425471544E-3  
 2.280000000000000E10   -2.807714045047760E-3   8.631175383925438E-3  
 2.282000000000000E10    5.855637136846781E-3   6.468451581895351E-3  
 2.284000000000000E10    1.207252847962081E-3  -9.153307415544987E-3  
 2.286000000000000E10   -9.031778201460838E-3  -4.832670674659312E-4  
 2.288000000000000E10    4.759590374305844E-4   9.035622701048851E-3  
 2.290000000000000E10    8.929929696023464E-3  -1.498974161222577E-3  
 2.292000000000000E10   -2.531820209696889E-3  -9.038422256708145E-3  
 2.294000000000000E10   -9.146288037300110E-3   3.541408339515328E-3  
 2.296000000000000E10    4.672475159168243E-3   8.593039587140083E-3  
 2.298000000000000E10    7.672426290810108E-3  -5.533459596335888E-3  
 2.300000000000000E10   -6.360203959047794E-3  -7.256424985826016E-3  
 2.302000000000000E10   -6.686472799628973E-3   7.358815055340529E-3  
 2.304000000000000E10    7.573637180030346E-3   5.330135114490986E-3  
 2.306000000000000E10    4.284065216779709E-3  -8.122009225189686E-3  
 2.308000000000000E10   -8.769363164901733E-3  -3.425491740927100E-3  
 2.310000000000000E10   -3.315163077786565E-3   9.322636760771275E-3  
 2.312000000000000E10    9.790769778192043E-3   1.456328900530934E-3  
 2.314000000000000E10   -2.670948451850563E-4  -9.941593743860722E-3  
 2.316000000000000E10   -9.716986678540707E-3   1.586538739502430E-3  
 2.318000000000000E10    2.576528117060661E-3   9.689342230558395E-3  
 2.320000000000000E10    9.259953163564205E-3  -3.740667598322034E-3  
 2.322000000000000E10   -4.710067994892597E-3  -8.432623930275440E-3  
 2.324000000000000E10   -8.358549326658249E-3   5.840080790221691E-3  
 2.326000000000000E10    6.851239595562220E-3   7.873770780861378E-3  
 2.328000000000000E10    7.169653661549091E-3  -7.872036658227444E-3  
 2.330000000000000E10   -9.003430604934692E-3  -5.885280668735504E-3  
 2.332000000000000E10   -4.634092561900616E-3   9.639922529459000E-3  
 2.334000000000000E10    1.003955956548452E-2   3.982369787991047E-3  
 2.336000000000000E10    2.853664569556713E-3  -1.053730119019747E-2  
 2.338000000000000E10   -1.067659910768271E-2  -1.464658766053617E-3  
 2.340000000000000E10   -1.275042741326615E-4   1.132521312683821E-2  
 2.342000000000000E10    1.078063715249300E-2  -6.353147327899933E-4  
 2.344000000000000E10   -2.395613584667444E-3  -1.067254878580570E-2  
 2.346000000000000E10   -1.016461290419102E-2   3.763029351830483E-3  
 2.348000000000000E10    4.656425211578608E-3   9.513827972114086E-3  
 2.350000000000000E10    8.881265297532082E-3  -5.814922507852316E-3  
 2.352000000000000E10   -6.797241978347302E-3  -8.042140863835812E-3  
 2.354000000000000E10   -7.109774276614189E-3   8.253710344433785E-3  
 2.356000000000000E10    9.184180758893490E-3   5.960187409073114E-3  
 2.358000000000000E10    4.787560086697340E-3  -9.755562059581280E-3  
 2.360000000000000E10   -1.024382095783949E-2  -3.673359518870711E-3  
 2.362000000000000E10   -1.887007500045002E-3   1.114861294627190E-2  
 2.364000000000000E10    1.152127794921398E-2   7.130565936677158E-4  
 2.366000000000000E10   -7.025668746791780E-4  -1.159436721354723E-2  
 2.368000000000000E10   -1.122973486781120E-2   1.853138441219926E-3  
 2.370000000000000E10    3.182532731443644E-3   1.135211531072855E-2  
 2.372000000000000E10    1.136971451342106E-2  -4.115645308047533E-3  
 2.374000000000000E10   -5.457497667521238E-3  -1.102934777736664E-2  
 2.376000000000000E10   -1.035057939589024E-2   7.101357448846102E-3  
 2.378000000000000E10    8.067863993346691E-3   1.003392692655325E-2  
 2.380000000000000E10    8.864548988640308E-3  -9.542432613670826E-3  
 2.382000000000000E10   -1.113478187471628E-2  -7.106923498213291E-3  
 2.384000000000000E10   -5.687940865755081E-3   1.169050484895706E-2  
 2.386000000000000E10    1.211798004806042E-2   4.006647970527411E-3  
 2.388000000000000E10    2.372228773310781E-3  -1.247060298919678E-2  
 2.390000000000000E10   -1.266823243349791E-2  -5.444191629067063E-4  
 2.392000000000000E10    1.259960001334548E-3   1.265845354646444E-2  
 2.394000000000000E10    1.189705170691013E-2  -2.888591960072517E-3  
 2.396000000000000E10   -4.910286981612444E-3  -1.134744100272656E-2  
 2.398000000000000E10   -1.083131879568100E-2   6.648985669016838E-3  
 2.400000000000000E10    7.623633369803429E-3   1.019009109586477E-2  
 2.402000000000000E10    7.195581682026386E-3  -9.542543441057205E-3  
 2.404000000000000E10   -1.049806270748377E-2  -6.537214387208223E-3  
 2.406000000000000E10   -5.555417388677597E-3   1.152592338621616E-2  
 2.408000000000000E10    1.201236061751843E-2   4.258999135345221E-3  
 2.410000000000000E10    3.170814597979188E-3  -1.234735362231731E-2  
 2.412000000000000E10   -1.274910010397434E-2  -1.904706470668316E-3  
 2.414000000000000E10   -4.010689153801650E-4   1.334636937826872E-2  
 2.416000000000000E10    1.323107816278935E-2  -1.350340549834073E-3  
 2.418000000000000E10   -2.757696667686105E-3  -1.278407592326403E-2  
 2.420000000000000E10   -1.205332204699516E-2   3.733566030859947E-3  
 2.422000000000000E10    4.962955601513386E-3   1.112410239875317E-2  
 2.424000000000000E10    1.066323369741440E-2  -6.012192927300930E-3  
 2.426000000000000E10   -7.176841609179974E-3  -1.024909317493439E-2  
 2.428000000000000E10   -8.542826399207115E-3   8.235432207584381E-3  
 2.430000000000000E10    9.186082519590855E-3   7.662858348339796E-3  
 2.432000000000000E10    6.466715596616268E-3  -1.073982845991850E-2  
 2.434000000000000E10   -1.119367312639952E-2  -4.850372206419706E-3  
 2.436000000000000E10   -2.747513586655259E-3   1.218295097351074E-2  
 2.438000000000000E10    1.202070154249668E-2   1.151681761257350E-3  
 2.440000000000000E10    3.337195448693819E-5  -1.221548300236464E-2  
 2.442000000000000E10   -1.247598510235548E-2   1.164563582278788E-3  
 2.444000000000000E10    2.864226698875427E-3   1.183917745947838E-2  
 2.446000000000000E10    1.154426671564579E-2  -4.031614400446415E-3  
 2.448000000000000E10   -4.773276392370462E-3  -1.134562678635120E-2  
 2.450000000000000E10   -1.029458828270435E-2   5.642106290906668E-3  
 2.452000000000000E10    7.459176238626242E-3   1.019822433590889E-2  
 2.454000000000000E10    8.995122276246548E-3  -7.848775945603848E-3  
 2.456000000000000E10   -7.875170558691025E-3  -7.937610149383545E-3  
 2.458000000000000E10   -7.258851546794176E-3   9.202925488352776E-3  
 2.460000000000000E10    9.631808847188950E-3   6.088870577514172E-3  
 2.462000000000000E10    4.848086740821600E-3  -1.018128823488951E-2  
 2.464000000000000E10   -1.041477546095848E-2  -3.910639788955450E-3  
 2.466000000000000E10   -2.666010288521648E-3   1.110303960740566E-2  
 2.468000000000000E10    1.205671299248934E-2   3.573577268980444E-4  
 2.470000000000000E10   -1.064242329448462E-3  -1.163777243345976E-2  
 2.472000000000000E10   -1.055203005671501E-2   2.709906082600355E-3  
 2.474000000000000E10    3.672967432066798E-3   1.054198388010263E-2  
 2.476000000000000E10    1.004495937377214E-2  -4.455209244042635E-3  
 2.478000000000000E10   -5.854054819792509E-3  -9.368484839797020E-3  
 2.480000000000000E10   -8.902029134333134E-3   7.124638184905052E-3  
 2.482000000000000E10    8.063120767474175E-3   8.299714885652065E-3  
 2.484000000000000E10    7.423936855047941E-3  -9.295548312366009E-3  
 2.486000000000000E10   -1.018907222896814E-2  -6.006062030792236E-3  
 2.488000000000000E10   -4.161956254392862E-3   1.045265700668097E-2  
 2.490000000000000E10    1.040807925164700E-2   3.566382220014930E-3  
 2.492000000000000E10    2.798709785565734E-3  -1.055674161761999E-2  
 2.494000000000000E10   -1.075234916061163E-2  -1.549598760902882E-3  
 2.496000000000000E10   -4.967258428223431E-4   1.138906367123127E-2  
 2.498000000000000E10    1.114081684499979E-2  -1.127196126617491E-3  
 2.500000000000000E10   -2.218071371316910E-3  -1.043585594743490E-2  
 2.502000000000000E10   -1.069193705916405E-2   3.345081349834800E-3  
 2.504000000000000E10    5.170663353055716E-3   8.959800936281681E-3  
 2.506000000000000E10    8.237251080572605E-3  -5.435071419924498E-3  
 2.508000000000000E10   -6.000458262860775E-3  -8.349900133907795E-3  
 2.510000000000000E10   -7.689594756811857E-3   6.481522694230080E-3  
 2.512000000000000E10    7.731310091912746E-3   7.040373980998993E-3  
 2.514000000000000E10    6.105318199843168E-3  -9.437227621674538E-3  
 2.516000000000000E10   -9.722388349473476E-3  -5.317830480635166E-3  
 2.518000000000000E10   -3.660168731585145E-3   1.097538694739342E-2  
 2.520000000000000E10    1.183310057967901E-2   1.783147337846458E-3  
 2.522000000000000E10    7.186880684457719E-4  -1.170487049967051E-2  
 2.524000000000000E10   -1.138352230191231E-2   7.927123224362731E-4  
 2.526000000000000E10    2.007722156122327E-3   1.106711383908987E-2  
 2.528000000000000E10    1.106012612581253E-2  -2.947204746305943E-3  
 2.530000000000000E10   -4.288028459995985E-3  -1.095651276409626E-2  
 2.532000000000000E10   -1.000335998833180E-2   5.212080664932728E-3  
 2.534000000000000E10    6.211692932993174E-3   9.444796480238438E-3  
 2.536000000000000E10    8.227235637605190E-3  -7.829018868505955E-3  
 2.538000000000000E10   -8.050730451941490E-3  -7.413587998598814E-3  
 2.540000000000000E10   -6.049654912203550E-3   8.915476500988007E-3  
 2.542000000000000E10    9.299993515014648E-3   5.342171527445316E-3  
 2.544000000000000E10    4.226448945701122E-3  -1.006838120520115E-2  
 2.546000000000000E10   -1.071007177233696E-2  -3.183440538123250E-3  
 2.548000000000000E10   -1.890174928121269E-3   1.188804768025875E-2  
 2.550000000000000E10    1.188186835497618E-2  -1.426394155714661E-4  
 2.552000000000000E10   -2.663515042513609E-3  -1.155040692538023E-2  
 2.554000000000000E10   -1.075134333223105E-2   4.224937874823809E-3  
 2.556000000000000E10    5.183731205761433E-3   1.025131624191999E-2  
 2.558000000000000E10    9.534675627946854E-3  -6.259486079216003E-3  
 2.560000000000000E10   -7.295635063201189E-3  -8.333207108080387E-3  
 2.562000000000000E10   -7.898256182670593E-3   8.541624993085861E-3  
 2.564000000000000E10    9.486695751547813E-3   7.576747331768274E-3  
 2.566000000000000E10    5.969467572867870E-3  -1.075372938066721E-2  
 2.568000000000000E10   -1.251285709440708E-2  -4.064855631440878E-3  
 2.570000000000000E10   -2.255583181977272E-3   1.265851780772209E-2  
 2.572000000000000E10    1.204634085297585E-2   1.219683559611440E-3  
 2.574000000000000E10   -3.908783546648920E-4  -1.219444349408150E-2  
 2.576000000000000E10   -1.272975932806730E-2   1.934787724167109E-3  
 2.578000000000000E10    3.567488165572286E-3   1.243205275386572E-2  
 2.580000000000000E10    1.109110657125711E-2  -4.956591874361038E-3  
 2.582000000000000E10   -6.317868828773499E-3  -1.067859865725040E-2  
 2.584000000000000E10   -9.817194193601608E-3   7.823182269930840E-3  
 2.586000000000000E10    8.673206903040409E-3   8.491997607052326E-3  
 2.588000000000000E10    6.861158180981875E-3  -9.617847390472889E-3  
 2.590000000000000E10   -9.588518179953098E-3  -6.212174426764250E-3  
 2.592000000000000E10   -5.314386915415525E-3   1.023969147354364E-2  
 2.594000000000000E10    1.134381629526615E-2   4.198967479169369E-3  
 2.596000000000000E10    2.964484738186002E-3  -1.202134042978287E-2  
 2.598000000000000E10   -1.275494042783976E-2  -1.555023482069373E-3  
 2.600000000000000E10    3.514259879011661E-4   1.306497119367123E-2  
 2.602000000000000E10    1.277841441333294E-2  -2.794493921101093E-3  
 2.604000000000000E10   -4.494947381317616E-3  -1.245366688817740E-2  
 2.606000000000000E10   -1.083844248205423E-2   5.142342299222946E-3  
 2.608000000000000E10    6.561172194778919E-3   1.018362957984209E-2  
 2.610000000000000E10    1.027297601103783E-2  -7.313666865229607E-3  
 2.612000000000000E10   -7.970375008881092E-3  -9.198683314025402E-3  
 2.614000000000000E10   -8.396627381443977E-3   9.339776821434498E-3  
 2.616000000000000E10    1.055092085152865E-2   7.110295351594687E-3  
 2.618000000000000E10    6.103238556534052E-3  -1.151957362890244E-2  
 2.620000000000000E10   -1.202831789851189E-2  -4.557709209620953E-3  
 2.622000000000000E10   -2.792479470372200E-3   1.165812276303768E-2  
 2.624000000000000E10    1.254008896648884E-2   1.934322528541088E-3  
 2.626000000000000E10    1.044339733198285E-3  -1.280773710459471E-2  
 2.628000000000000E10   -1.246048416942358E-2   6.492901011370122E-4  
 2.630000000000000E10    3.103231545537710E-3   1.297160051763058E-2  
 2.632000000000000E10    1.237341575324535E-2  -4.786881618201733E-3  
 2.634000000000000E10   -6.039113271981478E-3  -1.087084598839283E-2  
 2.636000000000000E10   -1.023912802338600E-2   7.611745968461037E-3  
 2.638000000000000E10    8.463745936751366E-3   8.796887472271919E-3  
 2.640000000000000E10    7.541135419160128E-3  -9.388213977217674E-3  
 2.642000000000000E10   -1.002539694309235E-2  -6.572746671736240E-3  
 2.644000000000000E10   -5.240461323410273E-3   1.095535978674889E-2  
 2.646000000000000E10    1.224725227802992E-2   4.154634196311235E-3  
 2.648000000000000E10    2.476564375683665E-3  -1.221579872071743E-2  
 2.650000000000000E10   -1.266033388674259E-2  -3.643047239165753E-4  
 2.652000000000000E10    8.682397892698646E-4   1.318289339542389E-2  
 2.654000000000000E10    1.222737599164248E-2  -2.891061827540398E-3  
 2.656000000000000E10   -4.715722519904375E-3  -1.144391763955355E-2  
 2.658000000000000E10   -1.121297106146812E-2   6.280364003032446E-3  
 2.660000000000000E10    7.075691595673561E-3   9.976738132536411E-3  
 2.662000000000000E10    8.896533399820328E-3  -8.152911439538002E-3  
 2.664000000000000E10   -9.163330309092999E-3  -7.577212527394295E-3  
 2.666000000000000E10   -6.159654818475246E-3   9.982071816921234E-3  
 2.668000000000000E10    1.056896056979895E-2   5.175136029720306E-3  
 2.670000000000000E10    3.659377573058009E-3  -1.054081041365862E-2  
 2.672000000000000E10   -1.094736438244581E-2  -2.543886192142963E-3  
 2.674000000000000E10   -1.656512729823589E-3   1.132276840507984E-2  
 2.676000000000000E10    1.098459772765636E-2  -1.091140657081269E-4  
 2.678000000000000E10   -1.282695680856705E-3  -1.128149591386318E-2  
 2.680000000000000E10   -1.086543034762144E-2   2.635378390550613E-3  
 2.682000000000000E10    4.183180164545775E-3   1.032267510890961E-2  
 2.684000000000000E10    1.014698669314385E-2  -5.764717701822519E-3  
 2.686000000000000E10   -6.634711287915707E-3  -8.983664214611054E-3  
 2.688000000000000E10   -7.662395946681500E-3   7.775784470140934E-3  
 2.690000000000000E10    8.623870089650154E-3   6.629382260143757E-3  
 2.692000000000000E10    5.848683882504702E-3  -9.012700989842415E-3  
 2.694000000000000E10   -9.274123236536980E-3  -4.340711981058121E-3  
 2.696000000000000E10   -2.947021974250674E-3   9.464581497013569E-3  
 2.698000000000000E10    9.931226260960102E-3   2.077731769531965E-3  
 2.700000000000000E10    1.328975195065141E-3  -1.021606754511595E-2  
 2.702000000000000E10   -1.032821461558342E-2   9.291016613133252E-5  
 2.704000000000000E10    1.761477091349661E-3   9.884499944746494E-3  
 2.706000000000000E10    9.428945370018482E-3  -2.921003615483642E-3  
 2.708000000000000E10   -3.324870718643069E-3  -9.068087674677372E-3  
 2.710000000000000E10   -8.591478690505028E-3   4.452820401638746E-3  
 2.712000000000000E10    5.959874019026756E-3   7.784899324178696E-3  
 2.714000000000000E10    7.227642461657524E-3  -6.263423711061478E-3  
 2.716000000000000E10   -6.728240288794041E-3  -5.955416243523359E-3  
 2.718000000000000E10   -5.117712076753378E-3   7.440246175974608E-3  
 2.720000000000000E10    8.056883700191975E-3   4.403003025799990E-3  
 2.722000000000000E10    3.435411490499973E-3  -8.327730000019074E-3  
 2.724000000000000E10   -8.720443584024906E-3  -2.725552301853895E-3  
 2.726000000000000E10   -1.835047616623342E-3   8.866914547979832E-3  
 2.728000000000000E10    9.182453155517578E-3   4.883043002337217E-4  
 2.730000000000000E10   -1.272442896151915E-4  -8.789633400738239E-3  
 2.732000000000000E10   -8.811681531369686E-3   1.208880334161222E-3  
 2.734000000000000E10    2.156106987968087E-3   8.563066832721233E-3  
 2.736000000000000E10    8.429022505879402E-3  -3.292116802185774E-3  
 2.738000000000000E10   -4.739614669233561E-3  -7.677955552935600E-3  
 2.740000000000000E10   -7.535042241215706E-3   5.275017116218805E-3  
 2.742000000000000E10    6.050736177712679E-3   5.913672037422657E-3  
 2.744000000000000E10    4.616397432982922E-3  -6.499147508293390E-3  
 2.746000000000000E10   -7.239348720759153E-3  -4.643496591597796E-3  
 2.748000000000000E10   -3.630336839705706E-3   7.632633205503225E-3  
 2.750000000000000E10    7.392913103103638E-3   2.511562313884497E-3  
 2.752000000000000E10    1.362573355436325E-3  -7.914866320788860E-3  
 2.754000000000000E10   -8.468601852655411E-3  -9.196278406307101E-4  
 2.756000000000000E10   -5.030342435929924E-5   8.226384408771992E-3  
