#  HZ   S   RI   R     50.00 
! Rohde & Schwarz ZVA40 4Ports - Version 3.90 - 1145.1110k42 SN: 100403
! Date: 2023-10-04 08:43:01
! Measurement: S12 
! 
 2.200000000000000E10   -1.852776273153722E-3  -1.157153211534023E-2  
 2.202000000000000E10   -1.079448312520981E-2   2.982045058161020E-3  
 2.204000000000000E10    4.242402035742998E-3   1.067150942981243E-2  
 2.206000000000000E10    9.954379871487618E-3  -5.537964869290590E-3  
 2.208000000000000E10   -6.532003637403250E-3  -9.236033074557781E-3  
 2.210000000000000E10   -8.233398199081421E-3   7.717985659837723E-3  
 2.212000000000000E10    8.645014837384224E-3   7.170140277594328E-3  
 2.214000000000000E10    6.228456739336252E-3  -9.082430973649025E-3  
 2.216000000000000E10   -1.013327576220036E-2  -5.008070729672909E-3  
 2.218000000000000E10   -3.363857511430979E-3   1.069685444235802E-2  
 2.220000000000000E10    1.073035877197981E-2   2.709526801481843E-3  
 2.222000000000000E10    1.186362118460238E-3  -1.159245334565640E-2  
 2.224000000000000E10   -1.163789629936218E-2   8.733972936170176E-5  
 2.226000000000000E10    2.013776917010546E-3   1.151810120791197E-2  
 2.228000000000000E10    1.181956101208925E-2  -3.090360201895237E-3  
 2.230000000000000E10   -4.630943294614554E-3  -1.148198451846838E-2  
 2.232000000000000E10   -1.122169010341167E-2   6.368915550410748E-3  
 2.234000000000000E10    7.932889275252819E-3   1.000507082790136E-2  
 2.236000000000000E10    8.887470699846745E-3  -8.235449902713299E-3  
 2.238000000000000E10   -9.494099766016007E-3  -8.759064599871635E-3  
 2.240000000000000E10   -7.703178096562624E-3   1.053086295723915E-2  
 2.242000000000000E10    1.143735460937023E-2   5.909527186304331E-3  
 2.244000000000000E10    4.620577208697796E-3  -1.191632729023695E-2  
 2.246000000000000E10   -1.182077080011368E-2  -3.406054107472301E-3  
 2.248000000000000E10   -2.223988296464086E-3   1.207553222775459E-2  
 2.250000000000000E10    1.250275224447250E-2   8.263288182206452E-4  
 2.252000000000000E10   -8.166337502188981E-4  -1.255946327000856E-2  
 2.254000000000000E10   -1.222534663975239E-2   2.216552384197712E-3  
 2.256000000000000E10    3.795180236920714E-3   1.215373910963535E-2  
 2.258000000000000E10    1.129295583814383E-2  -5.682583898305893E-3  
 2.260000000000000E10   -6.321284454315901E-3  -1.106399483978748E-2  
 2.262000000000000E10   -9.503120556473732E-3   7.755426689982414E-3  
 2.264000000000000E10    8.836673572659493E-3   8.758666925132275E-3  
 2.266000000000000E10    8.663136512041092E-3  -1.000561472028494E-2  
 2.268000000000000E10   -1.108699943870306E-2  -7.107535377144814E-3  
 2.270000000000000E10   -5.700618028640747E-3   1.197585184127092E-2  
 2.272000000000000E10    1.272945664823055E-2   5.045532248914242E-3  
 2.274000000000000E10    3.974061459302902E-3  -1.352583896368742E-2  
 2.276000000000000E10   -1.421799790114164E-2  -2.137475414201617E-3  
 2.278000000000000E10    2.777608751785010E-4   1.406288333237171E-2  
 2.280000000000000E10    1.365192700177431E-2  -1.263015903532505E-3  
 2.282000000000000E10    5.489488597959280E-3  -1.253370288759470E-2  
 2.284000000000000E10   -1.330859400331974E-2   4.027375020086765E-3  
 2.286000000000000E10    5.691275931894779E-3   1.239840593189001E-2  
 2.288000000000000E10    1.135812699794769E-2  -6.911258678883314E-3  
 2.290000000000000E10   -8.516964502632618E-3  -1.068281941115856E-2  
 2.292000000000000E10   -9.534634649753571E-3   1.010156702250242E-2  
 2.294000000000000E10    1.087968423962593E-2   7.892367430031300E-3  
 2.296000000000000E10    6.177254486829042E-3  -1.175500825047493E-2  
 2.298000000000000E10   -1.223581004887819E-2  -4.940417129546404E-3  
 2.300000000000000E10   -4.364556167274714E-3   1.328838150948286E-2  
 2.302000000000000E10    1.380423270165920E-2   2.548531861975789E-3  
 2.304000000000000E10    2.001561661018059E-4  -1.403384841978550E-2  
 2.306000000000000E10   -1.443590968847275E-2   1.599514507688582E-3  
 2.308000000000000E10    2.950889756903052E-3   1.462162472307682E-2  
 2.310000000000000E10    1.384537480771542E-2  -4.622823558747768E-3  
 2.312000000000000E10   -6.543569266796112E-3  -1.325776241719723E-2  
 2.314000000000000E10   -1.287614181637764E-2   8.089477196335793E-3  
 2.316000000000000E10    9.203040041029453E-3   1.185958925634623E-2  
 2.318000000000000E10    1.037816144526005E-2  -1.034076325595379E-2  
 2.320000000000000E10   -1.192006655037403E-2  -8.916566148400307E-3  
 2.322000000000000E10   -7.650610059499741E-3   1.279412209987640E-2  
 2.324000000000000E10    1.328711491078138E-2   6.129671819508076E-3  
 2.326000000000000E10    4.198795184493065E-3  -1.462536305189133E-2  
 2.328000000000000E10   -1.479312963783741E-2  -2.278194762766361E-3  
 2.330000000000000E10   -6.326513248495758E-4   1.466707233339548E-2  
 2.332000000000000E10    1.449574250727892E-2  -1.611988409422338E-3  
 2.334000000000000E10   -3.111556405201554E-3  -1.409646961838007E-2  
 2.336000000000000E10   -1.409830432385206E-2   5.419205874204636E-3  
 2.338000000000000E10    6.900030188262463E-3   1.273107901215553E-2  
 2.340000000000000E10    1.226402353495359E-2  -8.906148374080658E-3  
 2.342000000000000E10   -1.001376379281282E-2  -1.143791154026985E-2  
 2.344000000000000E10   -1.049688551574945E-2   1.181861944496632E-2  
 2.346000000000000E10    1.313149277120829E-2   8.598380722105503E-3  
 2.348000000000000E10    7.009659893810749E-3  -1.379639748483896E-2  
 2.350000000000000E10   -1.528950221836567E-2  -5.755353253334761E-3  
 2.352000000000000E10   -3.536095609888434E-3   1.609827019274235E-2  
 2.354000000000000E10    1.631973683834076E-2   1.453977194614708E-3  
 2.356000000000000E10   -9.171739657176659E-5  -1.690823957324028E-2  
 2.358000000000000E10   -1.640621572732925E-2   2.530190860852599E-3  
 2.360000000000000E10    4.315034952014685E-3   1.613603718578816E-2  
 2.362000000000000E10    1.536154281347990E-2  -6.327977869659662E-3  
 2.364000000000000E10   -8.646748028695583E-3  -1.416464615613222E-2  
 2.366000000000000E10   -1.296432875096798E-2   9.970374405384064E-3  
 2.368000000000000E10    1.118559204041958E-2   1.144367177039385E-2  
 2.370000000000000E10    1.019097585231066E-2  -1.269957050681114E-2  
 2.372000000000000E10   -1.384695898741484E-2  -8.415373973548412E-3  
 2.374000000000000E10   -6.375601980835199E-3   1.495165005326271E-2  
 2.376000000000000E10    1.556946802884340E-2   4.597793333232403E-3  
 2.378000000000000E10    2.012836048379540E-3  -1.609772816300392E-2  
 2.380000000000000E10   -1.662435568869114E-2   7.002495112828910E-5  
 2.382000000000000E10    2.001246670261025E-3   1.666446588933468E-2  
 2.384000000000000E10    1.624468155205250E-2  -3.944944590330124E-3  
 2.386000000000000E10   -6.458796560764313E-3  -1.542210858315229E-2  
 2.388000000000000E10   -1.515785325318575E-2   8.741107769310474E-3  
 2.390000000000000E10    1.054506748914719E-2   1.392804831266403E-2  
 2.392000000000000E10    1.255803089588881E-2  -1.210216246545315E-2  
 2.394000000000000E10   -1.337601523846388E-2  -1.063423696905375E-2  
 2.396000000000000E10   -9.200601838529110E-3   1.535615511238575E-2  
 2.398000000000000E10    1.651698164641857E-2   7.925874553620815E-3  
 2.400000000000000E10    5.783576983958483E-3  -1.674824021756649E-2  
 2.402000000000000E10   -1.747998595237732E-2  -1.202261308208108E-3  
 2.404000000000000E10    1.059581059962511E-3   1.767230406403542E-2  
 2.406000000000000E10    1.720893010497093E-2  -2.204187680035830E-3  
 2.408000000000000E10   -4.716808907687664E-3  -1.663704775273800E-2  
 2.410000000000000E10   -1.531204394996166E-2   6.520789582282305E-3  
 2.412000000000000E10    8.268062025308609E-3   1.466868352144957E-2  
 2.414000000000000E10    1.361382193863392E-2  -9.573669172823429E-3  
 2.416000000000000E10   -1.074155326932669E-2  -1.181916519999504E-2  
 2.418000000000000E10   -1.026277523487806E-2   1.257072109729052E-2  
 2.420000000000000E10    1.361698377877474E-2   8.585468865931034E-3  
 2.422000000000000E10    7.550635375082493E-3  -1.391550153493881E-2  
 2.424000000000000E10   -1.522055082023144E-2  -5.611518397927284E-3  
 2.426000000000000E10   -3.689315868541598E-3   1.598304137587547E-2  
 2.428000000000000E10    1.653113774955273E-2   2.459307201206684E-3  
 2.430000000000000E10    5.237750592641532E-4  -1.708249747753143E-2  
 2.432000000000000E10   -1.703748852014542E-2   1.555205439217389E-3  
 2.434000000000000E10    4.099494777619839E-3   1.719338260591030E-2  
 2.436000000000000E10    1.634447649121285E-2  -6.613471545279026E-3  
 2.438000000000000E10   -8.064130321145058E-3  -1.479618065059185E-2  
 2.440000000000000E10   -1.416761334985495E-2   9.461535140872002E-3  
 2.442000000000000E10    1.110066566616297E-2   1.282950211316347E-2  
 2.444000000000000E10    1.116479933261871E-2  -1.204975508153439E-2  
 2.446000000000000E10   -1.285574026405811E-2  -9.825743734836578E-3  
 2.448000000000000E10   -8.404622785747051E-3   1.347953081130981E-2  
 2.450000000000000E10    1.443674881011248E-2   6.869331933557987E-3  
 2.452000000000000E10    4.999577999114990E-3  -1.543706189841032E-2  
 2.454000000000000E10   -1.527987513691187E-2  -3.290662541985512E-3  
 2.456000000000000E10   -1.553892390802503E-3   1.498231198638678E-2  
 2.458000000000000E10    1.603686064481735E-2  -1.081240625353530E-4  
 2.460000000000000E10   -2.503375755622983E-3  -1.557315886020660E-2  
 2.462000000000000E10   -1.499616727232933E-2   4.187258891761303E-3  
 2.464000000000000E10    5.816390737891197E-3   1.407408528029919E-2  
 2.466000000000000E10    1.376161165535450E-2  -7.596365641802549E-3  
 2.468000000000000E10   -9.583544917404652E-3  -1.315099932253361E-2  
 2.470000000000000E10   -1.130080875009298E-2   1.122537441551685E-2  
 2.472000000000000E10    1.228370051831007E-2   9.167590178549290E-3  
 2.474000000000000E10    8.408726193010807E-3  -1.248708274215460E-2  
 2.476000000000000E10   -1.370828039944172E-2  -6.977636832743883E-3  
 2.478000000000000E10   -5.786123219877482E-3   1.445296965539455E-2  
 2.480000000000000E10    1.457539293915033E-2   4.255194682627916E-3  
 2.482000000000000E10    2.794935135170817E-3  -1.525629870593548E-2  
 2.484000000000000E10   -1.598862931132317E-2  -7.653922075405717E-4  
 2.486000000000000E10    1.550254877656698E-3   1.583176851272583E-2  
 2.488000000000000E10    1.509879436343908E-2  -3.470564726740122E-3  
 2.490000000000000E10   -5.120746791362763E-3  -1.405940111726522E-2  
 2.492000000000000E10   -1.341745629906654E-2   6.277428474277258E-3  
 2.494000000000000E10    8.103993721306324E-3   1.288011297583580E-2  
 2.496000000000000E10    1.151226926594973E-2  -9.772055782377720E-3  
 2.498000000000000E10   -1.109845284372568E-2  -9.710828773677349E-3  
 2.500000000000000E10   -8.238640613853931E-3   1.161719672381878E-2  
 2.502000000000000E10    1.267392840236425E-2   7.303775753825903E-3  
 2.504000000000000E10    5.041773431003094E-3  -1.354568172246218E-2  
 2.506000000000000E10   -1.311163417994976E-2  -3.741059917956591E-3  
 2.508000000000000E10   -3.331184620037675E-3   1.368559058755636E-2  
 2.510000000000000E10    1.474370155483484E-2   1.828803564421833E-3  
 2.512000000000000E10    3.377472967258655E-5  -1.509431097656488E-2  
 2.514000000000000E10   -1.541823428124189E-2   1.801758655346930E-3  
 2.516000000000000E10    3.572592744603753E-3   1.496867556124926E-2  
 2.518000000000000E10    1.479299645870924E-2  -5.220037419348955E-3  
 2.520000000000000E10   -7.191030774265528E-3  -1.432715449482203E-2  
 2.522000000000000E10   -1.266912464052439E-2   8.572762832045555E-3  
 2.524000000000000E10    9.927910752594471E-3   1.129909791052342E-2  
 2.526000000000000E10    9.950660169124603E-3  -1.139676012098789E-2  
 2.528000000000000E10   -1.215876266360283E-2  -9.114653803408146E-3  
 2.530000000000000E10   -7.986039854586124E-3   1.328785717487335E-2  
 2.532000000000000E10    1.411269139498472E-2   5.334616638720036E-3  
 2.534000000000000E10    3.955784253776074E-3  -1.511820126324892E-2  
 2.536000000000000E10   -1.556733530014753E-2  -1.956247724592686E-3  
 2.538000000000000E10   -1.238680706592277E-4   1.487871259450913E-2  
 2.540000000000000E10    1.526886969804764E-2  -2.286593429744244E-3  
 2.542000000000000E10   -4.173555411398411E-3  -1.489100884646177E-2  
 2.544000000000000E10   -1.423639990389347E-2   6.189972627907991E-3  
 2.546000000000000E10    7.816585712134838E-3   1.371830888092518E-2  
 2.548000000000000E10    1.221631933003664E-2  -9.751031175255776E-3  
 2.550000000000000E10   -1.192358229309320E-2  -1.107610110193491E-2  
 2.552000000000000E10   -8.957477286458015E-3   1.337260752916336E-2  
 2.554000000000000E10    1.384057570248842E-2   6.720440927892923E-3  
 2.556000000000000E10    5.278550554066896E-3  -1.453328691422939E-2  
 2.558000000000000E10   -1.458809804171324E-2  -3.756606020033360E-3  
 2.560000000000000E10   -1.930502825416625E-3   1.504800468683243E-2  
 2.562000000000000E10    1.509171910583973E-2   8.656028076075018E-4  
 2.564000000000000E10   -4.938472411595285E-4  -1.537520159035921E-2  
 2.566000000000000E10   -1.626916415989399E-2   3.125109011307359E-3  
 2.568000000000000E10    5.292457994073629E-3   1.599716395139694E-2  
 2.570000000000000E10    1.453018374741077E-2  -8.300918154418469E-3  
 2.572000000000000E10   -9.584588930010796E-3  -1.297977752983570E-2  
 2.574000000000000E10   -1.196730043739080E-2   1.082940306514502E-2  
 2.576000000000000E10    1.310095191001892E-2   1.026972103863955E-2  
 2.578000000000000E10    8.302016183733940E-3  -1.374453771859407E-2  
 2.580000000000000E10   -1.440954580903053E-2  -5.765709094703198E-3  
 2.582000000000000E10   -4.298346582800150E-3   1.565164700150490E-2  
 2.584000000000000E10    1.587941497564316E-2   2.692268230021000E-3  
 2.586000000000000E10   -2.762030053418130E-4  -1.559024490416050E-2  
 2.588000000000000E10   -1.515294611454010E-2   2.457939088344574E-3  
 2.590000000000000E10    2.885974245145917E-3   1.484036911278963E-2  
 2.592000000000000E10    1.455138996243477E-2  -4.871061537414789E-3  
 2.594000000000000E10   -6.127777043730021E-3  -1.422951649874449E-2  
 2.596000000000000E10   -1.370580215007067E-2   8.152389898896217E-3  
 2.598000000000000E10    9.754913859069347E-3   1.297817565500736E-2  
 2.600000000000000E10    1.192004326730967E-2  -1.151273492723703E-2  
 2.602000000000000E10   -1.340986322611570E-2  -1.033920701593161E-2  
 2.604000000000000E10   -8.348826318979263E-3   1.459031179547310E-2  
 2.606000000000000E10    1.473379787057638E-2   5.835282616317272E-3  
 2.608000000000000E10    4.355178680270910E-3  -1.480344496667385E-2  
 2.610000000000000E10   -1.532271690666676E-2  -3.285967512056232E-3  
 2.612000000000000E10   -1.686781761236489E-3   1.544412970542908E-2  
 2.614000000000000E10    1.609145104885101E-2  -8.594971586717293E-5  
 2.616000000000000E10   -2.025125315412879E-3  -1.584676466882229E-2  
 2.618000000000000E10   -1.578620634973049E-2   4.037616308778524E-3  
 2.620000000000000E10    6.242666393518448E-3   1.470512524247170E-2  
 2.622000000000000E10    1.328712515532970E-2  -7.902082987129688E-3  
 2.624000000000000E10   -8.477200753986836E-3  -1.227704435586929E-2  
 2.626000000000000E10   -1.113422214984894E-2   9.976722300052643E-3  
 2.628000000000000E10    1.167422998696566E-2   1.028212718665600E-2  
 2.630000000000000E10    8.945508860051632E-3  -1.315732765942812E-2  
 2.632000000000000E10   -1.363837253302336E-2  -6.325853988528252E-3  
 2.634000000000000E10   -4.843891598284245E-3   1.421411149203777E-2  
 2.636000000000000E10    1.494340505450964E-2   2.821893664076924E-3  
 2.638000000000000E10    7.251225761137903E-4  -1.484485901892185E-2  
 2.640000000000000E10   -1.396297663450241E-2   5.288552492856979E-4  
 2.642000000000000E10    2.021677559241653E-3   1.382462214678526E-2  
 2.644000000000000E10    1.424560416489840E-2  -3.227284643799067E-3  
 2.646000000000000E10   -4.580375272780657E-3  -1.395429484546185E-2  
 2.648000000000000E10   -1.324904523789883E-2   6.843254901468754E-3  
 2.650000000000000E10    8.814282715320587E-3   1.304248627275229E-2  
 2.652000000000000E10    1.167527027428150E-2  -1.069995481520891E-2  
 2.654000000000000E10   -1.260023750364780E-2  -9.423863142728806E-3  
 2.656000000000000E10   -7.725364528596401E-3   1.344233565032482E-2  
 2.658000000000000E10    1.392466295510531E-2   5.663735792040825E-3  
 2.660000000000000E10    3.670137841254473E-3  -1.454607211053371E-2  
 2.662000000000000E10   -1.440063305199146E-2  -1.732905744574964E-3  
 2.664000000000000E10   -1.415938313584775E-4   1.455220021307468E-2  
 2.666000000000000E10    1.427051611244679E-2  -1.508101704530418E-3  
 2.668000000000000E10   -3.536101663485169E-3  -1.333844382315874E-2  
 2.670000000000000E10   -1.294595003128052E-2   4.811611492186785E-3  
 2.672000000000000E10    5.769344046711922E-3   1.219209562987089E-2  
 2.674000000000000E10    1.117709744721651E-2  -7.154427468776703E-3  
 2.676000000000000E10   -8.704835548996925E-3  -1.025255117565393E-2  
 2.678000000000000E10   -9.178792126476765E-3   9.293652139604092E-3  
 2.680000000000000E10    1.046481076627970E-2   8.280289359390736E-3  
 2.682000000000000E10    7.002170197665691E-3  -1.154768560081720E-2  
 2.684000000000000E10   -1.237243413925171E-2  -5.278890952467918E-3  
 2.686000000000000E10   -4.137260839343071E-3   1.315602567046881E-2  
 2.688000000000000E10    1.293015759438276E-2   1.828546053729951E-3  
 2.690000000000000E10    1.347626093775034E-4  -1.300205197185278E-2  
 2.692000000000000E10   -1.318340282887220E-2   1.007519429549575E-3  
 2.694000000000000E10    2.357538556680083E-3   1.258148625493050E-2  
 2.696000000000000E10    1.247960980981588E-2  -3.981428220868111E-3  
 2.698000000000000E10   -5.311582237482071E-3  -1.149129401892424E-2  
 2.700000000000000E10   -1.072883512824774E-2   6.508555728942156E-3  
 2.702000000000000E10    8.099850267171860E-3   1.002638041973114E-2  
 2.704000000000000E10    8.307137526571751E-3  -9.024189785122871E-3  
 2.706000000000000E10   -9.681311435997486E-3  -7.089365739375353E-3  
 2.708000000000000E10   -6.018378306180239E-3   1.017977297306061E-2  
 2.710000000000000E10    1.118362694978714E-2   5.041595082730055E-3  
 2.712000000000000E10    3.524417057633400E-3  -1.203299779444933E-2  
 2.714000000000000E10   -1.139901950955391E-2  -1.781137892976403E-3  
 2.716000000000000E10   -1.942861854331568E-4   1.142636779695749E-2  
 2.718000000000000E10    1.186048332601786E-2  -7.431170670315623E-4  
 2.720000000000000E10   -1.536106574349105E-3  -1.125773601233959E-2  
 2.722000000000000E10   -1.059901248663664E-2   3.024108009412885E-3  
 2.724000000000000E10    3.986853640526533E-3   1.056115049868822E-2  
 2.726000000000000E10    1.009915769100189E-2  -5.125405266880989E-3  
 2.728000000000000E10   -6.475608330219984E-3  -9.205891750752926E-3  
 2.730000000000000E10   -8.134065195918083E-3   7.482573855668306E-3  
 2.732000000000000E10    8.135612122714520E-3   7.368894759565592E-3  
 2.734000000000000E10    6.480664480477572E-3  -8.829677477478981E-3  
 2.736000000000000E10   -9.401317685842514E-3  -5.039459560066462E-3  
 2.738000000000000E10   -3.762254025787115E-3   1.008323207497597E-2  
 2.740000000000000E10    1.048247795552015E-2   2.405656501650810E-3  
 2.742000000000000E10    5.048842867836356E-4  -1.054512429982424E-2  
 2.744000000000000E10   -1.013286970555782E-2   6.265806732699275E-4  
 2.746000000000000E10    1.517187687568367E-3   9.966711513698101E-3  
 2.748000000000000E10    9.540919214487076E-3  -2.741672098636627E-3  
 2.750000000000000E10   -3.871504450216889E-3  -9.047107771039009E-3  
 2.752000000000000E10   -8.489887230098248E-3   4.864984191954136E-3  
 2.754000000000000E10    5.611416883766651E-3   7.964627817273140E-3  
 2.756000000000000E10    7.550241425633431E-3  -6.646538153290749E-3  
