#  HZ   S   RI   R     50.00 
! Rohde & Schwarz ZVA40 4Ports - Version 3.90 - 1145.1110k42 SN: 100403
! Date: 2023-10-04 08:43:38
! Measurement: S12 
! 
 2.200000000000000E10   -6.547166500240564E-3  -9.516315534710884E-3  
 2.202000000000000E10   -8.448159322142601E-3   7.860341109335423E-3  
 2.204000000000000E10    8.628985844552517E-3   7.970205508172512E-3  
 2.206000000000000E10    6.292176898568869E-3  -1.003721728920937E-2  
 2.208000000000000E10   -1.104633044451475E-2  -4.854228347539902E-3  
 2.210000000000000E10   -4.150301683694124E-3   1.119928713887930E-2  
 2.212000000000000E10    1.139221061021090E-2   2.732326742261648E-3  
 2.214000000000000E10    1.145957969129086E-3  -1.194373797625303E-2  
 2.216000000000000E10   -1.229868084192276E-2   1.604595599928871E-4  
 2.218000000000000E10    1.464172033593059E-3   1.250843331217766E-2  
 2.220000000000000E10    1.231984794139862E-2  -2.561659552156925E-3  
 2.222000000000000E10   -3.876619739457965E-3  -1.180237624794245E-2  
 2.224000000000000E10   -1.149473339319229E-2   5.808139219880104E-3  
 2.226000000000000E10    6.856830324977636E-3   1.111352723091841E-2  
 2.228000000000000E10    1.005312707275152E-2  -8.008888922631741E-3  
 2.230000000000000E10   -9.201165288686752E-3  -8.905170485377312E-3  
 2.232000000000000E10   -8.257106877863407E-3   1.021690946072340E-2  
 2.234000000000000E10    1.117028295993805E-2   6.259922869503498E-3  
 2.236000000000000E10    4.338197410106659E-3  -1.148649491369724E-2  
 2.238000000000000E10   -1.197848748415709E-2  -3.673221915960312E-3  
 2.240000000000000E10   -2.176445676013827E-3   1.332081388682127E-2  
 2.242000000000000E10    1.295645255595446E-2   1.755336597852875E-5  
 2.244000000000000E10   -1.582195749506354E-3  -1.251527480781078E-2  
 2.246000000000000E10   -1.244807057082653E-2   3.247128333896399E-3  
 2.248000000000000E10    4.244479350745678E-3   1.221351604908705E-2  
 2.250000000000000E10    1.180863473564386E-2  -5.823181476444006E-3  
 2.252000000000000E10   -7.682337425649166E-3  -1.093456707894802E-2  
 2.254000000000000E10   -1.024011988192797E-2   8.590381592512131E-3  
 2.256000000000000E10    9.799139574170113E-3   9.963036514818668E-3  
 2.258000000000000E10    8.405712433159351E-3  -1.078670006245375E-2  
 2.260000000000000E10   -1.150617189705372E-2  -7.660556118935347E-3  
 2.262000000000000E10   -5.936372093856335E-3   1.251798402518034E-2  
 2.264000000000000E10    1.287567336112261E-2   5.091307684779167E-3  
 2.266000000000000E10    3.852328984066844E-3  -1.364892255514860E-2  
 2.268000000000000E10   -1.391589641571045E-2  -1.702569541521370E-3  
 2.270000000000000E10   -5.135964020155370E-4   1.387279480695725E-2  
 2.272000000000000E10    1.395498495548964E-2  -6.880671135149896E-4  
 2.274000000000000E10   -2.659851452335715E-3  -1.375839300453663E-2  
 2.276000000000000E10   -1.374233048409224E-2   4.232625011354685E-3  
 2.278000000000000E10    6.404690910130739E-3   1.260889600962400E-2  
 2.280000000000000E10    1.186310034245253E-2  -7.314367685467005E-3  
 2.282000000000000E10   -8.851343882270157E-4  -1.369988452643156E-2  
 2.284000000000000E10   -9.499411098659039E-3   1.044142991304398E-2  
 2.286000000000000E10    1.161627564579248E-2   8.522033691406250E-3  
 2.288000000000000E10    7.102229166775942E-3  -1.251709088683128E-2  
 2.290000000000000E10   -1.305678952485323E-2  -5.638596601784229E-3  
 2.292000000000000E10   -3.699331078678370E-3   1.420852541923523E-2  
 2.294000000000000E10    1.483420375734568E-2   1.657334039919078E-3  
 2.296000000000000E10    1.451980060664937E-4  -1.491328235715628E-2  
 2.298000000000000E10   -1.458583772182465E-2   7.774904952384532E-4  
 2.300000000000000E10    2.730476669967175E-3   1.453455537557602E-2  
 2.302000000000000E10    1.467198505997658E-2  -4.753374960273504E-3  
 2.304000000000000E10   -6.299049127846956E-3  -1.376105658710003E-2  
 2.306000000000000E10   -1.263269782066345E-2   7.531689014285803E-3  
 2.308000000000000E10    9.314030408859253E-3   1.214089896529913E-2  
 2.310000000000000E10    1.099069602787495E-2  -1.101201865822077E-2  
 2.312000000000000E10   -1.208695955574513E-2  -9.910237975418568E-3  
 2.314000000000000E10   -7.845108397305012E-3   1.300936471670866E-2  
 2.316000000000000E10    1.425555255264044E-2   5.872461944818497E-3  
 2.318000000000000E10    3.934604581445456E-3  -1.514315884560347E-2  
 2.320000000000000E10   -1.466434914618731E-2  -2.056874567642808E-3  
 2.322000000000000E10   -1.138853349402780E-5   1.501921564340591E-2  
 2.324000000000000E10    1.539261825382710E-2  -1.886882004328072E-3  
 2.326000000000000E10   -3.586210310459137E-3  -1.485996320843697E-2  
 2.328000000000000E10   -1.449421048164368E-2   5.770442541688681E-3  
 2.330000000000000E10    7.627419661730528E-3   1.352530345320702E-2  
 2.332000000000000E10    1.265928056091070E-2  -8.768637664616108E-3  
 2.334000000000000E10   -1.022794190794230E-2  -1.177167240530253E-2  
 2.336000000000000E10   -1.080743037164211E-2   1.163594052195549E-2  
 2.338000000000000E10    1.311518158763647E-2   9.356995113193989E-3  
 2.340000000000000E10    7.837026380002499E-3  -1.424396689981222E-2  
 2.342000000000000E10   -1.507815718650818E-2  -6.281839683651924E-3  
 2.344000000000000E10   -4.325266461819410E-3   1.637917943298817E-2  
 2.346000000000000E10    1.627816632390022E-2   2.214823849499226E-3  
 2.348000000000000E10    3.137302119284868E-4  -1.607822813093662E-2  
 2.350000000000000E10   -1.655315980315208E-2   1.348420628346503E-3  
 2.352000000000000E10    4.143751692026854E-3   1.647252775728703E-2  
 2.354000000000000E10    1.545430067926645E-2  -5.987809970974922E-3  
 2.356000000000000E10   -8.230114355683327E-3  -1.462503056973219E-2  
 2.358000000000000E10   -1.307068392634392E-2   9.928068146109581E-3  
 2.360000000000000E10    1.159328967332840E-2   1.139247138053179E-2  
 2.362000000000000E10    1.004919316619635E-2  -1.321656536310911E-2  
 2.364000000000000E10   -1.441560313105583E-2  -7.980697788298130E-3  
 2.366000000000000E10   -5.931419786065817E-3   1.478966511785984E-2  
 2.368000000000000E10    1.607700996100903E-2   4.685834981501102E-3  
 2.370000000000000E10    2.618668600916863E-3  -1.658134348690510E-2  
 2.372000000000000E10   -1.690392009913921E-2  -3.059201117139310E-4  
 2.374000000000000E10    1.861613825894892E-3   1.751831732690334E-2  
 2.376000000000000E10    1.688847877085209E-2  -3.904109355062246E-3  
 2.378000000000000E10   -6.075983401387930E-3  -1.674482226371765E-2  
 2.380000000000000E10   -1.627455465495586E-2   7.919067516922951E-3  
 2.382000000000000E10    1.020910218358040E-2   1.466483902186155E-2  
 2.384000000000000E10    1.367947459220886E-2  -1.218104641884565E-2  
 2.386000000000000E10   -1.355545595288277E-2  -1.235037017613649E-2  
 2.388000000000000E10   -1.012116298079491E-2   1.460569910705090E-2  
 2.390000000000000E10    1.619092747569084E-2   8.163989521563053E-3  
 2.392000000000000E10    5.976128857582808E-3  -1.682949438691139E-2  
 2.394000000000000E10   -1.758074201643467E-2  -4.274954088032246E-3  
 2.396000000000000E10   -1.906477613374591E-3   1.736222952604294E-2  
 2.398000000000000E10    1.757506281137466E-2  -1.169934635981917E-3  
 2.400000000000000E10   -3.731043310835958E-3  -1.753478869795799E-2  
 2.402000000000000E10   -1.546435337513685E-2   7.066266611218453E-3  
 2.404000000000000E10    9.052429348230362E-3   1.410682592540979E-2  
 2.406000000000000E10    1.308779045939446E-2  -1.078700553625822E-2  
 2.408000000000000E10   -1.192119996994734E-2  -1.193749997764826E-2  
 2.410000000000000E10   -1.016173325479031E-2   1.338495220988989E-2  
 2.412000000000000E10    1.445224974304438E-2   8.464867249131203E-3  
 2.414000000000000E10    6.668683141469955E-3  -1.529595348984003E-2  
 2.416000000000000E10   -1.649632304906845E-2  -4.956310149282217E-3  
 2.418000000000000E10   -2.973461756482720E-3   1.651769876480103E-2  
 2.420000000000000E10    1.656379550695419E-2   1.056949957273901E-3  
 2.422000000000000E10   -6.520800525322557E-5  -1.708590984344482E-2  
 2.424000000000000E10   -1.730606518685818E-2   2.058993326500058E-3  
 2.426000000000000E10    4.143089987337589E-3   1.706318743526936E-2  
 2.428000000000000E10    1.627120375633240E-2  -6.106927990913391E-3  
 2.430000000000000E10   -7.623855024576187E-3  -1.583448983728886E-2  
 2.432000000000000E10   -1.527315191924572E-2   9.635754860937595E-3  
 2.434000000000000E10    1.143527124077082E-2   1.339860260486603E-2  
 2.436000000000000E10    1.138252206146717E-2  -1.317337621003389E-2  
 2.438000000000000E10   -1.390853803604841E-2  -9.667856618762016E-3  
 2.440000000000000E10   -7.645539473742247E-3   1.453494001179934E-2  
 2.442000000000000E10    1.507007423788309E-2   5.839336663484573E-3  
 2.444000000000000E10    4.034025128930807E-3  -1.525142695754767E-2  
 2.446000000000000E10   -1.519519276916981E-2  -2.230591839179397E-3  
 2.448000000000000E10   -2.005592396017164E-4   1.535823661834002E-2  
 2.450000000000000E10    1.563031226396561E-2  -1.053367974236608E-3  
 2.452000000000000E10   -3.047471866011620E-3  -1.537308562546969E-2  
 2.454000000000000E10   -1.498238649219275E-2   5.159799940884113E-3  
 2.456000000000000E10    6.535868160426617E-3   1.449124794453383E-2  
 2.458000000000000E10    1.406590826809406E-2  -8.003061637282372E-3  
 2.460000000000000E10   -1.044778712093830E-2  -1.286893989890814E-2  
 2.462000000000000E10   -1.110819540917873E-2   1.148217450827360E-2  
 2.464000000000000E10    1.230814959853888E-2   1.036834903061390E-2  
 2.466000000000000E10    9.004747495055199E-3  -1.339356973767281E-2  
 2.468000000000000E10   -1.451109722256661E-2  -7.408835925161839E-3  
 2.470000000000000E10   -5.053722299635410E-3   1.568879187107086E-2  
 2.472000000000000E10    1.511866319924593E-2   2.965192077681422E-3  
 2.474000000000000E10    1.910732476972044E-3  -1.497438736259937E-2  
 2.476000000000000E10   -1.554426550865173E-2  -4.385445790831000E-4  
 2.478000000000000E10    1.307410304434598E-3   1.505353860557079E-2  
 2.480000000000000E10    1.514275372028351E-2  -3.236385295167565E-3  
 2.482000000000000E10   -4.594658967107534E-3  -1.468219980597496E-2  
 2.484000000000000E10   -1.433395687490702E-2   6.621080916374922E-3  
 2.486000000000000E10    9.203764609992504E-3   1.292756386101246E-2  
 2.488000000000000E10    1.090176030993462E-2  -1.052268967032433E-2  
 2.490000000000000E10   -1.173720415681601E-2  -9.806131944060326E-3  
 2.492000000000000E10   -8.270177990198135E-3   1.193717960268259E-2  
 2.494000000000000E10    1.330017391592264E-2   6.863461341708899E-3  
 2.496000000000000E10    4.960475023835897E-3  -1.463781017810106E-2  
 2.498000000000000E10   -1.424273289740086E-2  -3.413135185837746E-3  
 2.500000000000000E10   -1.877747825346887E-3   1.439359690994024E-2  
 2.502000000000000E10    1.497450191527605E-2   2.004774432862178E-4  
 2.504000000000000E10   -1.744649955071509E-3  -1.458964962512255E-2  
 2.506000000000000E10   -1.360024139285088E-2   2.402006648480892E-3  
 2.508000000000000E10    2.998029813170433E-3   1.383161172270775E-2  
 2.510000000000000E10    1.409843564033508E-2  -5.119805224239826E-3  
 2.512000000000000E10   -6.548691075295210E-3  -1.372319553047419E-2  
 2.514000000000000E10   -1.290199719369412E-2   8.108791895210743E-3  
 2.516000000000000E10    9.898495860397816E-3   1.152754761278629E-2  
 2.518000000000000E10    1.039393898099661E-2  -1.119517348706722E-2  
 2.520000000000000E10   -1.273086480796337E-2  -8.904548361897469E-3  
 2.522000000000000E10   -6.580257322639227E-3   1.322201453149319E-2  
 2.524000000000000E10    1.348491385579109E-2   5.172011442482472E-3  
 2.526000000000000E10    3.793310839682818E-3  -1.426010020077229E-2  
 2.528000000000000E10   -1.464071031659842E-2  -2.068682108074427E-3  
 2.530000000000000E10   -3.364585791132413E-5   1.539001800119877E-2  
 2.532000000000000E10    1.515331026166678E-2  -2.283904235810041E-3  
 2.534000000000000E10   -3.840359859168530E-3  -1.460705976933241E-2  
 2.536000000000000E10   -1.396211795508862E-2   6.540596019476652E-3  
 2.538000000000000E10    7.714265026152134E-3   1.337703596800566E-2  
 2.540000000000000E10    1.221445575356484E-2  -9.206360206007958E-3  
 2.542000000000000E10   -1.091442536562681E-2  -1.111321430653334E-2  
 2.544000000000000E10   -9.882449172437191E-3   1.205195859074593E-2  
 2.546000000000000E10    1.309959404170513E-2   8.647025562822819E-3  
 2.548000000000000E10    6.773884873837233E-3  -1.449845451861620E-2  
 2.550000000000000E10   -1.523099374026060E-2  -4.613940138369799E-3  
 2.552000000000000E10   -2.149306703358889E-3   1.573385111987591E-2  
 2.554000000000000E10    1.538093294948340E-2   2.372863673372194E-4  
 2.556000000000000E10   -1.415589009411633E-3  -1.467540767043829E-2  
 2.558000000000000E10   -1.445575151592493E-2   3.500278107821941E-3  
 2.560000000000000E10    4.854641389101744E-3   1.380318403244019E-2  
 2.562000000000000E10    1.321294438093901E-2  -6.445935927331448E-3  
 2.564000000000000E10   -7.922479882836342E-3  -1.298445742577314E-2  
 2.566000000000000E10   -1.212673820555210E-2   1.000864896923304E-2  
 2.568000000000000E10    1.268843095749617E-2   1.030619256198406E-2  
 2.570000000000000E10    8.473611436784267E-3  -1.383418310433626E-2  
 2.572000000000000E10   -1.408016122877598E-2  -5.820247810333967E-3  
 2.574000000000000E10   -4.581562709063292E-3   1.493017375469208E-2  
 2.576000000000000E10    1.624534465372562E-2   2.382314298301935E-3  
 2.578000000000000E10   -1.925515825860202E-4  -1.603875868022442E-2  
 2.580000000000000E10   -1.573616452515125E-2   1.796110882423818E-3  
 2.582000000000000E10    3.906440921127796E-3   1.495638489723206E-2  
 2.584000000000000E10    1.478937454521656E-2  -5.898401141166687E-3  
 2.586000000000000E10   -7.550089154392481E-3  -1.405023131519556E-2  
 2.588000000000000E10   -1.207514759153128E-2   9.118882007896900E-3  
 2.590000000000000E10    9.697426110506058E-3   1.131764054298401E-2  
 2.592000000000000E10    1.099982857704163E-2  -1.081379689276218E-2  
 2.594000000000000E10   -1.222968287765980E-2  -9.555174037814140E-3  
 2.596000000000000E10   -8.529274724423885E-3   1.310050208121538E-2  
 2.598000000000000E10    1.445354335010052E-2   6.657006684690714E-3  
 2.600000000000000E10    5.132825579494238E-3  -1.557968370616436E-2  
 2.602000000000000E10   -1.637843623757362E-2  -2.758642425760627E-3  
 2.604000000000000E10   -1.201009217766114E-4   1.579065993428230E-2  
 2.606000000000000E10    1.523950230330229E-2  -1.720204949378967E-3  
 2.608000000000000E10   -3.245264058932662E-3  -1.431676186621189E-2  
 2.610000000000000E10   -1.403696183115244E-2   4.405707586556673E-3  
 2.612000000000000E10    5.988901481032372E-3   1.381662487983704E-2  
 2.614000000000000E10    1.295302715152502E-2  -7.549072150141001E-3  
 2.616000000000000E10   -8.998403325676918E-3  -1.199640054255724E-2  
 2.618000000000000E10   -1.081577967852354E-2   1.118850801140070E-2  
 2.620000000000000E10    1.201419718563557E-2   9.247922338545322E-3  
 2.622000000000000E10    7.573745213449001E-3  -1.240705512464047E-2  
 2.624000000000000E10   -1.341979391872883E-2  -5.625335033982992E-3  
 2.626000000000000E10   -4.885813221335411E-3   1.412401255220175E-2  
 2.628000000000000E10    1.469642668962479E-2   3.289891406893730E-3  
 2.630000000000000E10    8.858477813191712E-4  -1.494459249079227E-2  
 2.632000000000000E10   -1.521859224885702E-2   1.300304662436247E-3  
 2.634000000000000E10    2.844989765435457E-3   1.432462316006422E-2  
 2.636000000000000E10    1.384496036916971E-2  -4.121762234717608E-3  
 2.638000000000000E10   -5.986123811453581E-3  -1.270830444991589E-2  
 2.640000000000000E10   -1.199725363403559E-2   7.352093234658241E-3  
 2.642000000000000E10    7.944610901176930E-3   1.160302758216858E-2  
 2.644000000000000E10    1.055244076997042E-2  -9.103312157094479E-3  
 2.646000000000000E10   -1.088966429233551E-2  -9.668542072176933E-3  
 2.648000000000000E10   -8.173131383955479E-3   1.195312757045031E-2  
 2.650000000000000E10    1.285666972398758E-2   6.262391339987516E-3  
 2.652000000000000E10    4.485975485295057E-3  -1.424455735832453E-2  
 2.654000000000000E10   -1.467684563249350E-2  -2.248536562547088E-3  
 2.656000000000000E10    2.472272608429194E-4   1.399840880185366E-2  
 2.658000000000000E10    1.381684932857752E-2  -1.645214739255607E-3  
 2.660000000000000E10   -3.424058435484767E-3  -1.367527060210705E-2  
 2.662000000000000E10   -1.295451447367668E-2   5.217430181801319E-3  
 2.664000000000000E10    6.673431023955345E-3   1.144074555486441E-2  
 2.666000000000000E10    1.052035111933947E-2  -7.993231527507305E-3  
 2.668000000000000E10   -9.099311195313931E-3  -9.892592206597328E-3  
 2.670000000000000E10   -7.848705165088177E-3   9.725063107907772E-3  
 2.672000000000000E10    1.045065559446812E-2   6.925494875758886E-3  
 2.674000000000000E10    6.199581548571587E-3  -1.103312429040670E-2  
 2.676000000000000E10   -1.168905757367611E-2  -4.748712293803692E-3  
 2.678000000000000E10   -3.114162245765328E-3   1.232289895415306E-2  
 2.680000000000000E10    1.234055589884520E-2   1.979959663003683E-3  
 2.682000000000000E10    8.762699435465038E-4  -1.314186118543148E-2  
 2.684000000000000E10   -1.297992095351219E-2   8.938055252656341E-4  
 2.686000000000000E10    3.140879794955254E-3   1.192254200577736E-2  
 2.688000000000000E10    1.184223033487797E-2  -4.284125287085772E-3  
 2.690000000000000E10   -5.460634361952543E-3  -1.117153838276863E-2  
 2.692000000000000E10   -1.000180840492249E-2   6.993641145527363E-3  
 2.694000000000000E10    8.381933905184269E-3   9.198158048093319E-3  
 2.696000000000000E10    7.730237673968077E-3  -8.596309460699558E-3  
 2.698000000000000E10   -9.734175167977810E-3  -7.218579296022654E-3  
 2.700000000000000E10   -5.705764051526785E-3   1.065218914300203E-2  
 2.702000000000000E10    1.086089015007019E-2   4.322483204305172E-3  
 2.704000000000000E10    2.926909830421209E-3  -1.119996700435877E-2  
 2.706000000000000E10   -1.083166059106588E-2  -1.507182023487985E-3  
 2.708000000000000E10   -5.381866940297186E-4   1.124183088541031E-2  
 2.710000000000000E10    1.116630155593157E-2  -7.705866009928286E-4  
 2.712000000000000E10   -2.258339198306203E-3  -1.094421464949846E-2  
 2.714000000000000E10   -1.070183143019676E-2   3.883716184645891E-3  
 2.716000000000000E10    4.716039169579744E-3   9.570095688104630E-3  
 2.718000000000000E10    8.790533989667893E-3  -5.582092795521021E-3  
 2.720000000000000E10   -6.452179513871670E-3  -8.469983004033566E-3  
 2.722000000000000E10   -7.517669349908829E-3   7.410051301121712E-3  
 2.724000000000000E10    7.624280173331499E-3   6.189868319779635E-3  
 2.726000000000000E10    5.573574453592300E-3  -8.256483823060989E-3  
 2.728000000000000E10   -9.518065489828587E-3  -4.626859910786152E-3  
 2.730000000000000E10   -3.431342542171478E-3   9.735492058098316E-3  
 2.732000000000000E10    9.941466152667999E-3   1.987721072509885E-3  
 2.734000000000000E10    9.596521267667413E-4  -1.018041558563709E-2  
 2.736000000000000E10   -1.041308138519526E-2  -3.532520713633858E-5  
 2.738000000000000E10    2.105192514136434E-3   9.984781034290791E-3  
 2.740000000000000E10    9.417989291250706E-3  -3.283746540546417E-3  
 2.742000000000000E10   -3.890883643180132E-3  -8.924070745706558E-3  
 2.744000000000000E10   -8.263002149760723E-3   5.502206273376942E-3  
 2.746000000000000E10    6.174470763653517E-3   7.202398497611284E-3  
 2.748000000000000E10    6.423924118280411E-3  -6.496034096926451E-3  
 2.750000000000000E10   -7.055290043354034E-3  -5.783569067716599E-3  
 2.752000000000000E10   -5.335233174264431E-3   7.578675169497728E-3  
 2.754000000000000E10    8.312100544571877E-3   3.946940414607525E-3  
 2.756000000000000E10    3.372842911630869E-3  -8.322531357407570E-3  
