#  HZ   S   RI   R     50.00 
! Rohde & Schwarz ZVA40 4Ports - Version 3.90 - 1145.1110k42 SN: 100403
! Date: 2023-10-04 08:45:01
! Measurement: S12 
! 
 2.200000000000000E10    8.661192259751260E-5  -1.135259307920933E-2  
 2.202000000000000E10   -1.161904726177454E-2   1.288355560973287E-3  
 2.204000000000000E10    3.010489977896214E-3   1.109291613101959E-2  
 2.206000000000000E10    1.059647835791111E-2  -4.584372043609619E-3  
 2.208000000000000E10   -5.786049179732800E-3  -1.030109077692032E-2  
 2.210000000000000E10   -9.660276584327221E-3   7.091460283845663E-3  
 2.212000000000000E10    7.872259244322777E-3   8.327960968017578E-3  
 2.214000000000000E10    7.630794774740934E-3  -9.013794362545013E-3  
 2.216000000000000E10   -1.044568233191967E-2  -6.882166955620050E-3  
 2.218000000000000E10   -5.472252145409584E-3   1.101673766970635E-2  
 2.220000000000000E10    1.133171096444130E-2   4.291821271181107E-3  
 2.222000000000000E10    3.477391786873341E-3  -1.189425960183144E-2  
 2.224000000000000E10   -1.288477517664433E-2  -2.401795471087098E-3  
 2.226000000000000E10   -7.319560390897095E-4   1.269940100610256E-2  
 2.228000000000000E10    1.286969799548388E-2  -7.878286996856332E-4  
 2.230000000000000E10   -2.046806504949927E-3  -1.304054539650679E-2  
 2.232000000000000E10   -1.294548995792866E-2   4.021287895739079E-3  
 2.234000000000000E10    5.780241917818785E-3   1.184323150664568E-2  
 2.236000000000000E10    1.028918288648129E-2  -6.787483580410481E-3  
 2.238000000000000E10   -7.677598390728235E-3  -9.925900027155876E-3  
 2.240000000000000E10   -9.254066273570061E-3   9.003858081996441E-3  
 2.242000000000000E10    1.026310399174690E-2   7.637446280568838E-3  
 2.244000000000000E10    6.198206916451454E-3  -1.090205833315849E-2  
 2.246000000000000E10   -1.157071068882942E-2  -4.780479706823826E-3  
 2.248000000000000E10   -3.429278964176774E-3   1.214337255805731E-2  
 2.250000000000000E10    1.245712023228407E-2   2.373081864789128E-3  
 2.252000000000000E10    3.437516861595213E-4  -1.296057924628258E-2  
 2.254000000000000E10   -1.248703431338072E-2   9.350611362606287E-4  
 2.256000000000000E10    2.271064091473818E-3   1.284219790250063E-2  
 2.258000000000000E10    1.278984081000090E-2  -3.888869192451239E-3  
 2.260000000000000E10   -4.431127104908228E-3  -1.233888138085604E-2  
 2.262000000000000E10   -1.178614422678947E-2   6.364045664668083E-3  
 2.264000000000000E10    7.402044720947743E-3   1.130270306020975E-2  
 2.266000000000000E10    1.095521263778210E-2  -8.623696863651276E-3  
 2.268000000000000E10   -9.700681082904339E-3  -9.486378170549870E-3  
 2.270000000000000E10   -8.473291993141174E-3   1.053686439990997E-2  
 2.272000000000000E10    1.172901038080454E-2   8.039024658501148E-3  
 2.274000000000000E10    6.226094439625740E-3  -1.273898128420115E-2  
 2.276000000000000E10   -1.335324998944998E-2  -4.519468173384666E-3  
 2.278000000000000E10   -2.648836467415094E-3   1.359372213482857E-2  
 2.280000000000000E10    1.358894258737564E-2   1.185733941383660E-3  
 2.282000000000000E10    7.587936706840992E-3  -1.125692296773195E-2  
 2.284000000000000E10   -1.344718225300312E-2   2.162938006222248E-3  
 2.286000000000000E10    3.705211915075779E-3   1.267824228852987E-2  
 2.288000000000000E10    1.275844313204289E-2  -4.936193581670523E-3  
 2.290000000000000E10   -6.291694007813931E-3  -1.186574622988701E-2  
 2.292000000000000E10   -1.127447187900543E-2   8.363697677850723E-3  
 2.294000000000000E10    1.009984221309423E-2   1.013876684010029E-2  
 2.296000000000000E10    8.563336916267872E-3  -1.077216397970915E-2  
 2.298000000000000E10   -1.166779734194279E-2  -7.636636495590210E-3  
 2.300000000000000E10   -6.320459768176079E-3   1.297040563076735E-2  
 2.302000000000000E10    1.409689430147409E-2   4.672005772590637E-3  
 2.304000000000000E10    2.797991735860705E-3  -1.460786629468203E-2  
 2.306000000000000E10   -1.420292071998119E-2  -1.344781485386193E-3  
 2.308000000000000E10    2.281144697917625E-4   1.458159647881985E-2  
 2.310000000000000E10    1.500353310257196E-2  -1.726533868350089E-3  
 2.312000000000000E10   -3.830436849966645E-3  -1.454308349639177E-2  
 2.314000000000000E10   -1.404428854584694E-2   5.547087173908949E-3  
 2.316000000000000E10    7.311389315873385E-3   1.274625770747662E-2  
 2.318000000000000E10    1.229694206267595E-2  -8.699591271579266E-3  
 2.320000000000000E10   -1.035575754940510E-2  -1.088263187557459E-2  
 2.322000000000000E10   -9.270220994949341E-3   1.094246283173561E-2  
 2.324000000000000E10    1.230064127594233E-2   8.239742368459702E-3  
 2.326000000000000E10    6.305090617388487E-3  -1.356789842247963E-2  
 2.328000000000000E10   -1.419692952185869E-2  -4.650365095585585E-3  
 2.330000000000000E10   -2.758899703621864E-3   1.485992036759853E-2  
 2.332000000000000E10    1.459460519254208E-2   8.664355846121907E-4  
 2.334000000000000E10   -9.478435385972261E-4  -1.488687284290791E-2  
 2.336000000000000E10   -1.459500100463629E-2   2.861077897250652E-3  
 2.338000000000000E10    4.597175400704145E-3   1.407327875494957E-2  
 2.340000000000000E10    1.376165635883808E-2  -5.860755220055580E-3  
 2.342000000000000E10   -7.872406393289566E-3  -1.336025074124336E-2  
 2.344000000000000E10   -1.219670195132494E-2   1.008012332022190E-2  
 2.346000000000000E10    1.133885700255632E-2   1.068092696368694E-2  
 2.348000000000000E10    9.142768569290638E-3  -1.261056866496801E-2  
 2.350000000000000E10   -1.372978743165731E-2  -8.189762942492962E-3  
 2.352000000000000E10   -5.939093884080648E-3   1.482263207435608E-2  
 2.354000000000000E10    1.504647824913263E-2   3.964164759963751E-3  
 2.356000000000000E10    2.285929629579186E-3  -1.564507931470871E-2  
 2.358000000000000E10   -1.563644595444202E-2   4.698849079431966E-5  
 2.360000000000000E10    2.007029717788100E-3   1.564161106944084E-2  
 2.362000000000000E10    1.518738549202681E-2  -3.757428377866745E-3  
 2.364000000000000E10   -6.189891602844000E-3  -1.434380747377873E-2  
 2.366000000000000E10   -1.317716855555773E-2   7.312738336622715E-3  
 2.368000000000000E10    8.751181885600090E-3   1.246210746467114E-2  
 2.370000000000000E10    1.145100966095924E-2  -1.034140773117542E-2  
 2.372000000000000E10   -1.162568852305412E-2  -1.011362671852112E-2  
 2.374000000000000E10   -8.332011289894581E-3   1.300789881497622E-2  
 2.376000000000000E10    1.402884721755981E-2   6.971703376621008E-3  
 2.378000000000000E10    5.350351333618164E-3  -1.504551991820335E-2  
 2.380000000000000E10   -1.562225632369518E-2  -3.200890496373177E-3  
 2.382000000000000E10   -1.165117253549397E-3   1.584557630121708E-2  
 2.384000000000000E10    1.638396270573139E-2  -8.661549654789269E-4  
 2.386000000000000E10   -3.017293522134423E-3  -1.631446555256844E-2  
 2.388000000000000E10   -1.551072299480438E-2   4.862811882048845E-3  
 2.390000000000000E10    7.401616312563419E-3   1.514388248324394E-2  
 2.392000000000000E10    1.409385539591312E-2  -9.191770106554031E-3  
 2.394000000000000E10   -1.056963670998812E-2  -1.255024597048760E-2  
 2.396000000000000E10   -1.150194369256496E-2   1.212713122367859E-2  
 2.398000000000000E10    1.396204344928265E-2   9.516629390418530E-3  
 2.400000000000000E10    7.365693338215351E-3  -1.477631740272045E-2  
 2.402000000000000E10   -1.584677211940289E-2  -3.715750528499484E-3  
 2.404000000000000E10   -1.748738111928105E-3   1.544410549104214E-2  
 2.406000000000000E10    1.570581644773483E-2   1.435339509043843E-4  
 2.408000000000000E10   -1.754773315042257E-3  -1.559507008641958E-2  
 2.410000000000000E10   -1.441158447414637E-2   3.697739448398352E-3  
 2.412000000000000E10    5.156494211405516E-3   1.398566085845232E-2  
 2.414000000000000E10    1.357968710362911E-2  -6.707706488668919E-3  
 2.416000000000000E10   -8.199345320463181E-3  -1.245212275534868E-2  
 2.418000000000000E10   -1.145016402006149E-2   1.009650342166424E-2  
 2.420000000000000E10    1.097241695970297E-2   9.981044568121433E-3  
 2.422000000000000E10    8.881909772753716E-3  -1.212952844798565E-2  
 2.424000000000000E10   -1.326303835958242E-2  -7.554584648460150E-3  
 2.426000000000000E10   -5.673240404576063E-3   1.399480551481247E-2  
 2.428000000000000E10    1.458876300603151E-2   4.305332433432341E-3  
 2.430000000000000E10    2.656070981174707E-3  -1.534764468669891E-2  
 2.432000000000000E10   -1.548613980412483E-2  -8.404109394177795E-4  
 2.434000000000000E10    9.511990356259048E-4   1.572126150131226E-2  
 2.436000000000000E10    1.498644892126322E-2  -3.261700505390763E-3  
 2.438000000000000E10   -4.579949192702770E-3  -1.411073748022318E-2  
 2.440000000000000E10   -1.360030286014080E-2   5.948600359261036E-3  
 2.442000000000000E10    7.120915222913027E-3   1.235154550522566E-2  
 2.444000000000000E10    1.137653831392527E-2  -8.667624555528164E-3  
 2.446000000000000E10   -9.545930661261082E-3  -1.012420188635588E-2  
 2.448000000000000E10   -8.854402229189873E-3   9.925780817866325E-3  
 2.450000000000000E10    1.093943975865841E-2   7.915956899523735E-3  
 2.452000000000000E10    5.939426831901074E-3  -1.181960199028254E-2  
 2.454000000000000E10   -1.221392117440701E-2  -4.790953826159239E-3  
 2.456000000000000E10   -3.419954096898437E-3   1.256928127259016E-2  
 2.458000000000000E10    1.293079555034638E-2   1.911554834805429E-3  
 2.460000000000000E10   -3.655444015748799E-5  -1.328685786575079E-2  
 2.462000000000000E10   -1.271265186369419E-2   1.566958497278392E-3  
 2.464000000000000E10    2.389234490692616E-3   1.246377360075712E-2  
 2.466000000000000E10    1.235605776309967E-2  -3.847375744953752E-3  
 2.468000000000000E10   -5.508806090801954E-3  -1.200093049556017E-2  
 2.470000000000000E10   -1.110883988440037E-2   7.140553556382656E-3  
 2.472000000000000E10    8.275478146970272E-3   9.747444652020931E-3  
 2.474000000000000E10    8.922846987843514E-3  -8.797192946076393E-3  
 2.476000000000000E10   -1.029489655047655E-2  -8.036954328417778E-3  
 2.478000000000000E10   -6.769848987460136E-3   1.112443022429943E-2  
 2.480000000000000E10    1.113098021596670E-2   5.689471494406462E-3  
 2.482000000000000E10    4.536380060017109E-3  -1.202860567718744E-2  
 2.484000000000000E10   -1.304995082318783E-2  -3.109312383458018E-3  
 2.486000000000000E10   -1.155586796812713E-3   1.321325916796923E-2  
 2.488000000000000E10    1.276754029095173E-2  -8.379853679798544E-4  
 2.490000000000000E10   -1.931731356307864E-3  -1.218881737440825E-2  
 2.492000000000000E10   -1.180504728108645E-2   2.994027221575379E-3  
 2.494000000000000E10    4.425819497555494E-3   1.164753176271915E-2  
 2.496000000000000E10    1.089167688041925E-2  -6.192306522279978E-3  
 2.498000000000000E10   -7.064407225698233E-3  -9.972611442208290E-3  
 2.500000000000000E10   -8.672552183270454E-3   7.840211503207684E-3  
 2.502000000000000E10    8.960875682532787E-3   7.970518432557583E-3  
 2.504000000000000E10    6.538894958794117E-3  -9.941584430634975E-3  
 2.506000000000000E10   -9.856889024376869E-3  -5.477785598486662E-3  
 2.508000000000000E10   -4.604856949299574E-3   1.018146052956581E-2  
 2.510000000000000E10    1.109711173921824E-2   3.356001805514097E-3  
 2.512000000000000E10    2.069850685074925E-3  -1.183612085878849E-2  
 2.514000000000000E10   -1.190262567251921E-2  -7.238393300212920E-4  
 2.516000000000000E10    5.752615397796035E-4   1.184618100523949E-2  
 2.518000000000000E10    1.181644573807716E-2  -2.270190045237541E-3  
 2.520000000000000E10   -3.626470919698477E-3  -1.195946149528027E-2  
 2.522000000000000E10   -1.089189108461142E-2   5.085035692900419E-3  
 2.524000000000000E10    6.169188767671585E-3   9.987876750528812E-3  
 2.526000000000000E10    9.278095327317715E-3  -7.414741441607475E-3  
 2.528000000000000E10   -8.047544397413731E-3  -8.397282101213932E-3  
 2.530000000000000E10   -7.720368914306164E-3   8.817450143396854E-3  
 2.532000000000000E10    9.779194369912148E-3   6.724471226334572E-3  
 2.534000000000000E10    5.595810245722532E-3  -1.034549903124571E-2  
 2.536000000000000E10   -1.122925244271755E-2  -3.813686547800899E-3  
 2.538000000000000E10   -2.656206721439958E-3   1.171861961483955E-2  
 2.540000000000000E10    1.137241907417774E-2   9.199872729368508E-4  
 2.542000000000000E10   -9.017725242301822E-4  -1.164265442639589E-2  
 2.544000000000000E10   -1.107148732990027E-2   2.526353113353252E-3  
 2.546000000000000E10    3.267822787165642E-3   1.089833397418261E-2  
 2.548000000000000E10    1.029581110924482E-2  -4.960414487868547E-3  
 2.550000000000000E10   -6.318501662462950E-3  -9.377392008900642E-3  
 2.552000000000000E10   -8.847990073263645E-3   7.951854728162289E-3  
 2.554000000000000E10    8.907554671168327E-3   7.567290682345629E-3  
 2.556000000000000E10    6.152943242341280E-3  -9.381419047713280E-3  
 2.558000000000000E10   -1.081110723316670E-2  -4.783702548593283E-3  
 2.560000000000000E10   -3.819281933829188E-3   1.098762173205614E-2  
 2.562000000000000E10    1.122112758457661E-2   2.414184389635921E-3  
 2.564000000000000E10    1.323401113040745E-3  -1.158051285892725E-2  
 2.566000000000000E10   -1.207611989229918E-2  -6.922023749211803E-5  
 2.568000000000000E10    1.928461599163711E-3   1.228372100740671E-2  
 2.570000000000000E10    1.161622535437346E-2  -3.872561967000365E-3  
 2.572000000000000E10   -5.087881349027157E-3  -1.008975040167570E-2  
 2.574000000000000E10   -1.014353893697262E-2   6.204480770975351E-3  
 2.576000000000000E10    7.703379727900028E-3   8.993417024612427E-3  
 2.578000000000000E10    7.578355725854635E-3  -8.587595075368881E-3  
 2.580000000000000E10   -9.367304854094982E-3  -6.356729660183191E-3  
 2.582000000000000E10   -5.208089482039213E-3   9.550175629556179E-3  
 2.584000000000000E10    1.068131625652313E-2   3.987172152847052E-3  
 2.586000000000000E10    2.535397186875343E-3  -1.095612440258265E-2  
 2.588000000000000E10   -1.056941226124764E-2  -7.398506859317422E-4  
 2.590000000000000E10    1.276725815841928E-4   1.067982055246830E-2  
 2.592000000000000E10    1.068996172398329E-2  -8.380060899071395E-4  
 2.594000000000000E10   -2.665301086381078E-3  -1.056050695478916E-2  
 2.596000000000000E10   -1.017298363149166E-2   3.533126087859273E-3  
 2.598000000000000E10    4.706401843577623E-3   9.944229386746883E-3  
 2.600000000000000E10    9.443399496376514E-3  -6.331496406346560E-3  
 2.602000000000000E10   -7.243266794830561E-3  -8.705877698957920E-3  
 2.604000000000000E10   -7.217503152787685E-3   8.450431749224663E-3  
 2.606000000000000E10    8.851684629917145E-3   6.237807683646679E-3  
 2.608000000000000E10    5.235796794295311E-3  -9.145402349531651E-3  
 2.610000000000000E10   -9.487156756222248E-3  -4.239040892571211E-3  
 2.612000000000000E10   -3.316423855721951E-3   1.019257679581642E-2  
 2.614000000000000E10    1.040727272629738E-2   2.105029765516520E-3  
 2.616000000000000E10    9.391906205564737E-4  -1.071690768003464E-2  
 2.618000000000000E10   -1.066185813397169E-2   1.606818113941699E-4  
 2.620000000000000E10    1.603624667041004E-3   1.054085884243250E-2  
 2.622000000000000E10    9.993756189942360E-3  -2.972035901620984E-3  
 2.624000000000000E10   -3.986976575106382E-3  -9.116443805396557E-3  
 2.626000000000000E10   -8.693500421941280E-3   5.068809725344181E-3  
 2.628000000000000E10    5.823964718729258E-3   8.187024854123592E-3  
 2.630000000000000E10    7.318827323615551E-3  -7.238822523504496E-3  
 2.632000000000000E10   -7.813323289155960E-3  -5.874447524547577E-3  
 2.634000000000000E10   -5.432348232716322E-3   8.050450123846531E-3  
 2.636000000000000E10    8.969472721219063E-3   4.178734496235848E-3  
 2.638000000000000E10    2.394548151642084E-3  -9.504397399723530E-3  
 2.640000000000000E10   -9.206988848745823E-3  -1.223166589625180E-3  
 2.642000000000000E10   -7.649417384527624E-4   9.028919041156769E-3  
 2.644000000000000E10    9.429298341274262E-3  -2.428655279800296E-4  
 2.646000000000000E10   -1.771360985003412E-3  -9.346666745841503E-3  
 2.648000000000000E10   -9.141623973846436E-3   2.725254744291306E-3  
 2.650000000000000E10    3.798471298068762E-3   8.983513340353966E-3  
 2.652000000000000E10    8.597680367529392E-3  -5.261425394564867E-3  
 2.654000000000000E10   -6.655897013843060E-3  -7.270232308655977E-3  
 2.656000000000000E10   -6.316787097603083E-3   6.979980506002903E-3  
 2.658000000000000E10    7.492570206522942E-3   5.454722326248884E-3  
 2.660000000000000E10    3.938537091016769E-3  -8.672428317368031E-3  
 2.662000000000000E10   -8.554634638130665E-3  -2.609570510685444E-3  
 2.664000000000000E10   -1.753462245687842E-3   8.447956293821335E-3  
 2.666000000000000E10    8.671686053276062E-3   6.731057655997574E-4  
 2.668000000000000E10   -3.212031733710319E-4  -8.374556899070740E-3  
 2.670000000000000E10   -7.985767908394337E-3   1.499870792031288E-3  
 2.672000000000000E10    1.814848859794438E-3   7.599997334182262E-3  
 2.674000000000000E10    7.383124902844429E-3  -2.791907405480743E-3  
 2.676000000000000E10   -4.328273702412844E-3  -6.507866550236940E-3  
 2.678000000000000E10   -5.952469073235989E-3   4.112761467695236E-3  
 2.680000000000000E10    4.940218757838011E-3   6.033331621438265E-3  
 2.682000000000000E10    5.465535447001457E-3  -5.937684327363968E-3  
 2.684000000000000E10   -6.166334729641676E-3  -4.453407600522041E-3  
 2.686000000000000E10   -3.348428755998612E-3   6.994678173214197E-3  
 2.688000000000000E10    7.477829698473215E-3   2.808304736390710E-3  
 2.690000000000000E10    1.847180305048823E-3  -7.643176242709160E-3  
 2.692000000000000E10   -7.653446868062019E-3  -1.032549480441958E-4  
 2.694000000000000E10    2.203004551120102E-4   7.453914266079664E-3  
 2.696000000000000E10    7.166570518165827E-3  -7.510719588026404E-4  
 2.698000000000000E10   -1.796344993636012E-3  -7.000803016126156E-3  
 2.700000000000000E10   -6.445080973207951E-3   2.329407725483179E-3  
 2.702000000000000E10    3.288717009127140E-3   6.248116493225098E-3  
 2.704000000000000E10    5.890517961233854E-3  -3.881056560203433E-3  
 2.706000000000000E10   -4.524749238044024E-3  -4.782130010426045E-3  
 2.708000000000000E10   -4.085847176611424E-3   4.810536280274391E-3  
 2.710000000000000E10    4.958554171025753E-3   4.106638487428427E-3  
 2.712000000000000E10    2.973351860418916E-3  -5.714918952435255E-3  
 2.714000000000000E10   -6.218478549271822E-3  -2.026541391387582E-3  
 2.716000000000000E10   -1.454328885301948E-3   5.537507124245167E-3  
 2.718000000000000E10    6.098577287048101E-3   6.580301560461521E-4  
 2.720000000000000E10    1.940160436788574E-4  -6.468385457992554E-3  
 2.722000000000000E10   -5.952372681349516E-3   3.521097823977470E-4  
 2.724000000000000E10    1.399259548634291E-3   5.469541531056166E-3  
 2.726000000000000E10    5.473534110933542E-3  -1.650408492423594E-3  
 2.728000000000000E10   -2.455092966556549E-3  -5.567032843828201E-3  
 2.730000000000000E10   -4.611135926097632E-3   2.841600682586432E-3  
 2.732000000000000E10    2.966828644275665E-3   4.472232423722744E-3  
 2.734000000000000E10    4.428215790539980E-3  -3.962795250117779E-3  
 2.736000000000000E10   -4.451595246791840E-3  -3.839652286842465E-3  
 2.738000000000000E10   -2.944446168839932E-3   4.502641502767801E-3  
 2.740000000000000E10    4.897078499197960E-3   1.988311298191547E-3  
 2.742000000000000E10    1.913423300720751E-3  -4.906036891043186E-3  
 2.744000000000000E10   -5.269808694720268E-3  -1.303146360442042E-3  
 2.746000000000000E10    6.102792031015270E-5   4.836912266910076E-3  
 2.748000000000000E10    4.833533894270659E-3   4.378533412818797E-5  
 2.750000000000000E10   -7.926819962449372E-4  -5.009932443499565E-3  
 2.752000000000000E10   -4.289290402084589E-3   1.652780105359852E-3  
 2.754000000000000E10    1.556984148919582E-3   4.042343236505985E-3  
 2.756000000000000E10    4.040203057229519E-3  -2.258580410853028E-3  
