#  HZ   S   RI   R     50.00 
! Rohde & Schwarz ZVA40 4Ports - Version 3.90 - 1145.1110k42 SN: 100403
! Date: 2023-10-04 08:45:21
! Measurement: S12 
! 
 2.200000000000000E10   -5.201723426580429E-3  -9.612266905605793E-3  
 2.202000000000000E10   -8.924543857574463E-3   6.433235947042704E-3  
 2.204000000000000E10    7.703006267547607E-3   8.563240058720112E-3  
 2.206000000000000E10    7.787583861500025E-3  -8.775406517088413E-3  
 2.208000000000000E10   -9.264811873435974E-3  -6.774786859750748E-3  
 2.210000000000000E10   -5.770182702690363E-3   1.040446665138006E-2  
 2.212000000000000E10    1.085487473756075E-2   4.785735625773668E-3  
 2.214000000000000E10    3.207670059055090E-3  -1.067939493805170E-2  
 2.216000000000000E10   -1.128250267356634E-2  -2.349349437281489E-3  
 2.218000000000000E10   -7.891028071753681E-4   1.158675365149975E-2  
 2.220000000000000E10    1.107166893780232E-2   9.481270535616204E-5  
 2.222000000000000E10   -1.147503498941660E-3  -1.106068864464760E-2  
 2.224000000000000E10   -1.113370712846518E-2   2.988309133797884E-3  
 2.226000000000000E10    4.536447580903769E-3   1.089075859636068E-2  
 2.228000000000000E10    9.952761232852936E-3  -5.806039553135634E-3  
 2.230000000000000E10   -7.143474649637938E-3  -8.934606797993183E-3  
 2.232000000000000E10   -8.174958638846874E-3   8.853562176227570E-3  
 2.234000000000000E10    9.530694223940373E-3   6.270349025726318E-3  
 2.236000000000000E10    5.328784231096506E-3  -9.773170575499535E-3  
 2.238000000000000E10   -1.064065936952829E-2  -4.609882831573486E-3  
 2.240000000000000E10   -3.131759818643332E-3   1.205038838088512E-2  
 2.242000000000000E10    1.250937487930059E-2   1.759701757691801E-3  
 2.244000000000000E10   -3.881272277794778E-5  -1.270081475377083E-2  
 2.246000000000000E10   -1.229219138622284E-2   1.192526891827583E-3  
 2.248000000000000E10    2.248460659757257E-3   1.235190127044916E-2  
 2.250000000000000E10    1.229545939713717E-2  -3.846732899546623E-3  
 2.252000000000000E10   -5.154955666512251E-3  -1.145764254033566E-2  
 2.254000000000000E10   -1.076256763190031E-2   5.928889848291874E-3  
 2.256000000000000E10    6.844702642410994E-3   1.019149739295244E-2  
 2.258000000000000E10    9.511553682386875E-3  -8.198878727853298E-3  
 2.260000000000000E10   -8.779250085353851E-3  -9.083060547709465E-3  
 2.262000000000000E10   -7.321133278310299E-3   9.565285407006741E-3  
 2.264000000000000E10    1.040668878704310E-2   6.375707685947418E-3  
 2.266000000000000E10    4.998354241251946E-3  -1.116322912275791E-2  
 2.268000000000000E10   -1.123472768813372E-2  -3.725813701748848E-3  
 2.270000000000000E10   -2.580252010375261E-3   1.151758059859276E-2  
 2.272000000000000E10    1.207369938492775E-2   9.975894354283810E-4  
 2.274000000000000E10   -7.111922022886574E-4  -1.256758440285921E-2  
 2.276000000000000E10   -1.232400909066200E-2   1.981864217668772E-3  
 2.278000000000000E10    3.877653973177075E-3   1.175455097109079E-2  
 2.280000000000000E10    1.152295898646116E-2  -5.292356014251709E-3  
 2.282000000000000E10    7.499628118239343E-4  -1.224633678793907E-2  
 2.284000000000000E10   -9.730462916195393E-3   7.744617294520140E-3  
 2.286000000000000E10    8.793717250227928E-3   9.225144051015377E-3  
 2.288000000000000E10    8.234991692006588E-3  -1.001972798258066E-2  
 2.290000000000000E10   -1.111378148198128E-2  -7.413143292069435E-3  
 2.292000000000000E10   -6.099381018429995E-3   1.185275707393885E-2  
 2.294000000000000E10    1.286146696656942E-2   4.442629404366016E-3  
 2.296000000000000E10    2.305272733792663E-3  -1.332152541726828E-2  
 2.298000000000000E10   -1.278122514486313E-2  -1.937010325491428E-3  
 2.300000000000000E10   -4.783220938406885E-4   1.367709599435329E-2  
 2.302000000000000E10    1.356598455458880E-2  -1.470716786570847E-3  
 2.304000000000000E10   -3.273526905104518E-3  -1.272630132734776E-2  
 2.306000000000000E10   -1.249691285192967E-2   4.733261186629534E-3  
 2.308000000000000E10    6.115615367889404E-3   1.194803696125746E-2  
 2.310000000000000E10    1.136910263448954E-2  -7.442317903041840E-3  
 2.312000000000000E10   -9.369000792503357E-3  -9.634825401008129E-3  
 2.314000000000000E10   -8.610507473349571E-3   9.945366531610489E-3  
 2.316000000000000E10    1.093944907188416E-2   7.473290897905827E-3  
 2.318000000000000E10    5.659842863678932E-3  -1.219540555030108E-2  
 2.320000000000000E10   -1.272968109697104E-2  -4.201405216008425E-3  
 2.322000000000000E10   -2.457998925819993E-3   1.315435301512480E-2  
 2.324000000000000E10    1.337886881083250E-2   8.544397423975170E-4  
 2.326000000000000E10   -8.828446152620018E-4  -1.371292956173420E-2  
 2.328000000000000E10   -1.342879235744476E-2   2.633144846186042E-3  
 2.330000000000000E10    4.188184626400471E-3   1.313652098178864E-2  
 2.332000000000000E10    1.245464663952589E-2  -5.975028965622187E-3  
 2.334000000000000E10   -7.125942036509514E-3  -1.159438583999872E-2  
 2.336000000000000E10   -1.122707594186068E-2   8.475525304675102E-3  
 2.338000000000000E10    9.604427032172680E-3   9.737546555697918E-3  
 2.340000000000000E10    8.758008480072022E-3  -1.106807682663202E-2  
 2.342000000000000E10   -1.216692570596933E-2  -7.774367462843657E-3  
 2.344000000000000E10   -5.879583768546581E-3   1.305713411420584E-2  
 2.346000000000000E10    1.358942035585642E-2   4.138017538934946E-3  
 2.348000000000000E10    2.457387046888471E-3  -1.395932305604219E-2  
 2.350000000000000E10   -1.431403215974569E-2  -6.800203118473291E-4  
 2.352000000000000E10    1.204008003696799E-3   1.455559488385916E-2  
 2.354000000000000E10    1.382074877619743E-2  -3.264749422669411E-3  
 2.356000000000000E10   -5.385766737163067E-3  -1.338669285178185E-2  
 2.358000000000000E10   -1.235954929143190E-2   6.837759632617235E-3  
 2.360000000000000E10    8.263419382274151E-3   1.094847451895475E-2  
 2.362000000000000E10    1.015656348317862E-2  -9.718994610011578E-3  
 2.364000000000000E10   -1.048753783106804E-2  -8.831182494759560E-3  
 2.366000000000000E10   -7.130957674235106E-3   1.155396737158299E-2  
 2.368000000000000E10    1.236827671527863E-2   6.089033093303442E-3  
 2.370000000000000E10    4.619008861482143E-3  -1.326538529247046E-2  
 2.372000000000000E10   -1.374091114848852E-2  -2.766344463452697E-3  
 2.374000000000000E10   -1.155600300990045E-3   1.434395182877779E-2  
 2.376000000000000E10    1.388012524694204E-2  -3.398401895537973E-4  
 2.378000000000000E10   -2.129787812009454E-3  -1.441044639796019E-2  
 2.380000000000000E10   -1.419621892273426E-2   3.658967558294535E-3  
 2.382000000000000E10    5.880205892026424E-3   1.342082675546408E-2  
 2.384000000000000E10    1.258493959903717E-2  -7.538834586739540E-3  
 2.386000000000000E10   -8.959563449025154E-3  -1.148866675794125E-2  
 2.388000000000000E10   -1.007696334272623E-2   1.079274993389845E-2  
 2.390000000000000E10    1.173997297883034E-2   8.751958608627319E-3  
 2.392000000000000E10    7.092506624758244E-3  -1.248040888458490E-2  
 2.394000000000000E10   -1.355707924813032E-2  -5.344371777027845E-3  
 2.396000000000000E10   -3.532322589308024E-3   1.439031306654215E-2  
 2.398000000000000E10    1.447319239377976E-2   1.337689114734530E-3  
 2.400000000000000E10   -8.487447048537433E-4  -1.464651711285114E-2  
 2.402000000000000E10   -1.366444490849972E-2   4.163283854722977E-3  
 2.404000000000000E10    5.830715876072645E-3   1.305403094738722E-2  
 2.406000000000000E10    1.225554198026657E-2  -7.060324307531118E-3  
 2.408000000000000E10   -8.264927193522453E-3  -1.108040381222963E-2  
 2.410000000000000E10   -1.021384354680777E-2   9.714641608297825E-3  
 2.412000000000000E10    1.021304633468390E-2   8.797571063041687E-3  
 2.414000000000000E10    7.815863937139511E-3  -1.138895191252232E-2  
 2.416000000000000E10   -1.245167292654514E-2  -6.630219984799624E-3  
 2.418000000000000E10   -4.989242646843195E-3   1.322625111788511E-2  
 2.420000000000000E10    1.333650201559067E-2   3.353648819029331E-3  
 2.422000000000000E10    2.237347885966301E-3  -1.343125756829977E-2  
 2.424000000000000E10   -1.371140778064728E-2  -4.086277913302183E-4  
 2.426000000000000E10    1.145779620856047E-3   1.394418813288212E-2  
 2.428000000000000E10    1.323595549911261E-2  -2.650468377396464E-3  
 2.430000000000000E10   -4.336642101407051E-3  -1.301491539925337E-2  
 2.432000000000000E10   -1.306848227977753E-2   6.135559640824795E-3  
 2.434000000000000E10    7.689920719712973E-3   1.144976262003183E-2  
 2.436000000000000E10    1.022078096866608E-2  -9.027895517647266E-3  
 2.438000000000000E10   -9.598855860531330E-3  -8.338613435626030E-3  
 2.440000000000000E10   -7.481694221496582E-3   1.036444026976824E-2  
 2.442000000000000E10    1.139544788748026E-2   6.249983794987202E-3  
 2.444000000000000E10    4.251784645020962E-3  -1.136220246553421E-2  
 2.446000000000000E10   -1.157550606876612E-2  -2.690088935196400E-3  
 2.448000000000000E10   -1.576149719767273E-3   1.165959145873785E-2  
 2.450000000000000E10    1.173684187233448E-2   7.680439157411456E-4  
 2.452000000000000E10   -9.963647462427616E-4  -1.199842523783445E-2  
 2.454000000000000E10   -1.139592658728361E-2   2.691114088520408E-3  
 2.456000000000000E10    3.662082366645336E-3   1.130381785333157E-2  
 2.458000000000000E10    1.105342805385590E-2  -5.068391095846891E-3  
 2.460000000000000E10   -6.256297696381807E-3  -1.001847814768553E-2  
 2.462000000000000E10   -9.261255152523518E-3   7.272550370544195E-3  
 2.464000000000000E10    7.976308465003967E-3   9.052459150552750E-3  
 2.466000000000000E10    8.028785698115826E-3  -8.763718418776989E-3  
 2.468000000000000E10   -9.913922287523747E-3  -6.946527864784002E-3  
 2.470000000000000E10   -5.528998095542193E-3   1.069110445678234E-2  
 2.472000000000000E10    1.100339367985725E-2   3.761513391509652E-3  
 2.474000000000000E10    3.077471163123846E-3  -1.088532619178295E-2  
 2.476000000000000E10   -1.097251288592815E-2  -2.291701501235366E-3  
 2.478000000000000E10   -6.198337650857866E-4   1.114073302596808E-2  
 2.480000000000000E10    1.110617164522409E-2  -6.352934869937599E-4  
 2.482000000000000E10   -1.642962568439543E-3  -1.083057280629873E-2  
 2.484000000000000E10   -1.111543644219637E-2   3.152186749503017E-3  
 2.486000000000000E10    5.244988016784191E-3   1.014369446784258E-2  
 2.488000000000000E10    8.786396123468876E-3  -6.440405268222094E-3  
 2.490000000000000E10   -6.906507071107626E-3  -7.663533557206392E-3  
 2.492000000000000E10   -7.130191195756197E-3   7.321774493902922E-3  
 2.494000000000000E10    8.449804969131947E-3   5.887641571462154E-3  
 2.496000000000000E10    4.786395467817783E-3  -9.339150041341782E-3  
 2.498000000000000E10   -9.563541039824486E-3  -3.780562663450837E-3  
 2.500000000000000E10   -2.989861415699124E-3   9.700826369225979E-3  
 2.502000000000000E10    1.046552415937185E-2   1.838646014221013E-3  
 2.504000000000000E10    2.600005536805838E-4  -1.018488593399525E-2  
 2.506000000000000E10   -9.892839007079601E-3   3.661698137875646E-4  
 2.508000000000000E10    1.056236564181745E-3   1.048224419355393E-2  
 2.510000000000000E10    1.001972611993551E-2  -2.714452333748341E-3  
 2.512000000000000E10   -3.587422659620643E-3  -9.568138048052788E-3  
 2.514000000000000E10   -9.371777065098286E-3   4.847642965614796E-3  
 2.516000000000000E10    6.002952810376883E-3   8.820853196084499E-3  
 2.518000000000000E10    8.255061693489552E-3  -6.658629514276981E-3  
 2.520000000000000E10   -8.019034750759602E-3  -6.810000631958246E-3  
 2.522000000000000E10   -5.537302233278751E-3   8.578927256166935E-3  
 2.524000000000000E10    8.896760642528534E-3   4.465093836188316E-3  
 2.526000000000000E10    3.015060210600495E-3  -9.184565395116806E-3  
 2.528000000000000E10   -9.677387773990631E-3  -2.421738579869270E-3  
 2.530000000000000E10   -1.354236970655620E-3   1.000765617936850E-2  
 2.532000000000000E10    9.799184277653694E-3   1.636835622775834E-5  
 2.534000000000000E10   -8.262181654572487E-4  -1.030523516237736E-2  
 2.536000000000000E10   -9.700588881969452E-3   2.774170832708478E-3  
 2.538000000000000E10    3.681370289996266E-3   9.046009741723537E-3  
 2.540000000000000E10    8.863164111971855E-3  -4.689455498009920E-3  
 2.542000000000000E10   -5.789023824036121E-3  -7.623882498592138E-3  
 2.544000000000000E10   -7.172323763370514E-3   6.799859460443258E-3  
 2.546000000000000E10    7.429237477481365E-3   6.568226963281632E-3  
 2.548000000000000E10    5.926314741373062E-3  -8.339272812008858E-3  
 2.550000000000000E10   -9.584052488207817E-3  -4.633620847016573E-3  
 2.552000000000000E10   -2.448171377182007E-3   9.902792051434517E-3  
 2.554000000000000E10    1.011235918849707E-2   1.358568319119513E-3  
 2.556000000000000E10    4.322373424656689E-4  -1.000369898974896E-2  
 2.558000000000000E10   -9.807551279664040E-3   1.435494166798890E-3  
 2.560000000000000E10    2.406836720183492E-3   9.681936353445053E-3  
 2.562000000000000E10    9.278105571866036E-3  -3.008416853845120E-3  
 2.564000000000000E10   -4.181680269539356E-3  -8.888631127774715E-3  
 2.566000000000000E10   -8.626149967312813E-3   5.599173717200756E-3  
 2.568000000000000E10    6.735008209943771E-3   7.642193231731653E-3  
 2.570000000000000E10    6.520477123558521E-3  -7.963989861309528E-3  
 2.572000000000000E10   -8.342776447534561E-3  -4.961819853633642E-3  
 2.574000000000000E10   -3.818128956481814E-3   8.815655484795570E-3  
 2.576000000000000E10    9.459552355110645E-3   2.923391526564956E-3  
 2.578000000000000E10    1.489356625825167E-3  -9.263194166123867E-3  
 2.580000000000000E10   -9.579739533364773E-3   1.284982863580808E-4  
 2.582000000000000E10    9.681942756287754E-4   9.423526003956795E-3  
 2.584000000000000E10    9.231028147041798E-3  -2.190396189689636E-3  
 2.586000000000000E10   -3.988639917224646E-3  -8.983242325484753E-3  
 2.588000000000000E10   -8.081516250967979E-3   4.769113846123219E-3  
 2.590000000000000E10    5.416146479547024E-3   7.141022477298975E-3  
 2.592000000000000E10    7.100369781255722E-3  -5.879359319806099E-3  
 2.594000000000000E10   -6.702702026814222E-3  -6.608600262552500E-3  
 2.596000000000000E10   -5.574392620474100E-3   7.768897339701653E-3  
 2.598000000000000E10    8.153048343956471E-3   4.834380000829697E-3  
 2.600000000000000E10    3.999862354248762E-3  -8.907705545425415E-3  
 2.602000000000000E10   -9.786146692931652E-3  -2.426761668175459E-3  
 2.604000000000000E10   -1.073141815140843E-3   9.221687912940979E-3  
 2.606000000000000E10    8.782787248492241E-3   1.633692154427990E-4  
 2.608000000000000E10   -4.954775795340538E-4  -8.723922073841095E-3  
 2.610000000000000E10   -8.707738481462002E-3   1.456571044400334E-3  
 2.612000000000000E10    2.862403867766261E-3   8.142751641571522E-3  
 2.614000000000000E10    7.679310627281666E-3  -3.481640247628093E-3  
 2.616000000000000E10   -4.044414963573217E-3  -7.332095410674810E-3  
 2.618000000000000E10   -6.883280351758003E-3   5.244271829724312E-3  
 2.620000000000000E10    6.026590242981911E-3   5.578323267400265E-3  
 2.622000000000000E10    5.073685199022293E-3  -6.417009979486466E-3  
 2.624000000000000E10   -7.274821400642395E-3  -4.450011532753706E-3  
 2.626000000000000E10   -3.122034482657909E-3   7.509036920964718E-3  
 2.628000000000000E10    8.231505751609802E-3   2.515133935958147E-3  
 2.630000000000000E10    1.876261434517801E-3  -8.058915846049786E-3  
 2.632000000000000E10   -8.672971278429031E-3  -4.292893281672150E-4  
 2.634000000000000E10    9.032347006723285E-4   8.072477765381336E-3  
 2.636000000000000E10    8.183941245079041E-3  -1.554921502247453E-3  
 2.638000000000000E10   -2.490010578185320E-3  -7.446782197803259E-3  
 2.640000000000000E10   -7.238685619086027E-3   3.473037621006370E-3  
 2.642000000000000E10    4.305264446884394E-3   6.925641559064388E-3  
 2.644000000000000E10    6.321175489574671E-3  -4.359156358987093E-3  
 2.646000000000000E10   -5.445731338113546E-3  -5.858469288796186E-3  
 2.648000000000000E10   -5.106391385197640E-3   6.656068377196789E-3  
 2.650000000000000E10    6.780967116355896E-3   3.686529584228993E-3  
 2.652000000000000E10    2.997469855472446E-3  -7.058858405798674E-3  
 2.654000000000000E10   -7.565503008663654E-3  -2.241809153929353E-3  
 2.656000000000000E10   -6.384181906469166E-4   7.981400005519390E-3  
 2.658000000000000E10    7.455421146005392E-3  -2.809107245411724E-4  
 2.660000000000000E10   -7.403513882309198E-4  -7.413565181195736E-3  
 2.662000000000000E10   -7.093199063092470E-3   2.452917164191604E-3  
 2.664000000000000E10    3.250079695135355E-3   6.325801834464073E-3  
 2.666000000000000E10    5.475046578794718E-3  -3.711431752890348E-3  
 2.668000000000000E10   -4.051063209772110E-3  -5.659022368490696E-3  
 2.670000000000000E10   -4.925715737044811E-3   4.613485187292099E-3  
 2.672000000000000E10    5.326441023498774E-3   3.637671470642090E-3  
 2.674000000000000E10    3.222819184884429E-3  -5.525629036128521E-3  
 2.676000000000000E10   -5.785496439784765E-3  -2.938801888376474E-3  
 2.678000000000000E10   -1.558424439281225E-3   6.778725888580084E-3  
 2.680000000000000E10    6.074292119592428E-3   8.338468032889068E-4  
 2.682000000000000E10    5.703223869204521E-4  -6.319030653685331E-3  
 2.684000000000000E10   -6.717558484524488E-3   1.303914905292913E-4  
 2.686000000000000E10    1.240920857526362E-3   6.382342427968979E-3  
 2.688000000000000E10    5.711842328310013E-3  -2.380252350121737E-3  
 2.690000000000000E10   -2.390772802755237E-3  -5.773085169494152E-3  
 2.692000000000000E10   -5.322057753801346E-3   3.009403357282281E-3  
 2.694000000000000E10    4.212632775306702E-3   4.487735219299793E-3  
 2.696000000000000E10    3.838221309706569E-3  -3.819822333753109E-3  
 2.698000000000000E10   -4.231929779052734E-3  -3.717620624229312E-3  
 2.700000000000000E10   -3.138275351375341E-3   5.136345047503710E-3  
 2.702000000000000E10    5.169087089598179E-3   1.684536808170378E-3  
 2.704000000000000E10    1.517430180683732E-3  -4.926763009279966E-3  
 2.706000000000000E10   -5.016627721488476E-3  -1.203221036121249E-3  
 2.708000000000000E10   -1.958190550794825E-4   5.185951013118029E-3  
 2.710000000000000E10    4.973379429429770E-3  -5.667628138326109E-4  
 2.712000000000000E10   -6.844882736913860E-4  -4.554346669465303E-3  
 2.714000000000000E10   -4.814337939023972E-3   1.568984589539468E-3  
 2.716000000000000E10    2.388912485912442E-3   4.619443789124489E-3  
 2.718000000000000E10    3.632182488217950E-3  -2.588509116321802E-3  
 2.720000000000000E10   -2.947794971987605E-3  -3.733908990398049E-3  
 2.722000000000000E10   -3.685957519337535E-3   3.603630699217320E-3  
 2.724000000000000E10    3.841142868623138E-3   2.601149957627058E-3  
 2.726000000000000E10    2.250361023470759E-3  -3.966413438320160E-3  
 2.728000000000000E10   -3.880917327478528E-3  -1.888159895315766E-3  
 2.730000000000000E10   -1.489754067733884E-3   4.561693873256445E-3  
 2.732000000000000E10    4.460422322154045E-3   8.113653166219592E-4  
 2.734000000000000E10    4.415136936586350E-4  -3.847913816571236E-3  
 2.736000000000000E10   -4.572549369186163E-3  -3.622630320023745E-4  
 2.738000000000000E10    6.189194391481578E-4   4.274333827197552E-3  
 2.740000000000000E10    3.593366593122482E-3  -1.263487851247191E-3  
 2.742000000000000E10   -1.617517787963152E-3  -3.910817671567202E-3  
 2.744000000000000E10   -3.562040627002716E-3   1.965424511581659E-3  
 2.746000000000000E10    2.211552113294601E-3   3.254306968301535E-3  
 2.748000000000000E10    2.473972039297223E-3  -2.638579579070211E-3  
 2.750000000000000E10   -2.610626863315702E-3  -2.285443944856525E-3  
 2.752000000000000E10   -2.289393451064825E-3   3.030800493434072E-3  
 2.754000000000000E10    3.402694594115019E-3   1.438385108485818E-3  
 2.756000000000000E10    1.021454925648868E-3  -3.124371869489551E-3  
