#  HZ   S   RI   R     50.00 
! Rohde & Schwarz ZVA40 4Ports - Version 3.90 - 1145.1110k42 SN: 100403
! Date: 2023-10-04 08:46:01
! Measurement: S12 
! 
 2.200000000000000E10   -9.122778661549091E-3  -4.144315607845783E-3  
 2.202000000000000E10   -2.864176407456398E-3   9.675711393356323E-3  
 2.204000000000000E10    9.601796045899391E-3   1.817574491724372E-3  
 2.206000000000000E10    6.356835947372019E-4  -9.778790175914764E-3  
 2.208000000000000E10   -1.057830546051264E-2   5.955116357654333E-4  
 2.210000000000000E10    1.660436624661088E-3   1.033335737884045E-2  
 2.212000000000000E10    9.675464592874050E-3  -2.792936516925693E-3  
 2.214000000000000E10   -3.708092262968421E-3  -9.591638110578060E-3  
 2.216000000000000E10   -9.212062694132328E-3   5.430271849036217E-3  
 2.218000000000000E10    6.145144347101450E-3   8.434807881712914E-3  
 2.220000000000000E10    7.781603373587132E-3  -6.493058521300554E-3  
 2.222000000000000E10   -7.604453712701798E-3  -6.949749775230885E-3  
 2.224000000000000E10   -5.959675647318363E-3   8.562608622014523E-3  
 2.226000000000000E10    9.077956900000572E-3   5.154996179044247E-3  
 2.228000000000000E10    3.826654748991132E-3  -9.374427609145641E-3  
 2.230000000000000E10   -9.909937158226967E-3  -2.575644757598639E-3  
 2.232000000000000E10   -1.120198052376509E-3   1.022408716380596E-2  
 2.234000000000000E10    9.973518550395966E-3  -4.460886702872813E-4  
 2.236000000000000E10   -1.487899688072503E-3  -9.749739430844784E-3  
 2.238000000000000E10   -9.845478460192680E-3   2.167228609323502E-3  
 2.240000000000000E10    3.785521956160665E-3   9.506079368293285E-3  
 2.242000000000000E10    9.079115465283394E-3  -5.608519073575735E-3  
 2.244000000000000E10   -6.248107179999352E-3  -8.193121291697025E-3  
 2.246000000000000E10   -7.452050223946571E-3   6.935831625014544E-3  
 2.248000000000000E10    7.797947153449059E-3   6.359891965985298E-3  
 2.250000000000000E10    5.740968044847250E-3  -8.962678723037243E-3  
 2.252000000000000E10   -9.550972841680050E-3  -4.691343754529953E-3  
 2.254000000000000E10   -3.719708649441600E-3   9.575533680617809E-3  
 2.256000000000000E10    1.013178937137127E-2   2.763510681688786E-3  
 2.258000000000000E10    1.826368621550500E-3  -1.085976138710976E-2  
 2.260000000000000E10   -1.065258122980595E-2  -9.573000716045499E-4  
 2.262000000000000E10    7.993482868187130E-4   1.054313965141773E-2  
 2.264000000000000E10    1.039453968405724E-2  -1.771234208717942E-3  
 2.266000000000000E10   -2.620227867737413E-3  -1.033283490687609E-2  
 2.268000000000000E10   -9.552937932312489E-3   3.618576563894749E-3  
 2.270000000000000E10    4.554962273687124E-3   8.670059032738209E-3  
 2.272000000000000E10    8.436151780188084E-3  -5.593355745077133E-3  
 2.274000000000000E10   -6.453284993767738E-3  -7.961900904774666E-3  
 2.276000000000000E10   -6.996382027864456E-3   7.319823838770390E-3  
 2.278000000000000E10    8.577632717788220E-3   5.495411809533835E-3  
 2.280000000000000E10    4.451331682503223E-3  -9.100445546209812E-3  
 2.282000000000000E10   -5.289202556014061E-3  -7.890975102782250E-3  
 2.284000000000000E10   -2.187002683058381E-3   9.761190973222256E-3  
 2.286000000000000E10    9.999791160225868E-3   1.012697932310402E-3  
 2.288000000000000E10    9.004295134218410E-5  -1.029127836227417E-2  
 2.290000000000000E10   -1.053799502551556E-2   1.068218727596104E-3  
 2.292000000000000E10    2.922988263890147E-3   1.052455883473158E-2  
 2.294000000000000E10    1.017088163644075E-2  -3.913035616278648E-3  
 2.296000000000000E10   -5.091475322842598E-3  -9.471856057643890E-3  
 2.298000000000000E10   -9.105643257498741E-3   6.071047857403755E-3  
 2.300000000000000E10    7.167286705225706E-3   8.910983800888062E-3  
 2.302000000000000E10    7.821592502295971E-3  -8.032019250094891E-3  
 2.304000000000000E10   -9.010694921016693E-3  -6.758696865290403E-3  
 2.306000000000000E10   -5.555186420679092E-3   9.630524553358555E-3  
 2.308000000000000E10    1.001035328954458E-2   4.725658334791660E-3  
 2.310000000000000E10    3.578414907678962E-3  -1.070652436465025E-2  
 2.312000000000000E10   -1.106514688581228E-2  -1.533086178824306E-3  
 2.314000000000000E10   -5.371610168367624E-4   1.097215898334980E-2  
 2.316000000000000E10    1.055618748068810E-2  -6.909713847562671E-4  
 2.318000000000000E10   -2.866621827706695E-3  -1.039325911551714E-2  
 2.320000000000000E10   -9.691636078059673E-3   3.971302881836891E-3  
 2.322000000000000E10    4.413039889186621E-3   9.135277941823006E-3  
 2.324000000000000E10    8.495085872709751E-3  -6.147746462374926E-3  
 2.326000000000000E10   -7.303063292056322E-3  -7.728279568254948E-3  
 2.328000000000000E10   -6.883648689836264E-3   8.550077676773071E-3  
 2.330000000000000E10    9.369967505335808E-3   5.510174669325352E-3  
 2.332000000000000E10    4.100867081433535E-3  -9.437385015189648E-3  
 2.334000000000000E10   -1.050946768373251E-2  -3.243248676881194E-3  
 2.336000000000000E10   -2.234412590041757E-3   1.114107854664326E-2  
 2.338000000000000E10    1.106852758675814E-2   9.694433538243175E-4  
 2.340000000000000E10   -9.766592411324382E-4  -1.125881168991327E-2  
 2.342000000000000E10   -1.116047892719507E-2   1.990890596061945E-3  
 2.344000000000000E10    3.330968786031008E-3   1.080218888819218E-2  
 2.346000000000000E10    1.016806717962027E-2  -4.733656067401171E-3  
 2.348000000000000E10   -5.741200875490904E-3  -9.434522129595280E-3  
 2.350000000000000E10   -8.695499971508980E-3   6.646233145147562E-3  
 2.352000000000000E10    7.960369810461998E-3   7.966846227645874E-3  
 2.354000000000000E10    6.918720901012421E-3  -8.758304640650749E-3  
 2.356000000000000E10   -9.454997256398201E-3  -5.487753078341484E-3  
 2.358000000000000E10   -4.419504199177027E-3   9.713765233755112E-3  
 2.360000000000000E10    1.033636927604675E-2   3.037082497030497E-3  
 2.362000000000000E10    1.847051549702883E-3  -1.123433467000723E-2  
 2.364000000000000E10   -1.071631070226431E-2  -3.759466926567257E-4  
 2.366000000000000E10    1.264926278963685E-3   1.054680719971657E-2  
 2.368000000000000E10    1.052312832325697E-2  -2.352595329284668E-3  
 2.370000000000000E10   -3.156391438096762E-3  -1.014463789761066E-2  
 2.372000000000000E10   -9.637019596993923E-3   4.830386489629746E-3  
 2.374000000000000E10    6.304730195552111E-3   9.020702913403511E-3  
 2.376000000000000E10    8.665379136800766E-3  -7.355603389441967E-3  
 2.378000000000000E10   -8.403720334172249E-3  -7.514394819736481E-3  
 2.380000000000000E10   -5.876650568097830E-3   8.903851732611656E-3  
 2.382000000000000E10    1.030165050178766E-2   5.013283342123032E-3  
 2.384000000000000E10    4.071743693202734E-3  -1.105160731822252E-2  
 2.386000000000000E10   -1.091717556118965E-2  -2.402393845841289E-3  
 2.388000000000000E10   -6.440706201829016E-4   1.155025325715542E-2  
 2.390000000000000E10    1.179398223757744E-2  -1.053438987582922E-3  
 2.392000000000000E10   -2.395567251369357E-3  -1.142468303442001E-2  
 2.394000000000000E10   -1.091059762984514E-2   4.062059801071882E-3  
 2.396000000000000E10    5.172341130673885E-3   1.026615034788847E-2  
 2.398000000000000E10    9.601966477930546E-3  -6.538854911923409E-3  
 2.400000000000000E10   -7.761415559798479E-3  -8.548626676201820E-3  
 2.402000000000000E10   -6.319456268101931E-3   9.312166832387447E-3  
 2.404000000000000E10    1.009241398423910E-2   5.119103472679853E-3  
 2.406000000000000E10    3.647402627393603E-3  -1.035846769809723E-2  
 2.408000000000000E10   -1.032251399010420E-2  -2.569502219557762E-3  
 2.410000000000000E10   -1.359551679342985E-3   1.068048086017370E-2  
 2.412000000000000E10    1.041737664490938E-2   4.253358638379723E-4  
 2.414000000000000E10   -1.031171996146441E-3  -1.066544372588396E-2  
 2.416000000000000E10   -1.052007637917996E-2   2.334727207198739E-3  
 2.418000000000000E10    3.516026772558689E-3   9.879223071038723E-3  
 2.420000000000000E10    9.065430611371994E-3  -4.585104994475842E-3  
 2.422000000000000E10   -5.809776950627565E-3  -8.977425284683704E-3  
 2.424000000000000E10   -8.500735275447369E-3   6.975777912884951E-3  
 2.426000000000000E10    7.971038110554218E-3   7.259895559400320E-3  
 2.428000000000000E10    5.774453748017550E-3  -8.539244532585144E-3  
 2.430000000000000E10   -9.238013066351414E-3  -5.264894571155310E-3  
 2.432000000000000E10   -4.321719985455275E-3   9.788442403078079E-3  
 2.434000000000000E10    1.030717976391316E-2   2.641490427777171E-3  
 2.436000000000000E10    1.118236570619047E-3  -1.060356292873621E-2  
 2.438000000000000E10   -1.020374335348606E-2   4.065653774887323E-5  
 2.440000000000000E10    9.542064508423209E-4   9.978259913623333E-3  
 2.442000000000000E10    9.496108628809452E-3  -2.275235718116164E-3  
 2.444000000000000E10   -3.329530823975802E-3  -8.866885676980019E-3  
 2.446000000000000E10   -8.384086191654205E-3   4.126789513975382E-3  
 2.448000000000000E10    4.572770092636347E-3   7.790897041559219E-3  
 2.450000000000000E10    7.088744547218084E-3  -5.517579615116119E-3  
 2.452000000000000E10   -6.949194241315126E-3  -6.296871695667505E-3  
 2.454000000000000E10   -5.157854873687029E-3   7.285922300070524E-3  
 2.456000000000000E10    7.275262847542763E-3   4.266999661922455E-3  
 2.458000000000000E10    3.198441118001938E-3  -8.035504259169102E-3  
 2.460000000000000E10   -8.417140692472458E-3  -2.431062050163746E-3  
 2.462000000000000E10   -1.510139671154320E-3   8.641788735985756E-3  
 2.464000000000000E10    8.769102394580841E-3   4.058184276800603E-4  
 2.466000000000000E10   -3.801245766226202E-4  -8.675877004861832E-3  
 2.468000000000000E10   -8.852259255945683E-3   1.796344411559403E-3  
 2.470000000000000E10    2.860997803509235E-3   8.591090328991413E-3  
 2.472000000000000E10    7.798436097800732E-3  -3.834591247141361E-3  
 2.474000000000000E10   -4.434669855982065E-3  -7.327956147491932E-3  
 2.476000000000000E10   -6.856998428702354E-3   4.987057764083147E-3  
 2.478000000000000E10    5.899267736822367E-3   5.961286835372448E-3  
 2.480000000000000E10    5.371481645852327E-3  -6.429330911487341E-3  
 2.482000000000000E10   -6.797204259783030E-3  -4.977928940206766E-3  
 2.484000000000000E10   -3.731150180101395E-3   7.260715588927269E-3  
 2.486000000000000E10    7.880945689976215E-3   2.636689925566316E-3  
 2.488000000000000E10    1.516062533482909E-3  -7.680720649659634E-3  
 2.490000000000000E10   -7.309200707823038E-3  -8.328722324222326E-4  
 2.492000000000000E10   -1.037935799104162E-4   7.434658706188202E-3  
 2.494000000000000E10    7.088627200573683E-3  -8.311397396028042E-4  
 2.496000000000000E10   -1.517846132628620E-3  -7.326590362936258E-3  
 2.498000000000000E10   -6.996300537139177E-3   2.468917984515429E-3  
 2.500000000000000E10    3.200046019628644E-3   6.325389724224806E-3  
 2.502000000000000E10    6.440745200961828E-3  -4.359446931630373E-3  
 2.504000000000000E10   -4.868241026997566E-3  -5.296925082802773E-3  
 2.506000000000000E10   -4.424352198839188E-3   5.147550255060196E-3  
 2.508000000000000E10    5.368012934923172E-3   4.253675695508719E-3  
 2.510000000000000E10    3.853596514090896E-3  -6.022515241056681E-3  
 2.512000000000000E10   -7.136876229196787E-3  -3.190464340150356E-3  
 2.514000000000000E10   -2.108073094859719E-3   7.378535345196724E-3  
 2.516000000000000E10    7.595363538712263E-3   1.157781458459795E-3  
 2.518000000000000E10    2.492223284207285E-4  -8.105613291263580E-3  
 2.520000000000000E10   -7.498298771679401E-3   1.232370384968817E-3  
 2.522000000000000E10    1.918238820508122E-3   7.081843912601471E-3  
 2.524000000000000E10    6.591680925339460E-3  -2.176046604290605E-3  
 2.526000000000000E10   -2.993530593812466E-3  -6.441323552280664E-3  
 2.528000000000000E10   -6.561247166246176E-3   3.584434511139989E-3  
 2.530000000000000E10    4.291667137295008E-3   6.002224981784821E-3  
 2.532000000000000E10    4.939760547131300E-3  -5.098522640764713E-3  
 2.534000000000000E10   -5.588362459093332E-3  -4.526589065790176E-3  
 2.536000000000000E10   -3.514283569529653E-3   5.627111531794071E-3  
 2.538000000000000E10    6.164075341075659E-3   3.030617022886872E-3  
 2.540000000000000E10    2.207563957199454E-3  -6.452077999711037E-3  
 2.542000000000000E10   -6.278946064412594E-3  -1.015470363199711E-3  
 2.544000000000000E10   -4.354332049842924E-4   6.882463116198778E-3  
 2.546000000000000E10    6.530342157930136E-3  -5.417664069682360E-4  
 2.548000000000000E10   -1.562420628033578E-3  -6.619803607463837E-3  
 2.550000000000000E10   -6.571544334292412E-3   2.712642308324575E-3  
 2.552000000000000E10    3.890797030180693E-3   5.566121544688940E-3  
 2.554000000000000E10    4.920307546854019E-3  -4.512545652687550E-3  
 2.556000000000000E10   -4.636225290596485E-3  -4.175735171884298E-3  
 2.558000000000000E10   -3.818521508947015E-3   5.259881727397442E-3  
 2.560000000000000E10    6.084785796701908E-3   3.362617455422878E-3  
 2.562000000000000E10    2.556306077167392E-3  -5.661824718117714E-3  
 2.564000000000000E10   -6.496507208794355E-3  -2.028915798291564E-3  
 2.566000000000000E10   -1.318948110565543E-3   7.168421987444162E-3  
 2.568000000000000E10    7.104055956006050E-3   3.104331262875348E-4  
 2.570000000000000E10   -1.399176893755794E-3  -6.937614642083645E-3  
 2.572000000000000E10   -5.993363447487354E-3   1.781147089786828E-3  
 2.574000000000000E10    2.293307334184647E-3   6.262343842536211E-3  
 2.576000000000000E10    5.965313408523798E-3  -3.015516558662057E-3  
 2.578000000000000E10   -4.113451577723026E-3  -5.098983645439148E-3  
 2.580000000000000E10   -4.752494394779205E-3   4.765588790178299E-3  
 2.582000000000000E10    4.997867625206709E-3   3.880123142153025E-3  
 2.584000000000000E10    3.068626858294010E-3  -5.530995782464743E-3  
 2.586000000000000E10   -5.856102332472801E-3  -1.917532412335277E-3  
 2.588000000000000E10   -1.325842225924134E-3   5.677166860550642E-3  
 2.590000000000000E10    5.869961809366942E-3   7.489697891287506E-4  
 2.592000000000000E10   -1.066659751813859E-4  -6.056130863726139E-3  
 2.594000000000000E10   -5.635603796690702E-3   4.850063414778560E-4  
 2.596000000000000E10    1.322514377534390E-3   5.851934198290110E-3  
 2.598000000000000E10    5.617377813905478E-3  -2.162123331800103E-3  
 2.600000000000000E10   -3.138302359730005E-3  -5.616129375994206E-3  
 2.602000000000000E10   -4.872819408774376E-3   3.729687072336674E-3  
 2.604000000000000E10    3.946312703192234E-3   4.427453503012657E-3  
 2.606000000000000E10    3.893727203831077E-3  -4.453395493328571E-3  
 2.608000000000000E10   -4.853285849094391E-3  -2.940582577139139E-3  
 2.610000000000000E10   -2.932862145826221E-3   4.723603371530771E-3  
 2.612000000000000E10    5.354391876608133E-3   2.445400226861239E-3  
 2.614000000000000E10    1.683680922724307E-3  -5.678075831383467E-3  
 2.616000000000000E10   -5.753129720687866E-3  -1.324616139754653E-3  
 2.618000000000000E10   -4.226983292028308E-4   5.851123016327620E-3  
 2.620000000000000E10    5.777983460575342E-3  -5.533450748771429E-4  
 2.622000000000000E10   -1.161102904006839E-3  -5.643606185913086E-3  
 2.624000000000000E10   -4.776721820235252E-3   1.985520124435425E-3  
 2.626000000000000E10    1.807264401577413E-3   4.795754794031382E-3  
 2.628000000000000E10    5.030068568885326E-3  -2.692333422601223E-3  
 2.630000000000000E10   -3.643064294010401E-3  -4.120927304029465E-3  
 2.632000000000000E10   -3.203217871487141E-3   4.028027411550283E-3  
 2.634000000000000E10    3.900732146576047E-3   2.874819794669747E-3  
 2.636000000000000E10    2.517208922654390E-3  -4.682432860136032E-3  
 2.638000000000000E10   -4.547896794974804E-3  -1.606084289960563E-3  
 2.640000000000000E10   -8.656056015752256E-4   4.462817683815956E-3  
 2.642000000000000E10    4.699128214269877E-3   9.615872404538095E-4  
 2.644000000000000E10    1.225177838932723E-4  -5.186494905501604E-3  
 2.646000000000000E10   -4.917431622743607E-3   1.418046769686043E-3  
 2.648000000000000E10    1.174753997474909E-3   4.339361097663641E-3  
 2.650000000000000E10    4.819508641958237E-3  -1.995600759983063E-3  
 2.652000000000000E10   -2.802595263347030E-3  -4.391232505440712E-3  
 2.654000000000000E10   -3.640001174062491E-3   2.979457145556808E-3  
 2.656000000000000E10    3.708025440573692E-3   3.153070807456970E-3  
 2.658000000000000E10    3.130926284939051E-3  -3.806401509791613E-3  
 2.660000000000000E10   -4.554434679448605E-3  -1.954624429345131E-3  
 2.662000000000000E10   -1.133130630478263E-3   4.248303361237049E-3  
 2.664000000000000E10    4.095921292901039E-3   1.319324597716332E-3  
 2.666000000000000E10    8.222471806220710E-4  -4.730531480163336E-3  
 2.668000000000000E10   -4.399498924612999E-3   4.216158122289926E-4  
 2.670000000000000E10    7.787016220390797E-4   3.764410968869925E-3  
 2.672000000000000E10    4.011140204966068E-3  -1.002379227429628E-3  
 2.674000000000000E10   -1.517980126664043E-3  -3.662207396700978E-3  
 2.676000000000000E10   -3.403187729418278E-3   1.893188222311437E-3  
 2.678000000000000E10    2.259819535538554E-3   3.051836509257555E-3  
 2.680000000000000E10    3.229205729439855E-3  -2.287474693730474E-3  
 2.682000000000000E10   -3.648531623184681E-3  -2.663079649209976E-3  
 2.684000000000000E10   -1.244736602529883E-3   3.456760197877884E-3  
 2.686000000000000E10    3.132069949060679E-3   1.299677183851600E-3  
 2.688000000000000E10    1.334931002929807E-3  -3.925656434148550E-3  
 2.690000000000000E10   -3.977130167186260E-3  -4.850086115766317E-4  
 2.692000000000000E10    2.374463801970705E-4   3.353511681780219E-3  
 2.694000000000000E10    3.652701387181878E-3  -3.441775916144252E-4  
 2.696000000000000E10   -7.696211687289178E-4  -3.410232253372669E-3  
 2.698000000000000E10   -3.209356684237719E-3   1.314303139224649E-3  
 2.700000000000000E10    1.681053312495351E-3   2.786658238619566E-3  
 2.702000000000000E10    2.670404035598040E-3  -1.789776841178536E-3  
 2.704000000000000E10   -2.584075788035989E-3  -2.618881873786449E-3  
 2.706000000000000E10   -1.793451723642647E-3   2.385874278843403E-3  
 2.708000000000000E10    2.076183212921023E-3   1.744566950947046E-3  
 2.710000000000000E10    1.577844028361142E-3  -2.700112527236342E-3  
 2.712000000000000E10   -2.704625716432929E-3  -9.189919219352305E-4  
 2.714000000000000E10   -3.407335898373276E-4   2.781384158879519E-3  
 2.716000000000000E10    2.703529316931963E-3   3.025233454536647E-4  
 2.718000000000000E10   -1.089361248887144E-4  -2.623691456392407E-3  
 2.720000000000000E10   -2.787166507914662E-3   4.447138635441661E-4  
 2.722000000000000E10    8.459864184260368E-4   2.206864301115274E-3  
 2.724000000000000E10    1.937657827511430E-3  -9.338091476820409E-4  
 2.726000000000000E10   -1.270770444534719E-3  -2.349885180592537E-3  
 2.728000000000000E10   -1.752474345266819E-3   1.654362655244768E-3  
 2.730000000000000E10    1.632324536330998E-3   1.467223977670074E-3  
 2.732000000000000E10    1.272962661460042E-3  -1.910928753204644E-3  
 2.734000000000000E10   -1.847721170634031E-3  -1.168264774605632E-3  
 2.736000000000000E10   -8.638858562335372E-4   2.369874622672796E-3  
 2.738000000000000E10    2.188824582844973E-3   1.582445256644860E-4  
 2.740000000000000E10    3.031938977073878E-4  -2.370145404711366E-3  
 2.742000000000000E10   -2.519239671528339E-3  -7.886827916081529E-6  
 2.744000000000000E10    4.998784279450774E-4   2.177273854613304E-3  
 2.746000000000000E10    2.006174298003316E-3  -6.201462238095701E-4  
 2.748000000000000E10   -4.932244773954153E-4  -2.160142408683896E-3  
 2.750000000000000E10   -1.667750300839543E-3   7.967635174281895E-4  
 2.752000000000000E10    1.233982620760799E-3   1.886888290755451E-3  
 2.754000000000000E10    1.617350731976330E-3  -1.336646149866283E-3  
 2.756000000000000E10   -1.010684412904084E-3  -1.337828929536045E-3  
