#  HZ   S   RI   R     50.00 
! Rohde & Schwarz ZVA40 4Ports - Version 3.90 - 1145.1110k42 SN: 100403
! Date: 2023-10-04 08:46:49
! Measurement: S12 
! 
 2.200000000000000E10   -6.341085769236088E-3  -5.223690997809172E-3  
 2.202000000000000E10   -4.525509197264910E-3   7.137510459870100E-3  
 2.204000000000000E10    7.331608794629574E-3   3.477212274447084E-3  
 2.206000000000000E10    2.631364623084664E-3  -7.666790857911110E-3  
 2.208000000000000E10   -8.009150624275208E-3  -1.737250364385545E-3  
 2.210000000000000E10   -5.690740654245019E-4   8.108404465019703E-3  
 2.212000000000000E10    7.898948155343533E-3  -1.705915201455355E-4  
 2.214000000000000E10   -1.080880290828645E-3  -7.756876293569803E-3  
 2.216000000000000E10   -8.123335428535938E-3   2.551186596974731E-3  
 2.218000000000000E10    3.562777768820524E-3   7.692716084420681E-3  
 2.220000000000000E10    7.173547521233559E-3  -3.949214704334736E-3  
 2.222000000000000E10   -4.744558129459620E-3  -6.866803858429194E-3  
 2.224000000000000E10   -6.372659932821989E-3   5.907541606575251E-3  
 2.226000000000000E10    6.674796342849731E-3   6.029868498444557E-3  
 2.228000000000000E10    5.241776816546917E-3  -7.269618101418018E-3  
 2.230000000000000E10   -7.919012568891048E-3  -3.972993232309818E-3  
 2.232000000000000E10   -3.118372522294521E-3   8.439470082521439E-3  
 2.234000000000000E10    8.450368419289589E-3   1.943048089742661E-3  
 2.236000000000000E10    1.040868810378015E-3  -8.473057299852371E-3  
 2.238000000000000E10   -8.501815609633923E-3  -1.757297286530957E-4  
 2.240000000000000E10    1.012676162645221E-3   8.353233337402344E-3  
 2.242000000000000E10    8.035290986299515E-3  -1.874680747278035E-3  
 2.244000000000000E10   -2.795134205371141E-3  -7.836045697331429E-3  
 2.246000000000000E10   -7.360042538493872E-3   3.754679113626480E-3  
 2.248000000000000E10    4.272331018000841E-3   6.552030798047781E-3  
 2.250000000000000E10    6.103351246565580E-3  -5.171614699065685E-3  
 2.252000000000000E10   -5.714167840778828E-3  -5.236858036369085E-3  
 2.254000000000000E10   -4.504972603172064E-3   6.440600380301476E-3  
 2.256000000000000E10    6.892465054988861E-3   3.952886909246445E-3  
 2.258000000000000E10    3.136831335723400E-3  -7.716158870607615E-3  
 2.260000000000000E10   -7.765197195112705E-3  -2.616317942738533E-3  
 2.262000000000000E10   -1.160292769782245E-3   7.876217365264893E-3  
 2.264000000000000E10    8.235178887844086E-3   9.426659671589732E-4  
 2.266000000000000E10   -3.497045545373112E-4  -8.565627038478851E-3  
 2.268000000000000E10   -8.330745622515678E-3   1.479489030316472E-3  
 2.270000000000000E10    2.268109237775207E-3   7.743624970316887E-3  
 2.272000000000000E10    7.753937505185604E-3  -2.744088880717754E-3  
 2.274000000000000E10   -3.454536199569702E-3  -7.664335891604424E-3  
 2.276000000000000E10   -7.457021158188582E-3   4.476940724998713E-3  
 2.278000000000000E10    5.325786303728819E-3   6.670963950455189E-3  
 2.280000000000000E10    5.578970536589623E-3  -5.739860236644745E-3  
 2.282000000000000E10   -2.050297567620874E-3  -7.490080781280994E-3  
 2.284000000000000E10   -4.122042562812567E-3   6.988713983446360E-3  
 2.286000000000000E10    6.831734906882048E-3   3.122526919469237E-3  
 2.288000000000000E10    2.515423111617565E-3  -6.940919905900955E-3  
 2.290000000000000E10   -7.400732021778822E-3  -1.350766397081316E-3  
 2.292000000000000E10   -4.682000726461411E-4   7.559617981314659E-3  
 2.294000000000000E10    7.707016542553902E-3  -3.343360440339893E-4  
 2.296000000000000E10   -1.469330396503210E-3  -7.334321737289429E-3  
 2.298000000000000E10   -7.617937400937080E-3   2.408108441159129E-3  
 2.300000000000000E10    3.231433918699622E-3   7.337564602494240E-3  
 2.302000000000000E10    6.742758210748434E-3  -4.386404063552618E-3  
 2.304000000000000E10   -5.268922541290522E-3  -5.921873264014721E-3  
 2.306000000000000E10   -5.507862195372582E-3   5.927798803895712E-3  
 2.308000000000000E10    6.465859245508909E-3   4.951586015522480E-3  
 2.310000000000000E10    4.484168719500303E-3  -7.332835812121630E-3  
 2.312000000000000E10   -8.075972087681294E-3  -3.593541448935866E-3  
 2.314000000000000E10   -2.419563708826900E-3   8.463448844850063E-3  
 2.316000000000000E10    8.358427323400974E-3   1.095313346013427E-3  
 2.318000000000000E10    9.226735710399225E-5  -8.565246127545834E-3  
 2.320000000000000E10   -8.386305533349514E-3   2.312448050361127E-4  
 2.322000000000000E10    1.397869898937643E-3   8.046809583902359E-3  
 2.324000000000000E10    7.506648544222117E-3  -2.218744484707713E-3  
 2.326000000000000E10   -2.775688655674458E-3  -7.351899519562721E-3  
 2.328000000000000E10   -7.312390487641096E-3   3.855022136121988E-3  
 2.330000000000000E10    4.781987518072128E-3   6.372207310050726E-3  
 2.332000000000000E10    5.648623686283827E-3  -5.577948875725269E-3  
 2.334000000000000E10   -6.193666253238916E-3  -4.622163716703653E-3  
 2.336000000000000E10   -3.621381707489491E-3   6.436809897422791E-3  
 2.338000000000000E10    7.034935057163239E-3   2.786616561934352E-3  
 2.340000000000000E10    2.031428506597877E-3  -7.217018865048885E-3  
 2.342000000000000E10   -7.389645557850599E-3  -1.014107838273048E-3  
 2.344000000000000E10    5.232539260759950E-4   7.596759591251612E-3  
 2.346000000000000E10    7.307261228561401E-3  -1.275675604119897E-3  
 2.348000000000000E10   -1.894857618026435E-3  -7.063223514705896E-3  
 2.350000000000000E10   -6.981848739087582E-3   2.994022332131863E-3  
 2.352000000000000E10    4.256790969520807E-3   6.477143149822950E-3  
 2.354000000000000E10    5.957491695880890E-3  -4.914877004921436E-3  
 2.356000000000000E10   -5.359681323170662E-3  -5.405301693826914E-3  
 2.358000000000000E10   -4.723181016743183E-3   5.872723646461964E-3  
 2.360000000000000E10    6.574381142854691E-3   4.225689452141523E-3  
 2.362000000000000E10    3.943666350096464E-3  -7.045828737318516E-3  
 2.364000000000000E10   -7.543487939983606E-3  -2.778736641630530E-3  
 2.366000000000000E10   -1.976987812668085E-3   7.698120549321175E-3  
 2.368000000000000E10    7.636566646397114E-3   1.437766244634986E-3  
 2.370000000000000E10    2.805646217893809E-4  -8.048669435083866E-3  
 2.372000000000000E10   -7.915000431239605E-3   5.378764471970499E-4  
 2.374000000000000E10    1.718872110359371E-3   7.797492668032646E-3  
 2.376000000000000E10    7.322518154978752E-3  -2.099257428199053E-3  
 2.378000000000000E10   -2.693143207579851E-3  -7.193713914602995E-3  
 2.380000000000000E10   -6.986748427152634E-3   4.101934842765331E-3  
 2.382000000000000E10    5.223503801971674E-3   6.448713596910238E-3  
 2.384000000000000E10    5.297652445733547E-3  -5.937162321060896E-3  
 2.386000000000000E10   -6.185231730341911E-3  -4.360402468591929E-3  
 2.388000000000000E10   -3.614153480157256E-3   6.931641604751349E-3  
 2.390000000000000E10    7.643923163414002E-3   2.501229522749782E-3  
 2.392000000000000E10    1.133843208663166E-3  -7.968137040734291E-3  
 2.394000000000000E10   -7.809563074260950E-3   8.982991130324081E-5  
 2.396000000000000E10    9.456259431317449E-4   7.878011092543602E-3  
 2.398000000000000E10    7.736889179795981E-3  -2.157364971935749E-3  
 2.400000000000000E10   -3.466443857178092E-3  -7.370002102106810E-3  
 2.402000000000000E10   -6.283622700721026E-3   4.933547694236040E-3  
 2.404000000000000E10    5.866718478500843E-3   5.814881063997746E-3  
 2.406000000000000E10    4.620758816599846E-3  -6.328386254608631E-3  
 2.408000000000000E10   -6.659659557044506E-3  -4.210948944091797E-3  
 2.410000000000000E10   -3.305172314867377E-3   7.121613714843988E-3  
 2.412000000000000E10    7.196424528956413E-3   2.826439216732979E-3  
 2.414000000000000E10    1.981044188141823E-3  -7.902353070676327E-3  
 2.416000000000000E10   -7.781814783811569E-3  -9.040267905220389E-4  
 2.418000000000000E10    3.529860114213079E-4   7.734855171293020E-3  
 2.420000000000000E10    7.621513679623604E-3  -1.458592247217894E-3  
 2.422000000000000E10   -2.027745824307203E-3  -7.134951651096344E-3  
 2.424000000000000E10   -6.735763978213072E-3   2.775812987238169E-3  
 2.426000000000000E10    3.743491368368268E-3   6.202592980116606E-3  
 2.428000000000000E10    5.816656164824963E-3  -4.186244681477547E-3  
 2.430000000000000E10   -4.801773466169834E-3  -5.322314798831940E-3  
 2.432000000000000E10   -4.193306900560856E-3   5.628657992929220E-3  
 2.434000000000000E10    5.840199068188667E-3   3.684791503474116E-3  
 2.436000000000000E10    2.892814809456468E-3  -6.716498173773289E-3  
 2.438000000000000E10   -6.153364200145006E-3  -1.999658066779375E-3  
 2.440000000000000E10   -1.465149107389152E-3   6.285896990448237E-3  
 2.442000000000000E10    6.678781472146511E-3   6.378167308866978E-4  
 2.444000000000000E10   -2.036568766925484E-4  -6.660440005362034E-3  
 2.446000000000000E10   -6.293564569205046E-3   8.122234139591456E-4  
 2.448000000000000E10    1.553029287606478E-3   5.794419907033444E-3  
 2.450000000000000E10    5.799477454274893E-3  -2.258796012029052E-3  
 2.452000000000000E10   -3.081651171669364E-3  -5.436706822365522E-3  
 2.454000000000000E10   -4.450722597539425E-3   3.321229713037610E-3  
 2.456000000000000E10    3.695823950693011E-3   4.276119638234377E-3  
 2.458000000000000E10    4.015240352600813E-3  -4.322612658143044E-3  
 2.460000000000000E10   -4.728385712951422E-3  -3.316097194328904E-3  
 2.462000000000000E10   -2.560490975156426E-3   4.997315816581249E-3  
 2.464000000000000E10    5.235724151134491E-3   2.280968474224210E-3  
 2.466000000000000E10    1.665898365899921E-3  -5.621670279651880E-3  
 2.468000000000000E10   -5.824994761496782E-3  -8.465394494123757E-4  
 2.470000000000000E10   -1.183890417451039E-4   6.008519325405359E-3  
 2.472000000000000E10    5.543885286897421E-3  -9.518935112282634E-4  
 2.474000000000000E10   -1.203145249746740E-3  -5.331429187208414E-3  
 2.476000000000000E10   -5.285028368234634E-3   1.856832881458104E-3  
 2.478000000000000E10    2.387841232120991E-3   4.848953802138567E-3  
 2.480000000000000E10    4.464259836822748E-3  -2.861179178580642E-3  
 2.482000000000000E10   -3.558882279321551E-3  -3.728335723280907E-3  
 2.484000000000000E10   -3.622298594564199E-3   3.816145705059171E-3  
 2.486000000000000E10    4.536498803645372E-3   2.834790386259556E-3  
 2.488000000000000E10    1.672268612310290E-3  -4.620111081749201E-3  
 2.490000000000000E10   -4.448798485100269E-3  -1.212331699207425E-3  
 2.492000000000000E10   -1.090991310775280E-3   4.668361973017454E-3  
 2.494000000000000E10    4.764049779623747E-3   4.497524641919881E-4  
 2.496000000000000E10   -3.483193286228925E-4  -4.432708024978638E-3  
 2.498000000000000E10   -4.350499249994755E-3   6.400003330782056E-4  
 2.500000000000000E10    6.831360515207052E-4   4.158178810030222E-3  
 2.502000000000000E10    4.552500322461128E-3  -1.128728035837412E-3  
 2.504000000000000E10   -1.925290329381824E-3  -3.962707240134478E-3  
 2.506000000000000E10   -3.835738636553288E-3   1.836581039242446E-3  
 2.508000000000000E10    2.386288717389107E-3   3.713763086125255E-3  
 2.510000000000000E10    3.298045368865132E-3  -2.937933197245002E-3  
 2.512000000000000E10   -2.700536511838436E-3  -2.888646908104420E-3  
 2.514000000000000E10   -2.883873647078872E-3   3.590697655454278E-3  
 2.516000000000000E10    3.855240065604448E-3   2.169394399970770E-3  
 2.518000000000000E10    1.479849219322205E-3  -3.831661073490977E-3  
 2.520000000000000E10   -4.136379808187485E-3  -6.119927857071161E-4  
 2.522000000000000E10   -2.720683114603162E-4   3.792000934481621E-3  
 2.524000000000000E10    3.812246490269899E-3  -4.531100566964597E-4  
 2.526000000000000E10   -8.242058102041483E-4  -3.481762018054724E-3  
 2.528000000000000E10   -3.738279454410076E-3   9.132674313150346E-4  
 2.530000000000000E10    2.039380138739944E-3   3.847727552056313E-3  
 2.532000000000000E10    3.399644512683153E-3  -2.452808199450374E-3  
 2.534000000000000E10   -2.537318738177419E-3  -2.995941787958145E-3  
 2.536000000000000E10   -2.511142054572702E-3   3.437386825680733E-3  
 2.538000000000000E10    3.337371628731489E-3   2.329573500901461E-3  
 2.540000000000000E10    1.935621956363320E-3  -3.609591396525502E-3  
 2.542000000000000E10   -3.757898462936282E-3  -1.636211178265512E-3  
 2.544000000000000E10   -1.259971759282053E-3   4.202811047434807E-3  
 2.546000000000000E10    4.391374997794628E-3   4.145581042394042E-4  
 2.548000000000000E10    1.159360763267614E-4  -4.084924701601267E-3  
 2.550000000000000E10   -3.941335249692202E-3   4.356191493570805E-4  
 2.552000000000000E10    1.370380516164005E-3   3.510019043460488E-3  
 2.554000000000000E10    3.335496643558145E-3  -1.276433351449668E-3  
 2.556000000000000E10   -1.509692287072539E-3  -2.982906065881252E-3  
 2.558000000000000E10   -2.521647838875651E-3   2.218595240265131E-3  
 2.560000000000000E10    2.366594737395644E-3   1.848069019615650E-3  
 2.562000000000000E10    1.772393821738660E-3  -2.251599449664354E-3  
 2.564000000000000E10   -2.680831821635366E-3  -1.831691013649106E-3  
 2.566000000000000E10   -1.222519320435822E-3   3.104662057012320E-3  
 2.568000000000000E10    3.396916901692748E-3   8.120910497382283E-4  
 2.570000000000000E10   -8.170991350198165E-5  -3.224740270525217E-3  
 2.572000000000000E10   -3.388996701687574E-3   5.413417238742113E-4  
 2.574000000000000E10    8.433693437837064E-4   3.198491176590323E-3  
 2.576000000000000E10    2.912580035626888E-3  -1.393476501107216E-3  
 2.578000000000000E10   -1.561407814733684E-3  -2.683865604922175E-3  
 2.580000000000000E10   -2.666390268132091E-3   1.980949426069856E-3  
 2.582000000000000E10    2.094766590744257E-3   2.154653891921043E-3  
 2.584000000000000E10    2.045998116955161E-3  -2.550972625613213E-3  
 2.586000000000000E10   -2.736511873081327E-3  -1.471380237489939E-3  
 2.588000000000000E10   -1.564032747410238E-3   2.701923949643970E-3  
 2.590000000000000E10    2.855264814570546E-3   1.024033874273300E-3  
 2.592000000000000E10    9.231118601746857E-4  -2.794884610921145E-3  
 2.594000000000000E10   -3.061566734686494E-3  -7.858464960008860E-4  
 2.596000000000000E10    1.021634743665345E-4   3.338313428685069E-3  
 2.598000000000000E10    2.868855372071266E-3  -4.445016675163060E-4  
 2.600000000000000E10   -6.592333666048944E-4  -2.763656666502357E-3  
 2.602000000000000E10   -2.731714397668839E-3   9.415293461643159E-4  
 2.604000000000000E10    1.312494394369423E-3   2.414963906630874E-3  
 2.606000000000000E10    2.013467252254486E-3  -1.809519249945879E-3  
 2.608000000000000E10   -1.908406848087907E-3  -1.541596720926464E-3  
 2.610000000000000E10   -1.604944816790521E-3   1.590476487763226E-3  
 2.612000000000000E10    2.378990175202489E-3   1.193146337755024E-3  
 2.614000000000000E10    7.448537508025765E-4  -2.197772497311235E-3  
 2.616000000000000E10   -1.835663570091128E-3  -9.528854279778898E-4  
 2.618000000000000E10   -7.622044649906457E-4   2.349670045077801E-3  
 2.620000000000000E10    2.531819744035602E-3   1.161808904726058E-4  
 2.622000000000000E10   -1.878674665931612E-4  -2.292366465553641E-3  
 2.624000000000000E10   -2.480665454640985E-3   3.199052880518138E-4  
 2.626000000000000E10    6.583175854757428E-4   2.573391422629356E-3  
 2.628000000000000E10    2.369781956076622E-3  -1.477405661717057E-3  
 2.630000000000000E10   -1.589863793924451E-3  -2.019820967689157E-3  
 2.632000000000000E10   -1.982945948839188E-3   1.532415160909295E-3  
 2.634000000000000E10    2.136884490028024E-3   1.674725557677448E-3  
 2.636000000000000E10    9.879670105874538E-4  -2.377792494371533E-3  
 2.638000000000000E10   -1.883806777186692E-3  -6.823602598160505E-4  
 2.640000000000000E10   -7.677130051888526E-4   2.109592780470848E-3  
 2.642000000000000E10    2.459612442180514E-3   3.162420180160552E-4  
 2.644000000000000E10   -8.007349970284849E-5  -2.318179467692971E-3  
 2.646000000000000E10   -2.020544605329633E-3  -1.013779619825073E-4  
 2.648000000000000E10    5.691800615750253E-4   2.471972722560167E-3  
 2.650000000000000E10    2.327105496078730E-3  -1.232426846399903E-3  
 2.652000000000000E10   -9.041901212185621E-4  -1.602427102625370E-3  
 2.654000000000000E10   -1.741586020216346E-3   9.652141598053277E-4  
 2.656000000000000E10    1.607664045877755E-3   1.703744754195213E-3  
 2.658000000000000E10    1.035801949910820E-3  -2.094048075377941E-3  
 2.660000000000000E10   -1.905964803881943E-3  -3.395669336896390E-4  
 2.662000000000000E10   -1.998788648052141E-4   1.990483608096838E-3  
 2.664000000000000E10    2.040339633822441E-3   9.042942110681906E-5  
 2.666000000000000E10   -2.258234308101237E-4  -1.565825310535729E-3  
 2.668000000000000E10   -1.417606603354216E-3   1.635358785279095E-4  
 2.670000000000000E10    2.193546097259969E-4   1.920716371387243E-3  
 2.672000000000000E10    1.809863839298487E-3  -1.170933479443193E-3  
 2.674000000000000E10   -1.203578081913292E-3  -8.028451120480895E-4  
 2.676000000000000E10   -1.095875282771885E-3   8.909326279535890E-4  
 2.678000000000000E10    1.217144774273038E-3   1.221939106471837E-3  
 2.680000000000000E10    7.754298858344555E-4  -1.326490659266710E-3  
 2.682000000000000E10   -1.451696036383510E-3  -3.783383872359991E-4  
 2.684000000000000E10   -6.943359039723873E-4   1.414381782524288E-3  
 2.686000000000000E10    1.481291023083031E-3   2.456895890645683E-4  
 2.688000000000000E10   -1.902020630950574E-5  -1.437061466276646E-3  
 2.690000000000000E10   -1.324001350440085E-3  -2.756451067398302E-6  
 2.692000000000000E10    1.569501764606684E-4   1.230718218721449E-3  
 2.694000000000000E10    1.429375610314310E-3  -3.954787389375269E-4  
 2.696000000000000E10   -8.314027800224721E-4  -8.454096387140453E-4  
 2.698000000000000E10   -8.767686667852104E-4   5.658210720866919E-4  
 2.700000000000000E10    8.053545025177300E-4   1.351877814158797E-3  
 2.702000000000000E10    7.897206232883036E-4  -1.343359006568790E-3  
 2.704000000000000E10   -1.327139907516539E-3  -4.293556849006563E-4  
 2.706000000000000E10   -5.023482372052968E-4   1.069393707439303E-3  
 2.708000000000000E10    1.013051485642791E-3   3.818363184109330E-4  
 2.710000000000000E10    1.039550406858325E-4  -1.435380312614143E-3  
 2.712000000000000E10   -1.224815379828215E-3   2.181207819376141E-4  
 2.714000000000000E10    7.809369708411396E-5   1.143192173913121E-3  
 2.716000000000000E10    1.291974447667599E-3   2.223898991360329E-5  
 2.718000000000000E10   -6.904976908117533E-4  -1.379813416860998E-3  
 2.720000000000000E10   -9.096392896026373E-4   5.119440611451864E-4  
 2.722000000000000E10    5.384339601732791E-4   9.392978390678763E-4  
 2.724000000000000E10    5.763422814197838E-4  -9.086400386877358E-4  
 2.726000000000000E10   -7.643359713256359E-4  -7.178778760135174E-4  
 2.728000000000000E10   -1.962489186553285E-4   7.675082306377590E-4  
 2.730000000000000E10    1.056381966918707E-3   3.250835288781673E-4  
 2.732000000000000E10    3.192250442225486E-4  -9.414806263521314E-4  
 2.734000000000000E10   -8.142235456034541E-4   2.722544304560870E-4  
 2.736000000000000E10    1.953045721165836E-4   8.699066238477826E-4  
 2.738000000000000E10    8.124986197799444E-4  -5.650613456964493E-5  
 2.740000000000000E10   -6.532724364660680E-4  -8.088783943094313E-4  
 2.742000000000000E10   -5.627364735119045E-4   7.037761388346553E-4  
 2.744000000000000E10    4.140114178881049E-4   4.584972921293229E-4  
 2.746000000000000E10    4.737952258437872E-4  -6.141792982816696E-4  
 2.748000000000000E10   -5.532454233616591E-4  -2.359954814892262E-4  
 2.750000000000000E10   -1.385138020850718E-4   9.600276825949550E-4  
 2.752000000000000E10    4.132316680625081E-4   2.794631873257458E-4  
 2.754000000000000E10    1.953670289367437E-4  -6.651254952885211E-4  
 2.756000000000000E10   -8.142015431076288E-4   1.096542619052343E-4  
