#  HZ   S   RI   R     50.00 
! Rohde & Schwarz ZVA40 4Ports - Version 3.90 - 1145.1110k42 SN: 100403
! Date: 2023-10-04 08:50:54
! Measurement: S12 
! 
 2.200000000000000E10   -4.259431734681130E-4   1.155027071945369E-3  
 2.202000000000000E10    1.432709512300789E-3   4.956136690452695E-4  
 2.204000000000000E10    4.180276009719819E-4  -1.883689197711647E-3  
 2.206000000000000E10   -1.605913974344730E-3   5.390265869209543E-5  
 2.208000000000000E10   -9.013373346533626E-5   1.514703850261867E-3  
 2.210000000000000E10    1.562569988891482E-3  -1.714797399472445E-4  
 2.212000000000000E10   -2.806276279443409E-5  -1.993623329326510E-3  
 2.214000000000000E10   -1.887193298898637E-3   2.640964230522513E-4  
 2.216000000000000E10    4.860690678469837E-4   1.889887615107000E-3  
 2.218000000000000E10    1.962763955816627E-3  -5.936677334830165E-4  
 2.220000000000000E10   -8.739361655898392E-4  -1.851930050179362E-3  
 2.222000000000000E10   -1.816898118704557E-3   7.703248411417007E-4  
 2.224000000000000E10    8.404456893913448E-4   1.504573388956487E-3  
 2.226000000000000E10    1.267492887564004E-3  -1.170717063359916E-3  
 2.228000000000000E10   -1.139587606303394E-3  -1.322129042819142E-3  
 2.230000000000000E10   -1.284313970245421E-3   1.134922495111823E-3  
 2.232000000000000E10    1.404374605044723E-3   9.100353345274925E-4  
 2.234000000000000E10    6.922570755705237E-4  -1.265494618564844E-3  
 2.236000000000000E10   -1.117431791499257E-3  -5.091293714940548E-4  
 2.238000000000000E10   -5.944253061898053E-4   1.198181766085327E-3  
 2.240000000000000E10    1.156214508228004E-3   5.346596008166671E-4  
 2.242000000000000E10    1.152994300355203E-4  -1.427817041985691E-3  
 2.244000000000000E10   -1.354888314381242E-3  -3.107140582869761E-5  
 2.246000000000000E10   -6.641761865466833E-5   1.549134613014758E-3  
 2.248000000000000E10    1.227223430760205E-3  -2.021790569415316E-4  
 2.250000000000000E10   -2.100274577969685E-4  -1.446404377929866E-3  
 2.252000000000000E10   -1.439569285139442E-3   5.590940127149224E-4  
 2.254000000000000E10    7.071339059621096E-4   1.565091311931610E-3  
 2.256000000000000E10    1.398687018081546E-3  -5.371511797420681E-4  
 2.258000000000000E10   -9.062156314030290E-4  -1.799595891498029E-3  
 2.260000000000000E10   -1.570293563418090E-3   1.266304985620081E-3  
 2.262000000000000E10    1.478126854635775E-3   1.421734341420233E-3  
 2.264000000000000E10    1.732223667204380E-3  -1.504703424870968E-3  
 2.266000000000000E10   -1.995008671656251E-3  -1.483441097661853E-3  
 2.268000000000000E10   -1.171814627014101E-3   2.254865365102887E-3  
 2.270000000000000E10    2.110509667545557E-3   9.512005490250886E-4  
 2.272000000000000E10    9.982881601899862E-4  -2.349872374907136E-3  
 2.274000000000000E10   -2.623361302539706E-3  -6.931958487257361E-4  
 2.276000000000000E10   -1.653039362281561E-4   2.638924168422818E-3  
 2.278000000000000E10    2.561291214078665E-3   1.837613817770034E-4  
 2.280000000000000E10   -2.398784126853570E-4  -2.730753505602479E-3  
 2.282000000000000E10   -2.415711525827646E-3  -7.170605822466314E-4  
 2.284000000000000E10    8.417998906224966E-4   2.183931181207299E-3  
 2.286000000000000E10    2.344459993764758E-3  -8.945756708271802E-4  
 2.288000000000000E10   -1.407346106134355E-3  -2.162575023248792E-3  
 2.290000000000000E10   -1.780900289304555E-3   1.792343566194177E-3  
 2.292000000000000E10    1.677206950262189E-3   1.711172866635025E-3  
 2.294000000000000E10    1.947059296071529E-3  -1.923416741192341E-3  
 2.296000000000000E10   -2.390602137893438E-3  -1.028389320708811E-3  
 2.298000000000000E10   -1.072967308573425E-3   2.410321263596416E-3  
 2.300000000000000E10    2.946156542748213E-3   7.526714471168816E-4  
 2.302000000000000E10    3.750224423129112E-4  -2.812550636008382E-3  
 2.304000000000000E10   -2.810086822137237E-3   2.570731739979237E-4  
 2.306000000000000E10    4.938069032505155E-4   2.858149819076061E-3  
 2.308000000000000E10    3.064736956730485E-3  -7.306477054953575E-4  
 2.310000000000000E10   -1.032755826599896E-3  -2.820668276399374E-3  
 2.312000000000000E10   -2.979031531140208E-3   1.384007628075779E-3  
 2.314000000000000E10    1.605668221600354E-3   2.771907486021519E-3  
 2.316000000000000E10    2.588471164926887E-3  -2.155356109142304E-3  
 2.318000000000000E10   -2.471222309395671E-3  -2.217257628217340E-3  
 2.320000000000000E10   -1.714036799967289E-3   2.714823931455612E-3  
 2.322000000000000E10    2.703836420550942E-3   1.639884081669152E-3  
 2.324000000000000E10    1.389410113915801E-3  -3.209550864994526E-3  
 2.326000000000000E10   -2.946410328149796E-3  -1.220729900524020E-3  
 2.328000000000000E10   -7.637405651621521E-4   3.575998358428478E-3  
 2.330000000000000E10    3.555777249857783E-3   3.712051693582907E-5  
 2.332000000000000E10   -1.561200770083815E-4  -3.346669720485807E-3  
 2.334000000000000E10   -3.094780491665006E-3   4.200245020911098E-4  
 2.336000000000000E10    1.046541496179998E-3   3.233833471313119E-3  
 2.338000000000000E10    3.256390104070306E-3  -1.371783670037985E-3  
 2.340000000000000E10   -1.642006915062666E-3  -3.110497491434217E-3  
 2.342000000000000E10   -3.065001918002963E-3   2.435533097013831E-3  
 2.344000000000000E10    3.162422450259328E-3   2.486323937773705E-3  
 2.346000000000000E10    1.988604664802551E-3  -3.325022757053375E-3  
 2.348000000000000E10   -3.467354457825422E-3  -1.432896242477000E-3  
 2.350000000000000E10   -1.032670494168997E-3   4.064072854816914E-3  
 2.352000000000000E10    4.090897273272276E-3   1.269180647796020E-4  
 2.354000000000000E10   -1.428052783012390E-4  -4.003958310931921E-3  
 2.356000000000000E10   -4.635089077055454E-3   1.050377963110805E-3  
 2.358000000000000E10    2.121596131473780E-3   4.453134257346392E-3  
 2.360000000000000E10    3.723672358319163E-3  -2.568450523540378E-3  
 2.362000000000000E10   -2.935023279860616E-3  -3.250326495617628E-3  
 2.364000000000000E10   -3.085726173594594E-3   3.411212237551808E-3  
 2.366000000000000E10    3.845844184979796E-3   2.113494789227843E-3  
 2.368000000000000E10    1.805288600735366E-3  -4.156095441430807E-3  
 2.370000000000000E10   -4.148056730628014E-3  -1.467868220061064E-3  
 2.372000000000000E10   -5.735408049076796E-4   4.749261308461428E-3  
 2.374000000000000E10    4.631375428289175E-3  -2.912304189521819E-4  
 2.376000000000000E10   -1.250700908713043E-3  -4.241148009896278E-3  
 2.378000000000000E10   -4.102278500795364E-3   1.586908125318587E-3  
 2.380000000000000E10    2.450286876410246E-3   3.685548901557922E-3  
 2.382000000000000E10    2.856374951079488E-3  -3.155409358441830E-3  
 2.384000000000000E10   -3.288879990577698E-3  -2.583849709481001E-3  
 2.386000000000000E10   -1.965610543265939E-3   3.380604786798358E-3  
 2.388000000000000E10    3.803655505180359E-3   1.405630726367235E-3  
 2.390000000000000E10    6.179717020131648E-4  -3.617248265072703E-3  
 2.392000000000000E10   -3.488038433715701E-3   3.686583659145981E-4  
 2.394000000000000E10    1.470789429731667E-4   3.418443724513054E-3  
 2.396000000000000E10    3.231127047911286E-3  -7.584761478938162E-4  
 2.398000000000000E10   -1.459155464544892E-3  -2.577182836830616E-3  
 2.400000000000000E10   -2.077886369079351E-3   1.556421979330480E-3  
 2.402000000000000E10    1.993601210415363E-3   1.775419572368264E-3  
 2.404000000000000E10    1.113590202294290E-3  -1.845875289291143E-3  
 2.406000000000000E10   -1.901737996377051E-3  -7.040862110443413E-4  
 2.408000000000000E10   -1.027338003041223E-4   1.843973179347813E-3  
 2.410000000000000E10    1.495857140980661E-3   2.085718297166750E-4  
 2.412000000000000E10   -4.045481036882848E-4  -1.741430722177029E-3  
 2.414000000000000E10   -1.209090230986476E-3   8.540126727893949E-4  
 2.416000000000000E10    5.146391922608018E-4   9.133692365139723E-4  
 2.418000000000000E10    1.040182425640523E-3  -5.546509637497366E-4  
 2.420000000000000E10   -8.568077464587987E-4  -9.898905409500003E-4  
 2.422000000000000E10   -9.833954973146319E-4   1.132793026044965E-3  
 2.424000000000000E10    1.045033684931696E-3   9.428791236132383E-4  
 2.426000000000000E10    6.219957722350955E-4  -1.198114943690598E-3  
 2.428000000000000E10   -1.209975802339613E-3  -3.093488048762083E-4  
 2.430000000000000E10    1.248391527042259E-6   1.182177220471203E-3  
 2.432000000000000E10    7.876190938986838E-4   6.365073495544493E-4  
 2.434000000000000E10    3.819231933448464E-4  -1.304278150200844E-3  
 2.436000000000000E10   -7.945977849885821E-4   1.360326277790591E-4  
 2.438000000000000E10   -3.644840617198497E-4   7.782595348544419E-4  
 2.440000000000000E10    7.008284446783364E-4   3.736850048881024E-4  
 2.442000000000000E10    3.034000401385129E-4  -7.707193726673722E-4  
 2.444000000000000E10   -5.918452516198158E-4  -3.816651951638050E-5  
 2.446000000000000E10   -5.315185408107936E-4   4.046011308673769E-4  
 2.448000000000000E10    5.113689112477005E-4   3.648287092801184E-4  
 2.450000000000000E10    1.039566122926772E-4  -6.808621110394597E-4  
 2.452000000000000E10    4.698340853792615E-5  -2.869742456823587E-4  
 2.454000000000000E10   -2.160416624974459E-4   4.759726289194077E-4  
 2.456000000000000E10    3.628730482887477E-4   1.544653350720182E-4  
 2.458000000000000E10    2.570294600445777E-4   5.051789776189253E-5  
 2.460000000000000E10   -9.629260603105649E-5  -2.499604306649417E-4  
 2.462000000000000E10   -3.202037187293172E-4   2.718085888773203E-4  
 2.464000000000000E10   -1.471161976951407E-5   2.923209103755653E-4  
 2.466000000000000E10    5.096579552628100E-4  -1.284521858906373E-4  
 2.468000000000000E10   -3.889598010573536E-4  -3.484585031401366E-4  
 2.470000000000000E10   -1.462786312913522E-4   1.396137668052688E-4  
 2.472000000000000E10    3.094466228503734E-4   2.425028214929625E-4  
 2.474000000000000E10    2.828291326295584E-4   1.138607549364679E-4  
 2.476000000000000E10   -1.974310143850744E-4  -2.764647942967713E-4  
 2.478000000000000E10   -3.475398116279393E-4   2.520935668144375E-4  
 2.480000000000000E10    3.261250676587224E-4   6.477926508523524E-4  
 2.482000000000000E10    2.545220195315778E-4  -5.038791568949819E-4  
 2.484000000000000E10   -5.213894182816148E-4  -1.432833814760670E-4  
 2.486000000000000E10   -1.763364125508815E-4   6.921791937202215E-4  
 2.488000000000000E10    8.967995527200401E-4  -2.354231837671250E-4  
 2.490000000000000E10   -5.296453018672764E-4  -6.122087361291051E-4  
 2.492000000000000E10   -4.198982787784189E-4   6.161720375530422E-4  
 2.494000000000000E10    6.011602235957980E-4   5.534064257517457E-4  
 2.496000000000000E10    3.732011828105897E-4  -6.133459392003715E-4  
 2.498000000000000E10   -8.407494751736522E-4  -2.329291019123048E-4  
 2.500000000000000E10   -2.182457101298496E-4   7.004056242294610E-4  
 2.502000000000000E10    8.252589032053947E-4   4.800059832632542E-5  
 2.504000000000000E10   -3.019803843926638E-4  -4.685483290813863E-4  
 2.506000000000000E10   -2.488234895281494E-4   9.180320921586826E-5  
 2.508000000000000E10   -5.597928975475952E-5   1.433588913641870E-4  
 2.510000000000000E10    6.728962762281299E-4  -2.483743301127106E-4  
 2.512000000000000E10   -2.630020899232477E-4  -3.978805325459689E-4  
 2.514000000000000E10   -6.109519745223224E-4   8.265206270152703E-5  
 2.516000000000000E10    1.588667364558205E-4   6.025099428370595E-4  
 2.518000000000000E10    6.166647654026747E-4  -3.536734438966960E-4  
 2.520000000000000E10   -7.031566929072142E-5  -4.866811796091497E-4  
 2.522000000000000E10   -7.004604558460414E-4   9.438327106181532E-5  
 2.524000000000000E10    4.269528726581484E-4   6.838347762823105E-4  
 2.526000000000000E10    6.762000266462565E-4  -8.510744082741439E-4  
 2.528000000000000E10   -5.716925952583551E-4  -5.075032822787762E-4  
 2.530000000000000E10   -7.552361348643899E-4   7.601065444760025E-4  
 2.532000000000000E10    7.968719583004713E-4   2.989713393617421E-4  
 2.534000000000000E10    6.593615398742259E-4  -7.528995629400015E-4  
 2.536000000000000E10   -8.952916250564158E-4  -7.866690284572542E-4  
 2.538000000000000E10   -4.053270677104592E-4   1.057113520801067E-3  
 2.540000000000000E10    1.350058359093964E-3   1.859815711213742E-5  
 2.542000000000000E10    2.240488975076005E-4  -1.137867220677435E-3  
 2.544000000000000E10   -1.135570462793112E-3  -7.407761586364359E-5  
 2.546000000000000E10    1.666911994107068E-4   1.260528108105063E-3  
 2.548000000000000E10    1.313413493335247E-3  -3.444440371822566E-4  
 2.550000000000000E10   -2.469510363880545E-4  -1.091466168873012E-3  
 2.552000000000000E10   -1.009887666441500E-3   3.742607950698584E-4  
 2.554000000000000E10    6.574455765075982E-4   7.204870344139636E-4  
 2.556000000000000E10    6.954814889468253E-4  -8.247826481238008E-4  
 2.558000000000000E10   -7.493554148823023E-4  -7.742678862996399E-4  
 2.560000000000000E10   -3.482433967292309E-4   8.004658739082515E-4  
 2.562000000000000E10    4.711209330707789E-4   3.413773374632001E-4  
 2.564000000000000E10    4.844241193495691E-4  -9.600837365724146E-4  
 2.566000000000000E10   -1.188882393762469E-3  -2.055103832390159E-4  
 2.568000000000000E10   -2.332801045668020E-7   1.091369776986539E-3  
 2.570000000000000E10    7.255552336573601E-4   1.242501311935484E-4  
 2.572000000000000E10    8.131087815854698E-5  -9.209808195009828E-4  
 2.574000000000000E10   -1.102026784792543E-3   3.538275777827948E-4  
 2.576000000000000E10    5.353588494472206E-4   9.992300765588880E-4  
 2.578000000000000E10    8.702843333594501E-4  -5.116516840644181E-4  
 2.580000000000000E10   -9.571918053552508E-4  -1.030768500640988E-3  
 2.582000000000000E10   -6.269666482694447E-4   9.541855542920530E-4  
 2.584000000000000E10    8.551912615075707E-4   8.799601928330958E-4  
 2.586000000000000E10    6.851206417195499E-4  -1.373795559629798E-3  
 2.588000000000000E10   -1.477323123253882E-3  -4.789202066604048E-4  
 2.590000000000000E10   -2.449566964060068E-4   1.253563212230802E-3  
 2.592000000000000E10    1.292650005780160E-3   4.095119948033243E-4  
 2.594000000000000E10    3.191384021192789E-4  -1.893405220471323E-3  
 2.596000000000000E10   -1.667757052928209E-3  -8.046462608035654E-5  
 2.598000000000000E10    1.737784441502299E-5   1.510627684183419E-3  
 2.600000000000000E10    1.672019250690937E-3   6.666772969765589E-5  
 2.602000000000000E10   -2.995886025018990E-4  -1.659952220506966E-3  
 2.604000000000000E10   -1.350617618300021E-3   3.668896097224206E-4  
 2.606000000000000E10    4.287994524929673E-4   1.659785048104823E-3  
 2.608000000000000E10    1.562970108352602E-3  -7.248034235090017E-4  
 2.610000000000000E10   -8.432651520706713E-4  -1.376416068524122E-3  
 2.612000000000000E10   -1.407092087902129E-3   1.162285218015313E-3  
 2.614000000000000E10    1.490760827437043E-3   1.383902272209525E-3  
 2.616000000000000E10    1.066714292392135E-3  -1.525780069641769E-3  
 2.618000000000000E10   -1.695130951702595E-3  -6.738532101735473E-4  
 2.620000000000000E10   -6.172262364998460E-4   1.650946680456400E-3  
 2.622000000000000E10    2.023998182266951E-3   6.093718111515045E-4  
 2.624000000000000E10   -3.370445920154452E-4  -2.098852768540382E-3  
 2.626000000000000E10   -1.999946776777506E-3   3.776548837777227E-4  
 2.628000000000000E10    8.557859109714627E-4   1.835869275964797E-3  
 2.630000000000000E10    1.757972757332027E-3  -6.538220914080739E-4  
 2.632000000000000E10   -1.308239181526005E-3  -1.888473751023412E-3  
 2.634000000000000E10   -1.542552723549306E-3   1.344875432550907E-3  
 2.636000000000000E10    1.321765943430364E-3   1.694431179203093E-3  
 2.638000000000000E10    1.465685549192131E-3  -1.586821163073182E-3  
 2.640000000000000E10   -1.844466780312359E-3  -1.097522559575737E-3  
 2.642000000000000E10   -1.194654963910580E-3   1.912764389999211E-3  
 2.644000000000000E10    2.015489852055907E-3   8.132027578540146E-4  
 2.646000000000000E10    6.057320279069245E-4  -2.237012144178152E-3  
 2.648000000000000E10   -2.450970234349370E-3  -3.033037064597011E-4  
 2.650000000000000E10    4.326616472098976E-4   2.295260550454259E-3  
 2.652000000000000E10    2.113424474373460E-3  -8.772850851528347E-4  
 2.654000000000000E10   -1.028403639793396E-3  -2.134515438228846E-3  
 2.656000000000000E10   -1.873453846201301E-3   1.348656252957881E-3  
 2.658000000000000E10    1.501646940596402E-3   1.370726851746440E-3  
 2.660000000000000E10    1.159918028861284E-3  -1.936827437020838E-3  
 2.662000000000000E10   -2.148825675249100E-3  -1.012199791148305E-3  
 2.664000000000000E10   -6.765346624888480E-4   2.367409411817789E-3  
 2.666000000000000E10    2.273395890370011E-3   3.183814988005906E-4  
 2.668000000000000E10    4.649810725823045E-4  -2.392252208665013E-3  
 2.670000000000000E10   -2.415939001366496E-3   2.439234049234074E-5  
 2.672000000000000E10    4.471894353628159E-4   2.362280385568738E-3  
 2.674000000000000E10    2.000295789912343E-3  -5.935914814472199E-4  
 2.676000000000000E10   -6.857417174614966E-4  -2.088492270559073E-3  
 2.678000000000000E10   -2.055620541796088E-3   1.409752178005874E-3  
 2.680000000000000E10    1.485328539274633E-3   1.603561802767217E-3  
 2.682000000000000E10    1.472964417189360E-3  -1.615526038222015E-3  
 2.684000000000000E10   -1.951818820089102E-3  -1.227509928867221E-3  
 2.686000000000000E10   -8.823896059766412E-4   1.982313115149736E-3  
 2.688000000000000E10    2.083621220663190E-3   4.809849488083273E-4  
 2.690000000000000E10   -6.079947070247727E-6  -1.865594764240086E-3  
 2.692000000000000E10   -1.958384178578854E-3   6.195251626195386E-5  
 2.694000000000000E10    3.897525893989950E-4   1.846203231252730E-3  
 2.696000000000000E10    1.532597583718598E-3  -7.603487465530634E-4  
 2.698000000000000E10   -8.909578900784254E-4  -1.519915065728128E-3  
 2.700000000000000E10   -1.214223681017757E-3   1.290903310291469E-3  
 2.702000000000000E10    1.258758595213294E-3   8.781701908446848E-4  
 2.704000000000000E10    8.417600765824318E-4  -1.382796093821526E-3  
 2.706000000000000E10   -1.500064972788096E-3  -8.148727356456220E-4  
 2.708000000000000E10   -3.741629188880324E-4   1.495981588959694E-3  
 2.710000000000000E10    1.374588930048049E-3   9.574756404617801E-5  
 2.712000000000000E10   -1.317357819061726E-4  -1.469109440222383E-3  
 2.714000000000000E10   -1.296925824135542E-3   4.225785960443318E-5  
 2.716000000000000E10    2.442718541715294E-4   1.436522928997874E-3  
 2.718000000000000E10    1.325628720223904E-3  -5.161152221262455E-4  
 2.720000000000000E10   -4.102175007574260E-4  -1.312842243351042E-3  
 2.722000000000000E10   -1.074098167009652E-3   6.644883542321622E-4  
 2.724000000000000E10    8.059814572334290E-4   9.148661047220230E-4  
 2.726000000000000E10    1.026841346174479E-3  -5.497757229022682E-4  
 2.728000000000000E10   -9.220131905749440E-4  -7.982012466527522E-4  
 2.730000000000000E10   -7.131961756385863E-4   6.679871585220099E-4  
 2.732000000000000E10    7.887214887887240E-4   6.177458562888205E-4  
 2.734000000000000E10    5.452762125059962E-4  -1.084860181435943E-3  
 2.736000000000000E10   -7.673563086427748E-4  -4.683867446146905E-4  
 2.738000000000000E10   -1.522415404906496E-4   7.274469244293869E-4  
 2.740000000000000E10    7.748549687676132E-4  -4.006892049801536E-5  
 2.742000000000000E10   -3.873003515764140E-5  -6.425853935070336E-4  
 2.744000000000000E10   -6.574349827133119E-4  -2.228346966148820E-5  
 2.746000000000000E10    3.854141687043011E-4   6.437613628804684E-4  
 2.748000000000000E10    6.509129889309406E-4  -4.041643696837127E-4  
 2.750000000000000E10   -4.960134392604232E-4  -3.560240729711950E-4  
 2.752000000000000E10   -2.748111437540501E-4   3.977754968218505E-4  
 2.754000000000000E10    6.757141090929508E-4   3.242144593968988E-4  
 2.756000000000000E10    3.301061515230686E-4  -7.158401422202587E-4  
