#  HZ   S   RI   R     50.00 
! Rohde & Schwarz ZVA40 4Ports - Version 3.90 - 1145.1110k42 SN: 100403
! Date: 2023-10-04 08:51:13
! Measurement: S12 
! 
 2.200000000000000E10   -9.930260712280870E-4   1.293992390856147E-3  
 2.202000000000000E10    1.164046814665198E-3   7.015354349277914E-4  
 2.204000000000000E10    1.219529309310019E-3  -1.418307190760970E-3  
 2.206000000000000E10   -1.616964931599796E-3  -7.525193504989147E-4  
 2.208000000000000E10   -8.583812741562724E-4   1.398603199049830E-3  
 2.210000000000000E10    1.678370288573206E-3   7.126599084585905E-4  
 2.212000000000000E10    5.610669031739235E-4  -1.745274523273110E-3  
 2.214000000000000E10   -1.618711045011878E-3  -4.167815495748073E-4  
 2.216000000000000E10   -7.259458652697504E-5   1.545214792713523E-3  
 2.218000000000000E10    1.547905150800943E-3  -2.164126090065111E-5  
 2.220000000000000E10   -1.993839978240430E-4  -1.639459398575127E-3  
 2.222000000000000E10   -1.506729517132044E-3   4.562390095088631E-4  
 2.224000000000000E10    6.023042369633913E-4   1.643841387704015E-3  
 2.226000000000000E10    1.025200239382684E-3  -6.972614210098982E-4  
 2.228000000000000E10   -9.744465351104736E-4  -9.927641367539764E-4  
 2.230000000000000E10   -9.050560765899718E-4   9.972339030355215E-4  
 2.232000000000000E10    1.275432296097279E-3   9.669815190136433E-4  
 2.234000000000000E10    5.148279014974833E-4  -1.569118816405535E-3  
 2.236000000000000E10   -1.211020280607045E-3  -6.868461496196687E-4  
 2.238000000000000E10   -7.041874923743308E-4   1.678005559369922E-3  
 2.240000000000000E10    1.699972548522055E-3   1.920927170431241E-4  
 2.242000000000000E10    1.567932195030153E-4  -1.598217757418752E-3  
 2.244000000000000E10   -1.708867261186242E-3  -3.042632015421987E-4  
 2.246000000000000E10    1.494102762080729E-4   2.037943108007312E-3  
 2.248000000000000E10    1.826337887905538E-3  -2.460689574945718E-4  
 2.250000000000000E10   -6.506220233859494E-5  -1.870094682089984E-3  
 2.252000000000000E10   -2.091950504109263E-3   3.560837358236313E-4  
 2.254000000000000E10    6.794123910367489E-4   1.842099591158330E-3  
 2.256000000000000E10    1.915094442665577E-3  -5.799244390800595E-4  
 2.258000000000000E10   -5.773741286247969E-4  -1.958750188350678E-3  
 2.260000000000000E10   -1.933769788593054E-3   7.990904850885272E-4  
 2.262000000000000E10    1.143773319199681E-3   1.762129482813180E-3  
 2.264000000000000E10    2.052445197477937E-3  -1.141338725574315E-3  
 2.266000000000000E10   -1.495664357207716E-3  -2.014733850955963E-3  
 2.268000000000000E10   -1.729442854411900E-3   1.885975943878293E-3  
 2.270000000000000E10    1.931488281115890E-3   1.183501677587628E-3  
 2.272000000000000E10    1.262377016246319E-3  -1.886648708023131E-3  
 2.274000000000000E10   -2.259353408589959E-3  -1.064903219230473E-3  
 2.276000000000000E10   -5.740146152675152E-4   2.476657042279840E-3  
 2.278000000000000E10    2.404840430244803E-3   2.408629225101322E-4  
 2.280000000000000E10    1.591657928656787E-4  -2.424190752208233E-3  
 2.282000000000000E10   -2.031134907156229E-3  -1.280008815228939E-3  
 2.284000000000000E10    4.993960028514266E-4   2.519539557397366E-3  
 2.286000000000000E10    2.538779517635703E-3  -7.998479995876551E-4  
 2.288000000000000E10   -1.094865030609071E-3  -2.551228972151876E-3  
 2.290000000000000E10   -2.224916126579046E-3   1.592427142895758E-3  
 2.292000000000000E10    2.084636129438877E-3   2.000296255573630E-3  
 2.294000000000000E10    1.853640191257000E-3  -2.426555613055825E-3  
 2.296000000000000E10   -2.525903284549713E-3  -1.698262989521027E-3  
 2.298000000000000E10   -9.875197429209948E-4   2.510725054889917E-3  
 2.300000000000000E10    2.898262115195394E-3   7.907484541647136E-4  
 2.302000000000000E10    6.935009150765836E-4  -2.997688949108124E-3  
 2.304000000000000E10   -3.195001976564527E-3  -3.269503358751535E-4  
 2.306000000000000E10    1.880206400528550E-4   3.168278839439154E-3  
 2.308000000000000E10    3.271237947046757E-3  -7.157041691243649E-4  
 2.310000000000000E10   -1.070783240720630E-3  -3.140162443742156E-3  
 2.312000000000000E10   -2.929018111899495E-3   1.257862197235227E-3  
 2.314000000000000E10    1.610648119822145E-3   2.898587612435222E-3  
 2.316000000000000E10    2.673723502084613E-3  -1.975978491827846E-3  
 2.318000000000000E10   -2.345243236050010E-3  -2.232079626992345E-3  
 2.320000000000000E10   -2.007002476602793E-3   2.450513886287808E-3  
 2.322000000000000E10    2.761985175311565E-3   1.740760402753949E-3  
 2.324000000000000E10    1.504538930021226E-3  -3.144221147522330E-3  
 2.326000000000000E10   -3.158779814839363E-3  -1.235996955074370E-3  
 2.328000000000000E10   -4.813248524442315E-4   3.578736912459135E-3  
 2.330000000000000E10    3.656285349279642E-3   4.735691254609264E-5  
 2.332000000000000E10   -3.405140596441925E-4  -3.378526074811816E-3  
 2.334000000000000E10   -3.196454374119639E-3   6.574138533324003E-4  
 2.336000000000000E10    1.137570943683386E-3   3.373425919562578E-3  
 2.338000000000000E10    3.474756376817823E-3  -2.006264636293054E-3  
 2.340000000000000E10   -2.295418875291944E-3  -2.913760952651501E-3  
 2.342000000000000E10   -2.886559581384063E-3   2.533439779654145E-3  
 2.344000000000000E10    3.450759453698993E-3   2.589551731944084E-3  
 2.346000000000000E10    2.113558119162917E-3  -3.506820416077972E-3  
 2.348000000000000E10   -3.703874070197344E-3  -1.466400688514113E-3  
 2.350000000000000E10   -1.133052282966673E-3   4.193148575723171E-3  
 2.352000000000000E10    4.557530395686626E-3   5.563450977206230E-4  
 2.354000000000000E10   -5.106921889819205E-4  -4.504265263676643E-3  
 2.356000000000000E10   -4.249445162713528E-3   1.112361322157085E-3  
 2.358000000000000E10    1.738513936288655E-3   4.512902814894915E-3  
 2.360000000000000E10    3.846201580017805E-3  -2.499275607988238E-3  
 2.362000000000000E10   -2.469378756359220E-3  -3.654685802757740E-3  
 2.364000000000000E10   -3.002023557201028E-3   3.213613526895642E-3  
 2.366000000000000E10    3.990911878645420E-3   2.668930217623711E-3  
 2.368000000000000E10    1.636710483580828E-3  -4.063217435032129E-3  
 2.370000000000000E10   -4.068046342581511E-3  -8.682594052515924E-4  
 2.372000000000000E10   -4.059165949001908E-4   4.024038556963205E-3  
 2.374000000000000E10    4.107881337404251E-3  -2.959130797535181E-4  
 2.376000000000000E10   -1.086342846974731E-3  -3.830272471532226E-3  
 2.378000000000000E10   -3.553887130692601E-3   1.453642500564456E-3  
 2.380000000000000E10    2.228462370112538E-3   3.469042945653200E-3  
 2.382000000000000E10    2.789393765851855E-3  -2.818728098645806E-3  
 2.384000000000000E10   -3.039722563698888E-3  -2.084966283291578E-3  
 2.386000000000000E10   -1.438132720068097E-3   3.269736887887120E-3  
 2.388000000000000E10    3.757516387850046E-3   8.119064732454717E-4  
 2.390000000000000E10    1.306610065512359E-4  -3.484257264062762E-3  
 2.392000000000000E10   -3.245133208110929E-3   4.631298070307821E-4  
 2.394000000000000E10    1.048930804245174E-3   2.959764562547207E-3  
 2.396000000000000E10    2.148014493286610E-3  -1.361478702165186E-3  
 2.398000000000000E10   -1.596750225871801E-3  -2.514607040211558E-3  
 2.400000000000000E10   -1.849960419349372E-3   1.801618142053485E-3  
 2.402000000000000E10    2.012903103604913E-3   1.118022832088172E-3  
 2.404000000000000E10    7.200554246082902E-4  -2.275404753163457E-3  
 2.406000000000000E10   -1.975752878934145E-3  -4.476743051782250E-4  
 2.408000000000000E10   -2.008403243962675E-4   1.874013338238001E-3  
 2.410000000000000E10    1.783296698704362E-3   2.007376315305010E-5  
 2.412000000000000E10   -1.232535578310490E-4  -1.974468352273107E-3  
 2.414000000000000E10   -1.848425017669797E-3   5.710856057703495E-4  
 2.416000000000000E10    7.511554867960513E-4   1.212275703437626E-3  
 2.418000000000000E10    1.377434004098177E-3  -4.229357873555273E-4  
 2.420000000000000E10   -8.044202113524079E-4  -1.290496671572328E-3  
 2.422000000000000E10   -1.021794625557959E-3   7.820271421223879E-4  
 2.424000000000000E10    8.722758502699435E-4   6.518466980196536E-4  
 2.426000000000000E10    7.941948133520782E-4  -2.541888970881701E-4  
 2.428000000000000E10   -2.883278066292405E-4  -6.860009743832052E-4  
 2.430000000000000E10   -4.561802779790014E-4   5.517490208148956E-4  
 2.432000000000000E10    4.219276306685060E-4   4.847767122555524E-4  
 2.434000000000000E10    6.752823992428603E-6  -9.717097418615595E-5  
 2.436000000000000E10    1.373750710627064E-4  -3.831081266980618E-4  
 2.438000000000000E10   -4.959880025126040E-4  -2.948725013993681E-4  
 2.440000000000000E10   -1.680196291999891E-4   4.233016225043684E-4  
 2.442000000000000E10    4.403255006764084E-4  -2.727270184550434E-4  
 2.444000000000000E10    2.900549734476954E-4  -2.183766046073288E-4  
 2.446000000000000E10    1.376698346575722E-4  -2.189028164139018E-4  
 2.448000000000000E10   -3.633934247773141E-4   3.698626242112368E-4  
 2.450000000000000E10    3.013018285855651E-4   9.804795990930870E-5  
 2.452000000000000E10    2.946506720036268E-4   1.357923756586388E-4  
 2.454000000000000E10    9.601121564628556E-5  -2.207234210800380E-4  
 2.456000000000000E10   -3.726132563315332E-4  -4.802439070772380E-5  
 2.458000000000000E10    1.452724791306537E-5   4.142259422224015E-4  
 2.460000000000000E10    3.514222626108676E-4   2.972804359160364E-4  
 2.462000000000000E10    5.750299897044897E-5  -2.300624473718926E-4  
 2.464000000000000E10   -9.244939428754151E-5   3.166857277392410E-5  
 2.466000000000000E10    6.471568485721946E-5  -9.656195470597595E-5  
 2.468000000000000E10    1.839849137468264E-4  -4.226153396302834E-5  
 2.470000000000000E10    3.669907164294273E-5   2.891918702516705E-4  
 2.472000000000000E10    4.161906545050442E-4   3.524968269630335E-5  
 2.474000000000000E10    2.531464851927012E-4  -2.839447115547955E-4  
 2.476000000000000E10   -2.321502688573673E-4   1.402343041263521E-4  
 2.478000000000000E10    1.391559635521844E-4   6.031714729033411E-4  
 2.480000000000000E10    3.853156813420355E-4  -3.893755638273433E-5  
 2.482000000000000E10    1.031845968100242E-4  -5.779621424153447E-4  
 2.484000000000000E10   -7.953591411933303E-4  -5.320121272234246E-5  
 2.486000000000000E10    2.663324994500727E-4   8.678448502905667E-4  
 2.488000000000000E10    7.420750916935504E-4  -2.242125920020044E-4  
 2.490000000000000E10    1.090193018171703E-5  -1.112663769163191E-3  
 2.492000000000000E10   -9.562949999235570E-4   2.300460764672607E-4  
 2.494000000000000E10    3.705635317601264E-4   1.101595349609852E-3  
 2.496000000000000E10    1.017251634038985E-3  -4.205134464427829E-4  
 2.498000000000000E10   -7.452092249877751E-4  -9.030037326738238E-4  
 2.500000000000000E10   -8.711917907930911E-4   6.407272885553539E-4  
 2.502000000000000E10    7.231839699670672E-4   9.898360585793853E-4  
 2.504000000000000E10    8.756996248848736E-4  -7.069180719554424E-4  
 2.506000000000000E10   -6.873201928101480E-4  -4.406310908962041E-4  
 2.508000000000000E10   -6.334334611892700E-4   7.666344754397869E-4  
 2.510000000000000E10    1.014331355690956E-3   4.968210123479366E-4  
 2.512000000000000E10    2.408664295217022E-4  -9.590834379196167E-4  
 2.514000000000000E10   -1.124860602430999E-3   3.129050019197166E-4  
 2.516000000000000E10    1.069081845344044E-4   7.581780664622784E-4  
 2.518000000000000E10    9.486381313763559E-4  -1.863549841800705E-4  
 2.520000000000000E10   -2.218388253822923E-4  -8.090818882919848E-4  
 2.522000000000000E10   -7.658774266019464E-4   3.018045681528747E-4  
 2.524000000000000E10    5.440377281047404E-4   5.598706775344908E-4  
 2.526000000000000E10    3.111283294856548E-4  -5.634528934024274E-4  
 2.528000000000000E10   -2.958840341307223E-4  -3.188956761732698E-4  
 2.530000000000000E10   -6.385592860169709E-4   3.552714188117534E-4  
 2.532000000000000E10    6.125243380665779E-4   5.477514932863414E-4  
 2.534000000000000E10    6.342811393551529E-4  -4.994333139620721E-4  
 2.536000000000000E10   -7.903467630967498E-4  -4.587341973092407E-4  
 2.538000000000000E10   -3.009932697750628E-4   4.709443601313978E-4  
 2.540000000000000E10    9.074120316654444E-4   5.750182899646461E-4  
 2.542000000000000E10    2.723610377870500E-4  -9.198275511153042E-4  
 2.544000000000000E10   -9.143445640802383E-4  -2.534522209316492E-4  
 2.546000000000000E10   -8.868320037436206E-6   1.237209304235876E-3  
 2.548000000000000E10    9.954049019142985E-4  -4.349493538029492E-4  
 2.550000000000000E10   -1.535728952148929E-4  -1.009343424811959E-3  
 2.552000000000000E10   -9.937087306752801E-4   5.851080641150475E-4  
 2.554000000000000E10    7.279624696820974E-4   9.541523759253323E-4  
 2.556000000000000E10    7.334258407354355E-4  -9.234640747308731E-4  
 2.558000000000000E10   -7.187450537458062E-4  -6.728442385792732E-4  
 2.560000000000000E10   -6.293652113527060E-4   1.068006269633770E-3  
 2.562000000000000E10    1.242162077687681E-3   6.435944233089685E-4  
 2.564000000000000E10    2.625766501296312E-4  -1.228073262609541E-3  
 2.566000000000000E10   -1.380267902277410E-3  -4.198495007585734E-4  
 2.568000000000000E10   -9.786829468794167E-5   1.781256520189345E-3  
 2.570000000000000E10    1.437291153706610E-3   4.649272159440443E-5  
 2.572000000000000E10    1.041354244080139E-5  -1.434035482816398E-3  
 2.574000000000000E10   -1.610368723049760E-3   3.708693257067353E-4  
 2.576000000000000E10    7.221380947157741E-4   1.492243725806475E-3  
 2.578000000000000E10    1.187615096569061E-3  -4.965609405189753E-4  
 2.580000000000000E10   -8.457605144940317E-4  -1.424011075869203E-3  
 2.582000000000000E10   -1.140845241025090E-3   1.227320986799896E-3  
 2.584000000000000E10    8.039352251216769E-4   1.088891993276775E-3  
 2.586000000000000E10    1.157399383373559E-3  -1.078817760571837E-3  
 2.588000000000000E10   -1.343182171694934E-3  -8.670892566442490E-4  
 2.590000000000000E10   -7.136277272365987E-4   1.350672566331923E-3  
 2.592000000000000E10    1.286478713154793E-3   6.844526506029069E-4  
 2.594000000000000E10    6.032226374372840E-4  -1.667556120082736E-3  
 2.596000000000000E10   -1.640211907215416E-3  -3.945627831853926E-4  
 2.598000000000000E10   -2.023725101025775E-4   1.598605304025114E-3  
 2.600000000000000E10    1.646643038839102E-3   7.694501618971117E-6  
 2.602000000000000E10   -2.145170728908852E-4  -1.977325417101383E-3  
 2.604000000000000E10   -1.841888763010502E-3   4.330266965553165E-4  
 2.606000000000000E10    7.272385410033166E-4   1.417142106220126E-3  
 2.608000000000000E10    1.545488485135138E-3  -8.870246238075197E-4  
 2.610000000000000E10   -1.157453749328852E-3  -1.527669257484376E-3  
 2.612000000000000E10   -1.128744101151824E-3   1.282699755392969E-3  
 2.614000000000000E10    1.631510909646750E-3   1.271912828087807E-3  
 2.616000000000000E10    1.235244795680046E-3  -2.222057897597551E-3  
 2.618000000000000E10   -2.006671857088804E-3  -1.098549342714250E-3  
 2.620000000000000E10   -2.278940955875441E-4   2.080158563330770E-3  
 2.622000000000000E10    2.242739079520106E-3   1.114782862714492E-4  
 2.624000000000000E10   -6.024922913638875E-5  -2.386024454608560E-3  
 2.626000000000000E10   -2.244340954348445E-3   3.748304152395576E-4  
 2.628000000000000E10    8.806936093606055E-4   2.193812280893326E-3  
 2.630000000000000E10    2.483796793967485E-3  -9.580504265613854E-4  
 2.632000000000000E10   -1.443322515115142E-3  -2.201719908043742E-3  
 2.634000000000000E10   -1.942538656294346E-3   1.261396915651858E-3  
 2.636000000000000E10    1.818502787500620E-3   2.005427377298474E-3  
 2.638000000000000E10    1.479982049204409E-3  -2.024216810241342E-3  
 2.640000000000000E10   -2.208052435889840E-3  -1.294852350838482E-3  
 2.642000000000000E10   -1.212064409628511E-3   2.247771481052041E-3  
 2.644000000000000E10    2.686331514269114E-3   5.763587541878223E-4  
 2.646000000000000E10    1.754766708472744E-4  -2.595144324004650E-3  
 2.648000000000000E10   -2.702424302697182E-3   1.103743343264796E-4  
 2.650000000000000E10    9.396235109306872E-4   2.432490233331919E-3  
 2.652000000000000E10    2.444665180519223E-3  -1.357474713586271E-3  
 2.654000000000000E10   -1.786691253073514E-3  -1.947133336216211E-3  
 2.656000000000000E10   -1.938401372171938E-3   1.842891448177397E-3  
 2.658000000000000E10    2.293759724125266E-3   1.669527962803841E-3  
 2.660000000000000E10    8.277811575680971E-4  -2.570679178461433E-3  
 2.662000000000000E10   -2.424533013254404E-3  -7.671826751902700E-4  
 2.664000000000000E10   -4.874402366112918E-4   2.378522651270032E-3  
 2.666000000000000E10    2.681337296962738E-3   1.632176426937804E-4  
 2.668000000000000E10   -3.677239510579966E-5  -2.474626060575247E-3  
 2.670000000000000E10   -2.354400232434273E-3   1.147690272773616E-4  
 2.672000000000000E10    5.612423992715776E-4   2.346513792872429E-3  
 2.674000000000000E10    2.290620934218168E-3  -1.151717733591795E-3  
 2.676000000000000E10   -1.416393322870135E-3  -1.891938969492912E-3  
 2.678000000000000E10   -1.701531698927283E-3   1.543920836411417E-3  
 2.680000000000000E10    1.675671548582614E-3   1.352892839349806E-3  
 2.682000000000000E10    7.674979860894382E-4  -1.658661407418549E-3  
 2.684000000000000E10   -1.562304678373039E-3  -9.433893137611449E-4  
 2.686000000000000E10   -7.095235632732511E-4   1.862259465269744E-3  
 2.688000000000000E10    2.011887961998582E-3  -1.206908636959270E-4  
 2.690000000000000E10   -3.318819508422166E-4  -1.696673105470836E-3  
 2.692000000000000E10   -1.674839644692838E-3   2.663322084117681E-4  
 2.694000000000000E10    4.761945747304708E-4   1.557828392833471E-3  
 2.696000000000000E10    1.709016854874790E-3  -9.048074716702104E-4  
 2.698000000000000E10   -1.243531238287687E-3  -1.246946048922837E-3  
 2.700000000000000E10   -1.076503191143274E-3   1.051255734637380E-3  
 2.702000000000000E10    1.334787462837994E-3   1.208433764986694E-3  
 2.704000000000000E10    8.048958843573928E-4  -1.506471657194197E-3  
 2.706000000000000E10   -1.382442191243172E-3  -6.419313140213490E-4  
 2.708000000000000E10   -6.735824281349778E-4   1.427073264494538E-3  
 2.710000000000000E10    1.463067252188921E-3   3.182293148711324E-4  
 2.712000000000000E10   -3.476471465546638E-5  -1.480963197536767E-3  
 2.714000000000000E10   -1.371601014398038E-3   6.625667447224259E-5  
 2.716000000000000E10    3.789982874877751E-4   1.384821138344705E-3  
 2.718000000000000E10    1.071845414116979E-3  -2.105645398842171E-4  
 2.720000000000000E10   -5.545775056816638E-4  -9.047638159245253E-4  
 2.722000000000000E10   -7.724210736341775E-4   3.196152683813125E-4  
 2.724000000000000E10    2.434750058455393E-4   8.245061035268009E-4  
 2.726000000000000E10    6.368548492901027E-4  -5.047387094236910E-4  
 2.728000000000000E10   -6.631385767832398E-4  -5.486218724399805E-4  
 2.730000000000000E10   -5.289228283800185E-4   7.906127138994634E-4  
 2.732000000000000E10    7.459123153239489E-4   2.414007321931422E-4  
 2.734000000000000E10    3.067086508963257E-4  -6.631255964748561E-4  
 2.736000000000000E10   -7.054407033137977E-4   1.066920376615599E-4  
 2.738000000000000E10    2.397070638835430E-4   6.650576251558960E-4  
 2.740000000000000E10    6.004960159771144E-4  -7.422841008519754E-5  
 2.742000000000000E10   -4.816000000573695E-4  -7.807144429534674E-4  
 2.744000000000000E10   -5.474681383930147E-4   5.726001108996570E-4  
 2.746000000000000E10    3.837347030639648E-4   5.269061657600105E-4  
 2.748000000000000E10    4.269999626558274E-4  -5.819606012664735E-4  
 2.750000000000000E10   -4.166921426076442E-4  -2.560404827818275E-4  
 2.752000000000000E10   -2.256632724311203E-4   6.862577865831554E-4  
 2.754000000000000E10    4.431252309586853E-4   3.703046822920442E-4  
 2.756000000000000E10    3.915845300070941E-4  -5.767045659013093E-4  
