#  HZ   S   RI   R     50.00 
! Rohde & Schwarz ZVA40 4Ports - Version 3.90 - 1145.1110k42 SN: 100403
! Date: 2023-10-04 08:52:11
! Measurement: S12 
! 
 2.200000000000000E10   -9.075237903743982E-5  -1.545054255984724E-3  
 2.202000000000000E10   -1.945031806826592E-3   2.458987873978913E-4  
 2.204000000000000E10    5.483457352966070E-4   1.675019273534417E-3  
 2.206000000000000E10    1.402994384989142E-3  -4.711232613772154E-4  
 2.208000000000000E10   -5.320347845554352E-4  -1.869899453595281E-3  
 2.210000000000000E10   -1.707630581222475E-3   8.136169635690749E-4  
 2.212000000000000E10    1.053615589626133E-3   1.554268528707326E-3  
 2.214000000000000E10    1.503187697380781E-3  -7.039943593554199E-4  
 2.216000000000000E10   -1.400599721819162E-3  -1.512801041826606E-3  
 2.218000000000000E10   -1.424091635271907E-3   1.555073307827115E-3  
 2.220000000000000E10    1.355558983050287E-3   1.442248467355967E-3  
 2.222000000000000E10    1.318612601608038E-3  -1.624252996407449E-3  
 2.224000000000000E10   -1.956889871507883E-3  -1.050901715643704E-3  
 2.226000000000000E10   -7.240421837195754E-4   1.896944246254861E-3  
 2.228000000000000E10    2.162524498999119E-3   4.120453668292612E-4  
 2.230000000000000E10    1.705134200165048E-4  -2.151791471987963E-3  
 2.232000000000000E10   -1.992317615076900E-3   2.849453594535589E-4  
 2.234000000000000E10    1.690338394837454E-4   2.009982010349631E-3  
 2.236000000000000E10    1.892071100883186E-3  -3.964244970120490E-4  
 2.238000000000000E10   -7.021820638328791E-4  -1.915764180012047E-3  
 2.240000000000000E10   -1.720807282254100E-3   6.508731748908758E-4  
 2.242000000000000E10    1.068713143467903E-3   1.924099633470178E-3  
 2.244000000000000E10    1.526603475213051E-3  -1.595516456291080E-3  
 2.246000000000000E10   -1.585166435688734E-3  -1.522262697108090E-3  
 2.248000000000000E10   -1.280707889236510E-3   1.611070474609733E-3  
 2.250000000000000E10    1.732432167045772E-3   1.334569184109569E-3  
 2.252000000000000E10    1.346514443866909E-3  -2.102049533277750E-3  
 2.254000000000000E10   -2.153625013306737E-3  -9.665964171290398E-4  
 2.256000000000000E10   -1.027919468469918E-3   2.363725798204541E-3  
 2.258000000000000E10    2.473183674737811E-3   5.080378614366055E-4  
 2.260000000000000E10    2.088615146931261E-4  -2.587694907560945E-3  
 2.262000000000000E10   -2.380890306085348E-3   6.620815838687122E-5  
 2.264000000000000E10    2.192953979829326E-4   2.651158487424254E-3  
 2.266000000000000E10    2.372331917285919E-3  -4.749821673613042E-4  
 2.268000000000000E10   -7.703907904215157E-4  -2.522800350561738E-3  
 2.270000000000000E10   -2.065192908048630E-3   1.089503173716366E-3  
 2.272000000000000E10    1.457198755815625E-3   2.283716807141900E-3  
 2.274000000000000E10    2.196143381297588E-3  -1.755849109031260E-3  
 2.276000000000000E10   -1.914674998261035E-3  -1.676735235378146E-3  
 2.278000000000000E10   -1.687215524725616E-3   2.237883629277349E-3  
 2.280000000000000E10    2.671393798664212E-3   1.519446610473096E-3  
 2.282000000000000E10    2.527114236727357E-3  -1.317208167165518E-3  
 2.284000000000000E10   -2.742650220170617E-3  -1.253965310752392E-3  
 2.286000000000000E10   -8.229478844441474E-4   3.060971153900027E-3  
 2.288000000000000E10    3.128098323941231E-3   4.459707415662706E-4  
 2.290000000000000E10    3.099077439401299E-4  -3.097117180004716E-3  
 2.292000000000000E10   -3.420212771743536E-3   7.991518941707909E-5  
 2.294000000000000E10    5.749518168158829E-4   3.209263319149613E-3  
 2.296000000000000E10    3.293503774330020E-3  -1.143017318099737E-3  
 2.298000000000000E10   -1.273449277505279E-3  -2.908619819208980E-3  
 2.300000000000000E10   -2.611618256196380E-3   1.614083652384579E-3  
 2.302000000000000E10    2.253181301057339E-3   2.592410659417510E-3  
 2.304000000000000E10    2.378984587267041E-3  -2.083907835185528E-3  
 2.306000000000000E10   -2.604445675387979E-3  -2.201982773840427E-3  
 2.308000000000000E10   -1.705464674159885E-3   2.808579243719578E-3  
 2.310000000000000E10    3.253901610150933E-3   1.336922985501587E-3  
 2.312000000000000E10    8.927482413128018E-4  -3.778723999857903E-3  
 2.314000000000000E10   -3.470341907814145E-3  -3.285404236521572E-4  
 2.316000000000000E10    3.729838063009083E-4   3.547907341271639E-3  
 2.318000000000000E10    3.692335914820433E-3  -6.989150424487889E-4  
 2.320000000000000E10   -1.312265638262034E-3  -3.535518888384104E-3  
 2.322000000000000E10   -3.183833789080381E-3   1.795564545318484E-3  
 2.324000000000000E10    2.217573113739491E-3   2.920297672972083E-3  
 2.326000000000000E10    2.856779377907515E-3  -2.292069606482983E-3  
 2.328000000000000E10   -3.023848403245211E-3  -2.668099477887154E-3  
 2.330000000000000E10   -1.845138613134623E-3   3.382256021723151E-3  
 2.332000000000000E10    3.449954092502594E-3   1.482488238252699E-3  
 2.334000000000000E10    1.258459640666843E-3  -3.684837836772203E-3  
 2.336000000000000E10   -3.777664387598634E-3  -6.077556754462421E-4  
 2.338000000000000E10    6.522348121507093E-5   3.966426942497492E-3  
 2.340000000000000E10    4.007978364825249E-3  -4.201134725008160E-4  
 2.342000000000000E10   -9.178179898299277E-4  -3.971120342612267E-3  
 2.344000000000000E10   -3.793413052335382E-3   1.908770063892007E-3  
 2.346000000000000E10    1.950248843058944E-3   3.375879256054759E-3  
 2.348000000000000E10    3.239047946408391E-3  -2.399319317191839E-3  
 2.350000000000000E10   -2.972814254462719E-3  -2.999509451910853E-3  
 2.352000000000000E10   -2.377887722104788E-3   3.744484391063452E-3  
 2.354000000000000E10    3.991000819951296E-3   1.473214593715966E-3  
 2.356000000000000E10    1.132332836277783E-3  -3.793442854657769E-3  
 2.358000000000000E10   -4.035451915115118E-3  -3.834157250821590E-4  
 2.360000000000000E10    3.630382707342506E-4   4.205911885946989E-3  
 2.362000000000000E10    4.087805747985840E-3  -6.757500232197344E-4  
 2.364000000000000E10   -1.601428608410060E-3  -3.526188433170319E-3  
 2.366000000000000E10   -3.336740657687187E-3   2.179302042350173E-3  
 2.368000000000000E10    2.767187310382724E-3   2.826178213581443E-3  
 2.370000000000000E10    2.377652795985341E-3  -2.865614369511604E-3  
 2.372000000000000E10   -3.258930286392570E-3  -2.037356141954660E-3  
 2.374000000000000E10   -1.083101378753781E-3   3.681546542793512E-3  
 2.376000000000000E10    3.518164856359363E-3   2.551673096604645E-4  
 2.378000000000000E10   -3.675214611575939E-5  -3.350037615746260E-3  
 2.380000000000000E10   -3.477159654721618E-3   8.916123188100755E-4  
 2.382000000000000E10    1.226073014549911E-3   3.036763751879334E-3  
 2.384000000000000E10    2.703784732148051E-3  -1.870760112069547E-3  
 2.386000000000000E10   -1.943973591551185E-3  -1.888648024760187E-3  
 2.388000000000000E10   -1.735553028993309E-3   2.001924207434058E-3  
 2.390000000000000E10    2.438677940517664E-3   1.504129264503717E-3  
 2.392000000000000E10    8.455321658402681E-4  -2.722354838624597E-3  
 2.394000000000000E10   -2.212006598711014E-3  -1.891416904982179E-4  
 2.396000000000000E10    1.812742411857471E-4   2.036648569628596E-3  
 2.398000000000000E10    1.821542507968843E-3  -2.132878435077146E-4  
 2.400000000000000E10   -4.734694084618241E-4  -1.590403495356441E-3  
 2.402000000000000E10   -1.253052731044591E-3   6.348261958919466E-4  
 2.404000000000000E10    7.732327212579548E-4   1.168796559795737E-3  
 2.406000000000000E10    5.690833786502481E-4  -1.037927810102701E-3  
 2.408000000000000E10   -9.971660329028964E-4  -4.207787860650569E-4  
 2.410000000000000E10    1.357958972221240E-4   2.702930942177773E-4  
 2.412000000000000E10    8.108398760668933E-4  -4.021982749691233E-5  
 2.414000000000000E10   -4.402385093271732E-4  -5.166279734112322E-4  
 2.416000000000000E10   -1.787007058737800E-4   4.789878730662167E-4  
 2.418000000000000E10    5.276208976283670E-4   2.821534872055054E-4  
 2.420000000000000E10    1.892139262054116E-4  -6.958036683499813E-4  
 2.422000000000000E10   -6.502779433503747E-4   2.726714592427015E-4  
 2.424000000000000E10    2.771763247437775E-4   6.357211968861520E-4  
 2.426000000000000E10    9.260255610570312E-4  -2.931506314780563E-4  
 2.428000000000000E10   -2.481218252796680E-4  -6.348743336275220E-4  
 2.430000000000000E10   -4.332956741563976E-4   7.377656293101609E-4  
 2.432000000000000E10    3.855398972518742E-4   3.674869367387146E-4  
 2.434000000000000E10    6.547400844283402E-4  -3.776770608965308E-4  
 2.436000000000000E10   -5.222734762355685E-4  -9.335635695606470E-5  
 2.438000000000000E10   -2.038357342826203E-4   2.419406664557755E-4  
 2.440000000000000E10    3.443844907451421E-4   2.022011613007635E-4  
 2.442000000000000E10    1.315036797677749E-6  -4.191199259366840E-4  
 2.444000000000000E10   -1.310585066676140E-4   4.398392338771373E-4  
 2.446000000000000E10    3.689514414872974E-4  -2.745012752711773E-4  
 2.448000000000000E10   -1.121758032240905E-4  -3.412325750105083E-4  
 2.450000000000000E10   -3.382869763299823E-4   4.553067265078425E-4  
 2.452000000000000E10    4.837246087845415E-4   5.267502274364233E-4  
 2.454000000000000E10    5.845546838827431E-4  -6.020887522026897E-4  
 2.456000000000000E10   -5.486202426254749E-4  -4.430757253430784E-4  
 2.458000000000000E10   -6.004665629006922E-4   9.501332533545792E-4  
 2.460000000000000E10    9.749268647283316E-4   4.411859845276922E-4  
 2.462000000000000E10    5.800022045150399E-4  -7.831031689420342E-4  
 2.464000000000000E10   -7.937961490824819E-4  -4.091796581633389E-4  
 2.466000000000000E10   -2.937454846687615E-4   1.115361112169921E-3  
 2.468000000000000E10    1.368105178698897E-3   2.874896163120866E-4  
 2.470000000000000E10    5.041619297116995E-4  -1.285406062379479E-3  
 2.472000000000000E10   -1.437816070392728E-3  -1.270566572202370E-4  
 2.474000000000000E10    4.478778282646090E-5   1.010173931717873E-3  
 2.476000000000000E10    9.685263503342867E-4  -1.969636214198545E-4  
 2.478000000000000E10    5.324290395947173E-5  -9.432796505279839E-4  
 2.480000000000000E10   -1.295796595513821E-3  -9.025570761878043E-5  
 2.482000000000000E10    2.475494693499059E-4   1.182090491056442E-3  
 2.484000000000000E10    1.310972846113145E-3  -2.308464754605666E-4  
 2.486000000000000E10   -5.810033180750907E-4  -1.098807901144028E-3  
 2.488000000000000E10   -9.537115111015737E-4   3.807268512900919E-4  
 2.490000000000000E10    3.595944435801357E-4   1.034221844747663E-3  
 2.492000000000000E10    7.752625970169902E-4  -4.874909063801169E-4  
 2.494000000000000E10   -5.449529853649437E-4  -7.782970205880702E-4  
 2.496000000000000E10   -8.173031965270639E-4   6.085537606850267E-4  
 2.498000000000000E10    9.031501831486821E-4   6.081676110625267E-4  
 2.500000000000000E10    5.289177643135190E-4  -7.962600211612880E-4  
 2.502000000000000E10   -1.011164626106620E-3  -1.832665584515780E-4  
 2.504000000000000E10    8.845164120430127E-5   1.241731573827565E-3  
 2.506000000000000E10    1.127090072259307E-3  -2.173345710616559E-4  
 2.508000000000000E10    8.307492680614814E-5  -1.102008391171694E-3  
 2.510000000000000E10   -1.228656969033182E-3   6.997261079959571E-4  
 2.512000000000000E10    6.363694556057453E-4   1.111941179260612E-3  
 2.514000000000000E10    1.134736929088831E-3  -1.025688834488392E-3  
 2.516000000000000E10   -1.145070302300155E-3  -9.450540528632700E-4  
 2.518000000000000E10   -1.017870381474495E-3   1.211880939081311E-3  
 2.520000000000000E10    1.555390655994415E-3   9.468721109442413E-4  
 2.522000000000000E10    4.169426392763853E-4  -1.587745384313166E-3  
 2.524000000000000E10   -1.568584120832384E-3  -6.199131021276116E-4  
 2.526000000000000E10   -3.590637061279267E-4   1.678164466284216E-3  
 2.528000000000000E10    1.738351420499384E-3   3.464452165644616E-4  
 2.530000000000000E10   -1.750774572428782E-5  -1.934177707880735E-3  
 2.532000000000000E10   -1.938485889695585E-3   3.904709592461586E-4  
 2.534000000000000E10    3.239940851926804E-4   1.747425994835794E-3  
 2.536000000000000E10    1.901777810417116E-3  -6.072279647924006E-4  
 2.538000000000000E10   -8.593488601036370E-4  -1.630083890631795E-3  
 2.540000000000000E10   -1.437957747839391E-3   8.421462844125927E-4  
 2.542000000000000E10    9.670343715697527E-4   1.389664015732706E-3  
 2.544000000000000E10    1.223305356688798E-3  -1.061941613443196E-3  
 2.546000000000000E10   -1.008028979413211E-3  -1.089122146368027E-3  
 2.548000000000000E10   -9.191326680593193E-4   1.123716006986797E-3  
 2.550000000000000E10    1.233023707754910E-3   1.047994126565754E-3  
 2.552000000000000E10    7.387052755802870E-4  -1.416190993040800E-3  
 2.554000000000000E10   -1.382329035550356E-3  -5.287601379677653E-4  
 2.556000000000000E10   -2.712306450121105E-4   1.405056216754019E-3  
 2.558000000000000E10    1.598687842488289E-3   1.823292113840580E-4  
 2.560000000000000E10   -2.114744565915316E-4  -1.298845629207790E-3  
 2.562000000000000E10   -1.339086215011776E-3   2.916347330028657E-5  
 2.564000000000000E10    4.242945287842304E-4   1.511778100393713E-3  
 2.566000000000000E10    1.428973511792719E-3  -5.911425105296075E-4  
 2.568000000000000E10   -9.536601137369871E-4  -1.390347606502473E-3  
 2.570000000000000E10   -1.443035434931517E-3   1.175351091660559E-3  
 2.572000000000000E10    1.293810200877488E-3   1.288747531361878E-3  
 2.574000000000000E10    1.090975129045546E-3  -1.504278858192265E-3  
 2.576000000000000E10   -1.501804683357477E-3  -8.749497937969863E-4  
 2.578000000000000E10   -7.529046270065010E-4   1.646037679165602E-3  
 2.580000000000000E10    2.001198707148433E-3   5.812102463096380E-4  
 2.582000000000000E10    2.650528331287205E-4  -2.039343817159534E-3  
 2.584000000000000E10   -2.242976799607277E-3  -1.822461636038497E-4  
 2.586000000000000E10    1.607736921869218E-4   2.345495857298374E-3  
 2.588000000000000E10    2.433200133964419E-3  -8.172797388397157E-4  
 2.590000000000000E10   -8.031065808609128E-4  -1.879802090115845E-3  
 2.592000000000000E10   -2.133117755874991E-3   7.710708887316287E-4  
 2.594000000000000E10    1.527907559648156E-3   1.957455417141318E-3  
 2.596000000000000E10    1.848143292590976E-3  -1.470311195589602E-3  
 2.598000000000000E10   -1.611889689229429E-3  -1.665579969994724E-3  
 2.600000000000000E10   -1.738623250275850E-3   2.007159870117903E-3  
 2.602000000000000E10    2.348477020859718E-3   1.332772779278457E-3  
 2.604000000000000E10    9.333288762718439E-4  -2.458244794979692E-3  
 2.606000000000000E10   -2.669225446879864E-3  -6.801795097999275E-4  
 2.608000000000000E10   -3.183968365192413E-4   2.716848393902183E-3  
 2.610000000000000E10    2.554460428655148E-3  -9.410894563188776E-5  
 2.612000000000000E10   -1.325375778833404E-4  -2.695267787203193E-3  
 2.614000000000000E10   -2.826988929882646E-3   1.030065322993323E-4  
 2.616000000000000E10    1.050958875566721E-3   2.678680233657360E-3  
 2.618000000000000E10    2.557725645601749E-3  -1.098728040233254E-3  
 2.620000000000000E10   -1.315537723712623E-3  -2.346312860026956E-3  
 2.622000000000000E10   -2.196124754846096E-3   1.672487356700003E-3  
 2.624000000000000E10    1.905341399833560E-3   1.996763283386827E-3  
 2.626000000000000E10    1.491939066909254E-3  -2.220756141468883E-3  
 2.628000000000000E10   -2.715871436521411E-3  -1.144956797361374E-3  
 2.630000000000000E10   -8.400332299061120E-4   2.323663560673595E-3  
 2.632000000000000E10    2.817843807861209E-3   3.896105044987053E-4  
 2.634000000000000E10   -1.097335371014196E-5  -2.759745111688972E-3  
 2.636000000000000E10   -3.030699677765369E-3   1.996944774873555E-4  
 2.638000000000000E10    1.031298190355301E-3   2.828858327120543E-3  
 2.640000000000000E10    2.492861589416862E-3  -1.227900851517916E-3  
 2.642000000000000E10   -1.703939284197986E-3  -2.393375616520643E-3  
 2.644000000000000E10   -2.528100274503231E-3   1.856815535575151E-3  
 2.646000000000000E10    2.323657507076860E-3   2.143525285646319E-3  
 2.648000000000000E10    1.991335069760680E-3  -2.613382879644632E-3  
 2.650000000000000E10   -3.052630228921771E-3  -1.437350059859455E-3  
 2.652000000000000E10   -8.060678956098855E-4   3.122169524431229E-3  
 2.654000000000000E10    3.478517988696694E-3   5.675022257491946E-4  
 2.656000000000000E10   -1.975908235181123E-4  -3.549551824107766E-3  
 2.658000000000000E10   -3.265564795583487E-3   7.338970899581909E-4  
 2.660000000000000E10    1.049874699674547E-3   2.821187255904079E-3  
 2.662000000000000E10    2.442962257191539E-3  -1.541424775496125E-3  
 2.664000000000000E10   -1.936083659529686E-3  -2.520915586501360E-3  
 2.666000000000000E10   -1.815279363654554E-3   2.239961177110672E-3  
 2.668000000000000E10    2.365215914323926E-3   1.222681836225092E-3  
 2.670000000000000E10    1.049654791131616E-3  -2.343025058507919E-3  
 2.672000000000000E10   -2.524794777855277E-3  -6.090400856919587E-4  
 2.674000000000000E10   -2.373409515712410E-4   2.386139705777168E-3  
 2.676000000000000E10    2.384897787123919E-3  -5.160653017810546E-6  
 2.678000000000000E10   -4.405831859912723E-4  -2.231310354545713E-3  
 2.680000000000000E10   -2.166225342079997E-3   9.415759122930467E-4  
 2.682000000000000E10    1.199816470034421E-3   2.018670085817576E-3  
 2.684000000000000E10    1.832662848755717E-3  -1.402589492499828E-3  
 2.686000000000000E10   -1.689201686531305E-3  -1.556819537654519E-3  
 2.688000000000000E10   -9.974482236430049E-4   1.969896256923676E-3  
 2.690000000000000E10    1.723133842460811E-3   6.061319727450609E-4  
 2.692000000000000E10    8.162866579368711E-4  -1.600561197847128E-3  
 2.694000000000000E10   -1.910203252919018E-3  -1.992231555050239E-4  
 2.696000000000000E10   -1.650456688366830E-4   1.835181377828121E-3  
 2.698000000000000E10    1.710287760943174E-3  -9.864732419373468E-5  
 2.700000000000000E10   -4.299452120903879E-4  -1.498692668974400E-3  
 2.702000000000000E10   -1.471588504500687E-3   6.332851480692625E-4  
 2.704000000000000E10    5.556663381867111E-4   1.339525333605707E-3  
 2.706000000000000E10    1.192072522826493E-3  -6.405475432984531E-4  
 2.708000000000000E10   -8.089917828328908E-4  -8.516482193954289E-4  
 2.710000000000000E10   -9.731996688060463E-4   6.905785994604230E-4  
 2.712000000000000E10    7.981243543326855E-4   6.445691687986255E-4  
 2.714000000000000E10    7.246830500662327E-4  -6.773693021386862E-4  
 2.716000000000000E10   -7.735112449154258E-4  -3.994240250904113E-4  
 2.718000000000000E10   -1.908386475406587E-4   7.167762960307300E-4  
 2.720000000000000E10    8.178153657354415E-4  -3.050107125091017E-6  
 2.722000000000000E10    1.197122546727769E-4  -7.895234157331288E-4  
 2.724000000000000E10   -6.465000915341079E-4  -1.193992429762147E-4  
 2.726000000000000E10    8.940395491663367E-5   7.062591612339020E-4  
 2.728000000000000E10    7.303305319510400E-4  -2.124199236277491E-4  
 2.730000000000000E10   -7.222835847642273E-5  -5.072570056654513E-4  
 2.732000000000000E10   -6.288649165071547E-4   3.307027218397707E-4  
 2.734000000000000E10    3.336999216116965E-4   6.244432879611850E-4  
 2.736000000000000E10    4.757694841828197E-4  -3.047002828679979E-4  
 2.738000000000000E10   -1.670278434175998E-4  -5.099745467305183E-4  
 2.740000000000000E10   -6.044390029273927E-4   4.860069020651281E-4  
 2.742000000000000E10    5.422605318017304E-4   5.728499963879585E-4  
 2.744000000000000E10    3.345027216710150E-4  -3.855226095765829E-4  
 2.746000000000000E10   -5.298829055391252E-4  -4.553128383122385E-4  
 2.748000000000000E10   -3.693769685924053E-4   7.039948832243681E-4  
 2.750000000000000E10    4.229526966810226E-4   1.401417248416692E-4  
 2.752000000000000E10    2.779510978143662E-4  -6.566632655449212E-4  
 2.754000000000000E10   -5.820696824230254E-4  -1.045960452756845E-4  
 2.756000000000000E10    2.415145281702280E-4   5.415468476712704E-4  
