#  HZ   S   RI   R     50.00 
! Rohde & Schwarz ZVA40 4Ports - Version 3.90 - 1145.1110k42 SN: 100403
! Date: 2023-10-04 08:52:47
! Measurement: S12 
! 
 2.200000000000000E10   -8.103246364044026E-5  -1.822227262891829E-3  
 2.202000000000000E10   -1.778002944774926E-3  -9.376895468449220E-5  
 2.204000000000000E10    4.337598802521825E-4   2.001794055104256E-3  
 2.206000000000000E10    1.719675725325942E-3  -7.378949085250497E-4  
 2.208000000000000E10   -9.236882906407118E-4  -1.749280607327819E-3  
 2.210000000000000E10   -1.952690770849586E-3   9.047203930094838E-4  
 2.212000000000000E10    1.355010783299804E-3   1.996381441131234E-3  
 2.214000000000000E10    1.448674360290170E-3  -1.374465646222234E-3  
 2.216000000000000E10   -1.257459633052349E-3  -1.781101454980671E-3  
 2.218000000000000E10   -2.074024640023708E-3   1.867418293841183E-3  
 2.220000000000000E10    1.883987919427455E-3   1.450026989914477E-3  
 2.222000000000000E10    1.507135690189898E-3  -1.935255364514887E-3  
 2.224000000000000E10   -2.107413951307535E-3  -1.333009684458375E-3  
 2.226000000000000E10   -8.691800758242607E-4   2.252322388812900E-3  
 2.228000000000000E10    2.156813163310289E-3   8.856838685460389E-4  
 2.230000000000000E10    5.935725057497621E-4  -2.214064588770270E-3  
 2.232000000000000E10   -2.454067347571254E-3  -3.570427652448416E-4  
 2.234000000000000E10    1.823806669563055E-4   2.620997140184045E-3  
 2.236000000000000E10    2.265133894979954E-3  -3.184156958013773E-4  
 2.238000000000000E10   -5.141599685885012E-4  -2.297989558428526E-3  
 2.240000000000000E10   -2.242465736344457E-3   9.488079813309014E-4  
 2.242000000000000E10    1.390773337334395E-3   1.962227281183004E-3  
 2.244000000000000E10    1.828106469474733E-3  -1.563604455441237E-3  
 2.246000000000000E10   -1.889803330413997E-3  -1.685459981672466E-3  
 2.248000000000000E10   -1.513672876171768E-3   1.676477608270943E-3  
 2.250000000000000E10    2.314720302820206E-3   1.424148096702993E-3  
 2.252000000000000E10    1.300256815738976E-3  -2.347895177081227E-3  
 2.254000000000000E10   -2.449241233989596E-3  -1.172960037365556E-3  
 2.256000000000000E10   -8.911406621336937E-4   2.545290859416127E-3  
 2.258000000000000E10    2.766072051599622E-3   6.527469959110022E-4  
 2.260000000000000E10    2.907175221480429E-4  -3.069852478802204E-3  
 2.262000000000000E10   -2.702189376577735E-3   9.517149010207504E-5  
 2.264000000000000E10    1.080074871424586E-4   2.905604895204306E-3  
 2.266000000000000E10    2.881604479625821E-3  -4.629367904271931E-4  
 2.268000000000000E10   -9.179973276332021E-4  -2.999739954248071E-3  
 2.270000000000000E10   -2.496848814189434E-3   8.963330183178186E-4  
 2.272000000000000E10    1.157141057774425E-3   2.784596756100655E-3  
 2.274000000000000E10    2.577890874817967E-3  -1.673040911555290E-3  
 2.276000000000000E10   -1.950253616087139E-3  -2.233686624094844E-3  
 2.278000000000000E10   -2.032044576480985E-3   2.125252038240433E-3  
 2.280000000000000E10    2.712032524868846E-3   1.904488890431821E-3  
 2.282000000000000E10    2.816279884427786E-3  -1.282188226468861E-3  
 2.284000000000000E10   -2.520037349313498E-3  -1.144511508755386E-3  
 2.286000000000000E10   -1.115597668103874E-3   2.947679720818996E-3  
 2.288000000000000E10    3.438484622165561E-3   6.817128742113709E-4  
 2.290000000000000E10    5.649836384691298E-5  -3.202062798663974E-3  
 2.292000000000000E10   -3.254644107073546E-3   1.980587840080261E-4  
 2.294000000000000E10    7.377583533525467E-4   3.200884908437729E-3  
 2.296000000000000E10    3.061835188418627E-3  -1.119582098908722E-3  
 2.298000000000000E10   -1.132472651079297E-3  -2.766270888969302E-3  
 2.300000000000000E10   -2.820213790982962E-3   1.498657860793173E-3  
 2.302000000000000E10    2.093531191349030E-3   2.879107836633921E-3  
 2.304000000000000E10    2.430920489132404E-3  -2.533000195398927E-3  
 2.306000000000000E10   -2.712649991735816E-3  -1.889946986921132E-3  
 2.308000000000000E10   -1.934723928570747E-3   3.083875868469477E-3  
 2.310000000000000E10    3.403853857889772E-3   1.077136257663369E-3  
 2.312000000000000E10    7.324090111069381E-4  -3.580113640055060E-3  
 2.314000000000000E10   -3.426399780437350E-3  -3.876782429870218E-4  
 2.316000000000000E10   -5.829155998071656E-5   3.676301334053278E-3  
 2.318000000000000E10    3.958495333790779E-3  -6.444905302487314E-4  
 2.320000000000000E10   -1.336369663476944E-3  -3.386483527719975E-3  
 2.322000000000000E10   -3.141525434330106E-3   1.584576559253037E-3  
 2.324000000000000E10    2.229076111689210E-3   3.181889886036515E-3  
 2.326000000000000E10    3.078329842537642E-3  -2.414135960862041E-3  
 2.328000000000000E10   -3.013305133208633E-3  -2.616988262161613E-3  
 2.330000000000000E10   -2.130006905645132E-3   3.467040369287133E-3  
 2.332000000000000E10    3.837656695395708E-3   1.523632556200028E-3  
 2.334000000000000E10    1.340729417279363E-3  -3.742200788110495E-3  
 2.336000000000000E10   -3.740134416148067E-3  -7.285890751518309E-4  
 2.338000000000000E10   -3.856694456771947E-5   4.147063475102186E-3  
 2.340000000000000E10    3.942301496863365E-3  -3.914954140782356E-4  
 2.342000000000000E10   -8.394343894906342E-4  -4.078046884387732E-3  
 2.344000000000000E10   -3.619239199906588E-3   1.694418373517692E-3  
 2.346000000000000E10    1.938581117428839E-3   3.718944266438484E-3  
 2.348000000000000E10    3.218266414478421E-3  -2.488991711288691E-3  
 2.350000000000000E10   -3.078124020248652E-3  -2.723613055422902E-3  
 2.352000000000000E10   -2.072441391646862E-3   3.262612037360668E-3  
 2.354000000000000E10    3.921952564269304E-3   1.459977938793600E-3  
 2.356000000000000E10    7.611631881445646E-4  -3.632270498201251E-3  
 2.358000000000000E10   -3.928096033632755E-3  -6.767652666894719E-5  
 2.360000000000000E10    6.415570969693363E-4   3.973982296884060E-3  
 2.362000000000000E10    3.785165958106518E-3  -1.229366869665682E-3  
 2.364000000000000E10   -1.825217506848276E-3  -3.215388627722859E-3  
 2.366000000000000E10   -2.815430983901024E-3   2.361132064834237E-3  
 2.368000000000000E10    2.601145999506116E-3   2.415917580947280E-3  
 2.370000000000000E10    2.060999628156424E-3  -3.132183803245425E-3  
 2.372000000000000E10   -3.224699292331934E-3  -1.330331433564425E-3  
 2.374000000000000E10   -4.872937861364335E-4   3.448415547609329E-3  
 2.376000000000000E10    3.221605205908418E-3  -1.485767861595377E-4  
 2.378000000000000E10   -4.631407209672034E-4  -3.056675661355257E-3  
 2.380000000000000E10   -2.694739727303386E-3   9.341759723611176E-4  
 2.382000000000000E10    1.370054087601602E-3   2.401733770966530E-3  
 2.384000000000000E10    1.988997217267752E-3  -1.792523311451078E-3  
 2.386000000000000E10   -1.609358936548233E-3  -1.725345617160201E-3  
 2.388000000000000E10   -1.091592595912516E-3   1.962063368409872E-3  
 2.390000000000000E10    1.909479848109186E-3   4.170906613580883E-4  
 2.392000000000000E10    2.198946167482063E-4  -1.824519247747958E-3  
 2.394000000000000E10   -1.455106073990464E-3   3.299222153145820E-4  
 2.396000000000000E10    3.965630603488535E-4   1.363541348837316E-3  
 2.398000000000000E10    8.463255362585187E-4  -7.422746857628226E-4  
 2.400000000000000E10   -6.983806961216033E-4  -7.734220707789064E-4  
 2.402000000000000E10   -2.290529955644161E-4   7.695873500779271E-4  
 2.404000000000000E10    8.424045518040657E-4   2.776882902253419E-4  
 2.406000000000000E10    1.620121474843472E-5  -8.369217393919826E-4  
 2.408000000000000E10   -5.612222594209015E-4   4.054855671711266E-4  
 2.410000000000000E10    4.916235920973122E-4   5.844150437042117E-4  
 2.412000000000000E10    5.701154586859047E-4  -6.894741673022509E-4  
 2.414000000000000E10   -5.557087133638561E-4  -4.365803906694055E-4  
 2.416000000000000E10   -3.543736529536545E-4   9.291864116676152E-4  
 2.418000000000000E10    8.923262357711792E-4  -1.200477436213987E-5  
 2.420000000000000E10   -2.522644645068795E-4  -9.736975189298391E-4  
 2.422000000000000E10   -9.839321719482541E-4   3.138784959446639E-4  
 2.424000000000000E10    4.660699632950127E-4   7.860708865337074E-4  
 2.426000000000000E10    4.238977853674442E-4  -5.962439463473856E-4  
 2.428000000000000E10   -4.344896005932242E-4  -4.274584061931819E-4  
 2.430000000000000E10   -2.332877047592774E-4   8.348138653673232E-4  
 2.432000000000000E10    7.705083116889000E-4   9.492484241491184E-5  
 2.434000000000000E10   -1.504197425674647E-4  -4.034549929201603E-4  
 2.436000000000000E10   -6.540003814734519E-4   2.911998017225415E-4  
 2.438000000000000E10    3.282730758655816E-4   7.822578772902489E-4  
 2.440000000000000E10    3.458193386904895E-4  -5.696519510820508E-4  
 2.442000000000000E10   -8.530184859409928E-4  -3.880563890561461E-4  
 2.444000000000000E10   -6.284865230554715E-5   1.117982901632786E-3  
 2.446000000000000E10    1.007114304229617E-3  -4.254487430443987E-5  
 2.448000000000000E10   -2.978424017783254E-4  -9.147001546807587E-4  
 2.450000000000000E10   -8.423083345405757E-4   3.470536612439901E-4  
 2.452000000000000E10    5.700440378859639E-4   1.345220603980124E-3  
 2.454000000000000E10    9.865881875157356E-4  -6.806457531638444E-4  
 2.456000000000000E10   -7.455633603967726E-4  -9.741513640619814E-4  
 2.458000000000000E10   -1.291125430725515E-3   9.494230034761131E-4  
 2.460000000000000E10    1.033695181831718E-3   1.160420011729002E-3  
 2.462000000000000E10    8.781380020081997E-4  -1.101313508115709E-3  
 2.464000000000000E10   -1.134085701778531E-3  -8.833606261759996E-4  
 2.466000000000000E10   -8.430624729953706E-4   1.278172479942441E-3  
 2.468000000000000E10    1.327493460848928E-3   5.656877765432000E-4  
 2.470000000000000E10    5.318209878169000E-4  -1.179905491881073E-3  
 2.472000000000000E10   -1.272214343771339E-3  -3.628626582212746E-4  
 2.474000000000000E10   -7.085476536303759E-4   1.338197966106236E-3  
 2.476000000000000E10    1.272018649615347E-3   3.416401159483939E-4  
 2.478000000000000E10    5.453348276205361E-4  -1.399058382958174E-3  
 2.480000000000000E10   -1.631375285796821E-3  -3.062717150896788E-4  
 2.482000000000000E10    1.139378873631358E-4   1.338571310043335E-3  
 2.484000000000000E10    1.096498453989625E-3   2.378145472903270E-5  
 2.486000000000000E10   -1.002775388769805E-4  -1.214003888890147E-3  
 2.488000000000000E10   -1.281045260839164E-3   2.949443296529353E-4  
 2.490000000000000E10    6.934764678590000E-4   8.445712155662477E-4  
 2.492000000000000E10    7.838882156647742E-4  -4.993963520973921E-4  
 2.494000000000000E10   -6.960830069147050E-4  -7.501883083023131E-4  
 2.496000000000000E10   -6.517074070870876E-4   1.000962569378316E-3  
 2.498000000000000E10    1.094364444725215E-3   3.910772502422333E-4  
 2.500000000000000E10    3.895895788446069E-4  -1.123649883083999E-3  
 2.502000000000000E10   -1.364491763524711E-3   8.675775461597368E-5  
 2.504000000000000E10    2.267789241159335E-4   1.224898966029286E-3  
 2.506000000000000E10    1.179460552521050E-3  -5.773453813162632E-5  
 2.508000000000000E10   -2.633587573654950E-4  -1.711585908196867E-3  
 2.510000000000000E10   -1.730073243379593E-3   6.492996471934021E-4  
 2.512000000000000E10    6.556145963259041E-4   1.523840473964810E-3  
 2.514000000000000E10    1.488269190303981E-3  -1.066597411409020E-3  
 2.516000000000000E10   -1.132808625698090E-3  -1.692343386821449E-3  
 2.518000000000000E10   -1.681208843365312E-3   1.402381458319724E-3  
 2.520000000000000E10    1.792781753465533E-3   1.553045352920890E-3  
 2.522000000000000E10    1.385878538712859E-3  -1.923789735883474E-3  
 2.524000000000000E10   -1.908931997604668E-3  -1.238523400388658E-3  
 2.526000000000000E10   -1.039670547470450E-3   2.080303849652410E-3  
 2.528000000000000E10    2.116797724738717E-3   7.988802972249687E-4  
 2.530000000000000E10    3.924448101315647E-4  -2.267010975629091E-3  
 2.532000000000000E10   -1.963421702384949E-3  -3.079411108046770E-4  
 2.534000000000000E10   -9.915503324009478E-5   2.216934924945235E-3  
 2.536000000000000E10    1.983811147511005E-3  -4.615133220795542E-4  
 2.538000000000000E10   -6.766951410099864E-4  -2.024958375841379E-3  
 2.540000000000000E10   -1.815218362025917E-3   7.908261031843722E-4  
 2.542000000000000E10    1.156410900875926E-3   1.669359509833157E-3  
 2.544000000000000E10    1.405582064762712E-3  -1.293808105401695E-3  
 2.546000000000000E10   -1.573062269017100E-3  -1.199762686155736E-3  
 2.548000000000000E10   -8.047407027333975E-4   1.378529937937856E-3  
 2.550000000000000E10    1.467716996558011E-3   6.783069111406803E-4  
 2.552000000000000E10    4.929870483465493E-4  -1.597170718014240E-3  
 2.554000000000000E10   -1.437962055206299E-3  -4.571062745526433E-4  
 2.556000000000000E10   -1.742846652632579E-4   1.776382909156382E-3  
 2.558000000000000E10    1.732162665575743E-3  -2.914954966399819E-4  
 2.560000000000000E10   -3.524284693412483E-4  -1.540001248940826E-3  
 2.562000000000000E10   -1.522058853879571E-3   4.104310064576566E-4  
 2.564000000000000E10    7.915504393167794E-4   1.608907827176154E-3  
 2.566000000000000E10    1.673341263085604E-3  -9.365133591927588E-4  
 2.568000000000000E10   -1.695327344350517E-3  -1.351833110675216E-3  
 2.570000000000000E10   -1.352092484012246E-3   1.536405296064913E-3  
 2.572000000000000E10    1.764636137522757E-3   1.421051216311753E-3  
 2.574000000000000E10    1.025159726850689E-3  -1.799814635887742E-3  
 2.576000000000000E10   -2.291733399033546E-3  -9.136304142884910E-4  
 2.578000000000000E10   -7.682886789552867E-4   2.110290108248591E-3  
 2.580000000000000E10    2.720889402553439E-3   7.601326797157526E-4  
 2.582000000000000E10    3.769008035305888E-4  -2.576089231297374E-3  
 2.584000000000000E10   -3.021771088242531E-3   2.542438742239028E-4  
 2.586000000000000E10    5.154412356205285E-4   2.778571331873536E-3  
 2.588000000000000E10    2.355751814320684E-3  -7.423138013109565E-4  
 2.590000000000000E10   -1.169201801531017E-3  -2.188376616686583E-3  
 2.592000000000000E10   -2.381967380642891E-3   8.820416987873614E-4  
 2.594000000000000E10    1.387340249493718E-3   2.306250389665365E-3  
 2.596000000000000E10    2.238226821646094E-3  -1.710770535282791E-3  
 2.598000000000000E10   -1.823562197387219E-3  -1.836917828768492E-3  
 2.600000000000000E10   -1.907313708215952E-3   1.966557698324323E-3  
 2.602000000000000E10    2.496596658602357E-3   1.624337630346417E-3  
 2.604000000000000E10    1.056196866557002E-3  -2.868926851078868E-3  
 2.606000000000000E10   -2.945249667391181E-3  -5.510496557690203E-4  
 2.608000000000000E10   -3.088272060267627E-4   2.581160748377442E-3  
 2.610000000000000E10    2.856688806787133E-3  -1.443148066755384E-4  
 2.612000000000000E10   -3.991789126303047E-4  -2.914950717240572E-3  
 2.614000000000000E10   -2.828379394486547E-3   6.515912245959044E-4  
 2.616000000000000E10    1.357962028123438E-3   2.561920788139105E-3  
 2.618000000000000E10    2.728880615904927E-3  -1.704261871054769E-3  
 2.620000000000000E10   -1.766031957231462E-3  -2.144731581211090E-3  
 2.622000000000000E10   -2.077405108138919E-3   2.395105315372348E-3  
 2.624000000000000E10    2.414339222013950E-3   1.635040622204542E-3  
 2.626000000000000E10    1.493811025284231E-3  -2.890501171350479E-3  
 2.628000000000000E10   -2.991423010826111E-3  -7.945987163111568E-4  
 2.630000000000000E10   -5.709140677936375E-4   3.030468476936221E-3  
 2.632000000000000E10    3.334119450300932E-3   7.209228556348535E-7  
 2.634000000000000E10   -3.107709926553071E-4  -3.252190072089434E-3  
 2.636000000000000E10   -2.924130298197269E-3   1.033358857966960E-3  
 2.638000000000000E10    1.279201707802713E-3   2.827981719747186E-3  
 2.640000000000000E10    2.570910146459937E-3  -1.348601188510656E-3  
 2.642000000000000E10   -1.545504550449550E-3  -2.604862907901406E-3  
 2.644000000000000E10   -2.355387201532722E-3   2.222844865173101E-3  
 2.646000000000000E10    2.460985444486141E-3   2.114263363182545E-3  
 2.648000000000000E10    2.177095739170909E-3  -2.869994845241308E-3  
 2.650000000000000E10   -3.309923922643066E-3  -1.606831676326692E-3  
 2.652000000000000E10   -7.261431892402470E-4   3.541703103110194E-3  
 2.654000000000000E10    3.680119756609201E-3   1.934520842041820E-4  
 2.656000000000000E10   -2.349913847865537E-4  -3.636969486251473E-3  
 2.658000000000000E10   -3.483854234218597E-3   1.008107792586088E-3  
 2.660000000000000E10    1.269671251066029E-3   2.981127938255668E-3  
 2.662000000000000E10    2.711327513679862E-3  -1.746562076732516E-3  
 2.664000000000000E10   -1.815988100133836E-3  -2.469450701028109E-3  
 2.666000000000000E10   -1.775849610567093E-3   2.482656622305512E-3  
 2.668000000000000E10    2.558295615017414E-3   1.519758137874305E-3  
 2.670000000000000E10    1.248635235242546E-3  -2.531813457608223E-3  
 2.672000000000000E10   -2.431615022942424E-3  -7.124109542928636E-4  
 2.674000000000000E10   -2.106489700963721E-4   2.492498140782118E-3  
 2.676000000000000E10    2.434226451441646E-3  -5.915317888138816E-5  
 2.678000000000000E10   -2.797954657580704E-4  -2.482927404344082E-3  
 2.680000000000000E10   -2.286644885316491E-3   8.108219481073320E-4  
 2.682000000000000E10    1.283216988667846E-3   2.193518681451678E-3  
 2.684000000000000E10    1.914641819894314E-3  -1.649719779379666E-3  
 2.686000000000000E10   -1.673512742854655E-3  -1.521216821856797E-3  
 2.688000000000000E10   -1.224008621647954E-3   1.985666807740927E-3  
 2.690000000000000E10    2.018838422372937E-3   8.239163435064256E-4  
 2.692000000000000E10    6.438347045332193E-4  -2.350829076021910E-3  
 2.694000000000000E10   -2.224381081759930E-3  -3.230624715797603E-4  
 2.696000000000000E10   -1.559596130391583E-4   2.148115076124668E-3  
 2.698000000000000E10    2.090147696435452E-3  -1.112400859710760E-4  
 2.700000000000000E10   -4.548424622043967E-4  -1.910292194224894E-3  
 2.702000000000000E10   -1.852816785685718E-3   2.987093466799706E-4  
 2.704000000000000E10    6.604051450267434E-4   1.751148258335888E-3  
 2.706000000000000E10    1.344152260571718E-3  -9.638511692173779E-4  
 2.708000000000000E10   -7.988809375092387E-4  -1.237715361639857E-3  
 2.710000000000000E10   -1.147701987065375E-3   8.844364783726633E-4  
 2.712000000000000E10    8.532323990948498E-4   6.340350955724716E-4  
 2.714000000000000E10    5.582955782301724E-4  -8.868213044479489E-4  
 2.716000000000000E10   -6.070282543078065E-4  -4.708695050794631E-4  
 2.718000000000000E10   -2.047377347480506E-4   6.147049134597182E-4  
 2.720000000000000E10    8.689309470355511E-4   2.636403369251639E-4  
 2.722000000000000E10   -1.414010039297864E-4  -6.994442082941532E-4  
 2.724000000000000E10   -4.714774840977043E-4   1.841677294578403E-4  
 2.726000000000000E10    1.855612790677697E-4   4.930440918542445E-4  
 2.728000000000000E10    5.754965823143721E-4  -2.388764551142231E-4  
 2.730000000000000E10   -4.228107864037156E-4  -3.034852852579206E-4  
 2.732000000000000E10   -3.501714963931590E-4   2.762954391073436E-4  
 2.734000000000000E10    5.778992781415582E-4   6.125238141976297E-4  
 2.736000000000000E10    5.538202240131795E-4  -6.472829845733941E-4  
 2.738000000000000E10   -3.664372197818011E-4  -5.535419331863523E-4  
 2.740000000000000E10   -6.399411940947175E-4   5.390705191530287E-4  
 2.742000000000000E10    5.470332689583302E-4   4.543153918348253E-4  
 2.744000000000000E10    4.377017903607339E-4  -7.269090274348855E-4  
 2.746000000000000E10   -6.069362862035632E-4  -2.467548765707761E-4  
 2.748000000000000E10   -4.029856936540455E-4   5.522309802472591E-4  
 2.750000000000000E10    5.697462474927306E-4   2.891571493819356E-4  
 2.752000000000000E10   -1.590037572896108E-5  -5.220584571361542E-4  
 2.754000000000000E10   -4.904331872239709E-4  -2.071521012112498E-4  
 2.756000000000000E10   -8.595693361712620E-5   5.388192366808653E-4  
