#  HZ   S   RI   R     50.00 
! Rohde & Schwarz ZVA40 4Ports - Version 3.90 - 1145.1110k42 SN: 100403
! Date: 2023-10-04 08:53:51
! Measurement: S12 
! 
 2.200000000000000E10    2.682553604245186E-4  -2.750644693151116E-3  
 2.202000000000000E10   -2.428446430712938E-3  -1.898272421385627E-5  
 2.204000000000000E10    1.419094623997808E-4   2.791549079120159E-3  
 2.206000000000000E10    2.781866816803813E-3  -5.507323658093810E-4  
 2.208000000000000E10   -7.994694169610739E-4  -2.787214005365968E-3  
 2.210000000000000E10   -2.776076551526785E-3   9.295155759900808E-4  
 2.212000000000000E10    1.279560150578618E-3   2.731366083025932E-3  
 2.214000000000000E10    2.585719339549542E-3  -1.472557312808931E-3  
 2.216000000000000E10   -1.748452545143664E-3  -2.237672684714198E-3  
 2.218000000000000E10   -2.388257300481200E-3   1.807305612601340E-3  
 2.220000000000000E10    1.981384353712201E-3   1.879945280961692E-3  
 2.222000000000000E10    2.055916702374816E-3  -2.389958593994379E-3  
 2.224000000000000E10   -2.301721367985010E-3  -1.987691503018141E-3  
 2.226000000000000E10   -1.489692600443959E-3   2.642653184011579E-3  
 2.228000000000000E10    2.963413717225194E-3   1.039244234561920E-3  
 2.230000000000000E10    6.251144222915173E-4  -3.148513380438089E-3  
 2.232000000000000E10   -3.034844528883696E-3  -6.831173086538911E-4  
 2.234000000000000E10   -2.072696770483162E-5   3.285195911303163E-3  
 2.236000000000000E10    3.222367027774453E-3  -2.990610082633793E-4  
 2.238000000000000E10   -9.684354881756008E-4  -3.225554479286075E-3  
 2.240000000000000E10   -3.021890530362725E-3   1.241560094058514E-3  
 2.242000000000000E10    1.677903695963323E-3   2.650460926815867E-3  
 2.244000000000000E10    2.511526457965374E-3  -1.879490679129958E-3  
 2.246000000000000E10   -2.215629676356912E-3  -2.351203933358192E-3  
 2.248000000000000E10   -2.048958325758576E-3   2.220317954197526E-3  
 2.250000000000000E10    2.659546211361885E-3   1.567227882333100E-3  
 2.252000000000000E10    1.371606485918164E-3  -2.790637547150254E-3  
 2.254000000000000E10   -2.833833219483495E-3  -9.648161358200014E-4  
 2.256000000000000E10   -7.346952334046364E-4   3.228113986551762E-3  
 2.258000000000000E10    3.056135494261980E-3   1.811197289498523E-4  
 2.260000000000000E10   -1.611997140571475E-4  -3.251659683883190E-3  
 2.262000000000000E10   -2.948834327980876E-3   6.697015487588942E-4  
 2.264000000000000E10    9.314998751506209E-4   3.013012232258916E-3  
 2.266000000000000E10    2.954986412078142E-3  -9.060662705451250E-4  
 2.268000000000000E10   -1.757516409270465E-3  -3.289587795734406E-3  
 2.270000000000000E10   -2.672324888408184E-3   1.853628549724817E-3  
 2.272000000000000E10    1.889341278001666E-3   2.417634008452296E-3  
 2.274000000000000E10    2.622843720018864E-3  -2.272487385198474E-3  
 2.276000000000000E10   -2.792450366541743E-3  -2.167411381378770E-3  
 2.278000000000000E10   -2.083045896142721E-3   3.060682443901897E-3  
 2.280000000000000E10    2.994193928316236E-3   1.634096726775169E-3  
 2.282000000000000E10    2.897102385759354E-3  -2.096358686685562E-3  
 2.284000000000000E10   -3.423663089051843E-3  -1.088684890419245E-3  
 2.286000000000000E10   -7.723684539087117E-4   3.147567622363567E-3  
 2.288000000000000E10    3.432541619986296E-3   4.249429621268064E-4  
 2.290000000000000E10   -1.742838212521747E-4  -3.688412951305509E-3  
 2.292000000000000E10   -3.164328169077635E-3   6.421647267416120E-4  
 2.294000000000000E10    9.084742050617933E-4   3.089867532253265E-3  
 2.296000000000000E10    3.085112199187279E-3  -1.234532799571753E-3  
 2.298000000000000E10   -1.738379476591945E-3  -3.015658585354686E-3  
 2.300000000000000E10   -2.607552101835609E-3   2.063595457002521E-3  
 2.302000000000000E10    2.411794150248170E-3   2.568598836660385E-3  
 2.304000000000000E10    2.168179024010897E-3  -2.767417347058654E-3  
 2.306000000000000E10   -2.960451645776629E-3  -1.798080978915095E-3  
 2.308000000000000E10   -1.495536533184350E-3   3.317388938739896E-3  
 2.310000000000000E10    3.642189316451550E-3   1.008793478831649E-3  
 2.312000000000000E10    2.384119870839641E-4  -4.251420963555574E-3  
 2.314000000000000E10   -3.850798122584820E-3   3.252672904636711E-4  
 2.316000000000000E10    5.061838892288506E-4   4.034314304590225E-3  
 2.318000000000000E10    3.765051951631904E-3  -9.827202884480357E-4  
 2.320000000000000E10   -1.815948286093772E-3  -3.607319667935371E-3  
 2.322000000000000E10   -3.128819633275271E-3   2.019481966271997E-3  
 2.324000000000000E10    2.348523819819093E-3   2.743403194472194E-3  
 2.326000000000000E10    2.494487911462784E-3  -2.604608656838536E-3  
 2.328000000000000E10   -3.041583346202970E-3  -1.915953354910016E-3  
 2.330000000000000E10   -1.393298851326108E-3   3.419575747102499E-3  
 2.332000000000000E10    3.067332319915295E-3   9.132088744081557E-4  
 2.334000000000000E10    4.445146769285202E-4  -3.337276866659522E-3  
 2.336000000000000E10   -3.307766979560256E-3  -2.565264294389635E-4  
 2.338000000000000E10    1.971141027752310E-4   3.268339671194553E-3  
 2.340000000000000E10    3.057924332097173E-3  -6.546115037053824E-4  
 2.342000000000000E10   -1.223419094458222E-3  -3.023131750524044E-3  
 2.344000000000000E10   -2.868272596970201E-3   1.659974455833435E-3  
 2.346000000000000E10    2.342620631679893E-3   2.397692762315273E-3  
 2.348000000000000E10    1.874815556220710E-3  -2.427939791232348E-3  
 2.350000000000000E10   -2.629040274769068E-3  -1.804279745556414E-3  
 2.352000000000000E10   -1.201048144139350E-3   2.945562591776252E-3  
 2.354000000000000E10    3.042913507670164E-3   7.285734754987061E-4  
 2.356000000000000E10    2.281926717841998E-4  -3.015265101566911E-3  
 2.358000000000000E10   -3.140827408060432E-3   1.000926786218770E-4  
 2.360000000000000E10    7.692488725297153E-4   3.105799201875925E-3  
 2.362000000000000E10    2.739295130595565E-3  -1.352513441815972E-3  
 2.364000000000000E10   -1.729581621475518E-3  -2.221485599875450E-3  
 2.366000000000000E10   -1.932588755153120E-3   2.048904541879892E-3  
 2.368000000000000E10    2.061500912532210E-3   1.619061804376543E-3  
 2.370000000000000E10    1.181580126285553E-3  -2.388449152931571E-3  
 2.372000000000000E10   -2.616675803437829E-3  -3.648290294222534E-4  
 2.374000000000000E10    1.087899217964150E-4   2.547486685216427E-3  
 2.376000000000000E10    1.969271339476109E-3  -5.078681861050427E-4  
 2.378000000000000E10   -9.942806791514158E-4  -1.745748450048268E-3  
 2.380000000000000E10   -1.613573636859655E-3   9.670734871178865E-4  
 2.382000000000000E10    1.307731610722840E-3   1.166647300124168E-3  
 2.384000000000000E10    8.359663188457489E-4  -1.385200535878539E-3  
 2.386000000000000E10   -1.540810684673488E-3  -3.889401850756258E-4  
 2.388000000000000E10    8.636739948997274E-5   1.284562284126878E-3  
 2.390000000000000E10    1.228254055604339E-3  -4.583745030686259E-4  
 2.392000000000000E10   -4.163155681453645E-4  -8.853406761772931E-4  
 2.394000000000000E10   -4.588407464325428E-4   8.202012395486236E-4  
 2.396000000000000E10    7.733845268376172E-4   1.612759806448594E-4  
 2.398000000000000E10   -2.630651288200170E-4  -6.896976265124977E-4  
 2.400000000000000E10   -7.565816631540656E-4   1.783557236194611E-4  
 2.402000000000000E10    7.554317126050592E-4   4.429998807609081E-4  
 2.404000000000000E10    3.927750512957573E-4  -5.755038000643253E-4  
 2.406000000000000E10   -1.125556183978915E-3  -2.495498920325190E-4  
 2.408000000000000E10   -3.602779543143697E-5   9.990988764911890E-4  
 2.410000000000000E10    1.190450857393444E-3  -2.263483329443261E-4  
 2.412000000000000E10   -6.222847150638700E-4  -1.324732671491802E-3  
 2.414000000000000E10   -1.128360047005117E-3   6.340523832477629E-4  
 2.416000000000000E10    9.341692784801126E-4   9.909563232213259E-4  
 2.418000000000000E10    9.411147912032902E-4  -1.134550780989230E-3  
 2.420000000000000E10   -1.358959474600852E-3  -8.067842572927475E-4  
 2.422000000000000E10   -6.513726548291743E-4   1.405386719852686E-3  
 2.424000000000000E10    1.476079458370805E-3   4.315557598602027E-4  
 2.426000000000000E10    2.022402186412364E-4  -1.862759003415704E-3  
 2.428000000000000E10   -1.427934854291380E-3   7.419611938530579E-5  
 2.430000000000000E10    4.017121682409197E-4   1.294868299737573E-3  
 2.432000000000000E10    1.423017703928053E-3  -5.856167408637703E-4  
 2.434000000000000E10   -7.351793465204537E-4  -1.342800911515951E-3  
 2.436000000000000E10   -1.101535279303789E-3   8.840071968734264E-4  
 2.438000000000000E10    1.329190214164555E-3   9.439418208785355E-4  
 2.440000000000000E10    7.886827224865556E-4  -1.312511274591088E-3  
 2.442000000000000E10   -1.640748232603073E-3  -6.706735002808273E-4  
 2.444000000000000E10   -4.406467487569898E-4   1.850207452662289E-3  
 2.446000000000000E10    1.741906045936048E-3   8.729567343834788E-5  
 2.448000000000000E10   -1.762529136613011E-4  -1.888692262582481E-3  
 2.450000000000000E10   -1.899193157441914E-3   3.855832037515938E-4  
 2.452000000000000E10    8.146842592395842E-4   1.948446850292385E-3  
 2.454000000000000E10    1.905532320961356E-3  -7.725476170890033E-4  
 2.456000000000000E10   -1.094592385925353E-3  -1.983161084353924E-3  
 2.458000000000000E10   -1.571690547280014E-3   1.328148413449526E-3  
 2.460000000000000E10    1.573434798046947E-3   1.868089544586837E-3  
 2.462000000000000E10    1.548230298794806E-3  -1.733377459459007E-3  
 2.464000000000000E10   -1.982612302526832E-3  -1.473404583521187E-3  
 2.466000000000000E10   -1.356792519800365E-3   2.085701096802950E-3  
 2.468000000000000E10    2.327705500647426E-3   1.100924448110163E-3  
 2.470000000000000E10    8.368563139811158E-4  -2.660247730091214E-3  
 2.472000000000000E10   -2.392983762547374E-3  -3.627042169682682E-4  
 2.474000000000000E10   -4.691201029345393E-4   2.302061067894101E-3  
 2.476000000000000E10    2.376908902078867E-3   1.831041445257142E-4  
 2.478000000000000E10   -3.525514621287584E-4  -2.578525803983212E-3  
 2.480000000000000E10   -2.084958832710981E-3   3.940704918932170E-4  
 2.482000000000000E10    6.442572339437902E-4   2.312426688149571E-3  
 2.484000000000000E10    1.932172686792910E-3  -9.380150004290044E-4  
 2.486000000000000E10   -1.288360101170838E-3  -1.794158713892102E-3  
 2.488000000000000E10   -1.306051388382912E-3   1.293324748985469E-3  
 2.490000000000000E10    1.486701657995582E-3   1.238951575942338E-3  
 2.492000000000000E10    1.040667644701898E-3  -1.662860391661525E-3  
 2.494000000000000E10   -1.865260535851121E-3  -6.381312268786132E-4  
 2.496000000000000E10   -4.799168964382261E-4   1.740345498546958E-3  
 2.498000000000000E10    1.828324398957193E-3  -6.071539610275067E-5  
 2.500000000000000E10   -3.117407031822950E-4  -2.059481106698513E-3  
 2.502000000000000E10   -1.699835876934230E-3   6.251992890611291E-4  
 2.504000000000000E10    6.603783695027232E-4   1.818591845221818E-3  
 2.506000000000000E10    1.679836655966938E-3  -1.035262364894152E-3  
 2.508000000000000E10   -9.140803595073521E-4  -2.026558853685856E-3  
 2.510000000000000E10   -1.841295976191759E-3   1.225138898007572E-3  
 2.512000000000000E10    1.433527912013233E-3   1.797803328372538E-3  
 2.514000000000000E10    1.456883270293474E-3  -1.586735248565674E-3  
 2.516000000000000E10   -2.022095955908299E-3  -1.574724446982145E-3  
 2.518000000000000E10   -1.479268772527576E-3   1.775851822458208E-3  
 2.520000000000000E10    2.308744704350829E-3   1.564525184221566E-3  
 2.522000000000000E10    1.025214674882591E-3  -2.483952324837446E-3  
 2.524000000000000E10   -2.558093518018723E-3  -8.887160220183432E-4  
 2.526000000000000E10   -7.334901019930840E-4   2.528921235352755E-3  
 2.528000000000000E10    2.664342988282442E-3   5.000181263312697E-4  
 2.530000000000000E10    1.168367016362026E-4  -2.569029107689858E-3  
 2.532000000000000E10   -2.559153595939279E-3  -9.859022975433618E-5  
 2.534000000000000E10    1.468329865019769E-4   2.783105708658695E-3  
 2.536000000000000E10    2.354994881898165E-3  -6.625101668760181E-4  
 2.538000000000000E10   -1.402984955348074E-3  -2.401871839538217E-3  
 2.540000000000000E10   -1.907619414851070E-3   1.225649844855070E-3  
 2.542000000000000E10    1.431586686521769E-3   2.171390922740102E-3  
 2.544000000000000E10    1.499976846389473E-3  -1.607769983820617E-3  
 2.546000000000000E10   -1.690537086687982E-3  -1.243191421963275E-3  
 2.548000000000000E10   -1.202185056172311E-3   2.063086954876781E-3  
 2.550000000000000E10    2.310815965756774E-3   1.032995060086250E-3  
 2.552000000000000E10    4.818024463020265E-4  -2.279286272823811E-3  
 2.554000000000000E10   -2.243920927867293E-3   8.731432899367064E-5  
 2.556000000000000E10    2.953627845272422E-4   2.313659759238362E-3  
 2.558000000000000E10    2.384423278272152E-3  -4.826034710276872E-4  
 2.560000000000000E10   -8.280362817458808E-4  -2.214104868471623E-3  
 2.562000000000000E10   -2.183433622121811E-3   1.082301954738796E-3  
 2.564000000000000E10    1.617237227037549E-3   2.272917190566659E-3  
 2.566000000000000E10    2.184445736929774E-3  -1.968207769095898E-3  
 2.568000000000000E10   -2.574924379587174E-3  -1.590642728842795E-3  
 2.570000000000000E10   -1.403905451297760E-3   2.773442771285772E-3  
 2.572000000000000E10    3.267335705459118E-3   1.443682005628943E-3  
 2.574000000000000E10    1.014949055388570E-3  -3.163714194670320E-3  
 2.576000000000000E10   -3.626116318628192E-3  -3.512390539981425E-4  
 2.578000000000000E10   -1.134604099206626E-5   3.499903250485659E-3  
 2.580000000000000E10    3.841383848339319E-3  -3.171559947077185E-4  
 2.582000000000000E10   -6.103055202402175E-4  -3.577391617000103E-3  
 2.584000000000000E10   -3.699076129123569E-3   1.457458594813943E-3  
 2.586000000000000E10    1.620932249352336E-3   3.270867513492703E-3  
 2.588000000000000E10    2.973984228447080E-3  -2.077239332720637E-3  
 2.590000000000000E10   -2.067778725177050E-3  -2.439031144604087E-3  
 2.592000000000000E10   -2.289168769493699E-3   2.318645128980279E-3  
 2.594000000000000E10    2.628553658723831E-3   2.162197837606072E-3  
 2.596000000000000E10    1.771319773979485E-3  -2.724949270486832E-3  
 2.598000000000000E10   -2.969174645841122E-3  -1.368251047097147E-3  
 2.600000000000000E10   -8.361940854229033E-4   3.000240307301283E-3  
 2.602000000000000E10    3.152335295453668E-3   4.934290191158652E-4  
 2.604000000000000E10   -2.993032467202283E-5  -3.077559871599078E-3  
 2.606000000000000E10   -2.850013086572290E-3   3.991026023868471E-4  
 2.608000000000000E10    6.509894737973809E-4   2.712218789383769E-3  
 2.610000000000000E10    3.039237810298801E-3  -7.721943547949195E-4  
 2.612000000000000E10   -1.204208470880985E-3  -2.676537260413170E-3  
 2.614000000000000E10   -2.677355892956257E-3   1.778752426616848E-3  
 2.616000000000000E10    2.081982092931867E-3   2.436752896755934E-3  
 2.618000000000000E10    2.441867720335722E-3  -2.680946141481400E-3  
 2.620000000000000E10   -2.981445984914899E-3  -2.102741040289402E-3  
 2.622000000000000E10   -1.225085929036140E-3   3.214422380551696E-3  
 2.624000000000000E10    3.271391382440925E-3   1.104047521948814E-3  
 2.626000000000000E10    5.596185801550746E-4  -3.562320023775101E-3  
 2.628000000000000E10   -3.527598222717643E-3  -8.498136594425887E-5  
 2.630000000000000E10    1.980138040380552E-4   3.776259720325470E-3  
 2.632000000000000E10    3.836850402876735E-3  -1.032996457070112E-3  
 2.634000000000000E10   -1.491971197538078E-3  -3.501268802210689E-3  
 2.636000000000000E10   -3.380703739821911E-3   1.823856029659510E-3  
 2.638000000000000E10    2.098897704854608E-3   3.137455787509680E-3  
 2.640000000000000E10    2.771142404526472E-3  -2.587592229247093E-3  
 2.642000000000000E10   -2.910557901486754E-3  -2.517341170459986E-3  
 2.644000000000000E10   -2.184421988204122E-3   3.388360142707825E-3  
 2.646000000000000E10    3.498592879623175E-3   1.528701162897050E-3  
 2.648000000000000E10    1.021542120724917E-3  -3.778513288125396E-3  
 2.650000000000000E10   -3.712673205882311E-3  -5.334626184776425E-4  
 2.652000000000000E10    3.160022606607527E-4   3.797190496698022E-3  
 2.654000000000000E10    3.596335649490356E-3  -1.038854126818478E-3  
 2.656000000000000E10   -1.374058309011161E-3  -3.483350621536374E-3  
 2.658000000000000E10   -3.203306812793016E-3   1.843339181505144E-3  
 2.660000000000000E10    2.184628741815686E-3   2.722552046179771E-3  
 2.662000000000000E10    2.170091262087226E-3  -2.577679231762886E-3  
 2.664000000000000E10   -2.998717129230499E-3  -1.904904958792031E-3  
 2.666000000000000E10   -1.193264033645392E-3   2.961655380204320E-3  
 2.668000000000000E10    2.930105198174715E-3   6.245062104426324E-4  
 2.670000000000000E10    2.302540233358741E-4  -3.157300641760230E-3  
 2.672000000000000E10   -2.886433154344559E-3   1.014571098494344E-4  
 2.674000000000000E10    4.397156881168485E-4   2.837158273905516E-3  
 2.676000000000000E10    2.434783382341266E-3  -9.619435877539218E-4  
 2.678000000000000E10   -1.337431487627327E-3  -1.971556339412928E-3  
 2.680000000000000E10   -2.052942058071494E-3   1.469104201532900E-3  
 2.682000000000000E10    1.584344776347280E-3   1.695917919278145E-3  
 2.684000000000000E10    1.298735849559307E-3  -1.881677540950477E-3  
 2.686000000000000E10   -2.011593896895647E-3  -1.133650308474898E-3  
 2.688000000000000E10   -8.914036443457007E-4   1.954837236553431E-3  
 2.690000000000000E10    2.209385856986046E-3   4.888288676738739E-4  
 2.692000000000000E10    6.763543206034228E-5  -2.389551606029272E-3  
 2.694000000000000E10   -2.197711495682597E-3  -1.782055369403679E-5  
 2.696000000000000E10    4.583367262966931E-4   2.231686376035214E-3  
 2.698000000000000E10    1.973213860765100E-3  -5.730611155740917E-4  
 2.700000000000000E10   -8.424745756201446E-4  -1.855037640780211E-3  
 2.702000000000000E10   -1.824039500206709E-3   7.854212308302522E-4  
 2.704000000000000E10    7.901143981143832E-4   1.735849888063967E-3  
 2.706000000000000E10    1.445751986466348E-3  -9.156128508038819E-4  
 2.708000000000000E10   -1.062086434103549E-3  -1.293253153562546E-3  
 2.710000000000000E10   -1.341745373792946E-3   9.605478262528777E-4  
 2.712000000000000E10    1.074660453014076E-3   1.096385880373418E-3  
 2.714000000000000E10    8.613813552074134E-4  -9.350101463496685E-4  
 2.716000000000000E10   -9.351497283205390E-4  -8.752576541155577E-4  
 2.718000000000000E10   -6.840043934062123E-4   1.050602179020643E-3  
 2.720000000000000E10    1.132808625698090E-3   5.551943322643638E-4  
 2.722000000000000E10    2.978680131491274E-4  -9.614462032914162E-4  
 2.724000000000000E10   -1.046707737259567E-3  -2.547826443333179E-4  
 2.726000000000000E10   -1.992546167457476E-4   1.007884740829468E-3  
 2.728000000000000E10    8.603002061136067E-4   2.947675784525927E-5  
 2.730000000000000E10   -3.480395826045424E-4  -7.233429350890219E-4  
 2.732000000000000E10   -6.296857027336955E-4   3.219207865186036E-4  
 2.734000000000000E10    3.358504036441445E-4   6.539996829815209E-4  
 2.736000000000000E10    6.400977727025747E-4  -3.755709622055292E-4  
 2.738000000000000E10   -4.069980932399631E-4  -6.612736615352333E-4  
 2.740000000000000E10   -6.960579194128513E-4   6.605357630178332E-4  
 2.742000000000000E10    6.916593993082643E-4   4.571583413053304E-4  
 2.744000000000000E10    1.696140097919852E-4  -7.400586619041860E-4  
 2.746000000000000E10   -5.733696743845940E-4  -2.164510660804808E-4  
 2.748000000000000E10   -1.309901417698711E-4   5.616949056275189E-4  
 2.750000000000000E10    7.204707944765687E-4   1.239301673194859E-5  
 2.752000000000000E10   -1.044390010065399E-4  -6.415054667741060E-4  
 2.754000000000000E10   -4.987956490367651E-4  -1.323613978456706E-4  
 2.756000000000000E10    1.461716601625085E-4   7.812784169800580E-4  
