#  HZ   S   RI   R     50.00 
! Rohde & Schwarz ZVA40 4Ports - Version 3.90 - 1145.1110k42 SN: 100403
! Date: 2023-10-04 08:54:14
! Measurement: S12 
! 
 2.200000000000000E10    1.955667510628700E-3  -2.049029339104891E-3  
 2.202000000000000E10   -2.221846720203757E-3  -1.682266127318144E-3  
 2.204000000000000E10   -1.339431386440992E-3   2.063126536086202E-3  
 2.206000000000000E10    2.100409008562565E-3   1.411287696100771E-3  
 2.208000000000000E10    1.061307266354561E-3  -2.328941132873297E-3  
 2.210000000000000E10   -2.476948546245694E-3  -8.188541396521032E-4  
 2.212000000000000E10   -4.343536274973303E-4   2.189284423366189E-3  
 2.214000000000000E10    2.314848126843572E-3   3.186986723449081E-4  
 2.216000000000000E10   -2.819488581735641E-4  -2.427573082968593E-3  
 2.218000000000000E10   -2.325075678527355E-3   3.326009609736502E-4  
 2.220000000000000E10    8.432670729234815E-4   2.060435945168138E-3  
 2.222000000000000E10    2.284173853695393E-3  -1.126122660934925E-3  
 2.224000000000000E10   -1.214873860590160E-3  -2.175425412133336E-3  
 2.226000000000000E10   -2.164681907743216E-3   1.672445796430111E-3  
 2.228000000000000E10    2.117665484547615E-3   1.628285739570856E-3  
 2.230000000000000E10    1.575488713569939E-3  -2.445721533149481E-3  
 2.232000000000000E10   -2.644381253048778E-3  -1.385703799314797E-3  
 2.234000000000000E10   -8.964631124399602E-4   2.613398479297757E-3  
 2.236000000000000E10    2.885062247514725E-3   6.659801001660526E-4  
 2.238000000000000E10    1.659870031289756E-4  -3.184114582836628E-3  
 2.240000000000000E10   -3.215491771697998E-3  -2.111669891746715E-4  
 2.242000000000000E10    4.779785231221467E-4   3.298681229352951E-3  
 2.244000000000000E10    3.368821227923036E-3  -9.935866110026836E-4  
 2.246000000000000E10   -1.334308763034642E-3  -3.039150498807430E-3  
 2.248000000000000E10   -3.102723043411970E-3   1.425534719601274E-3  
 2.250000000000000E10    1.809335313737392E-3   2.769879996776581E-3  
 2.252000000000000E10    2.891240175813437E-3  -2.465628087520599E-3  
 2.254000000000000E10   -2.329978626221418E-3  -2.403755905106664E-3  
 2.256000000000000E10   -2.258709864690900E-3   2.711124951019883E-3  
 2.258000000000000E10    3.012408735230565E-3   1.782526960596442E-3  
 2.260000000000000E10    1.621807226911187E-3  -2.804977819323540E-3  
 2.262000000000000E10   -3.134976606816053E-3  -1.292853965424001E-3  
 2.264000000000000E10   -8.935512742027640E-4   3.235906362533569E-3  
 2.266000000000000E10    3.403173759579659E-3   9.134596912190318E-4  
 2.268000000000000E10    3.186112444382161E-4  -3.607684746384621E-3  
 2.270000000000000E10   -3.206136869266629E-3   4.275389655958861E-4  
 2.272000000000000E10    4.392953123897314E-4   3.344875760376453E-3  
 2.274000000000000E10    3.027300583198667E-3  -8.378658676519990E-4  
 2.276000000000000E10   -1.323011238127947E-3  -2.828638534992933E-3  
 2.278000000000000E10   -2.889985218644142E-3   1.389141078107059E-3  
 2.280000000000000E10    1.602095901034772E-3   2.530800644308329E-3  
 2.282000000000000E10    3.046124707907438E-3  -1.227577595273033E-4  
 2.284000000000000E10   -2.343476517125964E-3  -2.153642242774367E-3  
 2.286000000000000E10   -1.723668421618640E-3   2.452890621498227E-3  
 2.288000000000000E10    2.586503513157368E-3   1.598443719558418E-3  
 2.290000000000000E10    1.133301761001349E-3  -2.826446667313576E-3  
 2.292000000000000E10   -2.878663362935185E-3  -7.358503644354641E-4  
 2.294000000000000E10   -5.596758564934135E-4   3.138004569336772E-3  
 2.296000000000000E10    3.306197701022029E-3  -1.360492660751334E-5  
 2.298000000000000E10   -3.102233167737722E-4  -3.218883648514748E-3  
 2.300000000000000E10   -3.168674185872078E-3   6.680558435618877E-4  
 2.302000000000000E10    1.427134964615107E-3   3.082126146182418E-3  
 2.304000000000000E10    3.063958371058106E-3  -1.698043895885348E-3  
 2.306000000000000E10   -1.962803304195404E-3  -2.754850313067436E-3  
 2.308000000000000E10   -2.565236296504736E-3   2.220928203314543E-3  
 2.310000000000000E10    2.512218430638313E-3   2.465704455971718E-3  
 2.312000000000000E10    2.209870843216777E-3  -3.136024344712496E-3  
 2.314000000000000E10   -3.347103483974934E-3  -1.723870402202010E-3  
 2.316000000000000E10   -1.360102673061192E-3   3.389400895684958E-3  
 2.318000000000000E10    3.746518399566412E-3   7.018071482889354E-4  
 2.320000000000000E10    2.037439408013597E-4  -3.796529490500689E-3  
 2.322000000000000E10   -3.524930914863944E-3   1.456832833355293E-4  
 2.324000000000000E10    6.612201686948538E-4   3.373995423316956E-3  
 2.326000000000000E10    3.627522382885218E-3  -1.172878313809633E-3  
 2.328000000000000E10   -1.635249122045934E-3  -3.158130450174213E-3  
 2.330000000000000E10   -2.691485453397036E-3   2.067405031993985E-3  
 2.332000000000000E10    2.327007241547108E-3   2.206844044849277E-3  
 2.334000000000000E10    2.079459372907877E-3  -2.588132396340370E-3  
 2.336000000000000E10   -2.724346239119768E-3  -1.459507620893419E-3  
 2.338000000000000E10   -1.109263859689236E-3   3.021419048309326E-3  
 2.340000000000000E10    2.986932639032602E-3   7.042301585897803E-4  
 2.342000000000000E10    7.206392183434218E-5  -3.169877687469125E-3  
 2.344000000000000E10   -3.318295581266284E-3   6.047707283869386E-4  
 2.346000000000000E10    9.231164585798979E-4   2.855887403711677E-3  
 2.348000000000000E10    2.727691084146500E-3  -1.481748884543777E-3  
 2.350000000000000E10   -1.905314973555505E-3  -2.408491447567940E-3  
 2.352000000000000E10   -2.098462544381619E-3   2.312525874003768E-3  
 2.354000000000000E10    2.339051803573966E-3   1.696027233265340E-3  
 2.356000000000000E10    1.297931536100805E-3  -2.449596766382456E-3  
 2.358000000000000E10   -2.783311065286398E-3  -6.333786877803505E-4  
 2.360000000000000E10   -2.276332088513300E-4   2.667425200343132E-3  
 2.362000000000000E10    2.355254255235195E-3  -2.638802397996187E-4  
 2.364000000000000E10   -5.746813840232790E-4  -2.346549183130264E-3  
 2.366000000000000E10   -1.773194409906864E-3   1.009117695502937E-3  
 2.368000000000000E10    1.071124803274870E-3   1.766774570569396E-3  
 2.370000000000000E10    1.378527493216097E-3  -1.415300532244146E-3  
 2.372000000000000E10   -1.634728396311402E-3  -1.015466055832803E-3  
 2.374000000000000E10   -2.961852005682886E-4   1.727893715724349E-3  
 2.376000000000000E10    1.360102323815227E-3   3.596373426262289E-4  
 2.378000000000000E10   -1.416260347468779E-4  -1.408403273671866E-3  
 2.380000000000000E10   -1.110288430936635E-3   6.078936858102679E-4  
 2.382000000000000E10    7.178239757195115E-4   1.099437242373824E-3  
 2.384000000000000E10    5.643811309710145E-4  -9.775944054126740E-4  
 2.386000000000000E10   -1.071107340976596E-3  -3.921779280062765E-4  
 2.388000000000000E10    2.546751347836107E-4   1.043021329678595E-3  
 2.390000000000000E10    7.597269723191857E-4  -5.160646978765726E-4  
 2.392000000000000E10   -7.678827969357371E-4  -6.650328869000077E-4  
 2.394000000000000E10   -5.174231482669711E-4   9.004008024930954E-4  
 2.396000000000000E10    8.350744610652328E-4   3.105586074525490E-5  
 2.398000000000000E10   -1.563234982313588E-4  -8.042838890105486E-4  
 2.400000000000000E10   -1.041671028360724E-3   1.142615146818571E-4  
 2.402000000000000E10    7.336466806009412E-4   8.270897087641060E-4  
 2.404000000000000E10    8.242528419941664E-4  -8.086471934802830E-4  
 2.406000000000000E10   -1.017542323097587E-3  -7.012172136455774E-4  
 2.408000000000000E10   -4.838431777898222E-4   1.360713271424174E-3  
 2.410000000000000E10    9.934925474226475E-4  -6.761240365449339E-5  
 2.412000000000000E10    5.074265209259465E-5  -1.539703225716949E-3  
 2.414000000000000E10   -1.194329117424786E-3   1.741053420118988E-4  
 2.416000000000000E10    4.614932404365391E-4   1.439073937945068E-3  
 2.418000000000000E10    1.134049263782799E-3  -8.121361024677753E-4  
 2.420000000000000E10   -1.097786938771606E-3  -1.191721530631185E-3  
 2.422000000000000E10   -1.071051228791475E-3   1.074766274541616E-3  
 2.424000000000000E10    1.356016378849745E-3   6.829225458204746E-4  
 2.426000000000000E10    4.622079723048955E-4  -1.426159054972231E-3  
 2.428000000000000E10   -1.769681810401380E-3  -1.082833550754003E-4  
 2.430000000000000E10    8.046552102314308E-5   1.713459263555706E-3  
 2.432000000000000E10    1.764027401804924E-3  -1.115664927056059E-4  
 2.434000000000000E10   -3.920015296898782E-4  -1.780525664798915E-3  
 2.436000000000000E10   -1.782701234333217E-3   8.832759340293706E-4  
 2.438000000000000E10    9.644007077440620E-4   1.836732728406787E-3  
 2.440000000000000E10    1.630801591090858E-3  -1.384320203214884E-3  
 2.442000000000000E10   -1.538712065666914E-3  -1.576315378770232E-3  
 2.444000000000000E10   -1.454114681109786E-3   1.884718891233206E-3  
 2.446000000000000E10    1.818952267058194E-3   9.589145192876458E-4  
 2.448000000000000E10    9.492716053500772E-4  -1.860560849308968E-3  
 2.450000000000000E10   -2.087895059958100E-3  -9.701983653940260E-4  
 2.452000000000000E10   -7.377103902399540E-4   2.565695205703378E-3  
 2.454000000000000E10    2.094285329803824E-3   2.629653317853808E-4  
 2.456000000000000E10    2.884336572606117E-4  -2.165213692933321E-3  
 2.458000000000000E10   -2.452451735734940E-3   1.574850903125480E-4  
 2.460000000000000E10    7.603247649967670E-5   2.270099706947804E-3  
 2.462000000000000E10    2.082617953419685E-3  -3.387769102118909E-4  
 2.464000000000000E10   -5.065805744379759E-4  -2.308243419975042E-3  
 2.466000000000000E10   -2.096804324537516E-3   1.090533216483891E-3  
 2.468000000000000E10    1.461355946958065E-3   2.032781718298793E-3  
 2.470000000000000E10    1.669544493779540E-3  -1.324668526649475E-3  
 2.472000000000000E10   -1.723164808936417E-3  -1.337277237325907E-3  
 2.474000000000000E10   -1.254499424248934E-3   1.901953481137753E-3  
 2.476000000000000E10    1.800459460355341E-3   8.176013943739235E-4  
 2.478000000000000E10    6.433514063246548E-4  -1.846866682171822E-3  
 2.480000000000000E10   -2.245754934847355E-3  -3.557814634405077E-4  
 2.482000000000000E10   -1.434222940588370E-4   2.119228709489107E-3  
 2.484000000000000E10    2.203737385571003E-3  -3.243019091314636E-5  
 2.486000000000000E10   -3.321840777061880E-4  -2.447199309244752E-3  
 2.488000000000000E10   -2.401258330792189E-3   1.246708445250988E-3  
 2.490000000000000E10    1.310082967393100E-3   2.063392894342542E-3  
 2.492000000000000E10    1.743441564030945E-3  -1.447795657441020E-3  
 2.494000000000000E10   -1.762440777383745E-3  -1.671382691711187E-3  
 2.496000000000000E10   -1.548635656945407E-3   2.132018795236945E-3  
 2.498000000000000E10    2.382759936153889E-3   1.203742809593678E-3  
 2.500000000000000E10    1.206166693009436E-3  -2.230872865766287E-3  
 2.502000000000000E10   -2.804539166390896E-3  -9.382454445585609E-4  
 2.504000000000000E10   -3.673943283502013E-4   2.832825994119048E-3  
 2.506000000000000E10    2.486670389771462E-3   2.601112064439803E-4  
 2.508000000000000E10    3.962609916925430E-4  -2.465166384354234E-3  
 2.510000000000000E10   -2.677360316738486E-3   1.081547306966968E-4  
 2.512000000000000E10    6.720178498653695E-5   2.737930975854397E-3  
 2.514000000000000E10    2.585381036624312E-3  -6.018314743414521E-4  
 2.516000000000000E10   -4.975351621396840E-4  -2.730802167207003E-3  
 2.518000000000000E10   -2.591810654848814E-3   9.364091674797237E-4  
 2.520000000000000E10    1.309162005782127E-3   2.317707985639572E-3  
 2.522000000000000E10    2.170586958527565E-3  -1.289523788727820E-3  
 2.524000000000000E10   -1.576079404912889E-3  -1.993645913898945E-3  
 2.526000000000000E10   -1.630000537261367E-3   1.547038671560586E-3  
 2.528000000000000E10    1.836124924011529E-3   1.432597520761192E-3  
 2.530000000000000E10    1.266550505533814E-3  -1.848292769864202E-3  
 2.532000000000000E10   -2.104832790791988E-3  -9.280520607717335E-4  
 2.534000000000000E10   -6.593408179469407E-4   2.427371684461832E-3  
 2.536000000000000E10    2.212310442700982E-3   1.226561580551788E-4  
 2.538000000000000E10   -2.126674517057836E-4  -2.357300603762269E-3  
 2.540000000000000E10   -2.241977490484715E-3   7.217061356641352E-4  
 2.542000000000000E10    8.284499635919929E-4   2.030917210504413E-3  
 2.544000000000000E10    1.972669735550880E-3  -1.215821481309831E-3  
 2.546000000000000E10   -1.442231936380267E-3  -2.256826264783740E-3  
 2.548000000000000E10   -1.804304076358676E-3   2.011536620557308E-3  
 2.550000000000000E10    2.004097681492567E-3   1.762033440172672E-3  
 2.552000000000000E10    1.442688051611185E-3  -2.586753340438008E-3  
 2.554000000000000E10   -2.671620110049844E-3  -1.042458927258849E-3  
 2.556000000000000E10   -8.476055809296668E-4   2.726146485656500E-3  
 2.558000000000000E10    2.788908081129193E-3   5.297636962495744E-4  
 2.560000000000000E10    3.393655642867088E-4  -2.800884423777461E-3  
 2.562000000000000E10   -2.834507031366229E-3  -3.226780609111302E-5  
 2.564000000000000E10   -3.206960536772385E-5   2.966383704915643E-3  
 2.566000000000000E10    3.208117792382836E-3  -6.185628008097410E-4  
 2.568000000000000E10   -1.027893740683794E-3  -3.254693234339356E-3  
 2.570000000000000E10   -2.950852504000068E-3   1.497147954069078E-3  
 2.572000000000000E10    1.693251775577664E-3   2.505194628611207E-3  
 2.574000000000000E10    2.554849022999406E-3  -2.219595247879624E-3  
 2.576000000000000E10   -2.477381145581603E-3  -2.326307352632284E-3  
 2.578000000000000E10   -2.133095404133201E-3   2.460499759763479E-3  
 2.580000000000000E10    2.809932921081781E-3   1.541557605378330E-3  
 2.582000000000000E10    1.138756284490228E-3  -3.129376564174891E-3  
 2.584000000000000E10   -3.382686758413911E-3  -5.811695009469986E-4  
 2.586000000000000E10   -1.207272434839979E-4   3.282886231318116E-3  
 2.588000000000000E10    2.933949930593371E-3  -4.355596320237964E-4  
 2.590000000000000E10   -7.244105217978358E-4  -2.603246597573161E-3  
 2.592000000000000E10   -2.929227892309427E-3   8.759141201153398E-4  
 2.594000000000000E10    1.331905834376812E-3   2.784336451441050E-3  
 2.596000000000000E10    2.495368476957083E-3  -1.777744502760470E-3  
 2.598000000000000E10   -2.016482641920447E-3  -2.393465489149094E-3  
 2.600000000000000E10   -2.328153233975172E-3   2.716714749112725E-3  
 2.602000000000000E10    3.018101444467902E-3   1.628371304832399E-3  
 2.604000000000000E10    1.120311091654003E-3  -3.285308135673404E-3  
 2.606000000000000E10   -3.508513793349266E-3  -7.664214936085045E-4  
 2.608000000000000E10   -4.219069669488818E-4   3.578427480533719E-3  
 2.610000000000000E10    3.407979616895318E-3   3.546374500729144E-5  
 2.612000000000000E10   -4.629257018677890E-4  -3.385525429621339E-3  
 2.614000000000000E10   -3.833228955045342E-3   6.259310757741332E-4  
 2.616000000000000E10    1.016173046082258E-3   3.722598776221275E-3  
 2.618000000000000E10    3.497524652630091E-3  -1.793056726455689E-3  
 2.620000000000000E10   -2.156064612790942E-3  -3.152925521135330E-3  
 2.622000000000000E10   -3.068963065743446E-3   2.562392037361860E-3  
 2.624000000000000E10    2.752190222963691E-3   2.422786084935069E-3  
 2.626000000000000E10    2.021077321842313E-3  -2.677164506167173E-3  
 2.628000000000000E10   -2.800139598548412E-3  -1.776909688487649E-3  
 2.630000000000000E10   -1.322484924457967E-3   3.378902096301317E-3  
 2.632000000000000E10    3.373901825398207E-3   1.021166797727346E-3  
 2.634000000000000E10    3.521063190419227E-4  -3.421655390411615E-3  
 2.636000000000000E10   -3.383535426110029E-3  -1.022610449581407E-4  
 2.638000000000000E10    1.953776227310300E-4   3.579908283427358E-3  
 2.640000000000000E10    2.910912968218327E-3  -7.586661959066987E-4  
 2.642000000000000E10   -1.064362819306552E-3  -3.083099611103535E-3  
 2.644000000000000E10   -2.927032765001059E-3   1.322635449469090E-3  
 2.646000000000000E10    1.886462327092886E-3   2.685855841264129E-3  
 2.648000000000000E10    2.540100365877152E-3  -2.396998228505254E-3  
 2.650000000000000E10   -2.856960752978921E-3  -1.816294156014919E-3  
 2.652000000000000E10   -1.391260768286884E-3   3.299415810033679E-3  
 2.654000000000000E10    3.245685482397676E-3   8.159448625519872E-4  
 2.656000000000000E10    2.074194198939949E-4  -3.475272096693516E-3  
 2.658000000000000E10   -3.562796162441373E-3   3.338404931128025E-4  
 2.660000000000000E10    7.408665842376649E-4   3.376474138349295E-3  
 2.662000000000000E10    3.142129397019744E-3  -1.408720039762557E-3  
 2.664000000000000E10   -1.785867032594979E-3  -2.882546512410045E-3  
 2.666000000000000E10   -2.511977916583419E-3   2.308084629476070E-3  
 2.668000000000000E10    2.635897602885962E-3   2.146875485777855E-3  
 2.670000000000000E10    1.555716968141496E-3  -2.713497495278716E-3  
 2.672000000000000E10   -2.988058840855956E-3  -1.183631946332753E-3  
 2.674000000000000E10   -9.217838523909450E-4   2.963015111163259E-3  
 2.676000000000000E10    2.795204985886812E-3   4.327340575400740E-4  
 2.678000000000000E10    1.624705182621256E-4  -2.806805307045579E-3  
 2.680000000000000E10   -2.710009692236781E-3   6.278966902755201E-4  
 2.682000000000000E10    5.885555292479694E-4   2.443387871608138E-3  
 2.684000000000000E10    2.268771408125758E-3  -8.231562678702176E-4  
 2.686000000000000E10   -1.031921245157719E-3  -2.100524259731174E-3  
 2.688000000000000E10   -1.829223823733628E-3   1.247404958121479E-3  
 2.690000000000000E10    1.434275647625327E-3   1.647266559302807E-3  
 2.692000000000000E10    1.297583919949830E-3  -1.808764296583831E-3  
 2.694000000000000E10   -1.744917128235102E-3  -1.072786981239915E-3  
 2.696000000000000E10   -8.373512537218630E-4   1.984909409657121E-3  
 2.698000000000000E10    1.728026079945266E-3   5.333246663212776E-4  
 2.700000000000000E10    1.698677951935679E-4  -1.633597305044532E-3  
 2.702000000000000E10   -1.682037021964788E-3  -4.066636756761000E-5  
 2.704000000000000E10    2.119624150509480E-5   1.579413888975978E-3  
 2.706000000000000E10    1.479048747569323E-3  -1.509288995293900E-4  
 2.708000000000000E10   -4.373876145109534E-4  -1.341971452347934E-3  
 2.710000000000000E10   -1.164783723652363E-3   5.679877358488739E-4  
 2.712000000000000E10    2.707525563891977E-4   1.067828619852662E-3  
 2.714000000000000E10    9.997593006119132E-4  -4.495133471209556E-4  
 2.716000000000000E10   -6.389557966031134E-4  -9.488250361755490E-4  
 2.718000000000000E10   -5.636410205624998E-4   6.709558074362576E-4  
 2.720000000000000E10    6.121078040450811E-4   5.498314858414233E-4  
 2.722000000000000E10    3.461606975179166E-4  -6.891295779496431E-4  
 2.724000000000000E10   -5.718221073038876E-4  -3.580414049793035E-4  
 2.726000000000000E10   -3.824692394118756E-4   6.843684241175652E-4  
 2.728000000000000E10    8.693227428011596E-4   2.104186569340527E-5  
 2.730000000000000E10   -2.570970173110254E-5  -8.572813239879906E-4  
 2.732000000000000E10   -7.888771942816675E-4   1.041544092004187E-4  
 2.734000000000000E10    2.204919146606699E-4   1.083624549210072E-3  
 2.736000000000000E10    8.658171864226461E-4  -3.997857274953276E-4  
 2.738000000000000E10   -4.358642618171871E-4  -9.180126944556832E-4  
 2.740000000000000E10   -9.571927366778255E-4   3.910354571416974E-4  
 2.742000000000000E10    3.759267565328628E-4   9.640714852139354E-4  
 2.744000000000000E10    8.295682491734624E-4  -6.656108307652175E-4  
 2.746000000000000E10   -5.774182500317693E-4  -8.678249432705343E-4  
 2.748000000000000E10   -7.766028284095228E-4   8.659155573695898E-4  
 2.750000000000000E10    5.631027161143720E-4   6.969347014091909E-4  
 2.752000000000000E10    7.185575668700039E-4  -4.029856936540455E-4  
 2.754000000000000E10   -7.367300568148494E-4  -8.088149479590356E-4  
 2.756000000000000E10   -5.962869036011398E-4   9.371092892251909E-4  
