#  HZ   S   RI   R     50.00 
! Rohde & Schwarz ZVA40 4Ports - Version 3.90 - 1145.1110k42 SN: 100403
! Date: 2023-10-04 08:55:21
! Measurement: S12 
! 
 2.200000000000000E10    2.598030027002096E-3   6.747352017555386E-5  
 2.202000000000000E10   -1.361340546282008E-4  -2.179172122851014E-3  
 2.204000000000000E10   -2.450938103720546E-3   6.366692832671106E-4  
 2.206000000000000E10    5.479728570207954E-4   1.982301007956266E-3  
 2.208000000000000E10    2.093219663947821E-3  -7.881501223891974E-4  
 2.210000000000000E10   -1.026273937895894E-3  -1.751781557686627E-3  
 2.212000000000000E10   -1.620258437469602E-3   1.277016359381378E-3  
 2.214000000000000E10    1.276069669984281E-3   1.461928710341454E-3  
 2.216000000000000E10    1.352189807221293E-3  -1.654047053307295E-3  
 2.218000000000000E10   -1.877359813079238E-3  -1.162825617939234E-3  
 2.220000000000000E10   -8.902141125872731E-4   1.956052845343947E-3  
 2.222000000000000E10    2.025484107434750E-3   8.356161997653544E-4  
 2.224000000000000E10    5.644218763336539E-4  -2.203307347372174E-3  
 2.226000000000000E10   -2.324982313439250E-3  -2.649260859470815E-4  
 2.228000000000000E10    1.079518260667101E-4   2.312249736860395E-3  
 2.230000000000000E10    2.563494490459561E-3  -3.535614232532680E-4  
 2.232000000000000E10   -3.972735139541328E-4  -2.220975933596492E-3  
 2.234000000000000E10   -2.532114041969180E-3   6.984004867263138E-4  
 2.236000000000000E10    1.136696664616466E-3   2.342743566259742E-3  
 2.238000000000000E10    2.031338633969426E-3  -8.550531347282231E-4  
 2.240000000000000E10   -1.141368644312024E-3  -1.908681471832097E-3  
 2.242000000000000E10   -1.889255014248192E-3   1.607030630111694E-3  
 2.244000000000000E10    1.529430039227009E-3   1.672291080467403E-3  
 2.246000000000000E10    1.408271142281592E-3  -1.583398319780827E-3  
 2.248000000000000E10   -1.643998897634447E-3  -1.365495845675468E-3  
 2.250000000000000E10   -9.132145787589252E-4   2.060897415503860E-3  
 2.252000000000000E10    1.682016300037503E-3   4.932342562824488E-4  
 2.254000000000000E10    6.588014657609165E-4  -1.720447209663689E-3  
 2.256000000000000E10   -1.587377395480871E-3  -4.915124154649675E-4  
 2.258000000000000E10   -5.338279297575355E-4   1.713181496597827E-3  
 2.260000000000000E10    1.696333289146423E-3   2.309694100404158E-4  
 2.262000000000000E10   -2.536364481784403E-4  -1.637428067624569E-3  
 2.264000000000000E10   -1.678162137977779E-3   1.749803195707500E-4  
 2.266000000000000E10    6.767983431927860E-4   1.746644731611013E-3  
 2.268000000000000E10    1.521173631772399E-3  -7.336140261031687E-4  
 2.270000000000000E10   -1.000281190499663E-3  -1.287532271817327E-3  
 2.272000000000000E10   -1.264531863853335E-3   1.300162402912974E-3  
 2.274000000000000E10    1.429740223102272E-3   1.250903354957700E-3  
 2.276000000000000E10    9.010148933157325E-4  -1.695414190180600E-3  
 2.278000000000000E10   -2.088372595608234E-3  -7.891304558143020E-4  
 2.280000000000000E10   -4.053232842124999E-4   2.159188501536846E-3  
 2.282000000000000E10    1.555095077492297E-3   1.452665543183684E-3  
 2.284000000000000E10    2.539147681090981E-5  -2.344222040846944E-3  
 2.286000000000000E10   -2.427649684250355E-3   8.035299833863974E-5  
 2.288000000000000E10    1.864033547462896E-4   2.262474270537496E-3  
 2.290000000000000E10    2.102229045704007E-3  -4.649464099202305E-4  
 2.292000000000000E10   -4.632512864191085E-4  -2.068775240331888E-3  
 2.294000000000000E10   -1.856014016084373E-3   8.951777708716691E-4  
 2.296000000000000E10    8.565098978579044E-4   1.820853562094271E-3  
 2.298000000000000E10    1.620254479348660E-3  -1.160842482931912E-3  
 2.300000000000000E10   -1.266007660888135E-3  -1.613484346307814E-3  
 2.302000000000000E10   -1.353335217572749E-3   1.376182073727250E-3  
 2.304000000000000E10    1.489159534685314E-3   1.162595697678626E-3  
 2.306000000000000E10    6.809099577367306E-4  -1.430166419595480E-3  
 2.308000000000000E10   -1.416682382114232E-3  -8.462442783638835E-4  
 2.310000000000000E10   -2.371039881836623E-4   1.554627902805805E-3  
 2.312000000000000E10    1.621651346795261E-3   1.727262715576217E-4  
 2.314000000000000E10   -1.574770431034267E-4  -1.550476416014135E-3  
 2.316000000000000E10   -1.402089372277260E-3   3.706328570842743E-4  
 2.318000000000000E10    5.259467870928347E-4   1.475937431678176E-3  
 2.320000000000000E10    1.353486208245158E-3  -7.381361210718751E-4  
 2.322000000000000E10   -1.036987756378949E-3  -1.088130753487349E-3  
 2.324000000000000E10   -1.137862214818597E-3   1.129935611970723E-3  
 2.326000000000000E10    1.052063424140215E-3   3.897621063515544E-4  
 2.328000000000000E10    7.394567364826798E-4  -1.244175131432712E-3  
 2.330000000000000E10   -1.624499447643757E-3  -3.145239606965333E-4  
 2.332000000000000E10   -1.963906543096528E-4   1.500209793448448E-3  
 2.334000000000000E10    1.351583749055862E-3  -4.027417890029028E-5  
 2.336000000000000E10   -2.716640592552722E-4  -1.622412703000009E-3  
 2.338000000000000E10   -9.891152149066329E-4   2.464028657414019E-4  
 2.340000000000000E10    6.305548013187945E-4   9.547226945869625E-4  
 2.342000000000000E10    8.562781149521470E-4  -3.425476315896958E-4  
 2.344000000000000E10   -5.452336627058685E-4  -6.305627175606787E-4  
 2.346000000000000E10   -2.527946780901402E-4   4.829592653550208E-4  
 2.348000000000000E10    6.390958442352712E-4   1.877276663435623E-4  
 2.350000000000000E10   -1.285852049477398E-4  -5.601997836492956E-4  
 2.352000000000000E10   -3.129038959741592E-4   3.880040312651545E-4  
 2.354000000000000E10    4.904567613266408E-4  -3.006002225447446E-4  
 2.356000000000000E10   -5.825681364513002E-5  -3.063211042899638E-4  
 2.358000000000000E10   -8.448458174825646E-6   7.016608142293990E-4  
 2.360000000000000E10    6.193847511895001E-4   4.441693308763206E-4  
 2.362000000000000E10    4.836499647353776E-5  -9.234149474650621E-4  
 2.364000000000000E10   -8.842452079989016E-4   3.419616259634495E-4  
 2.366000000000000E10    3.761889238376170E-4   1.180920749902725E-3  
 2.368000000000000E10    8.838152862153947E-4  -5.528300534933806E-4  
 2.370000000000000E10   -8.202582248486579E-4  -8.591031655669212E-4  
 2.372000000000000E10   -8.736801682971418E-4   1.304904697462916E-3  
 2.374000000000000E10    1.334071857854724E-3   1.010767300613225E-3  
 2.376000000000000E10    4.346570349298418E-4  -1.775740995071828E-3  
 2.378000000000000E10   -1.968098571524024E-3   2.874846722988877E-5  
 2.380000000000000E10    4.366477951407433E-4   1.843860372900963E-3  
 2.382000000000000E10    2.068940782919526E-3  -5.008365260437131E-4  
 2.384000000000000E10   -1.110238721594214E-3  -2.014775294810534E-3  
 2.386000000000000E10   -1.961912028491497E-3   1.547671039588749E-3  
 2.388000000000000E10    1.938334084115923E-3   1.829782500863075E-3  
 2.390000000000000E10    1.063999952748418E-3  -2.450210275128484E-3  
 2.392000000000000E10   -2.663197927176952E-3  -1.261594938114286E-3  
 2.394000000000000E10   -7.219725521281362E-4   2.671087393537164E-3  
 2.396000000000000E10    2.707414794713259E-3   3.298973897472024E-4  
 2.398000000000000E10   -2.555354440119118E-4  -2.890191972255707E-3  
 2.400000000000000E10   -2.892437623813748E-3   6.794740329496563E-4  
 2.402000000000000E10    1.336582587100565E-3   2.527845790609717E-3  
 2.404000000000000E10    2.134379930794239E-3  -1.662681112065911E-3  
 2.406000000000000E10   -2.093427581712604E-3  -1.981158507987857E-3  
 2.408000000000000E10   -1.770563190802932E-3   2.616837853565812E-3  
 2.410000000000000E10    2.702813828364015E-3   1.035006018355489E-3  
 2.412000000000000E10    7.607119041495025E-4  -2.849908079952002E-3  
 2.414000000000000E10   -2.869671210646629E-3  -3.972507838625461E-4  
 2.416000000000000E10    1.357289002044126E-4   2.945902757346630E-3  
 2.418000000000000E10    2.636014949530363E-3  -8.159923600032926E-4  
 2.420000000000000E10   -9.480795706622303E-4  -2.778268652036786E-3  
 2.422000000000000E10   -2.738122595474124E-3   1.252924441359937E-3  
 2.424000000000000E10    1.961298286914825E-3   2.528590615838766E-3  
 2.426000000000000E10    1.997400773689151E-3  -2.124245045706630E-3  
 2.428000000000000E10   -2.210202859714627E-3  -2.260816749185324E-3  
 2.430000000000000E10   -1.864736899733543E-3   2.580349566414952E-3  
 2.432000000000000E10    2.721484750509262E-3   1.397979562170804E-3  
 2.434000000000000E10    1.422591623850167E-3  -2.991772955283523E-3  
 2.436000000000000E10   -3.501661121845245E-3  -8.754564914852381E-4  
 2.438000000000000E10   -5.602821474894881E-4   3.253574483096600E-3  
 2.440000000000000E10    3.319846233353019E-3   2.252231934107840E-4  
 2.442000000000000E10   -3.366705786902458E-4  -3.569049295037985E-3  
 2.444000000000000E10   -3.281938843429089E-3   7.216398371383548E-4  
 2.446000000000000E10    8.938650134950876E-4   2.731415908783674E-3  
 2.448000000000000E10    2.943471074104309E-3  -1.244449755176902E-3  
 2.450000000000000E10   -1.147996401414275E-3  -2.829920034855604E-3  
 2.452000000000000E10   -2.457901136949658E-3   1.646787743084133E-3  
 2.454000000000000E10    1.865954953245819E-3   2.483370946720243E-3  
 2.456000000000000E10    1.984373899176717E-3  -2.126706764101982E-3  
 2.458000000000000E10   -2.137121278792620E-3  -1.764994929544628E-3  
 2.460000000000000E10   -1.626922050490975E-3   2.213175874203444E-3  
 2.462000000000000E10    2.249402925372124E-3   1.106641371734440E-3  
 2.464000000000000E10    7.855645380914211E-4  -2.557253232225776E-3  
 2.466000000000000E10   -2.198237692937255E-3  -3.135977603960782E-4  
 2.468000000000000E10   -1.517383789177984E-4   2.318101236596704E-3  
 2.470000000000000E10    2.368799410760403E-3  -4.752343520522118E-4  
 2.472000000000000E10   -7.063774392008781E-4  -2.201849594712257E-3  
 2.474000000000000E10   -2.101420192047954E-3   1.070633647032082E-3  
 2.476000000000000E10    1.030990970321000E-3   1.634852029383183E-3  
 2.478000000000000E10    1.676987158134580E-3  -1.563478144817054E-3  
 2.480000000000000E10   -1.718529383651912E-3  -1.580476528033614E-3  
 2.482000000000000E10   -1.204528729431331E-3   1.463852473534644E-3  
 2.484000000000000E10    2.042999491095543E-3   1.135711325332522E-3  
 2.486000000000000E10    7.528454298153520E-4  -2.237582113593817E-3  
 2.488000000000000E10   -2.388168592005968E-3  -5.600107833743095E-4  
 2.490000000000000E10   -3.711001190822572E-4   2.294760430231690E-3  
 2.492000000000000E10    2.516056876629591E-3   4.924820314045064E-5  
 2.494000000000000E10   -2.325487002963200E-4  -2.485021715983748E-3  
 2.496000000000000E10   -2.788498997688294E-3   5.039214156568050E-4  
 2.498000000000000E10    9.718046057969332E-4   2.451441483572125E-3  
 2.500000000000000E10    2.537334803491831E-3  -1.192602678202093E-3  
 2.502000000000000E10   -1.441913773305714E-3  -2.490936079993844E-3  
 2.504000000000000E10   -2.146289916709065E-3   1.867184648290277E-3  
 2.506000000000000E10    1.742201740853488E-3   2.082824707031250E-3  
 2.508000000000000E10    1.947676646523178E-3  -2.329928334802389E-3  
 2.510000000000000E10   -2.430541673675180E-3  -1.763549284078181E-3  
 2.512000000000000E10   -1.467962050810456E-3   2.535734791308641E-3  
 2.514000000000000E10    2.425966085866094E-3   1.083139679394662E-3  
 2.516000000000000E10    9.937584400177002E-4  -2.680403646081686E-3  
 2.518000000000000E10   -2.834667218849063E-3  -6.853484082967043E-4  
 2.520000000000000E10   -4.330617084633559E-4   2.814538544043899E-3  
 2.522000000000000E10    2.828505123034120E-3  -6.061707972548902E-5  
 2.524000000000000E10   -2.224451600341126E-4  -2.878137165680528E-3  
 2.526000000000000E10   -2.732808468863368E-3   5.753601435571909E-4  
 2.528000000000000E10    7.294228998944163E-4   2.603682456538081E-3  
 2.530000000000000E10    2.395732095465064E-3  -1.212259172461927E-3  
 2.532000000000000E10   -1.315045985393226E-3  -1.927761244587600E-3  
 2.534000000000000E10   -1.703108428046107E-3   1.549905864521861E-3  
 2.536000000000000E10    1.928019337356091E-3   1.757409190759063E-3  
 2.538000000000000E10    1.136841019615531E-3  -2.066452754661441E-3  
 2.540000000000000E10   -2.094358205795288E-3  -8.752461289986968E-4  
 2.542000000000000E10   -7.736600236967206E-4   1.971779856830835E-3  
 2.544000000000000E10    2.433151006698608E-3   3.600602503865957E-4  
 2.546000000000000E10   -1.141680622822605E-4  -2.288065385073423E-3  
 2.548000000000000E10   -2.357556717470288E-3   4.933621967211366E-4  
 2.550000000000000E10    7.414605352096260E-4   2.212841762229800E-3  
 2.552000000000000E10    2.005397574976087E-3  -1.009745523333550E-3  
 2.554000000000000E10   -1.303581404499710E-3  -1.986942254006863E-3  
 2.556000000000000E10   -2.010396216064692E-3   1.798979588784277E-3  
 2.558000000000000E10    1.976491883397102E-3   1.661069109104574E-3  
 2.560000000000000E10    1.341090188361704E-3  -2.421636367216706E-3  
 2.562000000000000E10   -2.418351126834750E-3  -1.315515255555511E-3  
 2.564000000000000E10   -1.180909923277795E-3   2.690325956791639E-3  
 2.566000000000000E10    2.976963995024562E-3   7.549845031462610E-4  
 2.568000000000000E10    4.250443598721176E-4  -3.118194872513413E-3  
 2.570000000000000E10   -3.186039626598358E-3   8.636097481939942E-5  
 2.572000000000000E10    5.365102551877499E-4   2.996910829097033E-3  
 2.574000000000000E10    3.208485431969166E-3  -6.446921033784747E-4  
 2.576000000000000E10   -1.255738083273172E-3  -3.135172883048654E-3  
 2.578000000000000E10   -2.954672556370497E-3   1.479028374888003E-3  
 2.580000000000000E10    2.052505500614643E-3   2.694098977372050E-3  
 2.582000000000000E10    2.520669717341662E-3  -2.260457025840879E-3  
 2.584000000000000E10   -2.742062322795391E-3  -1.932933111675084E-3  
 2.586000000000000E10   -1.726278220303357E-3   2.803527517244220E-3  
 2.588000000000000E10    2.832242287695408E-3   1.293370965868235E-3  
 2.590000000000000E10    8.032143232412636E-4  -2.855237806215882E-3  
 2.592000000000000E10   -2.897932659834623E-3  -4.375849384814501E-4  
 2.594000000000000E10   -1.745044573908672E-4   2.887965412810445E-3  
 2.596000000000000E10    2.859841333702207E-3  -3.423482994548976E-4  
 2.598000000000000E10   -5.608922801911831E-4  -2.605010988190770E-3  
 2.600000000000000E10   -2.885262714698911E-3   1.085136551409960E-3  
 2.602000000000000E10    1.552300993353128E-3   2.421651966869831E-3  
 2.604000000000000E10    2.163557102903724E-3  -2.160436008125544E-3  
 2.606000000000000E10   -1.977492589503527E-3  -1.430554431863129E-3  
 2.608000000000000E10   -1.490138354711235E-3   2.225738717243075E-3  
 2.610000000000000E10    2.355991164222360E-3   1.235336065292358E-3  
 2.612000000000000E10    1.227187807671726E-3  -2.426856895908713E-3  
 2.614000000000000E10   -2.515393774956465E-3  -6.706796120852232E-4  
 2.616000000000000E10   -3.771051997318864E-4   2.668142085894942E-3  
 2.618000000000000E10    2.500701928511262E-3  -1.193816642626189E-4  
 2.620000000000000E10   -2.325616660527885E-4  -2.820916008204222E-3  
 2.622000000000000E10   -2.889408729970455E-3   6.473298999480903E-4  
 2.624000000000000E10    1.086812699213624E-3   2.769487677142024E-3  
 2.626000000000000E10    2.525061834603548E-3  -1.275162678211927E-3  
 2.628000000000000E10   -1.359018497169018E-3  -2.332287374883890E-3  
 2.630000000000000E10   -2.287145005539060E-3   2.065931446850300E-3  
 2.632000000000000E10    2.477097325026989E-3   1.904110424220562E-3  
 2.634000000000000E10    1.721198903396726E-3  -2.420695032924414E-3  
 2.636000000000000E10   -2.752479398623109E-3  -1.586660044267774E-3  
 2.638000000000000E10   -1.004095422104001E-3   2.834952902048826E-3  
 2.640000000000000E10    2.646541921421886E-3   6.242722156457603E-4  
 2.642000000000000E10    5.407914868555963E-4  -3.067123005166650E-3  
 2.644000000000000E10   -2.865216927602887E-3  -2.853355254046619E-4  
 2.646000000000000E10   -1.133017649408430E-4   3.060718299821019E-3  
 2.648000000000000E10    3.442285116761923E-3  -3.601780626922846E-4  
 2.650000000000000E10   -7.862760103307664E-4  -3.002064302563667E-3  
 2.652000000000000E10   -3.109902609139681E-3   1.375238760374486E-3  
 2.654000000000000E10    1.766655477695167E-3   2.496498869732022E-3  
 2.656000000000000E10    2.385625848546624E-3  -2.018458675593138E-3  
 2.658000000000000E10   -2.474000677466393E-3  -1.929024583660066E-3  
 2.660000000000000E10   -1.156112179160118E-3   2.606175374239683E-3  
 2.662000000000000E10    2.581491135060787E-3   8.777352632023394E-4  
 2.664000000000000E10    4.152015026193112E-4  -2.680138917639852E-3  
 2.666000000000000E10   -2.409386914223433E-3  -1.790791575331241E-4  
 2.668000000000000E10    4.030669224448502E-4   2.488084370270371E-3  
 2.670000000000000E10    2.139500807970762E-3  -9.221610962413251E-4  
 2.672000000000000E10   -1.042279182001948E-3  -2.091620350256562E-3  
 2.674000000000000E10   -2.105153631418943E-3   1.225048559717834E-3  
 2.676000000000000E10    1.380764180794358E-3   1.711474033072591E-3  
 2.678000000000000E10    1.309158164076507E-3  -1.610959647223353E-3  
 2.680000000000000E10   -1.557762618176639E-3  -1.124795875512064E-3  
 2.682000000000000E10   -8.259909227490425E-4   1.793887116946280E-3  
 2.684000000000000E10    1.945502357557416E-3   5.925253499299288E-4  
 2.686000000000000E10    3.830140631180257E-4  -2.167606027796865E-3  
 2.688000000000000E10   -1.948449295014143E-3  -1.653504004934803E-4  
 2.690000000000000E10    1.140158292400884E-5   2.010630676522851E-3  
 2.692000000000000E10    1.839990029111505E-3  -4.729506326839328E-4  
 2.694000000000000E10   -3.599702322389931E-4  -1.991053344681859E-3  
 2.696000000000000E10   -1.583061646670103E-3   6.349651957862079E-4  
 2.698000000000000E10    8.080490515567362E-4   1.636287430301309E-3  
 2.700000000000000E10    1.502739381976426E-3  -1.172403339296579E-3  
 2.702000000000000E10   -8.824072428978980E-4  -1.488605514168739E-3  
 2.704000000000000E10   -1.315055415034294E-3   1.215480035170913E-3  
 2.706000000000000E10    1.269746804609895E-3   1.177306054159999E-3  
 2.708000000000000E10    9.729863959364593E-4  -1.363128423690796E-3  
 2.710000000000000E10   -1.462991815060377E-3  -1.087930751964450E-3  
 2.712000000000000E10   -9.564734064042568E-4   1.659068395383656E-3  
 2.714000000000000E10    1.535275485366583E-3   5.341108189895749E-4  
 2.716000000000000E10    2.968128828797489E-4  -1.539941527880728E-3  
 2.718000000000000E10   -1.475006807595491E-3  -2.042849228018895E-4  
 2.720000000000000E10    8.544043521396816E-5   1.480949576944113E-3  
 2.722000000000000E10    1.601581694558263E-3  -2.664096246007830E-4  
 2.724000000000000E10   -2.711967972572893E-4  -1.402657246217132E-3  
 2.726000000000000E10   -1.519888639450073E-3   3.277198120485991E-4  
 2.728000000000000E10    7.601045654155314E-4   1.312049222178757E-3  
 2.730000000000000E10    1.207928289659321E-3  -6.673900061286986E-4  
 2.732000000000000E10   -7.950411527417600E-4  -1.071955310180783E-3  
 2.734000000000000E10   -1.024354132823646E-3   1.250573899596930E-3  
 2.736000000000000E10    1.106305397115648E-3   7.667611935175955E-4  
 2.738000000000000E10    6.654704338870943E-4  -1.404992188327014E-3  
 2.740000000000000E10   -1.287160906940699E-3  -6.990014226175845E-4  
 2.742000000000000E10   -3.689123550429940E-4   1.354315318167210E-3  
 2.744000000000000E10    1.275511109270155E-3   2.450499741826206E-4  
 2.746000000000000E10   -5.102978320792317E-5  -1.185822300612927E-3  
 2.748000000000000E10   -1.309351879172027E-3   5.817030341859208E-6  
 2.750000000000000E10    1.377392327412963E-4   1.207085209898651E-3  
 2.752000000000000E10    1.049394137226045E-3  -3.113469283562154E-4  
 2.754000000000000E10   -2.431380271445960E-4  -1.001719967462122E-3  
 2.756000000000000E10   -1.049895072355866E-3   2.615497796796262E-4  
