#  HZ   S   RI   R     50.00 
! Rohde & Schwarz ZVA40 4Ports - Version 3.90 - 1145.1110k42 SN: 100403
! Date: 2023-09-28 11:48:57
! Measurement: S22 
! 
 2.000000000000000E10   -2.269065611515088E-1   3.969910102641540E-1  
 2.000200000000000E10   -1.492215853818100E-1   4.319150929972048E-1  
 2.000400000000000E10   -6.621690095759633E-2   4.517084893814909E-1  
 2.000600000000000E10    2.022516841508842E-2   4.563570972517406E-1  
 2.000800000000000E10    1.042004842871694E-1   4.454674062281583E-1  
 2.001000000000000E10    1.853240686212984E-1   4.196795589301616E-1  
 2.001200000000000E10    2.578133676945533E-1   3.811568571017678E-1  
 2.001400000000000E10    3.241144986858285E-1   3.294651948661869E-1  
 2.001600000000000E10    3.785131016515799E-1   2.686625881213124E-1  
 2.001800000000000E10    4.208965269979023E-1   2.003224785414003E-1  
 2.002000000000000E10    4.510805218315049E-1   1.258848563159747E-1  
 2.002200000000000E10    4.669517029934698E-1   4.557967175884747E-2  
 2.002400000000000E10    4.702995993947708E-1  -3.285079371802804E-2  
 2.002600000000000E10    4.607234479875725E-1  -1.088172793998669E-1  
 2.002800000000000E10    4.381652192344703E-1  -1.851722015030981E-1  
 2.003000000000000E10    4.038133370443759E-1  -2.545026575151683E-1  
 2.003200000000000E10    3.582770276129940E-1  -3.176531123232894E-1  
 2.003400000000000E10    3.025726443170777E-1  -3.723529787939590E-1  
 2.003600000000000E10    2.372465350565782E-1  -4.180531339814947E-1  
 2.003800000000000E10    1.656607185902020E-1  -4.511338253094639E-1  
 2.004000000000000E10    8.884332406435871E-2  -4.718279384286466E-1  
 2.004200000000000E10    7.381411065523858E-3  -4.792553687456088E-1  
 2.004400000000000E10   -7.425634126891519E-2  -4.719886755122172E-1  
 2.004600000000000E10   -1.539576400237205E-1  -4.499733882329288E-1  
 2.004800000000000E10   -2.300368753397397E-1  -4.132059107687854E-1  
 2.005000000000000E10   -2.993806263146674E-1  -3.621695255148611E-1  
 2.005200000000000E10   -3.581667400686254E-1  -2.982620249079918E-1  
 2.005400000000000E10   -4.040971532423188E-1  -2.238578820364330E-1  
 2.005600000000000E10   -4.355959180230946E-1  -1.398737466274854E-1  
 2.005800000000000E10   -4.500422805434470E-1  -5.083893919611391E-2  
 2.006000000000000E10   -4.463743868737420E-1   3.947078897239403E-2  
 2.006200000000000E10   -4.243554337526549E-1   1.288568078094660E-1  
 2.006400000000000E10   -3.848782885414050E-1   2.112924888468735E-1  
 2.006600000000000E10   -3.284554640326302E-1   2.851899011396111E-1  
 2.006800000000000E10   -2.605429695228159E-1   3.441115225653437E-1  
 2.007000000000000E10   -1.808621174783166E-1   3.890148531392049E-1  
 2.007200000000000E10   -9.508895982433051E-2   4.163451917105629E-1  
 2.007400000000000E10   -5.989120657258493E-3   4.258797591709310E-1  
 2.007600000000000E10    8.235791087313178E-2   4.173519609335519E-1  
 2.007800000000000E10    1.656765334672711E-1   3.919639545013693E-1  
 2.008000000000000E10    2.426050341035776E-1   3.506765436019976E-1  
 2.008200000000000E10    3.079851124027236E-1   2.967050253207759E-1  
 2.008400000000000E10    3.620456008090091E-1   2.318068806872406E-1  
 2.008600000000000E10    4.023418211566672E-1   1.582761823905665E-1  
 2.008800000000000E10    4.278643035084840E-1   7.917240931240065E-2  
 2.009000000000000E10    4.378788765687375E-1  -2.346745288285712E-3  
 2.009200000000000E10    4.328057686639650E-1  -8.369880065251729E-2  
 2.009400000000000E10    4.127793444254246E-1  -1.632490344014087E-1  
 2.009600000000000E10    3.784604220900775E-1  -2.379191846246965E-1  
 2.009800000000000E10    3.314495304473202E-1  -3.038409262560959E-1  
 2.010000000000000E10    2.705279307896152E-1  -3.617997869389109E-1  
 2.010200000000000E10    2.000628933963604E-1  -4.066838499824294E-1  
 2.010400000000000E10    1.212734363048096E-1  -4.378130942175296E-1  
 2.010600000000000E10    3.743172533327854E-2  -4.532152152284955E-1  
 2.010800000000000E10   -4.971025193966085E-2  -4.520751736743431E-1  
 2.011000000000000E10   -1.361615847829049E-1  -4.332129190329407E-1  
 2.011200000000000E10   -2.168085533935444E-1  -3.971801127787188E-1  
 2.011400000000000E10   -2.906556411402843E-1  -3.439152743706667E-1  
 2.011600000000000E10   -3.520295133878505E-1  -2.761301347138898E-1  
 2.011800000000000E10   -3.980987226177922E-1  -1.967376175930115E-1  
 2.012000000000000E10   -4.265383515695305E-1  -1.088351494715057E-1  
 2.012200000000000E10   -4.359748389797719E-1  -1.623858975682756E-2  
 2.012400000000000E10   -4.253037981627346E-1   7.605231522872641E-2  
 2.012600000000000E10   -3.957255418348982E-1   1.631804786636073E-1  
 2.012800000000000E10   -3.488404649153085E-1   2.415187968890755E-1  
 2.013000000000000E10   -2.863297759930438E-1   3.087293011327740E-1  
 2.013200000000000E10   -2.138900820891824E-1   3.599245144046477E-1  
 2.013400000000000E10   -1.323901385250669E-1   3.955850976606691E-1  
 2.013600000000000E10   -4.728844575660915E-2   4.135676116627575E-1  
 2.013800000000000E10    3.860331269712156E-2   4.144998695231265E-1  
 2.014000000000000E10    1.216874374519245E-1   3.988467453286042E-1  
 2.014200000000000E10    1.982778716606000E-1   3.684706157624693E-1  
 2.014400000000000E10    2.679331200347768E-1   3.242690975724036E-1  
 2.014600000000000E10    3.268981529143578E-1   2.690574951060140E-1  
 2.014800000000000E10    3.741275477584371E-1   2.048215431060231E-1  
 2.015000000000000E10    4.088152111793466E-1   1.332852521939162E-1  
 2.015200000000000E10    4.298573577466149E-1   5.766947496877259E-2  
 2.015400000000000E10    4.371049547363409E-1  -2.072858066572021E-2  
 2.015600000000000E10    4.303777581671129E-1  -9.896603495059303E-2  
 2.015800000000000E10    4.098788049221493E-1  -1.737900669162453E-1  
 2.016000000000000E10    3.758343247881664E-1  -2.459532416064702E-1  
 2.016200000000000E10    3.298266204725541E-1  -3.097702413090149E-1  
 2.016400000000000E10    2.725460891469398E-1  -3.649873375941285E-1  
 2.016600000000000E10    2.059019557828766E-1  -4.091652089898770E-1  
 2.016800000000000E10    1.313241154846160E-1  -4.412602045501580E-1  
 2.017000000000000E10    5.135122661117014E-2  -4.591830401365917E-1  
 2.017200000000000E10   -3.052085387746481E-2  -4.621332632110212E-1  
 2.017400000000000E10   -1.128961754871599E-1  -4.497957435063538E-1  
 2.017600000000000E10   -1.929259150391264E-1  -4.220060763817057E-1  
 2.017800000000000E10   -2.653915502078252E-1  -3.800009962377255E-1  
 2.018000000000000E10   -3.296397018446075E-1  -3.244221935511826E-1  
 2.018200000000000E10   -3.828294218592355E-1  -2.572502537452405E-1  
 2.018400000000000E10   -4.222732121424344E-1  -1.813481835412434E-1  
 2.018600000000000E10   -4.467046842767624E-1  -9.967345122758264E-2  
 2.018800000000000E10   -4.555032072722342E-1  -1.567512933334951E-2  
 2.019000000000000E10   -4.486684737177563E-1   6.976419833174728E-2  
 2.019200000000000E10   -4.265671786861542E-1   1.504749939761827E-1  
 2.019400000000000E10   -3.908216895086512E-1   2.249660272486708E-1  
 2.019600000000000E10   -3.418744594845472E-1   2.920609420673980E-1  
 2.019800000000000E10   -2.825420248577578E-1   3.487653860804346E-1  
 2.020000000000000E10   -2.157571040248528E-1   3.929660512718457E-1  
 2.020200000000000E10   -1.426606877203086E-1   4.251128685725244E-1  
 2.020400000000000E10   -6.701477671105516E-2   4.438818411226964E-1  
 2.020600000000000E10    1.129559206290802E-2   4.498037051001089E-1  
 2.020800000000000E10    8.682588871301038E-2   4.428279158912626E-1  
 2.021000000000000E10    1.603304119053870E-1   4.238556242724141E-1  
 2.021200000000000E10    2.290821123169692E-1   3.931997265263382E-1  
 2.021400000000000E10    2.912112176794557E-1   3.527280526505104E-1  
 2.021600000000000E10    3.460590936192806E-1   3.029273697762120E-1  
 2.021800000000000E10    3.920548709580652E-1   2.454641634352728E-1  
 2.022000000000000E10    4.280068018382042E-1   1.823283863607506E-1  
 2.022200000000000E10    4.541228334999559E-1   1.132204257444851E-1  
 2.022400000000000E10    4.688005891410742E-1   4.166762760066161E-2  
 2.022600000000000E10    4.719986473854385E-1  -3.138115201145048E-2  
 2.022800000000000E10    4.638340522868690E-1  -1.047719692333904E-1  
 2.023000000000000E10    4.441185288226731E-1  -1.760012099881402E-1  
 2.023200000000000E10    4.128614539232471E-1  -2.442482390645830E-1  
 2.023400000000000E10    3.708075582700855E-1  -3.062821518627731E-1  
 2.023600000000000E10    3.186513984329666E-1  -3.615724465340724E-1  
 2.023800000000000E10    2.568682696608708E-1  -4.084138938061407E-1  
 2.024000000000000E10    1.878604912811786E-1  -4.442598866855780E-1  
 2.024200000000000E10    1.130637842209164E-1  -4.680049428253233E-1  
 2.024400000000000E10    3.364282521615012E-2  -4.795301301972629E-1  
 2.024600000000000E10   -4.652665793894079E-2  -4.766307397718438E-1  
 2.024800000000000E10   -1.268510660489275E-1  -4.595717348127354E-1  
 2.025000000000000E10   -2.027619225145299E-1  -4.281872089816751E-1  
 2.025200000000000E10   -2.726110648933598E-1  -3.833233549338193E-1  
 2.025400000000000E10   -3.339242571363033E-1  -3.257487020018482E-1  
 2.025600000000000E10   -3.839858401849242E-1  -2.577717415656425E-1  
 2.025800000000000E10   -4.204447126707175E-1  -1.818995754232779E-1  
 2.026000000000000E10   -4.425021971845028E-1  -1.000434680473266E-1  
 2.026200000000000E10   -4.489005692794144E-1  -1.632352985115627E-2  
 2.026400000000000E10   -4.396602954502940E-1   6.826888474641168E-2  
 2.026600000000000E10   -4.152348715713086E-1   1.480808681412206E-1  
 2.026800000000000E10   -3.770232028629259E-1   2.215726554862584E-1  
 2.027000000000000E10   -3.255641032084089E-1   2.873776812895671E-1  
 2.027200000000000E10   -2.638584275084877E-1   3.418393018768147E-1  
 2.027400000000000E10   -1.945096553907125E-1   3.835621688065889E-1  
 2.027600000000000E10   -1.185773612208016E-1   4.117728102540720E-1  
 2.027800000000000E10   -4.001785005661293E-2   4.257780682882464E-1  
 2.028000000000000E10    3.957892863866754E-2   4.254758621564080E-1  
 2.028200000000000E10    1.171737020203768E-1   4.111422941515919E-1  
 2.028400000000000E10    1.902821906379010E-1   3.836722973655820E-1  
 2.028600000000000E10    2.576746724006865E-1   3.433783607795818E-1  
 2.028800000000000E10    3.163443987171392E-1   2.921286153044163E-1  
 2.029000000000000E10    3.649967105192356E-1   2.311722214412027E-1  
 2.029200000000000E10    4.019033302413957E-1   1.618782044881238E-1  
 2.029400000000000E10    4.254647551932514E-1   8.754239379770820E-2  
 2.029600000000000E10    4.353030971342750E-1   9.170396824963237E-3  
 2.029800000000000E10    4.305404236475405E-1  -7.118247951639889E-2  
 2.030000000000000E10    4.104517254715049E-1  -1.483810011247533E-1  
 2.030200000000000E10    3.756917990376945E-1  -2.216437125719640E-1  
 2.030400000000000E10    3.265283093821673E-1  -2.878604317954192E-1  
 2.030600000000000E10    2.647981040032735E-1  -3.435043256152177E-1  
 2.030800000000000E10    1.922383831424699E-1  -3.862001240448862E-1  
 2.031000000000000E10    1.116253340957007E-1  -4.137421296697689E-1  
 2.031200000000000E10    2.627752113386885E-2  -4.240133801704135E-1  
 2.031400000000000E10   -6.073995762141895E-2  -4.162341052088196E-1  
 2.031600000000000E10   -1.417840023402509E-1  -3.904592774347392E-1  
 2.031800000000000E10   -2.191261799945674E-1  -3.475045583816102E-1  
 2.032000000000000E10   -2.854915623114418E-1  -2.886862554891220E-1  
 2.032200000000000E10   -3.374654278751435E-1  -2.173543381165539E-1  
 2.032400000000000E10   -3.730450160540222E-1  -1.360328340613784E-1  
 2.032600000000000E10   -3.903123932408445E-1  -4.913473810642614E-2  
 2.032800000000000E10   -3.886224605967393E-1   3.762644216188966E-2  
 2.033000000000000E10   -3.686173440159861E-1   1.225814483701463E-1  
 2.033200000000000E10   -3.315044263156799E-1   2.006341753588521E-1  
 2.033400000000000E10   -2.796707502606217E-1   2.685878222593091E-1  
 2.033600000000000E10   -2.166795827041391E-1   3.223811571216272E-1  
 2.033800000000000E10   -1.410189520658369E-1   3.650707473212523E-1  
 2.034000000000000E10   -6.190398648154381E-2   3.896687709365171E-1  
 2.034200000000000E10    2.025136083750779E-2   3.981630679186459E-1  
 2.034400000000000E10    1.009510258559521E-1   3.902740427896466E-1  
 2.034600000000000E10    1.788696553677060E-1   3.670044532157934E-1  
 2.034800000000000E10    2.500938301932478E-1   3.292547192545354E-1  
 2.035000000000000E10    3.125950068278343E-1   2.788175449438470E-1  
 2.035200000000000E10    3.644902893427643E-1   2.169745064776244E-1  
 2.035400000000000E10    4.035858005209605E-1   1.465948112319972E-1  
 2.035600000000000E10    4.278635812478616E-1   7.109213313930624E-2  
 2.035800000000000E10    4.380117312135802E-1  -9.086838913799918E-3  
 2.036000000000000E10    4.325443714497405E-1  -8.938440964480532E-2  
 2.036200000000000E10    4.120246566534196E-1  -1.673725649450039E-1  
 2.036400000000000E10    3.766808494159041E-1  -2.406160375149754E-1  
 2.036600000000000E10    3.282131224821877E-1  -3.056665178592318E-1  
 2.036800000000000E10    2.681229953288550E-1  -3.603838746625075E-1  
 2.037000000000000E10    1.979810687641566E-1  -4.035005155854655E-1  
 2.037200000000000E10    1.214904412918815E-1  -4.320039178053847E-1  
 2.037400000000000E10    4.040279246057678E-2  -4.458004321740878E-1  
 2.037600000000000E10   -4.177867165305702E-2  -4.439343721778455E-1  
 2.037800000000000E10   -1.219861735444661E-1  -4.268492948755133E-1  
 2.038000000000000E10   -1.976184384045662E-1  -3.948895300678788E-1  
 2.038200000000000E10   -2.660245626038490E-1  -3.495471117468055E-1  
 2.038400000000000E10   -3.242238595518229E-1  -2.927847632776720E-1  
 2.038600000000000E10   -3.711658347389629E-1  -2.262483917489996E-1  
 2.038800000000000E10   -4.047469036344635E-1  -1.529438752527657E-1  
 2.039000000000000E10   -4.246540758492072E-1  -7.467530988092802E-2  
 2.039200000000000E10   -4.300083587112792E-1   5.709570814697678E-3  
 2.039400000000000E10   -4.211621122783782E-1   8.453414070655511E-2  
 2.039600000000000E10   -3.985473014682359E-1   1.602457376644690E-1  
 2.039800000000000E10   -3.629526486205720E-1   2.309795990545326E-1  
 2.040000000000000E10   -3.165871165386843E-1   2.929321323379633E-1  
 2.040200000000000E10   -2.599042211399886E-1   3.464119358182424E-1  
 2.040400000000000E10   -1.945440939425551E-1   3.893421716198285E-1  
 2.040600000000000E10   -1.243191491787100E-1   4.197126168929575E-1  
 2.040800000000000E10   -4.999165444809459E-2   4.376344209496563E-1  
 2.041000000000000E10    2.676492467621593E-2   4.428252155728104E-1  
 2.041200000000000E10    1.019793831554133E-1   4.348793214140751E-1  
 2.041400000000000E10    1.752940720555737E-1   4.142737387488416E-1  
 2.041600000000000E10    2.440674627626737E-1   3.814819842024336E-1  
 2.041800000000000E10    3.056846407683244E-1   3.378558945542851E-1  
 2.042000000000000E10    3.589653508142445E-1   2.845981995064079E-1  
 2.042200000000000E10    4.024096378988689E-1   2.231717596317319E-1  
 2.042400000000000E10    4.350635819099037E-1   1.552070535223329E-1  
 2.042600000000000E10    4.557037307765368E-1   8.245525169387828E-2  
 2.042800000000000E10    4.635961858510754E-1   7.708450747704440E-3  
 2.043000000000000E10    4.586957118790420E-1  -6.750524562963475E-2  
 2.043200000000000E10    4.410593597938226E-1  -1.412144704727507E-1  
 2.043400000000000E10    4.112598023673728E-1  -2.100316903835515E-1  
 2.043600000000000E10    3.702508026745252E-1  -2.735771285959168E-1  
 2.043800000000000E10    3.187724975566095E-1  -3.292478891156353E-1  
 2.044000000000000E10    2.589292599659214E-1  -3.749271884762309E-1  
 2.044200000000000E10    1.917396532550479E-1  -4.099727118998907E-1  
 2.044400000000000E10    1.191297477110730E-1  -4.332841382535398E-1  
 2.044600000000000E10    4.430405926143868E-2  -4.434606360091563E-1  
 2.044800000000000E10   -3.216563177075150E-2  -4.408945049458206E-1  
 2.045000000000000E10   -1.071768883742254E-1  -4.250996860153515E-1  
 2.045200000000000E10   -1.778567373928136E-1  -3.967130477774284E-1  
 2.045400000000000E10   -2.430901884042515E-1  -3.562078721478048E-1  
 2.045600000000000E10   -3.005614338550732E-1  -3.048121329555857E-1  
 2.045800000000000E10   -3.477859365859259E-1  -2.445291937643283E-1  
 2.046000000000000E10   -3.843437737800156E-1  -1.761408637023342E-1  
 2.046200000000000E10   -4.082424265082100E-1  -1.022732478284844E-1  
 2.046400000000000E10   -4.186730476289386E-1  -2.578782809231308E-2  
 2.046600000000000E10   -4.154563132620208E-1   5.206883379041190E-2  
 2.046800000000000E10   -3.981343758900007E-1   1.277305020686492E-1  
 2.047000000000000E10   -3.677845672112765E-1   1.989362595495714E-1  
 2.047200000000000E10   -3.248027161935148E-1   2.640261395760510E-1  
 2.047400000000000E10   -2.710047750146982E-1   3.202412797533799E-1  
 2.047600000000000E10   -2.083184073191292E-1   3.653925307472447E-1  
 2.047800000000000E10   -1.381805747278206E-1   3.987202233847075E-1  
 2.048000000000000E10   -6.375149118268603E-2   4.185133747404184E-1  
 2.048200000000000E10    1.267300280776082E-2   4.244450591702674E-1  
 2.048400000000000E10    8.879870468592949E-2   4.163709878336985E-1  
 2.048600000000000E10    1.620147803773231E-1   3.948801376507241E-1  
 2.048800000000000E10    2.296306687473873E-1   3.605723571591125E-1  
 2.049000000000000E10    2.897844300406794E-1   3.147617642911234E-1  
 2.049200000000000E10    3.401675467936420E-1   2.592057730608445E-1  
 2.049400000000000E10    3.795409568922290E-1   1.956402715950603E-1  
 2.049600000000000E10    4.065713875834244E-1   1.264370160131977E-1  
 2.049800000000000E10    4.205729501813121E-1   5.403597351360583E-2  
 2.050000000000000E10    4.217149779788755E-1  -2.041225354916591E-2  
 2.050200000000000E10    4.092442813038624E-1  -9.329611261667631E-2  
 2.050400000000000E10    3.839532312496001E-1  -1.624583021922543E-1  
 2.050600000000000E10    3.462203611585497E-1  -2.264761761001968E-1  
 2.050800000000000E10    2.975890372530076E-1  -2.821210286284998E-1  
 2.051000000000000E10    2.396637206583777E-1  -3.278580272355088E-1  
 2.051200000000000E10    1.734793213405830E-1  -3.628884258218078E-1  
 2.051400000000000E10    1.019028900537235E-1  -3.848346052312925E-1  
 2.051600000000000E10    2.716856860252539E-2  -3.932788036767433E-1  
 2.051800000000000E10   -4.897592282106059E-2  -3.875660281827868E-1  
 2.052000000000000E10   -1.226977433660438E-1  -3.671850892603540E-1  
 2.052200000000000E10   -1.915127796613225E-1  -3.329384878263814E-1  
 2.052400000000000E10   -2.532578852446417E-1  -2.852873644073074E-1  
 2.052600000000000E10   -3.046175668733016E-1  -2.262473065435155E-1  
 2.052800000000000E10   -3.434739331023150E-1  -1.578589337933012E-1  
 2.053000000000000E10   -3.683012079663058E-1  -8.206944244578965E-2  
 2.053200000000000E10   -3.773225777770725E-1  -3.320644867767773E-3  
 2.053400000000000E10   -3.703030660034680E-1   7.604800274214306E-2  
 2.053600000000000E10   -3.471439153269827E-1   1.527801262103480E-1  
 2.053800000000000E10   -3.091681215718229E-1   2.224044370780712E-1  
 2.054000000000000E10   -2.578415631748828E-1   2.831461473562397E-1  
 2.054200000000000E10   -1.952847246896404E-1   3.320704501744651E-1  
 2.054400000000000E10   -1.255097381063791E-1   3.667717680438908E-1  
 2.054600000000000E10   -5.011688321854074E-2   3.869721990442304E-1  
 2.054800000000000E10    2.724338696197273E-2   3.916084723258062E-1  
 2.055000000000000E10    1.023365283960870E-1   3.810319228305089E-1  
 2.055200000000000E10    1.740208988415872E-1   3.561246924881066E-1  
 2.055400000000000E10    2.390377006158432E-1   3.181975345025944E-1  
 2.055600000000000E10    2.940741219553913E-1   2.695746036109827E-1  
