#  HZ   S   RI   R     50.00 
! Rohde & Schwarz ZVA40 4Ports - Version 3.90 - 1145.1110k42 SN: 100403
! Date: 2023-09-28 11:38:35
! Measurement: S22 
! 
 2.000000000000000E10   -2.415216175163994E-1   3.895040614723586E-1  
 2.000200000000000E10   -1.647555533950466E-1   4.273852162573735E-1  
 2.000400000000000E10   -8.230299712608297E-2   4.500701240798086E-1  
 2.000600000000000E10    4.145305111172246E-3   4.577240723105372E-1  
 2.000800000000000E10    8.893551800005022E-2   4.497379719444749E-1  
 2.001000000000000E10    1.710486364445401E-1   4.266316910712220E-1  
 2.001200000000000E10    2.451134827851673E-1   3.903818428348658E-1  
 2.001400000000000E10    3.130689715116381E-1   3.410040634535955E-1  
 2.001600000000000E10    3.699995036661876E-1   2.814844151663692E-1  
 2.001800000000000E10    4.147437361548937E-1   2.145930551270596E-1  
 2.002000000000000E10    4.472686162932186E-1   1.411883987449702E-1  
 2.002200000000000E10    4.660114249593879E-1   6.108810555909686E-2  
 2.002400000000000E10    4.719335609635935E-1  -1.740670806471778E-2  
 2.002600000000000E10    4.648264205632323E-1  -9.406051751780351E-2  
 2.002800000000000E10    4.449410149724083E-1  -1.704490820295495E-1  
 2.003000000000000E10    4.128615357070528E-1  -2.415181510205149E-1  
 2.003200000000000E10    3.694604136730947E-1  -3.061712733503426E-1  
 2.003400000000000E10    3.158088618728358E-1  -3.626354939871940E-1  
 2.003600000000000E10    2.525270371393074E-1  -4.103229251911369E-1  
 2.003800000000000E10    1.819661596568157E-1  -4.463006430843210E-1  
 2.004000000000000E10    1.057980982444514E-1  -4.699424137561255E-1  
 2.004200000000000E10    2.573389305897851E-2  -4.801017210565006E-1  
 2.004400000000000E10   -5.615748292642329E-2  -4.762820549471057E-1  
 2.004600000000000E10   -1.368262189139789E-1  -4.575162141892413E-1  
 2.004800000000000E10   -2.142214281500118E-1  -4.241384457517136E-1  
 2.005000000000000E10   -2.845978387531800E-1  -3.766412152208052E-1  
 2.005200000000000E10   -3.467715242307589E-1  -3.152511435983689E-1  
 2.005400000000000E10   -3.961163623680482E-1  -2.428439072287212E-1  
 2.005600000000000E10   -4.311855950012304E-1  -1.611061269153634E-1  
 2.005800000000000E10   -4.497864557692365E-1  -7.354288142181112E-2  
 2.006000000000000E10   -4.508091724068818E-1   1.802303279415896E-2  
 2.006200000000000E10   -4.332846845443116E-1   1.079260275665874E-1  
 2.006400000000000E10   -3.982463984372752E-1   1.919120112893706E-1  
 2.006600000000000E10   -3.457189075532142E-1   2.688384418170710E-1  
 2.006800000000000E10   -2.801565594973867E-1   3.320739314194209E-1  
 2.007000000000000E10   -2.032545550695746E-1   3.808270985750061E-1  
 2.007200000000000E10   -1.193753205845433E-1   4.125814619387270E-1  
 2.007400000000000E10   -2.952212641883972E-2   4.272449622839388E-1  
 2.007600000000000E10    5.928179563914596E-2   4.233567586609803E-1  
 2.007800000000000E10    1.442438346548034E-1   4.023581511740866E-1  
 2.008000000000000E10    2.229717627228720E-1   3.652637349350236E-1  
 2.008200000000000E10    2.923458049327534E-1   3.142327440126138E-1  
 2.008400000000000E10    3.498042453044837E-1   2.521314965765223E-1  
 2.008600000000000E10    3.941408130208575E-1   1.807022090285069E-1  
 2.008800000000000E10    4.237146090816450E-1   1.031072471014588E-1  
 2.009000000000000E10    4.384511449067966E-1   2.138326808789596E-2  
 2.009200000000000E10    4.376256329467542E-1  -6.004395981767342E-2  
 2.009400000000000E10    4.219670263561651E-1  -1.407366545790371E-1  
 2.009600000000000E10    3.919146634840064E-1  -2.165294776301916E-1  
 2.009800000000000E10    3.482092592877706E-1  -2.861993784761895E-1  
 2.010000000000000E10    2.909968926970308E-1  -3.468679289676617E-1  
 2.010200000000000E10    2.235793959333561E-1  -3.954107482267019E-1  
 2.010400000000000E10    1.465403942507549E-1  -4.313607893991195E-1  
 2.010600000000000E10    6.366677836954904E-2  -4.517805430921264E-1  
 2.010800000000000E10   -2.321579157456701E-2  -4.558666387052487E-1  
 2.011000000000000E10   -1.095272320445014E-1  -4.424317087239513E-1  
 2.011200000000000E10   -1.935298768044217E-1  -4.113857419039372E-1  
 2.011400000000000E10   -2.702510729098865E-1  -3.629769969912237E-1  
 2.011600000000000E10   -3.355008984675917E-1  -2.996724519558204E-1  
 2.011800000000000E10   -3.867298561045264E-1  -2.232530330863684E-1  
 2.012000000000000E10   -4.214122423482649E-1  -1.364519435457304E-1  
 2.012200000000000E10   -4.366346650180992E-1  -4.491073950761763E-2  
 2.012400000000000E10   -4.321380406286465E-1   4.814356356249451E-2  
 2.012600000000000E10   -4.081554539665641E-1   1.375396292713237E-1  
 2.012800000000000E10   -3.655171753418910E-1   2.204292207405255E-1  
 2.013000000000000E10   -3.079678805752560E-1   2.905125672329443E-1  
 2.013200000000000E10   -2.376200244881944E-1   3.473607573005973E-1  
 2.013400000000000E10   -1.576473742046017E-1   3.882606664257885E-1  
 2.013600000000000E10   -7.297433464139091E-2   4.115661874742044E-1  
 2.013800000000000E10    1.350424960411803E-2   4.174617461484864E-1  
 2.014000000000000E10    9.766506482401853E-2   4.066064471325838E-1  
 2.014200000000000E10    1.774352006613202E-1   3.800726119568000E-1  
 2.014400000000000E10    2.496672869151201E-1   3.394952473074335E-1  
 2.014600000000000E10    3.119694493993658E-1   2.872255079219491E-1  
 2.014800000000000E10    3.630148834650790E-1   2.247729133976580E-1  
 2.015000000000000E10    4.015677270214956E-1   1.548686334905365E-1  
 2.015200000000000E10    4.267303075222932E-1   7.951875167940044E-2  
 2.015400000000000E10    4.380005517684673E-1   1.004228857805326E-3  
 2.015600000000000E10    4.349762262470778E-1  -7.665344291249307E-2  
 2.015800000000000E10    4.180924414454584E-1  -1.545867079065598E-1  
 2.016000000000000E10    3.876793413931419E-1  -2.274763971325051E-1  
 2.016200000000000E10    3.445610202961190E-1  -2.941368589185573E-1  
 2.016400000000000E10    2.900543192134335E-1  -3.517864700448139E-1  
 2.016600000000000E10    2.251056310332179E-1  -3.998810754020670E-1  
 2.016800000000000E10    1.519005216930542E-1  -4.354632448697043E-1  
 2.017000000000000E10    7.328598268058999E-2  -4.571232879498929E-1  
 2.017200000000000E10   -8.813258007687237E-3  -4.641135094805729E-1  
 2.017400000000000E10   -9.283613903187751E-2  -4.558224623694329E-1  
 2.017600000000000E10   -1.730358675978592E-1  -4.319058838837426E-1  
 2.017800000000000E10   -2.483437507171787E-1  -3.931358798814313E-1  
 2.018000000000000E10   -3.154499864198825E-1  -3.405273994984530E-1  
 2.018200000000000E10   -3.719624370375366E-1  -2.757157123819265E-1  
 2.018400000000000E10   -4.151695631927039E-1  -2.013745325784609E-1  
 2.018600000000000E10   -4.434680909704979E-1  -1.207937515643065E-1  
 2.018800000000000E10   -4.564077221281124E-1  -3.597365534233206E-2  
 2.019000000000000E10   -4.533483103525956E-1   4.938616253476835E-2  
 2.019200000000000E10   -4.348255244969189E-1   1.317318952421041E-1  
 2.019400000000000E10   -4.018253339933030E-1   2.090140218063232E-1  
 2.019600000000000E10   -3.558945145236057E-1   2.780097260503460E-1  
 2.019800000000000E10   -2.986089983194202E-1   3.375093032095399E-1  
 2.020000000000000E10   -2.323704104248513E-1   3.855659824943353E-1  
 2.020200000000000E10   -1.611457248772036E-1   4.202874827451336E-1  
 2.020400000000000E10   -8.492136781793178E-2   4.425179126026450E-1  
 2.020600000000000E10   -7.153503212760056E-3   4.514797387390851E-1  
 2.020800000000000E10    7.035395648249211E-2   4.474526549653228E-1  
 2.021000000000000E10    1.442972327644539E-1   4.311124429211060E-1  
 2.021200000000000E10    2.144562175343473E-1   4.031728076389046E-1  
 2.021400000000000E10    2.790547838971064E-1   3.642239242268334E-1  
 2.021600000000000E10    3.359779194450824E-1   3.162833386369224E-1  
 2.021800000000000E10    3.836987811612209E-1   2.609472372805303E-1  
 2.022000000000000E10    4.229837716479670E-1   1.976773523928033E-1  
 2.022200000000000E10    4.510896735189925E-1   1.302601584860450E-1  
 2.022400000000000E10    4.686155408458719E-1   5.863821343912607E-2  
 2.022600000000000E10    4.745423623535634E-1  -1.471635592322166E-2  
 2.022800000000000E10    4.691111641582015E-1  -8.833546957979743E-2  
 2.023000000000000E10    4.519562524885475E-1  -1.604628907048504E-1  
 2.023200000000000E10    4.233831563454804E-1  -2.297538656265109E-1  
 2.023400000000000E10    3.836012503131116E-1  -2.938878052443247E-1  
 2.023600000000000E10    3.334299102593208E-1  -3.514294273468742E-1  
 2.023800000000000E10    2.742523062658789E-1  -3.998431220937492E-1  
 2.024000000000000E10    2.060816638095240E-1  -4.392300066102293E-1  
 2.024200000000000E10    1.319903204723030E-1  -4.662984229554511E-1  
 2.024400000000000E10    5.394693636369820E-2  -4.807738915910258E-1  
 2.024600000000000E10   -2.697389515473025E-2  -4.816444739667308E-1  
 2.024800000000000E10   -1.077148928000257E-1  -4.682010450865516E-1  
 2.025000000000000E10   -1.854428801644238E-1  -4.403081553389178E-1  
 2.025200000000000E10   -2.576340829569706E-1  -3.985792120021010E-1  
 2.025400000000000E10   -3.211955903497749E-1  -3.443337430552078E-1  
 2.025600000000000E10   -3.747860810278944E-1  -2.785785962738702E-1  
 2.025800000000000E10   -4.154840022913368E-1  -2.040710142826827E-1  
 2.026000000000000E10   -4.416717033632785E-1  -1.234132373463212E-1  
 2.026200000000000E10   -4.524386480166089E-1  -3.925960065035894E-2  
 2.026400000000000E10   -4.476800781747615E-1   4.484105042512683E-2  
 2.026600000000000E10   -4.273637702539441E-1   1.273304312567658E-1  
 2.026800000000000E10   -3.924923622954010E-1   2.037960521828644E-1  
 2.027000000000000E10   -3.451896576813958E-1   2.716053573788841E-1  
 2.027200000000000E10   -2.861271210898472E-1   3.298913587382297E-1  
 2.027400000000000E10   -2.179398476950179E-1   3.762790620476214E-1  
 2.027600000000000E10   -1.438044850877538E-1   4.086267253534600E-1  
 2.027800000000000E10   -6.525313005444121E-2   4.272000691767690E-1  
 2.028000000000000E10    1.433475313816910E-2   4.315118397149964E-1  
 2.028200000000000E10    9.328021688824251E-2   4.217208006401052E-1  
 2.028400000000000E10    1.686142964358089E-1   3.982542798871311E-1  
 2.028600000000000E10    2.385971620733204E-1   3.620518623319484E-1  
 2.028800000000000E10    3.007787428986912E-1   3.140658553015007E-1  
 2.029000000000000E10    3.531424623223635E-1   2.561158910523220E-1  
 2.029200000000000E10    3.943625304391183E-1   1.894314622103320E-1  
 2.029400000000000E10    4.236058520667190E-1   1.153800007632403E-1  
 2.029600000000000E10    4.383690984736374E-1   3.801684419183386E-2  
 2.029800000000000E10    4.389417303787994E-1  -4.163570636716407E-2  
 2.030000000000000E10    4.245148929167661E-1  -1.211948985172326E-1  
 2.030200000000000E10    3.950401122605162E-1  -1.972924889741786E-1  
 2.030400000000000E10    3.510389630504820E-1  -2.666871384558450E-1  
 2.030600000000000E10    2.935935457972729E-1  -3.271652116775471E-1  
 2.030800000000000E10    2.246970052632759E-1  -3.754390183084414E-1  
 2.031000000000000E10    1.460172406938501E-1  -4.098145592217238E-1  
 2.031200000000000E10    6.148343088164957E-2  -4.272233991208361E-1  
 2.031400000000000E10   -2.593394294454725E-2  -4.269175865647814E-1  
 2.031600000000000E10   -1.096548034378979E-1  -4.080469643947589E-1  
 2.031800000000000E10   -1.907009256961797E-1  -3.720422918095848E-1  
 2.032000000000000E10   -2.627182057619081E-1  -3.190369223033827E-1  
 2.032200000000000E10   -3.219373862933393E-1  -2.515230449138594E-1  
 2.032400000000000E10   -3.647686282141091E-1  -1.735893793359507E-1  
 2.032600000000000E10   -3.901959734782954E-1  -8.782093638521130E-2  
 2.032800000000000E10   -3.965389545732733E-1   4.510149507729710E-4  
 2.033000000000000E10   -3.842206460422097E-1   8.776308446867411E-2  
 2.033200000000000E10   -3.538851689667397E-1   1.700645500843318E-1  
 2.033400000000000E10   -3.077361243206706E-1   2.433487490997129E-1  
 2.033600000000000E10   -2.491072616164048E-1   3.032090635149344E-1  
 2.033800000000000E10   -1.760251450264683E-1   3.534597251547763E-1  
 2.034000000000000E10   -9.820963113101622E-2   3.853280130515612E-1  
 2.034200000000000E10   -1.605604939586468E-2   4.010108308381396E-1  
 2.034400000000000E10    6.635665137640850E-2   4.000354690315546E-1  
 2.034600000000000E10    1.468945706050359E-1   3.832190396233667E-1  
 2.034800000000000E10    2.223656729727106E-1   3.510018966188490E-1  
 2.035000000000000E10    2.898069962257145E-1   3.051488259658634E-1  
 2.035200000000000E10    3.469680818388971E-1   2.473235697613512E-1  
 2.035400000000000E10    3.924427615033563E-1   1.792296747863666E-1  
 2.035600000000000E10    4.230341359868772E-1   1.049800175266493E-1  
 2.035800000000000E10    4.395907627126733E-1   2.535053297497097E-2  
 2.036000000000000E10    4.406688498759898E-1  -5.666000621596221E-2  
 2.036200000000000E10    4.260781249223601E-1  -1.367122509361590E-1  
 2.036400000000000E10    3.962779422571232E-1  -2.129751848371758E-1  
 2.036600000000000E10    3.523571724651346E-1  -2.827375299819818E-1  
 2.036800000000000E10    2.960463561286885E-1  -3.425111762783659E-1  
 2.037000000000000E10    2.287400524042160E-1  -3.911066060903065E-1  
 2.037200000000000E10    1.535019225881161E-1  -4.259242893151262E-1  
 2.037400000000000E10    7.296705798948625E-2  -4.458269984909322E-1  
 2.037600000000000E10   -1.020134520973562E-2  -4.500842245378722E-1  
 2.037800000000000E10   -9.235306164966353E-2  -4.386519074354428E-1  
 2.038000000000000E10   -1.710402946177650E-1  -4.119944125863127E-1  
 2.038200000000000E10   -2.433410271802685E-1  -3.710212427307036E-1  
 2.038400000000000E10   -3.062714922013563E-1  -3.177765114050177E-1  
 2.038600000000000E10   -3.582490786768990E-1  -2.539569231955114E-1  
 2.038800000000000E10   -3.974361259913862E-1  -1.818636857848846E-1  
 2.039000000000000E10   -4.226594692332391E-1  -1.044470645506588E-1  
 2.039200000000000E10   -4.335782242805441E-1  -2.345778398436723E-2  
 2.039400000000000E10   -4.297446872254169E-1   5.687858579006597E-2  
 2.039600000000000E10   -4.118744827289758E-1   1.350300141924375E-1  
 2.039800000000000E10   -3.805184689804847E-1   2.086933645497969E-1  
 2.040000000000000E10   -3.374089962529648E-1   2.746777728594838E-1  
 2.040200000000000E10   -2.837433031541358E-1   3.318029261732204E-1  
 2.040400000000000E10   -2.203058493960476E-1   3.795402795390259E-1  
 2.040600000000000E10   -1.509829247329981E-1   4.146364754983983E-1  
 2.040800000000000E10   -7.686499992446974E-2   4.374111121327264E-1  
 2.041000000000000E10    1.976158321180554E-4   4.471407315756705E-1  
 2.041200000000000E10    7.703985286494156E-2   4.438051736150391E-1  
 2.041400000000000E10    1.518250722705578E-1   4.273134158887983E-1  
 2.041600000000000E10    2.234058939002308E-1   3.984240479851704E-1  
 2.041800000000000E10    2.884294678488756E-1   3.579373889896786E-1  
 2.042000000000000E10    3.456201818273896E-1   3.072250903690333E-1  
 2.042200000000000E10    3.930035902252904E-1   2.478216871887969E-1  
 2.042400000000000E10    4.299303781542055E-1   1.812614296514183E-1  
 2.042600000000000E10    4.550470414553196E-1   1.091563434459615E-1  
 2.042800000000000E10    4.675200717872671E-1   3.415623001450172E-2  
 2.043000000000000E10    4.671904037822796E-1  -4.224803549056605E-2  
 2.043200000000000E10    4.537598808553996E-1  -1.176626559616254E-1  
 2.043400000000000E10    4.278907791244259E-1  -1.891285418232901E-1  
 2.043600000000000E10    3.903255882439462E-1  -2.553655569231115E-1  
 2.043800000000000E10    3.419350583180352E-1  -3.145867949037303E-1  
 2.044000000000000E10    2.844399103016814E-1  -3.642683968887041E-1  
 2.044200000000000E10    2.186229229930209E-1  -4.041588950885965E-1  
 2.044400000000000E10    1.470189621439986E-1  -4.319181030081197E-1  
 2.044600000000000E10    7.196787831875526E-2  -4.470517547351249E-1  
 2.044800000000000E10   -5.225219729021005E-3  -4.492109746797032E-1  
 2.045000000000000E10   -8.164338325924361E-2  -4.381384404218274E-1  
 2.045200000000000E10   -1.545997380771703E-1  -4.141187278708822E-1  
 2.045400000000000E10   -2.234846726366238E-1  -3.775903907103370E-1  
 2.045600000000000E10   -2.846770869924463E-1  -3.296169274498374E-1  
 2.045800000000000E10   -3.365353166110029E-1  -2.718873144934693E-1  
 2.046000000000000E10   -3.780864185611591E-1  -2.053398572395673E-1  
 2.046200000000000E10   -4.072410399691543E-1  -1.326615139358840E-1  
 2.046400000000000E10   -4.231174406069019E-1  -5.623419130304025E-2  
 2.046600000000000E10   -4.254029272700322E-1   2.257954766439690E-2  
 2.046800000000000E10   -4.134978130474623E-1   1.004708736625943E-1  
 2.047000000000000E10   -3.879165037612202E-1   1.747203535536095E-1  
 2.047200000000000E10   -3.493556596818552E-1   2.437841691555940E-1  
 2.047400000000000E10   -2.992599038941445E-1   3.044110849106189E-1  
 2.047600000000000E10   -2.391309985664371E-1   3.550870076779772E-1  
 2.047800000000000E10   -1.708939583264669E-1   3.940131858504473E-1  
 2.048000000000000E10   -9.705571153558375E-2   4.200172588404908E-1  
 2.048200000000000E10   -1.983426283425679E-2   4.320158109585432E-1  
 2.048400000000000E10    5.814288940779127E-2   4.299753284498315E-1  
 2.048600000000000E10    1.338163176928143E-1   4.140439222661795E-1  
 2.048800000000000E10    2.053005761449607E-1   3.846773343026805E-1  
 2.049000000000000E10    2.699602952235765E-1   3.432037778757805E-1  
 2.049200000000000E10    3.255403599715773E-1   2.911572347897307E-1  
 2.049400000000000E10    3.709320836714922E-1   2.300261448612586E-1  
 2.049600000000000E10    4.041728321941226E-1   1.621787609211288E-1  
 2.049800000000000E10    4.248510734529171E-1   8.969811115265486E-2  
 2.050000000000000E10    4.323158727685849E-1   1.458149054074628E-2  
 2.050200000000000E10    4.262621018870716E-1  -6.030484499039608E-2  
 2.050400000000000E10    4.068450962114996E-1  -1.329657280515007E-1  
 2.050600000000000E10    3.745943851785040E-1  -2.008064170268396E-1  
 2.050800000000000E10    3.307616326923521E-1  -2.615115722272934E-1  
 2.051000000000000E10    2.762433323218845E-1  -3.137893619022301E-1  
 2.051200000000000E10    2.129308846177570E-1  -3.554228938977481E-1  
 2.051400000000000E10    1.429991197047435E-1  -3.845681003718228E-1  
 2.051600000000000E10    6.781114534761729E-2  -4.010327350987707E-1  
 2.051800000000000E10   -9.488226626555657E-3  -4.029845390878551E-1  
 2.052000000000000E10   -8.585044853821713E-2  -3.902936692958938E-1  
 2.052200000000000E10   -1.596324429419103E-1  -3.630225387849679E-1  
 2.052400000000000E10   -2.271736639501197E-1  -3.217203124285758E-1  
 2.052600000000000E10   -2.856268540784805E-1  -2.679415630958105E-1  
 2.052800000000000E10   -3.331566318666844E-1  -2.027500514394581E-1  
 2.053000000000000E10   -3.669820906622138E-1  -1.291283279240728E-1  
 2.053200000000000E10   -3.854687799450294E-1  -5.028359001928395E-2  
 2.053400000000000E10   -3.879818198478539E-1   3.158330992530900E-2  
 2.053600000000000E10   -3.736918216127623E-1   1.119364100179923E-1  
 2.053800000000000E10   -3.435302031314630E-1   1.878693515739788E-1  
 2.054000000000000E10   -2.984355040591299E-1   2.564103768896504E-1  
 2.054200000000000E10   -2.410479983257297E-1   3.134901186937031E-1  
 2.054400000000000E10   -1.734605138506037E-1   3.580163795309460E-1  
 2.054600000000000E10   -9.857126407653044E-2   3.879728311856019E-1  
 2.054800000000000E10   -2.071356939695486E-2   4.019505455407331E-1  
 2.055000000000000E10    5.823499304156415E-2   4.004282352655469E-1  
 2.055200000000000E10    1.348780645261750E-1   3.834950342200184E-1  
 2.055400000000000E10    2.051664753059522E-1   3.526783096419579E-1  
 2.055600000000000E10    2.681744347016535E-1   3.091474482920416E-1  
