#  HZ   S   RI   R     50.00 
! Rohde & Schwarz ZVA40 4Ports - Version 3.90 - 1145.1110k42 SN: 100403
! Date: 2023-09-28 11:42:42
! Measurement: S22 
! 
 2.000000000000000E10   -2.774826515791363E-1   4.013037278244633E-1  
 2.000200000000000E10   -1.985205114762609E-1   4.451870161112202E-1  
 2.000400000000000E10   -1.127959596179703E-1   4.735322920742600E-1  
 2.000600000000000E10   -2.201658783404052E-2   4.863403130238599E-1  
 2.000800000000000E10    6.795907943438667E-2   4.824357790893180E-1  
 2.001000000000000E10    1.557184021980509E-1   4.626391109563872E-1  
 2.001200000000000E10    2.359153539697881E-1   4.286375639805679E-1  
 2.001400000000000E10    3.105293038764568E-1   3.803701946670943E-1  
 2.001600000000000E10    3.739294043992218E-1   3.211068549048829E-1  
 2.001800000000000E10    4.249578081581761E-1   2.533340678446276E-1  
 2.002000000000000E10    4.638183972964773E-1   1.779161936232208E-1  
 2.002200000000000E10    4.885845923379085E-1   9.461625940498863E-2  
 2.002400000000000E10    4.997244362391095E-1   1.268064173850163E-2  
 2.002600000000000E10    4.974083900113509E-1  -6.814877414266363E-2  
 2.002800000000000E10    4.818132096087795E-1  -1.498959669223633E-1  
 2.003000000000000E10    4.532896096735920E-1  -2.265341475185294E-1  
 2.003200000000000E10    4.127040622478919E-1  -2.973772126218168E-1  
 2.003400000000000E10    3.609194888276459E-1  -3.607885817255699E-1  
 2.003600000000000E10    2.983986592519163E-1  -4.159665431088147E-1  
 2.003800000000000E10    2.278494121189068E-1  -4.593843222359240E-1  
 2.004000000000000E10    1.503698110873678E-1  -4.908961078954784E-1  
 2.004200000000000E10    6.741048485950649E-2  -5.091020740974127E-1  
 2.004400000000000E10   -1.873042797919335E-2  -5.130079909820540E-1  
 2.004600000000000E10   -1.047255196889372E-1  -5.016577603033725E-1  
 2.004800000000000E10   -1.892330763350724E-1  -4.749665491781042E-1  
 2.005000000000000E10   -2.687023877081395E-1  -4.329359319138830E-1  
 2.005200000000000E10   -3.408682210936704E-1  -3.757685898322670E-1  
 2.005400000000000E10   -4.014023346884844E-1  -3.057352028033402E-1  
 2.005600000000000E10   -4.486010479748870E-1  -2.240528407688586E-1  
 2.005800000000000E10   -4.798516715886553E-1  -1.336346420911576E-1  
 2.006000000000000E10   -4.930815481900425E-1  -3.737628578174378E-2  
 2.006200000000000E10   -4.870129131989929E-1   6.041240323519004E-2  
 2.006400000000000E10   -4.616366304489196E-1   1.547599933744187E-1  
 2.006600000000000E10   -4.166872301234228E-1   2.447628781721910E-1  
 2.006800000000000E10   -3.561518851249180E-1   3.216131064771588E-1  
 2.007000000000000E10   -2.812544659215912E-1   3.853479558420125E-1  
 2.007200000000000E10   -1.956247336276275E-1   4.324619276963411E-1  
 2.007400000000000E10   -1.015252605526596E-1   4.620476522579232E-1  
 2.007600000000000E10   -5.560060886913559E-3   4.717236443023909E-1  
 2.007800000000000E10    8.916579684357753E-2   4.626083345443680E-1  
 2.008000000000000E10    1.804803409394359E-1   4.350978220519949E-1  
 2.008200000000000E10    2.632538778910477E-1   3.912534356469534E-1  
 2.008400000000000E10    3.349600758559389E-1   3.340582710165740E-1  
 2.008600000000000E10    3.945206289443548E-1   2.646444408702282E-1  
 2.008800000000000E10    4.397793967811316E-1   1.858826388554684E-1  
 2.009000000000000E10    4.692847244382418E-1   1.011754866780438E-1  
 2.009200000000000E10    4.826105980750445E-1   1.403683235037594E-2  
 2.009400000000000E10    4.802277533283083E-1  -7.480908861115032E-2  
 2.009600000000000E10    4.620354790856793E-1  -1.616642722576598E-1  
 2.009800000000000E10    4.288540805116684E-1  -2.429594055585390E-1  
 2.010000000000000E10    3.798518875792233E-1  -3.186406466405624E-1  
 2.010200000000000E10    3.178743274146124E-1  -3.836204280948332E-1  
 2.010400000000000E10    2.436471667918368E-1  -4.373688646767402E-1  
 2.010600000000000E10    1.606404736254578E-1  -4.761917732267674E-1  
 2.010800000000000E10    6.973056932276769E-2  -4.993495761626784E-1  
 2.011000000000000E10   -2.515733441122087E-2  -5.044704704742080E-1  
 2.011200000000000E10   -1.208683999006028E-1  -4.908156766323761E-1  
 2.011400000000000E10   -2.134062818981790E-1  -4.575810027401634E-1  
 2.011600000000000E10   -2.982717345132856E-1  -4.056654322294543E-1  
 2.011800000000000E10   -3.716713547169263E-1  -3.364923050764130E-1  
 2.012000000000000E10   -4.301676479124586E-1  -2.522369557114962E-1  
 2.012200000000000E10   -4.694074180152543E-1  -1.577870230524860E-1  
 2.012400000000000E10   -4.880114497350793E-1  -5.605063337928353E-2  
 2.012600000000000E10   -4.846437362338397E-1   4.751580631484811E-2  
 2.012800000000000E10   -4.592781404415965E-1   1.476013042074820E-1  
 2.013000000000000E10   -4.138438628364987E-1   2.389669011663904E-1  
 2.013200000000000E10   -3.510144698302686E-1   3.184987965927932E-1  
 2.013400000000000E10   -2.729032523181638E-1   3.834199307688582E-1  
 2.013600000000000E10   -1.860560897229441E-1   4.290270722018642E-1  
 2.013800000000000E10   -9.267403208091926E-2   4.561372410586743E-1  
 2.014000000000000E10    2.885915676801031E-3   4.639866652989754E-1  
 2.014200000000000E10    9.672040276265681E-2   4.533040692655681E-1  
 2.014400000000000E10    1.841010220341139E-1   4.253752463730212E-1  
 2.014600000000000E10    2.639288700592525E-1   3.821721258006362E-1  
 2.014800000000000E10    3.336837023707427E-1   3.253084545998288E-1  
 2.015000000000000E10    3.910854008337865E-1   2.574577069569137E-1  
 2.015200000000000E10    4.337755848701778E-1   1.824885689201730E-1  
 2.015400000000000E10    4.630708414807727E-1   9.993618389150033E-2  
 2.015600000000000E10    4.767184800655647E-1   1.491748805514283E-2  
 2.015800000000000E10    4.751426466140979E-1  -7.116413177326703E-2  
 2.016000000000000E10    4.582927738801174E-1  -1.553845063249025E-1  
 2.016200000000000E10    4.267277901383686E-1  -2.355051883868380E-1  
 2.016400000000000E10    3.809072290200929E-1  -3.092845655579052E-1  
 2.016600000000000E10    3.227510448313621E-1  -3.734805372697826E-1  
 2.016800000000000E10    2.533816431932301E-1  -4.266750370582267E-1  
 2.017000000000000E10    1.745533423590098E-1  -4.669536791752237E-1  
 2.017200000000000E10    8.902000582456157E-2  -4.924021534995998E-1  
 2.017400000000000E10   -6.906868676536248E-4  -5.016511127127197E-1  
 2.017600000000000E10   -9.101741586408546E-2  -4.940508752661738E-1  
 2.017800000000000E10   -1.788496135246451E-1  -4.695255217629197E-1  
 2.018000000000000E10   -2.623578007129285E-1  -4.281913440136003E-1  
 2.018200000000000E10   -3.354667235489204E-1  -3.721855495659644E-1  
 2.018400000000000E10   -3.973656066177458E-1  -3.027657498253650E-1  
 2.018600000000000E10   -4.451303819370169E-1  -2.227152418581058E-1  
 2.018800000000000E10   -4.771125011209452E-1  -1.347818678202038E-1  
 2.019000000000000E10   -4.914942274107249E-1  -4.368488569058926E-2  
 2.019200000000000E10   -4.888518756419527E-1   4.796269220497870E-2  
 2.019400000000000E10   -4.693599876609807E-1   1.375753553512771E-1  
 2.019600000000000E10   -4.336203318662403E-1   2.217009717558360E-1  
 2.019800000000000E10   -3.847681480057278E-1   2.953427642038934E-1  
 2.020000000000000E10   -3.233573876035611E-1   3.596467186381603E-1  
 2.020200000000000E10   -2.529344646838987E-1   4.110614088540683E-1  
 2.020400000000000E10   -1.757866365275553E-1   4.490432001964640E-1  
 2.020600000000000E10   -9.483708626505223E-2   4.727368863306104E-1  
 2.020800000000000E10   -1.209934256971135E-2   4.826621469083229E-1  
 2.021000000000000E10    7.058702298758073E-2   4.785817860835280E-1  
 2.021200000000000E10    1.498722471969938E-1   4.612819341483503E-1  
 2.021400000000000E10    2.244665937050676E-1   4.319171538637460E-1  
 2.021600000000000E10    2.930502871015860E-1   3.911786214862817E-1  
 2.021800000000000E10    3.535374041727031E-1   3.410352801587454E-1  
 2.022000000000000E10    4.053915759079412E-1   2.819929683973330E-1  
 2.022200000000000E10    4.473121783002247E-1   2.158809606661617E-1  
 2.022400000000000E10    4.778428437522100E-1   1.450659046570629E-1  
 2.022600000000000E10    4.974236788566024E-1   6.934468004265668E-2  
 2.022800000000000E10    5.051761449278006E-1  -8.042372816376977E-3  
 2.023000000000000E10    5.007827010228856E-1  -8.604427272538033E-2  
 2.023200000000000E10    4.842075063013628E-1  -1.624598030135282E-1  
 2.023400000000000E10    4.556657179738460E-1  -2.363006689672960E-1  
 2.023600000000000E10    4.152419618981729E-1  -3.053345263885519E-1  
 2.023800000000000E10    3.638823334793307E-1  -3.675763670631429E-1  
 2.024000000000000E10    3.027113945797267E-1  -4.207990976210204E-1  
 2.024200000000000E10    2.322186398917802E-1  -4.645834911820935E-1  
 2.024400000000000E10    1.553297174257548E-1  -4.961908098498215E-1  
 2.024600000000000E10    7.261728881812000E-2  -5.151162547618409E-1  
 2.024800000000000E10   -1.281952097756212E-2  -5.195127711429083E-1  
 2.025000000000000E10   -9.870131922395070E-2  -5.090863473863002E-1  
 2.025200000000000E10   -1.826454307383374E-1  -4.834893226175695E-1  
 2.025400000000000E10   -2.621747690616511E-1  -4.430705359300562E-1  
 2.025600000000000E10   -3.328050336637260E-1  -3.892094546355500E-1  
 2.025800000000000E10   -3.936794455431553E-1  -3.228168952811084E-1  
 2.026000000000000E10   -4.417185500377980E-1  -2.464788345515005E-1  
 2.026200000000000E10   -4.757588614623251E-1  -1.617233221845090E-1  
 2.026400000000000E10   -4.933272381606427E-1  -7.312323291362785E-2  
 2.026600000000000E10   -4.948460850342386E-1   1.697589464931595E-2  
 2.026800000000000E10   -4.800630868049194E-1   1.066204686403232E-1  
 2.027000000000000E10   -4.495759462162140E-1   1.916838062031139E-1  
 2.027200000000000E10   -4.051267892342489E-1   2.685032375907418E-1  
 2.027400000000000E10   -3.475737331579378E-1   3.366732813622191E-1  
 2.027600000000000E10   -2.796792853039538E-1   3.924893269901421E-1  
 2.027800000000000E10   -2.036712501966825E-1   4.352691190982612E-1  
 2.028000000000000E10   -1.218606869730702E-1   4.640452672262453E-1  
 2.028200000000000E10   -3.726404745859790E-2   4.782865491680988E-1  
 2.028400000000000E10    4.803189085827653E-2   4.777381261688428E-1  
 2.028600000000000E10    1.315105074347390E-1   4.628283680038815E-1  
 2.028800000000000E10    2.111976621900417E-1   4.340533456024477E-1  
 2.029000000000000E10    2.847725596800161E-1   3.921598295838432E-1  
 2.029200000000000E10    3.491330825028882E-1   3.388009801976120E-1  
 2.029400000000000E10    4.040642592737601E-1   2.749375819509180E-1  
 2.029600000000000E10    4.479748710099233E-1   2.016134112864738E-1  
 2.029800000000000E10    4.782523790338829E-1   1.223361862077529E-1  
 2.030000000000000E10    4.945414335433470E-1   3.807364282937733E-2  
 2.030200000000000E10    4.957932609090519E-1  -4.884905290827762E-2  
 2.030400000000000E10    4.814050495025626E-1  -1.354185757677192E-1  
 2.030600000000000E10    4.510285554990685E-1  -2.192129374125443E-1  
 2.030800000000000E10    4.052130453819296E-1  -2.971896107883463E-1  
 2.031000000000000E10    3.448678093383807E-1  -3.658111813534442E-1  
 2.031200000000000E10    2.710060467117254E-1  -4.230152894885498E-1  
 2.031400000000000E10    1.864534265140177E-1  -4.653570789619226E-1  
 2.031600000000000E10    9.593976356962972E-2  -4.896167673863401E-1  
 2.031800000000000E10   -1.303787059765535E-3  -4.965856218318565E-1  
 2.032000000000000E10   -9.897498387648410E-2  -4.835995312435492E-1  
 2.032200000000000E10   -1.932571637721445E-1  -4.504120726491501E-1  
 2.032400000000000E10   -2.794396197442844E-1  -3.978109883350723E-1  
 2.032600000000000E10   -3.525614455654622E-1  -3.283456107802302E-1  
 2.032800000000000E10   -4.101032196223430E-1  -2.443504151756049E-1  
 2.033000000000000E10   -4.484098839586344E-1  -1.507259933068460E-1  
 2.033200000000000E10   -4.663933677920700E-1  -5.105414716464989E-2  
 2.033400000000000E10   -4.630945207316656E-1   5.019986278667780E-2  
 2.033600000000000E10   -4.387445642589380E-1   1.454038248435542E-1  
 2.033800000000000E10   -3.951592282658344E-1   2.383218771651887E-1  
 2.034000000000000E10   -3.346192472642091E-1   3.169883810843370E-1  
 2.034200000000000E10   -2.604395315806707E-1   3.807066210848323E-1  
 2.034400000000000E10   -1.755457036087623E-1   4.279032646561608E-1  
 2.034600000000000E10   -8.408586037760440E-2   4.569116485607623E-1  
 2.034800000000000E10    1.084925763532986E-2   4.674929387047012E-1  
 2.035000000000000E10    1.054797722786234E-1   4.592103759706817E-1  
 2.035200000000000E10    1.961417838390124E-1   4.329728485222041E-1  
 2.035400000000000E10    2.796275435244979E-1   3.897991332209936E-1  
 2.035600000000000E10    3.533431055117521E-1   3.314162622664811E-1  
 2.035800000000000E10    4.132243611405437E-1   2.608957876478952E-1  
 2.036000000000000E10    4.593005422511274E-1   1.796372496764870E-1  
 2.036200000000000E10    4.891825385857598E-1   9.038036756799027E-2  
 2.036400000000000E10    5.010713577399040E-1  -2.177308332722096E-3  
 2.036600000000000E10    4.950067871347605E-1  -9.562791950007139E-2  
 2.036800000000000E10    4.710080395341934E-1  -1.871046519122954E-1  
 2.037000000000000E10    4.298032039819692E-1  -2.715603213548476E-1  
 2.037200000000000E10    3.728018187588013E-1  -3.471941342647735E-1  
 2.037400000000000E10    3.020946949644173E-1  -4.106440625091504E-1  
 2.037600000000000E10    2.204492190326281E-1  -4.591034498753518E-1  
 2.037800000000000E10    1.307951571614872E-1  -4.909965118104181E-1  
 2.038000000000000E10    3.683090613588205E-2  -5.050205207604808E-1  
 2.038200000000000E10   -5.820141240458191E-2  -5.007474297281279E-1  
 2.038400000000000E10   -1.506393757184191E-1  -4.783567229951133E-1  
 2.038600000000000E10   -2.363811840161300E-1  -4.390863935848510E-1  
 2.038800000000000E10   -3.131920518264470E-1  -3.842292383826380E-1  
 2.039000000000000E10   -3.779891384915604E-1  -3.162111923947058E-1  
 2.039200000000000E10   -4.284079523755976E-1  -2.380468262442472E-1  
 2.039400000000000E10   -4.636268371558181E-1  -1.518901911066286E-1  
 2.039600000000000E10   -4.819978531641717E-1  -6.177823928830667E-2  
 2.039800000000000E10   -4.838291143570840E-1   2.924014275979611E-2  
 2.040000000000000E10   -4.692222172048683E-1   1.188622902578359E-1  
 2.040200000000000E10   -4.392519189784427E-1   2.034148247624056E-1  
 2.040400000000000E10   -3.949330898682018E-1   2.806127315614069E-1  
 2.040600000000000E10   -3.374649088703391E-1   3.494170609502705E-1  
 2.040800000000000E10   -2.700562403342460E-1   4.057064285508978E-1  
 2.041000000000000E10   -1.945269793674774E-1   4.492512208047740E-1  
 2.041200000000000E10   -1.125056002341483E-1   4.790389565514535E-1  
 2.041400000000000E10   -2.732582462407585E-2   4.943076636221695E-1  
 2.041600000000000E10    5.833309522373462E-2   4.944888454578132E-1  
 2.041800000000000E10    1.436167420934527E-1   4.801946641119280E-1  
 2.042000000000000E10    2.239835319014803E-1   4.517842940422360E-1  
 2.042200000000000E10    2.980465191017216E-1   4.103773118140116E-1  
 2.042400000000000E10    3.639344562364932E-1   3.570634415056662E-1  
 2.042600000000000E10    4.199061812691688E-1   2.936188959563675E-1  
 2.042800000000000E10    4.641759071822731E-1   2.215683428740325E-1  
 2.043000000000000E10    4.956529554192517E-1   1.431855102431261E-1  
 2.043200000000000E10    5.133178991867714E-1   6.074750966397185E-2  
 2.043400000000000E10    5.169028985586944E-1  -2.371107037456418E-2  
 2.043600000000000E10    5.063358169129926E-1  -1.065631296420451E-1  
 2.043800000000000E10    4.820656942758786E-1  -1.867458046064224E-1  
 2.044000000000000E10    4.445052568463064E-1  -2.623275477909740E-1  
 2.044200000000000E10    3.948994903858677E-1  -3.298558306756480E-1  
 2.044400000000000E10    3.345278981574189E-1  -3.884694772072125E-1  
 2.044600000000000E10    2.647900582298615E-1  -4.362664052069815E-1  
 2.044800000000000E10    1.885004815054260E-1  -4.714279529009985E-1  
 2.045000000000000E10    1.070552550933945E-1  -4.932596212848013E-1  
 2.045200000000000E10    2.252561714108895E-2  -5.015522379380224E-1  
 2.045400000000000E10   -6.161474317688751E-2  -4.952578016212492E-1  
 2.045600000000000E10   -1.443926875288368E-1  -4.748221524029702E-1  
 2.045800000000000E10   -2.226623400911296E-1  -4.404705815522392E-1  
 2.046000000000000E10   -2.936803854264763E-1  -3.935297047925606E-1  
 2.046200000000000E10   -3.562642651490457E-1  -3.347073970355763E-1  
 2.046400000000000E10   -4.083320873119068E-1  -2.658237098747129E-1  
 2.046600000000000E10   -4.475543135578442E-1  -1.893415013483234E-1  
 2.046800000000000E10   -4.732282548888636E-1  -1.063838507028214E-1  
 2.047000000000000E10   -4.842729239923573E-1  -1.985097774709081E-2  
 2.047200000000000E10   -4.800421300082139E-1   6.666029917117586E-2  
 2.047400000000000E10   -4.608602401693714E-1   1.519066858666252E-1  
 2.047600000000000E10   -4.270645954318854E-1   2.326428315102685E-1  
 2.047800000000000E10   -3.799205927828104E-1   3.058051552827475E-1  
 2.048000000000000E10   -3.203793858505982E-1   3.698802109864152E-1  
 2.048200000000000E10   -2.503350945796136E-1   4.228577924049145E-1  
 2.048400000000000E10   -1.728200175499535E-1   4.618984151848639E-1  
 2.048600000000000E10   -8.956827343117890E-2   4.869933464233029E-1  
 2.048800000000000E10   -3.419938583725979E-3   4.970202184164833E-1  
 2.049000000000000E10    8.268195058285793E-2   4.919382675156426E-1  
 2.049200000000000E10    1.661971086099190E-1   4.718840983856869E-1  
 2.049400000000000E10    2.446205597276126E-1   4.378202157755030E-1  
 2.049600000000000E10    3.157590871656436E-1   3.907258780633665E-1  
 2.049800000000000E10    3.770481730644446E-1   3.324403144866741E-1  
 2.050000000000000E10    4.276178021481091E-1   2.648629994126436E-1  
 2.050200000000000E10    4.656264679463155E-1   1.896094665864750E-1  
 2.050400000000000E10    4.901167174574357E-1   1.094691294915160E-1  
 2.050600000000000E10    5.004331666178969E-1   2.678858450559382E-2  
 2.050800000000000E10    4.965986077639545E-1  -5.686958423944385E-2  
 2.051000000000000E10    4.784629750770070E-1  -1.382810110694651E-1  
 2.051200000000000E10    4.468633531672840E-1  -2.154126225530220E-1  
 2.051400000000000E10    4.022431925953697E-1  -2.865283269435021E-1  
 2.051600000000000E10    3.458672956378248E-1  -3.494031075403440E-1  
 2.051800000000000E10    2.793606360065970E-1  -4.018642049104945E-1  
 2.052000000000000E10    2.039649598671205E-1  -4.422939249198187E-1  
 2.052200000000000E10    1.222579866619373E-1  -4.691132020706580E-1  
 2.052400000000000E10    3.613841231786346E-2  -4.812698355984017E-1  
 2.052600000000000E10   -5.198333211107262E-2  -4.779307883812045E-1  
 2.052800000000000E10   -1.386307528991861E-1  -4.584466501054877E-1  
 2.053000000000000E10   -2.217565842783595E-1  -4.230869164004724E-1  
 2.053200000000000E10   -2.979038324262648E-1  -3.723674759016324E-1  
 2.053400000000000E10   -3.633173401686077E-1  -3.079890891921965E-1  
 2.053600000000000E10   -4.165220100911284E-1  -2.312056205034649E-1  
 2.053800000000000E10   -4.543385752315484E-1  -1.446469162539285E-1  
 2.054000000000000E10   -4.746473054207556E-1  -5.231389272998943E-2  
 2.054200000000000E10   -4.766558420087999E-1   4.350689787273411E-2  
 2.054400000000000E10   -4.597511004010511E-1   1.383789194347102E-1  
 2.054600000000000E10   -4.245446381620686E-1   2.274911906581868E-1  
 2.054800000000000E10   -3.724129578616388E-1   3.085580215066583E-1  
 2.055000000000000E10   -3.054792498931813E-1   3.775804393406089E-1  
 2.055200000000000E10   -2.270505863882990E-1   4.312999604679968E-1  
 2.055400000000000E10   -1.396486617203037E-1   4.688879164931616E-1  
 2.055600000000000E10   -4.759049896820340E-2   4.883820251711878E-1  
