#  HZ   S   RI   R     50.00 
! Rohde & Schwarz ZVA40 4Ports - Version 3.90 - 1145.1110k42 SN: 100403
! Date: 2023-09-28 11:55:32
! Measurement: S22 
! 
 2.000000000000000E10   -2.609926352403501E-1   4.065126230281489E-1  
 2.000200000000000E10   -1.812160910304730E-1   4.474613180660020E-1  
 2.000400000000000E10   -9.554499245519442E-2   4.726892783393744E-1  
 2.000600000000000E10   -5.206121505506520E-3   4.823776378481433E-1  
 2.000800000000000E10    8.370857701134782E-2   4.756002699643708E-1  
 2.001000000000000E10    1.695008359103457E-1   4.533658779684532E-1  
 2.001200000000000E10    2.484636494092348E-1   4.168284565666764E-1  
 2.001400000000000E10    3.202204983724656E-1   3.670455740976009E-1  
 2.001600000000000E10    3.813691035516102E-1   3.061580501333899E-1  
 2.001800000000000E10    4.294543498413557E-1   2.378926649075197E-1  
 2.002000000000000E10    4.660305581480139E-1   1.613363967752989E-1  
 2.002200000000000E10    4.875654338783627E-1   7.866770719243597E-2  
 2.002400000000000E10    4.962136440060966E-1  -2.900661815787330E-3  
 2.002600000000000E10    4.914091859123815E-1  -8.314428740576872E-2  
 2.002800000000000E10    4.733991289637847E-1  -1.638626652153495E-1  
 2.003000000000000E10    4.425608843001905E-1  -2.390665257809744E-1  
 2.003200000000000E10    4.003494553694391E-1  -3.075059136999506E-1  
 2.003400000000000E10    3.463459380968536E-1  -3.695429818507690E-1  
 2.003600000000000E10    2.825042146031103E-1  -4.220809051826138E-1  
 2.003800000000000E10    2.112157727568683E-1  -4.626085437802341E-1  
 2.004000000000000E10    1.329165508888257E-1  -4.913750963228503E-1  
 2.004200000000000E10    4.944818403388869E-2  -5.067013543981201E-1  
 2.004400000000000E10   -3.642559819430660E-2  -5.073570396746518E-1  
 2.004600000000000E10   -1.207834977949942E-1  -4.928600963970801E-1  
 2.004800000000000E10   -2.045759680277078E-1  -4.629485127467224E-1  
 2.005000000000000E10   -2.824240030219207E-1  -4.177843240762408E-1  
 2.005200000000000E10   -3.508177701891332E-1  -3.585581518641735E-1  
 2.005400000000000E10   -4.085919498640895E-1  -2.860348830263959E-1  
 2.005600000000000E10   -4.521197976658616E-1  -2.027812464595608E-1  
 2.005800000000000E10   -4.793101340527088E-1  -1.109250833115982E-1  
 2.006000000000000E10   -4.878469314847508E-1  -1.643773953827174E-2  
 2.006200000000000E10   -4.774553352435799E-1   8.142108172257340E-2  
 2.006400000000000E10   -4.476813591236802E-1   1.745907837558332E-1  
 2.006600000000000E10   -3.995609927008320E-1   2.602497575847608E-1  
 2.006800000000000E10   -3.357914638468010E-1   3.338881111307804E-1  
 2.007000000000000E10   -2.585851954704002E-1   3.935788080251947E-1  
 2.007200000000000E10   -1.709736828433980E-1   4.364628672355517E-1  
 2.007400000000000E10   -7.818436154266058E-2   4.605862111082164E-1  
 2.007600000000000E10    1.791459647877362E-2   4.658892049583753E-1  
 2.007800000000000E10    1.118501942070361E-1   4.521775018169068E-1  
 2.008000000000000E10    1.997987853762010E-1   4.210066002060617E-1  
 2.008200000000000E10    2.791743069826429E-1   3.738815054011700E-1  
 2.008400000000000E10    3.480633848736555E-1   3.136815567785086E-1  
 2.008600000000000E10    4.034546289539757E-1   2.422571251741278E-1  
 2.008800000000000E10    4.444753851475132E-1   1.623238978827166E-1  
 2.009000000000000E10    4.692602254168066E-1   7.799853444870111E-2  
 2.009200000000000E10    4.787154918054878E-1  -1.046381616210602E-2  
 2.009400000000000E10    4.720024606136165E-1  -9.727312363829072E-2  
 2.009600000000000E10    4.497789008043774E-1  -1.825146140080561E-1  
 2.009800000000000E10    4.128090289071878E-1  -2.617981318121059E-1  
 2.010000000000000E10    3.605299126182192E-1  -3.340672659922885E-1  
 2.010200000000000E10    2.951654570067982E-1  -3.961350472158330E-1  
 2.010400000000000E10    2.197765162031167E-1  -4.447130285743450E-1  
 2.010600000000000E10    1.343435723199816E-1  -4.794557080253814E-1  
 2.010800000000000E10    4.305848711653917E-2  -4.973728483858567E-1  
 2.011000000000000E10   -5.136799416985717E-2  -4.973241555419369E-1  
 2.011200000000000E10   -1.453986745617391E-1  -4.782938331237223E-1  
 2.011400000000000E10   -2.355098756807669E-1  -4.401238665751098E-1  
 2.011600000000000E10   -3.168947213148171E-1  -3.834828834196563E-1  
 2.011800000000000E10   -3.854466340023368E-1  -3.108436998194779E-1  
 2.012000000000000E10   -4.378250068557794E-1  -2.247059230327410E-1  
 2.012200000000000E10   -4.717129783722511E-1  -1.275508156645094E-1  
 2.012400000000000E10   -4.838227982255166E-1  -2.693484416020747E-2  
 2.012600000000000E10   -4.743536091378685E-1   7.500729471251783E-2  
 2.012800000000000E10   -4.435521935246991E-1   1.721498714506384E-1  
 2.013000000000000E10   -3.933168249380193E-1   2.600990440537391E-1  
 2.013200000000000E10   -3.268627951701182E-1   3.347418303226149E-1  
 2.013400000000000E10   -2.476694871352572E-1   3.931907524776401E-1  
 2.013600000000000E10   -1.580436159783146E-1   4.343764511488936E-1  
 2.013800000000000E10   -6.517545156423077E-2   4.557274834516125E-1  
 2.014000000000000E10    2.844002815228483E-2   4.583865945771649E-1  
 2.014200000000000E10    1.202807539720624E-1   4.428956859811860E-1  
 2.014400000000000E10    2.057411110549807E-1   4.109212454696657E-1  
 2.014600000000000E10    2.817169032300791E-1   3.645057189076081E-1  
 2.014800000000000E10    3.474163238934679E-1   3.053115794297118E-1  
 2.015000000000000E10    4.005143687425031E-1   2.359578931289139E-1  
 2.015200000000000E10    4.402437214539553E-1   1.582694072338286E-1  
 2.015400000000000E10    4.641498410958883E-1   7.760508301985240E-2  
 2.015600000000000E10    4.741574337907926E-1  -8.124749047241578E-3  
 2.015800000000000E10    4.685158211482007E-1  -9.337403966236937E-2  
 2.016000000000000E10    4.480856800966685E-1  -1.755139009226389E-1  
 2.016200000000000E10    4.129979246328779E-1  -2.536425100396164E-1  
 2.016400000000000E10    3.645097027703637E-1  -3.243085969438685E-1  
 2.016600000000000E10    3.036349137965959E-1  -3.857150884619282E-1  
 2.016800000000000E10    2.324215695977375E-1  -4.352302501174201E-1  
 2.017000000000000E10    1.528388918773679E-1  -4.713822980628927E-1  
 2.017200000000000E10    6.622402919431497E-2  -4.928697239208499E-1  
 2.017400000000000E10   -2.293139920792726E-2  -4.979304173518919E-1  
 2.017600000000000E10   -1.119040582316775E-1  -4.862025374239630E-1  
 2.017800000000000E10   -1.988980837513589E-1  -4.578059044733973E-1  
 2.018000000000000E10   -2.784150054017232E-1  -4.134313683263882E-1  
 2.018200000000000E10   -3.494364885084844E-1  -3.540888663443144E-1  
 2.018400000000000E10   -4.072671100509276E-1  -2.827381914699712E-1  
 2.018600000000000E10   -4.511228008178462E-1  -2.013723382334924E-1  
 2.018800000000000E10   -4.787596547926351E-1  -1.129584029218737E-1  
 2.019000000000000E10   -4.892762543948570E-1  -2.192824995175852E-2  
 2.019200000000000E10   -4.826678552356679E-1   6.861634978891383E-2  
 2.019400000000000E10   -4.596646252780448E-1   1.566410441459508E-1  
 2.019600000000000E10   -4.211910365159758E-1   2.374687782150207E-1  
 2.019800000000000E10   -3.690041701771141E-1   3.098062680372004E-1  
 2.020000000000000E10   -3.065855929051569E-1   3.699796955799489E-1  
 2.020200000000000E10   -2.348584324912853E-1   4.182847559889805E-1  
 2.020400000000000E10   -1.563510899553264E-1   4.532002961909073E-1  
 2.020600000000000E10   -7.607811796445781E-2   4.735776176393258E-1  
 2.020800000000000E10    6.283889389467104E-3   4.802744795306899E-1  
 2.021000000000000E10    8.820580336699560E-2   4.732592672945228E-1  
 2.021200000000000E10    1.661953891766490E-1   4.533994692908860E-1  
 2.021400000000000E10    2.388981795088332E-1   4.216539539159595E-1  
 2.021600000000000E10    3.054109767020556E-1   3.791436169694821E-1  
 2.021800000000000E10    3.640411805267277E-1   3.270028164422254E-1  
 2.022000000000000E10    4.137426197621033E-1   2.664116964544878E-1  
 2.022200000000000E10    4.522999592823466E-1   2.005092283987153E-1  
 2.022400000000000E10    4.810163318618616E-1   1.277256140121777E-1  
 2.022600000000000E10    4.977805234739847E-1   5.210361412913774E-2  
 2.022800000000000E10    5.028556294319206E-1  -2.476559447959856E-2  
 2.023000000000000E10    4.957384723183630E-1  -1.022548806228353E-1  
 2.023200000000000E10    4.766605298229112E-1  -1.783654494534457E-1  
 2.023400000000000E10    4.456136422489667E-1  -2.505703263076736E-1  
 2.023600000000000E10    4.029131889675695E-1  -3.181288526759832E-1  
 2.023800000000000E10    3.496901954841548E-1  -3.778898277739279E-1  
 2.024000000000000E10    2.864089016691706E-1  -4.294059398684079E-1  
 2.024200000000000E10    2.147738513321501E-1  -4.700334969932667E-1  
 2.024400000000000E10    1.366906779638893E-1  -4.989275304723189E-1  
 2.024600000000000E10    5.343875753895413E-2  -5.145765774912756E-1  
 2.024800000000000E10   -3.151699057334569E-2  -5.155708801850877E-1  
 2.025000000000000E10   -1.171984292155736E-1  -5.017843067589165E-1  
 2.025200000000000E10   -2.005301597552633E-1  -4.728448114167043E-1  
 2.025400000000000E10   -2.769199204717292E-1  -4.296539932814257E-1  
 2.025600000000000E10   -3.453046105352831E-1  -3.729125605776301E-1  
 2.025800000000000E10   -4.038175268795070E-1  -3.037505615249929E-1  
 2.026000000000000E10   -4.482787771241181E-1  -2.258417996372078E-1  
 2.026200000000000E10   -4.780707151722092E-1  -1.405980988065195E-1  
 2.026400000000000E10   -4.918861503272263E-1  -5.176479841788939E-2  
 2.026600000000000E10   -4.895953688249278E-1   3.904907409422487E-2  
 2.026800000000000E10   -4.707857164505758E-1   1.270500306067744E-1  
 2.027000000000000E10   -4.370997054389179E-1   2.093889546971933E-1  
 2.027200000000000E10   -3.892363970687240E-1   2.843617579506327E-1  
 2.027400000000000E10   -3.286407385781135E-1   3.499528405653862E-1  
 2.027600000000000E10   -2.593889017391425E-1   4.017348884171809E-1  
 2.027800000000000E10   -1.815242006130414E-1   4.410977923021577E-1  
 2.028000000000000E10   -9.921903969751017E-2   4.659305358658878E-1  
 2.028200000000000E10   -1.463949008821067E-2   4.762225771086993E-1  
 2.028400000000000E10    7.036289034675053E-2   4.717546247116071E-1  
 2.028600000000000E10    1.530173925844019E-1   4.530423221570599E-1  
 2.028800000000000E10    2.302506878661913E-1   4.209093911440922E-1  
 2.029000000000000E10    3.014215197784340E-1   3.757521263353771E-1  
 2.029200000000000E10    3.633722751753791E-1   3.192693752120420E-1  
 2.029400000000000E10    4.152714007655369E-1   2.526336581769437E-1  
 2.029600000000000E10    4.546394160458221E-1   1.781615045899314E-1  
 2.029800000000000E10    4.808416824033301E-1   9.769212746714291E-2  
 2.030000000000000E10    4.930039202967705E-1   1.198771615083739E-2  
 2.030200000000000E10    4.895524357520871E-1  -7.485871051517860E-2  
 2.030400000000000E10    4.702953188292305E-1  -1.596694371246921E-1  
 2.030600000000000E10    4.352503851530271E-1  -2.418711457659524E-1  
 2.030800000000000E10    3.848894404543466E-1  -3.171808349171486E-1  
 2.031000000000000E10    3.205466063216609E-1  -3.820035722342288E-1  
 2.031200000000000E10    2.432938723381930E-1  -4.347162660055771E-1  
 2.031400000000000E10    1.564347221280265E-1  -4.713574705932735E-1  
 2.031600000000000E10    6.476351746684254E-2  -4.896057957289920E-1  
 2.031800000000000E10   -3.289121361474649E-2  -4.902663894569543E-1  
 2.032000000000000E10   -1.293873640873070E-1  -4.707281400711396E-1  
 2.032200000000000E10   -2.207899566954529E-1  -4.311270615629265E-1  
 2.032400000000000E10   -3.024087638485389E-1  -3.730145965781530E-1  
 2.032600000000000E10   -3.702742129535181E-1  -2.988883297275169E-1  
 2.032800000000000E10   -4.214937862340465E-1  -2.111278384721380E-1  
 2.033000000000000E10   -4.525785267578830E-1  -1.158325790042846E-1  
 2.033200000000000E10   -4.632536386081109E-1  -1.621377694205381E-2  
 2.033400000000000E10   -4.527024496043575E-1   8.379196817801479E-2  
 2.033600000000000E10   -4.218287596429188E-1   1.761958846837617E-1  
 2.033800000000000E10   -3.720731814765945E-1   2.650430030948379E-1  
 2.034000000000000E10   -3.067344949136868E-1   3.382588639508233E-1  
 2.034200000000000E10   -2.293652371406957E-1   3.955763755975166E-1  
 2.034400000000000E10   -1.420699294060522E-1   4.365189458578038E-1  
 2.034600000000000E10   -4.950355433866656E-2   4.588656376849436E-1  
 2.034800000000000E10    4.454202659608258E-2   4.626389920364618E-1  
 2.035000000000000E10    1.372706589095124E-1   4.480303342494718E-1  
 2.035200000000000E10    2.253236408769054E-1   4.158983492473806E-1  
 2.035400000000000E10    3.046779170214888E-1   3.676482375152221E-1  
 2.035600000000000E10    3.736313041149748E-1   3.050057806186370E-1  
 2.035800000000000E10    4.282260465084068E-1   2.311360258471630E-1  
 2.036000000000000E10    4.682970975001422E-1   1.478012771043047E-1  
 2.036200000000000E10    4.918062747908713E-1   5.779482990378313E-2  
 2.036400000000000E10    4.975681126437690E-1  -3.473998299573600E-2  
 2.036600000000000E10    4.853658189428518E-1  -1.268957078228416E-1  
 2.036800000000000E10    4.556094002654584E-1  -2.158352707988409E-1  
 2.037000000000000E10    4.094492716426922E-1  -2.963412230381298E-1  
 2.037200000000000E10    3.480484237834599E-1  -3.679064903355401E-1  
 2.037400000000000E10    2.739345042272647E-1  -4.260305531425454E-1  
 2.037600000000000E10    1.903959670544426E-1  -4.686223074695484E-1  
 2.037800000000000E10    9.957844857759987E-2  -4.944710596940233E-1  
 2.038000000000000E10    5.385077808886138E-3  -5.025926805336208E-1  
 2.038200000000000E10   -8.771373124146699E-2  -4.924075513571922E-1  
 2.038400000000000E10   -1.779776795585444E-1  -4.647067523883100E-1  
 2.038600000000000E10   -2.604216591301050E-1  -4.206243252693581E-1  
 2.038800000000000E10   -3.329190117538000E-1  -3.620196058660221E-1  
 2.039000000000000E10   -3.928757492445227E-1  -2.910688251679718E-1  
 2.039200000000000E10   -4.384765404583574E-1  -2.106016010844786E-1  
 2.039400000000000E10   -4.681655388426542E-1  -1.238014741325520E-1  
 2.039600000000000E10   -4.814712220578657E-1  -3.357014660427966E-2  
 2.039800000000000E10   -4.781730832236681E-1   5.628169761517973E-2  
 2.040000000000000E10   -4.589558457327518E-1   1.440730401030883E-1  
 2.040200000000000E10   -4.247606093604838E-1   2.260640565397069E-1  
 2.040400000000000E10   -3.768733115342782E-1   3.003449047172077E-1  
 2.040600000000000E10   -3.166003422945007E-1   3.650601078717844E-1  
 2.040800000000000E10   -2.468799176110179E-1   4.175606455941988E-1  
 2.041000000000000E10   -1.704271105934798E-1   4.564527572466453E-1  
 2.041200000000000E10   -8.752030540837621E-2   4.821297676830609E-1  
 2.041400000000000E10   -2.257062249201115E-3   4.929639947724826E-1  
 2.041600000000000E10    8.238318208566464E-2   4.890875910455865E-1  
 2.041800000000000E10    1.661422678030453E-1   4.707702227795700E-1  
 2.042000000000000E10    2.445900913077494E-1   4.387093285862554E-1  
 2.042200000000000E10    3.153453828947680E-1   3.945501800194048E-1  
 2.042400000000000E10    3.786032859985090E-1   3.384153111778476E-1  
 2.042600000000000E10    4.314351928875951E-1   2.724801295280613E-1  
 2.042800000000000E10    4.715966031687054E-1   1.994899499033415E-1  
 2.043000000000000E10    4.992759930216172E-1   1.200627121085502E-1  
 2.043200000000000E10    5.130387831873002E-1   3.748471182261617E-2  
 2.043400000000000E10    5.126821544894236E-1  -4.599026923413387E-2  
 2.043600000000000E10    4.984152326414444E-1  -1.281743362452008E-1  
 2.043800000000000E10    4.707381094128956E-1  -2.070505286113725E-1  
 2.044000000000000E10    4.300818108310526E-1  -2.799049936525956E-1  
 2.044200000000000E10    3.776067888874611E-1  -3.451109293567766E-1  
 2.044400000000000E10    3.151556421632881E-1  -4.001809118172190E-1  
 2.044600000000000E10    2.438532914927546E-1  -4.446362540708529E-1  
 2.044800000000000E10    1.661086792309180E-1  -4.761766678627935E-1  
 2.045000000000000E10    8.424680904907836E-2  -4.943449362239563E-1  
 2.045200000000000E10   -7.379146153023276E-5  -4.986568589858875E-1  
 2.045400000000000E10   -8.393581426949762E-2  -4.886171926195211E-1  
 2.045600000000000E10   -1.644655418332101E-1  -4.645019249576863E-1  
 2.045800000000000E10   -2.409824787303763E-1  -4.268384941292252E-1  
 2.046000000000000E10   -3.098658022847204E-1  -3.766541568562505E-1  
 2.046200000000000E10   -3.690983629434893E-1  -3.155834465715758E-1  
 2.046400000000000E10   -4.177686241575587E-1  -2.444622112777276E-1  
 2.046600000000000E10   -4.534699475609713E-1  -1.660954000374032E-1  
 2.046800000000000E10   -4.746952327929829E-1  -8.321899779039715E-2  
 2.047000000000000E10   -4.816205343284291E-1   3.361572102068044E-3  
 2.047200000000000E10   -4.734271259518681E-1   8.974014922685533E-2  
 2.047400000000000E10   -4.503058859961963E-1   1.730096397121097E-1  
 2.047600000000000E10   -4.127873183556834E-1   2.520515451741662E-1  
 2.047800000000000E10   -3.621172479342169E-1   3.226949029147356E-1  
 2.048000000000000E10   -3.003108424217835E-1   3.831882491809838E-1  
 2.048200000000000E10   -2.280817717706428E-1   4.321601855767774E-1  
 2.048400000000000E10   -1.489415841304260E-1   4.674898445294325E-1  
 2.048600000000000E10   -6.545755297021784E-2   4.880422543885368E-1  
 2.048800000000000E10    2.121818903877264E-2   4.939934877856861E-1  
 2.049000000000000E10    1.063393685943535E-1   4.845623527805900E-1  
 2.049200000000000E10    1.880101572691053E-1   4.606674726795956E-1  
 2.049400000000000E10    2.646498509573263E-1   4.226565619877706E-1  
 2.049600000000000E10    3.325184082937752E-1   3.725131899945299E-1  
 2.049800000000000E10    3.902763759188741E-1   3.118570798020652E-1  
 2.050000000000000E10    4.374577894696585E-1   2.415905324575594E-1  
 2.050200000000000E10    4.714912723592388E-1   1.651431651901432E-1  
 2.050400000000000E10    4.915579663489298E-1   8.437585904102019E-2  
 2.050600000000000E10    4.977437693073059E-1   9.522240171166078E-4  
 2.050800000000000E10    4.894062046540789E-1  -8.156235377815813E-2  
 2.051000000000000E10    4.672088744706003E-1  -1.614994470652140E-1  
 2.051200000000000E10    4.314205647128951E-1  -2.368738587767771E-1  
 2.051400000000000E10    3.833552679070111E-1  -3.051721009427076E-1  
 2.051600000000000E10    3.237809186266149E-1  -3.646875321402436E-1  
 2.051800000000000E10    2.543392833722581E-1  -4.133977267807662E-1  
 2.052000000000000E10    1.770445788122560E-1  -4.494649358982231E-1  
 2.052200000000000E10    9.388536947567547E-2  -4.714489572114688E-1  
 2.052400000000000E10    7.276098609761222E-3  -4.785272553916833E-1  
 2.052600000000000E10   -8.012726962718797E-2  -4.698613588445988E-1  
 2.052800000000000E10   -1.658398342818664E-1  -4.451711486286450E-1  
 2.053000000000000E10   -2.462534388148315E-1  -4.046498647161619E-1  
 2.053200000000000E10   -3.187502830744691E-1  -3.494762709628835E-1  
 2.053400000000000E10   -3.803167803664407E-1  -2.806978126886780E-1  
 2.053600000000000E10   -4.278797523685619E-1  -2.009081923466760E-1  
 2.053800000000000E10   -4.596892940051722E-1  -1.125970870390423E-1  
 2.054000000000000E10   -4.738239827739210E-1  -1.866770522658749E-2  
 2.054200000000000E10   -4.692347125629172E-1   7.629989481289348E-2  
 2.054400000000000E10   -4.459706334501619E-1   1.688822599257819E-1  
 2.054600000000000E10   -4.046591628185084E-1   2.557252260722326E-1  
 2.054800000000000E10   -3.474798210887704E-1   3.320275985291930E-1  
 2.055000000000000E10   -2.766275689988934E-1   3.955692302076267E-1  
 2.055200000000000E10   -1.946913747185343E-1   4.437440311704755E-1  
 2.055400000000000E10   -1.060220758295352E-1   4.745281972619631E-1  
 2.055600000000000E10   -1.378271799096244E-2   4.876324941245399E-1  
