#  HZ   S   RI   R     50.00 
! Rohde & Schwarz ZVA40 4Ports - Version 3.90 - 1145.1110k42 SN: 100403
! Date: 2023-09-28 11:58:20
! Measurement: S22 
! 
 2.000000000000000E10    4.027816628722989E-1   2.235282225782162E-1  
 2.000200000000000E10    4.391879282779329E-1   1.469340568666432E-1  
 2.000400000000000E10    4.607536327937013E-1   6.504651283735440E-2  
 2.000600000000000E10    4.673152083967940E-1  -2.087133425059224E-2  
 2.000800000000000E10    4.579710876581928E-1  -1.048327045328660E-1  
 2.001000000000000E10    4.333312928431319E-1  -1.864721722318312E-1  
 2.001200000000000E10    3.946324106924165E-1  -2.608743284219577E-1  
 2.001400000000000E10    3.420986351652892E-1  -3.284352335501437E-1  
 2.001600000000000E10    2.782870802532662E-1  -3.847327798155274E-1  
 2.001800000000000E10    2.051722587626658E-1  -4.280129924150815E-1  
 2.002000000000000E10    1.238064790867647E-1  -4.579812732661867E-1  
 2.002200000000000E10    3.677008354165100E-2  -4.707013016211480E-1  
 2.002400000000000E10   -5.160002352156268E-2  -4.685765179423476E-1  
 2.002600000000000E10   -1.378419407233290E-1  -4.490232745234041E-1  
 2.002800000000000E10   -2.220638232875427E-1  -4.117233515685151E-1  
 2.003000000000000E10   -2.965344083897862E-1  -3.580534221867639E-1  
 2.003200000000000E10   -3.595148711292833E-1  -2.894541106515134E-1  
 2.003400000000000E10   -4.079342122267631E-1  -2.077793874286003E-1  
 2.003600000000000E10   -4.387236603002981E-1  -1.163924305261572E-1  
 2.003800000000000E10   -4.492710942839400E-1  -2.063518503249019E-2  
 2.004000000000000E10   -4.393171555220836E-1   7.598645657055664E-2  
 2.004200000000000E10   -4.082783255802752E-1   1.699857048700540E-1  
 2.004400000000000E10   -3.580912298054035E-1   2.542160609213250E-1  
 2.004600000000000E10   -2.915725826563005E-1   3.250882192240168E-1  
 2.004800000000000E10   -2.105734050069490E-1   3.806806144563914E-1  
 2.005000000000000E10   -1.205763780347114E-1   4.171893541459685E-1  
 2.005200000000000E10   -2.740484452582845E-2   4.332857821622177E-1  
 2.005400000000000E10    6.645957762771511E-2   4.300012583595245E-1  
 2.005600000000000E10    1.571214268564034E-1   4.075341595053183E-1  
 2.005800000000000E10    2.398583106134491E-1   3.679151011756092E-1  
 2.006000000000000E10    3.103749131469570E-1   3.143463514551050E-1  
 2.006200000000000E10    3.701136834990995E-1   2.472973780090754E-1  
 2.006400000000000E10    4.140481210539861E-1   1.724968485748817E-1  
 2.006600000000000E10    4.426890983666577E-1   9.172158318332849E-2  
 2.006800000000000E10    4.560014517627791E-1   7.806934790611677E-3  
 2.007000000000000E10    4.535599620335715E-1  -7.717483459022638E-2  
 2.007200000000000E10    4.355041572341213E-1  -1.592839373727885E-1  
 2.007400000000000E10    4.032957598015115E-1  -2.351715239314222E-1  
 2.007600000000000E10    3.574000016488493E-1  -3.053581328303726E-1  
 2.007800000000000E10    3.002489844058604E-1  -3.651600004632450E-1  
 2.008000000000000E10    2.330937908428360E-1  -4.140745101723979E-1  
 2.008200000000000E10    1.580156297799819E-1  -4.501793085302346E-1  
 2.008400000000000E10    7.589623600816858E-2  -4.720667006220511E-1  
 2.008600000000000E10   -9.048524428930631E-3  -4.784817689485512E-1  
 2.008800000000000E10   -9.440207389401803E-2  -4.692387625023172E-1  
 2.009000000000000E10   -1.774660821682141E-1  -4.440393438882135E-1  
 2.009200000000000E10   -2.556931309412210E-1  -4.029565402836794E-1  
 2.009400000000000E10   -3.246452692277801E-1  -3.476171778471546E-1  
 2.009600000000000E10   -3.828691935015968E-1  -2.785116468846226E-1  
 2.009800000000000E10   -4.262754861137668E-1  -1.993036061239177E-1  
 2.010000000000000E10   -4.536971422870464E-1  -1.126749786983956E-1  
 2.010200000000000E10   -4.636327010695663E-1  -2.232174020367886E-2  
 2.010400000000000E10   -4.556336730350683E-1   6.776536581079656E-2  
 2.010600000000000E10   -4.298127309530361E-1   1.554219000991971E-1  
 2.010800000000000E10   -3.879917704274136E-1   2.348107611773273E-1  
 2.011000000000000E10   -3.315212351713325E-1   3.045949566347936E-1  
 2.011200000000000E10   -2.639157633068467E-1   3.608481357045298E-1  
 2.011400000000000E10   -1.873980908972737E-1   4.031132589233593E-1  
 2.011600000000000E10   -1.057333479161453E-1   4.303141941095413E-1  
 2.011800000000000E10   -2.222779624174325E-2   4.416734687421876E-1  
 2.012000000000000E10    6.095608754597084E-2   4.376259009533950E-1  
 2.012200000000000E10    1.414423452687689E-1   4.190417168807592E-1  
 2.012400000000000E10    2.149107906103789E-1   3.874490910269761E-1  
 2.012600000000000E10    2.816074621775514E-1   3.439646806409494E-1  
 2.012800000000000E10    3.388818493023495E-1   2.906938805583410E-1  
 2.013000000000000E10    3.862730063528682E-1   2.288716370635890E-1  
 2.013200000000000E10    4.218246850130163E-1   1.613415807935273E-1  
 2.013400000000000E10    4.456337752901478E-1   8.934339158369846E-2  
 2.013600000000000E10    4.576835579996410E-1   1.348473480679044E-2  
 2.013800000000000E10    4.568526191721238E-1  -6.116770008586563E-2  
 2.014000000000000E10    4.440387940374095E-1  -1.355602993273441E-1  
 2.014200000000000E10    4.191287957510014E-1  -2.071573246980728E-1  
 2.014400000000000E10    3.827350275751986E-1  -2.742010615817150E-1  
 2.014600000000000E10    3.358050924515038E-1  -3.339803950204444E-1  
 2.014800000000000E10    2.791732609762577E-1  -3.857043857273579E-1  
 2.015000000000000E10    2.136819886327281E-1  -4.279347475827641E-1  
 2.015200000000000E10    1.413805026698996E-1  -4.589271482453262E-1  
 2.015400000000000E10    6.530330311736944E-2  -4.768488893211297E-1  
 2.015600000000000E10   -1.549073986821541E-2  -4.820700258384517E-1  
 2.015800000000000E10   -9.600682906162594E-2  -4.730088423799586E-1  
 2.016000000000000E10   -1.740624957164783E-1  -4.498391693511618E-1  
 2.016200000000000E10   -2.479248404584631E-1  -4.127673093428829E-1  
 2.016400000000000E10   -3.146714891916440E-1  -3.626659119243649E-1  
 2.016600000000000E10   -3.719313966393962E-1  -3.007581893390426E-1  
 2.016800000000000E10   -4.165910031896887E-1  -2.300760366421178E-1  
 2.017000000000000E10   -4.484377402009951E-1  -1.515437035894198E-1  
 2.017200000000000E10   -4.655319979651966E-1  -6.805540421985305E-2  
 2.017400000000000E10   -4.672365659548913E-1   1.588604437757095E-2  
 2.017600000000000E10   -4.539058167175666E-1   9.844424902616053E-2  
 2.017800000000000E10   -4.259599889175065E-1   1.780873641923622E-1  
 2.018000000000000E10   -3.847297917341173E-1   2.499774859602396E-1  
 2.018200000000000E10   -3.315483444103325E-1   3.134310940492628E-1  
 2.018400000000000E10   -2.694650410134116E-1   3.654769805396699E-1  
 2.018600000000000E10   -1.989839681218518E-1   4.063300528398758E-1  
 2.018800000000000E10   -1.240649352103104E-1   4.337751199842646E-1  
 2.019000000000000E10   -4.698770908723153E-2   4.480295718043267E-1  
 2.019200000000000E10    3.143568189280678E-2   4.490850194573240E-1  
 2.019400000000000E10    1.082264263852307E-1   4.372303160047990E-1  
 2.019600000000000E10    1.807059013835360E-1   4.130892386897602E-1  
 2.019800000000000E10    2.481704482244039E-1   3.774635945082693E-1  
 2.020000000000000E10    3.081040921198162E-1   3.320194317234887E-1  
 2.020200000000000E10    3.600150387637083E-1   2.771705504307531E-1  
 2.020400000000000E10    4.021913611185731E-1   2.148083799169878E-1  
 2.020600000000000E10    4.332116528303045E-1   1.472173057629412E-1  
 2.020800000000000E10    4.531876860168573E-1   7.422381192854569E-2  
 2.021000000000000E10    4.606506934054759E-1  -7.459032996838715E-4  
 2.021200000000000E10    4.557720054406035E-1  -7.640723365937732E-2  
 2.021400000000000E10    4.381216402652333E-1  -1.503401396819103E-1  
 2.021600000000000E10    4.079587754725757E-1  -2.212676017331816E-1  
 2.021800000000000E10    3.653569498261634E-1  -2.867246092346961E-1  
 2.022000000000000E10    3.113788931294561E-1  -3.444990364040040E-1  
 2.022200000000000E10    2.475752932912529E-1  -3.915987754718431E-1  
 2.022400000000000E10    1.742752241622274E-1  -4.278958965149110E-1  
 2.022600000000000E10    9.512078542318529E-2  -4.499483092985690E-1  
 2.022800000000000E10    1.221415551254125E-2  -4.570703363385875E-1  
 2.023000000000000E10   -7.182932215830917E-2  -4.480598134759033E-1  
 2.023200000000000E10   -1.536782406812179E-1  -4.226950352247524E-1  
 2.023400000000000E10   -2.299034321586128E-1  -3.810563413694563E-1  
 2.023600000000000E10   -2.966514757140674E-1  -3.246271643373702E-1  
 2.023800000000000E10   -3.509989531687749E-1  -2.555148846818587E-1  
 2.024000000000000E10   -3.907414135537194E-1  -1.758730263744363E-1  
 2.024200000000000E10   -4.130839770059364E-1  -8.997316854726141E-2  
 2.024400000000000E10   -4.170734264232495E-1  -1.492340183685583E-3  
 2.024600000000000E10   -4.027028423523217E-1   8.607338709227834E-2  
 2.024800000000000E10   -3.708617244891833E-1   1.677877631534111E-1  
 2.025000000000000E10   -3.228547181857467E-1   2.414058864075788E-1  
 2.025200000000000E10   -2.616103456262372E-1   3.026390264145468E-1  
 2.025400000000000E10   -1.900950277374933E-1   3.496696131791925E-1  
 2.025600000000000E10   -1.110796473092503E-1   3.809321313810284E-1  
 2.025800000000000E10   -2.790564442224627E-2   3.957015633664832E-1  
 2.026000000000000E10    5.482660987719751E-2   3.931800539928536E-1  
 2.026200000000000E10    1.351725507951732E-1   3.745209274632124E-1  
 2.026400000000000E10    2.091213842682715E-1   3.408907231234720E-1  
 2.026600000000000E10    2.756127734733708E-1   2.933034856378297E-1  
 2.026800000000000E10    3.303351599738432E-1   2.344706849960307E-1  
 2.027000000000000E10    3.724729001358540E-1   1.665573889295097E-1  
 2.027200000000000E10    4.007990539728042E-1   9.117290956084459E-2  
 2.027400000000000E10    4.138114780637300E-1   1.160562920814638E-2  
 2.027600000000000E10    4.108387304186331E-1  -6.836317689126086E-2  
 2.027800000000000E10    3.922436372242839E-1  -1.474761783218188E-1  
 2.028000000000000E10    3.581486785035729E-1  -2.214243449015219E-1  
 2.028200000000000E10    3.096400176383177E-1  -2.876294529568839E-1  
 2.028400000000000E10    2.482816644002708E-1  -3.431488905096905E-1  
 2.028600000000000E10    1.765953018872990E-1  -3.852969844645434E-1  
 2.028800000000000E10    9.703483084019976E-2  -4.122067884489670E-1  
 2.029000000000000E10    1.302290590165697E-2  -4.222639025238807E-1  
 2.029200000000000E10   -7.177863072793017E-2  -4.152062758905571E-1  
 2.029400000000000E10   -1.538960258533925E-1  -3.904571204519076E-1  
 2.029600000000000E10   -2.288290765059829E-1  -3.493049742426566E-1  
 2.029800000000000E10   -2.938106272609800E-1  -2.935402193432483E-1  
 2.030000000000000E10   -3.462832167397147E-1  -2.251127575446222E-1  
 2.030200000000000E10   -3.828809436293134E-1  -1.485850501534707E-1  
 2.030400000000000E10   -4.033125778366347E-1  -6.676356060065034E-2  
 2.030600000000000E10   -4.068600323628661E-1   1.760360800414583E-2  
 2.030800000000000E10   -3.939699426354696E-1   9.992652293422424E-2  
 2.031000000000000E10   -3.657026910242230E-1   1.766330539689633E-1  
 2.031200000000000E10   -3.235082262092167E-1   2.461893349395368E-1  
 2.031400000000000E10   -2.697922897682269E-1   3.055604658254381E-1  
 2.031600000000000E10   -2.075686858473819E-1   3.531472264739222E-1  
 2.031800000000000E10   -1.380743249658041E-1   3.881066417416101E-1  
 2.032000000000000E10   -6.418940971703852E-2   4.098609990462028E-1  
 2.032200000000000E10    1.164673977060083E-2   4.179679737496606E-1  
 2.032400000000000E10    8.676991227436787E-2   4.128942807270176E-1  
 2.032600000000000E10    1.593079794254486E-1   3.949836624175597E-1  
 2.032800000000000E10    2.279242783253412E-1   3.650147735827254E-1  
 2.033000000000000E10    2.889319498843127E-1   3.245342474006658E-1  
 2.033200000000000E10    3.428592680658333E-1   2.741513558866556E-1  
 2.033400000000000E10    3.876221613301826E-1   2.151708920142615E-1  
 2.033600000000000E10    4.228305583219307E-1   1.503793739896416E-1  
 2.033800000000000E10    4.443456970042817E-1   7.908334580999998E-2  
 2.034000000000000E10    4.549040912518940E-1   5.896631301226113E-3  
 2.034200000000000E10    4.528306551349180E-1  -6.777428430907521E-2  
 2.034400000000000E10    4.384688559628319E-1  -1.407123387105181E-1  
 2.034600000000000E10    4.118361412988279E-1  -2.100138636650863E-1  
 2.034800000000000E10    3.737613039170437E-1  -2.745655271415031E-1  
 2.035000000000000E10    3.248597470575890E-1  -3.319542740352851E-1  
 2.035200000000000E10    2.667069940818845E-1  -3.803668021338140E-1  
 2.035400000000000E10    2.009280948441052E-1  -4.182659414978839E-1  
 2.035600000000000E10    1.287876946854167E-1  -4.447828692745607E-1  
 2.035800000000000E10    5.377395959016555E-2  -4.580679254603812E-1  
 2.036000000000000E10   -2.357979793617673E-2  -4.585982039468606E-1  
 2.036200000000000E10   -1.001923411512244E-1  -4.455218315942135E-1  
 2.036400000000000E10   -1.726920713245133E-1  -4.196401464513955E-1  
 2.036600000000000E10   -2.397635488761960E-1  -3.814968152791876E-1  
 2.036800000000000E10   -2.998004860266410E-1  -3.321804379321257E-1  
 2.037000000000000E10   -3.497537904315525E-1  -2.739016324159049E-1  
 2.037200000000000E10   -3.894940927849550E-1  -2.072532927139633E-1  
 2.037400000000000E10   -4.170454101961501E-1  -1.351719016646162E-1  
 2.037600000000000E10   -4.318641971985827E-1  -6.003056681205217E-2  
 2.037800000000000E10   -4.336014066213444E-1   1.633455727980134E-2  
 2.038000000000000E10   -4.225554948235736E-1   9.179326616973708E-2  
 2.038200000000000E10   -3.991446094830178E-1   1.637461398241452E-1  
 2.038400000000000E10   -3.639901149992427E-1   2.308408680930223E-1  
 2.038600000000000E10   -3.187829686944541E-1   2.902054009532405E-1  
 2.038800000000000E10   -2.640721508096112E-1   3.417403083933398E-1  
 2.039000000000000E10   -2.017253727456670E-1   3.830979212157848E-1  
 2.039200000000000E10   -1.339198145274436E-1   4.135698194529949E-1  
 2.039400000000000E10   -6.196730648293908E-2   4.322627191272129E-1  
 2.039600000000000E10    1.215482370567666E-2   4.389541286908715E-1  
 2.039800000000000E10    8.529663479418095E-2   4.331383731303066E-1  
 2.040000000000000E10    1.576057532074030E-1   4.153273113797559E-1  
 2.040200000000000E10    2.258169607493123E-1   3.856126325529463E-1  
 2.040400000000000E10    2.877467157745885E-1   3.453044070056110E-1  
 2.040600000000000E10    3.422532344060671E-1   2.949288995177658E-1  
 2.040800000000000E10    3.878539251610739E-1   2.359901549108072E-1  
 2.041000000000000E10    4.224285831667269E-1   1.704650590367442E-1  
 2.041200000000000E10    4.462017990924695E-1   9.889862698659978E-2  
 2.041400000000000E10    4.571364935288214E-1   2.445813085480155E-2  
 2.041600000000000E10    4.552105737157647E-1  -5.083948427962015E-2  
 2.041800000000000E10    4.401281662029822E-1  -1.253012377354834E-1  
 2.042000000000000E10    4.126505274913276E-1  -1.959971358133442E-1  
 2.042200000000000E10    3.730936546302791E-1  -2.609013312883338E-1  
 2.042400000000000E10    3.222952846882276E-1  -3.188428008834358E-1  
 2.042600000000000E10    2.620663572567809E-1  -3.667727248904146E-1  
 2.042800000000000E10    1.940228656772397E-1  -4.035081542895492E-1  
 2.043000000000000E10    1.200439905331295E-1  -4.277556037379555E-1  
 2.043200000000000E10    4.278661232998669E-2  -4.385543693730861E-1  
 2.043400000000000E10   -3.566875023095369E-2  -4.353677930491779E-1  
 2.043600000000000E10   -1.126818521809349E-1  -4.180188163481295E-1  
 2.043800000000000E10   -1.853792958871164E-1  -3.869640670604340E-1  
 2.044000000000000E10   -2.516383448173644E-1  -3.429799086027185E-1  
 2.044200000000000E10   -3.090222358131278E-1  -2.873938186669056E-1  
 2.044400000000000E10   -3.552815683584646E-1  -2.222633409034078E-1  
 2.044600000000000E10   -3.892995243373396E-1  -1.489712953853673E-1  
 2.044800000000000E10   -4.090305009987130E-1  -7.060848317519139E-2  
 2.045000000000000E10   -4.139201264567827E-1   1.007640071913335E-2  
 2.045200000000000E10   -4.033996573609744E-1   9.100218209219568E-2  
 2.045400000000000E10   -3.778782070337173E-1   1.685777315550544E-1  
 2.045600000000000E10   -3.383335882825944E-1   2.395974307312070E-1  
 2.045800000000000E10   -2.854458458302607E-1   3.029329399431358E-1  
 2.046000000000000E10   -2.215997911120966E-1   3.545421936711494E-1  
 2.046200000000000E10   -1.495414900763372E-1   3.929872372595208E-1  
 2.046400000000000E10   -7.070094357220400E-2   4.171610120964967E-1  
 2.046600000000000E10    1.113260904038312E-2   4.257509394846499E-1  
 2.046800000000000E10    9.222345654079781E-2   4.183490058031593E-1  
 2.047000000000000E10    1.715201565226737E-1   3.956193194631360E-1  
 2.047200000000000E10    2.445384584500139E-1   3.581042516623996E-1  
 2.047400000000000E10    3.084236669197005E-1   3.076530388762104E-1  
 2.047600000000000E10    3.617265462384793E-1   2.455983963400249E-1  
 2.047800000000000E10    4.020662992497694E-1   1.746866303011878E-1  
 2.048000000000000E10    4.277915848707794E-1   9.784743080454765E-2  
 2.048200000000000E10    4.384727327993705E-1   1.702994794747058E-2  
 2.048400000000000E10    4.340177698390474E-1  -6.447939298771047E-2  
 2.048600000000000E10    4.139235970987051E-1  -1.432518752800258E-1  
 2.048800000000000E10    3.791438790015234E-1  -2.172066534579373E-1  
 2.049000000000000E10    3.307918395606906E-1  -2.830877338417274E-1  
 2.049200000000000E10    2.705121702209259E-1  -3.388622029900388E-1  
 2.049400000000000E10    2.003145090346474E-1  -3.822098083702135E-1  
 2.049600000000000E10    1.227352262585742E-1  -4.116940811501283E-1  
 2.049800000000000E10    4.032332926927280E-2  -4.257055730322589E-1  
 2.050000000000000E10   -4.389330226575397E-2  -4.237153692827631E-1  
 2.050200000000000E10   -1.264472106274918E-1  -4.053655360788312E-1  
 2.050400000000000E10   -2.046669792532104E-1  -3.709410261797154E-1  
 2.050600000000000E10   -2.751201912045316E-1  -3.214113861935620E-1  
 2.050800000000000E10   -3.347753048024878E-1  -2.587228218305586E-1  
 2.051000000000000E10   -3.815240100005691E-1  -1.846347837740829E-1  
 2.051200000000000E10   -4.126022966637370E-1  -1.022099086961138E-1  
 2.051400000000000E10   -4.267965940699821E-1  -1.516894226579510E-2  
 2.051600000000000E10   -4.231163238383452E-1   7.335665988619600E-2  
 2.051800000000000E10   -4.018475889996083E-1   1.594187153505854E-1  
 2.052000000000000E10   -3.638753845204379E-1   2.391364014974511E-1  
 2.052200000000000E10   -3.107184524889346E-1   3.101156269326623E-1  
 2.052400000000000E10   -2.447906798173371E-1   3.686550535946390E-1  
 2.052600000000000E10   -1.692621894129673E-1   4.127776390976377E-1  
 2.052800000000000E10   -8.680611853941316E-2   4.411675853575536E-1  
 2.053000000000000E10   -1.567030834310033E-3   4.528294327082458E-1  
 2.053200000000000E10    8.355183858521520E-2   4.480428829359910E-1  
 2.053400000000000E10    1.657064255986194E-1   4.272300454242404E-1  
 2.053600000000000E10    2.413531637690523E-1   3.919959087921269E-1  
 2.053800000000000E10    3.085110020735628E-1   3.438947754714061E-1  
 2.054000000000000E10    3.656059659721103E-1   2.847260383503264E-1  
 2.054200000000000E10    4.101172402317142E-1   2.174116821527808E-1  
 2.054400000000000E10    4.420315855488039E-1   1.436666472622070E-1  
 2.054600000000000E10    4.603940717804417E-1   6.578169373695744E-2  
 2.054800000000000E10    4.642904892216331E-1  -1.328477563543452E-2  
 2.055000000000000E10    4.547967557145082E-1  -9.194011992387813E-2  
 2.055200000000000E10    4.316829702164085E-1  -1.678473875028770E-1  
 2.055400000000000E10    3.961905799448409E-1  -2.379121642830605E-1  
 2.055600000000000E10    3.489885661745922E-1  -3.013879502261127E-1  
