#  HZ   S   RI   R     50.00 
! Rohde & Schwarz ZVA40 4Ports - Version 3.90 - 1145.1110k42 SN: 100403
! Date: 2023-09-28 11:52:12
! Measurement: S22 
! 
 2.000000000000000E10   -2.008644133459497E-1   4.076619753486473E-1  
 2.000200000000000E10   -1.214508871355790E-1   4.378485636857769E-1  
 2.000400000000000E10   -3.792998791318854E-2   4.525314938548853E-1  
 2.000600000000000E10    4.818887843625393E-2   4.520036069975855E-1  
 2.000800000000000E10    1.310654322673741E-1   4.361653308026238E-1  
 2.001000000000000E10    2.095860620211517E-1   4.059100427418253E-1  
 2.001200000000000E10    2.797509630566563E-1   3.630976126575315E-1  
 2.001400000000000E10    3.420288230320464E-1   3.082799544987339E-1  
 2.001600000000000E10    3.927006374456414E-1   2.444904451732194E-1  
 2.001800000000000E10    4.305119883182579E-1   1.744649142219194E-1  
 2.002000000000000E10    4.561832154764569E-1   9.845243628330827E-2  
 2.002200000000000E10    4.671049069570130E-1   1.816957193388636E-2  
 2.002400000000000E10    4.658039546477814E-1  -5.993222695854491E-2  
 2.002600000000000E10    4.516820513584764E-1  -1.351793421094760E-1  
 2.002800000000000E10    4.248426026591509E-1  -2.094833547636388E-1  
 2.003000000000000E10    3.862961615919997E-1  -2.767263436778139E-1  
 2.003200000000000E10    3.372226954293810E-1  -3.363932152430685E-1  
 2.003400000000000E10    2.780150665294331E-1  -3.877519474063620E-1  
 2.003600000000000E10    2.101518427229031E-1  -4.289795738306920E-1  
 2.003800000000000E10    1.365762326615487E-1  -4.573211666414176E-1  
 2.004000000000000E10    5.836267266354061E-2  -4.729203984620063E-1  
 2.004200000000000E10   -2.329217049441683E-2  -4.747542605036456E-1  
 2.004400000000000E10   -1.045202512306861E-1  -4.617340942009873E-1  
 2.004600000000000E10   -1.821567649682751E-1  -4.341023193940772E-1  
 2.004800000000000E10   -2.558421482583442E-1  -3.917049152077615E-1  
 2.005000000000000E10   -3.211637833072653E-1  -3.354745155864712E-1  
 2.005200000000000E10   -3.746206290692742E-1  -2.673037499474535E-1  
 2.005400000000000E10   -4.147061939792579E-1  -1.891111127505927E-1  
 2.005600000000000E10   -4.391678488515581E-1  -1.031423988135145E-1  
 2.005800000000000E10   -4.461169789292839E-1  -1.294649644360858E-2  
 2.006000000000000E10   -4.348426557376175E-1   7.592637609916852E-2  
 2.006200000000000E10   -4.052262094065703E-1   1.632053678359333E-1  
 2.006400000000000E10   -3.586821875453458E-1   2.416374850169971E-1  
 2.006600000000000E10   -2.966917678906849E-1   3.093786266040281E-1  
 2.006800000000000E10   -2.238276389833188E-1   3.619402804395530E-1  
 2.007000000000000E10   -1.413709662477279E-1   3.990008838206122E-1  
 2.007200000000000E10   -5.384733892024483E-2   4.183687135350338E-1  
 2.007400000000000E10    3.430039458664858E-2   4.196622970188040E-1  
 2.007600000000000E10    1.208543496824635E-1   4.032958773301336E-1  
 2.007800000000000E10    2.010035032000510E-1   3.706344185106604E-1  
 2.008000000000000E10    2.724453417623447E-1   3.233611972988643E-1  
 2.008200000000000E10    3.322069659105141E-1   2.641252686926755E-1  
 2.008400000000000E10    3.796502835873850E-1   1.952472524473142E-1  
 2.008600000000000E10    4.127236367635687E-1   1.191166524457157E-1  
 2.008800000000000E10    4.307745166869751E-1   3.875600755401180E-2  
 2.009000000000000E10    4.331623720190855E-1  -4.225630299978928E-2  
 2.009200000000000E10    4.207031511085888E-1  -1.229117113877523E-1  
 2.009400000000000E10    3.936760812560239E-1  -1.991141271290585E-1  
 2.009600000000000E10    3.527396577469782E-1  -2.699843547455607E-1  
 2.009800000000000E10    2.997525352623488E-1  -3.311309438942551E-1  
 2.010000000000000E10    2.340188573281080E-1  -3.824677517751075E-1  
 2.010200000000000E10    1.595062331087162E-1  -4.203716800714296E-1  
 2.010400000000000E10    7.881800136760839E-2  -4.432498243206792E-1  
 2.010600000000000E10   -6.542724809636498E-3  -4.503375349098259E-1  
 2.010800000000000E10   -9.253492073067729E-2  -4.402745592416290E-1  
 2.011000000000000E10   -1.760990549674513E-1  -4.127641569391315E-1  
 2.011200000000000E10   -2.525382727224577E-1  -3.684751858611150E-1  
 2.011400000000000E10   -3.197899358226403E-1  -3.081638407634739E-1  
 2.011600000000000E10   -3.732697317914339E-1  -2.345898484631670E-1  
 2.011800000000000E10   -4.102197372965246E-1  -1.515093177938549E-1  
 2.012000000000000E10   -4.288859138850301E-1  -6.198907869664412E-2  
 2.012200000000000E10   -4.282869795973343E-1   3.054834751228340E-2  
 2.012400000000000E10   -4.082444222192987E-1   1.193848391808251E-1  
 2.012600000000000E10   -3.699827934621072E-1   2.019754660409860E-1  
 2.012800000000000E10   -3.158973172673179E-1   2.739171371900832E-1  
 2.013000000000000E10   -2.480988121165049E-1   3.331032908011857E-1  
 2.013200000000000E10   -1.718768385992391E-1   3.760726725802390E-1  
 2.013400000000000E10   -8.941465038641858E-2   4.026045380168573E-1  
 2.013600000000000E10   -3.505817995674166E-3   4.121843858404882E-1  
 2.013800000000000E10    8.000047432148670E-2   4.048320522682680E-1  
 2.014000000000000E10    1.593665943036998E-1   3.819380966184158E-1  
 2.014200000000000E10    2.320709866838683E-1   3.449455025286963E-1  
 2.014400000000000E10    2.961776254062991E-1   2.955448709647984E-1  
 2.014600000000000E10    3.489775523109565E-1   2.362082181582474E-1  
 2.014800000000000E10    3.896081011753269E-1   1.692554477257972E-1  
 2.015000000000000E10    4.175794944314765E-1   9.594990659495228E-2  
 2.015200000000000E10    4.320259002119536E-1   1.904958549929022E-2  
 2.015400000000000E10    4.322889554825409E-1  -5.749171101576733E-2  
 2.015600000000000E10    4.190702272846600E-1  -1.345358920521001E-1  
 2.015800000000000E10    3.925168587444021E-1  -2.072740127522325E-1  
 2.016000000000000E10    3.531173381901880E-1  -2.749225926608381E-1  
 2.016200000000000E10    3.022251161572637E-1  -3.343799476030084E-1  
 2.016400000000000E10    2.411217789279188E-1  -3.841259999424318E-1  
 2.016600000000000E10    1.710805422935331E-1  -4.225993154318393E-1  
 2.016800000000000E10    9.496220699435527E-2  -4.478918765317549E-1  
 2.017000000000000E10    1.487989589708476E-2  -4.589734509470954E-1  
 2.017200000000000E10   -6.725901632294305E-2  -4.551806071659204E-1  
 2.017400000000000E10   -1.475696302641882E-1  -4.361777710669125E-1  
 2.017600000000000E10   -2.237611857397243E-1  -4.022213988353479E-1  
 2.017800000000000E10   -2.924543369755935E-1  -3.545891961003988E-1  
 2.018000000000000E10   -3.511940323742632E-1  -2.946026710588245E-1  
 2.018200000000000E10   -3.985225104142388E-1  -2.236672698528847E-1  
 2.018400000000000E10   -4.309703729215627E-1  -1.462278774773698E-1  
 2.018600000000000E10   -4.487334129907198E-1  -6.373156389597966E-2  
 2.018800000000000E10   -4.508424297056647E-1   2.046734822798585E-2  
 2.019000000000000E10   -4.375532535053588E-1   1.033480052867579E-1  
 2.019200000000000E10   -4.097761820283385E-1   1.809661093250811E-1  
 2.019400000000000E10   -3.689181488055570E-1   2.520558644251351E-1  
 2.019600000000000E10   -3.158688194633760E-1   3.143083176796930E-1  
 2.019800000000000E10   -2.531155755883093E-1   3.658842909409575E-1  
 2.020000000000000E10   -1.849449675189331E-1   4.043281046466507E-1  
 2.020200000000000E10   -1.106462734345195E-1   4.309285353343614E-1  
 2.020400000000000E10   -3.384651251213089E-2   4.443687868286051E-1  
 2.020600000000000E10    4.240298608814191E-2   4.448226503354694E-1  
 2.020800000000000E10    1.167308525517541E-1   4.328717497557387E-1  
 2.021000000000000E10    1.880082188573130E-1   4.091276581130846E-1  
 2.021200000000000E10    2.541310070610751E-1   3.742337493498252E-1  
 2.021400000000000E10    3.125549013619621E-1   3.302038820428359E-1  
 2.021600000000000E10    3.631390166754250E-1   2.778397527370335E-1  
 2.021800000000000E10    4.051839015458986E-1   2.176245419472352E-1  
 2.022000000000000E10    4.368647122450143E-1   1.521468404035415E-1  
 2.022200000000000E10    4.576628828775886E-1   8.319190499043636E-2  
 2.022400000000000E10    4.675706467072659E-1   1.053932365928425E-2  
 2.022600000000000E10    4.657674761766844E-1  -6.211288887636129E-2  
 2.022800000000000E10    4.527787878713443E-1  -1.344082766886793E-1  
 2.023000000000000E10    4.281501053802836E-1  -2.037199439049094E-1  
 2.023200000000000E10    3.923970190203321E-1  -2.690303743422596E-1  
 2.023400000000000E10    3.460689699850280E-1  -3.279700847483140E-1  
 2.023600000000000E10    2.899858024940416E-1  -3.793497032294636E-1  
 2.023800000000000E10    2.254910129176771E-1  -4.208406099854389E-1  
 2.024000000000000E10    1.538231265066128E-1  -4.514636772882424E-1  
 2.024200000000000E10    7.788941289879862E-2  -4.692086213074014E-1  
 2.024400000000000E10   -2.051382746158712E-3  -4.743756159902070E-1  
 2.024600000000000E10   -8.194530311822448E-2  -4.650325156040069E-1  
 2.024800000000000E10   -1.591995064130748E-1  -4.415387465027432E-1  
 2.025000000000000E10   -2.322427084242901E-1  -4.039986672827440E-1  
 2.025200000000000E10   -2.981746271064630E-1  -3.532699901006166E-1  
 2.025400000000000E10   -3.534307748169643E-1  -2.912870827242088E-1  
 2.025600000000000E10   -3.966494800850699E-1  -2.198711484612598E-1  
 2.025800000000000E10   -4.260561000354188E-1  -1.415435588903501E-1  
 2.026000000000000E10   -4.404941947875568E-1  -5.858430333007673E-2  
 2.026200000000000E10   -4.390611569033213E-1   2.486343545579804E-2  
 2.026400000000000E10   -4.222891113145740E-1   1.058978787960000E-1  
 2.026600000000000E10   -3.906858719750468E-1   1.829716714209801E-1  
 2.026800000000000E10   -3.458251188093243E-1   2.520650636917849E-1  
 2.027000000000000E10   -2.896189375583578E-1   3.111155900467212E-1  
 2.027200000000000E10   -2.238422627142599E-1   3.586149437516067E-1  
 2.027400000000000E10   -1.513192021760366E-1   3.931082524772454E-1  
 2.027600000000000E10   -7.455856614115762E-2   4.131849751227955E-1  
 2.027800000000000E10    4.645372787948666E-3   4.191736055900469E-1  
 2.028000000000000E10    8.202105747489866E-2   4.108891399868192E-1  
 2.028200000000000E10    1.568912215359651E-1   3.890163866116432E-1  
 2.028400000000000E10    2.260123934276858E-1   3.541353840476991E-1  
 2.028600000000000E10    2.879947918510455E-1   3.075667603640442E-1  
 2.028800000000000E10    3.400592170974323E-1   2.507686555566275E-1  
 2.029000000000000E10    3.809988959559068E-1   1.854808459964949E-1  
 2.029200000000000E10    4.092883681608589E-1   1.135572033546256E-1  
 2.029400000000000E10    4.243387562268376E-1   3.655312266413073E-2  
 2.029600000000000E10    4.243496420321921E-1  -4.138907840320150E-2  
 2.029800000000000E10    4.097557516972697E-1  -1.191090841081178E-1  
 2.030000000000000E10    3.801268961705610E-1  -1.932452306342926E-1  
 2.030200000000000E10    3.362312047195349E-1  -2.609499987442489E-1  
 2.030400000000000E10    2.791797694544133E-1  -3.191175135502810E-1  
 2.030600000000000E10    2.108206758990890E-1  -3.653146188772592E-1  
 2.030800000000000E10    1.339450726997306E-1  -3.967759139584366E-1  
 2.031000000000000E10    5.063233230557680E-2  -4.122347753350444E-1  
 2.031200000000000E10   -3.446971983039012E-2  -4.096884107397530E-1  
 2.031400000000000E10   -1.175653968810052E-1  -3.891289234635801E-1  
 2.031600000000000E10   -1.927939021281420E-1  -3.516288651791424E-1  
 2.031800000000000E10   -2.611494144336883E-1  -2.981753503511749E-1  
 2.032000000000000E10   -3.163941299457648E-1  -2.310676096958376E-1  
 2.032200000000000E10   -3.557656243443237E-1  -1.536216143967306E-1  
 2.032400000000000E10   -3.772709736226628E-1  -7.033806694383359E-2  
 2.032600000000000E10   -3.805214389488658E-1   1.569277278436219E-2  
 2.032800000000000E10   -3.654675535481294E-1   9.971804677767325E-2  
 2.033000000000000E10   -3.334349774982640E-1   1.778026969835606E-1  
 2.033200000000000E10   -2.860411879445970E-1   2.471397867688628E-1  
 2.033400000000000E10   -2.262217947579910E-1   3.044587262017081E-1  
 2.033600000000000E10   -1.579499333583624E-1   3.469603068827695E-1  
 2.033800000000000E10   -7.850436579068451E-2   3.768751776700510E-1  
 2.034000000000000E10    1.012952049461841E-3   3.890619294139990E-1  
 2.034200000000000E10    8.041488901849392E-2   3.853662037607573E-1  
 2.034400000000000E10    1.576228923027549E-1   3.663345154287587E-1  
 2.034600000000000E10    2.293294853247701E-1   3.329377937264204E-1  
 2.034800000000000E10    2.929734083090603E-1   2.865121012001584E-1  
 2.035000000000000E10    3.463086793450115E-1   2.289905517200190E-1  
 2.035200000000000E10    3.877656030582029E-1   1.625390165713048E-1  
 2.035400000000000E10    4.159734763257921E-1   8.902680130516170E-2  
 2.035600000000000E10    4.296105755590990E-1   1.176803536674892E-2  
 2.035800000000000E10    4.284227926520467E-1  -6.660331532556717E-2  
 2.036000000000000E10    4.123625193780383E-1  -1.442183440490251E-1  
 2.036200000000000E10    3.819675983304620E-1  -2.168592039489588E-1  
 2.036400000000000E10    3.382595564768368E-1  -2.829589321869945E-1  
 2.036600000000000E10    2.821537047822937E-1  -3.405033917127794E-1  
 2.036800000000000E10    2.165610434839463E-1  -3.858884547293307E-1  
 2.037000000000000E10    1.436821992091377E-1  -4.180495917451872E-1  
 2.037200000000000E10    6.510302854502550E-2  -4.362431072208040E-1  
 2.037400000000000E10   -1.521573260985609E-2  -4.392563225587105E-1  
 2.037600000000000E10   -9.463114905327384E-2  -4.272018923443759E-1  
 2.037800000000000E10   -1.707404348316333E-1  -4.005091370709590E-1  
 2.038000000000000E10   -2.400367306699786E-1  -3.603240828363374E-1  
 2.038200000000000E10   -3.005559723443527E-1  -3.081831719117714E-1  
 2.038400000000000E10   -3.503394326427191E-1  -2.461354484839570E-1  
 2.038600000000000E10   -3.880060134407395E-1  -1.762273254409209E-1  
 2.038800000000000E10   -4.122835663200187E-1  -1.005521868868400E-1  
 2.039000000000000E10   -4.224624576595898E-1  -2.270503807281412E-2  
 2.039200000000000E10   -4.186636458908054E-1   5.530028572373322E-2  
 2.039400000000000E10   -4.011058868109241E-1   1.315047129968230E-1  
 2.039600000000000E10   -3.708357219742559E-1   2.022705677202201E-1  
 2.039800000000000E10   -3.288527670696015E-1   2.667416805980689E-1  
 2.040000000000000E10   -2.763316260061228E-1   3.227942413795319E-1  
 2.040200000000000E10   -2.158237162026530E-1   3.682336822503161E-1  
 2.040400000000000E10   -1.486151061377886E-1   4.025694280693734E-1  
 2.040600000000000E10   -7.591710470551333E-2   4.252060347310870E-1  
 2.040800000000000E10   -1.744139237821388E-3   4.347624195424724E-1  
 2.041000000000000E10    7.302241118504908E-2   4.317595871092939E-1  
 2.041200000000000E10    1.462284577010651E-1   4.160034500469890E-1  
 2.041400000000000E10    2.151850374340537E-1   3.883537183811438E-1  
 2.041600000000000E10    2.782978863561202E-1   3.493235777512714E-1  
 2.041800000000000E10    3.345014251829532E-1   2.999808327337392E-1  
 2.042000000000000E10    3.808215179137146E-1   2.424986241113589E-1  
 2.042200000000000E10    4.170292957626223E-1   1.778005197432006E-1  
 2.042400000000000E10    4.414921833136664E-1   1.081428272789481E-1  
 2.042600000000000E10    4.539280319200140E-1   3.523492430014063E-2  
 2.042800000000000E10    4.537195678807979E-1  -3.890762137285925E-2  
 2.043000000000000E10    4.410482970473587E-1  -1.120899219066094E-1  
 2.043200000000000E10    4.158821802702211E-1  -1.818474620175900E-1  
 2.043400000000000E10    3.791368917809484E-1  -2.466182630339368E-1  
 2.043600000000000E10    3.323233850841230E-1  -3.036747369790018E-1  
 2.043800000000000E10    2.762055639332443E-1  -3.522371727330419E-1  
 2.044000000000000E10    2.122969108498263E-1  -3.905936096512569E-1  
 2.044200000000000E10    1.428532610618060E-1  -4.173805377964212E-1  
 2.044400000000000E10    6.952459789914389E-2  -4.319088979946104E-1  
 2.044600000000000E10   -5.399070664858353E-3  -4.335177060951075E-1  
 2.044800000000000E10   -7.913744624041511E-2  -4.222040634643506E-1  
 2.045000000000000E10   -1.503236086760232E-1  -3.982460429397744E-1  
 2.045200000000000E10   -2.164979747326729E-1  -3.621261484234454E-1  
 2.045400000000000E10   -2.750630048378617E-1  -3.150775727203136E-1  
 2.045600000000000E10   -3.250228680854354E-1  -2.581311644418700E-1  
 2.045800000000000E10   -3.640572086922166E-1  -1.931872574285734E-1  
 2.046000000000000E10   -3.909012938282041E-1  -1.227510377832080E-1  
 2.046200000000000E10   -4.050630871750027E-1  -4.809662657417746E-2  
 2.046400000000000E10   -4.057175565826620E-1   2.822865023238097E-2  
 2.046600000000000E10   -3.926734880079018E-1   1.027328499934258E-1  
 2.046800000000000E10   -3.662282649126281E-1   1.743515250225023E-1  
 2.047000000000000E10   -3.271875056046072E-1   2.398338882219548E-1  
 2.047200000000000E10   -2.775029546703868E-1   2.966775228373415E-1  
 2.047400000000000E10   -2.180495896883126E-1   3.437851682621029E-1  
 2.047600000000000E10   -1.509325456999508E-1   3.794426917106176E-1  
 2.047800000000000E10   -7.918857221897718E-2   4.017402952644097E-1  
 2.048000000000000E10   -4.445982202761991E-3   4.107200928931657E-1  
 2.048200000000000E10    7.049877058084568E-2   4.057859019696432E-1  
 2.048400000000000E10    1.424107437503819E-1   3.873840612804669E-1  
 2.048600000000000E10    2.096435056417370E-1   3.562805012026702E-1  
 2.048800000000000E10    2.699229348845263E-1   3.134877391213917E-1  
 2.049000000000000E10    3.209977397561532E-1   2.608242686763784E-1  
 2.049200000000000E10    3.612570122708782E-1   1.998612606457690E-1  
 2.049400000000000E10    3.897944883774613E-1   1.328634126457115E-1  
 2.049600000000000E10    4.052310019605852E-1   6.224771277915393E-2  
 2.049800000000000E10    4.075631408615177E-1  -9.821167817092406E-3  
 2.050000000000000E10    3.969456303579749E-1  -8.102329582438753E-2  
 2.050200000000000E10    3.735058237776353E-1  -1.492369511794833E-1  
 2.050400000000000E10    3.378681835009769E-1  -2.117948364656009E-1  
 2.050600000000000E10    2.913499527978753E-1  -2.667329913842192E-1  
 2.050800000000000E10    2.351709578303807E-1  -3.122906622135617E-1  
 2.051000000000000E10    1.713401192075306E-1  -3.465784734325120E-1  
 2.051200000000000E10    1.021012234599785E-1  -3.683896074332554E-1  
 2.051400000000000E10    2.938093360717287E-2  -3.768170474420429E-1  
 2.051600000000000E10   -4.409033984106596E-2  -3.713704166815068E-1  
 2.051800000000000E10   -1.153630500439453E-1  -3.517506626743930E-1  
 2.052000000000000E10   -1.822581228895429E-1  -3.184989923298209E-1  
 2.052200000000000E10   -2.415470246445584E-1  -2.723340678275390E-1  
 2.052400000000000E10   -2.909218566053580E-1  -2.151270750863044E-1  
 2.052600000000000E10   -3.281574999127906E-1  -1.486906899205938E-1  
 2.052800000000000E10   -3.513101121146168E-1  -7.584560483236816E-2  
 2.053000000000000E10   -3.593597150667166E-1   4.244192223414037E-4  
 2.053200000000000E10   -3.517585426039550E-1   7.681086058491897E-2  
 2.053400000000000E10   -3.287887542571268E-1   1.498957547666108E-1  
 2.053600000000000E10   -2.913480916781968E-1   2.167370177440901E-1  
 2.053800000000000E10   -2.411058703746422E-1   2.746503099645979E-1  
 2.054000000000000E10   -1.807205626569547E-1   3.203893500029780E-1  
 2.054200000000000E10   -1.126370449012482E-1   3.531059977168402E-1  
 2.054400000000000E10   -3.974646637623602E-2   3.712586996707709E-1  
 2.054600000000000E10    3.396752865327627E-2   3.743940733810871E-1  
 2.054800000000000E10    1.065676907787899E-1   3.630258488711416E-1  
 2.055000000000000E10    1.750624257801861E-1   3.377010258722412E-1  
 2.055200000000000E10    2.361232689975245E-1   3.002659555427243E-1  
 2.055400000000000E10    2.886859577305422E-1   2.520950497989459E-1  
 2.055600000000000E10    3.311313792981654E-1   1.951530445593900E-1  
