#  HZ   S   RI   R     50.00 
! Rohde & Schwarz ZVA40 4Ports - Version 3.90 - 1145.1110k42 SN: 100403
! Date: 2023-09-28 12:00:43
! Measurement: S22 
! 
 2.000000000000000E10   -2.584308181216379E-1   4.068904989304621E-1  
 2.000200000000000E10   -1.788736408761754E-1   4.473080716969273E-1  
 2.000400000000000E10   -9.317480988495056E-2   4.721143774971006E-1  
 2.000600000000000E10   -2.957453189296780E-3   4.813831182873263E-1  
 2.000800000000000E10    8.549318372104031E-2   4.743519654371739E-1  
 2.001000000000000E10    1.713290730140101E-1   4.516696833088856E-1  
 2.001200000000000E10    2.496824416853891E-1   4.150334111284401E-1  
 2.001400000000000E10    3.213229000686492E-1   3.648511709199958E-1  
 2.001600000000000E10    3.818103354427078E-1   3.041701686126106E-1  
 2.001800000000000E10    4.297868137115423E-1   2.354355679995003E-1  
 2.002000000000000E10    4.658412431602235E-1   1.591029865946863E-1  
 2.002200000000000E10    4.870578128332919E-1   7.648325778488307E-2  
 2.002400000000000E10    4.953287046659904E-1  -5.119609486097617E-3  
 2.002600000000000E10    4.901807762113510E-1  -8.498928886241366E-2  
 2.002800000000000E10    4.717797970757255E-1  -1.657740130822954E-1  
 2.003000000000000E10    4.408098456518369E-1  -2.402503698373819E-1  
 2.003200000000000E10    3.981796383648780E-1  -3.088739468654906E-1  
 2.003400000000000E10    3.441015361940111E-1  -3.703335555674300E-1  
 2.003600000000000E10    2.800650351241202E-1  -4.225725364010975E-1  
 2.003800000000000E10    2.085936536010020E-1  -4.627348623466899E-1  
 2.004000000000000E10    1.305378012641904E-1  -4.909146820430512E-1  
 2.004200000000000E10    4.667345520220794E-2  -5.059018168139070E-1  
 2.004400000000000E10   -3.860441183552403E-2  -5.060525097383304E-1  
 2.004600000000000E10   -1.230954851610525E-1  -4.911237458342588E-1  
 2.004800000000000E10   -2.064182334780385E-1  -4.608062421552403E-1  
 2.005000000000000E10   -2.839509228838052E-1  -4.152893774975657E-1  
 2.005200000000000E10   -3.518877636276174E-1  -3.556851458756631E-1  
 2.005400000000000E10   -4.089844293882164E-1  -2.831488737353572E-1  
 2.005600000000000E10   -4.520705208747857E-1  -1.994296620757347E-1  
 2.005800000000000E10   -4.785562694672314E-1  -1.079120852463112E-1  
 2.006000000000000E10   -4.864488130679783E-1  -1.345745428037901E-2  
 2.006200000000000E10   -4.754584778183719E-1   8.423958570469156E-2  
 2.006400000000000E10   -4.451403961214711E-1   1.768267948332038E-1  
 2.006600000000000E10   -3.964893501073082E-1   2.620124573833677E-1  
 2.006800000000000E10   -3.325261042178395E-1   3.349210341844122E-1  
 2.007000000000000E10   -2.547936477124774E-1   3.941399451800008E-1  
 2.007200000000000E10   -1.673595824790899E-1   4.361871075855489E-1  
 2.007400000000000E10   -7.495270786766345E-2   4.595294235465259E-1  
 2.007600000000000E10    2.153918264960938E-2   4.642305972190589E-1  
 2.007800000000000E10    1.146524854423415E-1   4.499712785403008E-1  
 2.008000000000000E10    2.023320548137575E-1   4.181411822945802E-1  
 2.008200000000000E10    2.808813102460457E-1   3.707032387503000E-1  
 2.008400000000000E10    3.494361334640321E-1   3.099987960192439E-1  
 2.008600000000000E10    4.041236458555481E-1   2.383754209894503E-1  
 2.008800000000000E10    4.441659577080725E-1   1.587826318492651E-1  
 2.009000000000000E10    4.685390275201681E-1   7.383418033452247E-2  
 2.009200000000000E10    4.772550465447968E-1  -1.408576614379138E-2  
 2.009400000000000E10    4.698279465167848E-1  -1.006267808117694E-1  
 2.009600000000000E10    4.470233842287644E-1  -1.855261326131434E-1  
 2.009800000000000E10    4.094589519811429E-1  -2.644457215762070E-1  
 2.010000000000000E10    3.566760195635238E-1  -3.361259214335909E-1  
 2.010200000000000E10    2.912312678548735E-1  -3.972099634400412E-1  
 2.010400000000000E10    2.152197525675133E-1  -4.452598698163539E-1  
 2.010600000000000E10    1.296789775037708E-1  -4.792012647555163E-1  
 2.010800000000000E10    3.893052754735479E-2  -4.961090072492078E-1  
 2.011000000000000E10   -5.566312164190866E-2  -4.952794167121870E-1  
 2.011200000000000E10   -1.491874128312095E-1  -4.754411277111812E-1  
 2.011400000000000E10   -2.387403677311491E-1  -4.365104788315586E-1  
 2.011600000000000E10   -3.191680421581757E-1  -3.793506752679742E-1  
 2.011800000000000E10   -3.868716046625186E-1  -3.062685680105963E-1  
 2.012000000000000E10   -4.384183409855036E-1  -2.196458458032864E-1  
 2.012200000000000E10   -4.710899157424905E-1  -1.230079805641127E-1  
 2.012400000000000E10   -4.823650640152047E-1  -2.237803460778878E-2  
 2.012600000000000E10   -4.719488404996692E-1   7.923821830232594E-2  
 2.012800000000000E10   -4.405032170289466E-1   1.754989738967466E-1  
 2.013000000000000E10   -3.895985301611828E-1   2.626944072561609E-1  
 2.013200000000000E10   -3.228254047513572E-1   3.364368372393389E-1  
 2.013400000000000E10   -2.432910044338442E-1   3.941157118673825E-1  
 2.013600000000000E10   -1.537628215753965E-1   4.343429749476404E-1  
 2.013800000000000E10   -6.148953753600323E-2   4.547420007311123E-1  
 2.014000000000000E10    3.240991547939946E-2   4.567701453988899E-1  
 2.014200000000000E10    1.234073129787330E-1   4.407064930329035E-1  
 2.014400000000000E10    2.084445482396150E-1   4.082233533637951E-1  
 2.014600000000000E10    2.837545258245569E-1   3.613507280106626E-1  
 2.014800000000000E10    3.488083401661679E-1   3.019743059861044E-1  
 2.015000000000000E10    4.014634582994915E-1   2.322402725067467E-1  
 2.015200000000000E10    4.402352024589148E-1   1.548897676729717E-1  
 2.015400000000000E10    4.636885060476942E-1   7.409764720801809E-2  
 2.015600000000000E10    4.730526831587575E-1  -1.169363541335249E-2  
 2.015800000000000E10    4.668965506228419E-1  -9.644421329019166E-2  
 2.016000000000000E10    4.458996258736239E-1  -1.781531589194017E-1  
 2.016200000000000E10    4.103622576745614E-1  -2.559708791105436E-1  
 2.016400000000000E10    3.614659823080949E-1  -3.261951768412821E-1  
 2.016600000000000E10    3.002430006119014E-1  -3.870768286327531E-1  
 2.016800000000000E10    2.292429998010566E-1  -4.356418298595728E-1  
 2.017000000000000E10    1.490335326412978E-1  -4.715438925026213E-1  
 2.017200000000000E10    6.258105542275115E-2  -4.923129116020776E-1  
 2.017400000000000E10   -2.607496297011069E-2  -4.966779690093338E-1  
 2.017600000000000E10   -1.148991285971054E-1  -4.844050891078513E-1  
 2.017800000000000E10   -2.017458749515149E-1  -4.554595413540145E-1  
 2.018000000000000E10   -2.807951894107706E-1  -4.106568868540717E-1  
 2.018200000000000E10   -3.508816242781269E-1  -3.511334839907930E-1  
 2.018400000000000E10   -4.082778187045927E-1  -2.795455540858143E-1  
 2.018600000000000E10   -4.517825821508560E-1  -1.976434042646907E-1  
 2.018800000000000E10   -4.785436781609029E-1  -1.097422325573413E-1  
 2.019000000000000E10   -4.884559996352293E-1  -1.922285428528760E-2  
 2.019200000000000E10   -4.813848359022285E-1   7.187458395621815E-2  
 2.019400000000000E10   -4.579272717941537E-1   1.592938629610839E-1  
 2.019600000000000E10   -4.191828632414696E-1   2.394605234976205E-1  
 2.019800000000000E10   -3.668866575200317E-1   3.111316502103354E-1  
 2.020000000000000E10   -3.038802929057924E-1   3.714316633303271E-1  
 2.020200000000000E10   -2.320530444946872E-1   4.190676429253166E-1  
 2.020400000000000E10   -1.541781806260816E-1   4.532550614548065E-1  
 2.020600000000000E10   -7.375368017591441E-2   4.732648635570133E-1  
 2.020800000000000E10    9.288735577296946E-3   4.796867731767282E-1  
 2.021000000000000E10    9.006211177398113E-2   4.723489198710494E-1  
 2.021200000000000E10    1.680460092684715E-1   4.521470360549881E-1  
 2.021400000000000E10    2.406173462984748E-1   4.200656774648715E-1  
 2.021600000000000E10    3.069324268789268E-1   3.772703364225736E-1  
 2.021800000000000E10    3.651601731495566E-1   3.249445665520406E-1  
 2.022000000000000E10    4.143095328674832E-1   2.644902636612031E-1  
 2.022200000000000E10    4.527084236918309E-1   1.982740931209496E-1  
 2.022400000000000E10    4.810473854140963E-1   1.253878310347745E-1  
 2.022600000000000E10    4.974258881737376E-1   4.999187455884915E-2  
 2.022800000000000E10    5.020902303093329E-1  -2.697235546271407E-2  
 2.023000000000000E10    4.946749103067489E-1  -1.043074985869846E-1  
 2.023200000000000E10    4.752990554934722E-1  -1.800989233362768E-1  
 2.023400000000000E10    4.438335552046239E-1  -2.525340863216071E-1  
 2.023600000000000E10    4.009479496959070E-1  -3.192827866501133E-1  
 2.023800000000000E10    3.474913357125788E-1  -3.789088267494022E-1  
 2.024000000000000E10    2.837375793410155E-1  -4.302534205469122E-1  
 2.024200000000000E10    2.120622345890111E-1  -4.703825746226141E-1  
 2.024400000000000E10    1.341460985965508E-1  -4.986848406785510E-1  
 2.024600000000000E10    5.074999955319683E-2  -5.139676379078211E-1  
 2.024800000000000E10   -3.435094282428515E-2  -5.144674702672548E-1  
 2.025000000000000E10   -1.200510313193022E-1  -5.002481715742035E-1  
 2.025200000000000E10   -2.023190945509530E-1  -4.709003970374460E-1  
 2.025400000000000E10   -2.788043212888809E-1  -4.272535791522101E-1  
 2.025600000000000E10   -3.471410403008542E-1  -3.699228842526271E-1  
 2.025800000000000E10   -4.048311763457674E-1  -3.007387832577064E-1  
 2.026000000000000E10   -4.485745848070066E-1  -2.228147133678366E-1  
 2.026200000000000E10   -4.780016683656403E-1  -1.373175329718534E-1  
 2.026400000000000E10   -4.912339933914958E-1  -4.840906198702741E-2  
 2.026600000000000E10   -4.882805131817534E-1   4.224201242174432E-2  
 2.026800000000000E10   -4.690796900696734E-1   1.295991232165875E-1  
 2.027000000000000E10   -4.349458479668706E-1   2.116171719983046E-1  
 2.027200000000000E10   -3.864104925105348E-1   2.865952623088519E-1  
 2.027400000000000E10   -3.258547001569269E-1   3.513335670445174E-1  
 2.027600000000000E10   -2.563258428260006E-1   4.026476935749102E-1  
 2.027800000000000E10   -1.784768054928109E-1   4.414394627464489E-1  
 2.028000000000000E10   -9.600702989571092E-2   4.657335511623515E-1  
 2.028200000000000E10   -1.124785855600423E-2   4.754487282436554E-1  
 2.028400000000000E10    7.336442000486015E-2   4.705103315143865E-1  
 2.028600000000000E10    1.552925156490448E-1   4.513906736169315E-1  
 2.028800000000000E10    2.328663205654406E-1   4.185438774704408E-1  
 2.029000000000000E10    3.035320487078362E-1   3.729655912801490E-1  
 2.029200000000000E10    3.649152820429376E-1   3.162711160681885E-1  
 2.029400000000000E10    4.160127810199276E-1   2.494608675074494E-1  
 2.029600000000000E10    4.550231701579878E-1   1.746570680189961E-1  
 2.029800000000000E10    4.806339123403131E-1   9.386403104746022E-2  
 2.030000000000000E10    4.921197268707037E-1   8.147201398488336E-3  
 2.030200000000000E10    4.877865212371739E-1  -7.791095539743519E-2  
 2.030400000000000E10    4.679602087089119E-1  -1.629522280338025E-1  
 2.030600000000000E10    4.321380511160178E-1  -2.449223966796376E-1  
 2.030800000000000E10    3.811456861428382E-1  -3.195919824289742E-1  
 2.031000000000000E10    3.163353678584554E-1  -3.835803729116763E-1  
 2.031200000000000E10    2.387214717778141E-1  -4.353968044221993E-1  
 2.031400000000000E10    1.514387869345236E-1  -4.712940273016369E-1  
 2.031600000000000E10    5.940130016102313E-2  -4.886748830168519E-1  
 2.031800000000000E10   -3.751966386415705E-2  -4.880622188604528E-1  
 2.032000000000000E10   -1.337595878055666E-1  -4.675716163181456E-1  
 2.032200000000000E10   -2.245755610288308E-1  -4.269997150618899E-1  
 2.032400000000000E10   -3.054351418270169E-1  -3.681098054393256E-1  
 2.032600000000000E10   -3.721865324090302E-1  -2.933329741796004E-1  
 2.032800000000000E10   -4.222010403003950E-1  -2.054242533784218E-1  
 2.033000000000000E10   -4.521395798873074E-1  -1.102070272856870E-1  
 2.033200000000000E10   -4.616523715458054E-1  -1.028846394463141E-2  
 2.033400000000000E10   -4.499182666361906E-1   8.918627479275887E-2  
 2.033600000000000E10   -4.182060240218415E-1   1.806391461754768E-1  
 2.033800000000000E10   -3.676412035517351E-1   2.684956618451688E-1  
 2.034000000000000E10   -3.016521034490007E-1   3.408876448719808E-1  
 2.034200000000000E10   -2.235864447013868E-1   3.974273155110218E-1  
 2.034400000000000E10   -1.365312997491926E-1   4.369521899169547E-1  
 2.034600000000000E10   -4.444325820288360E-2   4.580741412727559E-1  
 2.034800000000000E10    4.980399859326767E-2   4.610281697934475E-1  
 2.035000000000000E10    1.422364026435246E-1   4.454249247665578E-1  
 2.035200000000000E10    2.293301566588118E-1   4.125039989565626E-1  
 2.035400000000000E10    3.079882981509738E-1   3.635374024008455E-1  
 2.035600000000000E10    3.759117881311657E-1   3.004989242466498E-1  
 2.035800000000000E10    4.295696633615395E-1   2.263630802489476E-1  
 2.036000000000000E10    4.688702210331996E-1   1.426130738009987E-1  
 2.036200000000000E10    4.914347420849283E-1   5.246336628168918E-2  
 2.036400000000000E10    4.960348172497412E-1  -3.938877454626272E-2  
 2.036600000000000E10    4.829162064439513E-1  -1.310078951529733E-1  
 2.036800000000000E10    4.523527769167746E-1  -2.196838797510552E-1  
 2.037000000000000E10    4.054012885046086E-1  -2.998936892673204E-1  
 2.037200000000000E10    3.436111065694935E-1  -3.701433865848866E-1  
 2.037400000000000E10    2.692034232681835E-1  -4.273371245917016E-1  
 2.037600000000000E10    1.853261167134405E-1  -4.690896138160482E-1  
 2.037800000000000E10    9.466472153751034E-2  -4.939360027314323E-1  
 2.038000000000000E10    6.415655937530142E-4  -5.011473116742423E-1  
 2.038200000000000E10   -9.243493747704823E-2  -4.901047129308356E-1  
 2.038400000000000E10   -1.818219499083086E-1  -4.615447101905895E-1  
 2.038600000000000E10   -2.631830791568742E-1  -4.170466883255931E-1  
 2.038800000000000E10   -3.352735195013105E-1  -3.578360531955499E-1  
 2.039000000000000E10   -3.946432556489714E-1  -2.863248895806632E-1  
 2.039200000000000E10   -4.391927421365529E-1  -2.059783106273748E-1  
 2.039400000000000E10   -4.679952388564874E-1  -1.192924468105949E-1  
 2.039600000000000E10   -4.805135848118464E-1  -2.914881264494789E-2  
 2.039800000000000E10   -4.765066321376548E-1   6.013676028024714E-2  
 2.040000000000000E10   -4.566971950642931E-1   1.476524772235777E-1  
 2.040200000000000E10   -4.217917106260962E-1   2.295103134986850E-1  
 2.040400000000000E10   -3.735206769908498E-1   3.029718162573397E-1  
 2.040600000000000E10   -3.133812579752887E-1   3.665717612441549E-1  
 2.040800000000000E10   -2.432704608835765E-1   4.187137144783107E-1  
 2.041000000000000E10   -1.664201134389684E-1   4.570832889929649E-1  
 2.041200000000000E10   -8.373021578901409E-2   4.820921956865986E-1  
 2.041400000000000E10    1.199316385573944E-3   4.922229670711525E-1  
 2.041600000000000E10    8.593288566840530E-2   4.878563877422806E-1  
 2.041800000000000E10    1.686609248265754E-1   4.689939286428661E-1  
 2.042000000000000E10    2.468157298516581E-1   4.366703595244437E-1  
 2.042200000000000E10    3.177494225960246E-1   3.917554057947185E-1  
 2.042400000000000E10    3.804995730562448E-1   3.353709193732096E-1  
 2.042600000000000E10    4.321740220739900E-1   2.697629890887409E-1  
 2.042800000000000E10    4.721285057193241E-1   1.963636428367582E-1  
 2.043000000000000E10    4.990984157552228E-1   1.171111822198702E-1  
 2.043200000000000E10    5.124495591610021E-1   3.462018995609540E-2  
 2.043400000000000E10    5.115971228022926E-1  -4.899096847173282E-2  
 2.043600000000000E10    4.968770229949074E-1  -1.311576111371916E-1  
 2.043800000000000E10    4.687216377280105E-1  -2.090458424057545E-1  
 2.044000000000000E10    4.277604139127341E-1  -2.816280317668090E-1  
 2.044200000000000E10    3.749442453419649E-1  -3.463957756462485E-1  
 2.044400000000000E10    3.122135573789998E-1  -4.011886863060941E-1  
 2.044600000000000E10    2.407135603232022E-1  -4.450938125478661E-1  
 2.044800000000000E10    1.628151441756917E-1  -4.761736602422360E-1  
 2.045000000000000E10    8.114923224150636E-2  -4.936428515626934E-1  
 2.045200000000000E10   -2.881986114636945E-3  -4.973918100107264E-1  
 2.045400000000000E10   -8.664780211415057E-2  -4.868363129067869E-1  
 2.045600000000000E10   -1.670254318452685E-1  -4.622580800736357E-1  
 2.045800000000000E10   -2.432491823478982E-1  -4.241711400100652E-1  
 2.046000000000000E10   -3.116412253900193E-1  -3.735053892761374E-1  
 2.046200000000000E10   -3.702287647831715E-1  -3.122321332832823E-1  
 2.046400000000000E10   -4.182029714891050E-1  -2.410872804693398E-1  
 2.046600000000000E10   -4.534407552922760E-1  -1.625900397693542E-1  
 2.046800000000000E10   -4.740582151649894E-1  -7.952739141405657E-2  
 2.047000000000000E10   -4.804321604837207E-1   7.022076439324782E-3  
 2.047200000000000E10   -4.715338336124125E-1   9.314848797279712E-2  
 2.047400000000000E10   -4.479484708366226E-1   1.759867363224268E-1  
 2.047600000000000E10   -4.100542407840006E-1   2.541708764579670E-1  
 2.047800000000000E10   -3.589755519917963E-1   3.246412328050515E-1  
 2.048000000000000E10   -2.966988812430824E-1   3.845192898275504E-1  
 2.048200000000000E10   -2.244060790824047E-1   4.329714539519463E-1  
 2.048400000000000E10   -1.450059269645050E-1   4.676759297701304E-1  
 2.048600000000000E10   -6.152387971200153E-2   4.875577881993581E-1  
 2.048800000000000E10    2.434390611609314E-2   4.927133929709476E-1  
 2.049000000000000E10    1.093857233852462E-1   4.828192408746962E-1  
 2.049200000000000E10    1.909873039983900E-1   4.583359313227386E-1  
 2.049400000000000E10    2.667200694431566E-1   4.199717060228871E-1  
 2.049600000000000E10    3.344897995397024E-1   3.694117167586144E-1  
 2.049800000000000E10    3.918139412987798E-1   3.081834719977243E-1  
 2.050000000000000E10    4.380357630631489E-1   2.381635676604404E-1  
 2.050200000000000E10    4.712560827994453E-1   1.617991845930446E-1  
 2.050400000000000E10    4.910087578499432E-1   8.066360131212715E-2  
 2.050600000000000E10    4.963354686877838E-1  -2.246050454742583E-3  
 2.050800000000000E10    4.875527171395644E-1  -8.454714380823573E-2  
 2.051000000000000E10    4.647330509518873E-1  -1.646551088491167E-1  
 2.051200000000000E10    4.284085559828619E-1  -2.393756910415889E-1  
 2.051400000000000E10    3.799797256687688E-1  -3.068487582192555E-1  
 2.051600000000000E10    3.199682096858302E-1  -3.659237467003494E-1  
 2.051800000000000E10    2.503316788216623E-1  -4.138702385364883E-1  
 2.052000000000000E10    1.730838394522976E-1  -4.489948262648328E-1  
 2.052200000000000E10    8.964328788308323E-2  -4.705576647292767E-1  
 2.052400000000000E10    3.022373079945006E-3  -4.766999401982249E-1  
 2.052600000000000E10   -8.396524634008419E-2  -4.672658962777178E-1  
 2.052800000000000E10   -1.692934857011114E-1  -4.418171450525246E-1  
 2.053000000000000E10   -2.491956973444706E-1  -4.005916445307245E-1  
 2.053200000000000E10   -3.206557499446660E-1  -3.449632887060078E-1  
 2.053400000000000E10   -3.814112701315721E-1  -2.757522365729305E-1  
 2.053600000000000E10   -4.281705589060776E-1  -1.956502848478411E-1  
 2.053800000000000E10   -4.588696440397068E-1  -1.073062674035533E-1  
 2.054000000000000E10   -4.721016500158257E-1  -1.338940111185230E-2  
 2.054200000000000E10   -4.664362170832167E-1   8.118330434048764E-2  
 2.054400000000000E10   -4.422690277554935E-1   1.733406006499519E-1  
 2.054600000000000E10   -4.001383406371720E-1   2.593396688685006E-1  
 2.054800000000000E10   -3.425602930754247E-1   3.344724109270573E-1  
 2.055000000000000E10   -2.712733312644096E-1   3.970556112074158E-1  
 2.055200000000000E10   -1.890921839202728E-1   4.442144582918770E-1  
 2.055400000000000E10   -1.007267257286416E-1   4.739140543227625E-1  
 2.055600000000000E10   -8.625794884718523E-3   4.860017969193683E-1  
