#Parameters = {L=6; d=0.018; h=0.508; h_air=12; w=2.75}
#"Frequency / GHz"	"SZmax(2),Zmax(2) [Real/Imaginary Part] [Re]"	"SZmax(2),Zmax(2) [Real/Imaginary Part] [Im]"
#-------------------------------------------------------------------------------------------------------------
20.000000000000	-0.73121960621619	0.67702102521674
20.010000000000	-0.73059309122050	0.67767900898514
20.020000000000	-0.72996421489137	0.67833821075206
20.030000000000	-0.72933296096205	0.67899864181117
20.040000000000	-0.72869931640712	0.67966031857273
20.050000000000	-0.72806327904181	0.68032326207279
20.060000000000	-0.72742486776457	0.68098748513787
20.070000000000	-0.72678411061308	0.68165296200446
20.080000000000	-0.72614099011819	0.68231963095892
20.090000000000	-0.72549543286582	0.68298746552101
20.100000000000	-0.72484737804044	0.68365649523021
20.110000000000	-0.72419680290149	0.68432675801372
20.120000000000	-0.72354370100201	0.68499827671410
20.130000000000	-0.72288806652341	0.68567106257006
20.140000000000	-0.72222989054294	0.68634512164522
20.150000000000	-0.72156916140953	0.68702045823002
20.156250000000	-0.72115490324991	0.68744319404911
20.160000000000	-0.72090586566233	0.68769707618933
20.170000000000	-0.72023998870817	0.68837497941885
20.180000000000	-0.71957151523436	0.68905417196917
20.190000000000	-0.71890042944723	0.68973465805741
20.200000000000	-0.71822671520884	0.69041644204621
20.210000000000	-0.71755035611587	0.69109952841730
20.220000000000	-0.71687133554578	0.69178392174803
20.230000000000	-0.71618963668407	0.69246962669264
20.240000000000	-0.71550524254055	0.69315664796778
20.250000000000	-0.71481813595905	0.69384499034168
20.260000000000	-0.71412829962306	0.69453465862588
20.270000000000	-0.71343571605894	0.69522565766915
20.280000000000	-0.71274036763757	0.69591799235274
20.290000000000	-0.71204223657489	0.69661166758688
20.300000000000	-0.71134130493195	0.69730668830806
20.310000000000	-0.71063755461439	0.69800305947692
20.312500000000	-0.71046117448181	0.69817736386007
20.320000000000	-0.70993096737176	0.69870078607661
20.330000000000	-0.70922152479659	0.69939987311156
20.340000000000	-0.70850920832342	0.70010032560641
20.350000000000	-0.70779399922778	0.70080214860525
20.360000000000	-0.70707587862513	0.70150534717089
20.370000000000	-0.70635482746992	0.70220992638431
20.380000000000	-0.70563082655466	0.70291589134402
20.390000000000	-0.70490385650901	0.70362324716554
20.400000000000	-0.70417389779914	0.70433199898065
20.410000000000	-0.70344093072699	0.70504215193654
20.420000000000	-0.70270493542973	0.70575371119473
20.430000000000	-0.70196589187909	0.70646668192956
20.440000000000	-0.70122377988066	0.70718106932628
20.450000000000	-0.70047857907269	0.70789687857854
20.460000000000	-0.69973026892423	0.70861411488537
20.468750000000	-0.69907293064215	0.70924287137309
20.470000000000	-0.69897882873186	0.70933278344756
20.480000000000	-0.69822423761432	0.71005288946402
20.490000000000	-0.69746647450385	0.71077443812876
20.500000000000	-0.69670551813270	0.71149743463015
20.510000000000	-0.69594134701267	0.71222188415540
20.520000000000	-0.69517393940483	0.71294779190494
20.530000000000	-0.69440327327386	0.71367516312511
20.540000000000	-0.69362932621559	0.71440400317326
20.550000000000	-0.69285207532592	0.71513431764268
20.560000000000	-0.69207149691549	0.71586611260484
20.570000000000	-0.69128756573662	0.71659939509828
20.580000000000	-0.69050025234659	0.71733417407047
20.590000000000	-0.68970951145286	0.71807046018566
20.600000000000	-0.68891522886319	0.71880821281261
20.610000000000	-0.68811764265826	0.71954709284302
20.620000000000	-0.68731687337441	0.72028786082630
20.625000000000	-0.68691509521229	0.72065884627735
20.630000000000	-0.68651242173300	0.72103020135926
20.640000000000	-0.68570441374193	0.72177403184580
20.650000000000	-0.68489285605777	0.72251937326858
20.660000000000	-0.68407773069721	0.72326623880395
20.670000000000	-0.68325901478368	0.72401463741494
20.680000000000	-0.68243668400711	0.72476457630332
20.690000000000	-0.68161071343513	0.72551606185885
20.700000000000	-0.68078107774681	0.72626910005434
20.710000000000	-0.67994775130966	0.72702369662913
20.720000000000	-0.67911070820738	0.72777985718315
20.730000000000	-0.67826992225048	0.72853758722933
20.740000000000	-0.67742536698061	0.72929689222470
20.750000000000	-0.67657701567231	0.73005777758967
20.760000000000	-0.67572484133355	0.73082024872027
20.770000000000	-0.67486881670560	0.73158431099613
20.780000000000	-0.67400891426246	0.73234996978555
20.781250000000	-0.67390115241683	0.73244578965612
20.790000000000	-0.67314510620985	0.73311723044872
20.800000000000	-0.67227736448390	0.73388609833974
20.810000000000	-0.67140566074948	0.73465657880771
20.820000000000	-0.67052996639829	0.73542867719722
20.830000000000	-0.66965025254671	0.73620239884852
20.840000000000	-0.66876649003341	0.73697774909728
20.850000000000	-0.66787864941683	0.73775473327424
20.860000000000	-0.66698670097242	0.73853335670467
20.870000000000	-0.66609061468981	0.73931362470774
20.880000000000	-0.66519036026984	0.74009554259585
20.890000000000	-0.66428590712149	0.74087911567387
20.900000000000	-0.66337722435867	0.74166434923832
20.910000000000	-0.66246428079696	0.74245124857664
20.920000000000	-0.66154704495028	0.74323981896626
20.930000000000	-0.66062548502749	0.74403006567383
20.937500000000	-0.65993145811214	0.74462385394983
20.940000000000	-0.65969956892884	0.74482199395434
20.950000000000	-0.65876926424248	0.74561560905021
20.960000000000	-0.65783453824079	0.74641091619049
20.970000000000	-0.65689535787674	0.74720792058993
20.980000000000	-0.65595168978013	0.74800662744819
20.990000000000	-0.65500350025376	0.74880704194891
21.000000000000	-0.65405075526962	0.74960916925893
21.010000000000	-0.65309342046492	0.75041301452749
21.020000000000	-0.65213146113809	0.75121858288550
21.030000000000	-0.65116484224476	0.75202587944482
21.040000000000	-0.65019352839361	0.75283490929775
21.050000000000	-0.64921748384213	0.75364567751655
21.060000000000	-0.64823667249242	0.75445818915329
21.070000000000	-0.64725105788671	0.75527244923986
21.080000000000	-0.64626060320294	0.75608846278852
21.090000000000	-0.64526527125013	0.75690623479299
21.093750000000	-0.64489075669192	0.75721335366289
21.100000000000	-0.64426502446360	0.75772577023053
21.110000000000	-0.64325982489998	0.75854707406529
21.120000000000	-0.64224963423193	0.75937015125386
21.130000000000	-0.64123441374242	0.76019500675407
21.140000000000	-0.64021412431838	0.76102164553920
21.150000000000	-0.63918872644321	0.76185007262115
21.160000000000	-0.63815818018742	0.76268029308937
21.170000000000	-0.63712244519582	0.76351231217880
21.180000000000	-0.63608148066784	0.76434613539408
21.190000000000	-0.63503524532300	0.76518176875215
21.200000000000	-0.63398369733122	0.76601921929690
21.210000000000	-0.63292679414730	0.76685849632039
21.220000000000	-0.63186449203166	0.76769961475195
21.230000000000	-0.63079674421454	0.76854260707598
21.240000000000	-0.62972348941594	0.76938758682317
21.250000000000	-0.62864434333341	0.77023578381840
21.260000000000	-0.62756053605603	0.77108042582013
21.270000000000	-0.62647061788132	0.77193152939684
21.280000000000	-0.62537502086406	0.77278380246133
21.290000000000	-0.62427372201866	0.77363780794074
21.300000000000	-0.62316667366018	0.77449362521764
21.310000000000	-0.62205382836885	0.77535127994381
21.320000000000	-0.62093513869470	0.77621078456123
21.330000000000	-0.61981055690246	0.77707214692171
21.340000000000	-0.61868003485841	0.77793537290546
21.350000000000	-0.61754352397623	0.77880046740493
21.360000000000	-0.61640097518746	0.77966743475132
21.370000000000	-0.61525233892294	0.78053627891955
21.380000000000	-0.61409756509952	0.78140700363439
21.390000000000	-0.61293660310952	0.78227961242869
21.400000000000	-0.61176940181151	0.78315410867649
21.406250000000	-0.61103670965963	0.78370162874647
21.410000000000	-0.61059590952195	0.78403049561225
21.420000000000	-0.60941607400719	0.78490877634211
21.430000000000	-0.60822984247567	0.78578895385017
21.440000000000	-0.60703716157019	0.78667103100176
21.450000000000	-0.60583797736029	0.78755501054466
21.460000000000	-0.60463223533445	0.78844089510903
21.470000000000	-0.60341988039228	0.78932868720634
21.480000000000	-0.60220085683663	0.79021838922764
21.490000000000	-0.60097510836553	0.79111000344139
21.500000000000	-0.59974257806396	0.79200353199082
21.510000000000	-0.59850320839552	0.79289897689115
21.520000000000	-0.59725694119382	0.79379634002644
21.530000000000	-0.59600371765371	0.79469562314640
21.540000000000	-0.59474347832225	0.79559682786302
21.550000000000	-0.59347616308935	0.79649995564720
21.560000000000	-0.59220171117809	0.79740500782532
21.562500000000	-0.59188197590769	0.79763157169781
21.570000000000	-0.59092006113471	0.79831198557596
21.580000000000	-0.58963115081809	0.79922088992680
21.590000000000	-0.58833491738878	0.80013172175184
21.600000000000	-0.58703129729743	0.80104448176926
21.610000000000	-0.58572022627262	0.80195917054010
21.620000000000	-0.58440163930815	0.80287578846836
21.630000000000	-0.58307547064977	0.80379433580311
21.640000000000	-0.58174165378179	0.80471481264345
21.650000000000	-0.58040012141428	0.80563721894783
21.660000000000	-0.57905080547235	0.80656155454914
21.670000000000	-0.57769363709053	0.80748781917768
21.680000000000	-0.57632854661731	0.80841601249374
21.690000000000	-0.57495546363877	0.80934613413010
21.700000000000	-0.57357431703509	0.81027818374012
21.710000000000	-0.57218503508828	0.81121216103645
21.718750000000	-0.57096268315563	0.81203097229206
21.720000000000	-0.57078754565860	0.81214806578482
21.730000000000	-0.56938177642729	0.81308589768667
21.740000000000	-0.56796765514364	0.81402565605935
21.750000000000	-0.56654510970650	0.81496733925328
21.760000000000	-0.56511406781241	0.81591094390898
21.770000000000	-0.56367445599552	0.81685646445019
21.780000000000	-0.56222619832087	0.81780389336625
21.790000000000	-0.56076921550756	0.81875322244944
21.800000000000	-0.55930342516341	0.81970444435077
21.810000000000	-0.55782874297062	0.82065755348520
21.820000000000	-0.55634508397896	0.82161254590547
21.830000000000	-0.55485236333347	0.82256941854354
21.840000000000	-0.55335049636439	0.82352816841461
21.850000000000	-0.55183939832189	0.82448879209735
21.860000000000	-0.55031898403310	0.82545128550578
21.870000000000	-0.54878916762084	0.82641564384718
21.875000000000	-0.54802070654110	0.82689852068650
21.880000000000	-0.54724986231493	0.82738186166410
21.890000000000	-0.54570098033947	0.82834993289846
21.900000000000	-0.54414243285024	0.82931985094988
21.910000000000	-0.54257412990079	0.83029160871919
21.920000000000	-0.54099598042327	0.83126519863686
21.930000000000	-0.53940789221570	0.83224061267894
21.940000000000	-0.53780977193113	0.83321784237330
21.950000000000	-0.53620152506618	0.83419687879884
21.960000000000	-0.53458305594741	0.83517771257901
21.970000000000	-0.53295426771454	0.83616033387093
21.980000000000	-0.53131506229904	0.83714473235036
21.990000000000	-0.52966534039605	0.83813089719246
22.000000000000	-0.52800500142591	0.83911881704762
22.010000000000	-0.52633394347847	0.84010848001150
22.020000000000	-0.52465206322710	0.84109987358809
22.030000000000	-0.52295925578625	0.84209298464682
22.031250000000	-0.52274688124641	0.84221724360959
22.040000000000	-0.52125541445849	0.84308779938310
22.050000000000	-0.51954043025316	0.84408430332497
22.060000000000	-0.51781419091439	0.84508248155463
22.070000000000	-0.51607657889518	0.84608231981033
22.080000000000	-0.51432746747098	0.84708380915387
22.090000000000	-0.51256671824333	0.84808696431268
22.100000000000	-0.51079422394713	0.84909187061387
22.110000000000	-0.50901008989911	0.85009858463811
22.120000000000	-0.50721432863190	0.85110675128524
22.130000000000	-0.50540650297133	0.85211625022075
22.140000000000	-0.50358641638186	0.85312723585407
22.150000000000	-0.50175399642370	0.85413975134086
22.160000000000	-0.49990915223829	0.85515378383220
22.170000000000	-0.49805177448377	0.85616930948732
22.180000000000	-0.49618174465841	0.85718630311276
22.187500000000	-0.49477084531222	0.85794999653919
22.190000000000	-0.49429893945220	0.85820473952693
22.200000000000	-0.49240323252419	0.85922459348382
22.210000000000	-0.49049449524437	0.86024583943684
22.220000000000	-0.48857259701596	0.86126845134715
22.230000000000	-0.48663740541825	0.86229240254790
22.240000000000	-0.48468878626759	0.86331766564815
22.250000000000	-0.48272660363878	0.86434421246214
22.260000000000	-0.48075071986629	0.86537201395429
22.270000000000	-0.47876099553445	0.86640104019367
22.280000000000	-0.47675728946153	0.86743126031438
22.290000000000	-0.47473945868005	0.86846264247921
22.300000000000	-0.47270735841480	0.86949515384528
22.310000000000	-0.47066084205935	0.87052876053031
22.320000000000	-0.46859976115160	0.87156342757899
22.330000000000	-0.46652396534870	0.87259911892870
22.340000000000	-0.46443330240176	0.87363579737404
22.343750000000	-0.46364543945480	0.87402479848057
22.350000000000	-0.46232761813067	0.87467342452956
22.360000000000	-0.46020675639971	0.87571196079012
22.370000000000	-0.45807055909476	0.87675136528797
22.380000000000	-0.45591886610377	0.87779159584575
22.390000000000	-0.45375151530292	0.87883260892429
22.400000000000	-0.45156834255305	0.87987435956441
22.410000000000	-0.44936918171380	0.88091680132308
22.420000000000	-0.44715386468807	0.88195988620725
22.430000000000	-0.44492222151655	0.88300356461782
22.440000000000	-0.44267408054966	0.88404778533664
22.450000000000	-0.44040926872171	0.88509249563445
22.460000000000	-0.43812761190370	0.88613764165847
22.470000000000	-0.43582893512985	0.88718316934768
22.480000000000	-0.43351306206170	0.88822902602539
22.490000000000	-0.43117981256859	0.88927516199074
22.500000000000	-0.42882899813269	0.89032152961156
22.510000000000	-0.42646041863588	0.89136807726238
22.520000000000	-0.42407386653128	0.89241474156981
22.530000000000	-0.42166913651151	0.89346144702618
22.540000000000	-0.41924603033822	0.89450811362904
22.550000000000	-0.41680435373291	0.89555466342775
22.560000000000	-0.41434391136975	0.89660102156027
22.570000000000	-0.41186450417355	0.89764711438865
22.580000000000	-0.40936592875669	0.89869286759651
22.590000000000	-0.40684797772019	0.89973820506996
22.600000000000	-0.40431044007791	0.90078304838766
22.610000000000	-0.40175310157269	0.90182731662447
22.620000000000	-0.39917574486589	0.90287092628348
22.630000000000	-0.39657814963473	0.90391379126827
22.640000000000	-0.39396009261166	0.90495582286018
22.650000000000	-0.39132134758949	0.90599692968852
22.656250000000	-0.38966152462523	0.90664711016796
22.660000000000	-0.38866168540679	0.90703701769087
22.670000000000	-0.38598087392198	0.90807599006410
22.680000000000	-0.38327867798071	0.90911374720697
22.690000000000	-0.38055485937928	0.91015018665528
22.700000000000	-0.37780917682496	0.91118520300999
22.710000000000	-0.37504138589338	0.91221868785747
22.720000000000	-0.37225123898135	0.91325052968013
22.730000000000	-0.36943848525051	0.91428061375270
22.734375000000	-0.36820073189620	0.91473069276447
22.740000000000	-0.36660287054925	0.91530882201492
22.750000000000	-0.36374413727664	0.91633503290295
22.760000000000	-0.36086202407569	0.91735912111561
22.770000000000	-0.35795626497304	0.91838095736863
22.780000000000	-0.35502658672116	0.91940040911320
22.790000000000	-0.35207270405953	0.92041735019924
22.800000000000	-0.34909435388453	0.92143168634241
22.810000000000	-0.34609133267824	0.92244324534752
22.812500000000	-0.34533668513596	0.92269567378242
22.820000000000	-0.34306331458700	0.92345181960507
22.830000000000	-0.34000998466087	0.92445728320058
22.840000000000	-0.33693105783941	0.92545949429430
22.850000000000	-0.33382624556881	0.92645829641734
22.860000000000	-0.33069525358176	0.92745352627072
22.870000000000	-0.32753778282600	0.92844501551456
22.880000000000	-0.32435352995948	0.92943259105685
22.890000000000	-0.32114218754638	0.93041607501656
22.890625000000	-0.32094057209962	0.93047740276494
22.900000000000	-0.31790344412335	0.93139528461021
22.910000000000	-0.31463698421020	0.93237003201821
22.920000000000	-0.31134248829563	0.93334012424443
22.930000000000	-0.30801963281123	0.93430536297196
22.940000000000	-0.30466809009956	0.93526554441573
22.950000000000	-0.30128752837958	0.93622045917174
22.960000000000	-0.29787761171050	0.93716989206274
22.968750000000	-0.29486958710427	0.93799597532789
22.970000000000	-0.29443799995528	0.93811362197994
22.980000000000	-0.29096834874397	0.93905142172086
22.990000000000	-0.28746830943732	0.93998305782282
23.000000000000	-0.28393752909088	0.94090829039227
23.010000000000	-0.28037565041945	0.94182687292975
23.020000000000	-0.27678231176221	0.94273855215058
23.030000000000	-0.27315714704814	0.94364306780177
23.040000000000	-0.26949978576149	0.94454015247556
23.046875000000	-0.26696647866458	0.94515244517015
23.050000000000	-0.26580985290631	0.94542953142167
23.060000000000	-0.26208696896788	0.94631092236200
23.070000000000	-0.25833074986531	0.94718403531808
23.080000000000	-0.25454080687899	0.94804857248036
23.090000000000	-0.25071674649800	0.94890422821647
23.100000000000	-0.24685816994753	0.94975068963923
23.110000000000	-0.24296467077437	0.95058764053909
23.120000000000	-0.23903579553245	0.95141482591064
23.125000000000	-0.23705838659535	0.95182372655605
23.130000000000	-0.23507139002962	0.95223145560340
23.140000000000	-0.23107065664108	0.95303786009972
23.150000000000	-0.22703337693196	0.95383330724370
23.160000000000	-0.22295910353751	0.95461746921132
23.170000000000	-0.21884740321358	0.95538997083122
23.180000000000	-0.21469784008002	0.95615042254474
23.190000000000	-0.21050997406670	0.95689842308789
23.200000000000	-0.20628336059036	0.95763355981618
23.203125000000	-0.20495452673995	0.95786058522416
23.210000000000	-0.20201755046685	0.95835540858557
23.220000000000	-0.19771208989359	0.95906353350522
23.230000000000	-0.19336652046638	0.95975748663588
23.240000000000	-0.18898037923318	0.96043680764875
23.250000000000	-0.18455319883274	0.96110102342476
23.260000000000	-0.18008450795840	0.96174964748995
23.270000000000	-0.17557383392181	0.96238217879755
23.280000000000	-0.17102074402047	0.96299811241444
23.281250000000	-0.17044861659622	0.96307393316925
23.290000000000	-0.16642453046315	0.96359697428319
23.300000000000	-0.16178498267455	0.96417808034574
23.310000000000	-0.15710148978419	0.96474097859696
23.320000000000	-0.15237355546405	0.96528508071126
23.330000000000	-0.14760067774323	0.96580979687818
23.340000000000	-0.14278234981940	0.96631452280019
23.350000000000	-0.13791806060742	0.96679863796392
23.359375000000	-0.13331558923278	0.96723321051957
23.360000000000	-0.13300729496425	0.96726150489181
23.370000000000	-0.12804953384322	0.96770246855688
23.380000000000	-0.12304425444489	0.96812085582306
23.390000000000	-0.11799093039125	0.96851597488096
23.400000000000	-0.11288903193918	0.96888711467927
23.410000000000	-0.10773802623911	0.96923354436766
23.420000000000	-0.10253737762819	0.96955451277677
23.430000000000	-0.097286547922000	0.96984924795815
23.437500000000	-0.093315169249859	0.97005260748098
23.440000000000	-0.091984996642445	0.97011695678737
23.450000000000	-0.086632181106986	0.97035682460112
23.460000000000	-0.081227556316552	0.97056801482376
23.470000000000	-0.075770574610392	0.97074966859804
23.480000000000	-0.070260685120972	0.97090090464571
23.490000000000	-0.064697333377264	0.97102082000175
23.500000000000	-0.059079962726368	0.97110849240751
23.510000000000	-0.053408021566669	0.97116298199684
23.515625000000	-0.050193371802730	0.97117868872345
23.520000000000	-0.047680974349291	0.97118332107115
23.530000000000	-0.041898292663139	0.97116849257870
23.540000000000	-0.036059427895706	0.97111743613850
23.550000000000	-0.030163813869081	0.97102907446793
23.560000000000	-0.024210886817312	0.97090231546123
23.570000000000	-0.018200091380560	0.97073604157515
23.580000000000	-0.012130878439215	0.97052910417431
23.590000000000	-0.0060027031410420	0.97028032205892
