#Parameters = {L=6; d=0.018; h=0.508; h_air=12; w=2.75}
#"Frequency / GHz"	"SZmax(1),Zmax(1) [Real/Imaginary Part] [Re]"	"SZmax(1),Zmax(1) [Real/Imaginary Part] [Im]"
#-------------------------------------------------------------------------------------------------------------
20.000000000000	-0.89473520927280	0.44215145450790
20.010000000000	-0.89445986476345	0.44269002949852
20.020000000000	-0.89418336373262	0.44322999951530
20.030000000000	-0.89390569874258	0.44377137193602
20.040000000000	-0.89362686228174	0.44431415415277
20.050000000000	-0.89334684676516	0.44485835357607
20.060000000000	-0.89306564453493	0.44540397763839
20.070000000000	-0.89278324786033	0.44595103379737
20.080000000000	-0.89249964893790	0.44649952953858
20.090000000000	-0.89221483989133	0.44704947237805
20.100000000000	-0.89192881277131	0.44760086986448
20.110000000000	-0.89164155955525	0.44815372958129
20.120000000000	-0.89135307214697	0.44870805914843
20.130000000000	-0.89106334237627	0.44926386622405
20.140000000000	-0.89077236199848	0.44982115850602
20.150000000000	-0.89048012269398	0.45037994373334
20.156250000000	-0.89029683010286	0.45072994609247
20.160000000000	-0.89018661606765	0.45094022968740
20.170000000000	-0.88989183364824	0.45150202419325
20.180000000000	-0.88959576688781	0.45206533512065
20.190000000000	-0.88929840716104	0.45263017038516
20.200000000000	-0.88899974576456	0.45319653794913
20.210000000000	-0.88869977391627	0.45376444582263
20.220000000000	-0.88839848275457	0.45433390206433
20.230000000000	-0.88809586333761	0.45490491478241
20.240000000000	-0.88779190664257	0.45547749213528
20.250000000000	-0.88748660356482	0.45605164233247
20.260000000000	-0.88717994491710	0.45662737363531
20.270000000000	-0.88687192142874	0.45720469435773
20.280000000000	-0.88656252374478	0.45778361286694
20.290000000000	-0.88625174242509	0.45836413758415
20.300000000000	-0.88593956794356	0.45894627698528
20.310000000000	-0.88562599068714	0.45953003960161
20.312500000000	-0.88554737605459	0.45967623488815
20.320000000000	-0.88531100095498	0.46011543402048
20.330000000000	-0.88499458895746	0.46070246888598
20.340000000000	-0.88467674481532	0.46129115289957
20.350000000000	-0.88435745855868	0.46188149482085
20.360000000000	-0.88403672012608	0.46247350346814
20.370000000000	-0.88371451936353	0.46306718771928
20.380000000000	-0.88339084602355	0.46366255651230
20.390000000000	-0.88306568976414	0.46425961884619
20.400000000000	-0.88273904014787	0.46485838378168
20.410000000000	-0.88241088664082	0.46545886044212
20.420000000000	-0.88208121861167	0.46606105801438
20.430000000000	-0.88175002533069	0.46666498574988
20.440000000000	-0.88141729596880	0.46727065296579
20.450000000000	-0.88108301959668	0.46787806904636
20.460000000000	-0.88074718518387	0.46848724344467
20.468750000000	-0.88045204324345	0.46902172089846
20.470000000000	-0.88040978159805	0.46909818568460
20.480000000000	-0.88007079760435	0.46971090536365
20.490000000000	-0.87973022186487	0.47032541215647
20.500000000000	-0.87938804293858	0.47094171582002
20.510000000000	-0.87904424928156	0.47155982620091
20.520000000000	-0.87869882924803	0.47217975324662
20.530000000000	-0.87835177109266	0.47280150702326
20.540000000000	-0.87800306297476	0.47342509774518
20.550000000000	-0.87765269296620	0.47405053582713
20.560000000000	-0.87730064906561	0.47467783198239
20.570000000000	-0.87694691922445	0.47530699742306
20.580000000000	-0.87659149139452	0.47593804431314
20.590000000000	-0.87623435360603	0.47657098694553
20.600000000000	-0.87587549399106	0.47720584547107
20.610000000000	-0.87551489915009	0.47784266210262
20.620000000000	-0.87515250345981	0.47848162929101
20.625000000000	-0.87497011137318	0.47880227301166
20.630000000000	-0.87478715139370	0.47912101898183
20.640000000000	-0.87442230579238	0.47976379853372
20.650000000000	-0.87405472192434	0.48040839038964
20.660000000000	-0.87368527027429	0.48105486606019
20.670000000000	-0.87331398676447	0.48170328825669
20.680000000000	-0.87294086770308	0.48235368207104
20.690000000000	-0.87256590256139	0.48300606389357
20.700000000000	-0.87218907880256	0.48366044731325
20.710000000000	-0.87181038306801	0.48431684483051
20.720000000000	-0.87142980156336	0.48497526847945
20.730000000000	-0.87104732020857	0.48563573009157
20.740000000000	-0.87066292470410	0.48629824142083
20.750000000000	-0.87027660056256	0.48696281420854
20.760000000000	-0.86988833312470	0.48762946021935
20.770000000000	-0.86949810756768	0.48829819126261
20.780000000000	-0.86910590890928	0.48896901920560
20.781250000000	-0.86905674459097	0.48905302073033
20.790000000000	-0.86871172200976	0.48964195598223
20.800000000000	-0.86831553157249	0.49031701359897
20.810000000000	-0.86791732214362	0.49099420413913
20.820000000000	-0.86751707811136	0.49167353976602
20.830000000000	-0.86711478370481	0.49235503272544
20.840000000000	-0.86671042299258	0.49303869534773
20.850000000000	-0.86630397988127	0.49372454004944
20.860000000000	-0.86589543811377	0.49441257933485
20.870000000000	-0.86548478126745	0.49510282579730
20.880000000000	-0.86507199275231	0.49579529212043
20.890000000000	-0.86465705580905	0.49648999107936
20.900000000000	-0.86423995350701	0.49718693554179
20.910000000000	-0.86382066874214	0.49788613846908
20.920000000000	-0.86339918423486	0.49858761291731
20.930000000000	-0.86297548252788	0.49929137203832
20.937500000000	-0.86265624060727	0.49982069866180
20.940000000000	-0.86254954598396	0.49999742908074
20.950000000000	-0.86212135678368	0.50070579739096
20.960000000000	-0.86169089692305	0.50141649041420
20.970000000000	-0.86125814821121	0.50212952169546
20.980000000000	-0.86082309226799	0.50284490488054
20.990000000000	-0.86038571052150	0.50356265371699
21.000000000000	-0.85994598420565	0.50428278205512
21.010000000000	-0.85950389435765	0.50500530384897
21.020000000000	-0.85905942181558	0.50573023315723
21.030000000000	-0.85861254721582	0.50645758414422
21.040000000000	-0.85816325099062	0.50718737108085
21.050000000000	-0.85771151336566	0.50791960834557
21.060000000000	-0.85725731435770	0.50865431042527
21.070000000000	-0.85680063377230	0.50939149191636
21.080000000000	-0.85634145120181	0.51013116752567
21.090000000000	-0.85587974602350	0.51087335207162
21.093750000000	-0.85570595197541	0.51115232115543
21.100000000000	-0.85541549739814	0.51161806048538
21.110000000000	-0.85494868426919	0.51236530781229
21.120000000000	-0.85447928536284	0.51311510921354
21.130000000000	-0.85400727918945	0.51386747996854
21.140000000000	-0.85353264404730	0.51462243547814
21.150000000000	-0.85305535803010	0.51537999126978
21.160000000000	-0.85257539904112	0.51614016300606
21.170000000000	-0.85209274481927	0.51690296650021
21.180000000000	-0.85160737298819	0.51766841774680
21.190000000000	-0.85111926115250	0.51843653298767
21.200000000000	-0.85062838709764	0.51920732887076
21.210000000000	-0.85013472923801	0.51998082288811
21.220000000000	-0.84963826770130	0.52075703482554
21.230000000000	-0.84913898685829	0.52153599294851
21.240000000000	-0.84863687100430	0.52231777025534
21.250000000000	-0.84813160832657	0.52310251105750
21.260000000000	-0.84762337011022	0.52388942821330
21.270000000000	-0.84711253305356	0.52467931625964
21.280000000000	-0.84659870614683	0.52547210590082
21.290000000000	-0.84608187282468	0.52626774451665
21.300000000000	-0.84556201741405	0.52706623598625
21.310000000000	-0.84503911826595	0.52786759406810
21.320000000000	-0.84451315105469	0.52867183501298
21.330000000000	-0.84398409012313	0.52947897594660
21.340000000000	-0.84345190901837	0.53028903440639
21.350000000000	-0.84291658072399	0.53110202818146
21.360000000000	-0.84237807776890	0.53191797524924
21.370000000000	-0.84183637228138	0.53273689374799
21.380000000000	-0.84129143601653	0.53355880196405
21.390000000000	-0.84074324037023	0.53438371832585
21.400000000000	-0.84019175638552	0.53521166140124
21.406250000000	-0.83984539602792	0.53573067113244
21.410000000000	-0.83963695475481	0.53604264989646
21.420000000000	-0.83907880581946	0.53687670265617
21.430000000000	-0.83851727956782	0.53771383866401
21.440000000000	-0.83795234563225	0.53855407704344
21.450000000000	-0.83738397328543	0.53939743705891
21.460000000000	-0.83681213143628	0.54024393811708
21.470000000000	-0.83623678862552	0.54109359976816
21.480000000000	-0.83565791302102	0.54194644170737
21.490000000000	-0.83507547241300	0.54280248377625
21.500000000000	-0.83448943420903	0.54366174596420
21.510000000000	-0.83389976542901	0.54452424840985
21.520000000000	-0.83330643270002	0.54539001140247
21.530000000000	-0.83270940225103	0.54625905538334
21.540000000000	-0.83210863990761	0.54713140094714
21.550000000000	-0.83150411108651	0.54800706884319
21.560000000000	-0.83089578079013	0.54888607997679
21.562500000000	-0.83074310009434	0.54910635760585
21.570000000000	-0.83028361360095	0.54976845541041
21.580000000000	-0.82966757367583	0.55065421636489
21.590000000000	-0.82904762474022	0.55154338422061
21.600000000000	-0.82842373008230	0.55243598051862
21.610000000000	-0.82779585254700	0.55333202696174
21.620000000000	-0.82716395452997	0.55423154541567
21.630000000000	-0.82652799797139	0.55513455791003
21.640000000000	-0.82588794434984	0.55604108663943
21.650000000000	-0.82524375467603	0.55695115396459
21.660000000000	-0.82459538948658	0.55786478241340
21.670000000000	-0.82394280883782	0.55878199468206
21.680000000000	-0.82328597229983	0.55970281363627
21.690000000000	-0.82262483895063	0.56062726231253
21.700000000000	-0.82195936737107	0.56155536391954
21.710000000000	-0.82128951564047	0.56248714183984
21.718750000000	-0.82069976894446	0.56330548176145
21.720000000000	-0.82061524133408	0.56342261963174
21.730000000000	-0.81993650152326	0.56436182103167
21.740000000000	-0.81925325278105	0.56530476995723
21.750000000000	-0.81856545119783	0.56625149051099
21.760000000000	-0.81787305241754	0.56720200698519
21.770000000000	-0.81717601171901	0.56815634386550
21.780000000000	-0.81647428420587	0.56911452582512
21.790000000000	-0.81576782529415	0.57007657766200
21.800000000000	-0.81505659216173	0.57104252390264
21.810000000000	-0.81434054904130	0.57201238591092
21.820000000000	-0.81361968791962	0.57298614887598
21.830000000000	-0.81289369466795	0.57396359062441
21.840000000000	-0.81216261893972	0.57494557466860
21.850000000000	-0.81142675465461	0.57593145017810
21.860000000000	-0.81068580722570	0.57692132148447
21.870000000000	-0.80993972446559	0.57791525264659
21.875000000000	-0.80956474220904	0.57841375195332
21.880000000000	-0.80918845766010	0.57891327880711
21.890000000000	-0.80843195588384	0.57991542942719
21.900000000000	-0.80767016671629	0.58092173247174
21.910000000000	-0.80690303665229	0.58193221547808
21.920000000000	-0.80613051128263	0.58294690590636
21.930000000000	-0.80535253537367	0.58396583127651
21.940000000000	-0.80456905290192	0.58498901922906
21.950000000000	-0.80378000706727	0.58601649755511
21.960000000000	-0.80298534029534	0.58704829421231
21.970000000000	-0.80218499423399	0.58808443733397
21.980000000000	-0.80137890974639	0.58912495523462
21.990000000000	-0.80056702690206	0.59016987641358
22.000000000000	-0.79974928496651	0.59121922955729
22.010000000000	-0.79892562239002	0.59227304354097
22.020000000000	-0.79809597679565	0.59333134742985
22.030000000000	-0.79726028496674	0.59439417048000
22.031250000000	-0.79715539518069	0.59452734257934
22.040000000000	-0.79641848283401	0.59546154213899
22.050000000000	-0.79557050546218	0.59653349204635
22.060000000000	-0.79471628703633	0.59761005003395
22.070000000000	-0.79385576084785	0.59869124612617
22.080000000000	-0.79298885928015	0.59977711054012
22.090000000000	-0.79211551379400	0.60086767368559
22.100000000000	-0.79123565491258	0.60196296616508
22.110000000000	-0.79034921220626	0.60306301877363
22.120000000000	-0.78945611427706	0.60416786249870
22.130000000000	-0.78855628874279	0.60527752851978
22.140000000000	-0.78764966222090	0.60639204820814
22.150000000000	-0.78673616031199	0.60751145312632
22.160000000000	-0.78581570758309	0.60863577502765
22.170000000000	-0.78488822755046	0.60976504585561
22.180000000000	-0.78395364266225	0.61089929774313
22.187500000000	-0.78324799417041	0.61175327491551
22.190000000000	-0.78301187428067	0.61203856301183
22.200000000000	-0.78206284266396	0.61318287417109
22.210000000000	-0.78110646694786	0.61433226391709
22.220000000000	-0.78014266512691	0.61548676513167
22.230000000000	-0.77917135403523	0.61664641088116
22.240000000000	-0.77819244932708	0.61781123441503
22.250000000000	-0.77720586545694	0.61898126916444
22.260000000000	-0.77621151565933	0.62015654874065
22.270000000000	-0.77520931192817	0.62133710693329
22.280000000000	-0.77419916499583	0.62252297770850
22.290000000000	-0.77318098431180	0.62371419520685
22.300000000000	-0.77215467802096	0.62491079374111
22.310000000000	-0.77112015294156	0.62611280779385
22.320000000000	-0.77007731454281	0.62732027201467
22.330000000000	-0.76902606692224	0.62853322121729
22.340000000000	-0.76796631278268	0.62975169037617
22.343750000000	-0.76756669179125	0.63021004658994
22.350000000000	-0.76689795340919	0.63097571462275
22.360000000000	-0.76582088864585	0.63220532924097
22.370000000000	-0.76473501687266	0.63344056966199
22.380000000000	-0.76364023498285	0.63468147145753
22.390000000000	-0.76253643836099	0.63592807033111
22.400000000000	-0.76142352086271	0.63718040210585
22.410000000000	-0.76030137479706	0.63843850270608
22.420000000000	-0.75916989091348	0.63970240812763
22.430000000000	-0.75802895839621	0.64097215438552
22.440000000000	-0.75687846486946	0.64224777741377
22.450000000000	-0.75571829641279	0.64352931285506
22.460000000000	-0.75454833755266	0.64481679557386
22.470000000000	-0.75336847098916	0.64611025841176
22.480000000000	-0.75217857549278	0.64740972881954
22.490000000000	-0.75097851168020	0.64871522256199
22.500000000000	-0.74976806586438	0.65002679010266
22.510000000000	-0.74854716098838	0.65134468463446
22.520000000000	-0.74731590372777	0.65266878658487
22.530000000000	-0.74607402249412	0.65399902306254
22.540000000000	-0.74482134231915	0.65533547815331
22.550000000000	-0.74355773176162	0.65667820895506
22.560000000000	-0.74228305934452	0.65802725918983
22.570000000000	-0.74099719010621	0.65938266860278
22.580000000000	-0.73969998600037	0.66074447565743
22.590000000000	-0.73839130628348	0.66211271835412
22.600000000000	-0.73707100771411	0.66348743450874
22.610000000000	-0.73573894464337	0.66486866185700
22.620000000000	-0.73439496905207	0.66625643809651
22.630000000000	-0.73303893056663	0.66765080090646
22.640000000000	-0.73167067647745	0.66905178796233
22.650000000000	-0.73029005179152	0.67045943695715
22.656250000000	-0.72942080968495	0.67134261736432
22.660000000000	-0.72889689939325	0.67187378564105
22.670000000000	-0.72749106054469	0.67329487188180
22.680000000000	-0.72607237664943	0.67472273357484
22.690000000000	-0.72464069707149	0.67615740565493
22.700000000000	-0.72319590511300	0.67759885669395
22.710000000000	-0.72173746172098	0.67904706980079
22.720000000000	-0.72026560146179	0.68050249578580
22.730000000000	-0.71878010173596	0.68196481171924
22.734375000000	-0.71812584022560	0.68260676404105
22.740000000000	-0.71728071620612	0.68343410002085
22.750000000000	-0.71576725937114	0.68491041112517
22.760000000000	-0.71423954617330	0.68639378533606
22.770000000000	-0.71269738860523	0.68788426008735
22.780000000000	-0.71114059544874	0.68938187165320
22.790000000000	-0.70956897224527	0.69088665565455
22.800000000000	-0.70798232126848	0.69239864723145
22.810000000000	-0.70638044148310	0.69391788110212
22.812500000000	-0.70597756815746	0.69429882520796
22.820000000000	-0.70476312849363	0.69544439157725
22.830000000000	-0.70313017448617	0.69697821255398
22.840000000000	-0.70148136816518	0.69851937749988
22.850000000000	-0.69981649468581	0.70006791943114
22.860000000000	-0.69813533558161	0.70162387088760
22.870000000000	-0.69643766868607	0.70318726390618
22.880000000000	-0.69472326804523	0.70475812999536
22.890000000000	-0.69299190381500	0.70633650011590
22.890625000000	-0.69288312499001	0.70643539810283
22.900000000000	-0.69124334213139	0.70792240468298
22.910000000000	-0.68947734493308	0.70951587363468
22.920000000000	-0.68769366972450	0.71111693671170
22.930000000000	-0.68589206947355	0.71272562440386
22.940000000000	-0.68407229443233	0.71434197040801
22.950000000000	-0.68223410261390	0.71596601018208
22.960000000000	-0.68037725756254	0.71759775034898
22.968750000000	-0.67873699104119	0.71903183634887
22.970000000000	-0.67850147174311	0.71923718846629
22.980000000000	-0.67660645678775	0.72088436710874
22.990000000000	-0.67469194650958	0.72253932173487
23.000000000000	-0.67275766943208	0.72420207576053
23.010000000000	-0.67080334606611	0.72587264951060
23.020000000000	-0.66882869063379	0.72755106223571
23.030000000000	-0.66683341182506	0.72923733223336
23.040000000000	-0.66481721300242	0.73093147671625
23.046875000000	-0.66341878437025	0.73210077723006
23.050000000000	-0.66277979219970	0.73263351168026
23.060000000000	-0.66072084203502	0.73434345179066
23.070000000000	-0.65864004956495	0.73606131027458
23.080000000000	-0.65653709605053	0.73778709880160
23.090000000000	-0.65441165649855	0.73952082731757
23.100000000000	-0.65226339841379	0.74126250373057
23.110000000000	-0.65009197654142	0.74301213311158
23.120000000000	-0.64789698519055	0.74476971932388
23.125000000000	-0.64679029471002	0.74565163915485
23.130000000000	-0.64567873281122	0.74653564866071
23.140000000000	-0.64343562977172	0.74830889784308
23.150000000000	-0.64116812704619	0.75009036663303
23.160000000000	-0.63887572979354	0.75187981364967
23.170000000000	-0.63655804883013	0.75367722175840
23.180000000000	-0.63421470006636	0.75548258079513
23.190000000000	-0.63184529511485	0.75729587984095
23.200000000000	-0.62944943939822	0.75911710593740
23.203125000000	-0.62869524675133	0.75968786239479
23.210000000000	-0.62702673151681	0.76094624370194
23.220000000000	-0.62457676295565	0.76278327517464
23.230000000000	-0.62209911796731	0.76462817977755
23.240000000000	-0.61959337372761	0.76648093434527
23.250000000000	-0.61705910116234	0.76834151291925
23.260000000000	-0.61449586663737	0.77020988451732
23.270000000000	-0.61190322896843	0.77208600591290
23.280000000000	-0.60928072265905	0.77396982575948
23.281250000000	-0.60895078518187	0.77420584268664
23.290000000000	-0.60662786743438	0.77586131034677
23.300000000000	-0.60394419367716	0.77776042737343
23.310000000000	-0.60122922754692	0.77966712919486
23.320000000000	-0.59848248231437	0.78158136005742
23.330000000000	-0.59570345993012	0.78350305995598
23.340000000000	-0.59289165236047	0.78543216482731
23.350000000000	-0.59004654193888	0.78736860613461
23.359375000000	-0.58734853635517	0.78919061764265
23.360000000000	-0.58716760133547	0.78931231049007
23.370000000000	-0.58425429340716	0.79126319934892
23.380000000000	-0.58130607101130	0.79322118874278
23.390000000000	-0.57832237680724	0.79518618903081
23.400000000000	-0.57530264305341	0.79715810465874
23.410000000000	-0.57224629140365	0.79913683392368
23.420000000000	-0.56915273270776	0.80112226875017
23.430000000000	-0.56602136683131	0.80311429449401
23.437500000000	-0.56364766418549	0.80461256634830
23.440000000000	-0.56285158254527	0.80511278981111
23.450000000000	-0.55964275767020	0.80711762665504
23.460000000000	-0.55639426018432	0.80912867031086
23.470000000000	-0.55310545239036	0.81114577707542
23.480000000000	-0.54977569109522	0.81316877537735
23.490000000000	-0.54640426996491	0.81519746877232
23.500000000000	-0.54299047097811	0.81723173581426
23.510000000000	-0.53953363347726	0.81927141605430
23.515625000000	-0.53756998826493	0.82042103923532
23.520000000000	-0.53603305954569	0.82131630719318
23.530000000000	-0.53248802581472	0.82336620342013
23.540000000000	-0.52889779463896	0.82542089260028
23.550000000000	-0.52526161510192	0.82748015306927
23.560000000000	-0.52157872263726	0.82954375229450
23.570000000000	-0.51784833862837	0.83161144615218
23.580000000000	-0.51406967008899	0.83368297839079
23.590000000000	-0.51024190942292	0.83575808016318
