#Parameters = {L=6; d=0.018; h=0.508; h_air=12; w=2.75}
#"Frequency / GHz"	"SZmax(1),Zmax(1) [Real/Imaginary Part] [Re]"	"SZmax(1),Zmax(1) [Real/Imaginary Part] [Im]"
#-------------------------------------------------------------------------------------------------------------
20.000000000000	-0.94749849178240	0.31536275425968
20.010000000000	-0.94735915631099	0.31576130112193
20.020000000000	-0.94721955735533	0.31616064529498
20.030000000000	-0.94707957769879	0.31656128136305
20.040000000000	-0.94693899537989	0.31696317474686
20.050000000000	-0.94679777709921	0.31736626262218
20.060000000000	-0.94665592300670	0.31777052411238
20.070000000000	-0.94651343450017	0.31817595518730
20.080000000000	-0.94637031113967	0.31858255793409
20.090000000000	-0.94622655104896	0.31899033686843
20.100000000000	-0.94608215143984	0.31939929758350
20.110000000000	-0.94593710895219	0.31980944620707
20.120000000000	-0.94579141985574	0.32022078916300
20.130000000000	-0.94564508016914	0.32063333305957
20.140000000000	-0.94549808573210	0.32104708463357
20.150000000000	-0.94535043224997	0.32146205072115
20.156250000000	-0.94525781220076	0.32172202434275
20.160000000000	-0.94520211532214	0.32187823824256
20.170000000000	-0.94505313046042	0.32229565419422
20.180000000000	-0.94490347310104	0.32271430564515
20.190000000000	-0.94475313861238	0.32313419973623
20.200000000000	-0.94460212229964	0.32355534368148
20.210000000000	-0.94445041940684	0.32397774477116
20.220000000000	-0.94429802511625	0.32440141037656
20.230000000000	-0.94414493454463	0.32482634795651
20.240000000000	-0.94399114273507	0.32525256506573
20.250000000000	-0.94383664464218	0.32568006936439
20.260000000000	-0.94368143510690	0.32610886862736
20.270000000000	-0.94352550881589	0.32653897074882
20.280000000000	-0.94336886023880	0.32697038373216
20.290000000000	-0.94321148353951	0.32740311564400
20.300000000000	-0.94305337247006	0.32783717449472
20.310000000000	-0.94289452029603	0.32827256799177
20.312500000000	-0.94285469062323	0.32838162574728
20.320000000000	-0.94273491988417	0.32870930313362
20.330000000000	-0.94257456417615	0.32914738575237
20.340000000000	-0.94241344718965	0.32958682042584
20.350000000000	-0.94225156513568	0.33002761138334
20.360000000000	-0.94208891650123	0.33046976438138
20.370000000000	-0.94192550040004	0.33091328813682
20.380000000000	-0.94176131438615	0.33135819386647
20.390000000000	-0.94159635357910	0.33180449348486
20.400000000000	-0.94143061130650	0.33225219814728
20.410000000000	-0.94126408017620	0.33270131784896
20.420000000000	-0.94109675279363	0.33315186168981
20.430000000000	-0.94092862203577	0.33360383827820
20.440000000000	-0.94075968107014	0.33405725603473
20.450000000000	-0.94058992328245	0.33451212336693
20.460000000000	-0.94041934219340	0.33496844875349
20.468750000000	-0.94026940333498	0.33536893627188
20.470000000000	-0.94024793139133	0.33542624077786
20.480000000000	-0.94007568448418	0.33588550813735
20.490000000000	-0.93990259506693	0.33634625964163
20.500000000000	-0.93972865669997	0.33680850420750
20.510000000000	-0.93955386289440	0.33727225085323
20.520000000000	-0.93937820710165	0.33773750869343
20.530000000000	-0.93920168270537	0.33820428693520
20.540000000000	-0.93902428301426	0.33867259487559
20.550000000000	-0.93884600125482	0.33914244190084
20.560000000000	-0.93866683056288	0.33961383748785
20.570000000000	-0.93848676397338	0.34008679120941
20.580000000000	-0.93830579440757	0.34056131274557
20.590000000000	-0.93812391465811	0.34103741190601
20.600000000000	-0.93794111737584	0.34151509867169
20.610000000000	-0.93775739507025	0.34199438326818
20.620000000000	-0.93757274015660	0.34247527628341
20.625000000000	-0.93748006061231	0.34271632939354
20.630000000000	-0.93738714512164	0.34295778881889
20.640000000000	-0.93720060291751	0.34344193256738
20.650000000000	-0.93701310759754	0.34392771949392
20.660000000000	-0.93682465469517	0.34441516069033
20.670000000000	-0.93663524017459	0.34490426481907
20.680000000000	-0.93644485787166	0.34539503821890
20.690000000000	-0.93625349822218	0.34588748758112
20.700000000000	-0.93606115001204	0.34638162220911
20.710000000000	-0.93586780265829	0.34687745366385
20.720000000000	-0.93567344688295	0.34737499431274
20.730000000000	-0.93547807429955	0.34787425642990
20.740000000000	-0.93528167688692	0.34837525197108
20.750000000000	-0.93508424667423	0.34887799263975
20.760000000000	-0.93488577560366	0.34938249000474
20.770000000000	-0.93468625548491	0.34988875559321
20.780000000000	-0.93448567798782	0.35039680095087
20.781250000000	-0.93446053103360	0.35046043233759
20.790000000000	-0.93428403464760	0.35090663767812
20.800000000000	-0.93408131687266	0.35141827745129
20.810000000000	-0.93387751595168	0.35193173203498
20.820000000000	-0.93367262305898	0.35244701328952
20.830000000000	-0.93346662925825	0.35296413317554
20.840000000000	-0.93325952550502	0.35348310375701
20.850000000000	-0.93305130264808	0.35400393720337
20.860000000000	-0.93284195143019	0.35452664579117
20.870000000000	-0.93263146248822	0.35505124190550
20.880000000000	-0.93241982635290	0.35557773804119
20.890000000000	-0.93220703344826	0.35610614680401
20.900000000000	-0.93199307409085	0.35663648091186
20.910000000000	-0.93177793848876	0.35716875319586
20.920000000000	-0.93156161674059	0.35770297660158
20.930000000000	-0.93134409883419	0.35823916419019
20.937500000000	-0.93118016933949	0.35864260179963
20.940000000000	-0.93112537464541	0.35877732913968
20.950000000000	-0.93090543393677	0.35931748474611
20.960000000000	-0.93068426635596	0.35985964442486
20.970000000000	-0.93046186143445	0.36040382171192
20.980000000000	-0.93023820858590	0.36095003026525
20.990000000000	-0.93001329710462	0.36149828386610
21.000000000000	-0.92978711616389	0.36204859642043
21.010000000000	-0.92955965481434	0.36260098196036
21.020000000000	-0.92933090198216	0.36315545464563
21.030000000000	-0.92910084646737	0.36371202876517
21.040000000000	-0.92886947694188	0.36427071873865
21.050000000000	-0.92863678194766	0.36483153911823
21.060000000000	-0.92840274989462	0.36539450459028
21.070000000000	-0.92816736905857	0.36595962997734
21.080000000000	-0.92793062757888	0.36652693024015
21.090000000000	-0.92769251345602	0.36709642048006
21.093750000000	-0.92760286430194	0.36731054703029
21.100000000000	-0.92745301454887	0.36766811594160
21.110000000000	-0.92721211857156	0.36824203201572
21.120000000000	-0.92696981308981	0.36881818424366
21.130000000000	-0.92672608551635	0.36939658832204
21.140000000000	-0.92648092310505	0.36997726010979
21.150000000000	-0.92623431294257	0.37056021563818
21.160000000000	-0.92598624193613	0.37114547112638
21.170000000000	-0.92573669679366	0.37173304300690
21.180000000000	-0.92548566398933	0.37232294797075
21.190000000000	-0.92523312969802	0.37291520305378
21.200000000000	-0.92497907965686	0.37350982581888
21.210000000000	-0.92472349883382	0.37410683478934
21.220000000000	-0.92446637048461	0.37470625066519
21.230000000000	-0.92420767267993	0.37530810069587
21.240000000000	-0.92394735795173	0.37591244306731
21.250000000000	-0.92368483209805	0.37651984877137
21.260000000000	-0.92342254503501	0.37712766123868
21.270000000000	-0.92315735971069	0.37773956020047
21.280000000000	-0.92289065198023	0.37835378085733
21.290000000000	-0.92262232228697	0.37897048974639
21.300000000000	-0.92235234137380	0.37958972732925
21.310000000000	-0.92208068941880	0.38021151872364
21.320000000000	-0.92180734894019	0.38083588529052
21.330000000000	-0.92153230316796	0.38146284719243
21.340000000000	-0.92125553552610	0.38209242418854
21.350000000000	-0.92097702943073	0.38272463593918
21.360000000000	-0.92069676819893	0.38335950214084
21.370000000000	-0.92041473500251	0.38399704259316
21.380000000000	-0.92013091284214	0.38463727723544
21.390000000000	-0.91984528453138	0.38528022616818
21.400000000000	-0.91955783268608	0.38592590966694
21.406250000000	-0.91937724146220	0.38633085958375
21.410000000000	-0.91926853971668	0.38657434819188
21.420000000000	-0.91897738782228	0.38722556239482
21.430000000000	-0.91868435898589	0.38787957312482
21.440000000000	-0.91838943497037	0.38853640143281
21.450000000000	-0.91809259731507	0.38919606857557
21.460000000000	-0.91779382733299	0.38985859601917
21.470000000000	-0.91749310610850	0.39052400544187
21.480000000000	-0.91719041449553	0.39119231873644
21.490000000000	-0.91688573311639	0.39186355801145
21.500000000000	-0.91657904236106	0.39253774559143
21.510000000000	-0.91627032238658	0.39321490401487
21.520000000000	-0.91595955311603	0.39389505602974
21.530000000000	-0.91564671423574	0.39457822458534
21.540000000000	-0.91533178518831	0.39526443282040
21.550000000000	-0.91501474515819	0.39595370404790
21.560000000000	-0.91469557304545	0.39664606174020
21.562500000000	-0.91461544437646	0.39681963618849
21.570000000000	-0.91437424742482	0.39734152952172
21.580000000000	-0.91405074649165	0.39804013118081
21.590000000000	-0.91372504800639	0.39874189071322
21.600000000000	-0.91339712926091	0.39944683240092
21.610000000000	-0.91306696709316	0.40015498091012
21.620000000000	-0.91273453796109	0.40086636137127
21.630000000000	-0.91239981805414	0.40158099940089
21.640000000000	-0.91206278339447	0.40229892105184
21.650000000000	-0.91172340988509	0.40302015271752
21.660000000000	-0.91138167329394	0.40374472103543
21.670000000000	-0.91103754919536	0.40447265282461
21.680000000000	-0.91069101290056	0.40520397506537
21.690000000000	-0.91034203939957	0.40593871491064
21.700000000000	-0.90999060332293	0.40667689971237
21.710000000000	-0.90963667892093	0.40741855705051
21.718750000000	-0.90932493332590	0.40807037766017
21.720000000000	-0.90928024005486	0.40816371475797
21.730000000000	-0.90892126019474	0.40891240093955
21.740000000000	-0.90855971241978	0.40966464398541
21.750000000000	-0.90819556941950	0.41042047258034
21.760000000000	-0.90782880349460	0.41117991571013
21.770000000000	-0.90745938655736	0.41194300266636
21.780000000000	-0.90708729013178	0.41270976305029
21.790000000000	-0.90671248535398	0.41348022677683
21.800000000000	-0.90633494297315	0.41425442407917
21.810000000000	-0.90595463335369	0.41503238551536
21.820000000000	-0.90557152647881	0.41581414197795
21.830000000000	-0.90518559195526	0.41659972470924
21.840000000000	-0.90479679901798	0.41738916532488
21.850000000000	-0.90440511653066	0.41818249584979
21.860000000000	-0.90401051297430	0.41897974876963
21.870000000000	-0.90361295640957	0.41978095709702
21.875000000000	-0.90341306063382	0.42018305501651
21.880000000000	-0.90321241439338	0.42058615444073
21.890000000000	-0.90280885383277	0.42139537504449
21.900000000000	-0.90240224078532	0.42220865373756
21.910000000000	-0.90199254027358	0.42302602573751
21.920000000000	-0.90157971624482	0.42384752631086
21.930000000000	-0.90116373179197	0.42467319042874
21.940000000000	-0.90074454959572	0.42550305264107
21.950000000000	-0.90032213235526	0.42633714728950
21.960000000000	-0.89989644296242	0.42717550893825
21.970000000000	-0.89946744437311	0.42801817276924
21.980000000000	-0.89903509932338	0.42886517477750
21.990000000000	-0.89859937006227	0.42971655177265
22.000000000000	-0.89816021818341	0.43057234128008
22.010000000000	-0.89771760455261	0.43143258142639
22.020000000000	-0.89727148929523	0.43229731085047
22.030000000000	-0.89682183180982	0.43316656864846
22.031250000000	-0.89676537351145	0.43327554623848
22.040000000000	-0.89636859078754	0.43404039434608
22.050000000000	-0.89591172422811	0.43491882788897
22.060000000000	-0.89545118944954	0.43580190964340
22.070000000000	-0.89498694309182	0.43668968040235
22.080000000000	-0.89451894111563	0.43758218139401
22.090000000000	-0.89404713879735	0.43847945429122
22.100000000000	-0.89357149072141	0.43938154122087
22.110000000000	-0.89309195077071	0.44028848477325
22.120000000000	-0.89260847211575	0.44120032801103
22.130000000000	-0.89212100720268	0.44211711447795
22.140000000000	-0.89162950774074	0.44303888820743
22.150000000000	-0.89113392468899	0.44396569373095
22.160000000000	-0.89063420824262	0.44489757608657
22.170000000000	-0.89013030781882	0.44583458082744
22.180000000000	-0.88962217204213	0.44677675403061
22.187500000000	-0.88923825939864	0.44748680375493
22.190000000000	-0.88910974872936	0.44772414230614
22.200000000000	-0.88859298487390	0.44867679280665
22.210000000000	-0.88807182662929	0.44963475323743
22.220000000000	-0.88754621929182	0.45059807186719
22.230000000000	-0.88701610728193	0.45156679753956
22.240000000000	-0.88648143412367	0.45254097968528
22.250000000000	-0.88594214242203	0.45352066833490
22.260000000000	-0.88539817383697	0.45450591413152
22.270000000000	-0.88484946905367	0.45549676834282
22.280000000000	-0.88429596774799	0.45649328287048
22.290000000000	-0.88373760854720	0.45749551025500
22.300000000000	-0.88317432898676	0.45850350367236
22.310000000000	-0.88260606546619	0.45951731691898
22.320000000000	-0.88203275321012	0.46053700438224
22.330000000000	-0.88145432624353	0.46156262099672
22.340000000000	-0.88087071739189	0.46259422219288
22.343750000000	-0.88065051420520	0.46298262693322
22.350000000000	-0.88028185831388	0.46363186385285
22.360000000000	-0.87968767956466	0.46467560229478
22.370000000000	-0.87908811067275	0.46572549430699
22.380000000000	-0.87848308020002	0.46678159724047
22.390000000000	-0.87787251575205	0.46784396914899
22.400000000000	-0.87725634391979	0.46891266894892
22.410000000000	-0.87663449015696	0.46998775657205
22.420000000000	-0.87600687861657	0.47106929310699
22.430000000000	-0.87537343197733	0.47215734096944
22.440000000000	-0.87473407129304	0.47325196421154
22.450000000000	-0.87408871595039	0.47435322922359
22.460000000000	-0.87343728412436	0.47546120643692
22.470000000000	-0.87277969571948	0.47657597440307
22.480000000000	-0.87211588781041	0.47769762644117
22.490000000000	-0.87144587233325	0.47882623965062
22.500000000000	-0.87076964952957	0.47996165198046
22.510000000000	-0.87008675802789	0.48110384043993
22.520000000000	-0.86939709489895	0.48225320376401
22.530000000000	-0.86870073018499	0.48340982189048
22.540000000000	-0.86799760223186	0.48457371617356
22.550000000000	-0.86728761488822	0.48574493596941
22.560000000000	-0.86657066736527	0.48692354464085
22.570000000000	-0.86584665805419	0.48810961134738
22.580000000000	-0.86511548451240	0.48930320806696
22.590000000000	-0.86437704310386	0.49050440849824
22.600000000000	-0.86363122872116	0.49171328762618
22.610000000000	-0.86287793459714	0.49292992153891
22.620000000000	-0.86211705217368	0.49415438734796
22.630000000000	-0.86134847100403	0.49538676315420
22.640000000000	-0.86057207867436	0.49662712803536
22.650000000000	-0.85978776073635	0.49787556204421
22.652500000000	-0.85959042926494	0.49818894082192
22.660000000000	-0.85899540064617	0.49913214621230
22.670000000000	-0.85819487970700	0.50039696255662
22.680000000000	-0.85738607701341	0.50167009408769
22.690000000000	-0.85656886939669	0.50295162481831
22.700000000000	-0.85574313137042	0.50424163977225
22.710000000000	-0.85490873507593	0.50554022499230
22.720000000000	-0.85406555022773	0.50684746754713
22.730000000000	-0.85321344405862	0.50816345553569
22.740000000000	-0.85235228126510	0.50948827808770
22.750000000000	-0.85148192395357	0.51082202535706
22.760000000000	-0.85060223158856	0.51216478850266
22.770000000000	-0.84971306094525	0.51351665964526
22.780000000000	-0.84881426606999	0.51487773177591
22.790000000000	-0.84790569825521	0.51624809855888
22.800000000000	-0.84698720603543	0.51762785387944
22.805000000000	-0.84652419018811	0.51832128138880
22.810000000000	-0.84605863518586	0.51901709069001
22.820000000000	-0.84511982845257	0.52041589755017
22.830000000000	-0.84417062211047	0.52182434545012
22.840000000000	-0.84321079257782	0.52324242013037
22.850000000000	-0.84223925686566	0.52467060494718
22.860000000000	-0.84125836475810	0.52610964379656
22.870000000000	-0.84026610048784	0.52755789358620
22.880000000000	-0.83926242165518	0.52901636292641
22.890000000000	-0.83824726393087	0.53048516203283
22.900000000000	-0.83722046708554	0.53196439004648
22.910000000000	-0.83618184993202	0.53345415177384
22.920000000000	-0.83513122259511	0.53495455548891
22.930000000000	-0.83406838946787	0.53646571178135
22.940000000000	-0.83299315009798	0.53798773305802
22.950000000000	-0.83190529946698	0.53952073331782
22.957500000000	-0.83108100948313	0.54067775788698
22.960000000000	-0.83080462805341	0.54106482804469
22.970000000000	-0.82969092180638	0.54262013415566
22.980000000000	-0.82856396207712	0.54418676997647
22.990000000000	-0.82742352552810	0.54576485523216
23.000000000000	-0.82626938402851	0.54735451104690
23.010000000000	-0.82510130454003	0.54895585995072
23.020000000000	-0.82391904899409	0.55056902589336
23.030000000000	-0.82272237415961	0.55219413426822
23.040000000000	-0.82151103149607	0.55383131195383
23.050000000000	-0.82028476697683	0.55548068738985
23.060000000000	-0.81904332083573	0.55714239072579
23.070000000000	-0.81778642707511	0.55881655412402
23.080000000000	-0.81651381209446	0.56050331231978
23.090000000000	-0.81522518964009	0.56220280247114
23.100000000000	-0.81392024587553	0.56391514647740
23.110000000000	-0.81259871950958	0.56564038096294
23.120000000000	-0.81126045811976	0.56737874886902
23.130000000000	-0.80990502771209	0.56913046031778
23.140000000000	-0.80853209915861	0.57089559633005
23.150000000000	-0.80714136860129	0.57267428595220
23.160000000000	-0.80573251810069	0.57446667111563
23.170000000000	-0.80430521896017	0.57627289670702
23.180000000000	-0.80285913359193	0.57809310910338
23.190000000000	-0.80139391606452	0.57992745596076
23.200000000000	-0.79990921218229	0.58177608618994
23.210000000000	-0.79840465939299	0.58363914995184
23.220000000000	-0.79687988662606	0.58551679864510
23.230000000000	-0.79533451410119	0.58740918488033
23.240000000000	-0.79376815312819	0.58931646243673
23.250000000000	-0.79218040591726	0.59123878619128
23.260000000000	-0.79057086543496	0.59317631199684
23.270000000000	-0.78893911539654	0.59512919645019
23.280000000000	-0.78728473068707	0.59709759639103
23.290000000000	-0.78560727939595	0.59908166766933
23.300000000000	-0.78390633313963	0.60108156212271
23.310000000000	-0.78218154683039	0.60309744453088
23.320000000000	-0.78043218456716	0.60513025247607
23.330000000000	-0.77865738660555	0.60717843186448
23.332500000000	-0.77820983066807	0.60769306913847
23.340000000000	-0.77685757164551	0.60924324270750
23.350000000000	-0.77503183947650	0.61132478093991
23.360000000000	-0.77317965372912	0.61342316603543
23.370000000000	-0.77130048215036	0.61553855220348
23.380000000000	-0.76939378052654	0.61767110211730
23.390000000000	-0.76745899102479	0.61982098143457
23.400000000000	-0.76549554167447	0.62198835717953
23.410000000000	-0.76350284596272	0.62417339710368
23.415000000000	-0.76249534335926	0.62527259367025
23.420000000000	-0.76148030242495	0.62637626935571
23.430000000000	-0.75942729421624	0.62859714226358
23.440000000000	-0.75734318866365	0.63083618416023
23.450000000000	-0.75522733680096	0.63309356322532
23.460000000000	-0.75307907288722	0.63536944733115
23.470000000000	-0.75089771391045	0.63766400388666
23.480000000000	-0.74868255907801	0.63997739967587
23.490000000000	-0.74643288929587	0.64230980068787
23.500000000000	-0.74414796663935	0.64466137193439
23.510000000000	-0.74182703381828	0.64703227724860
23.520000000000	-0.73946931363799	0.64942267905455
23.530000000000	-0.73707400845183	0.65183273809149
23.540000000000	-0.73464029958866	0.65426261307405
23.550000000000	-0.73216734671889	0.65671246027594
23.560000000000	-0.72965428710305	0.65918243305391
23.567500000000	-0.72774264022124	0.66104821040332
23.570000000000	-0.72710023467448	0.66167268138195
23.580000000000	-0.72450427897201	0.66418335151612
23.590000000000	-0.72186548405383	0.66671458588839
23.600000000000	-0.71918288759443	0.66926652319054
23.610000000000	-0.71645550028340	0.67183929844240
23.620000000000	-0.71368230544097	0.67443304281172
23.630000000000	-0.71086225863291	0.67704788310793
23.640000000000	-0.70799428712161	0.67968394105003
23.650000000000	-0.70507728914651	0.68234133245524
