!Agilent Technologies,E8362C,MY49020356,A.09.42.23
!Agilent E8362C: A.09.42.23
!Date: Monday, May 29, 2023 19:48:12
!Correction: S11(Full 2 Port(1,2)) 
!S21(Full 2 Port(1,2)) 
!S12(Full 2 Port(1,2)) 
!S22(Full 2 Port(1,2)) 
!S2P File: Measurements: S11, S21, S12, S22:
# Hz S  RI   R 50
8000000000 -0.032766171 0.011017164 0.14840828 0.9786467 0.14803356 0.97773695 -0.038004261 -0.0033422085
8002500000 -0.031743031 0.012425496 0.19276698 0.97166651 0.19194673 0.97067904 -0.03722012 -0.0013687786
8005000000 -0.029364435 0.013985358 0.23751399 0.96104491 0.23566359 0.96173579 -0.036453929 -0.00084437709
8007500000 -0.028659694 0.01529948 0.27942258 0.95088083 0.27872112 0.95078707 -0.035796735 0.00086143438
8010000000 -0.026466016 0.015895091 0.32290339 0.93676919 0.32051182 0.93649095 -0.034654282 0.0012913235
8012500000 -0.025006821 0.016976897 0.36535209 0.92034519 0.36277425 0.92188513 -0.03271386 0.0033282365
8015000000 -0.022970758 0.017526489 0.40502569 0.90422899 0.40393758 0.90369081 -0.031828087 0.0030570752
8017500000 -0.021507055 0.018111696 0.44569793 0.88406175 0.4455272 0.88505888 -0.030394325 0.0046856268
8020000000 -0.018982066 0.01922656 0.48695806 0.86273557 0.48456272 0.86476362 -0.029256502 0.0045438791
8022500000 -0.017370496 0.018759903 0.52325779 0.84031808 0.52209646 0.84017313 -0.027267277 0.0055773691
8025000000 -0.016270179 0.018973595 0.56141728 0.81733537 0.55937004 0.81694907 -0.026295712 0.0054781744
8027500000 -0.014533157 0.018419322 0.59790748 0.79176199 0.5960198 0.79115194 -0.02407852 0.0061726863
8030000000 -0.0125524 0.018482711 0.6323719 0.76389605 0.63065815 0.76252949 -0.022456653 0.0062315394
8032500000 -0.011099081 0.017972767 0.66574925 0.7357102 0.66381466 0.732979 -0.020559492 0.0057582394
8035000000 -0.0091456398 0.017459761 0.69843775 0.70485812 0.69689357 0.70470864 -0.019621456 0.0063271229
8037500000 -0.008160105 0.016432276 0.72819519 0.67334044 0.72828335 0.6708762 -0.017875059 0.0054906728
8040000000 -0.0049711163 0.015624992 0.75869972 0.63891202 0.75828511 0.64026374 -0.016485557 0.0054515707
8042500000 -0.0042460677 0.014291549 0.78470063 0.60350341 0.78470737 0.60524088 -0.014163233 0.0043255985
8045000000 -0.0021649261 0.013371145 0.81382298 0.56879681 0.81136894 0.57021016 -0.013232972 0.0046247076
8047500000 -0.002372789 0.011846796 0.83588296 0.5326159 0.83636326 0.53233796 -0.011621483 0.0034673279
8050000000 -0.00072439486 0.010405771 0.85953832 0.49408579 0.86068165 0.49358833 -0.010043627 0.003081366
8052500000 -0.00010787981 0.0091300318 0.88158739 0.4552508 0.88093656 0.45520848 -0.0089299465 0.0018162758
8055000000 0.00027853184 0.0077038417 0.89897263 0.41577834 0.8989622 0.41629007 -0.0081323767 0.00087582658
8057500000 0.00075087574 0.0058047296 0.91811109 0.37365058 0.91805446 0.37370691 -0.0064511308 -0.0011637768
8060000000 0.0013950963 0.0044753896 0.93400669 0.33299315 0.93252945 0.33401033 -0.005269981 -0.0017764483
8062500000 0.0021654295 0.0028286981 0.94928306 0.29001242 0.94754684 0.29336834 -0.0049942508 -0.0032529165
8065000000 0.0017441532 0.0010100454 0.95959389 0.24898814 0.96050352 0.24825951 -0.0038362206 -0.0042477529
8067500000 0.001670713 -0.00027512811 0.97092509 0.20673265 0.97057974 0.2070263 -0.0036193272 -0.0059821736
8070000000 0.0018490504 -0.0017320007 0.97730857 0.16057031 0.97742903 0.16196099 -0.0030438753 -0.0070425635
8072500000 0.0016533479 -0.0028920132 0.98505276 0.11917947 0.98376942 0.11871088 -0.0026025965 -0.0088690389
8075000000 0.0015769064 -0.0044726809 0.98771739 0.073048934 0.98866946 0.0737084 -0.0028655219 -0.0097690476
8077500000 0.00074941159 -0.0066821966 0.99125445 0.030762918 0.99148506 0.032581203 -0.0029045255 -0.011518589
8080000000 7.9981306e-005 -0.0073774029 0.99240887 -0.013550915 0.99284732 -0.014305713 -0.0030002671 -0.012323338
8082500000 -3.8632756e-005 -0.0096129142 0.99039561 -0.056712989 0.98867226 -0.055201419 -0.0029938512 -0.014356917
8085000000 -0.00071431493 -0.010466797 0.98498887 -0.1019336 0.98628187 -0.099869207 -0.0037896633 -0.015263065
8087500000 -0.0014966677 -0.011916396 0.98008156 -0.14469963 0.98064047 -0.14302291 -0.0041983556 -0.01684542
8090000000 -0.0025332232 -0.013145607 0.97401685 -0.18790542 0.97297764 -0.18599175 -0.0049185031 -0.018014157
8092500000 -0.0035012928 -0.013954007 0.96363133 -0.23107 0.96593988 -0.23118444 -0.0060527544 -0.018808335
8095000000 -0.0046869838 -0.015348827 0.95201451 -0.27352291 0.95391572 -0.27157408 -0.0067115608 -0.019819461
8097500000 -0.0057354644 -0.0163329 0.94095355 -0.31443724 0.94015968 -0.31473878 -0.0072474075 -0.020796468
8100000000 -0.0066684275 -0.017522564 0.92496979 -0.35557848 0.92507023 -0.35426325 -0.0086812647 -0.021669036
8102500000 -0.0077882325 -0.018162815 0.90844923 -0.39779055 0.90826148 -0.39505446 -0.0099551342 -0.022279017
8105000000 -0.0095457789 -0.018749407 0.88961506 -0.438528 0.8898735 -0.43621659 -0.011011651 -0.022202579
8107500000 -0.010527099 -0.019148892 0.86959517 -0.47531712 0.87159932 -0.4747026 -0.012600572 -0.023345821
8110000000 -0.012122953 -0.019615291 0.8475967 -0.51336181 0.84938163 -0.51274276 -0.013290506 -0.023903916
8112500000 -0.013205691 -0.020877358 0.82439631 -0.54912037 0.82572144 -0.54951304 -0.015192174 -0.024003334
8115000000 -0.015023505 -0.020563824 0.80136174 -0.58547693 0.79905123 -0.58398211 -0.01708567 -0.023928512
8117500000 -0.016320506 -0.020820789 0.77344888 -0.61944997 0.77392256 -0.61753917 -0.018409571 -0.023826035
8120000000 -0.017399309 -0.020699691 0.74515009 -0.65316105 0.74697101 -0.65294898 -0.019174473 -0.024035132
8122500000 -0.018856455 -0.021034397 0.71613932 -0.68492264 0.71790874 -0.68326676 -0.021329511 -0.023738936
8125000000 -0.020319756 -0.020521905 0.6855126 -0.7172631 0.68664479 -0.71444321 -0.02199774 -0.023692589
8127500000 -0.022161806 -0.019972542 0.65222085 -0.74665552 0.65384918 -0.74495083 -0.023617314 -0.022225346
8130000000 -0.02354222 -0.019607155 0.62015349 -0.77400804 0.6199829 -0.77252716 -0.025370212 -0.022170516
8132500000 -0.024744693 -0.018655621 0.58485603 -0.79851884 0.5855695 -0.79878885 -0.026677417 -0.020985898
8135000000 -0.026055759 -0.018087631 0.55006981 -0.82548255 0.54910022 -0.8235805 -0.02783715 -0.020399772
8137500000 -0.02698203 -0.017118458 0.51339567 -0.84856606 0.51460618 -0.84592509 -0.028705036 -0.018943494
8140000000 -0.028511724 -0.016272604 0.47421589 -0.86977011 0.47559771 -0.86886209 -0.029976042 -0.018441584
8142500000 -0.029627724 -0.015013999 0.43719292 -0.88898551 0.43765062 -0.89005905 -0.030761516 -0.017129676
8145000000 -0.030340353 -0.01399731 0.39629883 -0.90659279 0.39901981 -0.90945953 -0.03167804 -0.016180629
8147500000 -0.03064842 -0.012876431 0.35815629 -0.92343175 0.35851845 -0.92440873 -0.032565679 -0.014403002
8150000000 -0.032033984 -0.011326581 0.31597835 -0.94063479 0.31699377 -0.93811643 -0.032592967 -0.013182315
8152500000 -0.032159947 -0.0097730746 0.27725285 -0.95125109 0.27522799 -0.95215577 -0.033771254 -0.011524951
8155000000 -0.032702573 -0.0081117656 0.23385727 -0.96354419 0.23497802 -0.96278876 -0.033106957 -0.010508833
8157500000 -0.032593593 -0.006883611 0.19171546 -0.97264969 0.19238122 -0.97388661 -0.033798449 -0.0089794304
8160000000 -0.033077318 -0.0057412535 0.14977774 -0.98064619 0.14937907 -0.97953302 -0.033683829 -0.0078940811
8162500000 -0.032846846 -0.0041042757 0.10613807 -0.98515123 0.10573358 -0.98522776 -0.033605386 -0.0063339993
8165000000 -0.033029888 -0.0025438708 0.064578742 -0.98978847 0.064349182 -0.9879604 -0.033187825 -0.0048696278
8167500000 -0.032440163 -0.0015224722 0.02122033 -0.99147922 0.019865396 -0.99047244 -0.033018727 -0.0030733966
8170000000 -0.031896204 0.00027969369 -0.022530803 -0.99065691 -0.020812571 -0.99189049 -0.032355532 -0.0016488918
8172500000 -0.03124428 0.0023174905 -0.064052567 -0.98974597 -0.063875794 -0.9897216 -0.031606209 -0.0005134964
8175000000 -0.030926187 0.0031425585 -0.10577889 -0.98563796 -0.10725547 -0.98538518 -0.03142589 0.001332941
8177500000 -0.029867984 0.0050799064 -0.15118797 -0.98020542 -0.15145604 -0.98061675 -0.030600892 0.0023513793
8180000000 -0.029545119 0.0062497193 -0.19372816 -0.97272974 -0.19353084 -0.97190851 -0.029526077 0.0029558036
8182500000 -0.028293731 0.0076576625 -0.23594874 -0.96480036 -0.23352242 -0.96489316 -0.02884762 0.0039831609
8185000000 -0.027944263 0.0081809973 -0.27792335 -0.95081079 -0.27710843 -0.95154893 -0.027200913 0.0047681481
8187500000 -0.026263237 0.0091838744 -0.31770259 -0.93774492 -0.31617767 -0.9399237 -0.02618796 0.0053801727
8190000000 -0.024446899 0.010113236 -0.35991091 -0.92335916 -0.35798955 -0.92471659 -0.025028367 0.0064575095
8192500000 -0.023568518 0.010988512 -0.39802197 -0.90897596 -0.39756888 -0.90832633 -0.023452824 0.0068225879
8195000000 -0.023081936 0.011844208 -0.43854403 -0.89129883 -0.43631992 -0.89063072 -0.022403408 0.0072741713
8197500000 -0.021566486 0.012295052 -0.47453919 -0.87009937 -0.4753406 -0.8718431 -0.021126682 0.0076374086
8200000000 -0.020047374 0.013585825 -0.51217848 -0.84917605 -0.51184237 -0.84923226 -0.020997921 0.0080639692
8202500000 -0.018305747 0.013251616 -0.54987991 -0.82633168 -0.54796714 -0.82636249 -0.018909516 0.0085142078
8205000000 -0.017542329 0.013773672 -0.58448207 -0.80061513 -0.58288938 -0.8013618 -0.017703513 0.0091410708
8207500000 -0.01501764 0.014035366 -0.61626154 -0.77541339 -0.61746192 -0.77659357 -0.016220359 0.0094478466
8210000000 -0.0144855 0.013624884 -0.65053827 -0.74875611 -0.64968044 -0.74914622 -0.014486124 0.0085795773
8212500000 -0.013158199 0.01471394 -0.68268222 -0.71895218 -0.68107355 -0.72098511 -0.013057811 0.0089433752
8215000000 -0.011382583 0.01336589 -0.71286076 -0.68855417 -0.71145219 -0.69115627 -0.01215331 0.0089587988
8217500000 -0.010361801 0.013825099 -0.74348253 -0.65863556 -0.74115568 -0.65816504 -0.010708468 0.0090414276
8220000000 -0.0082798554 0.012743535 -0.76877439 -0.62600261 -0.76640159 -0.62659484 -0.0091137299 0.0079751546
8222500000 -0.0077016009 0.01291703 -0.79470801 -0.59222674 -0.79504442 -0.59388399 -0.0077229496 0.0077548423
8225000000 -0.006268736 0.011777411 -0.8206051 -0.55789101 -0.81904709 -0.55988955 -0.0065950183 0.0071876054
8227500000 -0.0052043884 0.011074292 -0.84330851 -0.52255076 -0.84328306 -0.52360702 -0.0059946193 0.0067235404
8230000000 -0.0040866537 0.010518416 -0.86528462 -0.48477051 -0.86314195 -0.48691854 -0.0043394482 0.0063289199
8232500000 -0.0031766018 0.0093861213 -0.8856523 -0.4463864 -0.88473701 -0.44944432 -0.0032101208 0.0058190012
8235000000 -0.002217154 0.0085867168 -0.90277958 -0.40981412 -0.90282267 -0.40972811 -0.0026716259 0.0045235888
8237500000 -0.0013600903 0.0076126745 -0.92180413 -0.36931923 -0.91983402 -0.3720845 -0.0015727589 0.003502612
8240000000 -0.00083521061 0.0066093719 -0.93618006 -0.33048296 -0.93631542 -0.33192003 -0.0011760982 0.0026795827
8242500000 -0.00039850126 0.0050780042 -0.94901377 -0.28900206 -0.94824892 -0.29169044 -0.00019849288 0.0021063725
8245000000 0.0005452084 0.0039925585 -0.96003455 -0.24936791 -0.96047896 -0.25041965 0.00055156939 0.00013680072
8247500000 0.0011001071 0.0021635268 -0.971421 -0.20955954 -0.9693712 -0.20936148 0.00094838894 -0.00043690237
8250000000 0.0009981785 0.0011896697 -0.97943997 -0.16686451 -0.97866893 -0.1675074 0.0011194114 -0.0016722713
8252500000 0.0014248646 1.1674873e-005 -0.98429006 -0.12422752 -0.98427838 -0.12583108 0.0016826994 -0.0030764688
8255000000 0.0015849276 -0.0014152172 -0.98803103 -0.081999019 -0.98879462 -0.082330875 0.0017638275 -0.0042356751
8257500000 0.0015599477 -0.0025511538 -0.99261314 -0.039979134 -0.99246722 -0.040525593 0.0014951751 -0.0055477885
8260000000 0.0016452194 -0.0040206104 -0.99033904 0.0026407735 -0.99125469 0.0016721232 0.0013444981 -0.0068013133
8262500000 0.0012743112 -0.0054338444 -0.99137771 0.046062957 -0.99082714 0.043251079 0.00095827208 -0.008079973
8265000000 0.00097919069 -0.0068002343 -0.98909032 0.087046005 -0.98869538 0.086612359 0.00030702364 -0.0092597213
8267500000 0.00075656106 -0.0083101708 -0.9840647 0.12830716 -0.98347962 0.12732151 -0.00030739952 -0.01048321
8270000000 0.0001487947 -0.0096316831 -0.97810447 0.17156044 -0.97752011 0.16873071 -0.00073785929 -0.01145637
8272500000 -0.00025596531 -0.01084731 -0.96843028 0.21149182 -0.96819973 0.21183236 -0.0018240463 -0.012708312
8275000000 -0.00097738579 -0.011972305 -0.95807743 0.25205672 -0.95891112 0.25327796 -0.0026031698 -0.013687861
8277500000 -0.001828321 -0.013381972 -0.94652683 0.29356891 -0.94704121 0.29383582 -0.0037046191 -0.014681191
8280000000 -0.0024480985 -0.014673389 -0.93251914 0.33323228 -0.93341678 0.33306435 -0.0050514527 -0.01519241
8282500000 -0.0034551574 -0.015415836 -0.92009401 0.37282649 -0.92026991 0.37244552 -0.0062358854 -0.016196566
8285000000 -0.0045197876 -0.016737239 -0.90343308 0.41132483 -0.90283024 0.41008329 -0.0074073742 -0.016830148
8287500000 -0.0056115617 -0.017608162 -0.88365066 0.45023698 -0.88395071 0.44753206 -0.0085728737 -0.017008709
8290000000 -0.0067162854 -0.01853556 -0.86431026 0.4863849 -0.86427826 0.48667303 -0.010200728 -0.01768947
8292500000 -0.0077695865 -0.018922376 -0.84248686 0.52226567 -0.84290415 0.5231505 -0.011497961 -0.017436875
8295000000 -0.0089318221 -0.020062121 -0.81980544 0.55751044 -0.82201546 0.55721635 -0.013165403 -0.018051164
8297500000 -0.010493807 -0.020189498 -0.79591042 0.59302109 -0.7960428 0.59237921 -0.014378832 -0.017685631
8300000000 -0.011818088 -0.020839287 -0.7690897 0.62766916 -0.76973712 0.62561619 -0.015758943 -0.017627634
8302500000 -0.013153986 -0.021550555 -0.74207443 0.65707135 -0.74206489 0.65781373 -0.017017405 -0.017570863
8305000000 -0.014894549 -0.021569116 -0.71395344 0.68959028 -0.71484137 0.68872499 -0.018218745 -0.017435908
8307500000 -0.016371248 -0.021712566 -0.6839081 0.71955365 -0.68315542 0.71816999 -0.020125499 -0.016772268
8310000000 -0.017941345 -0.021408826 -0.65231639 0.74734777 -0.65294296 0.7457031 -0.020943806 -0.016232552
8312500000 -0.019275803 -0.020753056 -0.61972976 0.7737723 -0.62229109 0.77264303 -0.022137072 -0.015903421
8315000000 -0.020646513 -0.02049586 -0.58767366 0.80007613 -0.58770031 0.79784065 -0.023409232 -0.015128241
8317500000 -0.02160148 -0.019821091 -0.55371803 0.82123244 -0.55375981 0.82084411 -0.025122298 -0.014485506
8320000000 -0.023508074 -0.019898489 -0.51760125 0.84635049 -0.51801252 0.84407306 -0.025389759 -0.013263293
8322500000 -0.025031509 -0.018436199 -0.48321307 0.86664599 -0.48204228 0.86544305 -0.026500331 -0.012210241
8325000000 -0.026048165 -0.018067822 -0.44549656 0.88539398 -0.44686183 0.88640893 -0.02716995 -0.011509415
8327500000 -0.02704191 -0.016872374 -0.40541717 0.90182161 -0.40853176 0.90285838 -0.028470388 -0.010430682
8330000000 -0.028041167 -0.01582022 -0.36889201 0.91865039 -0.37036014 0.91880894 -0.028489688 -0.009261582
8332500000 -0.029129956 -0.013998309 -0.32949516 0.93509108 -0.33126402 0.9325521 -0.02935469 -0.0079978062
8335000000 -0.029413804 -0.013110829 -0.28969407 0.94688475 -0.29341933 0.94662708 -0.029374836 -0.0066736876
8337500000 -0.030800015 -0.01164748 -0.24989749 0.95776927 -0.25121889 0.95797098 -0.029857989 -0.0056897099
8340000000 -0.031077871 -0.01023223 -0.20955352 0.96851814 -0.21107121 0.96867412 -0.029929716 -0.0037364603
8342500000 -0.031364676 -0.008755412 -0.1700023 0.97672194 -0.16996728 0.97609162 -0.029733982 -0.002900037
8345000000 -0.031243049 -0.0068501304 -0.12901883 0.98214573 -0.12700786 0.98394698 -0.029887747 -0.001290039
8347500000 -0.031633258 -0.0060019498 -0.086065233 0.98731035 -0.088155061 0.98831993 -0.029176567 0.00015190206
8350000000 -0.032023635 -0.0039307782 -0.045822553 0.9912051 -0.045534495 0.99084985 -0.029312907 0.00075073505
8352500000 -0.031409658 -0.0027274149 -0.0031929454 0.99293971 -0.003890181 0.99105805 -0.029337522 0.0019179154
8355000000 -0.031135857 -0.0009159107 0.036274511 0.9905023 0.037470292 0.99186766 -0.028210726 0.0030643565
8357500000 -0.030360959 0.00063569477 0.079483747 0.98869908 0.079050452 0.98967487 -0.027785452 0.0043926528
8360000000 -0.030178903 0.0017861675 0.12111235 0.98560303 0.1199624 0.98513186 -0.027615976 0.0055740476
8362500000 -0.029087421 0.0037273127 0.16166238 0.97922385 0.16182932 0.97776437 -0.025930172 0.0064604534
8365000000 -0.028338188 0.0045275139 0.20330551 0.97103333 0.20133206 0.97052336 -0.02552234 0.0077894768
8367500000 -0.027658321 0.0062156483 0.24254487 0.9617455 0.24150348 0.96161091 -0.025119722 0.0087491078
8370000000 -0.026738081 0.0065776021 0.28263348 0.95087516 0.28144458 0.95172209 -0.023389179 0.0091258511
8372500000 -0.026495168 0.0081858626 0.32067528 0.93827385 0.32143006 0.93736899 -0.022519285 0.010300916
8375000000 -0.024806384 0.0088862376 0.36131573 0.92290699 0.35889876 0.92428744 -0.02137373 0.011235041
8377500000 -0.023724468 0.010000116 0.3998881 0.90796268 0.39838383 0.90779978 -0.020650011 0.012067855
8380000000 -0.022422897 0.01133251 0.43601939 0.89111483 0.43482789 0.89154506 -0.019114248 0.012157765
8382500000 -0.021569068 0.011179983 0.47316915 0.87307781 0.47394827 0.87136948 -0.018713547 0.0126462
8385000000 -0.020381305 0.012224397 0.51003671 0.85226715 0.50792038 0.85080063 -0.017263277 0.01337288
8387500000 -0.019144084 0.012461438 0.54491693 0.82845366 0.54401386 0.82977176 -0.015647551 0.01348081
8390000000 -0.018044554 0.013368933 0.57830977 0.80557615 0.57770699 0.80579102 -0.014622877 0.013712131
8392500000 -0.016414452 0.013754327 0.61230063 0.78136653 0.61069411 0.78051752 -0.013518569 0.013635688
8395000000 -0.015105371 0.01370213 0.64355725 0.75454766 0.64300698 0.75615901 -0.012254091 0.014196622
8397500000 -0.013876486 0.014554632 0.67562532 0.72800213 0.67415327 0.72726792 -0.011249952 0.014221081
8400000000 -0.012522222 0.014164864 0.70310682 0.69779271 0.70418209 0.7007339 -0.0095115202 0.014024494
8402500000 -0.010925382 0.014127162 0.73375678 0.66831851 0.73064113 0.66898239 -0.0089825382 0.014040451
8405000000 -0.0099985683 0.013550223 0.76034719 0.63828158 0.75832838 0.64030522 -0.0077862539 0.013524984
8407500000 -0.0095590753 0.013693827 0.78451926 0.60500395 0.78475738 0.60676235 -0.0067383195 0.013397203
8410000000 -0.0070798118 0.013778441 0.80963635 0.57165998 0.80844879 0.57246625 -0.0055012903 0.013140385
8412500000 -0.0063786469 0.012856609 0.83261746 0.5382992 0.83275938 0.53956562 -0.0047245631 0.012453851
8415000000 -0.0047580088 0.012681737 0.8548103 0.50272369 0.85465401 0.50236148 -0.003837818 0.012124442
8417500000 -0.0043249372 0.011646306 0.87354624 0.46841136 0.8740496 0.47029334 -0.0028497472 0.011276098
8420000000 -0.0024069427 0.011146308 0.89255476 0.431146 0.89235669 0.43154117 -0.002489194 0.010551566
8422500000 -0.0017825246 0.0097399112 0.90930682 0.39422071 0.90957808 0.39491692 -0.0014653559 0.0095637655
8425000000 -0.001095932 0.0094504226 0.92610139 0.35603231 0.92587334 0.35712215 -0.0013727279 0.0091640949
8427500000 0.0003722604 0.0083344588 0.93993121 0.31696853 0.94103378 0.31610772 -0.00054244127 0.0080053033
8430000000 0.00076824252 0.0072223959 0.9525246 0.27804241 0.95131165 0.27800071 -0.00048074569 0.0073445933
8432500000 0.002150211 0.0057391282 0.96476555 0.23848188 0.96234232 0.23866035 -8.3689403e-005 0.006458126
8435000000 0.00197908 0.0044180355 0.97112936 0.19860907 0.97212917 0.19972269 0.0003702199 0.004905879
8437500000 0.0031521863 0.0027938019 0.97853476 0.15935223 0.97858644 0.15916751 0.00041892956 0.0038112411
8440000000 0.0033777109 0.0015136789 0.98544449 0.11774831 0.98569095 0.11789022 0.00036194452 0.0026854228
8442500000 0.0037365046 5.8234582e-005 0.9901576 0.076555967 0.98936439 0.076840833 0.00013118918 0.0017233416
8445000000 0.0037799051 -0.0010054901 0.99177033 0.035922289 0.99093491 0.037897378 0.00033136149 0.00075972272
8447500000 0.0038916541 -0.0028897868 0.99181223 -0.0058691842 0.99306172 -0.0050031221 0.000337084 -0.00089733838
8450000000 0.0040749535 -0.0039761397 0.99166185 -0.045634124 0.9915365 -0.044103175 -0.00019217053 -0.0017627879
