!Agilent Technologies,E8362C,MY49020356,A.09.42.23
!Agilent E8362C: A.09.42.23
!Date: Wednesday, May 31, 2023 17:13:27
!Correction: S11(Full 2 Port(1,2)) 
!S21(Full 2 Port(1,2)) 
!S12(Full 2 Port(1,2)) 
!S22(Full 2 Port(1,2)) 
!S2P File: Measurements: S11, S21, S12, S22:
# Hz S  RI   R 50
8000000000 0.10546628 0.11482263 -0.95700252 -0.11943544 -0.9271934 -0.13047849 0.10784613 0.090887286
8002500000 0.10642748 0.11357096 -0.95966864 -0.099476293 -0.93156743 -0.11531677 0.10946059 0.088551857
8005000000 0.10741092 0.11221129 -0.96114004 -0.079393439 -0.93607438 -0.099595979 0.11108178 0.086050674
8007500000 0.10840007 0.11075458 -0.96196103 -0.059400141 -0.9403823 -0.08346469 0.11263101 0.083361916
8010000000 0.10935868 0.10909761 -0.96195495 -0.039476596 -0.94444758 -0.06674213 0.11411663 0.080536678
8012500000 0.11025514 0.10733794 -0.96113437 -0.019741246 -0.94823849 -0.049676765 0.11543523 0.077558063
8015000000 0.11102515 0.10545525 -0.95949584 -0.00046247357 -0.95186722 -0.032077901 0.11658576 0.074439608
8017500000 0.11164333 0.10347769 -0.95763135 0.018636057 -0.95510852 -0.014027121 0.11750612 0.071269877
8020000000 0.11209303 0.10146945 -0.95468277 0.036955174 -0.95767832 0.0045221793 0.11817016 0.067981184
8022500000 0.11237657 0.099446684 -0.95153886 0.055124581 -0.95978236 0.023564797 0.11866783 0.06473887
8025000000 0.11246733 0.097492501 -0.94783968 0.072540157 -0.96108168 0.043048728 0.11892673 0.061545908
8027500000 0.11243752 0.09556143 -0.9439882 0.089617513 -0.9619323 0.062593244 0.11899056 0.058462877
8030000000 0.1122876 0.0937846 -0.93999487 0.10613776 -0.96188796 0.082542837 0.11895838 0.055499412
8032500000 0.11206847 0.092116281 -0.93562561 0.12200192 -0.96110088 0.10244083 0.11876172 0.052644935
8035000000 0.11180623 0.090591483 -0.93118209 0.13742507 -0.95950586 0.12240022 0.11849661 0.049928963
8037500000 0.11155298 0.089186341 -0.92700273 0.15269361 -0.95730543 0.14236887 0.11825778 0.047313165
8040000000 0.11135755 0.087902136 -0.92273295 0.1674148 -0.95414448 0.16206063 0.11799983 0.044789854
8042500000 0.11125191 0.086680382 -0.91848135 0.18183185 -0.95024925 0.18162657 0.11774379 0.042328358
8045000000 0.11117818 0.085523106 -0.91458416 0.19611523 -0.94579732 0.20089906 0.11756931 0.039891161
8047500000 0.1112787 0.084353387 -0.91037691 0.21021289 -0.94060296 0.21974839 0.11738823 0.037434839
8050000000 0.11141009 0.083140574 -0.90684825 0.22406285 -0.93487322 0.23831919 0.11724016 0.034922052
8052500000 0.1116261 0.081915125 -0.90328687 0.23794758 -0.92872977 0.25650486 0.117098 0.032345727
8055000000 0.11189916 0.080545515 -0.89966273 0.25189629 -0.92185491 0.27420953 0.11689073 0.029698867
8057500000 0.11219843 0.07906878 -0.89615285 0.26585931 -0.91489595 0.29150251 0.11665927 0.026923789
8060000000 0.11245874 0.077522889 -0.89315993 0.28004807 -0.90753299 0.30837265 0.11626658 0.024082623
8062500000 0.112651 0.075773269 -0.89001697 0.29434085 -0.8995946 0.32456851 0.11573263 0.021129088
8065000000 0.11273599 0.073935077 -0.88682044 0.30887085 -0.89163452 0.34033009 0.11502464 0.018159166
8067500000 0.11275986 0.072003633 -0.8836413 0.32382044 -0.88339585 0.35572657 0.11406313 0.015158211
8070000000 0.11252549 0.07009802 -0.88061899 0.33910063 -0.87533331 0.37063995 0.1128832 0.012197034
8072500000 0.11212892 0.068086863 -0.87696862 0.35472283 -0.86698234 0.38508025 0.11156115 0.0093375994
8075000000 0.11156378 0.066118799 -0.8734296 0.37081119 -0.85856438 0.39912614 0.10996344 0.0065975394
8077500000 0.11084201 0.064321987 -0.86932594 0.38731626 -0.85044473 0.41307041 0.10824446 0.0040572425
8080000000 0.10994847 0.06257353 -0.86474484 0.40401077 -0.84223533 0.42654559 0.1063604 0.0016647209
8082500000 0.10895046 0.061015658 -0.85975468 0.42126653 -0.83416444 0.43994614 0.10441971 -0.00047611608
8085000000 0.10790786 0.059607729 -0.85405248 0.43853855 -0.82608479 0.45309797 0.10244758 -0.0024105744
8087500000 0.10681635 0.058360428 -0.84765774 0.45601106 -0.8180936 0.46628901 0.10051388 -0.0041649071
8090000000 0.10570548 0.057290811 -0.84066057 0.47354183 -0.81031018 0.47923866 0.098545745 -0.005732723
8092500000 0.10471756 0.056347884 -0.83278573 0.49110568 -0.80242002 0.49239096 0.096736364 -0.0071659065
8095000000 0.10377003 0.055562448 -0.82450891 0.50857288 -0.79439849 0.50529742 0.095003538 -0.008535061
8097500000 0.10294348 0.054861687 -0.81534815 0.52576858 -0.7864238 0.51848227 0.093344577 -0.0098604364
8100000000 0.10221137 0.054198325 -0.80555969 0.54278183 -0.77838111 0.5316624 0.091778539 -0.011146916
8102500000 0.10160218 0.053566664 -0.79518032 0.55950719 -0.77021474 0.54486221 0.090298511 -0.012482787
8105000000 0.10106549 0.052910104 -0.78420287 0.57555932 -0.76186895 0.55823392 0.088804394 -0.013864764
8107500000 0.1006278 0.052246924 -0.77261811 0.59163362 -0.75336301 0.57141918 0.087326966 -0.015298344
8110000000 0.10026348 0.051514346 -0.76065534 0.60722136 -0.74462229 0.58473021 0.085812636 -0.016748397
8112500000 0.099886589 0.050693497 -0.74792045 0.62189829 -0.73566639 0.59822315 0.084222995 -0.018365683
8115000000 0.099542506 0.04983978 -0.73514032 0.63628161 -0.72643888 0.6115846 0.082495295 -0.019921271
8117500000 0.099208154 0.048858128 -0.72190654 0.65021449 -0.71693939 0.62526447 0.080698885 -0.021504147
8120000000 0.098762073 0.047808342 -0.70819604 0.66356248 -0.70694733 0.63865876 0.078771189 -0.023068191
8122500000 0.098281018 0.046715509 -0.69449389 0.676359 -0.69666117 0.65224493 0.076651894 -0.024581049
8125000000 0.097713761 0.045598358 -0.68046379 0.68848193 -0.68610591 0.6656633 0.074402899 -0.02596877
8127500000 0.097015522 0.04444693 -0.66637588 0.70025676 -0.67501092 0.67913175 0.072057001 -0.027253147
8130000000 0.096219122 0.043320064 -0.65231782 0.71134681 -0.6635828 0.69257337 0.069580249 -0.028351082
8132500000 0.095318079 0.042247482 -0.63817316 0.72199064 -0.65145302 0.70590788 0.067031674 -0.029296039
8135000000 0.094337471 0.041218288 -0.62422562 0.7322647 -0.63914049 0.71894866 0.064499088 -0.030045187
8137500000 0.093276255 0.04028384 -0.61030406 0.74228001 -0.62628114 0.7319085 0.061983593 -0.030644616
8140000000 0.092182919 0.03944568 -0.59650749 0.75190055 -0.61308861 0.74453902 0.059501022 -0.031069931
8142500000 0.091036998 0.038684733 -0.58267289 0.76134825 -0.59930575 0.75696677 0.057035249 -0.031393413
8145000000 0.08989916 0.038080078 -0.56909227 0.77059913 -0.5853129 0.76902038 0.054742161 -0.031629685
8147500000 0.088806376 0.037544996 -0.55552828 0.77975136 -0.5708614 0.7805171 0.052418079 -0.03171752
8150000000 0.087703638 0.037079129 -0.54204679 0.78873926 -0.55616647 0.79179829 0.050171025 -0.031757649
8152500000 0.086637489 0.036683962 -0.52849829 0.7976256 -0.54108226 0.80261773 0.047947351 -0.031748448
8155000000 0.085618556 0.036354426 -0.51500279 0.8064537 -0.52577239 0.81318778 0.045822144 -0.031707238
8157500000 0.084678337 0.036034275 -0.50137269 0.81537944 -0.51036096 0.82304054 0.043687038 -0.031662207
8160000000 0.083775304 0.035782639 -0.48778477 0.82412434 -0.49466491 0.83281773 0.041580707 -0.031575158
8162500000 0.082873613 0.035510663 -0.47387427 0.83271188 -0.47875348 0.84208107 0.039403047 -0.031437304
8165000000 0.082046449 0.03524372 -0.45994729 0.84157568 -0.46284387 0.85098964 0.037271202 -0.031257372
8167500000 0.081231095 0.034985177 -0.44568673 0.85018009 -0.44659385 0.85943627 0.035099432 -0.031025896
8170000000 0.0804125 0.03470001 -0.43108025 0.85869265 -0.43030754 0.8673659 0.032916598 -0.030720137
8172500000 0.079611093 0.034403969 -0.41634616 0.86716533 -0.41377157 0.87504989 0.030691521 -0.030317195
8175000000 0.078771777 0.034116868 -0.40127897 0.87548143 -0.39721447 0.88220525 0.028515194 -0.029818077
8177500000 0.077948391 0.033810865 -0.38568532 0.8834787 -0.38064608 0.88920051 0.026336754 -0.029205382
8180000000 0.077084102 0.033463534 -0.3699429 0.89149964 -0.36379993 0.89557582 0.024169566 -0.028484337
8182500000 0.076149769 0.033168674 -0.35366833 0.89899153 -0.34701237 0.90159076 0.02207824 -0.027646217
8185000000 0.075192586 0.032843627 -0.33706239 0.90619129 -0.33013076 0.90727437 0.020040274 -0.026713276
8187500000 0.074231215 0.032608788 -0.32019323 0.91301036 -0.31319317 0.91269571 0.01807447 -0.025713949
8190000000 0.073258854 0.032398529 -0.3029364 0.91967291 -0.2964071 0.91793853 0.016250908 -0.02464344
8192500000 0.07218717 0.032176465 -0.28543508 0.92544186 -0.27929831 0.92252684 0.014493309 -0.023509435
8195000000 0.071151078 0.032064389 -0.26784229 0.93078238 -0.26223546 0.92698073 0.012758471 -0.022345826
8197500000 0.070060022 0.031964898 -0.25012466 0.93584186 -0.24528724 0.93093699 0.011115782 -0.021161854
8200000000 0.068961956 0.031923365 -0.23227409 0.94036639 -0.22813579 0.93456608 0.0095515344 -0.019902384
8202500000 0.067900583 0.031970169 -0.21433963 0.94434905 -0.21114428 0.93797565 0.0079965927 -0.018651409
8205000000 0.06683702 0.032047272 -0.19645473 0.94779342 -0.19420603 0.9411518 0.0065442636 -0.017366473
8207500000 0.06579712 0.032208163 -0.17865752 0.95078009 -0.17729093 0.94394612 0.0050667664 -0.016050788
8210000000 0.064774245 0.032396961 -0.16077293 0.95311224 -0.16030151 0.94630891 0.003629768 -0.014742934
8212500000 0.063811816 0.032605898 -0.14309472 0.95528251 -0.14339547 0.94844282 0.0022093274 -0.013356081
8215000000 0.062869385 0.032886658 -0.1255264 0.95684958 -0.12649199 0.95037305 0.0007941511 -0.011887831
8217500000 0.061949737 0.03320948 -0.10807756 0.9580164 -0.10970387 0.95182747 -0.00059261324 -0.010377425
8220000000 0.061115969 0.033552583 -0.09089791 0.95902884 -0.092951685 0.95302731 -0.0018867862 -0.0087438449
8222500000 0.060325429 0.033917237 -0.07389871 0.95958424 -0.076347947 0.95413226 -0.003129344 -0.007025925
8225000000 0.059538577 0.034321208 -0.056993857 0.95988119 -0.05960175 0.95462424 -0.0043070023 -0.0052291565
8227500000 0.058820955 0.034712579 -0.040250093 0.95995921 -0.043061744 0.95500958 -0.0053940676 -0.0033729174
8230000000 0.058103103 0.035105616 -0.023688765 0.95977533 -0.026581377 0.95532143 -0.0063839471 -0.0014343453
8232500000 0.057449117 0.035479255 -0.0072451127 0.95946634 -0.010096764 0.95499098 -0.0072332728 0.00054295285
8235000000 0.056828745 0.035814345 0.0091203535 0.95894647 0.0061422861 0.95468885 -0.0079655014 0.0025712217
8237500000 0.056161951 0.036145445 0.025427369 0.95825338 0.022532875 0.95428056 -0.0085864598 0.0046189423
8240000000 0.055566382 0.036453262 0.041679271 0.95751292 0.038730402 0.9535659 -0.00905855 0.0066225682
8242500000 0.054925773 0.03682933 0.057997249 0.95662838 0.055123344 0.95255548 -0.0093910936 0.0086331107
8245000000 0.054245085 0.037139278 0.074256852 0.95571268 0.07133092 0.95136166 -0.0096559003 0.010569441
8247500000 0.053603988 0.037464336 0.090677433 0.95447296 0.087534733 0.95022947 -0.0098647717 0.012601541
8250000000 0.05285392 0.037819184 0.1072388 0.95315892 0.10378263 0.94890594 -0.0099973278 0.014492622
8252500000 0.052172035 0.038181465 0.12378777 0.95174557 0.1199583 0.94721514 -0.010017802 0.016355548
8255000000 0.051454239 0.03861687 0.14052121 0.9499284 0.13644882 0.9456408 -0.010042483 0.018240904
8257500000 0.05075863 0.039077953 0.15743664 0.94812143 0.15276158 0.94355547 -0.010028667 0.020056335
8260000000 0.050075319 0.039611984 0.17447202 0.94590718 0.16912587 0.94134516 -0.0099637741 0.021875335
8262500000 0.049421072 0.04016095 0.19161324 0.9434067 0.18556748 0.93904233 -0.0098625403 0.023755921
8265000000 0.048811778 0.040800743 0.20887055 0.94029582 0.20210521 0.93646878 -0.0097239325 0.02562643
8267500000 0.048254602 0.04141143 0.22621992 0.93707019 0.21855664 0.9335205 -0.0094710384 0.027526744
8270000000 0.047763992 0.042122483 0.24380782 0.93321609 0.23516676 0.93043423 -0.009165843 0.029432645
8272500000 0.047313631 0.042790484 0.26116723 0.92903769 0.25200373 0.92694885 -0.0087946625 0.031378187
8275000000 0.046955168 0.043508127 0.27853099 0.92407423 0.26875603 0.92321563 -0.008293571 0.033321835
8277500000 0.046635397 0.044194527 0.29598442 0.91868252 0.28554463 0.91913521 -0.0076604257 0.035212941
8280000000 0.046353601 0.044849835 0.31313345 0.91283005 0.30249643 0.91467816 -0.0069289492 0.037128307
8282500000 0.046152472 0.045516644 0.33017251 0.90637779 0.31940147 0.90989882 -0.0060850712 0.038919281
8285000000 0.045920875 0.046143442 0.3471224 0.89954507 0.33637923 0.9044072 -0.0051593287 0.040701859
8287500000 0.045721021 0.046744011 0.36364007 0.89210254 0.35320008 0.89856207 -0.0041099936 0.042403698
8290000000 0.045522477 0.047297452 0.37991077 0.8841992 0.37021706 0.89233327 -0.0030591618 0.043978032
8292500000 0.045318954 0.047860462 0.39593807 0.8760038 0.38697287 0.88535994 -0.0019224368 0.045489457
8295000000 0.045087744 0.048460845 0.41132462 0.86729288 0.4037151 0.87840372 -0.00074983051 0.046944331
8297500000 0.044836201 0.049067467 0.4265393 0.85825258 0.42027554 0.87040907 0.00044224973 0.048313349
8300000000 0.044578575 0.049663253 0.4412218 0.84917837 0.43669367 0.86226958 0.001598016 0.049575396
8302500000 0.044321194 0.05034757 0.45554936 0.83979404 0.45270431 0.8534745 0.0027992968 0.050829031
8305000000 0.04408526 0.051112406 0.46938011 0.83032221 0.46843016 0.84427375 0.0039541498 0.052102216
8307500000 0.043861281 0.051918004 0.48286051 0.82076067 0.48402032 0.83489156 0.005143581 0.053326163
8310000000 0.043658938 0.05278381 0.49601153 0.81111419 0.4990764 0.82470351 0.0063858731 0.054572333
8312500000 0.043551892 0.053735789 0.50859469 0.80131429 0.51391047 0.8143394 0.0076653468 0.05581411
8315000000 0.043550417 0.054709245 0.52097201 0.79159343 0.52824265 0.80376816 0.0089892074 0.057040945
8317500000 0.043645803 0.055721682 0.5331009 0.78218353 0.54220754 0.79282445 0.010404697 0.058317911
8320000000 0.043873668 0.056786377 0.54484016 0.77260244 0.55548978 0.78150702 0.011934111 0.059530105
8322500000 0.044202682 0.057810042 0.55648082 0.7631973 0.56850201 0.77022457 0.013586643 0.060682409
8325000000 0.04465152 0.058807772 0.56801832 0.75400633 0.58112967 0.7585755 0.01531706 0.061781481
8327500000 0.045230098 0.05970965 0.57935804 0.74473804 0.59326422 0.74713391 0.017172666 0.062810034
8330000000 0.045868177 0.06056416 0.59076935 0.73575681 0.60491949 0.73551905 0.019172354 0.063721292
8332500000 0.046596263 0.061272848 0.60217577 0.72682035 0.61622179 0.72377485 0.021203794 0.064448655
8335000000 0.04736479 0.061864719 0.6136089 0.71771044 0.62714857 0.71237308 0.023295043 0.065045521
8337500000 0.048167363 0.062387064 0.625238 0.70873415 0.63755482 0.70063931 0.025402904 0.065421216
8340000000 0.048919473 0.062754817 0.63690495 0.69978845 0.64794904 0.68917745 0.02750982 0.065664627
8342500000 0.049599245 0.063052431 0.64871114 0.69032806 0.65804493 0.67782694 0.029570375 0.065788455
8345000000 0.050268847 0.063310333 0.66076255 0.68084675 0.66793901 0.66655552 0.031571604 0.065766424
8347500000 0.050824486 0.063497305 0.67301208 0.67124027 0.67755079 0.65529245 0.033470664 0.065577671
8350000000 0.051265713 0.063703634 0.68548697 0.66124737 0.68732125 0.64422727 0.035258651 0.065297589
8352500000 0.051706009 0.063920505 0.69795096 0.65059066 0.6967833 0.6330663 0.036956932 0.065037698
8355000000 0.051986292 0.064199887 0.71048582 0.63976276 0.70649898 0.62210244 0.038572576 0.064743899
8357500000 0.052278567 0.064580187 0.72316283 0.62838411 0.71618629 0.61113566 0.040102284 0.064443961
8360000000 0.052515663 0.065007217 0.73562711 0.61635 0.72572219 0.60015821 0.041612323 0.064202532
8362500000 0.052798271 0.065544978 0.74819535 0.60392284 0.73561901 0.58897609 0.043051429 0.063980222
8365000000 0.053112496 0.066224113 0.76062447 0.59082043 0.74554628 0.57794034 0.044541191 0.063783586
8367500000 0.053487442 0.066941053 0.77265286 0.57723194 0.75542611 0.56675744 0.046040598 0.063671544
8370000000 0.053989775 0.067667589 0.78432435 0.56314617 0.76536077 0.55511314 0.047657806 0.06350217
8372500000 0.054637428 0.068438858 0.795623 0.54843074 0.77535921 0.54328996 0.049318906 0.063365065
8375000000 0.055395279 0.069262169 0.80670506 0.53323984 0.78557098 0.53139102 0.051101714 0.063148282
8377500000 0.056236912 0.070001103 0.81712717 0.51778227 0.79569709 0.51914519 0.052970301 0.062833913
8380000000 0.057223249 0.070679531 0.82715523 0.50178397 0.80578399 0.50642115 0.054922618 0.062445976
8382500000 0.058305975 0.071267113 0.83642012 0.48529679 0.81596267 0.49360156 0.056986775 0.061881535
8385000000 0.059435163 0.071732782 0.84514457 0.46892133 0.82611251 0.48030487 0.058970533 0.061187629
8387500000 0.060629822 0.07207977 0.85317296 0.45203 0.83613592 0.46657139 0.061006784 0.060312457
8390000000 0.06184129 0.072287835 0.86054909 0.43507183 0.84582067 0.45211425 0.063059896 0.059225265
8392500000 0.063017264 0.072359607 0.86723548 0.41809919 0.8554486 0.43737665 0.065003216 0.058019727
8395000000 0.064122722 0.072369851 0.87319404 0.40119258 0.86470473 0.4222292 0.066822082 0.056671113
8397500000 0.065157972 0.072276823 0.8786273 0.38436711 0.87384444 0.40649638 0.068524703 0.055227038
8400000000 0.066141836 0.072129063 0.88358957 0.36781421 0.88244659 0.3903771 0.070094317 0.053747274
8402500000 0.067050472 0.071995847 0.8878777 0.35140911 0.89044023 0.37380111 0.071481593 0.052183799
8405000000 0.067875616 0.071857952 0.89192361 0.33536905 0.89808315 0.35706979 0.072787493 0.050688744
8407500000 0.068651311 0.071748637 0.89547348 0.319415 0.90516877 0.33984533 0.073989145 0.049128581
8410000000 0.0694004 0.071686275 0.89870119 0.30389196 0.91167092 0.32233754 0.075062759 0.047651913
8412500000 0.070130393 0.071678683 0.90172029 0.28863755 0.9176755 0.30471525 0.07616923 0.046197243
8415000000 0.070910104 0.071691766 0.90463686 0.27378017 0.9228062 0.28694043 0.077201702 0.0447804
8417500000 0.071729518 0.071783476 0.90746105 0.25923991 0.92733753 0.26902759 0.078282714 0.043367743
8420000000 0.072627328 0.071877733 0.91003102 0.24476711 0.93151444 0.25134021 0.079357751 0.041959338
8422500000 0.073597573 0.071948797 0.91268671 0.23069759 0.93492705 0.23349166 0.0804554 0.04052392
8425000000 0.074680857 0.07202369 0.91562545 0.21678275 0.93761331 0.21560514 0.081593476 0.038998794
8427500000 0.075824656 0.071986556 0.91819429 0.20299904 0.93998295 0.19816378 0.082735606 0.037400514
8430000000 0.077034496 0.071874984 0.92112052 0.18941008 0.941782 0.18070748 0.083902366 0.035735961
8432500000 0.078324154 0.07162796 0.92418414 0.17574176 0.94316089 0.16365339 0.085019924 0.033914175
8435000000 0.079632819 0.071282297 0.92736953 0.16205423 0.94408363 0.14661115 0.086092383 0.031966757
8437500000 0.080895334 0.070747763 0.93060291 0.1484154 0.94463509 0.13010199 0.087043442 0.02992239
8440000000 0.082159325 0.07010664 0.93414122 0.13457179 0.94484347 0.11390538 0.087907031 0.027759066
8442500000 0.083345987 0.069317371 0.93773776 0.12040767 0.94474196 0.097885348 0.088580392 0.025499169
8445000000 0.084428623 0.068422429 0.94154179 0.10593498 0.94446683 0.082389027 0.08910054 0.023216099
8447500000 0.085351244 0.06746348 0.94524908 0.091277719 0.9441722 0.067268401 0.089425914 0.020909633
8450000000 0.08620628 0.066440552 0.94872856 0.076049209 0.94364977 0.052161735 0.089627452 0.018618932
8452500000 0.086859323 0.065428458 0.95244259 0.060536161 0.94321662 0.037330642 0.089619696 0.016401438
8455000000 0.087427132 0.064429961 0.9557119 0.044266216 0.94266236 0.022861248 0.089526415 0.014284817
8457500000 0.087881677 0.063524887 0.95895475 0.027762709 0.94230258 0.0085061397 0.089270949 0.012265829
8460000000 0.088283479 0.062666826 0.96151429 0.010852871 0.94179213 -0.0059183524 0.088994816 0.01036418
8462500000 0.088618696 0.061918888 0.96377492 -0.0065260893 0.94147497 -0.020054188 0.088668779 0.0085465908
8465000000 0.08896587 0.061279774 0.96563321 -0.024296522 0.94105905 -0.03429294 0.088344581 0.0068385126
8467500000 0.089349352 0.060721062 0.96686393 -0.042353395 0.94089651 -0.048542917 0.088043496 0.0052073323
8470000000 0.089798801 0.06025406 0.96758693 -0.060677815 0.94066733 -0.062895186 0.087819487 0.0036065038
