!Agilent Technologies,E8362C,MY49020356,A.09.42.23
!Agilent E8362C: A.09.42.23
!Date: Monday, May 29, 2023 19:57:41
!Correction: S11(Full 2 Port(1,2)) 
!S21(Full 2 Port(1,2)) 
!S12(Full 2 Port(1,2)) 
!S22(Full 2 Port(1,2)) 
!S2P File: Measurements: S11, S21, S12, S22:
# Hz S  RI   R 50
8000000000 -0.60319799 0.34096813 0.20223117 -0.65915644 0.20239419 -0.65937823 -0.31810671 -0.61067492
8002500000 -0.59737688 0.35160273 0.17395307 -0.66792911 0.17377537 -0.6668992 -0.35973155 -0.58832419
8005000000 -0.58978212 0.36328048 0.14431454 -0.6730274 0.14460628 -0.67457169 -0.39761373 -0.56343776
8007500000 -0.58276212 0.37627867 0.11424464 -0.67952377 0.11430661 -0.67973012 -0.43528047 -0.53522551
8010000000 -0.5751242 0.38740411 0.083723508 -0.68339694 0.085050613 -0.68362397 -0.46967268 -0.50556654
8012500000 -0.56678551 0.39899763 0.054048456 -0.68653226 0.055740621 -0.68675959 -0.50184023 -0.4730095
8015000000 -0.55919802 0.40974852 0.025875831 -0.68828613 0.025559045 -0.68903816 -0.53212988 -0.43975893
8017500000 -0.55087167 0.42028686 -0.0042618918 -0.68811989 -0.0035776536 -0.68936539 -0.55986309 -0.40343481
8020000000 -0.54289073 0.43307975 -0.0355215 -0.68893409 -0.033862222 -0.68842065 -0.58567107 -0.36442596
8022500000 -0.53378916 0.44216925 -0.064418286 -0.68579376 -0.063018173 -0.68546027 -0.60630172 -0.32396924
8025000000 -0.52567595 0.45218381 -0.09291029 -0.68300354 -0.093978561 -0.68342984 -0.62725437 -0.28296039
8027500000 -0.51584214 0.46310183 -0.12308554 -0.67901844 -0.1225282 -0.67866248 -0.64200258 -0.24191758
8030000000 -0.50718719 0.47261405 -0.15213925 -0.67429405 -0.15188265 -0.67385769 -0.6584875 -0.19843292
8032500000 -0.49554923 0.48330006 -0.18198407 -0.66712373 -0.18180399 -0.66689217 -0.66826898 -0.15447466
8035000000 -0.48685375 0.49269706 -0.21039875 -0.66060156 -0.21080716 -0.65942562 -0.6774565 -0.10900199
8037500000 -0.47685391 0.50125086 -0.23841937 -0.65145957 -0.23951536 -0.64914685 -0.68103856 -0.065154515
8040000000 -0.46482429 0.50920087 -0.26663023 -0.6394031 -0.26727036 -0.63932836 -0.68329322 -0.019206699
8042500000 -0.45498696 0.51892924 -0.29513404 -0.62807685 -0.29497898 -0.62890816 -0.68077165 0.026858976
8045000000 -0.44350663 0.52662939 -0.32207602 -0.61505705 -0.32200634 -0.61570191 -0.6772536 0.070781857
8047500000 -0.43351981 0.53480315 -0.3498854 -0.60245901 -0.35088855 -0.60181528 -0.6710943 0.118755
8050000000 -0.42153987 0.54202896 -0.37573415 -0.58624053 -0.37599 -0.58738101 -0.66044754 0.16174193
8052500000 -0.40933129 0.54985893 -0.40178081 -0.56912971 -0.40129593 -0.56945634 -0.645504 0.20457511
8055000000 -0.40009344 0.55567533 -0.42628273 -0.55269873 -0.42665884 -0.55180287 -0.62814468 0.24886307
8057500000 -0.38780582 0.56278837 -0.45137221 -0.53479177 -0.45253393 -0.53404695 -0.61087072 0.29081586
8060000000 -0.37683192 0.57088041 -0.47594258 -0.51546448 -0.47387692 -0.51400679 -0.58745301 0.3295666
8062500000 -0.36503348 0.57641518 -0.49820086 -0.49422431 -0.49656072 -0.49489653 -0.56374002 0.36761948
8065000000 -0.35290244 0.58360606 -0.5202238 -0.47277191 -0.51966918 -0.47248968 -0.53614289 0.40403691
8067500000 -0.34096643 0.5880186 -0.5403074 -0.44999889 -0.54089946 -0.44972342 -0.50665992 0.43950436
8070000000 -0.32876951 0.59415317 -0.56130922 -0.42510772 -0.56049997 -0.42505738 -0.47259524 0.47319722
8072500000 -0.3187412 0.59977746 -0.57859749 -0.40175796 -0.57981741 -0.4016507 -0.43862399 0.50162655
8075000000 -0.3052327 0.6038332 -0.59677267 -0.37534383 -0.5976783 -0.37567478 -0.40279794 0.53017628
8077500000 -0.29417905 0.60999215 -0.61459512 -0.34976804 -0.61400956 -0.35144562 -0.36647794 0.55577767
8080000000 -0.28185222 0.61487293 -0.63132489 -0.32284787 -0.62998074 -0.32356003 -0.32646489 0.57899505
8082500000 -0.26945916 0.61813295 -0.64325929 -0.29497361 -0.64372969 -0.29516214 -0.28435665 0.59810632
8085000000 -0.25775075 0.62150294 -0.65726233 -0.26645184 -0.6570738 -0.2673476 -0.24188697 0.61641347
8087500000 -0.24501236 0.62567681 -0.66865051 -0.23714045 -0.66908509 -0.23880696 -0.19837222 0.63027108
8090000000 -0.23396325 0.6294381 -0.67987776 -0.20921464 -0.68038338 -0.20941879 -0.15404634 0.64219445
8092500000 -0.22202569 0.6342364 -0.68931663 -0.17914103 -0.6892724 -0.17982407 -0.10855526 0.6484794
8095000000 -0.2092718 0.63631165 -0.6966601 -0.14857492 -0.69759876 -0.14981489 -0.063478023 0.6547749
8097500000 -0.19638801 0.63864213 -0.70355386 -0.11840755 -0.70311695 -0.11858555 -0.017385514 0.65636545
8100000000 -0.18389529 0.6412006 -0.70848775 -0.086020321 -0.70895261 -0.087924235 0.028566225 0.6550777
8102500000 -0.17137726 0.64324665 -0.71261126 -0.055657171 -0.71243894 -0.05556649 0.074151061 0.65089548
8105000000 -0.1593008 0.64530587 -0.71501648 -0.024094895 -0.71609718 -0.025572509 0.11893812 0.64357716
8107500000 -0.1487525 0.64781827 -0.71630037 0.0067682327 -0.71778005 0.0060946541 0.16378614 0.63238043
8110000000 -0.13630179 0.64811689 -0.71575302 0.03782231 -0.71776295 0.038893152 0.20837687 0.61893076
8112500000 -0.12447508 0.64974219 -0.71485525 0.069433972 -0.71613151 0.069581576 0.25052503 0.60214776
8115000000 -0.11280889 0.65137661 -0.7130155 0.10186922 -0.71143252 0.10262937 0.29403767 0.58115125
8117500000 -0.10074159 0.65211892 -0.70761019 0.13292231 -0.70677578 0.13333389 0.33247748 0.55741102
8120000000 -0.087570503 0.65217471 -0.70130706 0.1643485 -0.70162481 0.16527411 0.37131006 0.53324527
8122500000 -0.075528882 0.65374476 -0.693497 0.19571415 -0.69598925 0.19518071 0.40659252 0.50651532
8125000000 -0.064126045 0.65415609 -0.68547589 0.22757381 -0.68602055 0.2267884 0.44262627 0.47406441
8127500000 -0.051616572 0.65401471 -0.67573792 0.25715208 -0.67658859 0.25728425 0.47399747 0.44277108
8130000000 -0.039699979 0.65501922 -0.66461611 0.28828716 -0.66314948 0.28790542 0.50376093 0.40587118
8132500000 -0.028350255 0.65369457 -0.64979792 0.31586277 -0.65159225 0.317343 0.53046679 0.36892998
8135000000 -0.016697137 0.6554476 -0.63780105 0.34557506 -0.63737857 0.34624964 0.55476701 0.33069158
8137500000 -0.0046617724 0.65473843 -0.62151551 0.37380591 -0.62065524 0.37362275 0.57537383 0.29009947
8140000000 0.007935904 0.6541152 -0.60396457 0.40154895 -0.60476846 0.40032646 0.59428704 0.24915794
8142500000 0.018554039 0.65329432 -0.58670574 0.42755896 -0.58618796 0.42753822 0.61001819 0.20577279
8145000000 0.03102918 0.65293086 -0.56584448 0.45324895 -0.56778473 0.45392147 0.62262523 0.16175897
8147500000 0.042725362 0.65306777 -0.54701579 0.47887182 -0.54633105 0.47692594 0.63118559 0.11750553
8150000000 0.054401662 0.65157908 -0.52481842 0.50283903 -0.52460521 0.50137866 0.6382097 0.072355032
8152500000 0.066586316 0.65069342 -0.50250983 0.52501273 -0.50280511 0.52611029 0.6422146 0.027502298
8155000000 0.077571407 0.6495204 -0.47967026 0.54734057 -0.47935921 0.54737961 0.64287323 -0.017736638
8157500000 0.090700731 0.64904201 -0.45412582 0.56964433 -0.4553307 0.56738049 0.63921189 -0.062591381
8160000000 0.10278324 0.64588994 -0.42950755 0.58841395 -0.4296203 0.58728129 0.63365132 -0.10711949
8162500000 0.11383061 0.64358711 -0.40286437 0.60582197 -0.40258065 0.60539216 0.62409031 -0.1512398
8165000000 0.12507693 0.64054054 -0.37621033 0.62259418 -0.37685522 0.6214093 0.61308724 -0.1939135
8167500000 0.13776253 0.63855368 -0.34809279 0.63931245 -0.34882492 0.63866901 0.59852445 -0.2357713
8170000000 0.14881881 0.63518465 -0.32011464 0.65287501 -0.32160196 0.65258342 0.5818904 -0.27619711
8172500000 0.16133517 0.63340944 -0.2912491 0.66675436 -0.29154781 0.66699296 0.56130177 -0.3163859
8175000000 0.17236283 0.63014448 -0.26263109 0.67953128 -0.26246312 0.67907971 0.53902864 -0.35435236
8177500000 0.18372621 0.62648296 -0.23099478 0.68975085 -0.23291367 0.68963784 0.51210761 -0.39151981
8180000000 0.19537432 0.62262011 -0.20123817 0.6991753 -0.20141314 0.69991708 0.48630062 -0.4270834
8182500000 0.20768079 0.61976367 -0.17023216 0.70786476 -0.17150398 0.70740843 0.45480934 -0.45860466
8185000000 0.21880814 0.61413997 -0.13915747 0.71437693 -0.14059132 0.71382993 0.42411092 -0.48857403
8187500000 0.22997192 0.60815513 -0.1079623 0.71784186 -0.10962228 0.71967137 0.39123896 -0.51765555
8190000000 0.24099651 0.60507745 -0.077119261 0.72320879 -0.076459929 0.72355205 0.35378867 -0.54375964
8192500000 0.25181872 0.60168767 -0.046774879 0.72632658 -0.045901898 0.72548831 0.31752309 -0.5667128
8195000000 0.26294386 0.59563839 -0.014668042 0.72828764 -0.013886352 0.7273404 0.27829969 -0.58823913
8197500000 0.27364039 0.59009296 0.016457755 0.72617191 0.018032273 0.72823066 0.23868972 -0.60737348
8200000000 0.28436688 0.58586204 0.047933444 0.72523987 0.048579313 0.72501624 0.19698922 -0.62076181
8202500000 0.29665944 0.58109164 0.079830326 0.7233662 0.080808707 0.72355759 0.15498708 -0.63367039
8205000000 0.30592862 0.57402563 0.11048741 0.71829712 0.11161188 0.71853274 0.11215784 -0.64247686
8207500000 0.31641677 0.56948167 0.14018096 0.71313739 0.14182797 0.71243978 0.070474356 -0.64863878
8210000000 0.32759479 0.56200826 0.17075695 0.70516837 0.17116655 0.70589232 0.027802112 -0.65258819
8212500000 0.33756149 0.55693579 0.20168424 0.69694054 0.2019401 0.69782758 -0.015253155 -0.65259212
8215000000 0.34897754 0.54914093 0.23079526 0.68730927 0.2310507 0.68758857 -0.058746211 -0.65071678
8217500000 0.3591246 0.54309374 0.26077485 0.67871845 0.2611956 0.67815214 -0.10210159 -0.64732045
8220000000 0.3687728 0.53700286 0.28812468 0.66595596 0.28721493 0.66533309 -0.14342441 -0.6384635
8222500000 0.3788251 0.53074199 0.31616312 0.6530655 0.31675625 0.65264046 -0.18481386 -0.62667388
8225000000 0.39032567 0.5224058 0.34399837 0.63808179 0.34346479 0.63812995 -0.22534448 -0.6135878
8227500000 0.40084866 0.5162499 0.37068498 0.6240378 0.3701247 0.62284392 -0.26508471 -0.59658647
8230000000 0.40951103 0.50818449 0.39634964 0.60708714 0.39482343 0.6059348 -0.30209991 -0.57783353
8232500000 0.42103902 0.50032943 0.42188427 0.58981419 0.42054179 0.58975852 -0.33847234 -0.5562287
8235000000 0.43054271 0.49200454 0.44638127 0.57065308 0.44655329 0.57026523 -0.37505257 -0.53303283
8237500000 0.4409945 0.48423401 0.47150815 0.55147409 0.46868572 0.55213022 -0.40805241 -0.50716943
8240000000 0.45031726 0.47508776 0.49382937 0.53175366 0.49284059 0.5318495 -0.43930385 -0.48012033
8242500000 0.46013865 0.46541035 0.51573598 0.50982267 0.51470113 0.51106554 -0.46995577 -0.45001587
8245000000 0.46935621 0.45702147 0.53671563 0.48883414 0.53598809 0.48930272 -0.49575847 -0.41997781
8247500000 0.47956204 0.44820151 0.55783129 0.46596742 0.55587727 0.46616182 -0.52163965 -0.38552564
8250000000 0.48693404 0.43805507 0.57550108 0.4418171 0.57730967 0.44218373 -0.54623431 -0.35007861
8252500000 0.49658343 0.42957535 0.59594893 0.41747636 0.59502482 0.41893396 -0.56769872 -0.31512454
8255000000 0.50458282 0.41814426 0.61166221 0.39131826 0.61171412 0.39318576 -0.58416957 -0.27655974
8257500000 0.51198161 0.40932831 0.62802064 0.36665475 0.62844646 0.36638635 -0.60216659 -0.23886998
8260000000 0.51891136 0.39693624 0.64184904 0.33871326 0.64250624 0.33941343 -0.61427474 -0.19883208
8262500000 0.52801174 0.38593861 0.65755284 0.31071863 0.65710902 0.31211182 -0.62567073 -0.15913022
8265000000 0.53550297 0.37588015 0.67011464 0.28329599 0.6709711 0.28504166 -0.6348111 -0.1178339
8267500000 0.54084563 0.36639312 0.68013793 0.25643027 0.68114227 0.2567583 -0.63941216 -0.077544734
8270000000 0.54771394 0.35458022 0.69242501 0.22711974 0.69192535 0.22836137 -0.64385831 -0.036179408
8272500000 0.55485338 0.34302741 0.70178932 0.19771804 0.70149708 0.19868535 -0.64422542 0.0045231809
8275000000 0.56019461 0.33146298 0.70762873 0.16824408 0.70943123 0.1681568 -0.64137018 0.046497006
8277500000 0.56630862 0.32041648 0.71517724 0.13820672 0.71670365 0.13689511 -0.63660938 0.08906129
8280000000 0.57270515 0.30820033 0.72132647 0.10748585 0.72177565 0.10879166 -0.63042855 0.12781464
8282500000 0.57763445 0.29758379 0.72632331 0.07813336 0.72657889 0.078117959 -0.61997968 0.16878159
8285000000 0.58366674 0.28600582 0.72960281 0.047964249 0.72822964 0.048747763 -0.60738164 0.20673762
8287500000 0.58717281 0.27288881 0.72993213 0.016985891 0.72945166 0.017220344 -0.59125322 0.24571367
8290000000 0.59162009 0.26218194 0.73065364 -0.012658497 0.72997075 -0.013403606 -0.57535988 0.28290567
8292500000 0.59535837 0.25009519 0.72891271 -0.042910475 0.72993869 -0.045224022 -0.5551787 0.31985989
8295000000 0.60114926 0.23808871 0.72731715 -0.074195139 0.72766274 -0.073654048 -0.53329372 0.35245603
8297500000 0.60468233 0.22528899 0.72448719 -0.10478843 0.72417569 -0.10525336 -0.50872809 0.38753441
8300000000 0.60866606 0.21324088 0.72103202 -0.1366611 0.72035581 -0.1345446 -0.48333016 0.41863587
8302500000 0.61124504 0.2000861 0.71292561 -0.16433568 0.71323508 -0.16486037 -0.45492598 0.44760898
8305000000 0.61411035 0.18944423 0.7075156 -0.19493958 0.70717782 -0.19459872 -0.42438561 0.47660512
8307500000 0.6168254 0.17608531 0.69832331 -0.22375755 0.69891793 -0.22456096 -0.3932434 0.5025785
8310000000 0.61959732 0.1641876 0.68945992 -0.25248626 0.68929875 -0.25328732 -0.35893109 0.5250591
8312500000 0.62262934 0.15176113 0.67827749 -0.28235939 0.67986286 -0.28130805 -0.32466131 0.54626513
8315000000 0.62376392 0.13847758 0.66706634 -0.31085137 0.66752607 -0.30947873 -0.28879392 0.56609285
8317500000 0.62530744 0.12700012 0.65391743 -0.33849251 0.65347195 -0.33753374 -0.24999224 0.58173269
8320000000 0.62674713 0.11428091 0.64073813 -0.36571166 0.63991588 -0.364997 -0.21198787 0.5975697
8322500000 0.62750447 0.10254719 0.62577099 -0.39269128 0.62537271 -0.39182797 -0.17274268 0.60855514
8325000000 0.62833631 0.090739414 0.60933512 -0.41788208 0.60869396 -0.41897434 -0.13214542 0.61863708
8327500000 0.62932682 0.078065433 0.59090161 -0.44524792 0.59163642 -0.44441006 -0.090434618 0.62450922
8330000000 0.62873787 0.066211745 0.57295835 -0.46884844 0.57329798 -0.4688797 -0.050574698 0.62869686
8332500000 0.63053691 0.054696988 0.55430347 -0.49505743 0.55399781 -0.49361011 -0.008687865 0.62980461
8335000000 0.63059968 0.042168051 0.53269732 -0.51828367 0.53382361 -0.51651478 0.032035466 0.62776065
8337500000 0.62960482 0.030995008 0.51167709 -0.53972089 0.51197344 -0.54077137 0.073553093 0.62378436
8340000000 0.63026321 0.018588735 0.48845872 -0.56386644 0.48856932 -0.56192994 0.11449959 0.61624438
8342500000 0.62987399 0.0081762122 0.46631798 -0.58322591 0.46563715 -0.58317417 0.15514284 0.60717285
8345000000 0.63005763 -0.0054302742 0.44074538 -0.60535443 0.44043744 -0.60396093 0.19443911 0.59484082
8347500000 0.62815487 -0.016210603 0.4144614 -0.62306291 0.41440964 -0.62272125 0.23427148 0.57939732
8350000000 0.62705624 -0.027456019 0.38858014 -0.64171213 0.38771832 -0.64144456 0.27201188 0.56166655
8352500000 0.62717497 -0.038478583 0.36201209 -0.65852463 0.36056319 -0.65691525 0.30780262 0.5413506
8355000000 0.62494981 -0.049396481 0.3340092 -0.6728462 0.33399999 -0.6731298 0.34247828 0.5199706
8357500000 0.62385738 -0.061258048 0.30346629 -0.68760806 0.30464298 -0.6870966 0.37595755 0.49487352
8360000000 0.6226846 -0.072789431 0.2746934 -0.70189738 0.27568129 -0.69981581 0.4072831 0.4684509
8362500000 0.62012178 -0.082976647 0.24429969 -0.71192902 0.24508105 -0.71226531 0.43817759 0.43946937
8365000000 0.61871964 -0.094275668 0.21464649 -0.72235739 0.21553136 -0.72065771 0.46413931 0.40922204
8367500000 0.61608618 -0.10446265 0.18373699 -0.73063767 0.18520378 -0.72961479 0.48971948 0.37672189
8370000000 0.61252296 -0.1154246 0.15296303 -0.73739308 0.15426823 -0.7372247 0.51443923 0.34374839
8372500000 0.60961211 -0.12516978 0.12310613 -0.74378854 0.12215089 -0.74362582 0.5368064 0.30896649
8375000000 0.6076327 -0.13685456 0.089360557 -0.74855894 0.092293173 -0.74733245 0.55413097 0.27259457
8377500000 0.60501552 -0.14606541 0.059218321 -0.75250155 0.058639538 -0.75106674 0.57156569 0.23384437
8380000000 0.60163391 -0.1566074 0.027340932 -0.75368255 0.02754784 -0.75373507 0.58587784 0.19604316
8382500000 0.59786373 -0.16738383 -0.0036843589 -0.75421917 -0.0047192415 -0.75409496 0.59689885 0.15630065
8385000000 0.5950042 -0.17691918 -0.036216538 -0.75317836 -0.036740035 -0.75417125 0.60623819 0.11531041
8387500000 0.59128624 -0.18866813 -0.068945833 -0.75139409 -0.067485318 -0.75235707 0.61294025 0.075965755
8390000000 0.58622426 -0.19792256 -0.10031454 -0.74741316 -0.099544242 -0.74794173 0.61563951 0.034489632
8392500000 0.58276063 -0.20727754 -0.1311257 -0.74331677 -0.13113113 -0.74269217 0.61719912 -0.0070584076
8395000000 0.57893556 -0.21756874 -0.16212532 -0.73722792 -0.16325524 -0.73792017 0.61513317 -0.047906995
8397500000 0.57481033 -0.2281175 -0.19427113 -0.73079747 -0.19354345 -0.73095888 0.6117965 -0.088466145
8400000000 0.57006609 -0.23656186 -0.22281188 -0.72032493 -0.2235658 -0.72171748 0.60330951 -0.12753351
8402500000 0.56634587 -0.24700749 -0.25466704 -0.71193182 -0.25308821 -0.71108955 0.59283978 -0.167675
8405000000 0.56188899 -0.25691786 -0.28424647 -0.70126861 -0.28429693 -0.70133638 0.58113897 -0.20828484
8407500000 0.55530185 -0.26675928 -0.3127676 -0.68809599 -0.31343049 -0.68887824 0.56673956 -0.24512154
8410000000 0.55048037 -0.27526942 -0.34172934 -0.67472667 -0.34218836 -0.67396873 0.54882985 -0.28204557
8412500000 0.54613137 -0.28548056 -0.3700453 -0.6598255 -0.37086937 -0.66075873 0.52918971 -0.31793472
8415000000 0.54055548 -0.29520407 -0.39769468 -0.64340281 -0.39837831 -0.64427149 0.50641149 -0.35175148
8417500000 0.53580129 -0.30345616 -0.4238252 -0.62724018 -0.42484662 -0.62723833 0.48222598 -0.38454291
8420000000 0.53007263 -0.31272563 -0.45034736 -0.6073485 -0.45095143 -0.60714364 0.45362198 -0.41538045
8422500000 0.52429944 -0.32164481 -0.47516179 -0.58761704 -0.47573474 -0.58716369 0.42465541 -0.44470766
8425000000 0.51926261 -0.33056816 -0.49967441 -0.56884056 -0.49987817 -0.56824708 0.39564827 -0.47217715
8427500000 0.51230568 -0.34042394 -0.52349049 -0.54604441 -0.52368474 -0.54595381 0.36420959 -0.49785718
8430000000 0.50691581 -0.34885818 -0.54587334 -0.52376318 -0.54557866 -0.52473712 0.33043757 -0.51924878
8432500000 0.50126612 -0.35757565 -0.56724346 -0.5006308 -0.56728369 -0.50149238 0.29551205 -0.54115701
8435000000 0.49484122 -0.36686784 -0.58638734 -0.47654155 -0.58795947 -0.47620848 0.25933042 -0.55824423
8437500000 0.48933351 -0.37622771 -0.60686648 -0.45102271 -0.60537314 -0.4520537 0.22222051 -0.57305312
8440000000 0.48311242 -0.38565329 -0.625045 -0.42572582 -0.6242575 -0.4258714 0.18388285 -0.58623391
8442500000 0.47675329 -0.39450428 -0.64301127 -0.39914268 -0.64126158 -0.39812627 0.14346476 -0.59725291
8445000000 0.46970341 -0.4023256 -0.65730226 -0.37118101 -0.65641385 -0.37273955 0.10588662 -0.60469234
8447500000 0.46215454 -0.41315144 -0.67296273 -0.34384012 -0.67224282 -0.34381101 0.066823147 -0.61142075
8450000000 0.45479375 -0.42219651 -0.68642265 -0.3143681 -0.68541586 -0.31738344 0.028112404 -0.61380082
8452500000 0.44780576 -0.42971668 -0.69788367 -0.28675911 -0.69644988 -0.28843394 -0.010851303 -0.61384374
8455000000 0.44071573 -0.43879017 -0.70899653 -0.25740102 -0.7081902 -0.25844657 -0.051686905 -0.61218196
8457500000 0.43312371 -0.44769341 -0.7176314 -0.22829299 -0.71810216 -0.22842741 -0.089981884 -0.60721046
8460000000 0.4248437 -0.45656776 -0.72700274 -0.1980693 -0.72424752 -0.19876657 -0.1284923 -0.59918648
8462500000 0.41712686 -0.46596983 -0.73408037 -0.16877504 -0.73317587 -0.16872469 -0.16626482 -0.59086329
8465000000 0.40816763 -0.47330773 -0.73903716 -0.13738322 -0.73845696 -0.13917443 -0.2038137 -0.5793671
8467500000 0.39929906 -0.48153001 -0.74337792 -0.10815072 -0.7435655 -0.10849591 -0.23984784 -0.56554872
8470000000 0.39022627 -0.48860279 -0.74610114 -0.077589162 -0.74712032 -0.077907011 -0.27498001 -0.54976612
8472500000 0.38119045 -0.49591824 -0.74862647 -0.047479909 -0.75019395 -0.048153229 -0.30983862 -0.53267467
8475000000 0.37279624 -0.50408828 -0.75088656 -0.017540647 -0.74980205 -0.016979208 -0.34203663 -0.51208246
