#  HZ   S   RI   R     50.00 
! Rohde & Schwarz ZVA40 4Ports - Version 3.90 - 1145.1110k42 SN: 100403
! Date: 2023-10-04 08:26:21
! Measurement: S12 
! 
 2.200000000000000E10   -7.990482263267040E-3  -2.200580667704344E-3  
 2.202000000000000E10   -7.651626947335899E-4   8.722334168851376E-3  
 2.204000000000000E10    8.725623600184917E-3  -4.478783812373877E-4  
 2.206000000000000E10   -2.097179414704442E-3  -8.336685597896576E-3  
 2.208000000000000E10   -8.853432722389698E-3   1.813555718399584E-3  
 2.210000000000000E10    2.933954587206245E-3   8.891725912690163E-3  
 2.212000000000000E10    7.650346495211124E-3  -3.316628048196435E-3  
 2.214000000000000E10   -3.465151647105813E-3  -6.648228969424963E-3  
 2.216000000000000E10   -6.781334988772869E-3   4.877895582467318E-3  
 2.218000000000000E10    5.421316716820002E-3   6.509587168693543E-3  
 2.220000000000000E10    4.905699286609888E-3  -5.411797203123570E-3  
 2.222000000000000E10   -7.011468522250652E-3  -3.796558128669858E-3  
 2.224000000000000E10   -3.147030482068658E-3   7.944311946630478E-3  
 2.226000000000000E10    8.035858161747456E-3   2.366041066125035E-3  
 2.228000000000000E10    1.072079525329173E-3  -8.914109319448471E-3  
 2.230000000000000E10   -9.143204428255558E-3  -3.147074312437326E-4  
 2.232000000000000E10    1.013341825455427E-3   9.476271457970142E-3  
 2.234000000000000E10    9.882207028567791E-3  -2.082034246996045E-3  
 2.236000000000000E10   -2.546095522120595E-3  -9.100262075662613E-3  
 2.238000000000000E10   -8.854065090417862E-3   4.084788728505373E-3  
 2.240000000000000E10    4.880302585661411E-3   8.333020843565464E-3  
 2.242000000000000E10    7.273604162037373E-3  -5.277253687381744E-3  
 2.244000000000000E10   -6.084435153752565E-3  -6.200265139341354E-3  
 2.246000000000000E10   -5.410609766840935E-3   6.806081160902977E-3  
 2.248000000000000E10    7.465805392712355E-3   4.445920698344708E-3  
 2.250000000000000E10    3.797616343945265E-3  -7.964166812598705E-3  
 2.252000000000000E10   -9.391109459102154E-3  -2.639351878315210E-3  
 2.254000000000000E10   -8.606259361840785E-4   9.802842512726784E-3  
 2.256000000000000E10    1.036314014345408E-2   6.345420842990279E-5  
 2.258000000000000E10   -1.280500902794302E-3  -1.091406028717756E-2  
 2.260000000000000E10   -1.001657824963331E-2   1.813244773074985E-3  
 2.262000000000000E10    2.444586483761668E-3   1.032560691237450E-2  
 2.264000000000000E10    9.752411395311356E-3  -2.937509445473552E-3  
 2.266000000000000E10   -3.581313882023096E-3  -9.399778209626675E-3  
 2.268000000000000E10   -8.823479525744915E-3   5.150984507054091E-3  
 2.270000000000000E10    5.977618973702192E-3   7.619633805006743E-3  
 2.272000000000000E10    6.478530354797840E-3  -6.082477979362011E-3  
 2.274000000000000E10   -7.327326573431492E-3  -5.514891818165779E-3  
 2.276000000000000E10   -3.198314458131790E-3   8.975896053016186E-3  
 2.278000000000000E10    9.298919700086117E-3   2.263758331537247E-3  
 2.280000000000000E10    1.080130343325436E-3  -9.707422927021980E-3  
 2.282000000000000E10   -8.355595171451569E-3  -5.831575021147728E-3  
 2.284000000000000E10    8.674300042912364E-4   1.165042631328106E-2  
 2.286000000000000E10    1.221165154129267E-2  -1.796598779037595E-3  
 2.288000000000000E10   -2.906549023464322E-3  -1.182472053915262E-2  
 2.290000000000000E10   -1.116856187582016E-2   4.083377774804831E-3  
 2.292000000000000E10    4.949123132973909E-3   1.056425180286169E-2  
 2.294000000000000E10    9.635235182940960E-3  -4.749273415654898E-3  
 2.296000000000000E10   -5.660843104124069E-3  -8.321638219058514E-3  
 2.298000000000000E10   -7.332162931561470E-3   6.679187528789043E-3  
 2.300000000000000E10    7.476577535271645E-3   6.653664167970419E-3  
 2.302000000000000E10    4.809999838471413E-3  -8.428133092820644E-3  
 2.304000000000000E10   -8.922521956264973E-3  -3.237396711483598E-3  
 2.306000000000000E10   -1.057480461895466E-3   1.047571469098330E-2  
 2.308000000000000E10    1.073657535016537E-2  -5.703995702788234E-4  
 2.310000000000000E10   -1.959323650225997E-3  -1.095513813197613E-2  
 2.312000000000000E10   -1.111367624253035E-2   3.841914935037494E-3  
 2.314000000000000E10    3.866375889629126E-3   1.124776620417833E-2  
 2.316000000000000E10    1.217664685100317E-2  -5.703486036509275E-3  
 2.318000000000000E10   -7.402726914733648E-3  -1.119051035493612E-2  
 2.320000000000000E10   -9.881233796477318E-3   7.869785651564598E-3  
 2.322000000000000E10    8.301779627799988E-3   9.655586443841457E-3  
 2.324000000000000E10    8.477039635181427E-3  -8.469490334391594E-3  
 2.326000000000000E10   -8.934262208640575E-3  -7.699689362198114E-3  
 2.328000000000000E10   -5.825002212077379E-3   1.016227435320616E-2  
 2.330000000000000E10    9.803554974496365E-3   3.337919712066650E-3  
 2.332000000000000E10    1.774734817445278E-3  -9.740713052451611E-3  
 2.334000000000000E10   -1.041428931057453E-2   2.246728254249319E-4  
 2.336000000000000E10    2.172057284042239E-3   1.153615489602089E-2  
 2.338000000000000E10    1.127074565738440E-2  -4.157202318310738E-3  
 2.340000000000000E10   -6.850863341242075E-3  -1.084851101040840E-2  
 2.342000000000000E10   -1.089831534773111E-2   7.808906026184559E-3  
 2.344000000000000E10    8.740095421671867E-3   1.128482539206743E-2  
 2.346000000000000E10    1.017218921333551E-2  -9.640185162425041E-3  
 2.348000000000000E10   -1.015925593674183E-2  -9.473140351474285E-3  
 2.350000000000000E10   -8.476415649056435E-3   1.100100297480822E-2  
 2.352000000000000E10    1.104816794395447E-2   7.305556442588568E-3  
 2.354000000000000E10    5.461911670863628E-3  -1.136826351284981E-2  
 2.356000000000000E10   -1.191237010061741E-2  -2.896565245464444E-3  
 2.358000000000000E10   -5.228474037721753E-4   1.169611606746912E-2  
 2.360000000000000E10    1.111353747546673E-2  -1.364992232993245E-3  
 2.362000000000000E10   -3.580742282792926E-3  -1.114576868712902E-2  
 2.364000000000000E10   -1.102092768996954E-2   5.872495006769896E-3  
 2.366000000000000E10    7.732240017503500E-3   1.059328112751246E-2  
 2.368000000000000E10    1.035994663834572E-2  -8.947918191552162E-3  
 2.370000000000000E10   -1.041357498615980E-2  -9.137932211160660E-3  
 2.372000000000000E10   -8.443804457783699E-3   1.159962546080351E-2  
 2.374000000000000E10    1.261455658823252E-2   7.892531342804432E-3  
 2.376000000000000E10    6.610314827412367E-3  -1.320120319724083E-2  
 2.378000000000000E10   -1.309765130281448E-2  -5.005443934351206E-3  
 2.380000000000000E10   -3.986582625657320E-3   1.369019411504269E-2  
 2.382000000000000E10    1.331173442304134E-2   1.861527562141419E-3  
 2.384000000000000E10    3.578064788598567E-4  -1.314246933907270E-2  
 2.386000000000000E10   -1.295120362192392E-2   1.487952424213290E-3  
 2.388000000000000E10    3.916773945093155E-3   1.223410479724407E-2  
 2.390000000000000E10    1.083832886070013E-2  -6.071952171623707E-3  
 2.392000000000000E10   -8.393937721848488E-3  -9.231500327587128E-3  
 2.394000000000000E10   -7.973507046699524E-3   1.017161458730698E-2  
 2.396000000000000E10    1.150564383715391E-2   7.038136012852192E-3  
 2.398000000000000E10    4.938264377415180E-3  -1.258050370961428E-2  
 2.400000000000000E10   -1.368001848459244E-2  -4.322378896176815E-3  
 2.402000000000000E10   -1.807023654691875E-3   1.481178868561983E-2  
 2.404000000000000E10    1.399391982704401E-2   4.157740331720561E-4  
 2.406000000000000E10   -3.540224861353636E-4  -1.409618090838194E-2  
 2.408000000000000E10   -1.393101830035448E-2   9.189536795020104E-4  
 2.410000000000000E10    2.209182363003492E-3   1.323633454740048E-2  
 2.412000000000000E10    1.158843282610178E-2  -3.430105047300458E-3  
 2.414000000000000E10   -5.168872885406017E-3  -1.047648862004280E-2  
 2.416000000000000E10   -9.898128919303417E-3   6.944265682250261E-3  
 2.418000000000000E10    8.647001348435879E-3   8.384041488170624E-3  
 2.420000000000000E10    6.285507697612047E-3  -9.926656261086464E-3  
 2.422000000000000E10   -1.105894614011049E-2  -5.168904084712267E-3  
 2.424000000000000E10   -4.369949456304312E-3   1.188715826719999E-2  
 2.426000000000000E10    1.285767462104559E-2   3.160601016134024E-3  
 2.428000000000000E10    2.514453139156103E-3  -1.302185934036970E-2  
 2.430000000000000E10   -1.369483396410942E-2  -2.174600027501583E-3  
 2.432000000000000E10   -5.548618501052260E-4   1.377845555543900E-2  
 2.434000000000000E10    1.320607867091894E-2  -1.112322439439595E-3  
 2.436000000000000E10   -2.731721848249435E-3  -1.246693264693022E-2  
 2.438000000000000E10   -1.124585513025522E-2   3.636811161413789E-3  
 2.440000000000000E10    5.340876057744026E-3   1.055345218628645E-2  
 2.442000000000000E10    9.133779443800449E-3  -6.758326198905706E-3  
 2.444000000000000E10   -7.244504988193512E-3  -8.025256916880608E-3  
 2.446000000000000E10   -6.859722081571817E-3   8.239830844104290E-3  
 2.448000000000000E10    9.491124190390110E-3   5.795986857265234E-3  
 2.450000000000000E10    5.131797399371862E-3  -1.058468502014875E-2  
 2.452000000000000E10   -1.099915336817503E-2  -3.542670514434576E-3  
 2.454000000000000E10   -2.415221650153399E-3   1.108830235898495E-2  
 2.456000000000000E10    1.160828955471516E-2   1.651709084399045E-3  
 2.458000000000000E10    8.981825667433441E-4  -1.177802495658398E-2  
 2.460000000000000E10   -1.203581690788269E-2  -4.208249738439918E-4  
 2.462000000000000E10    1.592364395037293E-3   1.161692012101412E-2  
 2.464000000000000E10    1.122502796351910E-2  -1.851755660027266E-3  
 2.466000000000000E10   -2.357565565034747E-3  -1.149537507444620E-2  
 2.468000000000000E10   -1.053526066243649E-2   4.568312317132950E-3  
 2.470000000000000E10    6.126768887042999E-3   8.748843334615231E-3  
 2.472000000000000E10    7.811152841895819E-3  -6.860974244773388E-3  
 2.474000000000000E10   -7.815393619239330E-3  -6.767865736037493E-3  
 2.476000000000000E10   -5.128337536007166E-3   8.816032670438290E-3  
 2.478000000000000E10    1.036270987242460E-2   4.477408714592457E-3  
 2.480000000000000E10    2.866799710318446E-3  -1.096094213426113E-2  
 2.482000000000000E10   -1.133377663791180E-2  -2.265293616801500E-3  
 2.484000000000000E10   -9.872163645923138E-4   1.313306577503681E-2  
 2.486000000000000E10    1.243479270488024E-2   5.654418418998830E-5  
 2.488000000000000E10   -1.111224642954767E-3  -1.218383759260178E-2  
 2.490000000000000E10   -1.107798051089048E-2   2.644636901095510E-3  
 2.492000000000000E10    2.091924427077174E-3   1.088764425367117E-2  
 2.494000000000000E10    1.065301429480314E-2  -2.796034794300795E-3  
 2.496000000000000E10   -4.988746251910925E-3  -9.155262261629105E-3  
 2.498000000000000E10   -7.723289541900158E-3   6.290425080806017E-3  
 2.500000000000000E10    6.810459773987532E-3   7.049974519759417E-3  
 2.502000000000000E10    5.866528954356909E-3  -7.639639545232058E-3  
 2.504000000000000E10   -9.143622592091560E-3  -3.761386265978217E-3  
 2.506000000000000E10   -2.744046971201897E-3   9.398594498634338E-3  
 2.508000000000000E10    9.975538589060307E-3   3.373926272615790E-3  
 2.510000000000000E10    1.982582965865731E-3  -1.081766560673714E-2  
 2.512000000000000E10   -1.143994368612766E-2  -1.182981068268418E-3  
 2.514000000000000E10   -5.479154642671347E-4   1.268636621534824E-2  
 2.516000000000000E10    1.248511485755444E-2  -6.541121983900666E-4  
 2.518000000000000E10   -1.599616138264537E-3  -1.176779996603727E-2  
 2.520000000000000E10   -1.136034261435270E-2   3.523793304339051E-3  
 2.522000000000000E10    3.570451634004712E-3   1.060368865728378E-2  
 2.524000000000000E10    9.973033331334591E-3  -4.705318715423346E-3  
 2.526000000000000E10   -6.170271895825863E-3  -7.807320915162563E-3  
 2.528000000000000E10   -7.408950477838516E-3   6.657115649431944E-3  
 2.530000000000000E10    8.135313168168068E-3   6.565546616911888E-3  
 2.532000000000000E10    4.631754010915756E-3  -9.177632629871368E-3  
 2.534000000000000E10   -1.019789278507233E-2  -2.859711414203048E-3  
 2.536000000000000E10   -1.286373008042574E-3   1.093139685690403E-2  
 2.538000000000000E10    1.088543329387903E-2   1.842814817791805E-4  
 2.540000000000000E10   -4.624728462658823E-4  -1.141185685992241E-2  
 2.542000000000000E10   -1.169481128454208E-2   1.896950532682240E-3  
 2.544000000000000E10    2.444718731567264E-3   1.172523293644190E-2  
 2.546000000000000E10    1.206394471228123E-2  -3.566993866115809E-3  
 2.548000000000000E10   -4.809232894331217E-3  -1.108401082456112E-2  
 2.550000000000000E10   -1.016885694116354E-2   5.226911511272192E-3  
 2.552000000000000E10    6.682792212814093E-3   9.401408955454826E-3  
 2.554000000000000E10    7.224674802273512E-3  -8.291409350931644E-3  
 2.556000000000000E10   -8.016458712518215E-3  -5.645784083753824E-3  
 2.558000000000000E10   -4.588743206113577E-3   8.644550107419491E-3  
 2.560000000000000E10    1.007826253771782E-2   2.693820511922240E-3  
 2.562000000000000E10    8.560157730244100E-4  -1.086681056767702E-2  
 2.564000000000000E10   -1.087464112788439E-2   5.546282627619803E-4  
 2.566000000000000E10    2.227109158411622E-3   1.149463746696711E-2  
 2.568000000000000E10    1.176343485713005E-2  -3.909494262188673E-3  
 2.570000000000000E10   -5.437703337520361E-3  -1.063421741127968E-2  
 2.572000000000000E10   -1.055509503930807E-2   5.731318611651659E-3  
 2.574000000000000E10    7.137648761272430E-3   1.100018806755543E-2  
 2.576000000000000E10    9.780671447515488E-3  -7.906250655651093E-3  
 2.578000000000000E10   -8.658701553940773E-3  -8.852070197463036E-3  
 2.580000000000000E10   -6.971761118620634E-3   9.119762107729912E-3  
 2.582000000000000E10    1.026788167655468E-2   6.002640817314386E-3  
 2.584000000000000E10    4.621943458914757E-3  -1.042213197797537E-2  
 2.586000000000000E10   -1.009523868560791E-2  -2.389339497312903E-3  
 2.588000000000000E10   -5.820711376145482E-4   9.852030314505100E-3  
 2.590000000000000E10    1.037330552935600E-2  -3.816511598415673E-4  
 2.592000000000000E10   -1.298399991355836E-3  -1.039763353765011E-2  
 2.594000000000000E10   -1.004679035395384E-2   3.338998416438699E-3  
 2.596000000000000E10    5.138586740940809E-3   9.839002043008804E-3  
 2.598000000000000E10    1.003789901733398E-2  -6.206493359059095E-3  
 2.600000000000000E10   -7.201793137937784E-3  -9.651863947510719E-3  
 2.602000000000000E10   -8.592776954174042E-3   8.522333577275276E-3  
 2.604000000000000E10    1.015149336308241E-2   7.675980683416128E-3  
 2.606000000000000E10    6.919641513377428E-3  -1.039528101682663E-2  
 2.608000000000000E10   -1.009603962302208E-2  -6.144294515252113E-3  
 2.610000000000000E10   -5.237111356109381E-3   9.795327670872212E-3  
 2.612000000000000E10    1.071874983608723E-2   3.952119499444962E-3  
 2.614000000000000E10    2.488671801984310E-3  -1.061408966779709E-2  
 2.616000000000000E10   -1.085892226547003E-2  -1.101058791391552E-3  
 2.618000000000000E10   -1.075513282557949E-4   1.048212591558695E-2  
 2.620000000000000E10    9.974366985261440E-3  -1.952179125510156E-3  
 2.622000000000000E10   -3.576374845579267E-3  -9.503046050667763E-3  
 2.624000000000000E10   -8.956073783338070E-3   4.354416392743588E-3  
 2.626000000000000E10    5.521754734218121E-3   8.340122178196907E-3  
 2.628000000000000E10    7.615392096340656E-3  -6.532718427479267E-3  
 2.630000000000000E10   -7.497593760490418E-3  -6.735269445925951E-3  
 2.632000000000000E10   -6.344489287585020E-3   8.758483454585075E-3  
 2.634000000000000E10    8.439763449132443E-3   4.816669970750809E-3  
 2.636000000000000E10    3.860747907310724E-3  -8.925746195018292E-3  
 2.638000000000000E10   -1.002589985728264E-2  -3.255514195188880E-3  
 2.640000000000000E10   -1.620302675291896E-3   9.558227844536305E-3  
 2.642000000000000E10    9.679371491074562E-3   1.275820657610893E-3  
 2.644000000000000E10   -3.191599680576474E-4  -1.001555938273668E-2  
 2.646000000000000E10   -9.852723218500614E-3   1.130517455749214E-3  
 2.648000000000000E10    2.346105640754104E-3   9.562942199409008E-3  
 2.650000000000000E10    8.786010555922985E-3  -3.456619800999761E-3  
 2.652000000000000E10   -4.548777360469103E-3  -8.896342478692532E-3  
 2.654000000000000E10   -7.633834145963192E-3   6.125704385340214E-3  
 2.656000000000000E10    6.270315963774920E-3   6.025845184922218E-3  
 2.658000000000000E10    5.314435809850693E-3  -6.927017588168383E-3  
 2.660000000000000E10   -7.950133644044399E-3  -4.037844017148018E-3  
 2.662000000000000E10   -3.256041323766112E-3   7.723866961896420E-3  
 2.664000000000000E10    7.595031056553125E-3   1.852068002335727E-3  
 2.666000000000000E10    8.322207722812891E-4  -8.717262186110020E-3  
 2.668000000000000E10   -8.729317225515842E-3  -5.399758229032159E-4  
 2.670000000000000E10    5.995997926220298E-4   7.860129699110985E-3  
 2.672000000000000E10    7.945865392684937E-3  -9.091443498618901E-4  
 2.674000000000000E10   -1.699193846434355E-3  -8.212421089410782E-3  
 2.676000000000000E10   -7.466787472367287E-3   2.814921550452709E-3  
 2.678000000000000E10    3.505379427224398E-3   7.729057222604752E-3  
 2.680000000000000E10    7.265079300850630E-3  -4.010138567537069E-3  
 2.682000000000000E10   -4.741281270980835E-3  -6.606334354728460E-3  
 2.684000000000000E10   -6.154173985123634E-3   5.380859598517418E-3  
 2.686000000000000E10    6.564101669937372E-3   4.742381628602743E-3  
 2.688000000000000E10    4.392324946820736E-3  -6.897679064422846E-3  
 2.690000000000000E10   -6.634238176047802E-3  -3.421098925173283E-3  
 2.692000000000000E10   -1.920765149407089E-3   6.519693415611982E-3  
 2.694000000000000E10    7.227952126413584E-3   1.441838103346527E-3  
 2.696000000000000E10    1.192019204609096E-3  -7.360200863331556E-3  
 2.698000000000000E10   -6.771709769964218E-3   6.150671833893284E-5  
 2.700000000000000E10    1.151931588537991E-3   6.979027297347784E-3  
 2.702000000000000E10    7.264466024935246E-3  -1.500480109825730E-3  
 2.704000000000000E10   -2.236907370388508E-3  -7.326888851821423E-3  
 2.706000000000000E10   -6.756132468581200E-3   3.386147785931826E-3  
 2.708000000000000E10    3.331892192363739E-3   5.877488292753696E-3  
 2.710000000000000E10    5.971210077404976E-3  -4.289104603230953E-3  
 2.712000000000000E10   -4.541958216577768E-3  -5.478325765579939E-3  
 2.714000000000000E10   -4.382327664643526E-3   4.726323299109936E-3  
 2.716000000000000E10    5.377118941396475E-3   3.343929536640644E-3  
 2.718000000000000E10    3.166728653013706E-3  -5.387556739151478E-3  
 2.720000000000000E10   -5.660160910338163E-3  -2.248967066407204E-3  
 2.722000000000000E10   -1.231971895322204E-3   5.865371786057949E-3  
 2.724000000000000E10    5.720944143831730E-3   1.052404986694455E-3  
 2.726000000000000E10    5.230300012044609E-4  -6.737498100847006E-3  
 2.728000000000000E10   -6.758400239050388E-3   5.764410016126931E-4  
 2.730000000000000E10    6.110526155680418E-4   6.481136195361614E-3  
 2.732000000000000E10    7.051640190184116E-3  -1.022259122692049E-3  
 2.734000000000000E10   -2.046747133135796E-3  -7.103653624653816E-3  
 2.736000000000000E10   -6.370565854012966E-3   2.306462265551090E-3  
 2.738000000000000E10    3.169567557051778E-3   5.956665612757206E-3  
 2.740000000000000E10    4.956927616149187E-3  -3.678011009469628E-3  
 2.742000000000000E10   -4.242573864758015E-3  -4.307352472096682E-3  
 2.744000000000000E10   -3.239130834117532E-3   4.462449345737696E-3  
 2.746000000000000E10    4.885185975581408E-3   2.670426387339830E-3  
 2.748000000000000E10    2.294577658176422E-3  -5.126032512634993E-3  
 2.750000000000000E10   -5.685589741915464E-3  -1.137328334152699E-3  
 2.752000000000000E10   -7.047050748951733E-4   5.519659258425236E-3  
 2.754000000000000E10    6.132754031568766E-3   5.216973950155079E-4  
 2.756000000000000E10   -4.554494516924024E-4  -5.947717465460300E-3  
