#  HZ   S   RI   R     50.00 
! Rohde & Schwarz ZVA40 4Ports - Version 3.90 - 1145.1110k42 SN: 100403
! Date: 2023-10-04 08:27:00
! Measurement: S12 
! 
 2.200000000000000E10   -8.853942155838013E-3  -1.640595961362124E-3  
 2.202000000000000E10   -1.172163989394903E-3   9.308582171797752E-3  
 2.204000000000000E10    9.315329603850842E-3   9.691661398392171E-5  
 2.206000000000000E10   -7.021070341579616E-4  -8.461726829409599E-3  
 2.208000000000000E10   -7.603354286402464E-3   1.118642627261579E-3  
 2.210000000000000E10    2.815437968820334E-3   6.929073948413134E-3  
 2.212000000000000E10    6.702561397105455E-3  -3.671732731163502E-3  
 2.214000000000000E10   -4.549715667963028E-3  -5.497744772583246E-3  
 2.216000000000000E10   -4.559100139886141E-3   5.876171402633190E-3  
 2.218000000000000E10    6.519741378724575E-3   4.414856433868408E-3  
 2.220000000000000E10    3.418824868276715E-3  -7.828469388186932E-3  
 2.222000000000000E10   -8.913846686482430E-3  -2.826823387295008E-3  
 2.224000000000000E10   -2.301123458892107E-3   9.070890024304390E-3  
 2.226000000000000E10    1.021211128681898E-2   9.268840658478439E-4  
 2.228000000000000E10   -2.461732265146566E-6  -1.010547019541264E-2  
 2.230000000000000E10   -9.287663735449314E-3  -9.571561531629413E-5  
 2.232000000000000E10    7.002208731137216E-4   9.440329857170582E-3  
 2.234000000000000E10    8.800520561635494E-3  -1.849306980147958E-3  
 2.236000000000000E10   -2.926138229668140E-3  -7.528126705437899E-3  
 2.238000000000000E10   -6.335877347737551E-3   3.728337585926056E-3  
 2.240000000000000E10    4.041602369397879E-3   6.041587330400944E-3  
 2.242000000000000E10    4.867722280323505E-3  -5.966045893728733E-3  
 2.244000000000000E10   -6.887118797749281E-3  -3.728607436642051E-3  
 2.246000000000000E10   -2.596352482214570E-3   7.459537126123905E-3  
 2.248000000000000E10    8.481026627123356E-3   1.369202858768404E-3  
 2.250000000000000E10    1.665458315983415E-3  -9.246339090168476E-3  
 2.252000000000000E10   -9.620982222259045E-3  -2.901405096054077E-4  
 2.254000000000000E10    3.487180511001498E-4   9.711074642837048E-3  
 2.256000000000000E10    1.058044377714396E-2  -1.097208471037448E-3  
 2.258000000000000E10   -2.044943626970053E-3  -9.853567928075790E-3  
 2.260000000000000E10   -9.178310632705689E-3   1.255441224202514E-3  
 2.262000000000000E10    2.607426838949323E-3   8.541115559637547E-3  
 2.264000000000000E10    7.899412885308266E-3  -3.134074620902538E-3  
 2.266000000000000E10   -4.356591030955315E-3  -7.259079255163670E-3  
 2.268000000000000E10   -5.671985913068056E-3   5.047128070145845E-3  
 2.270000000000000E10    5.867739208042622E-3   4.345779307186604E-3  
 2.272000000000000E10    3.285484388470650E-3  -6.412109825760126E-3  
 2.274000000000000E10   -7.437396328896284E-3  -2.219817601144314E-3  
 2.276000000000000E10   -1.308025908656418E-3   8.680255152285099E-3  
 2.278000000000000E10    8.508356288075447E-3   1.889504201244563E-4  
 2.280000000000000E10   -9.300977690145373E-4  -8.577318862080574E-3  
 2.282000000000000E10   -8.599364198744297E-3  -4.580996930599213E-3  
 2.284000000000000E10    1.457093749195337E-3   1.031577214598656E-2  
 2.286000000000000E10    9.363754652440548E-3  -2.271396806463599E-3  
 2.288000000000000E10   -2.697606105357409E-3  -8.599884808063507E-3  
 2.290000000000000E10   -9.099027141928673E-3   3.370365360751748E-3  
 2.292000000000000E10    3.783828113228083E-3   8.198772557079792E-3  
 2.294000000000000E10    6.951433140784502E-3  -4.265341442078352E-3  
 2.296000000000000E10   -5.366574972867966E-3  -5.301946774125099E-3  
 2.298000000000000E10   -4.120002966374159E-3   6.294736173003912E-3  
 2.300000000000000E10    6.792301312088966E-3   3.061778843402863E-3  
 2.302000000000000E10    1.620175549760461E-3  -7.278552744537592E-3  
 2.304000000000000E10   -8.463488891720772E-3  -3.405738098081201E-4  
 2.306000000000000E10    8.324202499352396E-4   9.773833677172661E-3  
 2.308000000000000E10    9.831944480538368E-3  -1.667001633904874E-3  
 2.310000000000000E10   -2.863310975953937E-3  -9.735106490552425E-3  
 2.312000000000000E10   -9.935290552675724E-3   3.797899466007948E-3  
 2.314000000000000E10    3.384168725460768E-3   9.992500767111778E-3  
 2.316000000000000E10    9.538829326629639E-3  -4.893653560429812E-3  
 2.318000000000000E10   -5.546285770833492E-3  -8.827255107462406E-3  
 2.320000000000000E10   -7.617646828293800E-3   5.905030760914087E-3  
 2.322000000000000E10    6.635607220232487E-3   5.726282019168139E-3  
 2.324000000000000E10    4.143268335610628E-3  -6.618794053792954E-3  
 2.326000000000000E10   -7.945916615426540E-3  -3.456755774095655E-3  
 2.328000000000000E10   -1.946255913935602E-3   8.600871078670025E-3  
 2.330000000000000E10    7.689918391406536E-3  -6.639952189289033E-4  
 2.332000000000000E10   -1.774236443452537E-3  -8.667551912367344E-3  
 2.334000000000000E10   -9.045935235917568E-3   2.187213161960244E-3  
 2.336000000000000E10    3.260916564613581E-3   8.926388807594776E-3  
 2.338000000000000E10    9.186713956296444E-3  -4.850325174629688E-3  
 2.340000000000000E10   -6.446948274970055E-3  -8.982724510133266E-3  
 2.342000000000000E10   -9.041640907526016E-3   6.455803290009499E-3  
 2.344000000000000E10    7.339207921177149E-3   8.818377740681171E-3  
 2.346000000000000E10    7.304826751351357E-3  -7.986208423972130E-3  
 2.348000000000000E10   -9.135480970144272E-3  -6.095439661294222E-3  
 2.350000000000000E10   -4.788562655448914E-3   8.678062818944454E-3  
 2.352000000000000E10    8.019718341529369E-3   3.694958053529263E-3  
 2.354000000000000E10    1.370136626064777E-3  -8.937753736972809E-3  
 2.356000000000000E10   -9.732694365084171E-3  -2.579935535322875E-4  
 2.358000000000000E10    1.900909468531609E-3   8.407436311244965E-3  
 2.360000000000000E10    8.157748728990555E-3  -4.240025766193867E-3  
 2.362000000000000E10   -5.507328081876040E-3  -8.194317109882832E-3  
 2.364000000000000E10   -7.857210934162140E-3   6.994682829827070E-3  
 2.366000000000000E10    8.015654049813747E-3   7.646514102816582E-3  
 2.368000000000000E10    7.135215215384960E-3  -8.824682794511318E-3  
 2.370000000000000E10   -1.014860998839140E-2  -6.593591067939997E-3  
 2.372000000000000E10   -6.586014758795500E-3   1.011805236339569E-2  
 2.374000000000000E10    9.867832995951176E-3   5.771640222519636E-3  
 2.376000000000000E10    4.160434938967228E-3  -1.051255501806736E-2  
 2.378000000000000E10   -1.045430265367031E-2  -3.182366723194718E-3  
 2.380000000000000E10   -8.315587183460593E-4   9.855872020125389E-3  
 2.382000000000000E10    9.072224609553814E-3  -8.492574561387301E-4  
 2.384000000000000E10   -2.267703181132674E-3  -8.760035969316959E-3  
 2.386000000000000E10   -8.065057918429375E-3   4.562955349683762E-3  
 2.388000000000000E10    5.964719690382481E-3   7.266737055033445E-3  
 2.390000000000000E10    6.820730865001679E-3  -7.477225735783577E-3  
 2.392000000000000E10   -8.726242929697037E-3  -5.934133660048246E-3  
 2.394000000000000E10   -4.999073687940836E-3   9.467222727835178E-3  
 2.396000000000000E10    1.005269773304462E-2   4.701368045061827E-3  
 2.398000000000000E10    3.664439311251044E-3  -1.096088346093893E-2  
 2.400000000000000E10   -1.095972117036581E-2  -2.972718793898821E-3  
 2.402000000000000E10   -3.014012763742358E-4   1.041099056601524E-2  
 2.404000000000000E10    1.045894715934992E-2  -9.746738942340016E-4  
 2.406000000000000E10   -1.661229296587408E-3  -1.038972288370132E-2  
 2.408000000000000E10   -9.474837221205235E-3   2.511692931875587E-3  
 2.410000000000000E10    4.292319063097239E-3   8.414956741034985E-3  
 2.412000000000000E10    7.638361304998398E-3  -5.353147163987160E-3  
 2.414000000000000E10   -6.061923690140247E-3  -6.601300556212664E-3  
 2.416000000000000E10   -5.551700480282307E-3   6.005035713315010E-3  
 2.418000000000000E10    7.459245622158051E-3   4.643537569791079E-3  
 2.420000000000000E10    3.609201405197382E-3  -8.674321696162224E-3  
 2.422000000000000E10   -9.080381132662296E-3  -2.909087343141437E-3  
 2.424000000000000E10   -1.877121510915458E-3   9.471540339291096E-3  
 2.426000000000000E10    1.028875913470984E-2   6.755513022653759E-4  
 2.428000000000000E10    4.053938610013574E-4  -1.104874070733786E-2  
 2.430000000000000E10   -1.085492875427008E-2   2.048609349003527E-5  
 2.432000000000000E10    1.646676799282432E-3   1.057296153157949E-2  
 2.434000000000000E10    1.062973681837320E-2  -3.196552162989974E-3  
 2.436000000000000E10   -3.888351377099752E-3  -8.954926393926144E-3  
 2.438000000000000E10   -7.364815566688776E-3   4.273728933185339E-3  
 2.440000000000000E10    5.069895181804895E-3   6.910293828696013E-3  
 2.442000000000000E10    5.806680768728256E-3  -6.426823325455189E-3  
 2.444000000000000E10   -6.664196029305458E-3  -3.884434467181563E-3  
 2.446000000000000E10   -3.517195349559188E-3   6.951447576284409E-3  
 2.448000000000000E10    8.009395562112331E-3   2.935731317847967E-3  
 2.450000000000000E10    2.271900884807110E-3  -9.399069473147392E-3  
 2.452000000000000E10   -9.299081750214100E-3  -9.618933545425534E-4  
 2.454000000000000E10    3.198162594344467E-4   8.805527351796627E-3  
 2.456000000000000E10    9.849032387137413E-3  -3.103264316450805E-4  
 2.458000000000000E10   -2.458386879879981E-4  -8.954324759542942E-3  
 2.460000000000000E10   -8.728705346584320E-3   1.104786293581128E-3  
 2.462000000000000E10    2.623254433274269E-3   8.861904963850975E-3  
 2.464000000000000E10    8.054672740399838E-3  -3.076130291447043E-3  
 2.466000000000000E10   -3.898385213688016E-3  -7.182115223258734E-3  
 2.468000000000000E10   -6.814336404204369E-3   5.364951211959124E-3  
 2.470000000000000E10    6.716603878885508E-3   5.528989713639021E-3  
 2.472000000000000E10    4.238586872816086E-3  -6.947973743081093E-3  
 2.474000000000000E10   -6.986523978412151E-3  -3.827905748039484E-3  
 2.476000000000000E10   -3.244824940338731E-3   7.627067621797323E-3  
 2.478000000000000E10    9.000617079436779E-3   2.373342867940664E-3  
 2.480000000000000E10    1.619249233044684E-3  -8.718255907297134E-3  
 2.482000000000000E10   -9.117681533098221E-3  -8.271865081042051E-4  
 2.484000000000000E10    6.217163172550499E-4   9.257546626031399E-3  
 2.486000000000000E10    8.633349090814591E-3  -8.952471544034779E-4  
 2.488000000000000E10   -2.138172509148717E-3  -8.621325716376305E-3  
 2.490000000000000E10   -8.195287548005581E-3   3.250468289479613E-3  
 2.492000000000000E10    3.614283632487059E-3   7.849083282053471E-3  
 2.494000000000000E10    7.012687157839537E-3  -4.548431374132633E-3  
 2.496000000000000E10   -5.312450695782900E-3  -6.037552375346422E-3  
 2.498000000000000E10   -5.396135151386261E-3   6.456091068685055E-3  
 2.500000000000000E10    6.188879255205393E-3   4.028291907161474E-3  
 2.502000000000000E10    3.533165203407407E-3  -6.196807138621807E-3  
 2.504000000000000E10   -7.512997370213270E-3  -2.237396547570825E-3  
 2.506000000000000E10   -1.857579685747623E-3   7.379014045000076E-3  
 2.508000000000000E10    8.286470547318459E-3   1.440430525690317E-3  
 2.510000000000000E10    5.834516487084329E-4  -8.843525312840939E-3  
 2.512000000000000E10   -9.667155332863331E-3   1.221807760884985E-4  
 2.514000000000000E10    1.453164150007069E-3   9.853460825979710E-3  
 2.516000000000000E10    9.082667529582977E-3  -2.577491337433457E-3  
 2.518000000000000E10   -3.017591312527657E-3  -9.415361098945141E-3  
 2.520000000000000E10   -8.719362318515778E-3   4.269469995051622E-3  
 2.522000000000000E10    4.548524972051382E-3   6.784947123378515E-3  
 2.524000000000000E10    6.606298964470625E-3  -5.486922804266214E-3  
 2.526000000000000E10   -6.479240022599697E-3  -5.981017835438252E-3  
 2.528000000000000E10   -5.084073636680841E-3   7.032916415482760E-3  
 2.530000000000000E10    7.638856768608093E-3   3.643425879999995E-3  
 2.532000000000000E10    2.670021262019873E-3  -8.390747942030430E-3  
 2.534000000000000E10   -9.448537603020668E-3  -2.122747479006648E-3  
 2.536000000000000E10   -3.571836568880826E-4   9.255154989659786E-3  
 2.538000000000000E10    8.457244373857975E-3  -3.923055191989988E-4  
 2.540000000000000E10   -9.239731589332223E-4  -9.378151968121529E-3  
 2.542000000000000E10   -9.726699441671372E-3   2.237553009763360E-3  
 2.544000000000000E10    2.836260711774230E-3   8.624240756034851E-3  
 2.546000000000000E10    8.867970667779446E-3  -4.304819274693728E-3  
 2.548000000000000E10   -5.667515564709902E-3  -8.383166976273060E-3  
 2.550000000000000E10   -6.402584258466959E-3   6.755292415618897E-3  
 2.552000000000000E10    7.136613596230745E-3   5.683436989784241E-3  
 2.554000000000000E10    5.148724652826786E-3  -8.404945954680443E-3  
 2.556000000000000E10   -8.599382825195789E-3  -3.621502546593547E-3  
 2.558000000000000E10   -2.441048156470060E-3   8.401390165090561E-3  
 2.560000000000000E10    9.089716710150242E-3   1.433295896276832E-3  
 2.562000000000000E10    5.645449855364859E-4  -9.540219791233540E-3  
 2.564000000000000E10   -9.196132421493530E-3   3.703504917211831E-4  
 2.566000000000000E10    1.669009565375745E-3   9.219805710017681E-3  
 2.568000000000000E10    9.475726634263992E-3  -3.061950905248523E-3  
 2.570000000000000E10   -4.332572221755981E-3  -8.696587756276131E-3  
 2.572000000000000E10   -8.115554228425026E-3   4.785930737853050E-3  
 2.574000000000000E10    6.183784455060959E-3   7.700399029999971E-3  
 2.576000000000000E10    7.306263316422701E-3  -7.715654093772173E-3  
 2.578000000000000E10   -8.807056583464146E-3  -5.838604643940926E-3  
 2.580000000000000E10   -4.171546082943678E-3   8.446917869150639E-3  
 2.582000000000000E10    9.465655311942101E-3   3.603901714086533E-3  
 2.584000000000000E10    2.386977430433035E-3  -9.772573597729206E-3  
 2.586000000000000E10   -9.785390459001064E-3  -4.903065855614841E-4  
 2.588000000000000E10    3.603619697969407E-4   1.000911928713322E-2  
 2.590000000000000E10    9.576822631061077E-3  -5.619595176540315E-4  
 2.592000000000000E10   -1.935845357365906E-3  -1.008283998817205E-2  
 2.594000000000000E10   -1.055464800447226E-2   3.384311450645328E-3  
 2.596000000000000E10    4.278634674847126E-3   9.993563406169415E-3  
 2.598000000000000E10    9.607730433344841E-3  -5.655839107930660E-3  
 2.600000000000000E10   -6.115365773439407E-3  -8.474007248878479E-3  
 2.602000000000000E10   -7.370994891971350E-3   7.719716522842646E-3  
 2.604000000000000E10    8.826671168208122E-3   6.899783387780190E-3  
 2.606000000000000E10    5.405584350228310E-3  -8.767453953623772E-3  
 2.608000000000000E10   -9.373518638312817E-3  -3.337394911795855E-3  
 2.610000000000000E10   -2.734463429078460E-3   1.022225338965654E-2  
 2.612000000000000E10    1.043412182480097E-2   2.048734342679381E-3  
 2.614000000000000E10    3.900617302861065E-4  -1.085532642900944E-2  
 2.616000000000000E10   -1.052729785442352E-2   1.252215122804046E-3  
 2.618000000000000E10    1.398209366016090E-3   1.063476782292128E-2  
 2.620000000000000E10    1.094860676676035E-2  -2.884254558011890E-3  
 2.622000000000000E10   -3.448750125244260E-3  -9.737122803926468E-3  
 2.624000000000000E10   -9.541298262774944E-3   4.630342591553927E-3  
 2.626000000000000E10    5.701824557036161E-3   9.037044830620289E-3  
 2.628000000000000E10    8.435201831161976E-3  -6.709277164191008E-3  
 2.630000000000000E10   -7.783403154462576E-3  -6.893533747643232E-3  
 2.632000000000000E10   -5.891231819987297E-3   8.541875518858433E-3  
 2.634000000000000E10    8.807509206235409E-3   4.352616611868143E-3  
 2.636000000000000E10    3.048645565286279E-3  -9.784041903913021E-3  
 2.638000000000000E10   -9.682905860245228E-3  -2.070998074486852E-3  
 2.640000000000000E10   -1.020298339426518E-3   9.594865143299103E-3  
 2.642000000000000E10    1.066469866782427E-2   2.834655242622830E-5  
 2.644000000000000E10   -8.898084051907063E-4  -1.003825478255749E-2  
 2.646000000000000E10   -1.026402506977320E-2   2.065079286694527E-3  
 2.648000000000000E10    3.164289053529501E-3   1.007818244397640E-2  
 2.650000000000000E10    9.352021850645542E-3  -4.511885810643435E-3  
 2.652000000000000E10   -5.912623368203640E-3  -9.071201086044312E-3  
 2.654000000000000E10   -8.359766565263271E-3   6.449672393500805E-3  
 2.656000000000000E10    7.259222213178873E-3   7.058333139866591E-3  
 2.658000000000000E10    5.374895408749580E-3  -8.357013575732708E-3  
 2.660000000000000E10   -8.504187688231468E-3  -4.253308288753033E-3  
 2.662000000000000E10   -3.079529386013746E-3   8.840904571115971E-3  
 2.664000000000000E10    9.212049655616283E-3   1.466649002395570E-3  
 2.666000000000000E10    2.118930715369061E-4  -9.007460437715054E-3  
 2.668000000000000E10   -8.970426395535469E-3   4.174126370344311E-4  
 2.670000000000000E10    1.343283918686211E-3   8.971526287496090E-3  
 2.672000000000000E10    9.338921867311001E-3  -2.170385094359517E-3  
 2.674000000000000E10   -3.100726287811995E-3  -8.712016977369785E-3  
 2.676000000000000E10   -8.913460187613964E-3   3.767015179619193E-3  
 2.678000000000000E10    4.879029467701912E-3   9.376949630677700E-3  
 2.680000000000000E10    8.202015422284603E-3  -5.684159230440855E-3  
 2.682000000000000E10   -6.376556120812893E-3  -7.297935429960489E-3  
 2.684000000000000E10   -6.729784887284041E-3   6.799694150686264E-3  
 2.686000000000000E10    8.019595406949520E-3   5.136639345437288E-3  
 2.688000000000000E10    3.558705095201731E-3  -7.987820543348789E-3  
 2.690000000000000E10   -7.748271804302931E-3  -2.252511447295547E-3  
 2.692000000000000E10   -1.371533726342022E-3   8.321364410221577E-3  
 2.694000000000000E10    8.513406850397587E-3   6.108320667408407E-4  
 2.696000000000000E10   -2.677670854609460E-4  -8.109778165817261E-3  
 2.698000000000000E10   -8.501864969730377E-3   1.360622467473149E-3  
 2.700000000000000E10    2.288000425323844E-3   9.031756781041622E-3  
 2.702000000000000E10    8.666011504828930E-3  -2.994058653712273E-3  
 2.704000000000000E10   -3.890963736921549E-3  -8.363677188754082E-3  
 2.706000000000000E10   -7.984165102243424E-3   5.095520056784153E-3  
 2.708000000000000E10    5.201471969485283E-3   7.517857011407614E-3  
 2.710000000000000E10    6.887045223265886E-3  -5.984875839203596E-3  
 2.712000000000000E10   -6.487858481705189E-3  -5.746029317378998E-3  
 2.714000000000000E10   -4.821690265089274E-3   7.279740646481514E-3  
 2.716000000000000E10    7.713770493865013E-3   3.886155085638166E-3  
 2.718000000000000E10    2.946870401501656E-3  -7.228653877973557E-3  
 2.720000000000000E10   -7.651738822460175E-3  -2.273938385769725E-3  
 2.722000000000000E10   -8.976172539405525E-4   8.281303569674492E-3  
 2.724000000000000E10    7.787295151501894E-3   1.675328385317698E-4  
 2.726000000000000E10   -2.949477348010987E-4  -8.315269835293293E-3  
 2.728000000000000E10   -8.034182712435722E-3   1.506592496298254E-3  
 2.730000000000000E10    2.605080138891935E-3   8.039453998208046E-3  
 2.732000000000000E10    8.127369917929173E-3  -3.404939314350486E-3  
 2.734000000000000E10   -3.963935654610395E-3  -7.993769831955433E-3  
 2.736000000000000E10   -7.188024464994669E-3   5.226260982453823E-3  
 2.738000000000000E10    6.021048408001661E-3   6.310204975306988E-3  
 2.740000000000000E10    5.468915216624737E-3  -6.806253921240568E-3  
 2.742000000000000E10   -6.819781847298145E-3  -4.683277569711208E-3  
 2.744000000000000E10   -4.007219802588224E-3   6.914776284247637E-3  
 2.746000000000000E10    7.212852127850056E-3   2.897201571613550E-3  
 2.748000000000000E10    1.775189535692334E-3  -7.621282711625099E-3  
 2.750000000000000E10   -7.351522799581289E-3  -9.478907450102270E-4  
 2.752000000000000E10   -6.667742854915559E-5   7.346587721258402E-3  
 2.754000000000000E10    7.672367617487907E-3  -1.204581698402762E-3  
 2.756000000000000E10   -1.679787063039839E-3  -7.899100892245770E-3  
