#  HZ   S   RI   R     50.00 
! Rohde & Schwarz ZVA40 4Ports - Version 3.90 - 1145.1110k42 SN: 100403
! Date: 2023-10-04 08:31:53
! Measurement: S12 
! 
 2.200000000000000E10   -1.542970817536116E-2  -1.131994300521910E-3  
 2.202000000000000E10    1.086254720576108E-3   1.513907220214605E-2  
 2.204000000000000E10    1.418710965663195E-2  -2.853104379028082E-3  
 2.206000000000000E10   -4.545429721474648E-3  -1.352458074688911E-2  
 2.208000000000000E10   -1.274520903825760E-2   6.730431225150824E-3  
 2.210000000000000E10    8.013754151761532E-3   1.123538054525852E-2  
 2.212000000000000E10    1.042324583977461E-2  -9.304872713983059E-3  
 2.214000000000000E10   -1.125971507281065E-2  -9.883423335850239E-3  
 2.216000000000000E10   -8.417762815952301E-3   1.214271597564220E-2  
 2.218000000000000E10    1.322004664689302E-2   7.105358876287937E-3  
 2.220000000000000E10    5.799666978418827E-3  -1.341725606471300E-2  
 2.222000000000000E10   -1.437366195023060E-2  -5.068783648312092E-3  
 2.224000000000000E10   -4.144103731960058E-3   1.589683070778847E-2  
 2.226000000000000E10    1.534020993858576E-2   2.948723034933209E-3  
 2.228000000000000E10   -7.198349339887500E-4  -1.521286647766829E-2  
 2.230000000000000E10   -1.491040550172329E-2   2.695620059967041E-3  
 2.232000000000000E10    2.465548459440470E-3   1.374898385256529E-2  
 2.234000000000000E10    1.293421722948551E-2  -5.247667431831360E-3  
 2.236000000000000E10   -6.682445295155048E-3  -1.134279184043407E-2  
 2.238000000000000E10   -1.040449738502502E-2   7.498568389564753E-3  
 2.240000000000000E10    9.186331182718277E-3   1.003792975097895E-2  
 2.242000000000000E10    8.772738277912140E-3  -9.910774417221546E-3  
 2.244000000000000E10   -1.205153763294220E-2  -6.590059492737055E-3  
 2.246000000000000E10   -5.404789932072163E-3   1.315400190651417E-2  
 2.248000000000000E10    1.271269470453262E-2   5.502356216311455E-3  
 2.250000000000000E10    3.036693437024951E-3  -1.409676298499107E-2  
 2.252000000000000E10   -1.406693737953901E-2  -1.079918816685677E-3  
 2.254000000000000E10   -9.184408700093627E-4   1.362904906272888E-2  
 2.256000000000000E10    1.402061432600021E-2  -4.890490090474486E-4  
 2.258000000000000E10   -1.979987602680922E-3  -1.349726691842079E-2  
 2.260000000000000E10   -1.325235236436129E-2   2.751154825091362E-3  
 2.262000000000000E10    4.647779744118452E-3   1.199121028184891E-2  
 2.264000000000000E10    1.098899170756340E-2  -5.718775559216738E-3  
 2.266000000000000E10   -7.749354932457209E-3  -9.603967890143395E-3  
 2.268000000000000E10   -8.489683270454407E-3   8.047141134738922E-3  
 2.270000000000000E10    8.292444050312042E-3   7.972089573740959E-3  
 2.272000000000000E10    6.412367336452007E-3  -9.628077968955040E-3  
 2.274000000000000E10   -1.126118842512369E-2  -5.821757018566132E-3  
 2.276000000000000E10   -4.900003317743540E-3   1.217286009341478E-2  
 2.278000000000000E10    1.271402649581432E-2   2.441814634948969E-3  
 2.280000000000000E10    1.145314658060670E-3  -1.296821981668472E-2  
 2.282000000000000E10   -1.049607340246439E-2  -7.385797332972288E-3  
 2.284000000000000E10    1.097421394661069E-3   1.179127953946590E-2  
 2.286000000000000E10    1.143846753984690E-2  -1.748315640725195E-3  
 2.288000000000000E10   -2.124364254996181E-3  -1.086060330271721E-2  
 2.290000000000000E10   -1.105246506631374E-2   3.657236229628325E-3  
 2.292000000000000E10    5.282212514430285E-3   1.026884187012911E-2  
 2.294000000000000E10    8.816772140562534E-3  -6.502232048660517E-3  
 2.296000000000000E10   -7.621591910719872E-3  -8.272697217762470E-3  
 2.298000000000000E10   -7.249684538692236E-3   8.499559015035629E-3  
 2.300000000000000E10    8.793339133262634E-3   5.010435823351145E-3  
 2.302000000000000E10    4.731944762170315E-3  -9.707018733024597E-3  
 2.304000000000000E10   -1.008099131286144E-2  -3.649577498435974E-3  
 2.306000000000000E10   -2.418534830212593E-3   9.757678024470806E-3  
 2.308000000000000E10    1.037540845572949E-2   1.696233171969652E-3  
 2.310000000000000E10    8.574740495532751E-4  -1.172911189496517E-2  
 2.312000000000000E10   -1.143293175846338E-2   1.544155529700220E-3  
 2.314000000000000E10    2.734768670052290E-3   1.009237300604582E-2  
 2.316000000000000E10    9.681823663413525E-3  -3.547003259882331E-3  
 2.318000000000000E10   -4.650402348488569E-3  -9.051015600562096E-3  
 2.320000000000000E10   -8.349483832716942E-3   4.981148522347212E-3  
 2.322000000000000E10    5.881979595869780E-3   7.588241249322891E-3  
 2.324000000000000E10    7.121260743588209E-3  -7.645155303180218E-3  
 2.326000000000000E10   -7.829589769244194E-3  -6.968558300286531E-3  
 2.328000000000000E10   -5.471047945320606E-3   8.966995403170586E-3  
 2.330000000000000E10    1.000846922397614E-2   3.379844827577472E-3  
 2.332000000000000E10    2.097104443237186E-3  -9.752945043146610E-3  
 2.334000000000000E10   -9.365698322653770E-3  -1.661048154346645E-3  
 2.336000000000000E10   -7.455297745764256E-4   9.514948353171349E-3  
 2.338000000000000E10    1.001783832907677E-2  -5.602533346973360E-4  
 2.340000000000000E10   -1.679818262346089E-3  -9.949459694325924E-3  
 2.342000000000000E10   -1.017099153250456E-2   2.284727292135358E-3  
 2.344000000000000E10    3.846630454063416E-3   9.749875403940678E-3  
 2.346000000000000E10    8.183983154594898E-3  -5.444566719233990E-3  
 2.348000000000000E10   -6.039754021912813E-3  -7.255563512444496E-3  
 2.350000000000000E10   -6.397951394319534E-3   5.875021684914827E-3  
 2.352000000000000E10    7.320212665945292E-3   5.421724170446396E-3  
 2.354000000000000E10    4.148230887949467E-3  -7.746636401861906E-3  
 2.356000000000000E10   -8.387425914406776E-3  -3.005430568009615E-3  
 2.358000000000000E10   -2.201114548370242E-3   9.449998848140240E-3  
 2.360000000000000E10    9.733043611049652E-3   2.912317577283830E-4  
 2.362000000000000E10   -1.581392250955105E-3  -1.016135141253471E-2  
 2.364000000000000E10   -9.866111911833286E-3   2.121287863701582E-3  
 2.366000000000000E10    2.491944469511509E-3   8.384102024137974E-3  
 2.368000000000000E10    8.402449078857899E-3  -3.565076505765319E-3  
 2.370000000000000E10   -3.559468779712915E-3  -8.734671398997307E-3  
 2.372000000000000E10   -7.507570553570986E-3   3.606938989832997E-3  
 2.374000000000000E10    4.598589148372412E-3   7.222546730190516E-3  
 2.376000000000000E10    6.890716031193733E-3  -5.260468926280737E-3  
 2.378000000000000E10   -6.799693685024977E-3  -5.498472601175308E-3  
 2.380000000000000E10   -3.611853113397956E-3   7.199699059128761E-3  
 2.382000000000000E10    7.280620746314526E-3   1.872430555522442E-3  
 2.384000000000000E10    5.278447060845792E-4  -7.796317804604769E-3  
 2.386000000000000E10   -8.153833448886871E-3  -4.037284816149622E-5  
 2.388000000000000E10    6.895736441947520E-4   7.300960831344128E-3  
 2.390000000000000E10    7.624367251992226E-3  -1.787736197002232E-3  
 2.392000000000000E10   -2.177190966904163E-3  -8.181582204997540E-3  
 2.394000000000000E10   -7.214978337287903E-3   3.291021566838026E-3  
 2.396000000000000E10    3.796158125624061E-3   6.967944093048573E-3  
 2.398000000000000E10    6.712337024509907E-3  -4.216594621539116E-3  
 2.400000000000000E10   -4.685756750404835E-3  -5.593226756900549E-3  
 2.402000000000000E10   -4.081790801137686E-3   6.065660621970892E-3  
 2.404000000000000E10    5.943011958152056E-3   3.502943553030491E-3  
 2.406000000000000E10    2.851188415661454E-3  -6.180186755955219E-3  
 2.408000000000000E10   -6.138030439615250E-3  -2.550241304561496E-3  
 2.410000000000000E10   -1.384044531732798E-3   6.321806926280260E-3  
 2.412000000000000E10    6.460667587816715E-3   4.267854092177004E-4  
 2.414000000000000E10    3.884776087943465E-4  -6.361715495586395E-3  
 2.416000000000000E10   -6.035489961504936E-3   7.223791326396167E-4  
 2.418000000000000E10    2.140822820365429E-3   5.658389534801245E-3  
 2.420000000000000E10    5.737736355513334E-3  -2.649080241099000E-3  
 2.422000000000000E10   -2.766275079920888E-3  -5.630458239465952E-3  
 2.424000000000000E10   -5.625129677355290E-3   3.622324904426932E-3  
 2.426000000000000E10    4.323390778154135E-3   5.253488197922707E-3  
 2.428000000000000E10    5.473386496305466E-3  -4.680755548179150E-3  
 2.430000000000000E10   -5.496537312865257E-3  -5.293761380016804E-3  
 2.432000000000000E10   -4.908475093543530E-3   5.979399662464857E-3  
 2.434000000000000E10    5.972564220428467E-3   3.697732230648398E-3  
 2.436000000000000E10    2.727671759203076E-3  -6.261110771447420E-3  
 2.438000000000000E10   -6.147528532892466E-3  -1.833730610087514E-3  
 2.440000000000000E10   -8.479059906676412E-4   5.549486726522446E-3  
 2.442000000000000E10    5.582073703408241E-3   2.890248433686793E-4  
 2.444000000000000E10   -1.146597904153168E-3  -5.282119382172823E-3  
 2.446000000000000E10   -5.060546565800905E-3   1.924050156958401E-3  
 2.448000000000000E10    2.376137301325798E-3   5.695274099707604E-3  
 2.450000000000000E10    5.044253543019295E-3  -2.597603248432279E-3  
 2.452000000000000E10   -4.239039961248636E-3  -4.732766654342413E-3  
 2.454000000000000E10   -5.188877228647471E-3   4.274166189134121E-3  
 2.456000000000000E10    3.513055387884378E-3   4.670675378292799E-3  
 2.458000000000000E10    4.979912657290697E-3  -4.037470091134310E-3  
 2.460000000000000E10   -4.491027910262346E-3  -4.404321778565645E-3  
 2.462000000000000E10   -3.730000695213676E-3   4.719628486782312E-3  
 2.464000000000000E10    5.202098283916712E-3   3.220437094569206E-3  
 2.466000000000000E10    2.271005418151617E-3  -4.330262541770935E-3  
 2.468000000000000E10   -5.007725208997726E-3  -1.156887738034129E-3  
 2.470000000000000E10    1.744584296829999E-4   5.372796673327684E-3  
 2.472000000000000E10    4.427000414580107E-3  -1.130632736021653E-4  
 2.474000000000000E10   -1.207079854793847E-3  -5.036398768424988E-3  
 2.476000000000000E10   -5.142880138009787E-3   1.833601854741573E-3  
 2.478000000000000E10    2.274944214150310E-3   4.981010220944881E-3  
 2.480000000000000E10    4.860123619437218E-3  -3.227013628929853E-3  
 2.482000000000000E10   -3.554342081770301E-3  -5.282685160636902E-3  
 2.484000000000000E10   -5.115512292832136E-3   4.069522488862276E-3  
 2.486000000000000E10    4.723519552499056E-3   4.189489874988794E-3  
 2.488000000000000E10    3.440920030698180E-3  -4.826721735298634E-3  
 2.490000000000000E10   -5.246483255177736E-3  -3.147138049826026E-3  
 2.492000000000000E10   -2.828416880220175E-3   5.138218402862549E-3  
 2.494000000000000E10    5.034149158746004E-3   2.364152809605002E-3  
 2.496000000000000E10    1.018765033222735E-3  -6.005750969052315E-3  
 2.498000000000000E10   -5.543472245335579E-3   1.134153499151580E-4  
 2.500000000000000E10    5.517597310245037E-4   4.734574817121029E-3  
 2.502000000000000E10    4.667453933507204E-3  -1.023464137688279E-3  
 2.504000000000000E10   -2.030466683208942E-3  -4.520773887634277E-3  
 2.506000000000000E10   -4.561533220112324E-3   2.533267950639129E-3  
 2.508000000000000E10    2.782385563477874E-3   4.516149871051312E-3  
 2.510000000000000E10    4.567360971122980E-3  -3.803878789767623E-3  
 2.512000000000000E10   -4.461483564227819E-3  -4.572205711156130E-3  
 2.514000000000000E10   -4.271366167813540E-3   5.342004355043173E-3  
 2.516000000000000E10    5.917733069509268E-3   3.835446899756789E-3  
 2.518000000000000E10    3.532079514116049E-3  -6.421988829970360E-3  
 2.520000000000000E10   -6.362522952258587E-3  -2.553271129727364E-3  
 2.522000000000000E10   -2.262444235384464E-3   6.107831373810768E-3  
 2.524000000000000E10    5.975962150841951E-3   1.241347752511501E-3  
 2.526000000000000E10    2.189618389820680E-4  -6.445623468607664E-3  
 2.528000000000000E10   -6.278735119849443E-3   1.044433229253627E-4  
 2.530000000000000E10    5.929110920988023E-4   5.485286004841328E-3  
 2.532000000000000E10    5.425003357231617E-3  -2.481875941157341E-3  
 2.534000000000000E10   -3.360710805281997E-3  -5.745497066527605E-3  
 2.536000000000000E10   -4.880403634160757E-3   3.740851301699877E-3  
 2.538000000000000E10    4.484376404434443E-3   4.511577542871237E-3  
 2.540000000000000E10    4.012543708086014E-3  -5.469392053782940E-3  
 2.542000000000000E10   -6.197873502969742E-3  -3.626244142651558E-3  
 2.544000000000000E10   -3.738734638318420E-3   6.724797189235687E-3  
 2.546000000000000E10    6.649354938417673E-3   2.306202892214060E-3  
 2.548000000000000E10    7.931512664072216E-4  -7.264706306159496E-3  
 2.550000000000000E10   -7.856651209294796E-3  -5.371581210056320E-5  
 2.552000000000000E10    6.298109074123204E-4   6.650221534073353E-3  
 2.554000000000000E10    5.586875602602959E-3  -1.866674632765353E-3  
 2.556000000000000E10   -2.806404838338494E-3  -5.700422450900078E-3  
 2.558000000000000E10   -5.483588669449091E-3   3.015396185219288E-3  
 2.560000000000000E10    3.893580753356218E-3   5.070768296718597E-3  
 2.562000000000000E10    4.186952486634255E-3  -4.635577090084553E-3  
 2.564000000000000E10   -5.661435890942812E-3  -3.995280247181654E-3  
 2.566000000000000E10   -3.259868361055851E-3   6.582859903573990E-3  
 2.568000000000000E10    6.921236403286457E-3   2.667301334440708E-3  
 2.570000000000000E10    1.364255440421403E-3  -7.706287782639265E-3  
 2.572000000000000E10   -7.331498432904482E-3  -4.094651085324585E-4  
 2.574000000000000E10   -1.026702229864895E-4   7.744619622826576E-3  
 2.576000000000000E10    8.491200394928455E-3  -6.715785129927099E-4  
 2.578000000000000E10   -2.450055675581098E-3  -7.903343997895718E-3  
 2.580000000000000E10   -7.506623398512602E-3   3.263137536123395E-3  
 2.582000000000000E10    4.076337907463312E-3   6.810163147747517E-3  
 2.584000000000000E10    5.600098054856062E-3  -4.774414934217930E-3  
 2.586000000000000E10   -5.008621141314507E-3  -4.958343226462603E-3  
 2.588000000000000E10   -3.687667194753885E-3   5.175212863832712E-3  
 2.590000000000000E10    5.943686701357365E-3   3.197686513885856E-3  
 2.592000000000000E10    3.214523661881685E-3  -6.712912116199732E-3  
 2.594000000000000E10   -7.322368677705526E-3  -2.724449615925551E-3  
 2.596000000000000E10   -1.529903267510235E-3   8.469027467072010E-3  
 2.598000000000000E10    9.252157062292099E-3  -1.946317788679153E-4  
 2.600000000000000E10   -1.422094297595322E-3  -9.273089468479157E-3  
 2.602000000000000E10   -9.665030054748058E-3   1.701970701105893E-3  
 2.604000000000000E10    3.374219173565507E-3   8.377731777727604E-3  
 2.606000000000000E10    8.140936493873596E-3  -4.552631638944149E-3  
 2.608000000000000E10   -4.052075091749430E-3  -8.127902634441853E-3  
 2.610000000000000E10   -7.248690351843834E-3   4.946894943714142E-3  
 2.612000000000000E10    5.725699942559004E-3   6.084010470658541E-3  
 2.614000000000000E10    5.214516539126635E-3  -6.634116638451815E-3  
 2.616000000000000E10   -7.000579033046961E-3  -4.626776557415724E-3  
 2.618000000000000E10   -4.002766218036413E-3   6.851332262158394E-3  
 2.620000000000000E10    7.142755202949047E-3   2.020860556513071E-3  
 2.622000000000000E10    1.034432323649526E-3  -8.038805797696114E-3  
 2.624000000000000E10   -8.952118456363678E-3  -4.205108270980418E-4  
 2.626000000000000E10    5.347610567696393E-4   8.728845976293087E-3  
 2.628000000000000E10    9.240020997822285E-3  -2.103404141962528E-3  
 2.630000000000000E10   -3.676757216453552E-3  -9.212343953549862E-3  
 2.632000000000000E10   -8.849014528095722E-3   5.175917875021696E-3  
 2.634000000000000E10    5.718921311199665E-3   7.984038442373276E-3  
 2.636000000000000E10    7.069533225148916E-3  -6.209078244864941E-3  
 2.638000000000000E10   -7.312097586691380E-3  -6.251747254282236E-3  
 2.640000000000000E10   -6.376012694090605E-3   7.647240534424782E-3  
 2.642000000000000E10    7.972196675837040E-3   5.208629183471203E-3  
 2.644000000000000E10    4.087548237293959E-3  -8.652552030980587E-3  
 2.646000000000000E10   -9.340920485556126E-3  -2.957210410386324E-3  
 2.648000000000000E10   -1.458455342799425E-3   9.335867129266262E-3  
 2.650000000000000E10    9.400723502039909E-3   3.696069470606744E-4  
 2.652000000000000E10   -1.293719164095819E-3  -9.785365313291550E-3  
 2.654000000000000E10   -9.786644019186497E-3   3.030175808817148E-3  
 2.656000000000000E10    4.238906316459179E-3   9.514784440398216E-3  
 2.658000000000000E10    8.689542300999165E-3  -5.496470723301172E-3  
 2.660000000000000E10   -7.321104407310486E-3  -8.103488013148308E-3  
 2.662000000000000E10   -7.361473981291056E-3   8.566151373088360E-3  
 2.664000000000000E10    9.196532890200615E-3   5.847159773111343E-3  
 2.666000000000000E10    4.431530833244324E-3  -9.413425810635090E-3  
 2.668000000000000E10   -9.875023737549782E-3  -3.758020000532270E-3  
 2.670000000000000E10   -2.979937708005309E-3   9.593195281922817E-3  
 2.672000000000000E10    9.613947011530399E-3   2.163765020668507E-3  
 2.674000000000000E10    1.226422027684748E-3  -1.026999298483133E-2  
 2.676000000000000E10   -1.054347120225430E-2   8.466148574370891E-5  
 2.678000000000000E10    1.982367131859064E-3   1.031500566750765E-2  
 2.680000000000000E10    1.040070317685604E-2  -3.071115119382739E-3  
 2.682000000000000E10   -4.181651864200831E-3  -9.774668142199516E-3  
 2.684000000000000E10   -9.277877397835255E-3   5.682524293661118E-3  
 2.686000000000000E10    6.956394296139479E-3   8.313499391078949E-3  
 2.688000000000000E10    7.306287996470928E-3  -7.821648381650448E-3  
 2.690000000000000E10   -8.846960030496121E-3  -6.438130047172308E-3  
 2.692000000000000E10   -4.988731350749731E-3   9.381393902003765E-3  
 2.694000000000000E10    1.041136868298054E-2   3.684100229293108E-3  
 2.696000000000000E10    2.787461504340172E-3  -1.077920384705067E-2  
 2.698000000000000E10   -1.049924734979868E-2  -1.690951525233686E-3  
 2.700000000000000E10    7.060752977849916E-5   1.068736705929041E-2  
 2.702000000000000E10    1.113601215183735E-2  -1.316890236921608E-3  
 2.704000000000000E10   -2.525685122236610E-3  -1.069302018731833E-2  
 2.706000000000000E10   -9.937229566276074E-3   4.038985352963209E-3  
 2.708000000000000E10    4.628908820450306E-3   9.734345600008965E-3  
 2.710000000000000E10    9.262768551707268E-3  -5.721976980566979E-3  
 2.712000000000000E10   -7.079534232616425E-3  -8.510193787515163E-3  
 2.714000000000000E10   -7.401399314403534E-3   7.894670590758324E-3  
 2.716000000000000E10    8.611911907792091E-3   6.272226106375456E-3  
 2.718000000000000E10    5.533822812139988E-3  -9.841687045991421E-3  
 2.720000000000000E10   -1.011278759688139E-2  -4.096773918718100E-3  
 2.722000000000000E10   -2.735780319198966E-3   1.091045048087835E-2  
 2.724000000000000E10    1.133547909557819E-2   1.725029316730797E-3  
 2.726000000000000E10    4.426707746461034E-4  -1.139906980097294E-2  
 2.728000000000000E10   -1.134131010621786E-2   1.043044729158282E-3  
 2.730000000000000E10    2.093428745865822E-3   1.140107959508896E-2  
 2.732000000000000E10    1.092696283012629E-2  -3.412529593333602E-3  
 2.734000000000000E10   -4.618571139872074E-3  -1.062639337033033E-2  
 2.736000000000000E10   -9.943687357008457E-3   5.819724872708321E-3  
 2.738000000000000E10    6.971511058509350E-3   9.236320853233337E-3  
 2.740000000000000E10    7.947610691189766E-3  -8.405274711549282E-3  
 2.742000000000000E10   -8.793149143457413E-3  -6.334861740469933E-3  
 2.744000000000000E10   -5.732463672757149E-3   9.584707207977772E-3  
 2.746000000000000E10    1.018081977963448E-2   4.741476848721504E-3  
 2.748000000000000E10    3.332865890115500E-3  -1.014237012714148E-2  
 2.750000000000000E10   -1.107406988739967E-2  -2.039797138422728E-3  
 2.752000000000000E10   -6.792921922169626E-4   1.100649684667587E-2  
 2.754000000000000E10    1.116776745766401E-2  -5.541840073419735E-5  
 2.756000000000000E10   -2.124443883076310E-3  -1.133986469358206E-2  
