#  HZ   S   RI   R     50.00 
! Rohde & Schwarz ZVA40 4Ports - Version 3.90 - 1145.1110k42 SN: 100403
! Date: 2023-10-04 08:32:18
! Measurement: S12 
! 
 2.200000000000000E10   -1.798629760742188E-2   4.334279801696539E-3  
 2.202000000000000E10    5.664957687258720E-3   1.787517406046391E-2  
 2.204000000000000E10    1.750623807311058E-2  -7.319091819226742E-3  
 2.206000000000000E10   -9.255711920559406E-3  -1.651416532695293E-2  
 2.208000000000000E10   -1.457298919558525E-2   1.139533054083586E-2  
 2.210000000000000E10    1.184408646076918E-2   1.267634984105825E-2  
 2.212000000000000E10    1.173436269164085E-2  -1.241097226738930E-2  
 2.214000000000000E10   -1.353696640580893E-2  -9.669511578977108E-3  
 2.216000000000000E10   -7.612528279423714E-3   1.426383201032877E-2  
 2.218000000000000E10    1.554591115564108E-2   5.536599550396204E-3  
 2.220000000000000E10    4.088705871254206E-3  -1.486669201403856E-2  
 2.222000000000000E10   -1.591015793383122E-2  -2.509290585294366E-3  
 2.224000000000000E10   -3.927480720449239E-4   1.698495633900166E-2  
 2.226000000000000E10    1.671460829675198E-2  -2.184913493692875E-3  
 2.228000000000000E10   -5.108061246573925E-3  -1.667865924537182E-2  
 2.230000000000000E10   -1.638505421578884E-2   6.885283626616001E-3  
 2.232000000000000E10    7.656065747141838E-3   1.539711561053991E-2  
 2.234000000000000E10    1.382837258279324E-2  -9.964928962290287E-3  
 2.236000000000000E10   -1.034108363091946E-2  -1.230617240071297E-2  
 2.238000000000000E10   -1.197234075516462E-2   1.107692252844572E-2  
 2.240000000000000E10    1.233772840350866E-2   1.121273171156645E-2  
 2.242000000000000E10    8.995763026177883E-3  -1.329668331891298E-2  
 2.244000000000000E10   -1.462871581315994E-2  -6.465664599090815E-3  
 2.246000000000000E10   -4.767781123518944E-3   1.500553730875254E-2  
 2.248000000000000E10    1.448989287018776E-2   2.667398191988468E-3  
 2.250000000000000E10    5.228752270340920E-4  -1.438591815531254E-2  
 2.252000000000000E10   -1.458776649087668E-2   5.237500299699605E-4  
 2.254000000000000E10    2.194137778133154E-3   1.459527574479580E-2  
 2.256000000000000E10    1.473891921341419E-2  -3.779949154704809E-3  
 2.258000000000000E10   -4.978557117283344E-3  -1.393865328282118E-2  
 2.260000000000000E10   -1.424230076372623E-2   6.004117429256439E-3  
 2.262000000000000E10    8.391351439058781E-3   1.275494042783976E-2  
 2.264000000000000E10    1.193292904645205E-2  -9.101876989006996E-3  
 2.266000000000000E10   -1.058223284780979E-2  -1.100558601319790E-2  
 2.268000000000000E10   -9.804217144846916E-3   1.131129730492830E-2  
 2.270000000000000E10    1.191610191017389E-2   8.454584516584873E-3  
 2.272000000000000E10    6.963381543755531E-3  -1.279654633253813E-2  
 2.274000000000000E10   -1.349944528192282E-2  -6.605787202715874E-3  
 2.276000000000000E10   -3.807923058047891E-3   1.414950098842382E-2  
 2.278000000000000E10    1.420604437589645E-2   9.732015314511955E-4  
 2.280000000000000E10   -6.142001802800223E-5  -1.405232399702072E-2  
 2.282000000000000E10   -1.168790459632874E-2  -6.400326732546091E-3  
 2.284000000000000E10    3.154789563268423E-3   1.211559399962425E-2  
 2.286000000000000E10    1.177512388676405E-2  -4.252465441823006E-3  
 2.288000000000000E10   -4.657407756894827E-3  -1.197848469018936E-2  
 2.290000000000000E10   -1.187920663505793E-2   5.926324985921383E-3  
 2.292000000000000E10    7.602913305163384E-3   1.114294584840536E-2  
 2.294000000000000E10    1.036021858453751E-2  -9.915029630064964E-3  
 2.296000000000000E10   -1.122313551604748E-2  -9.208275005221367E-3  
 2.298000000000000E10   -7.141284178942442E-3   1.063348073512316E-2  
 2.300000000000000E10    1.150142215192318E-2   5.735182203352451E-3  
 2.302000000000000E10    5.031371023505926E-3  -1.250530127435923E-2  
 2.304000000000000E10   -1.194739341735840E-2  -3.387802280485630E-3  
 2.306000000000000E10   -1.423581037670374E-3   1.168934907764196E-2  
 2.308000000000000E10    1.250718161463738E-2   6.631544674746692E-4  
 2.310000000000000E10   -1.279230811633170E-3  -1.249751262366772E-2  
 2.312000000000000E10   -1.172940246760845E-2   3.558203810825944E-3  
 2.314000000000000E10    4.793165251612663E-3   1.104287151247263E-2  
 2.316000000000000E10    1.041815057396889E-2  -5.961930379271507E-3  
 2.318000000000000E10   -6.564593873918057E-3  -1.015229709446430E-2  
 2.320000000000000E10   -9.332256391644478E-3   7.169488351792097E-3  
 2.322000000000000E10    8.477298542857170E-3   8.512154221534729E-3  
 2.324000000000000E10    8.513598702847958E-3  -9.940724819898605E-3  
 2.326000000000000E10   -1.002003904432058E-2  -7.023666985332966E-3  
 2.328000000000000E10   -5.038447678089142E-3   1.078922115266323E-2  
 2.330000000000000E10    1.146424282342196E-2   3.025687998160720E-3  
 2.332000000000000E10    1.249977969564498E-3  -1.079830434173346E-2  
 2.334000000000000E10   -1.025361381471157E-2  -4.117437347304076E-4  
 2.336000000000000E10    6.723796250298619E-4   1.087449584156275E-2  
 2.338000000000000E10    1.086472626775503E-2  -2.686537802219391E-3  
 2.340000000000000E10   -3.674968378618360E-3  -1.112713944166899E-2  
 2.342000000000000E10   -1.055765990167856E-2   4.941761028021574E-3  
 2.344000000000000E10    7.049187086522579E-3   9.909499436616898E-3  
 2.346000000000000E10    8.677348494529724E-3  -8.026213385164738E-3  
 2.348000000000000E10   -8.340572938323021E-3  -7.713980972766876E-3  
 2.350000000000000E10   -6.499201059341431E-3   8.461860008537769E-3  
 2.352000000000000E10    9.409826248884201E-3   6.028480827808380E-3  
 2.354000000000000E10    5.026635248214006E-3  -9.608667343854904E-3  
 2.356000000000000E10   -1.016866415739059E-2  -3.436019876971841E-3  
 2.358000000000000E10   -1.623806543648243E-3   1.054032891988754E-2  
 2.360000000000000E10    1.008525025099516E-2  -5.378889909479767E-5  
 2.362000000000000E10   -1.622811541892588E-3  -1.015360560268164E-2  
 2.364000000000000E10   -8.999131619930267E-3   2.733160974457860E-3  
 2.366000000000000E10    3.862023120746017E-3   8.308677002787590E-3  
 2.368000000000000E10    8.207373321056366E-3  -4.675782751291990E-3  
 2.370000000000000E10   -4.779438953846693E-3  -7.828433997929096E-3  
 2.372000000000000E10   -7.031364366412163E-3   6.000369787216187E-3  
 2.374000000000000E10    7.711264770478010E-3   6.445505656301975E-3  
 2.376000000000000E10    6.226382683962584E-3  -8.345656096935272E-3  
 2.378000000000000E10   -9.107562713325024E-3  -4.503495991230011E-3  
 2.380000000000000E10   -3.499251091852784E-3   9.333096444606781E-3  
 2.382000000000000E10    9.906157851219177E-3   2.293807920068502E-3  
 2.384000000000000E10    1.345136435702443E-3  -9.485024027526379E-3  
 2.386000000000000E10   -8.913156576454639E-3  -1.062921946868300E-3  
 2.388000000000000E10    5.249470123089850E-4   8.768037892878056E-3  
 2.390000000000000E10    8.962889201939106E-3  -1.354258856736124E-3  
 2.392000000000000E10   -2.209213329479098E-3  -7.944714277982712E-3  
 2.394000000000000E10   -6.714884657412767E-3   3.184508066624403E-3  
 2.396000000000000E10    4.966333974152803E-3   6.212287582457066E-3  
 2.398000000000000E10    5.632218439131975E-3  -5.264273844659329E-3  
 2.400000000000000E10   -5.924269556999207E-3  -4.572270903736353E-3  
 2.402000000000000E10   -2.647520974278450E-3   6.731611676514149E-3  
 2.404000000000000E10    7.390244863927364E-3   2.598142717033625E-3  
 2.406000000000000E10    2.516119042411447E-3  -7.783128879964352E-3  
 2.408000000000000E10   -8.155060932040215E-3  -1.648440258577466E-3  
 2.410000000000000E10   -6.922313477844000E-4   8.213294669985771E-3  
 2.412000000000000E10    8.470016531646252E-3   6.437312695197761E-4  
 2.414000000000000E10    8.744947845116258E-4  -7.768982555717230E-3  
 2.416000000000000E10   -7.243066560477018E-3   4.249866178724915E-4  
 2.418000000000000E10    1.438130508176982E-3   6.778581533581018E-3  
 2.420000000000000E10    6.697639357298613E-3  -1.416906598024070E-3  
 2.422000000000000E10   -1.800412894226611E-3  -5.980578251183033E-3  
 2.424000000000000E10   -5.063609685748816E-3   3.301703603938222E-3  
 2.426000000000000E10    4.386653658002615E-3   4.882253706455231E-3  
 2.428000000000000E10    4.961404949426651E-3  -4.759377799928188E-3  
 2.430000000000000E10   -5.674707703292370E-3  -4.338206257671118E-3  
 2.432000000000000E10   -3.188173053786159E-3   6.449003703892231E-3  
 2.434000000000000E10    7.040842901915312E-3   2.621058374643326E-3  
 2.436000000000000E10    2.106225350871682E-3  -7.456596940755844E-3  
 2.438000000000000E10   -6.810301449149847E-3  -1.634881948120892E-3  
 2.440000000000000E10   -5.424263072200120E-4   7.332187145948410E-3  
 2.442000000000000E10    7.059526164084673E-3  -5.178125775273657E-6  
 2.444000000000000E10   -6.946412031538785E-4  -6.780199706554413E-3  
 2.446000000000000E10   -6.664314307272434E-3   1.332864863798022E-3  
 2.448000000000000E10    1.777245313860476E-3   6.142228376120329E-3  
 2.450000000000000E10    5.011839792132378E-3  -2.399707678705454E-3  
 2.452000000000000E10   -3.135336795821786E-3  -5.224827677011490E-3  
 2.454000000000000E10   -5.062421783804894E-3   3.163019195199013E-3  
 2.456000000000000E10    3.315937006846070E-3   3.898360533639789E-3  
 2.458000000000000E10    3.815298900008202E-3  -3.822983009740710E-3  
 2.460000000000000E10   -4.491542465984821E-3  -3.583863144740462E-3  
 2.462000000000000E10   -2.434339141473174E-3   5.742591805756092E-3  
 2.464000000000000E10    6.047152914106846E-3   2.400141907855868E-3  
 2.466000000000000E10    1.140334177762270E-3  -6.219898350536823E-3  
 2.468000000000000E10   -6.902581080794334E-3  -8.456625801045448E-5  
 2.470000000000000E10    1.649391015234869E-5   7.140439935028553E-3  
 2.472000000000000E10    6.130276247859001E-3  -5.144473398104310E-4  
 2.474000000000000E10   -9.482101886533201E-4  -6.481083109974861E-3  
 2.476000000000000E10   -6.389453541487455E-3   1.345768338069320E-3  
 2.478000000000000E10    1.486118417233229E-3   5.672102794051170E-3  
 2.480000000000000E10    6.089115981012583E-3  -2.454299945384264E-3  
 2.482000000000000E10   -2.515571191906929E-3  -5.142479669302702E-3  
 2.484000000000000E10   -4.265172407031059E-3   3.297098679468036E-3  
 2.486000000000000E10    4.170552361756563E-3   3.621982410550118E-3  
 2.488000000000000E10    2.653427654877305E-3  -4.396601114422083E-3  
 2.490000000000000E10   -4.814622458070517E-3  -1.705184113234282E-3  
 2.492000000000000E10   -1.936720567755401E-3   5.047813057899475E-3  
 2.494000000000000E10    5.870394408702850E-3   1.354882260784507E-3  
 2.496000000000000E10    1.926626864587888E-4  -6.760749500244856E-3  
 2.498000000000000E10   -6.360038183629513E-3   2.829843142535538E-4  
 2.500000000000000E10    6.258720532059670E-4   6.224141921848059E-3  
 2.502000000000000E10    5.920914001762867E-3  -9.573337738402188E-4  
 2.504000000000000E10   -1.722200773656368E-3  -5.407986231148243E-3  
 2.506000000000000E10   -5.052112508565188E-3   1.532372669316828E-3  
 2.508000000000000E10    1.897427835501730E-3   4.785275086760521E-3  
 2.510000000000000E10    4.728186409920454E-3  -2.115162555128336E-3  
 2.512000000000000E10   -2.885388443246484E-3  -4.492704756557941E-3  
 2.514000000000000E10   -3.639994189143181E-3   3.777763107791543E-3  
 2.516000000000000E10    4.758705385029316E-3   3.427678486332297E-3  
 2.518000000000000E10    2.537904540076852E-3  -5.007441621273756E-3  
 2.520000000000000E10   -5.228544585406780E-3  -1.540373428724706E-3  
 2.522000000000000E10   -6.818989058956504E-4   5.372055806219578E-3  
 2.524000000000000E10    5.909097380936146E-3   1.469665003241971E-4  
 2.526000000000000E10   -3.056908899452537E-4  -6.405350286513567E-3  
 2.528000000000000E10   -6.137254647910595E-3   5.227543297223747E-4  
 2.530000000000000E10    1.884684897959232E-3   5.833181086927652E-3  
 2.532000000000000E10    6.590528413653374E-3  -2.579645952209830E-3  
 2.534000000000000E10   -2.536882646381855E-3  -6.033378653228283E-3  
 2.536000000000000E10   -5.057273432612419E-3   3.063000738620758E-3  
 2.538000000000000E10    3.630639752373099E-3   4.670473746955395E-3  
 2.540000000000000E10    4.426724277436733E-3  -4.222049843519926E-3  
 2.542000000000000E10   -4.753319546580315E-3  -3.974210936576128E-3  
 2.544000000000000E10   -3.467904170975089E-3   4.765624646097422E-3  
 2.546000000000000E10    5.669067613780499E-3   2.298919484019280E-3  
 2.548000000000000E10    9.116866858676076E-4  -6.348571274429560E-3  
 2.550000000000000E10   -6.516779307276011E-3  -3.055472334381193E-4  
 2.552000000000000E10    9.637477924115956E-4   6.105002947151661E-3  
 2.554000000000000E10    6.112565286457539E-3  -2.174546476453543E-3  
 2.556000000000000E10   -2.792028710246086E-3  -5.734892096370459E-3  
 2.558000000000000E10   -5.911852698773146E-3   2.745274454355240E-3  
 2.560000000000000E10    3.434815444052219E-3   5.651595070958138E-3  
 2.562000000000000E10    5.036670248955488E-3  -3.653136547654867E-3  
 2.564000000000000E10   -4.100568592548370E-3  -5.309865344315767E-3  
 2.566000000000000E10   -4.901712294667959E-3   5.071714986115694E-3  
 2.568000000000000E10    5.475666839629412E-3   3.584683407098055E-3  
 2.570000000000000E10    2.763255266472697E-3  -5.669756326824427E-3  
 2.572000000000000E10   -5.775769706815481E-3  -1.549848937429488E-3  
 2.574000000000000E10   -6.080325110815466E-4   6.564349867403507E-3  
 2.576000000000000E10    6.877573672682047E-3  -2.572525045252405E-5  
 2.578000000000000E10   -1.350276637822390E-3  -7.117435336112976E-3  
 2.580000000000000E10   -6.937169935554266E-3   3.179962746798992E-3  
 2.582000000000000E10    4.429659806191921E-3   6.375046446919441E-3  
 2.584000000000000E10    6.266427692025900E-3  -4.428771790117025E-3  
 2.586000000000000E10   -5.300476215779781E-3  -5.693693645298481E-3  
 2.588000000000000E10   -4.574215505272150E-3   5.925145000219345E-3  
 2.590000000000000E10    6.773846223950386E-3   4.898628219962120E-3  
 2.592000000000000E10    4.951513372361660E-3  -6.253604777157307E-3  
 2.594000000000000E10   -7.251482456922531E-3  -3.940255381166935E-3  
 2.596000000000000E10   -2.002575201913714E-3   8.064907975494862E-3  
 2.598000000000000E10    7.678891066461802E-3   1.203311956487596E-3  
 2.600000000000000E10    5.626043421216309E-4  -8.062528446316719E-3  
 2.602000000000000E10   -7.740891072899103E-3   1.077810185961425E-3  
 2.604000000000000E10    2.495947759598494E-3   7.088992279022932E-3  
 2.606000000000000E10    7.855127565562725E-3  -3.546592546626926E-3  
 2.608000000000000E10   -3.767888760194182E-3  -7.156605366617441E-3  
 2.610000000000000E10   -6.351466756314039E-3   5.178953055292368E-3  
 2.612000000000000E10    6.925962865352631E-3   5.897914990782738E-3  
 2.614000000000000E10    5.064472090452910E-3  -7.353081367909908E-3  
 2.616000000000000E10   -8.075736463069916E-3  -4.996552597731352E-3  
 2.618000000000000E10   -3.526001470163465E-3   7.989924401044846E-3  
 2.620000000000000E10    9.083956480026245E-3   2.626713132485747E-3  
 2.622000000000000E10    1.855864888057113E-3  -9.474996477365494E-3  
 2.624000000000000E10   -9.008305147290230E-3  -1.369222183711827E-3  
 2.626000000000000E10   -3.210592258255929E-4   8.849848993122578E-3  
 2.628000000000000E10    9.295850060880184E-3  -7.599198142997921E-4  
 2.630000000000000E10   -2.140508266165853E-3  -9.375806897878647E-3  
 2.632000000000000E10   -8.357734419405460E-3   3.525588195770979E-3  
 2.634000000000000E10    4.206235520541668E-3   7.208379916846752E-3  
 2.636000000000000E10    6.841813214123249E-3  -5.530727561563253E-3  
 2.638000000000000E10   -6.943181622773409E-3  -5.678664892911911E-3  
 2.640000000000000E10   -5.330532323569059E-3   7.169061806052923E-3  
 2.642000000000000E10    8.267412893474102E-3   3.993384074419737E-3  
 2.644000000000000E10    3.362809773534536E-3  -9.234737604856491E-3  
 2.646000000000000E10   -9.904813952744007E-3  -2.445294521749020E-3  
 2.648000000000000E10   -4.233519139233977E-4   9.909097105264664E-3  
 2.650000000000000E10    9.989797137677670E-3  -4.814065177924931E-4  
 2.652000000000000E10   -1.992415403947234E-3  -1.052737142890692E-2  
 2.654000000000000E10   -1.039117854088545E-2   3.406132105737925E-3  
 2.656000000000000E10    4.233501851558685E-3   9.324654936790466E-3  
 2.658000000000000E10    8.674540556967259E-3  -5.644592922180891E-3  
 2.660000000000000E10   -6.412221584469080E-3  -7.745297625660896E-3  
 2.662000000000000E10   -7.000611629337072E-3   7.270981092005968E-3  
 2.664000000000000E10    8.013827726244927E-3   5.403753835707903E-3  
 2.666000000000000E10    4.194866400212050E-3  -8.857308886945248E-3  
 2.668000000000000E10   -9.341676719486713E-3  -3.331474959850311E-3  
 2.670000000000000E10   -1.891116262413561E-3   9.153033606708050E-3  
 2.672000000000000E10    9.666439145803452E-3   9.309991146437824E-4  
 2.674000000000000E10   -1.349731028312817E-4  -1.043536700308323E-2  
 2.676000000000000E10   -1.020307000726461E-2   1.555218826979399E-3  
 2.678000000000000E10    3.375933272764087E-3   1.048791594803333E-2  
 2.680000000000000E10    1.015683449804783E-2  -4.328076262027025E-3  
 2.682000000000000E10   -5.379015114158392E-3  -9.680118411779404E-3  
 2.684000000000000E10   -8.835779502987862E-3   6.622249260544777E-3  
 2.686000000000000E10    7.559375837445259E-3   8.041259832680225E-3  
 2.688000000000000E10    7.273084018379450E-3  -8.204287849366665E-3  
 2.690000000000000E10   -8.615747094154358E-3  -6.199110299348831E-3  
 2.692000000000000E10   -4.905025940388441E-3   9.586652740836144E-3  
 2.694000000000000E10    1.082346122711897E-2   3.378053894266486E-3  
 2.696000000000000E10    2.753348555415869E-3  -1.048170588910580E-2  
 2.698000000000000E10   -1.041316986083984E-2  -6.337474333122373E-4  
 2.700000000000000E10    9.285900741815567E-4   1.068917755037546E-2  
 2.702000000000000E10    1.111072115600109E-2  -1.731866854242981E-3  
 2.704000000000000E10   -3.306469880044460E-3  -1.022985111922026E-2  
 2.706000000000000E10   -9.682696312665939E-3   4.871946759521961E-3  
 2.708000000000000E10    5.967949517071247E-3   9.606201201677322E-3  
 2.710000000000000E10    9.022106416523457E-3  -6.900510750710964E-3  
 2.712000000000000E10   -8.100938051939011E-3  -7.574422284960747E-3  
 2.714000000000000E10   -6.475906353443861E-3   8.958498947322369E-3  
 2.716000000000000E10    9.720195084810257E-3   5.732606165111065E-3  
 2.718000000000000E10    4.983710590749979E-3  -9.762253612279892E-3  
 2.720000000000000E10   -1.015034597367048E-2  -3.684677882120013E-3  
 2.722000000000000E10   -2.190847881138325E-3   1.088916696608067E-2  
 2.724000000000000E10    1.113950181752443E-2   9.860980790108442E-4  
 2.726000000000000E10   -5.368814454413950E-4  -1.093078497797251E-2  
 2.728000000000000E10   -1.093364972621203E-2   2.034089993685484E-3  
 2.730000000000000E10    3.187629394233227E-3   1.067114528268576E-2  
 2.732000000000000E10    1.036032103002071E-2  -4.695907235145569E-3  
 2.734000000000000E10   -5.507568363100290E-3  -9.703232906758785E-3  
 2.736000000000000E10   -9.279835037887096E-3   7.041737437248230E-3  
 2.738000000000000E10    8.727623149752617E-3   7.920661009848118E-3  
 2.740000000000000E10    6.664083804935217E-3  -9.810791350901127E-3  
 2.742000000000000E10   -1.033869292587042E-2  -5.159682128578425E-3  
 2.744000000000000E10   -4.218128975480795E-3   1.075481809675694E-2  
 2.746000000000000E10    1.123902015388012E-2   3.229318419471383E-3  
 2.748000000000000E10    2.210552338510752E-3  -1.130953524261713E-2  
 2.750000000000000E10   -1.162398606538773E-2  -1.113646314479411E-3  
 2.752000000000000E10   -1.292820234084502E-4   1.188871543854475E-2  
 2.754000000000000E10    1.173271611332893E-2  -1.347825978882611E-3  
 2.756000000000000E10   -2.922449959442020E-3  -1.173558551818132E-2  
