#  HZ   S   RI   R     50.00 
! Rohde & Schwarz ZVA40 4Ports - Version 3.90 - 1145.1110k42 SN: 100403
! Date: 2023-10-04 08:32:45
! Measurement: S12 
! 
 2.200000000000000E10   -2.046892233192921E-2   4.943205043673515E-3  
 2.202000000000000E10    6.668101064860821E-3   2.012305334210396E-2  
 2.204000000000000E10    1.858002506196499E-2  -9.554519318044186E-3  
 2.206000000000000E10   -1.183708291500807E-2  -1.676213182508946E-2  
 2.208000000000000E10   -1.543766073882580E-2   1.416175998747349E-2  
 2.210000000000000E10    1.551641523838043E-2   1.334666460752487E-2  
 2.212000000000000E10    1.090183202177286E-2  -1.659451425075531E-2  
 2.214000000000000E10   -1.790082454681397E-2  -9.318811818957329E-3  
 2.216000000000000E10   -7.809613365679979E-3   1.907805539667606E-2  
 2.218000000000000E10    1.973202265799046E-2   5.847989581525326E-3  
 2.220000000000000E10    4.397782962769270E-3  -1.906498149037361E-2  
 2.222000000000000E10   -2.077507413923740E-2  -2.492425031960011E-3  
 2.224000000000000E10   -5.215195706114173E-4   2.115862071514130E-2  
 2.226000000000000E10    2.007003501057625E-2  -2.672686241567135E-3  
 2.228000000000000E10   -5.770545918494463E-3  -1.992936991155148E-2  
 2.230000000000000E10   -1.919911243021488E-2   7.220512721687555E-3  
 2.232000000000000E10    9.418196976184845E-3   1.752493716776371E-2  
 2.234000000000000E10    1.510678417980671E-2  -1.186128333210945E-2  
 2.236000000000000E10   -1.279789581894875E-2  -1.349515561014414E-2  
 2.238000000000000E10   -1.319785974919796E-2   1.428967621177435E-2  
 2.240000000000000E10    1.573158800601959E-2   1.126922387629747E-2  
 2.242000000000000E10    8.501603268086910E-3  -1.725720614194870E-2  
 2.244000000000000E10   -1.890803687274456E-2  -6.496724206954241E-3  
 2.246000000000000E10   -5.193990189582110E-3   1.870971545577049E-2  
 2.248000000000000E10    1.819281652569771E-2   2.841811161488295E-3  
 2.250000000000000E10    3.088536686846055E-5  -1.934483833611012E-2  
 2.252000000000000E10   -1.914657652378082E-2   1.370534417219460E-3  
 2.254000000000000E10    2.564919181168079E-3   1.836236193776131E-2  
 2.256000000000000E10    1.786366850137711E-2  -4.681608639657497E-3  
 2.258000000000000E10   -7.045163307338953E-3  -1.752525568008423E-2  
 2.260000000000000E10   -1.713755354285240E-2   8.592099882662296E-3  
 2.262000000000000E10    9.552504867315292E-3   1.411021780222654E-2  
 2.264000000000000E10    1.325003709644079E-2  -1.103803887963295E-2  
 2.266000000000000E10   -1.295146811753511E-2  -1.150636188685894E-2  
 2.268000000000000E10   -1.086619123816490E-2   1.389209460467100E-2  
 2.270000000000000E10    1.442890614271164E-2   9.257336147129536E-3  
 2.272000000000000E10    7.504045031964779E-3  -1.519312337040901E-2  
 2.274000000000000E10   -1.717942580580711E-2  -6.062111351639032E-3  
 2.276000000000000E10   -3.997658379375935E-3   1.813296414911747E-2  
 2.278000000000000E10    1.812946423888207E-2   1.427640905603766E-3  
 2.280000000000000E10   -6.466574850492179E-4  -1.738934963941574E-2  
 2.282000000000000E10   -1.486455742269754E-2  -6.714695598930121E-3  
 2.284000000000000E10    3.838996868580580E-3   1.573059149086475E-2  
 2.286000000000000E10    1.520922966301441E-2  -5.108956247568131E-3  
 2.288000000000000E10   -6.400783080607653E-3  -1.398404315114021E-2  
 2.290000000000000E10   -1.328755263239145E-2   8.079829625785351E-3  
 2.292000000000000E10    9.797077625989914E-3   1.289349049329758E-2  
 2.294000000000000E10    1.110884267836809E-2  -1.175910793244839E-2  
 2.296000000000000E10   -1.269758678972721E-2  -9.047253988683224E-3  
 2.298000000000000E10   -7.316717877984047E-3   1.368823926895857E-2  
 2.300000000000000E10    1.468539703637362E-2   6.346377544105053E-3  
 2.302000000000000E10    4.747861530631781E-3  -1.468234043568373E-2  
 2.304000000000000E10   -1.468067802488804E-2  -2.960332669317722E-3  
 2.306000000000000E10   -1.517470460385084E-3   1.530852820724249E-2  
 2.308000000000000E10    1.536434888839722E-2   3.072814142797142E-4  
 2.310000000000000E10   -1.694083446636796E-3  -1.521932706236839E-2  
 2.312000000000000E10   -1.433006674051285E-2   4.321041051298380E-3  
 2.314000000000000E10    5.335400812327862E-3   1.323241740465164E-2  
 2.316000000000000E10    1.238974742591381E-2  -6.577415857464075E-3  
 2.318000000000000E10   -7.564540486782789E-3  -1.107056438922882E-2  
 2.320000000000000E10   -9.792074561119080E-3   8.937858976423740E-3  
 2.322000000000000E10    1.022830326110125E-2   9.397849440574646E-3  
 2.324000000000000E10    8.213420398533344E-3  -1.081942580640316E-2  
 2.326000000000000E10   -1.253170985728502E-2  -6.965368054807186E-3  
 2.328000000000000E10   -4.956520628184080E-3   1.394749339669943E-2  
 2.330000000000000E10    1.395752932876349E-2   3.310416592285037E-3  
 2.332000000000000E10    1.534230541437864E-3  -1.318007241934538E-2  
 2.334000000000000E10   -1.330906990915537E-2   5.657325164065696E-5  
 2.336000000000000E10    7.189681637100875E-4   1.282722596079111E-2  
 2.338000000000000E10    1.321018114686012E-2  -2.033832482993603E-3  
 2.340000000000000E10   -3.502632258459926E-3  -1.247092615813017E-2  
 2.342000000000000E10   -1.255248580127955E-2   5.228528287261725E-3  
 2.344000000000000E10    7.506303489208221E-3   1.184220798313618E-2  
 2.346000000000000E10    1.016909629106522E-2  -7.904389873147011E-3  
 2.348000000000000E10   -9.189006872475147E-3  -8.679551072418690E-3  
 2.350000000000000E10   -7.694788742810488E-3   9.907815605401993E-3  
 2.352000000000000E10    1.084411609917879E-2   6.190825719386339E-3  
 2.354000000000000E10    4.234127234667540E-3  -1.159935165196657E-2  
 2.356000000000000E10   -1.213389821350575E-2  -2.708084415644407E-3  
 2.358000000000000E10   -1.227510743774474E-3   1.285915356129408E-2  
 2.360000000000000E10    1.203844603151083E-2  -8.201021119020879E-4  
 2.362000000000000E10   -2.189235063269734E-3  -1.199668087065220E-2  
 2.364000000000000E10   -1.125718001276255E-2   3.669257974252105E-3  
 2.366000000000000E10    4.431509412825108E-3   1.101495511829853E-2  
 2.368000000000000E10    1.065415143966675E-2  -4.409859422594309E-3  
 2.370000000000000E10   -5.475384648889303E-3  -9.244421496987343E-3  
 2.372000000000000E10   -9.184282273054123E-3   6.272145546972752E-3  
 2.374000000000000E10    7.248930633068085E-3   8.863410912454128E-3  
 2.376000000000000E10    7.255927659571171E-3  -7.778956089168787E-3  
 2.378000000000000E10   -8.678277023136616E-3  -5.502710584551096E-3  
 2.380000000000000E10   -3.932080697268248E-3   9.476593695580959E-3  
 2.382000000000000E10    9.225200861692429E-3   2.232296857982874E-3  
 2.384000000000000E10    6.728624575771391E-4  -1.001791376620531E-2  
 2.386000000000000E10   -9.455289691686630E-3   1.141529995948076E-3  
 2.388000000000000E10    2.119662705808878E-3   1.024382840842009E-2  
 2.390000000000000E10    1.021919585764408E-2  -2.786701777949929E-3  
 2.392000000000000E10   -4.171603824943304E-3  -9.518617764115334E-3  
 2.394000000000000E10   -9.269952774047852E-3   5.113467108458281E-3  
 2.396000000000000E10    5.233832169324160E-3   8.602372370660305E-3  
 2.398000000000000E10    7.796254474669695E-3  -5.620605312287808E-3  
 2.400000000000000E10   -6.100980099290609E-3  -6.724377628415823E-3  
 2.402000000000000E10   -5.273798946291208E-3   6.575565785169601E-3  
 2.404000000000000E10    6.437437608838081E-3   4.675003699958324E-3  
 2.406000000000000E10    3.761208150535822E-3  -6.810778286308050E-3  
 2.408000000000000E10   -6.966798100620508E-3  -2.420190954580903E-3  
 2.410000000000000E10   -1.900772564113140E-3   7.647751364856958E-3  
 2.412000000000000E10    7.651368621736765E-3   8.136465912684798E-4  
 2.414000000000000E10   -7.086368859745562E-4  -7.416567299515009E-3  
 2.416000000000000E10   -7.630350999534130E-3   1.841809600591660E-3  
 2.418000000000000E10    2.237056847661734E-3   7.398446090519428E-3  
 2.420000000000000E10    7.060255855321884E-3  -2.141022123396397E-3  
 2.422000000000000E10   -3.155420534312725E-3  -6.544176023453474E-3  
 2.424000000000000E10   -7.177787367254496E-3   4.168450366705656E-3  
 2.426000000000000E10    4.162479657679796E-3   7.376580499112606E-3  
 2.428000000000000E10    6.600465159863234E-3  -5.026133265346289E-3  
 2.430000000000000E10   -5.847095977514982E-3  -6.115641910582781E-3  
 2.432000000000000E10   -5.929381586611271E-3   6.701454054564238E-3  
 2.434000000000000E10    6.416820921003819E-3   5.168437026441097E-3  
 2.436000000000000E10    3.867982421070337E-3  -6.690473761409521E-3  
 2.438000000000000E10   -6.792087573558092E-3  -3.116399748250842E-3  
 2.440000000000000E10   -2.686748979613185E-3   6.788402795791626E-3  
 2.442000000000000E10    6.491204258054495E-3   1.755516161210835E-3  
 2.444000000000000E10    5.902654374949634E-4  -6.335710175335407E-3  
 2.446000000000000E10   -6.419187411665916E-3   5.048821913078427E-4  
 2.448000000000000E10    1.390644465573132E-3   6.031384225934744E-3  
 2.450000000000000E10    5.727426614612341E-3  -2.229783451184630E-3  
 2.452000000000000E10   -3.464562585577369E-3  -5.784440319985151E-3  
 2.454000000000000E10   -5.133892409503460E-3   3.698576940223575E-3  
 2.456000000000000E10    3.968818578869104E-3   5.324834026396275E-3  
 2.458000000000000E10    5.564926657825708E-3  -4.402885679155588E-3  
 2.460000000000000E10   -4.855711013078690E-3  -5.153051111847162E-3  
 2.462000000000000E10   -5.620195530354977E-3   5.623677745461464E-3  
 2.464000000000000E10    5.305514205247164E-3   4.951889626681805E-3  
 2.466000000000000E10    3.754866775125265E-3  -5.716738756746054E-3  
 2.468000000000000E10   -6.524123717099428E-3  -3.831619862467051E-3  
 2.470000000000000E10   -2.701415913179517E-3   5.994017701596022E-3  
 2.472000000000000E10    5.849221255630255E-3   1.024451456032693E-3  
 2.474000000000000E10    6.822743453085423E-4  -5.409938748925924E-3  
 2.476000000000000E10   -5.857794545590878E-3  -1.509900321252644E-4  
 2.478000000000000E10    1.212012371979654E-3   6.625779904425144E-3  
 2.480000000000000E10    5.760570056736469E-3  -1.904886914417148E-3  
 2.482000000000000E10   -2.983127953484654E-3  -5.641137715429068E-3  
 2.484000000000000E10   -6.017305422574282E-3   4.154849331825972E-3  
 2.486000000000000E10    4.054727964103222E-3   5.611382424831390E-3  
 2.488000000000000E10    4.577368032187223E-3  -4.841662012040615E-3  
 2.490000000000000E10   -4.824798088520765E-3  -4.518114030361176E-3  
 2.492000000000000E10   -4.526218865066767E-3   5.218630190938711E-3  
 2.494000000000000E10    6.095170043408871E-3   3.980840556323528E-3  
 2.496000000000000E10    3.563205478712916E-3  -5.943150725215673E-3  
 2.498000000000000E10   -6.551021244376898E-3  -2.016418613493443E-3  
 2.500000000000000E10   -8.791376603767276E-4   6.554978433996439E-3  
 2.502000000000000E10    6.398273166269064E-3   1.007838989607990E-3  
 2.504000000000000E10   -6.467615603469312E-4  -6.036014296114445E-3  
 2.506000000000000E10   -5.693631712347269E-3   9.192860452458262E-4  
 2.508000000000000E10    1.174721866846085E-3   5.469366908073425E-3  
 2.510000000000000E10    5.413965322077274E-3  -2.332633128389716E-3  
 2.512000000000000E10   -2.615337958559394E-3  -5.398768000304699E-3  
 2.514000000000000E10   -5.521469749510288E-3   3.935156855732203E-3  
 2.516000000000000E10    4.482416901737452E-3   5.275161471217871E-3  
 2.518000000000000E10    4.680809564888477E-3  -5.181523505598307E-3  
 2.520000000000000E10   -6.131072994321585E-3  -3.895987756550312E-3  
 2.522000000000000E10   -3.810667432844639E-3   6.472416687756777E-3  
 2.524000000000000E10    6.443742662668228E-3   2.738418988883495E-3  
 2.526000000000000E10    2.370852511376143E-3  -6.625801790505648E-3  
 2.528000000000000E10   -6.993373855948448E-3  -1.591474050655961E-3  
 2.530000000000000E10   -7.791364914737642E-4   7.458799984306097E-3  
 2.532000000000000E10    7.139651570469141E-3  -3.867373379762285E-5  
 2.534000000000000E10   -1.514603034593165E-3  -6.940129678696394E-3  
 2.536000000000000E10   -6.435975432395935E-3   3.089093836024404E-3  
 2.538000000000000E10    3.247133223339915E-3   5.490216892212629E-3  
 2.540000000000000E10    4.951638635247946E-3  -4.469164181500673E-3  
 2.542000000000000E10   -5.121510010212660E-3  -4.516891203820705E-3  
 2.544000000000000E10   -4.329128190875053E-3   5.555494222790003E-3  
 2.546000000000000E10    6.317276973277330E-3   3.660842776298523E-3  
 2.548000000000000E10    3.248185152187944E-3  -7.256538607180119E-3  
 2.550000000000000E10   -7.553032599389553E-3  -2.113645663484931E-3  
 2.552000000000000E10   -1.036225352436304E-3   7.798429112881422E-3  
 2.554000000000000E10    7.392073050141335E-3   1.006980601232499E-4  
 2.556000000000000E10   -6.516750436276197E-4  -7.404916919767857E-3  
 2.558000000000000E10   -7.475108373910189E-3   1.563373720273376E-3  
 2.560000000000000E10    2.187711186707020E-3   6.670554168522358E-3  
 2.562000000000000E10    5.906642414629459E-3  -3.373312996700406E-3  
 2.564000000000000E10   -4.549093078821898E-3  -6.129230372607708E-3  
 2.566000000000000E10   -5.557655822485685E-3   5.215664394199848E-3  
 2.568000000000000E10    5.846446380019188E-3   4.212466534227133E-3  
 2.570000000000000E10    3.392268205061555E-3  -6.649944465607405E-3  
 2.572000000000000E10   -7.220450788736343E-3  -2.339004538953304E-3  
 2.574000000000000E10   -1.966272946447134E-3   7.486778777092695E-3  
 2.576000000000000E10    7.390955928713083E-3   1.565159647725523E-3  
 2.578000000000000E10   -3.658912028186023E-4  -8.312608115375042E-3  
 2.580000000000000E10   -8.913363330066204E-3   1.720508676953614E-3  
 2.582000000000000E10    1.826591324061155E-3   7.970330305397511E-3  
 2.584000000000000E10    7.583529688417912E-3  -2.727856161072850E-3  
 2.586000000000000E10   -5.121999885886908E-3  -6.902800407260656E-3  
 2.588000000000000E10   -6.069361232221127E-3   5.391589831560850E-3  
 2.590000000000000E10    5.010432563722134E-3   5.525602493435144E-3  
 2.592000000000000E10    4.790116567164660E-3  -5.802179686725140E-3  
 2.594000000000000E10   -7.356289308518171E-3  -3.547879401594400E-3  
 2.596000000000000E10   -3.343309508636594E-3   7.355710491538048E-3  
 2.598000000000000E10    7.802275475114584E-3   2.816513879224658E-3  
 2.600000000000000E10    9.013195522129536E-4  -8.326398208737373E-3  
 2.602000000000000E10   -8.674799464643002E-3   8.271880797110498E-4  
 2.604000000000000E10    1.427983399480581E-3   9.010558947920799E-3  
 2.606000000000000E10    8.481800556182861E-3  -1.998631050810218E-3  
 2.608000000000000E10   -3.222930943593383E-3  -7.638866081833839E-3  
 2.610000000000000E10   -8.127037435770035E-3   4.699162207543850E-3  
 2.612000000000000E10    5.209642462432385E-3   7.594257127493620E-3  
 2.614000000000000E10    6.798079237341881E-3  -6.040351931005716E-3  
 2.616000000000000E10   -6.704395171254873E-3  -5.819938611239195E-3  
 2.618000000000000E10   -4.942179657518864E-3   7.456208113580942E-3  
 2.620000000000000E10    8.138883858919144E-3   4.134270828217268E-3  
 2.622000000000000E10    2.846528775990009E-3  -8.129891939461231E-3  
 2.624000000000000E10   -8.248393423855305E-3  -1.371995778754354E-3  
 2.626000000000000E10   -8.990139467641711E-4   8.551114238798618E-3  
 2.628000000000000E10    9.438517503440380E-3  -5.370447179302573E-4  
 2.630000000000000E10   -1.925925840623677E-3  -9.475643746554852E-3  
 2.632000000000000E10   -8.712979964911938E-3   3.103703027591109E-3  
 2.634000000000000E10    4.814149811863899E-3   8.089664392173290E-3  
 2.636000000000000E10    8.164998143911362E-3  -5.599738564342260E-3  
 2.638000000000000E10   -6.373196840286255E-3  -7.415749132633209E-3  
 2.640000000000000E10   -6.197126116603613E-3   7.338967174291611E-3  
 2.642000000000000E10    8.048845455050468E-3   5.647438578307629E-3  
 2.644000000000000E10    4.783671349287033E-3  -9.247053414583206E-3  
 2.646000000000000E10   -9.472584351897240E-3  -3.638505935668945E-3  
 2.648000000000000E10   -2.177185146138072E-3   9.334939531981945E-3  
 2.650000000000000E10    1.006141956895590E-2   6.297572399489582E-4  
 2.652000000000000E10   -6.780365947633982E-4  -1.020219828933477E-2  
 2.654000000000000E10   -9.754980914294720E-3   1.832500565797091E-3  
 2.656000000000000E10    3.749048104509711E-3   8.916541934013367E-3  
 2.658000000000000E10    8.707961067557335E-3  -4.747696686536074E-3  
 2.660000000000000E10   -6.214378867298365E-3  -7.589449174702168E-3  
 2.662000000000000E10   -6.651768926531076E-3   7.291070185601711E-3  
 2.664000000000000E10    8.293191902339459E-3   5.514724180102348E-3  
 2.666000000000000E10    4.343707114458084E-3  -9.636745788156986E-3  
 2.668000000000000E10   -9.528979659080505E-3  -3.589474363252521E-3  
 2.670000000000000E10   -2.293054247274995E-3   9.585075080394745E-3  
 2.672000000000000E10    1.065003778785467E-2   1.175192999653518E-3  
 2.674000000000000E10    4.381163744255900E-4  -1.016965880990028E-2  
 2.676000000000000E10   -1.056981738656759E-2   1.020456780679524E-3  
 2.678000000000000E10    1.975407823920250E-3   1.055681146681309E-2  
 2.680000000000000E10    9.932952933013439E-3  -3.088715486228466E-3  
 2.682000000000000E10   -4.714346956461668E-3  -9.395665489137173E-3  
 2.684000000000000E10   -9.124844335019589E-3   5.893353838473558E-3  
 2.686000000000000E10    6.974163930863142E-3   7.955462671816349E-3  
 2.688000000000000E10    6.455656606703997E-3  -8.195760659873486E-3  
 2.690000000000000E10   -8.715920150279999E-3  -5.744118709117174E-3  
 2.692000000000000E10   -4.554211162030697E-3   9.915197268128395E-3  
 2.694000000000000E10    1.067618001252413E-2   3.611695254221559E-3  
 2.696000000000000E10    1.935721840709448E-3  -1.014147419482470E-2  
 2.698000000000000E10   -1.073515042662621E-2  -3.894980181939900E-4  
 2.700000000000000E10    4.096955817658454E-4   1.161432825028896E-2  
 2.702000000000000E10    1.050368603318930E-2  -1.774967648088932E-3  
 2.704000000000000E10   -3.478637663647533E-3  -9.941751137375832E-3  
 2.706000000000000E10   -1.048562861979008E-2   4.545324016362429E-3  
 2.708000000000000E10    5.048892926424742E-3   9.426078759133816E-3  
 2.710000000000000E10    8.434161543846130E-3  -6.386767607182264E-3  
 2.712000000000000E10   -7.712186314165592E-3  -7.535780780017376E-3  
 2.714000000000000E10   -6.632752250880003E-3   8.747854270040989E-3  
 2.716000000000000E10    9.045810438692570E-3   5.974177736788988E-3  
 2.718000000000000E10    4.207396414130926E-3  -9.474517777562141E-3  
 2.720000000000000E10   -1.043318491429091E-2  -2.970390953123570E-3  
 2.722000000000000E10   -2.028438495472074E-3   1.094450056552887E-2  
 2.724000000000000E10    1.056525111198425E-2   9.021535515785217E-4  
 2.726000000000000E10   -1.053000334650278E-3  -1.056079939007759E-2  
 2.728000000000000E10   -1.124896015971899E-2   2.650683978572488E-3  
 2.730000000000000E10    3.519107587635517E-3   1.077835634350777E-2  
 2.732000000000000E10    1.005363464355469E-2  -4.851043224334717E-3  
 2.734000000000000E10   -6.276159081608057E-3  -9.862284176051617E-3  
 2.736000000000000E10   -9.346494451165199E-3   7.276748772710562E-3  
 2.738000000000000E10    8.202349767088890E-3   8.292811922729015E-3  
 2.740000000000000E10    6.836764980107546E-3  -9.346334263682365E-3  
 2.742000000000000E10   -9.750484488904476E-3  -5.251841619610786E-3  
 2.744000000000000E10   -4.560840316116810E-3   1.038050837814808E-2  
 2.746000000000000E10    1.052196417003870E-2   3.134200815111399E-3  
 2.748000000000000E10    1.771627808921039E-3  -1.036677323281765E-2  
 2.750000000000000E10   -1.106546632945538E-2  -7.162889814935625E-4  
 2.752000000000000E10    8.088053436949849E-4   1.089769322425127E-2  
 2.754000000000000E10    1.090409792959690E-2  -2.156737726181746E-3  
 2.756000000000000E10   -3.888159524649382E-3  -1.087452098727226E-2  
