#  HZ   S   RI   R     50.00 
! Rohde & Schwarz ZVA40 4Ports - Version 3.90 - 1145.1110k42 SN: 100403
! Date: 2023-10-04 08:33:32
! Measurement: S12 
! 
 2.200000000000000E10   -2.799705043435097E-2   6.995649542659521E-3  
 2.202000000000000E10    1.005063392221928E-2   2.570717222988606E-2  
 2.204000000000000E10    2.406281232833862E-2  -1.344866026192904E-2  
 2.206000000000000E10   -1.582987233996391E-2  -2.266073971986771E-2  
 2.208000000000000E10   -2.066753432154656E-2   1.825567893683910E-2  
 2.210000000000000E10    2.050782181322575E-2   1.773307472467423E-2  
 2.212000000000000E10    1.541094202548266E-2  -2.170276641845703E-2  
 2.214000000000000E10   -2.349526621401310E-2  -1.338018197566271E-2  
 2.216000000000000E10   -1.038835011422634E-2   2.554380893707275E-2  
 2.218000000000000E10    2.557193487882614E-2   6.519855931401253E-3  
 2.220000000000000E10    5.250147078186274E-3  -2.558244019746780E-2  
 2.222000000000000E10   -2.662507817149162E-2  -3.025626530870795E-3  
 2.224000000000000E10    1.105383038520813E-3   2.698044665157795E-2  
 2.226000000000000E10    2.662959322333336E-2  -4.483530763536692E-3  
 2.228000000000000E10   -6.534970365464687E-3  -2.582683227956295E-2  
 2.230000000000000E10   -2.414298988878727E-2   1.033843308687210E-2  
 2.232000000000000E10    1.359431445598602E-2   2.288280427455902E-2  
 2.234000000000000E10    2.036579884588718E-2  -1.590145006775856E-2  
 2.236000000000000E10   -1.669146493077278E-2  -1.826949603855610E-2  
 2.238000000000000E10   -1.650721952319145E-2   1.848384179174900E-2  
 2.240000000000000E10    2.104782685637474E-2   1.505093649029732E-2  
 2.242000000000000E10    1.298233401030302E-2  -2.286461740732193E-2  
 2.244000000000000E10   -2.346556074917316E-2  -9.213374927639961E-3  
 2.246000000000000E10   -6.129999645054340E-3   2.397147193551064E-2  
 2.248000000000000E10    2.488536387681961E-2   4.408630542457104E-3  
 2.250000000000000E10    2.026509726420045E-3  -2.499686367809773E-2  
 2.252000000000000E10   -2.389663830399513E-2   1.333557651378214E-3  
 2.254000000000000E10    4.291933029890060E-3   2.381841838359833E-2  
 2.256000000000000E10    2.394521422684193E-2  -6.316240411251783E-3  
 2.258000000000000E10   -8.069920353591442E-3  -2.234265394508839E-2  
 2.260000000000000E10   -2.065370976924896E-2   1.018359418958426E-2  
 2.262000000000000E10    1.322137005627155E-2   1.892573945224285E-2  
 2.264000000000000E10    1.858475618064404E-2  -1.477868109941483E-2  
 2.266000000000000E10   -1.606710068881512E-2  -1.670442894101143E-2  
 2.268000000000000E10   -1.385261118412018E-2   1.800146140158176E-2  
 2.270000000000000E10    2.022279053926468E-2   1.184861268848181E-2  
 2.272000000000000E10    1.096252258867025E-2  -2.066894248127937E-2  
 2.274000000000000E10   -2.183883823454380E-2  -8.653997443616390E-3  
 2.276000000000000E10   -5.495693068951368E-3   2.322908677160740E-2  
 2.278000000000000E10    2.324398607015610E-2   2.671018475666642E-3  
 2.280000000000000E10    1.678234548307955E-4  -2.308464795351028E-2  
 2.282000000000000E10   -1.909917779266834E-2  -1.134456228464842E-2  
 2.284000000000000E10    4.319672938436270E-3   2.072229050099850E-2  
 2.286000000000000E10    2.026905678212643E-2  -6.799637340009213E-3  
 2.288000000000000E10   -8.130401372909546E-3  -1.964324526488781E-2  
 2.290000000000000E10   -1.840568520128727E-2   1.013791374862194E-2  
 2.292000000000000E10    1.237353309988976E-2   1.680568978190422E-2  
 2.294000000000000E10    1.539992075413466E-2  -1.416818611323834E-2  
 2.296000000000000E10   -1.626167260110378E-2  -1.324418745934963E-2  
 2.298000000000000E10   -1.102752145379782E-2   1.737451553344727E-2  
 2.300000000000000E10    1.870626769959927E-2   8.856263011693955E-3  
 2.302000000000000E10    6.352310534566641E-3  -2.005747146904469E-2  
 2.304000000000000E10   -2.028922177851200E-2  -4.172901157289743E-3  
 2.306000000000000E10   -2.161945216357708E-3   2.060941047966480E-2  
 2.308000000000000E10    2.089040912687779E-2   1.014356603263877E-4  
 2.310000000000000E10   -2.298931125551462E-3  -2.119327895343304E-2  
 2.312000000000000E10   -2.047379314899445E-2   5.267831496894360E-3  
 2.314000000000000E10    7.061451207846403E-3   1.853846199810505E-2  
 2.316000000000000E10    1.746747456490994E-2  -8.409100584685803E-3  
 2.318000000000000E10   -1.030458975583315E-2  -1.582279428839684E-2  
 2.320000000000000E10   -1.369717996567488E-2   1.170403044670820E-2  
 2.322000000000000E10    1.304925512522459E-2   1.270246785134077E-2  
 2.324000000000000E10    1.123347692191601E-2  -1.426037028431892E-2  
 2.326000000000000E10   -1.603084988892078E-2  -9.170586243271828E-3  
 2.328000000000000E10   -7.048929110169411E-3   1.816312968730927E-2  
 2.330000000000000E10    1.823449134826660E-2   4.116412252187729E-3  
 2.332000000000000E10    2.620046259835362E-3  -1.801535114645958E-2  
 2.334000000000000E10   -1.758456043899059E-2  -7.713770028203726E-4  
 2.336000000000000E10    9.770941687747836E-4   1.811691559851170E-2  
 2.338000000000000E10    1.816670596599579E-2  -2.549877157434821E-3  
 2.340000000000000E10   -4.690675530582666E-3  -1.713602431118488E-2  
 2.342000000000000E10   -1.635114848613739E-2   6.842839065939188E-3  
 2.344000000000000E10    9.328301064670086E-3   1.533896662294865E-2  
 2.346000000000000E10    1.348108984529972E-2  -1.019328366965056E-2  
 2.348000000000000E10   -1.165603753179312E-2  -1.163785625249147E-2  
 2.350000000000000E10   -1.038581039756537E-2   1.324450969696045E-2  
 2.352000000000000E10    1.420698873698711E-2   8.417037315666676E-3  
 2.354000000000000E10    6.424464285373688E-3  -1.524242851883173E-2  
 2.356000000000000E10   -1.582164317369461E-2  -4.378133919090033E-3  
 2.358000000000000E10   -1.729653216898441E-3   1.650700904428959E-2  
 2.360000000000000E10    1.650368794798851E-2   2.010476891882718E-4  
 2.362000000000000E10   -1.666677533648908E-3  -1.574467308819294E-2  
 2.364000000000000E10   -1.471942570060492E-2   4.345519933849573E-3  
 2.366000000000000E10    5.304900929331780E-3   1.431535463780165E-2  
 2.368000000000000E10    1.323582231998444E-2  -5.985055584460497E-3  
 2.370000000000000E10   -7.526098284870386E-3  -1.249315403401852E-2  
 2.372000000000000E10   -1.140841096639633E-2   8.494369685649872E-3  
 2.374000000000000E10    9.765614755451679E-3   1.050964277237654E-2  
 2.376000000000000E10    9.665304794907570E-3  -1.045061182230711E-2  
 2.378000000000000E10   -1.118975784629583E-2  -7.776319049298763E-3  
 2.380000000000000E10   -6.047716364264488E-3   1.224521640688181E-2  
 2.382000000000000E10    1.282055675983429E-2   4.745250102132559E-3  
 2.384000000000000E10    2.630173927173019E-3  -1.283579971641302E-2  
 2.386000000000000E10   -1.268817111849785E-2  -2.871573960874230E-4  
 2.388000000000000E10    1.164364279247820E-3   1.214139908552170E-2  
 2.390000000000000E10    1.166602689772844E-2  -3.244915744289756E-3  
 2.392000000000000E10   -4.462415818125010E-3  -1.120520476251841E-2  
 2.394000000000000E10   -1.051800791174173E-2   5.362138617783785E-3  
 2.396000000000000E10    6.485944148153067E-3   9.968247264623642E-3  
 2.398000000000000E10    9.723294526338577E-3  -7.754207588732243E-3  
 2.400000000000000E10   -8.636713959276676E-3  -9.083756245672703E-3  
 2.402000000000000E10   -6.919237319380045E-3   9.410919621586800E-3  
 2.404000000000000E10    9.243290871381760E-3   6.213223561644554E-3  
 2.406000000000000E10    5.765106063336134E-3  -9.507792070508003E-3  
 2.408000000000000E10   -9.490014053881168E-3  -4.841423593461514E-3  
 2.410000000000000E10   -3.313335822895169E-3   9.281462989747524E-3  
 2.412000000000000E10    9.115085937082768E-3   2.191969659179449E-3  
 2.414000000000000E10    3.808710607700050E-4  -8.780425414443016E-3  
 2.416000000000000E10   -8.955509401857853E-3   9.908967185765505E-4  
 2.418000000000000E10    1.674004364758730E-3   8.235327899456024E-3  
 2.420000000000000E10    7.805431261658669E-3  -2.763128140941262E-3  
 2.422000000000000E10   -3.802377032116056E-3  -7.569291163235903E-3  
 2.424000000000000E10   -7.817093282938004E-3   4.256909713149071E-3  
 2.426000000000000E10    5.060981027781963E-3   7.725291885435581E-3  
 2.428000000000000E10    7.791806478053331E-3  -5.772075150161982E-3  
 2.430000000000000E10   -6.660188082605600E-3  -7.193102501332760E-3  
 2.432000000000000E10   -6.778821349143982E-3   7.522967644035816E-3  
 2.434000000000000E10    7.833102717995644E-3   6.851709447801113E-3  
 2.436000000000000E10    4.935932811349630E-3  -8.192257024347782E-3  
 2.438000000000000E10   -8.160778321325779E-3  -3.973701968789101E-3  
 2.440000000000000E10   -3.622030373662710E-3   8.550737053155899E-3  
 2.442000000000000E10    8.494887501001358E-3   2.135020680725575E-3  
 2.444000000000000E10    1.667448086664081E-3  -8.134260773658752E-3  
 2.446000000000000E10   -8.016488514840603E-3  -7.837080047465861E-4  
 2.448000000000000E10    3.935813147109002E-4   7.692772429436445E-3  
 2.450000000000000E10    7.502345368266106E-3  -9.196223109029234E-4  
 2.452000000000000E10   -1.434831647202373E-3  -7.214305922389031E-3  
 2.454000000000000E10   -6.587255746126175E-3   2.456559333950281E-3  
 2.456000000000000E10    2.753883367404342E-3   6.360407918691635E-3  
 2.458000000000000E10    6.168163381516933E-3  -3.641411429271102E-3  
 2.460000000000000E10   -5.055177491158247E-3  -6.137172691524029E-3  
 2.462000000000000E10   -5.753989331424236E-3   5.354973487555981E-3  
 2.464000000000000E10    5.649425555020571E-3   4.953097552061081E-3  
 2.466000000000000E10    5.127855110913515E-3  -6.819628644734621E-3  
 2.468000000000000E10   -7.755626924335957E-3  -4.913285840302706E-3  
 2.470000000000000E10   -3.042888129130006E-3   8.236628025770187E-3  
 2.472000000000000E10    8.093429729342461E-3   2.654246287420392E-3  
 2.474000000000000E10    2.033343771472573E-3  -7.204768713563681E-3  
 2.476000000000000E10   -7.619668263942003E-3  -1.315431087277830E-3  
 2.478000000000000E10   -8.916446822695434E-4   7.857821881771088E-3  
 2.480000000000000E10    6.872057449072599E-3   2.577548730187118E-4  
 2.482000000000000E10   -7.806750945746899E-4  -7.723405957221985E-3  
 2.484000000000000E10   -7.091860752552748E-3   1.775414333678782E-3  
 2.486000000000000E10    2.844861941412091E-3   6.574680097401142E-3  
 2.488000000000000E10    6.348223891109228E-3  -3.804983804002404E-3  
 2.490000000000000E10   -4.344934597611427E-3  -5.683191586285830E-3  
 2.492000000000000E10   -5.689471028745174E-3   5.110884085297585E-3  
 2.494000000000000E10    5.866627208888531E-3   5.199342966079712E-3  
 2.496000000000000E10    4.466156009584665E-3  -6.134749390184879E-3  
 2.498000000000000E10   -7.032266817986965E-3  -4.137983079999685E-3  
 2.500000000000000E10   -3.212563926354051E-3   7.042444311082363E-3  
 2.502000000000000E10    7.059396244585514E-3   2.497272100299597E-3  
 2.504000000000000E10    1.273024943657219E-3  -7.475167978554964E-3  
 2.506000000000000E10   -6.798843853175640E-3  -8.221709285862744E-4  
 2.508000000000000E10   -6.521994364447892E-4   6.781800184398890E-3  
 2.510000000000000E10    6.867264863103628E-3   4.942779924022034E-5  
 2.512000000000000E10   -1.026996411383152E-3  -7.237350102514029E-3  
 2.514000000000000E10   -7.397116627544165E-3   1.871460000984371E-3  
 2.516000000000000E10    2.834467682987452E-3   6.835708860307932E-3  
 2.518000000000000E10    6.500899326056242E-3  -4.243031144142151E-3  
 2.520000000000000E10   -5.091183818876743E-3  -5.905356258153915E-3  
 2.522000000000000E10   -4.941647872328758E-3   5.582205485552549E-3  
 2.524000000000000E10    6.100387778133154E-3   4.601243417710066E-3  
 2.526000000000000E10    3.943852148950100E-3  -6.321625784039497E-3  
 2.528000000000000E10   -6.933210417628288E-3  -2.970933681353927E-3  
 2.530000000000000E10   -2.797024790197611E-3   7.913218811154366E-3  
 2.532000000000000E10    7.706361357122660E-3   1.639301422983408E-3  
 2.534000000000000E10    7.654365617781878E-4  -8.208561688661575E-3  
 2.536000000000000E10   -8.158610202372074E-3   5.594425601884723E-4  
 2.538000000000000E10    1.202544197440147E-3   7.381710223853588E-3  
 2.540000000000000E10    7.806926500052214E-3  -2.045514062047005E-3  
 2.542000000000000E10   -2.590348711237311E-3  -6.994827650487423E-3  
 2.544000000000000E10   -6.492509506642819E-3   3.736211219802499E-3  
 2.546000000000000E10    4.655874334275723E-3   6.679473910480738E-3  
 2.548000000000000E10    5.395903717726469E-3  -5.207568407058716E-3  
 2.550000000000000E10   -6.597789470106363E-3  -4.175260197371244E-3  
 2.552000000000000E10   -3.549145068973303E-3   7.234205491840839E-3  
 2.554000000000000E10    7.414441090077162E-3   2.599731786176562E-3  
 2.556000000000000E10    1.463895430788398E-3  -8.013073354959488E-3  
 2.558000000000000E10   -7.531613111495972E-3  -3.647459670901299E-4  
 2.560000000000000E10    5.131140933372080E-4   7.945956662297249E-3  
 2.562000000000000E10    8.180363103747368E-3  -1.138412044383586E-3  
 2.564000000000000E10   -1.599076204001904E-3  -7.697095628827810E-3  
 2.566000000000000E10   -7.657403592020273E-3   3.126938128843904E-3  
 2.568000000000000E10    4.702489823102951E-3   7.849294692277908E-3  
 2.570000000000000E10    6.860363297164440E-3  -5.766033660620451E-3  
 2.572000000000000E10   -6.124646868556738E-3  -5.288387648761272E-3  
 2.574000000000000E10   -4.294059704989195E-3   6.973234936594963E-3  
 2.576000000000000E10    8.321396075189114E-3   4.067931324243546E-3  
 2.578000000000000E10    2.732653869315982E-3  -8.273865096271038E-3  
 2.580000000000000E10   -8.164016529917717E-3  -1.316432724706829E-3  
 2.582000000000000E10   -4.425928636919707E-4   8.684677071869373E-3  
 2.584000000000000E10    9.112529456615448E-3  -9.094474953599274E-4  
 2.586000000000000E10   -1.901632174849510E-3  -8.436650969088078E-3  
 2.588000000000000E10   -7.608948741108179E-3   2.540159039199352E-3  
 2.590000000000000E10    3.865803126245737E-3   6.864706519991159E-3  
 2.592000000000000E10    7.553453557193279E-3  -4.003662150353193E-3  
 2.594000000000000E10   -5.150293000042439E-3  -6.887877359986305E-3  
 2.596000000000000E10   -5.850461311638355E-3   6.209690123796463E-3  
 2.598000000000000E10    7.198209874331951E-3   5.670125130563974E-3  
 2.600000000000000E10    4.485054872930050E-3  -8.418045006692410E-3  
 2.602000000000000E10   -9.427750483155251E-3  -3.067208454012871E-3  
 2.604000000000000E10   -1.729727257043123E-3   9.447792544960976E-3  
 2.606000000000000E10    9.703086689114571E-3  -3.046689671464264E-4  
 2.608000000000000E10   -9.017717675305903E-4  -9.656155481934547E-3  
 2.610000000000000E10   -8.991501294076443E-3   1.918302034027875E-3  
 2.612000000000000E10    3.161597298458219E-3   8.771949447691441E-3  
 2.614000000000000E10    8.394152857363224E-3  -3.753572236746550E-3  
 2.616000000000000E10   -5.120455753058195E-3  -7.756114006042481E-3  
 2.618000000000000E10   -7.859243080019951E-3   5.858254153281450E-3  
 2.620000000000000E10    6.560883019119501E-3   6.076706573367119E-3  
 2.622000000000000E10    4.897217731922865E-3  -7.764323148876429E-3  
 2.624000000000000E10   -7.782965432852507E-3  -4.223649390041828E-3  
 2.626000000000000E10   -3.235253039747477E-3   7.892319932579994E-3  
 2.628000000000000E10    9.303041733801365E-3   2.208906691521406E-3  
 2.630000000000000E10    6.867268239147961E-4  -9.386465884745121E-3  
 2.632000000000000E10   -9.524430148303509E-3   9.396085515618324E-4  
 2.634000000000000E10    1.926469616591930E-3   9.739466942846775E-3  
 2.636000000000000E10    8.727512322366238E-3  -3.316139802336693E-3  
 2.638000000000000E10   -5.305748898535967E-3  -7.901658304035664E-3  
 2.640000000000000E10   -7.587821222841740E-3   5.512882024049759E-3  
 2.642000000000000E10    6.078936625272036E-3   6.779809482395649E-3  
 2.644000000000000E10    5.750369746237993E-3  -7.271659560501576E-3  
 2.646000000000000E10   -8.044094778597355E-3  -5.320592317730188E-3  
 2.648000000000000E10   -4.193368833512068E-3   8.630411699414253E-3  
 2.650000000000000E10    9.172197431325913E-3   3.147608134895563E-3  
 2.652000000000000E10    1.415697741322219E-3  -9.678588248789311E-3  
 2.654000000000000E10   -1.063107047230005E-2   3.894166438840330E-4  
 2.656000000000000E10    1.123421825468540E-3   1.016547437757254E-2  
 2.658000000000000E10    9.050686843693256E-3  -2.727620070800185E-3  
 2.660000000000000E10   -4.826599732041359E-3  -8.594636805355549E-3  
 2.662000000000000E10   -8.235822431743145E-3   5.441660992801189E-3  
 2.664000000000000E10    6.267957389354706E-3   7.422033697366715E-3  
 2.666000000000000E10    6.301306188106537E-3  -7.438785396516323E-3  
 2.668000000000000E10   -8.392484858632088E-3  -5.055418238043785E-3  
 2.670000000000000E10   -4.221783485263586E-3   9.391410276293755E-3  
 2.672000000000000E10    9.114607237279415E-3   3.212784649804235E-3  
 2.674000000000000E10    1.516332733444870E-3  -9.279608726501465E-3  
 2.676000000000000E10   -1.025800686329603E-2  -3.435322287259623E-5  
 2.678000000000000E10    9.982970077544451E-4   1.008495222777128E-2  
 2.680000000000000E10    9.965967386960983E-3  -1.753066084347665E-3  
 2.682000000000000E10   -2.981326542794704E-3  -9.485926479101181E-3  
 2.684000000000000E10   -9.301496669650078E-3   4.447817336767912E-3  
 2.686000000000000E10    5.449568852782250E-3   8.928973227739334E-3  
 2.688000000000000E10    7.752567995339632E-3  -6.442064885050058E-3  
 2.690000000000000E10   -7.721967995166779E-3  -6.951241753995419E-3  
 2.692000000000000E10   -5.519795231521130E-3   8.784295059740543E-3  
 2.694000000000000E10    9.479655884206295E-3   4.143347498029470E-3  
 2.696000000000000E10    3.333340864628553E-3  -9.935022331774235E-3  
 2.698000000000000E10   -9.555804543197155E-3  -1.661422662436962E-3  
 2.700000000000000E10   -1.208870962727815E-4   1.005452126264572E-2  
 2.702000000000000E10    1.063901465386152E-2  -1.357506029307842E-3  
 2.704000000000000E10   -2.367264358326793E-3  -1.019653119146824E-2  
 2.706000000000000E10   -9.358746930956841E-3   3.773134434595704E-3  
 2.708000000000000E10    4.914403427392244E-3   9.205930866301060E-3  
 2.710000000000000E10    9.566228836774826E-3  -5.728788673877716E-3  
 2.712000000000000E10   -6.525548640638590E-3  -8.292621001601219E-3  
 2.714000000000000E10   -6.865429226309061E-3   7.427926175296307E-3  
 2.716000000000000E10    8.940712548792362E-3   6.214722059667110E-3  
 2.718000000000000E10    5.320043303072453E-3  -9.304089471697807E-3  
 2.720000000000000E10   -9.427971206605434E-3  -4.091332200914621E-3  
 2.722000000000000E10   -2.647126326337457E-3   9.886903688311577E-3  
 2.724000000000000E10    1.049031689763069E-2   1.093274913728237E-3  
 2.726000000000000E10    5.380976363085210E-4  -1.091266516596079E-2  
 2.728000000000000E10   -1.049849297851324E-2   8.384782122448087E-4  
 2.730000000000000E10    2.761337906122208E-3   1.036591641604900E-2  
 2.732000000000000E10    1.030502654612064E-2  -4.513542633503676E-3  
 2.734000000000000E10   -4.933846183121204E-3  -9.635547176003456E-3  
 2.736000000000000E10   -8.851352147758007E-3   6.352514959871769E-3  
 2.738000000000000E10    8.088766597211361E-3   7.791638839989901E-3  
 2.740000000000000E10    6.837455090135336E-3  -8.949109353125095E-3  
 2.742000000000000E10   -9.434439241886139E-3  -6.018858868628740E-3  
 2.744000000000000E10   -4.888141993433237E-3   9.683123789727688E-3  
 2.746000000000000E10    1.061006635427475E-2   3.628786187618971E-3  
 2.748000000000000E10    2.595950849354267E-3  -1.129954867064953E-2  
 2.750000000000000E10   -1.079043000936508E-2  -1.521918922662735E-3  
 2.752000000000000E10    7.119742076611146E-5   1.127548795193434E-2  
 2.754000000000000E10    1.099186390638351E-2  -1.163756474852562E-3  
 2.756000000000000E10   -2.753524575382471E-3  -1.089979056268930E-2  
