#  HZ   S   RI   R     50.00 
! Rohde & Schwarz ZVA40 4Ports - Version 3.90 - 1145.1110k42 SN: 100403
! Date: 2023-10-04 08:33:54
! Measurement: S12 
! 
 2.200000000000000E10   -2.869020402431488E-2   1.029143203049898E-2  
 2.202000000000000E10    1.428858656436205E-2   2.592530474066734E-2  
 2.204000000000000E10    2.511656470596790E-2  -1.654477603733540E-2  
 2.206000000000000E10   -1.923614367842674E-2  -2.378567121922970E-2  
 2.208000000000000E10   -2.014234289526939E-2   2.149749733507633E-2  
 2.210000000000000E10    2.361253648996353E-2   1.729638874530792E-2  
 2.212000000000000E10    1.498691458255053E-2  -2.470844984054565E-2  
 2.214000000000000E10   -2.611333876848221E-2  -1.219332031905651E-2  
 2.216000000000000E10   -9.325072169303894E-3   2.732369862496853E-2  
 2.218000000000000E10    2.721081487834454E-2   5.602235905826092E-3  
 2.220000000000000E10    3.543962957337499E-3  -2.784239500761032E-2  
 2.222000000000000E10   -2.865001745522022E-2  -7.317275740206242E-4  
 2.224000000000000E10    3.350595943629742E-3   2.848524972796440E-2  
 2.226000000000000E10    2.807367220520973E-2  -6.408219225704670E-3  
 2.228000000000000E10   -1.021458581089973E-2  -2.700320445001125E-2  
 2.230000000000000E10   -2.557090111076832E-2   1.288529485464096E-2  
 2.232000000000000E10    1.632684096693993E-2   2.387729100883007E-2  
 2.234000000000000E10    2.084160782396793E-2  -1.927304826676846E-2  
 2.236000000000000E10   -1.994830556213856E-2  -1.824886165559292E-2  
 2.238000000000000E10   -1.679176278412342E-2   2.138318307697773E-2  
 2.240000000000000E10    2.354697510600090E-2   1.468320749700069E-2  
 2.242000000000000E10    1.144326664507389E-2  -2.509655430912972E-2  
 2.244000000000000E10   -2.640444785356522E-2  -7.589608896523714E-3  
 2.246000000000000E10   -5.286512896418572E-3   2.654421515762806E-2  
 2.248000000000000E10    2.613183297216892E-2   2.720577176660299E-3  
 2.250000000000000E10   -7.000130135565996E-4  -2.652953565120697E-2  
 2.252000000000000E10   -2.602313086390495E-2   3.688201075419784E-3  
 2.254000000000000E10    6.173980887979269E-3   2.539568580687046E-2  
 2.256000000000000E10    2.461883053183556E-2  -8.557852357625961E-3  
 2.258000000000000E10   -1.148597616702318E-2  -2.301185205578804E-2  
 2.260000000000000E10   -2.201117388904095E-2   1.381974481046200E-2  
 2.262000000000000E10    1.513529103249311E-2   2.000612206757069E-2  
 2.264000000000000E10    1.806092448532581E-2  -1.652463339269161E-2  
 2.266000000000000E10   -1.987992227077484E-2  -1.651397906243801E-2  
 2.268000000000000E10   -1.403160765767098E-2   2.181026898324490E-2  
 2.270000000000000E10    2.170289121568203E-2   1.226609013974667E-2  
 2.272000000000000E10    1.032092701643705E-2  -2.264025434851646E-2  
 2.274000000000000E10   -2.381513826549053E-2  -7.357961963862181E-3  
 2.276000000000000E10   -4.124190658330917E-3   2.546115778386593E-2  
 2.278000000000000E10    2.477383986115456E-2   1.337587018497288E-3  
 2.280000000000000E10   -1.965180970728397E-3  -2.388742938637734E-2  
 2.282000000000000E10   -2.122314460575581E-2  -9.141212329268456E-3  
 2.284000000000000E10    6.985804531723261E-3   2.202552184462547E-2  
 2.286000000000000E10    2.149440720677376E-2  -9.394854307174683E-3  
 2.288000000000000E10   -1.081119291484356E-2  -1.969779841601849E-2  
 2.290000000000000E10   -1.837631687521935E-2   1.360378041863442E-2  
 2.292000000000000E10    1.586429215967655E-2   1.726497337222099E-2  
 2.294000000000000E10    1.523031480610371E-2  -1.756233535706997E-2  
 2.296000000000000E10   -1.913427375257015E-2  -1.306354627013207E-2  
 2.298000000000000E10   -1.102378778159618E-2   1.960716210305691E-2  
 2.300000000000000E10    2.112377248704433E-2   8.753162808716297E-3  
 2.302000000000000E10    6.611878052353859E-3  -2.236721292138100E-2  
 2.304000000000000E10   -2.203971706330776E-2  -4.134803544729948E-3  
 2.306000000000000E10   -1.061103539541364E-3   2.165187709033489E-2  
 2.308000000000000E10    2.216839790344238E-2  -1.442978391423821E-3  
 2.310000000000000E10   -3.804631764069200E-3  -2.176367118954659E-2  
 2.312000000000000E10   -2.062139660120010E-2   7.023994345217943E-3  
 2.314000000000000E10    9.345623664557934E-3   1.911713741719723E-2  
 2.316000000000000E10    1.777386292815208E-2  -1.126517448574305E-2  
 2.318000000000000E10   -1.391804125159979E-2  -1.615118794143200E-2  
 2.320000000000000E10   -1.403905730694532E-2   1.541867852210999E-2  
 2.322000000000000E10    1.601915992796421E-2   1.237684115767479E-2  
 2.324000000000000E10    1.074983272701502E-2  -1.758704148232937E-2  
 2.326000000000000E10   -1.868221908807755E-2  -9.058889001607895E-3  
 2.328000000000000E10   -6.787827238440514E-3   1.984944939613342E-2  
 2.330000000000000E10    2.011307701468468E-2   4.170501604676247E-3  
 2.332000000000000E10    1.672410522587597E-3  -1.949167624115944E-2  
 2.334000000000000E10   -2.008315362036228E-2   2.704730723053217E-4  
 2.336000000000000E10    2.313981531187892E-3   1.958234794437885E-2  
 2.338000000000000E10    1.920424401760101E-2  -5.024377722293139E-3  
 2.340000000000000E10   -7.335742469877005E-3  -1.818045973777771E-2  
 2.342000000000000E10   -1.697248779237270E-2   9.651641361415386E-3  
 2.344000000000000E10    1.185631006956101E-2   1.572946645319462E-2  
 2.346000000000000E10    1.344149000942707E-2  -1.296576205641031E-2  
 2.348000000000000E10   -1.441837381571531E-2  -1.128406077623367E-2  
 2.350000000000000E10   -1.014287676662207E-2   1.578909531235695E-2  
 2.352000000000000E10    1.660076342523098E-2   7.554986979812384E-3  
 2.354000000000000E10    5.206586327403784E-3  -1.766362041234970E-2  
 2.356000000000000E10   -1.785105094313622E-2  -3.319672076031566E-3  
 2.358000000000000E10   -7.941689691506326E-4   1.766795478761196E-2  
 2.360000000000000E10    1.774245500564575E-2  -6.333298515528441E-4  
 2.362000000000000E10   -3.134198952466250E-3  -1.751917041838169E-2  
 2.364000000000000E10   -1.670996472239494E-2   5.555154755711556E-3  
 2.366000000000000E10    6.617258768528700E-3   1.517821941524744E-2  
 2.368000000000000E10    1.378174871206284E-2  -7.685102988034487E-3  
 2.370000000000000E10   -9.329900145530701E-3  -1.287315040826798E-2  
 2.372000000000000E10   -1.104809343814850E-2   1.031375117599964E-2  
 2.374000000000000E10    1.116165518760681E-2   9.427817538380623E-3  
 2.376000000000000E10    7.379838265478611E-3  -1.202975586056709E-2  
 2.378000000000000E10   -1.338745094835758E-2  -5.556264426559210E-3  
 2.380000000000000E10   -4.304962698370218E-3   1.406961213797331E-2  
 2.382000000000000E10    1.453126966953278E-2   2.380865626037121E-3  
 2.384000000000000E10    3.216764016542584E-4  -1.492848712950945E-2  
 2.386000000000000E10   -1.469505950808525E-2   7.718700217083097E-4  
 2.388000000000000E10    2.426974708214402E-3   1.426458265632391E-2  
 2.390000000000000E10    1.420406997203827E-2  -3.787583438679576E-3  
 2.392000000000000E10   -4.993064329028130E-3  -1.336258649826050E-2  
 2.394000000000000E10   -1.209941599518061E-2   6.146924104541540E-3  
 2.396000000000000E10    6.732396315783262E-3   1.120440009981394E-2  
 2.398000000000000E10    9.745671413838863E-3  -7.732187397778034E-3  
 2.400000000000000E10   -8.772740140557289E-3  -8.330957964062691E-3  
 2.402000000000000E10   -5.187947768718004E-3   9.119929745793343E-3  
 2.404000000000000E10    9.602965787053108E-3   3.827211679890752E-3  
 2.406000000000000E10    2.915647579357028E-3  -1.000786852091551E-2  
 2.408000000000000E10   -9.770486503839493E-3  -1.671803300268948E-3  
 2.410000000000000E10   -2.466228906996548E-4   1.028853282332420E-2  
 2.412000000000000E10    1.078467257320881E-2  -3.685785632114857E-4  
 2.414000000000000E10   -7.173265330493450E-4  -1.032494194805622E-2  
 2.416000000000000E10   -1.019817031919956E-2   2.114746253937483E-3  
 2.418000000000000E10    3.065083175897598E-3   1.001643855124712E-2  
 2.420000000000000E10    9.768570773303509E-3  -4.280350171029568E-3  
 2.422000000000000E10   -4.496392793953419E-3  -9.570104070007801E-3  
 2.424000000000000E10   -8.583266288042069E-3   5.022196099162102E-3  
 2.426000000000000E10    6.214576307684183E-3   8.277053013443947E-3  
 2.428000000000000E10    8.181488141417503E-3  -6.671528331935406E-3  
 2.430000000000000E10   -6.978835444897413E-3  -7.310098968446255E-3  
 2.432000000000000E10   -5.935635417699814E-3   7.843485102057457E-3  
 2.434000000000000E10    7.951199077069759E-3   4.770444706082344E-3  
 2.436000000000000E10    3.649348858743906E-3  -8.627267554402351E-3  
 2.438000000000000E10   -7.868238724768162E-3  -2.981564728543162E-3  
 2.440000000000000E10   -1.922995550557971E-3   7.987620308995247E-3  
 2.442000000000000E10    7.985378615558147E-3   6.295134662650526E-4  
 2.444000000000000E10    2.194958651671186E-4  -7.733222097158432E-3  
 2.446000000000000E10   -7.607175037264824E-3   1.205274253152311E-3  
 2.448000000000000E10    2.029533963650465E-3   7.727295160293579E-3  
 2.450000000000000E10    7.195510435849428E-3  -2.303652698174119E-3  
 2.452000000000000E10   -3.710879478603602E-3  -7.220037747174501E-3  
 2.454000000000000E10   -6.836214568465948E-3   4.045577254146338E-3  
 2.456000000000000E10    4.302876070141792E-3   6.747516337782145E-3  
 2.458000000000000E10    7.377078291028738E-3  -5.169569514691830E-3  
 2.460000000000000E10   -5.291146226227284E-3  -6.410236936062574E-3  
 2.462000000000000E10   -5.673300940543413E-3   6.206053774803877E-3  
 2.464000000000000E10    6.354359909892082E-3   5.756565369665623E-3  
 2.466000000000000E10    5.348491482436657E-3  -6.269140169024468E-3  
 2.468000000000000E10   -7.055854424834251E-3  -4.390724468976259E-3  
 2.470000000000000E10   -3.384492592886090E-3   7.399098016321659E-3  
 2.472000000000000E10    6.833001505583525E-3   1.667878474108875E-3  
 2.474000000000000E10    1.034801360219717E-3  -7.213377859443426E-3  
 2.476000000000000E10   -7.034885697066784E-3  -7.843424100428820E-4  
 2.478000000000000E10    1.076399814337492E-3   6.345618516206741E-3  
 2.480000000000000E10    7.136715110391378E-3  -1.526278909295797E-3  
 2.482000000000000E10   -1.664517098106444E-3  -7.067042868584395E-3  
 2.484000000000000E10   -6.836751475930214E-3   2.840893575921655E-3  
 2.486000000000000E10    3.884688951075077E-3   7.206941954791546E-3  
 2.488000000000000E10    6.231692153960466E-3  -4.746324848383665E-3  
 2.490000000000000E10   -4.945501219481230E-3  -5.808365065604448E-3  
 2.492000000000000E10   -5.258016288280487E-3   5.589632783085108E-3  
 2.494000000000000E10    6.430507637560368E-3   4.409029148519039E-3  
 2.496000000000000E10    4.249196965247393E-3  -6.595112383365631E-3  
 2.498000000000000E10   -6.281989626586437E-3  -3.149755764752626E-3  
 2.500000000000000E10   -2.440722659230232E-3   6.483040284365416E-3  
 2.502000000000000E10    7.268887013196945E-3   1.783948740921915E-3  
 2.504000000000000E10    1.105212024413049E-3  -6.847314070910215E-3  
 2.506000000000000E10   -6.386158056557179E-3  -8.553082589060068E-4  
 2.508000000000000E10   -3.549986868165433E-4   6.332478486001492E-3  
 2.510000000000000E10    6.518159992992878E-3  -5.144046153873205E-4  
 2.512000000000000E10   -6.124432547949255E-4  -7.450974080711603E-3  
 2.514000000000000E10   -7.247781381011009E-3   1.865065540187061E-3  
 2.516000000000000E10    3.670643316581845E-3   7.180774118751288E-3  
 2.518000000000000E10    6.804918870329857E-3  -4.192316904664040E-3  
 2.520000000000000E10   -5.477463360875845E-3  -6.136199459433556E-3  
 2.522000000000000E10   -5.198589526116848E-3   5.925427656620741E-3  
 2.524000000000000E10    6.132760085165501E-3   4.358530044555664E-3  
 2.526000000000000E10    4.117142409086227E-3  -7.058097515255213E-3  
 2.528000000000000E10   -6.765458267182112E-3  -3.238558070734143E-3  
 2.530000000000000E10   -2.289779018610716E-3   7.527316454797983E-3  
 2.532000000000000E10    7.565773557871580E-3   1.757494173943996E-3  
 2.534000000000000E10    9.612163412384689E-4  -8.010694757103920E-3  
 2.536000000000000E10   -7.581442128866911E-3   7.717628614045680E-4  
 2.538000000000000E10    1.005088211968541E-3   7.610071916133165E-3  
 2.540000000000000E10    7.160877343267202E-3  -2.051460556685925E-3  
 2.542000000000000E10   -2.848407486453652E-3  -7.089763879776001E-3  
 2.544000000000000E10   -7.098181173205376E-3   4.031163640320301E-3  
 2.546000000000000E10    4.834651015698910E-3   6.394206546247006E-3  
 2.548000000000000E10    5.824828054755926E-3  -6.064434070140123E-3  
 2.550000000000000E10   -7.206878159195185E-3  -4.864753689616919E-3  
 2.552000000000000E10   -3.635049797594547E-3   7.754224352538586E-3  
 2.554000000000000E10    7.791671436280012E-3   2.764912322163582E-3  
 2.556000000000000E10    9.745120769366622E-4  -7.846914231777191E-3  
 2.558000000000000E10   -8.488624356687069E-3  -4.464142548386008E-4  
 2.560000000000000E10    5.889788153581321E-4   8.293704129755497E-3  
 2.562000000000000E10    7.680492009967566E-3  -1.261511584743857E-3  
 2.564000000000000E10   -2.176422858610749E-3  -7.848210632801056E-3  
 2.566000000000000E10   -7.711062207818031E-3   3.623262280598283E-3  
 2.568000000000000E10    4.768443293869495E-3   8.002581074833870E-3  
 2.570000000000000E10    6.794937420636416E-3  -5.302123725414276E-3  
 2.572000000000000E10   -6.534993648529053E-3  -5.107522010803223E-3  
 2.574000000000000E10   -5.256183445453644E-3   7.413858547806740E-3  
 2.576000000000000E10    7.566621992737055E-3   4.702675156295300E-3  
 2.578000000000000E10    2.467943355441093E-3  -8.019953966140747E-3  
 2.580000000000000E10   -8.350335061550140E-3  -1.311247935518622E-3  
 2.582000000000000E10   -4.045907990075648E-4   8.498470298945904E-3  
 2.584000000000000E10    8.624090813100338E-3  -6.570467958226800E-4  
 2.586000000000000E10   -1.812544302083552E-3  -8.099352940917015E-3  
 2.588000000000000E10   -7.216041442006826E-3   3.962002694606781E-3  
 2.590000000000000E10    4.218091722577810E-3   7.054166402667761E-3  
 2.592000000000000E10    7.300818804651499E-3  -4.333217162638903E-3  
 2.594000000000000E10   -5.506279412657023E-3  -6.046037655323744E-3  
 2.596000000000000E10   -6.101032253354788E-3   6.279668770730496E-3  
 2.598000000000000E10    7.054027169942856E-3   5.686679854989052E-3  
 2.600000000000000E10    4.867575597018004E-3  -8.207705803215504E-3  
 2.602000000000000E10   -8.753858506679535E-3  -3.654518863186240E-3  
 2.604000000000000E10   -1.462428364902735E-3   9.564906358718872E-3  
 2.606000000000000E10    1.001455448567867E-2   7.215306395664811E-4  
 2.608000000000000E10    1.036994653986767E-4  -8.812044747173786E-3  
 2.610000000000000E10   -8.620554581284523E-3   1.864074845798314E-3  
 2.612000000000000E10    2.948335139080882E-3   8.760401047766209E-3  
 2.614000000000000E10    8.083816617727280E-3  -4.071283154189587E-3  
 2.616000000000000E10   -4.583992063999176E-3  -7.642217911779881E-3  
 2.618000000000000E10   -6.466349121183157E-3   5.314906593412161E-3  
 2.620000000000000E10    7.282757200300694E-3   5.323702003806830E-3  
 2.622000000000000E10    5.527877248823643E-3  -7.688609417527914E-3  
 2.624000000000000E10   -7.565233390778303E-3  -3.885944839566946E-3  
 2.626000000000000E10   -2.828878816217184E-3   8.859241381287575E-3  
 2.628000000000000E10    9.338160976767540E-3   2.250270685181022E-3  
 2.630000000000000E10    4.602790868375450E-4  -9.419234469532967E-3  
 2.632000000000000E10   -9.754053317010403E-3   7.150101009756327E-4  
 2.634000000000000E10    2.051247050985694E-3   9.141263552010059E-3  
 2.636000000000000E10    8.806844241917133E-3  -3.956156782805920E-3  
 2.638000000000000E10   -4.672091919928789E-3  -8.716154843568802E-3  
 2.640000000000000E10   -7.219097577035427E-3   5.489144474267960E-3  
 2.642000000000000E10    6.657872349023819E-3   6.341995205730200E-3  
 2.644000000000000E10    5.609516054391861E-3  -7.146511226892471E-3  
 2.646000000000000E10   -7.774566765874624E-3  -4.328058566898108E-3  
 2.648000000000000E10   -3.537428798153997E-3   8.376378566026688E-3  
 2.650000000000000E10    8.451609872281551E-3   2.390362322330475E-3  
 2.652000000000000E10    7.648621103726327E-4  -9.320295415818691E-3  
 2.654000000000000E10   -9.795134887099266E-3   2.374956675339490E-4  
 2.656000000000000E10    1.987068913877010E-3   8.966811932623386E-3  
 2.658000000000000E10    9.033633396029472E-3  -3.330141538754106E-3  
 2.660000000000000E10   -4.848355427384377E-3  -8.874770253896713E-3  
 2.662000000000000E10   -7.593996822834015E-3   5.641499999910593E-3  
 2.664000000000000E10    6.500313524156809E-3   7.197257596999407E-3  
 2.666000000000000E10    5.918737966567278E-3  -7.583212573081255E-3  
 2.668000000000000E10   -8.601770736277103E-3  -4.480321891605854E-3  
 2.670000000000000E10   -4.239256959408522E-3   8.910804986953735E-3  
 2.672000000000000E10    8.131461217999458E-3   2.229007892310619E-3  
 2.674000000000000E10    8.993813535198569E-4  -9.167646057903767E-3  
 2.676000000000000E10   -9.451484307646751E-3  -4.725867183879018E-4  
 2.678000000000000E10    8.313118014484644E-4   8.937413804233074E-3  
 2.680000000000000E10    9.391892701387405E-3  -1.799148158170283E-3  
 2.682000000000000E10   -3.293520305305719E-3  -8.805328048765659E-3  
 2.684000000000000E10   -8.934633806347847E-3   5.082005634903908E-3  
 2.686000000000000E10    5.792283453047276E-3   8.366504684090614E-3  
 2.688000000000000E10    6.232194602489471E-3  -6.719724275171757E-3  
 2.690000000000000E10   -8.424161933362484E-3  -5.873925518244505E-3  
 2.692000000000000E10   -4.932966083288193E-3   9.009991772472858E-3  
 2.694000000000000E10    9.289069101214409E-3   3.764204448089004E-3  
 2.696000000000000E10    2.444938756525517E-3  -9.601088240742683E-3  
 2.698000000000000E10   -9.509311057627201E-3  -1.108320080675185E-3  
 2.700000000000000E10    4.088818968739361E-5   1.048411149531603E-2  
 2.702000000000000E10    9.911544620990753E-3  -1.180204562842846E-3  
 2.704000000000000E10   -2.847213530912995E-3  -8.971439674496651E-3  
 2.706000000000000E10   -9.025867097079754E-3   4.268864169716835E-3  
 2.708000000000000E10    4.659974481910467E-3   8.715344592928886E-3  
 2.710000000000000E10    7.758321240544319E-3  -5.402965471148491E-3  
 2.712000000000000E10   -6.950518116354942E-3  -7.010503206402063E-3  
 2.714000000000000E10   -6.293542217463255E-3   7.917388342320919E-3  
 2.716000000000000E10    8.671980351209641E-3   5.460066255182028E-3  
 2.718000000000000E10    4.391665104776621E-3  -8.752300404012203E-3  
 2.720000000000000E10   -9.928675368428230E-3  -3.353710984811187E-3  
 2.722000000000000E10   -1.867432845756412E-3   1.038429234176874E-2  
 2.724000000000000E10    1.011560857295990E-2   1.064688432961702E-3  
 2.726000000000000E10   -5.182868917472661E-4  -1.009036228060722E-2  
 2.728000000000000E10   -9.883069433271885E-3   2.605980029329658E-3  
 2.730000000000000E10    3.685483476147056E-3   1.029283460229635E-2  
 2.732000000000000E10    9.323759004473686E-3  -4.596611484885216E-3  
 2.734000000000000E10   -5.781603511422873E-3  -8.800243027508259E-3  
 2.736000000000000E10   -8.474571630358696E-3   6.959062069654465E-3  
 2.738000000000000E10    8.195088244974613E-3   7.558863610029221E-3  
 2.740000000000000E10    6.563041824847460E-3  -8.811417035758495E-3  
 2.742000000000000E10   -9.416130371391773E-3  -5.410484969615936E-3  
 2.744000000000000E10   -3.988657146692276E-3   9.879045188426971E-3  
 2.746000000000000E10    1.069934759289026E-2   3.292090492323041E-3  
 2.748000000000000E10    1.410347409546375E-3  -1.076096016913652E-2  
 2.750000000000000E10   -1.043244823813438E-2  -2.918201971624512E-5  
 2.752000000000000E10    9.581047925166786E-4   1.020196732133627E-2  
 2.754000000000000E10    1.037869323045015E-2  -2.498253481462598E-3  
 2.756000000000000E10   -3.778561251237989E-3  -9.783179499208927E-3  
