#  HZ   S   RI   R     50.00 
! Rohde & Schwarz ZVA40 4Ports - Version 3.90 - 1145.1110k42 SN: 100403
! Date: 2023-10-04 08:34:59
! Measurement: S12 
! 
 2.200000000000000E10   -2.979596704244614E-2   1.976532163098455E-3  
 2.202000000000000E10    5.280640441924334E-3   2.890001237392426E-2  
 2.204000000000000E10    2.836848609149456E-2  -8.702907711267471E-3  
 2.206000000000000E10   -1.287516392767429E-2  -2.688693441450596E-2  
 2.208000000000000E10   -2.456471696496010E-2   1.566023193299770E-2  
 2.210000000000000E10    1.777299121022224E-2   2.236363291740418E-2  
 2.212000000000000E10    1.959725283086300E-2  -1.976975053548813E-2  
 2.214000000000000E10   -2.192055247724056E-2  -1.764862984418869E-2  
 2.216000000000000E10   -1.565633155405521E-2   2.362648583948612E-2  
 2.218000000000000E10    2.473759092390537E-2   1.294702570885420E-2  
 2.220000000000000E10    1.062178611755371E-2  -2.611608430743218E-2  
 2.222000000000000E10   -2.739239111542702E-2  -8.269927464425564E-3  
 2.224000000000000E10   -4.527872893959284E-3   2.860568277537823E-2  
 2.226000000000000E10    2.933193556964397E-2   1.040678354911506E-3  
 2.228000000000000E10   -1.832356676459312E-3  -2.808455377817154E-2  
 2.230000000000000E10   -2.760271728038788E-2   5.722863599658012E-3  
 2.232000000000000E10    8.339232765138149E-3   2.737342752516270E-2  
 2.234000000000000E10    2.537387982010841E-2  -1.215115748345852E-2  
 2.236000000000000E10   -1.455562096089125E-2  -2.303691022098064E-2  
 2.238000000000000E10   -2.137999050319195E-2   1.605259813368321E-2  
 2.240000000000000E10    1.960521377623081E-2   1.956538110971451E-2  
 2.242000000000000E10    1.691704243421555E-2  -2.234114147722721E-2  
 2.244000000000000E10   -2.255271188914776E-2  -1.372094918042421E-2  
 2.246000000000000E10   -1.078819483518601E-2   2.365854755043984E-2  
 2.248000000000000E10    2.509624697268009E-2   9.122666902840138E-3  
 2.250000000000000E10    6.694196257740259E-3  -2.619525790214539E-2  
 2.252000000000000E10   -2.603300474584103E-2  -3.094654297456145E-3  
 2.254000000000000E10   -9.776426013559103E-4   2.592724189162254E-2  
 2.256000000000000E10    2.652143500745297E-2  -2.211248502135277E-3  
 2.258000000000000E10   -4.930804949253798E-3  -2.615230344235897E-2  
 2.260000000000000E10   -2.475971542298794E-2   6.379083264619112E-3  
 2.262000000000000E10    1.012229453772306E-2   2.330621331930161E-2  
 2.264000000000000E10    2.271938323974609E-2  -1.169389300048351E-2  
 2.266000000000000E10   -1.453518215566874E-2  -2.150720916688442E-2  
 2.268000000000000E10   -1.823013834655285E-2   1.695839688181877E-2  
 2.270000000000000E10    1.858733780682087E-2   1.651401817798615E-2  
 2.272000000000000E10    1.525114011019468E-2  -1.990012824535370E-2  
 2.274000000000000E10   -2.116662636399269E-2  -1.293088123202324E-2  
 2.276000000000000E10   -9.420158341526985E-3   2.245698869228363E-2  
 2.278000000000000E10    2.428839541971684E-2   6.397692486643791E-3  
 2.280000000000000E10    4.087068140506744E-3  -2.407670021057129E-2  
 2.282000000000000E10   -1.772428303956986E-2  -1.488952059298754E-2  
 2.284000000000000E10    1.100972993299365E-3   2.348868548870087E-2  
 2.286000000000000E10    2.359615638852119E-2  -3.664886113256216E-3  
 2.288000000000000E10   -5.807116162031889E-3  -2.292782813310623E-2  
 2.290000000000000E10   -2.155246026813984E-2   8.574258536100388E-3  
 2.292000000000000E10    1.143886335194111E-2   2.004849724471569E-2  
 2.294000000000000E10    1.871769502758980E-2  -1.365622412413359E-2  
 2.296000000000000E10   -1.510995719581842E-2  -1.661929301917553E-2  
 2.298000000000000E10   -1.485313195735216E-2   1.627815142273903E-2  
 2.300000000000000E10    1.847927458584309E-2   1.327107753604651E-2  
 2.302000000000000E10    1.067678630352020E-2  -1.994497701525688E-2  
 2.304000000000000E10   -2.053957991302013E-2  -8.544578216969967E-3  
 2.306000000000000E10   -6.132401525974274E-3   2.105280943214893E-2  
 2.308000000000000E10    2.192937210202217E-2   3.805155865848064E-3  
 2.310000000000000E10    1.015349873341620E-3  -2.267320081591606E-2  
 2.312000000000000E10   -2.164764888584614E-2   1.987636554986239E-3  
 2.314000000000000E10    4.684535786509514E-3   2.080263383686543E-2  
 2.316000000000000E10    2.049716748297215E-2  -7.007341366261244E-3  
 2.318000000000000E10   -9.564606472849846E-3  -1.922736316919327E-2  
 2.320000000000000E10   -1.705952733755112E-2   1.156372856348753E-2  
 2.322000000000000E10    1.331859454512596E-2   1.580039039254189E-2  
 2.324000000000000E10    1.454004459083080E-2  -1.478664856404066E-2  
 2.326000000000000E10   -1.642352901399136E-2  -1.226925291121006E-2  
 2.328000000000000E10   -1.027046702802181E-2   1.756542362272739E-2  
 2.330000000000000E10    1.833605021238327E-2   7.682492956519127E-3  
 2.332000000000000E10    5.070689134299755E-3  -1.858454570174217E-2  
 2.334000000000000E10   -1.862647570669651E-2  -3.183047752827406E-3  
 2.336000000000000E10   -1.329185906797648E-3   1.909087225794792E-2  
 2.338000000000000E10    1.957039348781109E-2  -1.041884766891599E-3  
 2.340000000000000E10   -3.935289569199085E-3  -1.868789084255695E-2  
 2.342000000000000E10   -1.815779507160187E-2   6.705044768750668E-3  
 2.344000000000000E10    8.375219069421291E-3   1.787344552576542E-2  
 2.346000000000000E10    1.609406806528568E-2  -9.936021640896797E-3  
 2.348000000000000E10   -1.196581311523914E-2  -1.376200001686811E-2  
 2.350000000000000E10   -1.326170191168785E-2   1.305385120213032E-2  
 2.352000000000000E10    1.501427218317986E-2   1.155456993728876E-2  
 2.354000000000000E10    8.986834436655045E-3  -1.636523753404617E-2  
 2.356000000000000E10   -1.636022515594959E-2  -6.348892115056515E-3  
 2.358000000000000E10   -3.649536520242691E-3   1.676635630428791E-2  
 2.360000000000000E10    1.686045899987221E-2   2.046549925580621E-3  
 2.362000000000000E10   -1.048047270160168E-4  -1.633517257869244E-2  
 2.364000000000000E10   -1.588747650384903E-2   3.019939875230193E-3  
 2.366000000000000E10    4.176447167992592E-3   1.561597734689713E-2  
 2.368000000000000E10    1.455487217754126E-2  -5.745925940573216E-3  
 2.370000000000000E10   -7.931061089038849E-3  -1.414510048925877E-2  
 2.372000000000000E10   -1.282269880175591E-2   9.273933246731758E-3  
 2.374000000000000E10    1.116888877004385E-2   1.115658320486546E-2  
 2.376000000000000E10    1.035788096487522E-2  -1.147758960723877E-2  
 2.378000000000000E10   -1.211647037416697E-2  -8.373037911951542E-3  
 2.380000000000000E10   -6.894076708704233E-3   1.340412348508835E-2  
 2.382000000000000E10    1.361842080950737E-2   5.205313675105572E-3  
 2.384000000000000E10    3.052341286092997E-3  -1.346086151897907E-2  
 2.386000000000000E10   -1.382016297429800E-2  -1.828505424782634E-3  
 2.388000000000000E10    1.154685960500501E-4   1.259758695960045E-2  
 2.390000000000000E10    1.215965580195189E-2  -2.229416277259588E-3  
 2.392000000000000E10   -3.307469421997666E-3  -1.219923701137304E-2  
 2.394000000000000E10   -1.058503519743681E-2   4.325522109866142E-3  
 2.396000000000000E10    6.119271274656057E-3   1.020716316998005E-2  
 2.398000000000000E10    9.692225605249405E-3  -6.479068659245968E-3  
 2.400000000000000E10   -7.924540899693966E-3  -8.059986867010593E-3  
 2.402000000000000E10   -5.778496153652668E-3   9.571265429258347E-3  
 2.404000000000000E10    9.242449887096882E-3   4.969497211277485E-3  
 2.406000000000000E10    3.947754856199026E-3  -9.776884689927101E-3  
 2.408000000000000E10   -9.936267510056496E-3  -3.072137944400311E-3  
 2.410000000000000E10   -1.460907165892422E-3   9.851345792412758E-3  
 2.412000000000000E10    1.029596477746964E-2   9.098635637201369E-4  
 2.414000000000000E10    7.409859099425376E-4  -1.007677707821131E-2  
 2.416000000000000E10   -9.291217662394047E-3   6.218576454557478E-4  
 2.418000000000000E10    1.834447146393359E-3   9.329431690275669E-3  
 2.420000000000000E10    8.815359324216843E-3  -1.909706974402070E-3  
 2.422000000000000E10   -2.052220050245524E-3  -8.288975805044174E-3  
 2.424000000000000E10   -7.751145400106907E-3   2.827048301696777E-3  
 2.426000000000000E10    3.888849401846528E-3   6.941840983927250E-3  
 2.428000000000000E10    7.225953508168459E-3  -4.541780799627304E-3  
 2.430000000000000E10   -4.621077794581652E-3  -6.117980927228928E-3  
 2.432000000000000E10   -4.831138998270035E-3   5.347239319235086E-3  
 2.434000000000000E10    6.488550920039415E-3   4.696670919656754E-3  
 2.436000000000000E10    3.412947757169604E-3  -6.974666845053434E-3  
 2.438000000000000E10   -6.879074499011040E-3  -2.559079788625240E-3  
 2.440000000000000E10   -1.667795702815056E-3   7.372681051492691E-3  
 2.442000000000000E10    7.795605808496475E-3   7.718754350207746E-4  
 2.444000000000000E10    4.237770917825401E-4  -8.122525177896023E-3  
 2.446000000000000E10   -7.183143869042397E-3  -9.324605343863368E-5  
 2.448000000000000E10    9.432011866010726E-4   7.183125242590904E-3  
 2.450000000000000E10    7.371902000159025E-3  -8.907634764909744E-4  
 2.452000000000000E10   -1.404875307343900E-3  -6.263587623834610E-3  
 2.454000000000000E10   -5.959346890449524E-3   1.782932318747044E-3  
 2.456000000000000E10    1.561295473948121E-3   6.318503059446812E-3  
 2.458000000000000E10    5.776121746748686E-3  -2.565066330134869E-3  
 2.460000000000000E10   -3.497313009575009E-3  -5.485710222274065E-3  
 2.462000000000000E10   -5.130789708346129E-3   3.578303148970008E-3  
 2.464000000000000E10    4.662532359361649E-3   4.189152270555496E-3  
 2.466000000000000E10    3.595551941543818E-3  -5.013726651668549E-3  
 2.468000000000000E10   -4.766898695379496E-3  -2.844572765752673E-3  
 2.470000000000000E10   -2.157720271497965E-3   5.917096976190805E-3  
 2.472000000000000E10    5.225972272455692E-3   2.244611037895083E-3  
 2.474000000000000E10    9.931920794770122E-4  -4.853975027799606E-3  
 2.476000000000000E10   -6.170408334583044E-3  -5.191144882701337E-4  
 2.478000000000000E10   -9.057084680534899E-4   5.787612404674292E-3  
 2.480000000000000E10    5.447379313409329E-3  -8.347881521331146E-5  
 2.482000000000000E10   -4.827723314519972E-4  -5.943492054939270E-3  
 2.484000000000000E10   -5.870548076927662E-3   9.858646662905812E-4  
 2.486000000000000E10    2.144652418792248E-3   5.764622706919909E-3  
 2.488000000000000E10    4.924273118376732E-3  -2.587455091997981E-3  
 2.490000000000000E10   -2.849774435162544E-3  -4.712881986051798E-3  
 2.492000000000000E10   -4.990591667592526E-3   3.334551583975554E-3  
 2.494000000000000E10    3.349511651322246E-3   4.518067464232445E-3  
 2.496000000000000E10    3.379495348781347E-3  -4.347443580627441E-3  
 2.498000000000000E10   -4.606009926646948E-3  -3.353231120854616E-3  
 2.500000000000000E10   -2.604538109153509E-3   4.292580299079418E-3  
 2.502000000000000E10    4.476641304790974E-3   1.964138355106115E-3  
 2.504000000000000E10    1.606806064955890E-3  -4.896986763924360E-3  
 2.506000000000000E10   -4.550710786134005E-3  -1.113981707021594E-3  
 2.508000000000000E10   -1.041616429574788E-3   4.803571384400129E-3  
 2.510000000000000E10    4.781575407832861E-3   1.223596860654652E-3  
 2.512000000000000E10   -2.864275011233985E-4  -5.486049689352512E-3  
 2.514000000000000E10   -5.860740318894386E-3   1.871708809630945E-4  
 2.516000000000000E10    7.627175655215979E-4   5.457545164972544E-3  
 2.518000000000000E10    5.766910035163164E-3  -2.136065624654293E-3  
 2.520000000000000E10   -2.792149316519499E-3  -5.921839736402035E-3  
 2.522000000000000E10   -5.073142703622580E-3   3.247049637138844E-3  
 2.524000000000000E10    3.723900299519301E-3   4.123992752283812E-3  
 2.526000000000000E10    3.922437783330679E-3  -3.947734367102385E-3  
 2.528000000000000E10   -4.579251632094383E-3  -2.905521774664521E-3  
 2.530000000000000E10   -3.033576067537069E-3   4.814606625586748E-3  
 2.532000000000000E10    4.775701556354761E-3   2.189491642639041E-3  
 2.534000000000000E10    1.084694056771696E-3  -5.478681065142155E-3  
 2.536000000000000E10   -5.275748670101166E-3  -1.028300845064223E-3  
 2.538000000000000E10   -4.690836649388075E-4   5.386020056903362E-3  
 2.540000000000000E10    5.825283937156200E-3  -4.391136826598086E-6  
 2.542000000000000E10   -7.168861338868737E-4  -5.991683341562748E-3  
 2.544000000000000E10   -5.819564685225487E-3   1.723423367366195E-3  
 2.546000000000000E10    2.328573958948255E-3   5.968998186290264E-3  
 2.548000000000000E10    5.431458819657564E-3  -3.650131402537227E-3  
 2.550000000000000E10   -4.354827105998993E-3  -5.197396036237478E-3  
 2.552000000000000E10   -3.917597699910402E-3   4.881097469478846E-3  
 2.554000000000000E10    5.215646699070931E-3   2.823414513841271E-3  
 2.556000000000000E10    2.666216576471925E-3  -5.284778308123350E-3  
 2.558000000000000E10   -5.398803390562534E-3  -1.677989377640188E-3  
 2.560000000000000E10   -1.064451644197106E-3   5.705846007913351E-3  
 2.562000000000000E10    5.885218270123005E-3   5.323421210050583E-4  
 2.564000000000000E10    3.216026016161777E-5  -5.806733388453722E-3  
 2.566000000000000E10   -6.442272569984198E-3   3.046319470740855E-4  
 2.568000000000000E10    1.173141412436962E-3   6.277329754084349E-3  
 2.570000000000000E10    5.913581699132919E-3  -2.755436347797513E-3  
 2.572000000000000E10   -3.360095201060176E-3  -5.336631555110216E-3  
 2.574000000000000E10   -4.650539718568325E-3   3.999391105026007E-3  
 2.576000000000000E10    5.189258139580488E-3   4.364926833659411E-3  
 2.578000000000000E10    3.124758368358016E-3  -5.410878919064999E-3  
 2.580000000000000E10   -6.244904361665249E-3  -2.318913117051125E-3  
 2.582000000000000E10   -1.953309401869774E-3   6.619614548981190E-3  
 2.584000000000000E10    6.074203643947840E-3   3.423825546633452E-4  
 2.586000000000000E10   -5.267216474749148E-4  -6.628331728279591E-3  
 2.588000000000000E10   -6.142989266663790E-3   1.150360214523971E-3  
 2.590000000000000E10    1.601879019290209E-3   5.405703093856573E-3  
 2.592000000000000E10    6.217977032065392E-3  -1.849430380389094E-3  
 2.594000000000000E10   -1.850628177635372E-3  -5.656979046761990E-3  
 2.596000000000000E10   -5.973806604743004E-3   3.413181751966476E-3  
 2.598000000000000E10    3.565800609067082E-3   5.989838391542435E-3  
 2.600000000000000E10    5.017702933400869E-3  -4.454016685485840E-3  
 2.602000000000000E10   -5.797361955046654E-3  -4.396889358758926E-3  
 2.604000000000000E10   -3.429558593779802E-3   5.583966150879860E-3  
 2.606000000000000E10    6.764979101717472E-3   1.932349405251443E-3  
 2.608000000000000E10    1.919043017551303E-3  -6.693441886454821E-3  
 2.610000000000000E10   -6.272142287343741E-3  -5.539247649721801E-4  
 2.612000000000000E10    9.074982372112572E-4   6.960315629839897E-3  
 2.614000000000000E10    6.907184608280659E-3  -1.143573666922748E-3  
 2.616000000000000E10   -1.825482468120754E-3  -6.446279119700193E-3  
 2.618000000000000E10   -6.248681806027889E-3   2.960056299343705E-3  
 2.620000000000000E10    3.471616189926863E-3   5.653825588524342E-3  
 2.622000000000000E10    5.391103681176901E-3  -4.833901766687632E-3  
 2.624000000000000E10   -4.700765479356051E-3  -5.412959028035402E-3  
 2.626000000000000E10   -4.098630044609308E-3   5.092300474643707E-3  
 2.628000000000000E10    6.796147674322128E-3   3.860311815515161E-3  
 2.630000000000000E10    3.480237908661366E-3  -7.481131702661514E-3  
 2.632000000000000E10   -7.397185079753399E-3  -1.803059130907059E-3  
 2.634000000000000E10   -7.859991164878011E-4   7.776260375976563E-3  
 2.636000000000000E10    7.572152651846409E-3  -7.050033891573548E-4  
 2.638000000000000E10   -1.940921763889492E-3  -7.644454017281532E-3  
 2.640000000000000E10   -6.689176894724369E-3   2.205217024311423E-3  
 2.642000000000000E10    3.270054701715708E-3   5.732861347496510E-3  
 2.644000000000000E10    5.940731149166822E-3  -4.322252236306667E-3  
 2.646000000000000E10   -4.742913879454136E-3  -5.423418711870909E-3  
 2.648000000000000E10   -3.992278594523668E-3   5.745126865804195E-3  
 2.650000000000000E10    6.612569093704224E-3   3.639849135652185E-3  
 2.652000000000000E10    2.485216129571199E-3  -6.816324777901173E-3  
 2.654000000000000E10   -7.998732849955559E-3  -1.616118825040758E-3  
 2.656000000000000E10   -1.019572722725570E-3   7.859585806727409E-3  
 2.658000000000000E10    7.855906151235104E-3  -8.521592244505882E-4  
 2.660000000000000E10   -1.812266418710351E-3  -8.665441535413265E-3  
 2.662000000000000E10   -7.849603891372681E-3   2.499771770089865E-3  
 2.664000000000000E10    3.666479373350740E-3   7.303152233362198E-3  
 2.666000000000000E10    6.962238810956478E-3  -4.395514726638794E-3  
 2.668000000000000E10   -5.342942662537098E-3  -5.657011177390814E-3  
 2.670000000000000E10   -5.320873577147722E-3   5.758645944297314E-3  
 2.672000000000000E10    5.540489684790373E-3   4.555232822895050E-3  
 2.674000000000000E10    3.079990856349468E-3  -6.313500460237265E-3  
 2.676000000000000E10   -7.513752207159996E-3  -3.037249436601996E-3  
 2.678000000000000E10   -1.719743246212602E-3   7.330890744924545E-3  
 2.680000000000000E10    7.731599733233452E-3   9.755369974300265E-4  
 2.682000000000000E10   -3.780402475968003E-4  -8.356822654604912E-3  
 2.684000000000000E10   -8.287128992378712E-3   1.660332782194018E-3  
 2.686000000000000E10    2.595105906948447E-3   8.492490276694298E-3  
 2.688000000000000E10    7.589903194457293E-3  -4.038848914206028E-3  
 2.690000000000000E10   -5.448827054351568E-3  -7.440126501023769E-3  
 2.692000000000000E10   -6.803648546338081E-3   6.154953036457300E-3  
 2.694000000000000E10    6.512255873531103E-3   6.024002097547054E-3  
 2.696000000000000E10    5.063259042799473E-3  -7.359825074672699E-3  
 2.698000000000000E10   -7.878193631768227E-3  -4.338112659752369E-3  
 2.700000000000000E10   -3.374780062586069E-3   8.592060767114162E-3  
 2.702000000000000E10    8.668584749102593E-3   2.323607448488474E-3  
 2.704000000000000E10    6.843673763796687E-4  -8.686265908181667E-3  
 2.706000000000000E10   -8.612256497144699E-3   8.079085382632911E-4  
 2.708000000000000E10    1.029393286444247E-3   8.690827526152134E-3  
 2.710000000000000E10    8.479163981974125E-3  -1.969981007277966E-3  
 2.712000000000000E10   -3.609580453485251E-3  -7.878359407186508E-3  
 2.714000000000000E10   -7.525900844484568E-3   4.911643452942371E-3  
 2.716000000000000E10    6.060244049876928E-3   7.320940028876066E-3  
 2.718000000000000E10    6.564658135175705E-3  -6.730322726070881E-3  
 2.720000000000000E10   -7.754969410598278E-3  -5.505781620740891E-3  
 2.722000000000000E10   -4.427093081176281E-3   8.762217126786709E-3  
 2.724000000000000E10    8.871259167790413E-3   4.015428014099598E-3  
 2.726000000000000E10    2.702957717701793E-3  -9.200197644531727E-3  
 2.728000000000000E10   -9.548832662403584E-3  -1.441055792383850E-3  
 2.730000000000000E10   -3.259938675910235E-4   1.005798578262329E-2  
 2.732000000000000E10    1.013956498354673E-2  -6.884809117764235E-4  
 2.734000000000000E10   -1.366775133647025E-3  -9.800398722290993E-3  
 2.736000000000000E10   -9.424319490790367E-3   3.114249091595411E-3  
 2.738000000000000E10    4.491213243454695E-3   8.909921161830425E-3  
 2.740000000000000E10    8.007936179637909E-3  -5.403962451964617E-3  
 2.742000000000000E10   -5.838207900524139E-3  -7.412367034703493E-3  
 2.744000000000000E10   -6.000107619911432E-3   6.744695827364922E-3  
 2.746000000000000E10    8.096951991319656E-3   5.358485970646143E-3  
 2.748000000000000E10    4.748485982418060E-3  -8.558141998946667E-3  
 2.750000000000000E10   -8.675849065184593E-3  -3.157458733767271E-3  
 2.752000000000000E10   -1.984856324270368E-3   9.662021882832050E-3  
 2.754000000000000E10    1.032554730772972E-2   7.133778417482972E-4  
 2.756000000000000E10   -1.736629055812955E-4  -1.020383182913065E-2  
