#  HZ   S   RI   R     50.00 
! Rohde & Schwarz ZVA40 4Ports - Version 3.90 - 1145.1110k42 SN: 100403
! Date: 2023-10-04 08:35:30
! Measurement: S12 
! 
 2.200000000000000E10   -1.994068175554276E-2  -1.945264637470245E-2  
 2.202000000000000E10   -1.667463406920433E-2   2.224169299006462E-2  
 2.204000000000000E10    2.430432103574276E-2   1.427784562110901E-2  
 2.206000000000000E10    1.122580096125603E-2  -2.628931961953640E-2  
 2.208000000000000E10   -2.691811695694923E-2  -8.179209195077419E-3  
 2.210000000000000E10   -5.012571346014738E-3   2.659222297370434E-2  
 2.212000000000000E10    2.680748701095581E-2   1.761095132678747E-3  
 2.214000000000000E10   -3.417552215978503E-4  -2.679678425192833E-2  
 2.216000000000000E10   -2.663154155015945E-2   3.431019373238087E-3  
 2.218000000000000E10    6.700997706502676E-3   2.480774931609631E-2  
 2.220000000000000E10    2.414668165147305E-2  -8.484534919261932E-3  
 2.222000000000000E10   -1.166205946356058E-2  -2.327826060354710E-2  
 2.224000000000000E10   -2.214575931429863E-2   1.457551773637533E-2  
 2.226000000000000E10    1.689352281391621E-2   1.989600993692875E-2  
 2.228000000000000E10    1.729807630181313E-2  -1.891192607581615E-2  
 2.230000000000000E10   -2.100757323205471E-2  -1.567235216498375E-2  
 2.232000000000000E10   -1.341872476041317E-2   2.309223264455795E-2  
 2.234000000000000E10    2.435647323727608E-2   9.173427708446980E-3  
 2.236000000000000E10    6.357778329402208E-3  -2.466885372996330E-2  
 2.238000000000000E10   -2.499932050704956E-2  -4.505889955908060E-3  
 2.240000000000000E10   -1.898258458822966E-3   2.641767077147961E-2  
 2.242000000000000E10    2.624933794140816E-2  -1.537124626338482E-3  
 2.244000000000000E10   -4.707379266619682E-3  -2.462271787226200E-2  
 2.246000000000000E10   -2.423536777496338E-2   6.659735925495625E-3  
 2.248000000000000E10    8.861211128532887E-3   2.357160113751888E-2  
 2.250000000000000E10    2.191161923110485E-2  -1.159297581762075E-2  
 2.252000000000000E10   -1.403482165187597E-2  -1.972521282732487E-2  
 2.254000000000000E10   -1.874631270766258E-2   1.550069265067577E-2  
 2.256000000000000E10    1.742766797542572E-2   1.720345392823219E-2  
 2.258000000000000E10    1.449124608188868E-2  -1.906890980899334E-2  
 2.260000000000000E10   -2.046253532171249E-2  -1.254797261208296E-2  
 2.262000000000000E10   -9.901803918182850E-3   2.144394069910049E-2  
 2.264000000000000E10    2.202886156737804E-2   7.525462191551924E-3  
 2.266000000000000E10    5.076691508293152E-3  -2.280334569513798E-2  
 2.268000000000000E10   -2.335193380713463E-2  -2.286065835505724E-3  
 2.270000000000000E10   -4.956180928274989E-4   2.332034893333912E-2  
 2.272000000000000E10    2.316251955926418E-2  -1.451438525691629E-3  
 2.274000000000000E10   -4.602401982992888E-3  -2.283158525824547E-2  
 2.276000000000000E10   -2.289093844592571E-2   7.882358506321907E-3  
 2.278000000000000E10    9.917588904500008E-3   2.171724475920200E-2  
 2.280000000000000E10    1.917950995266438E-2  -1.212914381176233E-2  
 2.282000000000000E10   -1.113758073188365E-3  -2.239678055047989E-2  
 2.284000000000000E10   -1.600274816155434E-2   1.590986736118794E-2  
 2.286000000000000E10    1.696409098803997E-2   1.401459332555533E-2  
 2.288000000000000E10    1.217193249613047E-2  -1.826778613030911E-2  
 2.290000000000000E10   -1.937212236225605E-2  -9.459337219595909E-3  
 2.292000000000000E10   -7.172571029514074E-3   2.089680172502995E-2  
 2.294000000000000E10    2.181903645396233E-2   4.603624343872070E-3  
 2.296000000000000E10    1.556171569973230E-3  -2.088081464171410E-2  
 2.298000000000000E10   -2.049164101481438E-2  -6.482602475443855E-5  
 2.300000000000000E10    2.097460441291332E-3   2.110379002988339E-2  
 2.302000000000000E10    2.037089318037033E-2  -4.658966790884733E-3  
 2.304000000000000E10   -6.640500389039516E-3  -1.903061568737030E-2  
 2.306000000000000E10   -1.809730753302574E-2   8.607607334852219E-3  
 2.308000000000000E10    1.045218948274851E-2   1.746669784188271E-2  
 2.310000000000000E10    1.617137901484966E-2  -1.277204789221287E-2  
 2.312000000000000E10   -1.507629361003637E-2  -1.383302453905344E-2  
 2.314000000000000E10   -1.210344582796097E-2   1.664442569017410E-2  
 2.316000000000000E10    1.750940084457398E-2   9.771759621798992E-3  
 2.318000000000000E10    6.667031906545162E-3  -1.875206269323826E-2  
 2.320000000000000E10   -1.935198716819286E-2  -4.221421200782061E-3  
 2.322000000000000E10   -2.369049470871687E-3   1.897771097719669E-2  
 2.324000000000000E10    1.953497715294361E-2   1.797429868020117E-4  
 2.326000000000000E10   -2.064092783257365E-3  -1.944553665816784E-2  
 2.328000000000000E10   -1.892454922199249E-2   4.500814247876406E-3  
 2.330000000000000E10    6.807426922023296E-3   1.805066131055355E-2  
 2.332000000000000E10    1.653116568922997E-2  -8.105316199362278E-3  
 2.334000000000000E10   -9.307055734097958E-3  -1.524457894265652E-2  
 2.336000000000000E10   -1.403601374477148E-2   1.108348928391933E-2  
 2.338000000000000E10    1.250557787716389E-2   1.233820896595717E-2  
 2.340000000000000E10    1.034626457840204E-2  -1.397798117250204E-2  
 2.342000000000000E10   -1.479462813585997E-2  -9.149466641247273E-3  
 2.344000000000000E10   -6.623501889407635E-3   1.582745090126991E-2  
 2.346000000000000E10    1.666123047471046E-2   4.041671287268400E-3  
 2.348000000000000E10    2.465034369379282E-3  -1.672614552080631E-2  
 2.350000000000000E10   -1.658959873020649E-2  -6.078529404476285E-4  
 2.352000000000000E10    2.177451271563768E-3   1.720513962209225E-2  
 2.354000000000000E10    1.654566638171673E-2  -4.270866047590971E-3  
 2.356000000000000E10   -6.533481646329165E-3  -1.560963504016399E-2  
 2.358000000000000E10   -1.430320460349321E-2   8.172409608960152E-3  
 2.360000000000000E10    9.612906724214554E-3   1.297400426119566E-2  
 2.362000000000000E10    1.185778528451920E-2  -1.137964800000191E-2  
 2.364000000000000E10   -1.217767130583525E-2  -1.019040867686272E-2  
 2.366000000000000E10   -8.039789274334908E-3   1.217358279973269E-2  
 2.368000000000000E10    1.391092222183943E-2   6.611485965549946E-3  
 2.370000000000000E10    5.485230591148138E-3  -1.381634268909693E-2  
 2.372000000000000E10   -1.379822753369808E-2  -3.185241483151913E-3  
 2.374000000000000E10   -1.185123110190034E-3   1.450746133923531E-2  
 2.376000000000000E10    1.376649830490351E-2  -6.140409968793392E-4  
 2.378000000000000E10   -2.741739386692643E-3  -1.334250718355179E-2  
 2.380000000000000E10   -1.290692482143641E-2   3.860292257741094E-3  
 2.382000000000000E10    5.664817988872528E-3   1.208372041583061E-2  
 2.384000000000000E10    1.094370242208242E-2  -6.846645846962929E-3  
 2.386000000000000E10   -7.764548528939486E-3  -9.090446867048740E-3  
 2.388000000000000E10   -7.646240293979645E-3   9.050321765244007E-3  
 2.390000000000000E10    1.015523634850979E-2   6.603704299777746E-3  
 2.392000000000000E10    5.411636549979448E-3  -1.032091770321131E-2  
 2.394000000000000E10   -1.084574218839407E-2  -3.410359611734748E-3  
 2.396000000000000E10   -2.878312487155199E-3   1.132817752659321E-2  
 2.398000000000000E10    1.081002783030272E-2   2.058615209534764E-3  
 2.400000000000000E10    4.795425920747221E-4  -1.103333476930857E-2  
 2.402000000000000E10   -1.038665883243084E-2   1.924949232488871E-3  
 2.404000000000000E10    2.399699995294213E-3   9.445485658943653E-3  
 2.406000000000000E10    9.543071500957012E-3  -3.132944926619530E-3  
 2.408000000000000E10   -4.053240641951561E-3  -8.745559491217136E-3  
 2.410000000000000E10   -7.504671346396208E-3   5.059304647147656E-3  
 2.412000000000000E10    4.875467624515295E-3   6.915645673871040E-3  
 2.414000000000000E10    5.587693769484758E-3  -5.432101432234049E-3  
 2.416000000000000E10   -6.626708433032036E-3  -4.204122815281153E-3  
 2.418000000000000E10   -3.881507320329547E-3   6.406866479665041E-3  
 2.420000000000000E10    6.335553713142872E-3   2.733536530286074E-3  
 2.422000000000000E10    2.029905095696449E-3  -6.991610862314701E-3  
 2.424000000000000E10   -7.231771945953369E-3  -1.515968237072229E-3  
 2.426000000000000E10   -1.126424176618457E-3   7.562004961073399E-3  
 2.428000000000000E10    7.430956233292818E-3   1.035222667269409E-3  
 2.430000000000000E10   -4.525245167315006E-4  -7.182427681982517E-3  
 2.432000000000000E10   -7.743985392153263E-3   5.547663313336670E-4  
 2.434000000000000E10    9.306332794949412E-4   7.553634699434042E-3  
 2.436000000000000E10    6.770169362425804E-3  -1.962153241038322E-3  
 2.438000000000000E10   -2.702456666156650E-3  -6.268393713980913E-3  
 2.440000000000000E10   -5.862914025783539E-3   2.830783603712916E-3  
 2.442000000000000E10    3.322200849652290E-3   5.801663268357515E-3  
 2.444000000000000E10    4.290370270609856E-3  -3.703730879351497E-3  
 2.446000000000000E10   -3.934351727366447E-3  -3.718191524967551E-3  
 2.448000000000000E10   -3.677120665088296E-3   4.270651843398809E-3  
 2.450000000000000E10    3.768840804696083E-3   3.065820084884763E-3  
 2.452000000000000E10    2.158459043130279E-3  -4.467835649847984E-3  
 2.454000000000000E10   -4.321184940636158E-3  -2.316556638106704E-3  
 2.456000000000000E10   -1.929424004629254E-3   4.519158042967320E-3  
 2.458000000000000E10    4.988586064428091E-3   1.524870749562979E-3  
 2.460000000000000E10    8.740643970668316E-4  -5.203663837164640E-3  
 2.462000000000000E10   -5.320583004504442E-3  -1.100231602322310E-4  
 2.464000000000000E10    6.614456069655716E-4   5.438309628516436E-3  
 2.466000000000000E10    5.277430638670921E-3  -1.005886238999665E-3  
 2.468000000000000E10   -1.765232766047120E-3  -4.835325293242931E-3  
 2.470000000000000E10   -5.034870002418757E-3   1.825308660045266E-3  
 2.472000000000000E10    2.115061273798347E-3   3.875845810398459E-3  
 2.474000000000000E10    4.320671316236258E-3  -2.670756774023175E-3  
 2.476000000000000E10   -2.230683574452996E-3  -4.159595817327499E-3  
 2.478000000000000E10   -3.021655371412635E-3   2.395301824435592E-3  
 2.480000000000000E10    3.222276922315359E-3   3.054906614124775E-3  
 2.482000000000000E10    3.204948734492064E-3  -2.725285012274981E-3  
 2.484000000000000E10   -3.297270508483052E-3  -2.744781086221337E-3  
 2.486000000000000E10   -2.254473045468330E-3   3.792001632973552E-3  
 2.488000000000000E10    4.129078704863787E-3   1.440773485228419E-3  
 2.490000000000000E10    1.094886800274253E-3  -4.178535658866167E-3  
 2.492000000000000E10   -4.233899991959333E-3  -6.369206239469349E-4  
 2.494000000000000E10    2.333489974262193E-4   4.159300588071346E-3  
 2.496000000000000E10    5.009335465729237E-3  -4.734102403745055E-4  
 2.498000000000000E10   -8.132676593959332E-4  -3.975715953856707E-3  
 2.500000000000000E10   -3.776168916374445E-3   1.372445141896606E-3  
 2.502000000000000E10    1.621943083591759E-3   4.620489198714495E-3  
 2.504000000000000E10    3.695427672937512E-3  -1.874402398243547E-3  
 2.506000000000000E10   -1.892366795800626E-3  -3.426810726523399E-3  
 2.508000000000000E10   -3.469236427918077E-3   1.502822618931532E-3  
 2.510000000000000E10    2.339111408218741E-3   3.223198931664228E-3  
 2.512000000000000E10    3.188159316778183E-3  -2.719392534345388E-3  
 2.514000000000000E10   -2.298508770763874E-3  -2.693789545446634E-3  
 2.516000000000000E10   -2.271861303597689E-3   3.670680336654186E-3  
 2.518000000000000E10    4.056941717863083E-3   2.442422322928906E-3  
 2.520000000000000E10    1.507418113760650E-3  -3.689032979309559E-3  
 2.522000000000000E10   -3.888897830620408E-3  -7.241407292895019E-4  
 2.524000000000000E10   -3.696581406984478E-4   4.113950300961733E-3  
 2.526000000000000E10    4.192534368485212E-3  -1.307537604589015E-4  
 2.528000000000000E10   -3.846893378067762E-4  -4.221280105412006E-3  
 2.530000000000000E10   -3.887879662215710E-3   5.429307348094881E-4  
 2.532000000000000E10    1.313490909524262E-3   4.268534015864134E-3  
 2.534000000000000E10    3.874673508107662E-3  -1.289713778533042E-3  
 2.536000000000000E10   -1.574553665705025E-3  -4.167648032307625E-3  
 2.538000000000000E10   -3.729705000296235E-3   2.400793833658099E-3  
 2.540000000000000E10    2.818313194438815E-3   3.324809484183788E-3  
 2.542000000000000E10    2.997495234012604E-3  -3.649429883807898E-3  
 2.544000000000000E10   -3.968429286032915E-3  -2.365991938859224E-3  
 2.546000000000000E10   -1.856037415564060E-3   4.414699040353298E-3  
 2.548000000000000E10    4.169865511357784E-3   1.753735938109458E-3  
 2.550000000000000E10    5.023421254009008E-4  -4.661136306822300E-3  
 2.552000000000000E10   -4.994092974811792E-3  -1.364986292173853E-5  
 2.554000000000000E10    6.044103647582233E-4   4.265041556209326E-3  
 2.556000000000000E10    3.985526505857706E-3  -1.675876555964351E-3  
 2.558000000000000E10   -1.847183564677835E-3  -4.086314234882593E-3  
 2.560000000000000E10   -3.611612832173705E-3   1.746802590787411E-3  
 2.562000000000000E10    2.290453528985381E-3   3.286103485152125E-3  
 2.564000000000000E10    3.572814865037799E-3  -2.380813471972942E-3  
 2.566000000000000E10   -3.154903184622526E-3  -3.013512352481484E-3  
 2.568000000000000E10   -2.889095339924097E-3   4.249845631420612E-3  
 2.570000000000000E10    4.320698790252209E-3   2.880918793380261E-3  
 2.572000000000000E10    1.334618777036667E-3  -5.148003343492746E-3  
 2.574000000000000E10   -5.740730091929436E-3  -1.157482736743987E-3  
 2.576000000000000E10   -3.277127980254591E-4   5.632728338241577E-3  
 2.578000000000000E10    5.767273716628552E-3  -1.280876342207193E-3  
 2.580000000000000E10   -1.429094001650810E-3  -5.605355836451054E-3  
 2.582000000000000E10   -4.849865101277828E-3   2.057718113064766E-3  
 2.584000000000000E10    2.892466029152274E-3   4.827459808439016E-3  
 2.586000000000000E10    4.478188697248697E-3  -3.162148175761104E-3  
 2.588000000000000E10   -3.674438456073403E-3  -3.061139024794102E-3  
 2.590000000000000E10   -3.472519107162952E-3   3.641520859673619E-3  
 2.592000000000000E10    3.593522589653730E-3   2.820739056915045E-3  
 2.594000000000000E10    1.858423813246191E-3  -4.575628321617842E-3  
 2.596000000000000E10   -4.530092701315880E-3  -2.309137256816030E-3  
 2.598000000000000E10   -1.262360368855298E-3   4.194662906229496E-3  
 2.600000000000000E10    5.497827194631100E-3   3.394566010683775E-4  
 2.602000000000000E10    5.929167309659533E-5  -5.581903271377087E-3  
 2.604000000000000E10   -5.243195686489344E-3   1.579646137543023E-3  
 2.606000000000000E10    2.232067519798875E-3   5.611761938780546E-3  
 2.608000000000000E10    4.479880910366774E-3  -2.669067820534110E-3  
 2.610000000000000E10   -3.823439357802272E-3  -4.403550177812576E-3  
 2.612000000000000E10   -4.712582565844059E-3   3.518305253237486E-3  
 2.614000000000000E10    3.875924739986658E-3   3.251517657190561E-3  
 2.616000000000000E10    2.924109110608697E-3  -5.261143203824759E-3  
 2.618000000000000E10   -5.405372940003872E-3  -3.288145642727613E-3  
 2.620000000000000E10   -2.279415261000395E-3   5.698749329894781E-3  
 2.622000000000000E10    5.833100993186235E-3   1.543921418488026E-3  
 2.624000000000000E10    7.236380479298532E-4  -5.466151982545853E-3  
 2.626000000000000E10   -6.139978300780058E-3  -1.024385419441387E-4  
 2.628000000000000E10   -2.549945493228734E-4   6.276304367929697E-3  
 2.630000000000000E10    5.619594361633062E-3  -1.379014109261334E-3  
 2.632000000000000E10   -2.925484674051404E-3  -5.821798928081989E-3  
 2.634000000000000E10   -5.721497815102339E-3   3.405487863346934E-3  
 2.636000000000000E10    4.327883943915367E-3   4.625124856829643E-3  
 2.638000000000000E10    3.721132175996900E-3  -4.855987150222063E-3  
 2.640000000000000E10   -5.444382783025503E-3  -2.959842327982187E-3  
 2.642000000000000E10   -2.085981192067266E-3   5.935805384069681E-3  
 2.644000000000000E10    6.050305441021919E-3   2.072347095236182E-3  
 2.646000000000000E10    8.562678121961653E-4  -6.468785926699638E-3  
 2.648000000000000E10   -6.615447346121073E-3  -4.479389826883562E-5  
 2.650000000000000E10    3.338211099617183E-4   7.069948595017195E-3  
 2.652000000000000E10    7.275895215570927E-3  -1.379290944896638E-3  
 2.654000000000000E10   -2.238302258774638E-3  -6.585607770830393E-3  
 2.656000000000000E10   -6.342501845210791E-3   3.426985349506140E-3  
 2.658000000000000E10    4.419852048158646E-3   6.031732074916363E-3  
 2.660000000000000E10    5.633734632283449E-3  -4.577393177896738E-3  
 2.662000000000000E10   -5.367916543036699E-3  -4.341380205005407E-3  
 2.664000000000000E10   -3.495818469673395E-3   5.855768918991089E-3  
 2.666000000000000E10    6.572145968675613E-3   2.510628895834088E-3  
 2.668000000000000E10    1.480281469412148E-3  -7.066151127219200E-3  
 2.670000000000000E10   -6.368085276335478E-3  -3.462144231889397E-4  
 2.672000000000000E10    5.473513156175613E-4   6.881092209368944E-3  
 2.674000000000000E10    7.388771977275610E-3  -1.453287201002240E-3  
 2.676000000000000E10   -1.876436406746507E-3  -6.871613208204508E-3  
 2.678000000000000E10   -6.436404306441546E-3   3.393263788893819E-3  
 2.680000000000000E10    3.838420612737536E-3   6.482410244643688E-3  
 2.682000000000000E10    6.468762643635273E-3  -4.701776430010796E-3  
 2.684000000000000E10   -5.771537311375141E-3  -5.919070914387703E-3  
 2.686000000000000E10   -5.093408282846212E-3   6.442768964916468E-3  
 2.688000000000000E10    7.046646904200316E-3   4.377186764031649E-3  
 2.690000000000000E10    4.069379530847073E-3  -7.562373764812946E-3  
 2.692000000000000E10   -7.554478943347931E-3  -2.887883689254522E-3  
 2.694000000000000E10   -1.367602031677961E-3   8.672790601849556E-3  
 2.696000000000000E10    8.495580404996872E-3   5.544106243178248E-4  
 2.698000000000000E10   -1.579954405315220E-4  -8.234511129558086E-3  
 2.700000000000000E10   -8.065925911068916E-3   1.608271617442370E-3  
 2.702000000000000E10    2.976192394271493E-3   7.418891414999962E-3  
 2.704000000000000E10    6.990350782871246E-3  -4.215706605464220E-3  
 2.706000000000000E10   -4.594640806317329E-3  -6.645433604717255E-3  
 2.708000000000000E10   -5.680385977029800E-3   5.228272173553705E-3  
 2.710000000000000E10    6.884025875478983E-3   5.027377977967262E-3  
 2.712000000000000E10    4.289446864277124E-3  -7.943677715957165E-3  
 2.714000000000000E10   -7.918719202280045E-3  -3.850519889965653E-3  
 2.716000000000000E10   -2.687855390831828E-3   8.289928548038006E-3  
 2.718000000000000E10    9.135823696851730E-3   1.433767960406840E-3  
 2.720000000000000E10    9.073864202946425E-4  -9.674484841525555E-3  
 2.722000000000000E10   -9.190383367240429E-3  -2.001063694478944E-4  
 2.724000000000000E10    8.685148786753416E-4   8.981798775494099E-3  
 2.726000000000000E10    8.847511373460293E-3  -2.123471582308412E-3  
 2.728000000000000E10   -3.246653359383345E-3  -8.970501832664013E-3  
 2.730000000000000E10   -8.397764526307583E-3   3.940830938518047E-3  
 2.732000000000000E10    4.926318302750588E-3   7.349893916398287E-3  
 2.734000000000000E10    7.059714756906033E-3  -6.437273230403662E-3  
 2.736000000000000E10   -7.215010467916727E-3  -6.141030695289373E-3  
 2.738000000000000E10   -5.008913576602936E-3   7.816715165972710E-3  
 2.740000000000000E10    8.334414102137089E-3   3.499208483844996E-3  
 2.742000000000000E10    2.026468981057406E-3  -8.882143534719944E-3  
 2.744000000000000E10   -9.589421562850475E-3  -1.360634458251298E-3  
 2.746000000000000E10   -3.989850811194629E-4   9.556044824421406E-3  
 2.748000000000000E10    9.064488112926483E-3  -9.103767224587500E-4  
 2.750000000000000E10   -1.967571442946792E-3  -9.650597348809242E-3  
 2.752000000000000E10   -9.443588554859161E-3   2.360392827540636E-3  
 2.754000000000000E10    3.781969193369150E-3   9.122489020228386E-3  
 2.756000000000000E10    8.270268328487873E-3  -4.583152942359448E-3  
