#  HZ   S   RI   R     50.00 
! Rohde & Schwarz ZVA40 4Ports - Version 3.90 - 1145.1110k42 SN: 100403
! Date: 2023-10-04 08:36:01
! Measurement: S12 
! 
 2.200000000000000E10   -1.889239810407162E-2  -1.482195686548948E-2  
 2.202000000000000E10   -1.244954019784927E-2   2.161906659603119E-2  
 2.204000000000000E10    2.247022837400436E-2   1.019823551177979E-2  
 2.206000000000000E10    7.027168758213520E-3  -2.318462729454041E-2  
 2.208000000000000E10   -2.327200025320053E-2  -4.385263659060001E-3  
 2.210000000000000E10   -1.243719132617116E-3   2.379992790520191E-2  
 2.212000000000000E10    2.401568554341793E-2  -1.185326720587909E-3  
 2.214000000000000E10   -3.142555709928274E-3  -2.318235300481319E-2  
 2.216000000000000E10   -2.255878783762455E-2   6.289464887231588E-3  
 2.218000000000000E10    9.330562315881252E-3   2.185762859880924E-2  
 2.220000000000000E10    2.099226228892803E-2  -1.080927625298500E-2  
 2.222000000000000E10   -1.263384986668825E-2  -1.991905085742474E-2  
 2.224000000000000E10   -1.882127672433853E-2   1.503059640526772E-2  
 2.226000000000000E10    1.768015511333942E-2   1.641215570271015E-2  
 2.228000000000000E10    1.443435810506344E-2  -1.943207718431950E-2  
 2.230000000000000E10   -2.054435759782791E-2  -1.229178160429001E-2  
 2.232000000000000E10   -9.465028531849384E-3   2.238653413951397E-2  
 2.234000000000000E10    2.339808270335197E-2   5.933231674134731E-3  
 2.236000000000000E10    3.753311699256301E-3  -2.236713655292988E-2  
 2.238000000000000E10   -2.232452854514122E-2  -1.823807833716273E-3  
 2.240000000000000E10    8.230584207922220E-4   2.294779382646084E-2  
 2.242000000000000E10    2.248240076005459E-2  -4.438627045601606E-3  
 2.244000000000000E10   -6.786053068935871E-3  -2.132017351686955E-2  
 2.246000000000000E10   -2.001246623694897E-2   8.527273312211037E-3  
 2.248000000000000E10    1.102535054087639E-2   1.888113468885422E-2  
 2.250000000000000E10    1.782604306936264E-2  -1.362589746713638E-2  
 2.252000000000000E10   -1.508149877190590E-2  -1.567747071385384E-2  
 2.254000000000000E10   -1.404935587197542E-2   1.627552136778832E-2  
 2.256000000000000E10    1.766840554773808E-2   1.249187998473644E-2  
 2.258000000000000E10    1.052700262516737E-2  -1.911958865821362E-2  
 2.260000000000000E10   -1.945733278989792E-2  -9.243985638022423E-3  
 2.262000000000000E10   -6.337919272482395E-3   2.002057433128357E-2  
 2.264000000000000E10    2.029246464371681E-2   4.277020227164030E-3  
 2.266000000000000E10    2.248549135401845E-3  -2.169019542634487E-2  
 2.268000000000000E10   -2.084191143512726E-2   5.241499166004360E-4  
 2.270000000000000E10    2.575743943452835E-3   2.018322050571442E-2  
 2.272000000000000E10    1.952011696994305E-2  -4.674094729125500E-3  
 2.274000000000000E10   -7.187546696513891E-3  -1.942494139075279E-2  
 2.276000000000000E10   -1.880791969597340E-2   9.376431815326214E-3  
 2.278000000000000E10    1.110476348549128E-2   1.664986088871956E-2  
 2.280000000000000E10    1.495287567377091E-2  -1.351230312138796E-2  
 2.282000000000000E10   -3.733803750947118E-3  -1.975292712450028E-2  
 2.284000000000000E10   -1.224123686552048E-2   1.595409400761128E-2  
 2.286000000000000E10    1.650881208479404E-2   1.019707974046469E-2  
 2.288000000000000E10    8.172111585736275E-3  -1.745752617716789E-2  
 2.290000000000000E10   -1.884655654430389E-2  -5.922510288655758E-3  
 2.292000000000000E10   -3.851270535960794E-3   1.943191327154636E-2  
 2.294000000000000E10    1.898065954446793E-2   1.083435723558068E-3  
 2.296000000000000E10   -1.410831115208566E-3  -1.874868199229240E-2  
 2.298000000000000E10   -1.819522306323052E-2   3.040513955056667E-3  
 2.300000000000000E10    5.027136299759150E-3   1.820921339094639E-2  
 2.302000000000000E10    1.689441129565239E-2  -7.407994940876961E-3  
 2.304000000000000E10   -9.572646580636501E-3  -1.547115761786699E-2  
 2.306000000000000E10   -1.452138368040323E-2   1.127116288989782E-2  
 2.308000000000000E10    1.230350695550442E-2   1.367897912859917E-2  
 2.310000000000000E10    1.178370788693428E-2  -1.408302783966065E-2  
 2.312000000000000E10   -1.561798062175512E-2  -9.950935840606690E-3  
 2.314000000000000E10   -8.527909405529499E-3   1.635129377245903E-2  
 2.316000000000000E10    1.719166152179241E-2   6.476258859038353E-3  
 2.318000000000000E10    3.434681566432118E-3  -1.775976642966270E-2  
 2.320000000000000E10   -1.741357147693634E-2  -1.030721119605005E-3  
 2.322000000000000E10    4.798889567609876E-4   1.733772642910481E-2  
 2.324000000000000E10    1.710601896047592E-2  -2.672730712220073E-3  
 2.326000000000000E10   -4.808517638593912E-3  -1.596632599830627E-2  
 2.328000000000000E10   -1.565306074917316E-2   7.222063373774290E-3  
 2.330000000000000E10    8.876015432178974E-3   1.465800963342190E-2  
 2.332000000000000E10    1.264308393001556E-2  -1.001330837607384E-2  
 2.334000000000000E10   -1.156525313854218E-2  -1.123076584190130E-2  
 2.336000000000000E10   -1.001943089067936E-2   1.244374737143517E-2  
 2.338000000000000E10    1.376593485474587E-2   8.068504743278027E-3  
 2.340000000000000E10    6.421734113246203E-3  -1.408928073942661E-2  
 2.342000000000000E10   -1.456568948924542E-2  -4.563954658806324E-3  
 2.344000000000000E10   -2.693923655897379E-3   1.582209393382072E-2  
 2.346000000000000E10    1.552799530327320E-2   9.456708794459701E-4  
 2.348000000000000E10   -1.236613374203444E-3  -1.492809131741524E-2  
 2.350000000000000E10   -1.522827986627817E-2   2.995024668052793E-3  
 2.352000000000000E10    4.994637798517942E-3   1.476832944899797E-2  
 2.354000000000000E10    1.379156857728958E-2  -6.552977487444878E-3  
 2.356000000000000E10   -7.854357361793518E-3  -1.230219006538391E-2  
 2.358000000000000E10   -1.111832447350025E-2   9.770106524229050E-3  
 2.360000000000000E10    1.067491434514523E-2   9.480787441134453E-3  
 2.362000000000000E10    7.759759668260813E-3  -1.132417842745781E-2  
 2.364000000000000E10   -1.185321342200041E-2  -5.789811722934246E-3  
 2.366000000000000E10   -3.948007710278034E-3   1.235485263168812E-2  
 2.368000000000000E10    1.309072785079479E-2   2.820455236360431E-3  
 2.370000000000000E10    7.608445012010634E-4  -1.247743424028158E-2  
 2.372000000000000E10   -1.239625923335552E-2   1.776572316884995E-3  
 2.374000000000000E10    2.505430951714516E-3   1.273373886942864E-2  
 2.376000000000000E10    1.184569764882326E-2  -3.777840873226523E-3  
 2.378000000000000E10   -5.543122068047524E-3  -1.141793560236692E-2  
 2.380000000000000E10   -1.093313377350569E-2   7.049719803035259E-3  
 2.382000000000000E10    7.820948027074337E-3   9.735382162034512E-3  
 2.384000000000000E10    8.430195041000843E-3  -8.589054457843304E-3  
 2.386000000000000E10   -9.095131419599056E-3  -6.551421713083983E-3  
 2.388000000000000E10   -5.250853020697832E-3   9.333062916994095E-3  
 2.390000000000000E10    9.370441548526287E-3   4.374478943645954E-3  
 2.392000000000000E10    2.678239019587636E-3  -9.260674007236958E-3  
 2.394000000000000E10   -9.547649882733822E-3  -1.585046527907252E-3  
 2.396000000000000E10   -1.726561167743057E-4   9.170449338853359E-3  
 2.398000000000000E10    8.607952855527401E-3  -1.144169014878571E-3  
 2.400000000000000E10   -2.677165670320392E-3  -8.647435344755650E-3  
 2.402000000000000E10   -6.878692191094160E-3   4.757821094244719E-3  
 2.404000000000000E10    4.954465199261904E-3   6.228571292012930E-3  
 2.406000000000000E10    5.928510800004005E-3  -5.766330752521753E-3  
 2.408000000000000E10   -6.517168134450913E-3  -5.212825257331133E-3  
 2.410000000000000E10   -4.313074517995119E-3   6.400021258741617E-3  
 2.412000000000000E10    6.196295376867056E-3   3.440091852098703E-3  
 2.414000000000000E10    2.626277972012758E-3  -6.759874057024717E-3  
 2.416000000000000E10   -6.825359538197517E-3  -2.500398783013225E-3  
 2.418000000000000E10   -1.883639721199870E-3   6.459824275225401E-3  
 2.420000000000000E10    6.554479245096445E-3   1.036294386722148E-3  
 2.422000000000000E10    4.142440157011151E-4  -6.566563155502081E-3  
 2.424000000000000E10   -6.410467438399792E-3   1.288667863263981E-5  
 2.426000000000000E10    1.306668564211577E-4   5.688356701284647E-3  
 2.428000000000000E10    5.487225018441677E-3  -1.015858608298004E-3  
 2.430000000000000E10   -1.485557761043310E-3  -5.656614899635315E-3  
 2.432000000000000E10   -5.279410630464554E-3   1.763137988746166E-3  
 2.434000000000000E10    2.554586622864008E-3   4.456624854356051E-3  
 2.436000000000000E10    4.394182469695807E-3  -3.956101834774017E-3  
 2.438000000000000E10   -3.758987644687295E-3  -3.392915707081556E-3  
 2.440000000000000E10   -2.342347986996174E-3   3.695564577355981E-3  
 2.442000000000000E10    4.039349965751171E-3   2.255957107990980E-3  
 2.444000000000000E10    1.249909866601229E-3  -4.640053492039442E-3  
 2.446000000000000E10   -4.196356981992722E-3  -1.439577201381326E-3  
 2.448000000000000E10   -1.163175562396646E-3   3.992457874119282E-3  
 2.450000000000000E10    4.513188730925322E-3   4.813310079043731E-5  
 2.452000000000000E10    5.838343058712781E-4  -4.861229564994574E-3  
 2.454000000000000E10   -4.128860309720039E-3  -4.658989200834185E-4  
 2.456000000000000E10    8.043051639106125E-5   4.167471546679735E-3  
 2.458000000000000E10    4.508015234023333E-3   4.139168959227391E-5  
 2.460000000000000E10   -8.044113055802882E-4  -3.985015209764242E-3  
 2.462000000000000E10   -4.053235519677401E-3   8.945899317041040E-4  
 2.464000000000000E10    1.281813951209188E-3   3.710576333105564E-3  
 2.466000000000000E10    2.783937379717827E-3  -2.139920135959983E-3  
 2.468000000000000E10   -2.078048652037978E-3  -3.102560760453343E-3  
 2.470000000000000E10   -1.875031506642699E-3   2.240737434476614E-3  
 2.472000000000000E10    2.679123776033521E-3   1.565804006531835E-3  
 2.474000000000000E10    1.797909964807332E-3  -2.435351954773068E-3  
 2.476000000000000E10   -2.402053447440267E-3  -1.030924962833524E-3  
 2.478000000000000E10   -8.427349966950715E-4   2.905212575569749E-3  
 2.480000000000000E10    2.917714416980743E-3   7.446549134328961E-4  
 2.482000000000000E10    1.018389011733234E-3  -2.760838484391570E-3  
 2.484000000000000E10   -2.955773379653692E-3  -6.979365716688335E-4  
 2.486000000000000E10   -6.338881794363260E-4   3.337218193337321E-3  
 2.488000000000000E10    3.248149761930108E-3   5.149175995029509E-4  
 2.490000000000000E10   -6.386898894561455E-5  -2.970362314954400E-3  
 2.492000000000000E10   -3.405326744541526E-3   6.073497934266925E-4  
 2.494000000000000E10    7.906161481514573E-4   3.375316038727760E-3  
 2.496000000000000E10    2.469256985932589E-3  -1.330375322140753E-3  
 2.498000000000000E10   -1.556008122861385E-3  -2.132708439603448E-3  
 2.500000000000000E10   -2.241211943328381E-3   1.373403123579919E-3  
 2.502000000000000E10    1.238249707967043E-3   1.824666280299425E-3  
 2.504000000000000E10    1.753131742589176E-3  -1.478461083024740E-3  
 2.506000000000000E10   -1.661950140260160E-3  -1.602395670488477E-3  
 2.508000000000000E10   -1.388564473018050E-3   1.887795631773770E-3  
 2.510000000000000E10    2.070695161819458E-3   1.809484907425940E-3  
 2.512000000000000E10    1.050379709340632E-3  -2.203144831582904E-3  
 2.514000000000000E10   -2.563806716352701E-3  -6.628917763009667E-4  
 2.516000000000000E10   -1.549850217998028E-3   2.818302251398563E-3  
 2.518000000000000E10    2.867472590878606E-3   7.441276684403420E-4  
 2.520000000000000E10    2.427233812341001E-5  -2.921905834227800E-3  
 2.522000000000000E10   -3.122795373201370E-3  -1.716056431178004E-4  
 2.524000000000000E10    5.616055568680167E-4   3.158019389957190E-3  
 2.526000000000000E10    3.033571178093553E-3  -8.553431252948940E-4  
 2.528000000000000E10   -1.214484916999936E-3  -2.421522047370672E-3  
 2.530000000000000E10   -2.537924563512206E-3   1.252469955943525E-3  
 2.532000000000000E10    1.414186903275549E-3   2.610288327559829E-3  
 2.534000000000000E10    2.087013097479940E-3  -1.695916289463639E-3  
 2.536000000000000E10   -1.402826514095068E-3  -1.882727141492069E-3  
 2.538000000000000E10   -1.880218624137342E-3   2.208463847637177E-3  
 2.540000000000000E10    2.591564320027828E-3   1.565609942190349E-3  
 2.542000000000000E10    2.040799008682370E-3  -2.492476720362902E-3  
 2.544000000000000E10   -2.995176007971168E-3  -7.726656040176749E-4  
 2.546000000000000E10   -3.173134173266590E-4   3.536184085533023E-3  
 2.548000000000000E10    3.548295237123966E-3  -3.455866244621575E-4  
 2.550000000000000E10   -9.544329950585961E-4  -3.541955724358559E-3  
 2.552000000000000E10   -3.000870812684298E-3   1.099713379517198E-3  
 2.554000000000000E10    2.184009877964854E-3   2.728137886151671E-3  
 2.556000000000000E10    2.871348755434156E-3  -2.270081313326955E-3  
 2.558000000000000E10   -1.351297018118203E-3  -2.545571420341730E-3  
 2.560000000000000E10   -1.809774199500680E-3   2.297593513503671E-3  
 2.562000000000000E10    2.227357588708401E-3   1.630365732125938E-3  
 2.564000000000000E10    2.053131116554141E-3  -2.347216010093689E-3  
 2.566000000000000E10   -2.898384816944599E-3  -1.353525905869901E-3  
 2.568000000000000E10   -1.306377467699349E-3   3.318616654723883E-3  
 2.570000000000000E10    3.108272561803460E-3   4.779875453095883E-4  
 2.572000000000000E10    5.228759837336838E-4  -4.172992892563343E-3  
 2.574000000000000E10   -3.406826639547944E-3   7.580846431665123E-5  
 2.576000000000000E10    1.130258780904114E-3   3.484609769657254E-3  
 2.578000000000000E10    3.865591483190656E-3  -1.407312811352313E-3  
 2.580000000000000E10   -2.139346906915307E-3  -2.662823302671313E-3  
 2.582000000000000E10   -2.691419562324882E-3   2.749638864770532E-3  
 2.584000000000000E10    2.232166472822428E-3   2.410005079582334E-3  
 2.586000000000000E10    1.679731998592615E-3  -3.101981244981289E-3  
 2.588000000000000E10   -3.331343643367291E-3  -1.437806757166982E-3  
 2.590000000000000E10   -1.190149458125234E-3   2.723751356825233E-3  
 2.592000000000000E10    3.540451172739267E-3   3.898792492691428E-4  
 2.594000000000000E10    4.918694030493498E-4  -3.786603221669793E-3  
 2.596000000000000E10   -3.617991227656603E-3   2.624638145789504E-4  
 2.598000000000000E10    1.015802263282239E-3   4.215660039335489E-3  
 2.600000000000000E10    4.331516101956368E-3  -5.884278216399252E-4  
 2.602000000000000E10   -1.861614757217467E-3  -4.318305756896734E-3  
 2.604000000000000E10   -4.081691149622202E-3   2.409625565633178E-3  
 2.606000000000000E10    2.654478652402759E-3   3.613917622715235E-3  
 2.608000000000000E10    3.135267179459333E-3  -3.283805213868618E-3  
 2.610000000000000E10   -3.051174338907003E-3  -3.153214231133461E-3  
 2.612000000000000E10   -2.080453326925635E-3   3.007291117683053E-3  
 2.614000000000000E10    3.825183957815170E-3   1.811493537388742E-3  
 2.616000000000000E10    1.880589872598648E-3  -3.834229428321123E-3  
 2.618000000000000E10   -3.814073512330651E-3  -1.042928779497743E-3  
 2.620000000000000E10   -5.911902990192175E-4   4.186796024441719E-3  
 2.622000000000000E10    4.255283623933792E-3  -1.415882870787755E-4  
 2.624000000000000E10   -9.757339721545577E-4  -4.070019815117121E-3  
 2.626000000000000E10   -4.441416822373867E-3   8.546894532628357E-4  
 2.628000000000000E10    2.044541062787175E-3   4.293304402381182E-3  
 2.630000000000000E10    4.766222555190325E-3  -3.534350311383605E-3  
 2.632000000000000E10   -3.645188175141811E-3  -4.292830359190702E-3  
 2.634000000000000E10   -3.668087534606457E-3   4.099626094102860E-3  
 2.636000000000000E10    4.968675784766674E-3   3.226463450118899E-3  
 2.638000000000000E10    2.198757836595178E-3  -5.129801575094461E-3  
 2.640000000000000E10   -5.341033451259136E-3  -1.891477382741869E-3  
 2.642000000000000E10   -1.443968038074672E-3   4.933227784931660E-3  
 2.644000000000000E10    5.094896070659161E-3   5.251576076261699E-4  
 2.646000000000000E10    1.004345540422946E-4  -5.444863811135292E-3  
 2.648000000000000E10   -5.493975244462490E-3   1.862395438365638E-4  
 2.650000000000000E10    1.233015209436417E-3   5.546946544200182E-3  
 2.652000000000000E10    5.252539180219173E-3  -1.672502839937806E-3  
 2.654000000000000E10   -3.052146406844258E-3  -4.871210083365440E-3  
 2.656000000000000E10   -4.734950605779886E-3   3.997215069830418E-3  
 2.658000000000000E10    4.466750193387270E-3   3.799021709710360E-3  
 2.660000000000000E10    2.565779956057668E-3  -5.249875597655773E-3  
 2.662000000000000E10   -5.685461685061455E-3  -1.990941353142262E-3  
 2.664000000000000E10   -1.227829605340958E-3   6.163260899484158E-3  
 2.666000000000000E10    6.231948267668486E-3   5.813860916532576E-4  
 2.668000000000000E10   -4.596987273544073E-4  -6.535998079925776E-3  
 2.670000000000000E10   -6.486491765826941E-3   1.486059743911028E-3  
 2.672000000000000E10    1.395690953359008E-3   6.522956769913435E-3  
 2.674000000000000E10    5.983883515000343E-3  -1.787189277820289E-3  
 2.676000000000000E10   -2.955227624624968E-3  -5.778267513960600E-3  
 2.678000000000000E10   -5.953972227871418E-3   3.486744826659560E-3  
 2.680000000000000E10    3.647353732958436E-3   5.411433521658182E-3  
 2.682000000000000E10    4.976548720151186E-3  -4.392151255160570E-3  
 2.684000000000000E10   -5.258382298052311E-3  -4.278019070625305E-3  
 2.686000000000000E10   -3.778404090553522E-3   5.839924328029156E-3  
 2.688000000000000E10    6.167956162244082E-3   3.292870242148638E-3  
 2.690000000000000E10    1.731685712002218E-3  -6.363136693835259E-3  
 2.692000000000000E10   -6.962925661355257E-3  -5.994287203066051E-4  
 2.694000000000000E10    1.873208966571838E-4   7.386656478047371E-3  
 2.696000000000000E10    7.283281534910202E-3  -8.889469900168479E-4  
 2.698000000000000E10   -2.387528307735920E-3  -7.082888856530190E-3  
 2.700000000000000E10   -6.746388506144285E-3   3.296673996374011E-3  
 2.702000000000000E10    4.362356383353472E-3   6.716792006045580E-3  
 2.704000000000000E10    6.024175789207220E-3  -4.837334621697664E-3  
 2.706000000000000E10   -5.309553351253271E-3  -5.180988926440477E-3  
 2.708000000000000E10   -4.810805432498455E-3   6.322467699646950E-3  
 2.710000000000000E10    7.124252617359161E-3   4.749382846057415E-3  
 2.712000000000000E10    3.847216023132205E-3  -7.152386009693146E-3  
 2.714000000000000E10   -7.346058730036020E-3  -2.804748713970184E-3  
 2.716000000000000E10   -1.450842595659196E-3   8.199371397495270E-3  
 2.718000000000000E10    8.771175518631935E-3   9.916633134707809E-4  
 2.720000000000000E10   -1.604927529115230E-4  -8.008361794054508E-3  
 2.722000000000000E10   -7.869157940149307E-3   1.342623610980809E-3  
 2.724000000000000E10    2.329230774194002E-3   7.904564030468464E-3  
 2.726000000000000E10    8.012475445866585E-3  -2.970627974718809E-3  
 2.728000000000000E10   -3.710296470671892E-3  -7.339769043028355E-3  
 2.730000000000000E10   -6.289856042712927E-3   5.204697139561176E-3  
 2.732000000000000E10    6.668624933809042E-3   5.889433901757002E-3  
 2.734000000000000E10    5.648967809975147E-3  -7.115463726222515E-3  
 2.736000000000000E10   -7.306632120162249E-3  -4.250061232596636E-3  
 2.738000000000000E10   -3.175822319462895E-3   8.409821428358555E-3  
 2.740000000000000E10    9.154239669442177E-3   2.159915864467621E-3  
 2.742000000000000E10    1.290251384489238E-3  -8.938085287809372E-3  
 2.744000000000000E10   -9.124342352151871E-3  -8.013962069526315E-4  
 2.746000000000000E10    8.845853735692799E-4   9.202620014548302E-3  
 2.748000000000000E10    9.081142023205757E-3  -1.938614761456847E-3  
 2.750000000000000E10   -2.440917771309614E-3  -9.196721017360687E-3  
 2.752000000000000E10   -8.082922548055649E-3   3.324887948110700E-3  
 2.754000000000000E10    4.531351849436760E-3   7.846924476325512E-3  
 2.756000000000000E10    7.319970056414604E-3  -5.094482097774744E-3  
