#  HZ   S   RI   R     50.00 
! Rohde & Schwarz ZVA40 4Ports - Version 3.90 - 1145.1110k42 SN: 100403
! Date: 2023-10-04 08:37:42
! Measurement: S12 
! 
 2.200000000000000E10   -3.787153866142035E-3  -7.088749669492245E-3  
 2.202000000000000E10   -6.520110182464123E-3   5.079111084342003E-3  
 2.204000000000000E10    6.156112998723984E-3   5.332126747816801E-3  
 2.206000000000000E10    4.822800401598215E-3  -6.850359495729208E-3  
 2.208000000000000E10   -6.746131461113691E-3  -3.245347877964377E-3  
 2.210000000000000E10   -2.042670501396060E-3   7.004978135228157E-3  
 2.212000000000000E10    7.201907690614462E-3   1.827534171752632E-3  
 2.214000000000000E10    1.259212382137775E-3  -6.794355809688568E-3  
 2.216000000000000E10   -7.529846392571926E-3  -5.564813036471605E-4  
 2.218000000000000E10    5.182751920074225E-4   6.788054946810007E-3  
 2.220000000000000E10    7.029713597148657E-3  -1.207859022542834E-3  
 2.222000000000000E10   -2.102168044075370E-3  -7.079259026795626E-3  
 2.224000000000000E10   -6.495652254670858E-3   2.720170188695192E-3  
 2.226000000000000E10    3.976421430706978E-3   5.719504319131374E-3  
 2.228000000000000E10    5.013702902942896E-3  -4.005746450275183E-3  
 2.230000000000000E10   -4.477366805076599E-3  -5.020015873014927E-3  
 2.232000000000000E10   -4.842611029744148E-3   5.560481920838356E-3  
 2.234000000000000E10    6.242364645004273E-3   3.649324877187610E-3  
 2.236000000000000E10    2.352572744712234E-3  -6.355661898851395E-3  
 2.238000000000000E10   -6.137733813375235E-3  -2.080570673570037E-3  
 2.240000000000000E10   -1.521978294476867E-3   6.811066530644894E-3  
 2.242000000000000E10    6.912019569426775E-3   2.119814162142575E-4  
 2.244000000000000E10   -3.199265047442168E-4  -6.439945194870234E-3  
 2.246000000000000E10   -6.685209926217794E-3   1.253578346222639E-3  
 2.248000000000000E10    1.936584245413542E-3   6.947605870664120E-3  
 2.250000000000000E10    6.215459667146206E-3  -2.581945154815912E-3  
 2.252000000000000E10   -3.560509532690048E-3  -5.870179273188114E-3  
 2.254000000000000E10   -5.390899255871773E-3   4.249892663210630E-3  
 2.256000000000000E10    5.195204168558121E-3   4.853079095482826E-3  
 2.258000000000000E10    4.081539344042540E-3  -5.007616709917784E-3  
 2.260000000000000E10   -5.194156430661678E-3  -3.604741534218192E-3  
 2.262000000000000E10   -2.755485242232680E-3   5.940066184848547E-3  
 2.264000000000000E10    6.193898618221283E-3   2.318976679816842E-3  
 2.266000000000000E10    1.741457381285727E-3  -5.638093221932650E-3  
 2.268000000000000E10   -6.402531638741493E-3  -4.710617067757994E-4  
 2.270000000000000E10   -8.330003765877336E-5   6.513337604701519E-3  
 2.272000000000000E10    5.895293317735195E-3  -8.314087754115462E-4  
 2.274000000000000E10   -1.561688375659287E-3  -5.856338888406754E-3  
 2.276000000000000E10   -5.654318723827601E-3   2.435767790302634E-3  
 2.278000000000000E10    3.179264254868031E-3   5.478743929415941E-3  
 2.280000000000000E10    4.906510002911091E-3  -3.680051304399967E-3  
 2.282000000000000E10   -8.307615062221885E-4  -5.672501865774393E-3  
 2.284000000000000E10   -3.700380679219961E-3   5.132947117090225E-3  
 2.286000000000000E10    5.454198457300663E-3   3.453908953815699E-3  
 2.288000000000000E10    2.171613974496722E-3  -5.187871400266886E-3  
 2.290000000000000E10   -5.516977515071631E-3  -1.580061274580658E-3  
 2.292000000000000E10   -1.282105804421008E-3   5.725591909140348E-3  
 2.294000000000000E10    5.870621185749769E-3   4.879915213678032E-4  
 2.296000000000000E10   -5.549890920519829E-5  -5.466349888592959E-3  
 2.298000000000000E10   -5.711000412702560E-3   3.255374322179705E-4  
 2.300000000000000E10    9.903335012495518E-4   5.895984824746847E-3  
 2.302000000000000E10    5.742403212934732E-3  -2.171901287510991E-3  
 2.304000000000000E10   -3.110684920102358E-3  -4.566733725368977E-3  
 2.306000000000000E10   -4.102787934243679E-3   3.722215071320534E-3  
 2.308000000000000E10    4.147322382777929E-3   4.058946855366230E-3  
 2.310000000000000E10    3.177065169438720E-3  -4.328671842813492E-3  
 2.312000000000000E10   -5.002029240131378E-3  -2.224363619461656E-3  
 2.314000000000000E10   -1.942901639267802E-3   5.711922887712717E-3  
 2.316000000000000E10    5.760729778558016E-3   1.680757966823876E-3  
 2.318000000000000E10    3.205016837455332E-4  -5.980562418699265E-3  
 2.320000000000000E10   -6.050786469131708E-3   7.434926228597760E-4  
 2.322000000000000E10    1.024679979309440E-3   5.488303955644369E-3  
 2.324000000000000E10    5.574881564825773E-3  -2.048624446615577E-3  
 2.326000000000000E10   -2.792952349409461E-3  -5.107524339109659E-3  
 2.328000000000000E10   -4.766040947288275E-3   3.378833178430796E-3  
 2.330000000000000E10    3.581773722544313E-3   4.077932797372341E-3  
 2.332000000000000E10    3.525699954479933E-3  -4.197523929178715E-3  
 2.334000000000000E10   -4.970687907189131E-3  -3.393599065020680E-3  
 2.336000000000000E10   -2.350570401176810E-3   5.340388510376215E-3  
 2.338000000000000E10    5.636830814182758E-3   1.180069404654205E-3  
 2.340000000000000E10    1.855048176366836E-4  -5.752400495111942E-3  
 2.342000000000000E10   -5.705683492124081E-3   2.273909194627777E-4  
 2.344000000000000E10    9.846030734479427E-4   5.663895048201084E-3  
 2.346000000000000E10    5.184968467801809E-3  -2.342512132599950E-3  
 2.348000000000000E10   -2.507044002413750E-3  -4.995868075639010E-3  
 2.350000000000000E10   -4.572142381221056E-3   3.147441195324063E-3  
 2.352000000000000E10    4.536278545856476E-3   3.667894518002868E-3  
 2.354000000000000E10    3.048614598810673E-3  -4.866603761911392E-3  
 2.356000000000000E10   -5.734336096793413E-3  -2.296804916113615E-3  
 2.358000000000000E10   -1.521479454822838E-3   5.923253018409014E-3  
 2.360000000000000E10    5.688559263944626E-3   8.584077004343271E-4  
 2.362000000000000E10   -1.277651426789817E-5  -6.434628274291754E-3  
 2.364000000000000E10   -6.123655475676060E-3   6.985681829974055E-4  
 2.366000000000000E10    1.361929927952588E-3   5.621722899377346E-3  
 2.368000000000000E10    5.476769991219044E-3  -2.590590156614780E-3  
 2.370000000000000E10   -2.833884442225099E-3  -5.343995057046413E-3  
 2.372000000000000E10   -4.963968880474567E-3   3.492809832096100E-3  
 2.374000000000000E10    4.294290207326412E-3   3.713786136358976E-3  
 2.376000000000000E10    2.918790560215712E-3  -4.507201258093119E-3  
 2.378000000000000E10   -5.162666551768780E-3  -2.307377057150006E-3  
 2.380000000000000E10   -7.665257435292006E-4   5.107938777655363E-3  
 2.382000000000000E10    5.397838074713945E-3  -6.372301140800118E-5  
 2.384000000000000E10   -8.742373320274055E-4  -5.923542194068432E-3  
 2.386000000000000E10   -5.391768179833889E-3   1.901429845020175E-3  
 2.388000000000000E10    2.995948307216167E-3   4.934511147439480E-3  
 2.390000000000000E10    4.911633674055338E-3  -4.179579205811024E-3  
 2.392000000000000E10   -4.291661083698273E-3  -4.611721727997065E-3  
 2.394000000000000E10   -3.501724451780319E-3   4.523948766291142E-3  
 2.396000000000000E10    5.264080595225096E-3   3.015526104718447E-3  
 2.398000000000000E10    2.455132082104683E-3  -5.577791482210159E-3  
 2.400000000000000E10   -5.516437347978354E-3  -1.734094345010817E-3  
 2.402000000000000E10   -3.608356055337936E-4   5.568105727434158E-3  
 2.404000000000000E10    4.816216416656971E-3  -3.854079404845834E-4  
 2.406000000000000E10   -1.096280873753130E-3  -5.085951648652554E-3  
 2.408000000000000E10   -4.074244759976864E-3   1.633587176911533E-3  
 2.410000000000000E10    2.106667263433337E-3   3.605917794629931E-3  
 2.412000000000000E10    3.672447055578232E-3  -2.803714945912361E-3  
 2.414000000000000E10   -3.577543422579765E-3  -3.210226073861122E-3  
 2.416000000000000E10   -2.885452471673489E-3   4.373785108327866E-3  
 2.418000000000000E10    4.562956746667624E-3   1.807779422961175E-3  
 2.420000000000000E10    1.101154834032059E-3  -4.518622532486916E-3  
 2.422000000000000E10   -4.973398521542549E-3  -5.686125950887799E-4  
 2.424000000000000E10    1.566479841130786E-5   5.161504261195660E-3  
 2.426000000000000E10    5.174705758690834E-3  -2.925761509686709E-5  
 2.428000000000000E10   -1.103590009734035E-3  -4.978858865797520E-3  
 2.430000000000000E10   -4.916127305477858E-3   1.650606980547309E-3  
 2.432000000000000E10    2.199454698711634E-3   4.887628834694624E-3  
 2.434000000000000E10    4.002564121037722E-3  -2.109330845996738E-3  
 2.436000000000000E10   -2.853828249499202E-3  -3.686905605718494E-3  
 2.438000000000000E10   -3.427494550123811E-3   3.166085574775934E-3  
 2.440000000000000E10    3.614340210333467E-3   3.025182522833347E-3  
 2.442000000000000E10    2.539935987442732E-3  -3.606972517445684E-3  
 2.444000000000000E10   -3.966250922530890E-3  -1.465407898649573E-3  
 2.446000000000000E10   -7.920954376459122E-4   3.842884907498956E-3  
 2.448000000000000E10    3.830743255093694E-3   2.575440448708832E-4  
 2.450000000000000E10   -3.237272612750530E-4  -3.643886419013143E-3  
 2.452000000000000E10   -3.734235884621739E-3   9.212924051098526E-4  
 2.454000000000000E10    1.756625017151237E-3   4.058404825627804E-3  
 2.456000000000000E10    3.473259974271059E-3  -2.341137966141105E-3  
 2.458000000000000E10   -2.511155325919390E-3  -3.356501460075378E-3  
 2.460000000000000E10   -3.264808095991612E-3   2.994131064042449E-3  
 2.462000000000000E10    3.053202526643872E-3   2.653403906151652E-3  
 2.464000000000000E10    3.062958829104900E-3  -3.501662984490395E-3  
 2.466000000000000E10   -3.547820262610912E-3  -2.429944928735495E-3  
 2.468000000000000E10   -2.047529909759760E-3   3.891495056450367E-3  
 2.470000000000000E10    4.013641271740198E-3   1.419859472662211E-3  
 2.472000000000000E10    1.097937230952084E-3  -3.964647185057402E-3  
 2.474000000000000E10   -3.550428431481123E-3  -9.038466960191727E-4  
 2.476000000000000E10   -2.642516046762466E-4   3.505908884108067E-3  
 2.478000000000000E10    3.552240552380681E-3  -4.568312433548272E-4  
 2.480000000000000E10   -4.271638172212988E-4  -3.295865608379245E-3  
 2.482000000000000E10   -2.863178262487054E-3   1.187654910609126E-3  
 2.484000000000000E10    2.105768071487546E-3   3.096569096669555E-3  
 2.486000000000000E10    2.863459056243300E-3  -2.248585689812899E-3  
 2.488000000000000E10   -2.856603125110269E-3  -1.994709251448512E-3  
 2.490000000000000E10   -2.227973658591509E-3   3.257635515183210E-3  
 2.492000000000000E10    3.475202480331063E-3   2.137794392183423E-3  
 2.494000000000000E10    1.499321078881621E-3  -3.575422102585435E-3  
 2.496000000000000E10   -3.645587712526321E-3  -1.174953416921198E-3  
 2.498000000000000E10   -7.869930122978985E-4   4.058203659951687E-3  
 2.500000000000000E10    3.920085262507200E-3   5.084124277345836E-4  
 2.502000000000000E10   -4.362067920737900E-5  -3.731911769136787E-3  
 2.504000000000000E10   -3.784809727221727E-3   7.079677889123559E-4  
 2.506000000000000E10    8.815263863652945E-4   3.238703357055783E-3  
 2.508000000000000E10    2.828982425853610E-3  -9.220903739333153E-4  
 2.510000000000000E10   -1.162982196547091E-3  -2.250260673463345E-3  
 2.512000000000000E10   -2.639414509758353E-3   1.404243754222989E-3  
 2.514000000000000E10    1.741511165164411E-3   2.457794267684221E-3  
 2.516000000000000E10    2.297078957781196E-3  -2.209389349445701E-3  
 2.518000000000000E10   -2.571016084402800E-3  -1.906236866489053E-3  
 2.520000000000000E10   -1.607401180081070E-3   3.127536969259381E-3  
 2.522000000000000E10    3.142168745398521E-3   1.021483447402716E-3  
 2.524000000000000E10    5.880077369511128E-4  -3.044293727725744E-3  
 2.526000000000000E10   -3.616782603785396E-3  -5.434688646346331E-4  
 2.528000000000000E10   -6.478840077761561E-5   3.518815152347088E-3  
 2.530000000000000E10    3.591913729906082E-3  -6.904102629050612E-4  
 2.532000000000000E10   -1.203183317556977E-3  -3.612514818087220E-3  
 2.534000000000000E10   -3.259914694353938E-3   1.215695054270327E-3  
 2.536000000000000E10    1.883116434328258E-3   3.100428264588118E-3  
 2.538000000000000E10    2.544305054470897E-3  -1.821968355216086E-3  
 2.540000000000000E10   -2.654175274074078E-3  -2.537963446229696E-3  
 2.542000000000000E10   -2.180402865633369E-3   2.342590363696218E-3  
 2.544000000000000E10    2.220220165327191E-3   1.580785959959030E-3  
 2.546000000000000E10    1.210141694173217E-3  -3.136846702545881E-3  
 2.548000000000000E10   -2.658687299117446E-3  -1.600684947334230E-3  
 2.550000000000000E10   -7.168019074015319E-4   2.356006298214197E-3  
 2.552000000000000E10    2.781382063403726E-3   5.317165414453484E-5  
 2.554000000000000E10   -3.657321212813258E-4  -3.070026403293014E-3  
 2.556000000000000E10   -2.601011656224728E-3   5.315596936270595E-4  
 2.558000000000000E10    9.649204439483583E-4   2.353264484554529E-3  
 2.560000000000000E10    2.145121572539210E-3  -1.291117398068309E-3  
 2.562000000000000E10   -1.924640266224742E-3  -2.337175654247403E-3  
 2.564000000000000E10   -2.006767550483346E-3   1.748427166603506E-3  
 2.566000000000000E10    2.021104097366333E-3   1.683662878349423E-3  
 2.568000000000000E10    1.648618024773896E-3  -2.368584275245667E-3  
 2.570000000000000E10   -2.635486191138625E-3  -1.151898875832558E-3  
 2.572000000000000E10   -6.708788569085300E-4   2.358697587624192E-3  
 2.574000000000000E10    3.034330671653152E-3   5.487437592819333E-4  
 2.576000000000000E10    5.200981395319104E-4  -3.105427138507366E-3  
 2.578000000000000E10   -2.832465106621385E-3  -4.954239557264373E-5  
 2.580000000000000E10    4.756542330142111E-4   3.008014289662242E-3  
 2.582000000000000E10    3.254699287936091E-3  -6.242513773031533E-4  
 2.584000000000000E10   -1.274807727895677E-3  -2.907579299062491E-3  
 2.586000000000000E10   -2.199117559939623E-3   1.656904001720250E-3  
 2.588000000000000E10    1.951489713974297E-3   1.806065207347274E-3  
 2.590000000000000E10    2.007479779422283E-3  -1.917381654493511E-3  
 2.592000000000000E10   -1.934840460307896E-3  -1.624360796995461E-3  
 2.594000000000000E10   -9.758658125065267E-4   1.941249705851078E-3  
 2.596000000000000E10    2.571007702499628E-3   8.366347174160183E-4  
 2.598000000000000E10    7.577609503641725E-4  -2.101029502227902E-3  
 2.600000000000000E10   -1.299004652537406E-3  -1.876366732176393E-4  
 2.602000000000000E10    4.836188163608313E-4   2.212943509221077E-3  
 2.604000000000000E10    2.204486168920994E-3  -1.496668701292947E-4  
 2.606000000000000E10   -2.811317099258304E-4  -1.577539020217955E-3  
 2.608000000000000E10   -1.448597293347120E-3   6.235705805011094E-4  
 2.610000000000000E10    5.802706582471728E-4   1.579311909154058E-3  
 2.612000000000000E10    1.525541418232024E-3  -1.112511847168207E-3  
 2.614000000000000E10   -1.290798536501825E-3  -1.426759758032858E-3  
 2.616000000000000E10   -1.507848384790123E-3   1.149023068137467E-3  
 2.618000000000000E10    1.807670458219945E-3   1.140616717748344E-3  
 2.620000000000000E10    8.602315210737288E-4  -1.855441718362272E-3  
 2.622000000000000E10   -1.742976135574281E-3  -4.721265577245504E-4  
 2.624000000000000E10   -3.102729388047010E-4   2.039834624156356E-3  
 2.626000000000000E10    1.516321673989296E-3   6.448447238653898E-4  
 2.628000000000000E10   -3.101459005847573E-4  -1.499363686889410E-3  
 2.630000000000000E10   -1.579838222824037E-3  -3.873563400702551E-5  
 2.632000000000000E10   -4.167049191892147E-4   1.359849818982184E-3  
 2.634000000000000E10    6.048304494470358E-4  -8.343419758602977E-4  
 2.636000000000000E10   -6.482424214482307E-4  -9.726164280436933E-4  
 2.638000000000000E10   -8.778487099334598E-4   4.646619490813464E-4  
 2.640000000000000E10    7.178937667049468E-4   3.852420777548105E-4  
 2.642000000000000E10   -4.281703877495602E-5  -8.833463652990758E-4  
 2.644000000000000E10   -1.025309553369880E-3  -1.151031028712168E-4  
 2.646000000000000E10   -1.152825716417283E-4   1.085817930288613E-3  
 2.648000000000000E10    6.321761757135391E-4  -3.173900477122515E-4  
 2.650000000000000E10   -1.132568926550448E-3  -8.509776671417058E-4  
 2.652000000000000E10   -9.990682592615485E-4   8.312377613037825E-4  
 2.654000000000000E10    3.791180206462741E-4   5.161379813216627E-4  
 2.656000000000000E10   -2.342106599826366E-4  -1.329633989371359E-3  
 2.658000000000000E10   -8.448102744296193E-4   1.143735498772003E-4  
 2.660000000000000E10    3.595428715925664E-4   6.448019994422793E-4  
 2.662000000000000E10    4.485583922360092E-4  -6.090140086598694E-4  
 2.664000000000000E10   -3.941186296287924E-4  -2.111274370690808E-4  
 2.666000000000000E10    1.146052964031696E-4   9.312710608355701E-4  
 2.668000000000000E10    8.815133478492498E-4  -3.489954688120633E-4  
 2.670000000000000E10   -6.019126158207655E-4  -6.949729286134243E-4  
 2.672000000000000E10   -9.558490128256381E-4   8.569328929297626E-4  
 2.674000000000000E10    1.149310613982379E-3   7.816182333044708E-4  
 2.676000000000000E10    9.742644033394754E-4  -9.862853912636638E-4  
 2.678000000000000E10   -1.244304003193975E-3  -6.931487005203962E-4  
 2.680000000000000E10   -2.897089289035648E-4   1.556470058858395E-3  
 2.682000000000000E10    1.888354076072574E-3   6.881518056616187E-4  
 2.684000000000000E10    5.069468752481043E-4  -1.496622455306351E-3  
 2.686000000000000E10   -1.540262601338327E-3   5.128450357005931E-5  
 2.688000000000000E10    5.726527306251228E-4   1.992969773709774E-3  
 2.690000000000000E10    1.515125157311559E-3  -3.052880056202412E-4  
 2.692000000000000E10   -9.412989602424204E-4  -8.556522079743445E-4  
 2.694000000000000E10   -8.418103680014610E-4   1.243795268237591E-3  
 2.696000000000000E10    1.672116457484663E-3   1.233998569659889E-3  
 2.698000000000000E10    9.841297287493944E-4  -1.900737406685948E-3  
 2.700000000000000E10   -1.497309305705130E-3  -7.178988307714462E-4  
 2.702000000000000E10   -7.826153159840033E-5   2.006388269364834E-3  
 2.704000000000000E10    2.548097399994731E-3   3.954005951527506E-4  
 2.706000000000000E10    2.685117360670120E-4  -2.490481827408075E-3  
 2.708000000000000E10   -1.902673509903252E-3   5.728724645450711E-4  
 2.710000000000000E10    5.593459354713559E-4   2.762792166322470E-3  
 2.712000000000000E10    2.381228143349290E-3  -6.649909773841500E-4  
 2.714000000000000E10   -8.008669246919453E-4  -2.217093249782920E-3  
 2.716000000000000E10   -2.323893364518881E-3   7.529254653491080E-4  
 2.718000000000000E10    1.441267086192966E-3   1.779358717612922E-3  
 2.720000000000000E10    1.994077814742923E-3  -2.125462051481009E-3  
 2.722000000000000E10   -1.714199781417847E-3  -2.031175186857581E-3  
 2.724000000000000E10   -1.257140072993934E-3   2.344139851629734E-3  
 2.726000000000000E10    2.483097137883306E-3   1.356091699562967E-3  
 2.728000000000000E10    1.186884357593954E-3  -2.746341982856393E-3  
 2.730000000000000E10   -3.083225106820464E-3  -4.631860647350550E-4  
 2.732000000000000E10   -3.327292506583035E-4   3.159428481012583E-3  
 2.734000000000000E10    2.985388273373246E-3  -6.970805115997791E-4  
 2.736000000000000E10   -6.966180517338216E-4  -3.588443854823709E-3  
 2.738000000000000E10   -3.333370666950941E-3   6.820442504249513E-4  
 2.740000000000000E10    1.225130865350366E-3   2.707618521526456E-3  
 2.742000000000000E10    3.125914605334401E-3  -2.096706535667181E-3  
 2.744000000000000E10   -2.024953719228506E-3  -2.871356904506683E-3  
 2.746000000000000E10   -2.450505038723350E-3   2.454496221616864E-3  
 2.748000000000000E10    2.782517345622182E-3   2.357250545173883E-3  
 2.750000000000000E10    1.736308448016644E-3  -3.244678024202585E-3  
 2.752000000000000E10   -3.525162581354380E-3  -1.724467962048948E-3  
 2.754000000000000E10   -1.536772702820599E-3   3.471535863354802E-3  
 2.756000000000000E10    3.453284269198775E-3   4.888271796517074E-4  
