#  HZ   S   RI   R     50.00 
! Rohde & Schwarz ZVA40 4Ports - Version 3.90 - 1145.1110k42 SN: 100403
! Date: 2023-10-04 08:38:53
! Measurement: S12 
! 
 2.200000000000000E10    1.361756352707744E-3   2.807653043419123E-3  
 2.202000000000000E10    3.016785951331258E-3  -1.558664836920798E-3  
 2.204000000000000E10   -1.607360551133752E-3  -2.564604161307216E-3  
 2.206000000000000E10   -2.740562660619617E-3   2.225506817921996E-3  
 2.208000000000000E10    2.462116768583655E-3   2.207817742601037E-3  
 2.210000000000000E10    2.315185032784939E-3  -2.831673948094249E-3  
 2.212000000000000E10   -2.741571282967925E-3  -2.127790125086904E-3  
 2.214000000000000E10   -1.382354879751802E-3   2.787648700177670E-3  
 2.216000000000000E10    4.282903391867876E-3   1.492612878791988E-3  
 2.218000000000000E10    1.249430933967233E-3  -3.738094819709659E-3  
 2.220000000000000E10   -3.204716369509697E-3  -4.431976121850312E-4  
 2.222000000000000E10   -1.624235737835988E-4   4.549581557512283E-3  
 2.224000000000000E10    3.981327172368765E-3  -3.902282041963190E-4  
 2.226000000000000E10   -6.713477778248489E-4  -3.897479735314846E-3  
 2.228000000000000E10   -3.573175519704819E-3   1.197130768559873E-3  
 2.230000000000000E10    1.695574843324721E-3   3.638216527178884E-3  
 2.232000000000000E10    4.005478229373694E-3  -2.377108437940478E-3  
 2.234000000000000E10   -2.806118922308087E-3  -3.354742191731930E-3  
 2.236000000000000E10   -2.554883016273379E-3   3.262720536440611E-3  
 2.238000000000000E10    3.847931977361441E-3   2.910041250288487E-3  
 2.240000000000000E10    2.288115909323096E-3  -3.863862250000238E-3  
 2.242000000000000E10   -4.025983158499003E-3  -1.502287923358381E-3  
 2.244000000000000E10   -8.798080962151289E-4   4.676501732319593E-3  
 2.246000000000000E10    4.319827537983656E-3   9.251814335584641E-4  
 2.248000000000000E10    6.073605618439615E-4  -4.807640798389912E-3  
 2.250000000000000E10   -4.474858753383160E-3   5.195001140236855E-4  
 2.252000000000000E10    9.499008883722127E-4   4.435624927282333E-3  
 2.254000000000000E10    5.245040170848370E-3  -1.358578214421868E-3  
 2.256000000000000E10   -1.711454242467880E-3  -4.516149405390024E-3  
 2.258000000000000E10   -3.870617831125855E-3   2.287459326907992E-3  
 2.260000000000000E10    2.659572754055262E-3   3.714554943144321E-3  
 2.262000000000000E10    3.493835451081395E-3  -2.701631048694253E-3  
 2.264000000000000E10   -3.344477154314518E-3  -3.531695576384664E-3  
 2.266000000000000E10   -2.885139314457774E-3   3.958033397793770E-3  
 2.268000000000000E10    4.122073762118816E-3   2.229314064607024E-3  
 2.270000000000000E10    1.954407896846533E-3  -4.724917467683554E-3  
 2.272000000000000E10   -4.902764223515987E-3  -1.716137863695622E-3  
 2.274000000000000E10   -1.138676889240742E-3   4.541405010968447E-3  
 2.276000000000000E10    4.688384942710400E-3   1.378346496494487E-4  
 2.278000000000000E10   -2.022930857492611E-4  -4.919202532619238E-3  
 2.280000000000000E10   -4.965153057128191E-3   3.158939944114536E-4  
 2.282000000000000E10   -2.026490401476622E-3   4.136304371058941E-3  
 2.284000000000000E10    4.920486826449633E-3  -1.586400088854134E-3  
 2.286000000000000E10   -2.518747933208942E-3  -4.845425486564636E-3  
 2.288000000000000E10   -4.919725004583597E-3   2.492229221388698E-3  
 2.290000000000000E10    2.843240974470973E-3   4.101105034351349E-3  
 2.292000000000000E10    3.580915508791804E-3  -3.881643991917372E-3  
 2.294000000000000E10   -4.451816901564598E-3  -3.670732257887721E-3  
 2.296000000000000E10   -2.882708096876741E-3   4.088643472641707E-3  
 2.298000000000000E10    4.393239971250296E-3   2.240976318717003E-3  
 2.300000000000000E10    2.022315980866551E-3  -5.153448786586523E-3  
 2.302000000000000E10   -5.406222306191921E-3  -1.844985643401742E-3  
 2.304000000000000E10   -7.108537829481065E-4   5.358013324439526E-3  
 2.306000000000000E10    5.290046334266663E-3  -2.241621696157381E-4  
 2.308000000000000E10   -7.339938310906291E-4  -5.696100182831287E-3  
 2.310000000000000E10   -5.598139949142933E-3   1.231993432156742E-3  
 2.312000000000000E10    1.762234722264111E-3   5.379200447350740E-3  
 2.314000000000000E10    4.893826320767403E-3  -3.173568518832326E-3  
 2.316000000000000E10   -3.534265561029315E-3  -5.038435570895672E-3  
 2.318000000000000E10   -4.609414376318455E-3   4.126640036702156E-3  
 2.320000000000000E10    4.815048538148403E-3   3.625865792855620E-3  
 2.322000000000000E10    3.081927308812738E-3  -5.298876669257879E-3  
 2.324000000000000E10   -5.427536088973284E-3  -3.341527655720711E-3  
 2.326000000000000E10   -2.119308104738593E-3   5.740102846175432E-3  
 2.328000000000000E10    6.005140021443367E-3   1.272431924007833E-3  
 2.330000000000000E10    7.603876874782145E-4  -6.435872055590153E-3  
 2.332000000000000E10   -6.047360599040985E-3  -4.676264943554997E-4  
 2.334000000000000E10   -1.758678195074026E-6   6.145127117633820E-3  
 2.336000000000000E10    5.929184611886740E-3  -1.037110458128154E-3  
 2.338000000000000E10   -1.393237616866827E-3  -6.062669679522514E-3  
 2.340000000000000E10   -6.010882556438446E-3   2.119688317179680E-3  
 2.342000000000000E10    2.858912106603384E-3   5.439775064587593E-3  
 2.344000000000000E10    5.093857645988464E-3  -3.685220144689083E-3  
 2.346000000000000E10   -4.233498126268387E-3  -4.864578600972891E-3  
 2.348000000000000E10   -3.906616009771824E-3   5.078896414488554E-3  
 2.350000000000000E10    5.908351857215166E-3   3.935651853680611E-3  
 2.352000000000000E10    2.827324904501438E-3  -6.573278456926346E-3  
 2.354000000000000E10   -6.800826173275709E-3  -1.742564258165658E-3  
 2.356000000000000E10   -1.389399520121515E-3   7.853482849895954E-3  
 2.358000000000000E10    8.077079430222511E-3   4.176040238235146E-4  
 2.360000000000000E10   -3.931375686079264E-4  -7.834911346435547E-3  
 2.362000000000000E10   -7.966308854520321E-3   1.298419781960547E-3  
 2.364000000000000E10    2.698999596759677E-3   7.787028793245554E-3  
 2.366000000000000E10    7.779316511005163E-3  -2.754368353635073E-3  
 2.368000000000000E10   -3.720239270478487E-3  -7.169475778937340E-3  
 2.370000000000000E10   -6.187907420098782E-3   4.577078390866518E-3  
 2.372000000000000E10    5.409231409430504E-3   6.485042627900839E-3  
 2.374000000000000E10    5.381571128964424E-3  -6.194535642862320E-3  
 2.376000000000000E10   -6.602002307772636E-3  -4.370162263512611E-3  
 2.378000000000000E10   -3.714697668328881E-3   7.222518324851990E-3  
 2.380000000000000E10    7.848244160413742E-3   2.318008802831173E-3  
 2.382000000000000E10    1.291179563850164E-3  -8.538768626749516E-3  
 2.384000000000000E10   -8.916727267205715E-3   6.818569090683013E-5  
 2.386000000000000E10    1.482027932070196E-3   8.868548087775707E-3  
 2.388000000000000E10    8.780790492892265E-3  -2.742885844781995E-3  
 2.390000000000000E10   -4.556556232273579E-3  -8.442134596407414E-3  
 2.392000000000000E10   -7.853880524635315E-3   5.347443744540215E-3  
 2.394000000000000E10    6.034750025719404E-3   7.453019265085459E-3  
 2.396000000000000E10    6.800025701522827E-3  -6.922390311956406E-3  
 2.398000000000000E10   -8.093648590147495E-3  -5.768842995166779E-3  
 2.400000000000000E10   -4.708300810307264E-3   8.670258335769177E-3  
 2.402000000000000E10    9.452669881284237E-3   2.734384033828974E-3  
 2.404000000000000E10    1.830888912081718E-3  -9.478816762566567E-3  
 2.406000000000000E10   -9.460653178393841E-3  -9.619698394089937E-4  
 2.408000000000000E10    4.638023674488068E-4   9.407476522028446E-3  
 2.410000000000000E10    8.962427265942097E-3  -9.817968821153045E-4  
 2.412000000000000E10   -2.324771136045456E-3  -8.876046165823937E-3  
 2.414000000000000E10   -8.239693939685822E-3   3.259747056290507E-3  
 2.416000000000000E10    4.487604368478060E-3   7.862986065447331E-3  
 2.418000000000000E10    6.893886718899012E-3  -5.607666447758675E-3  
 2.420000000000000E10   -6.160787306725979E-3  -6.107304245233536E-3  
 2.422000000000000E10   -5.474902223795652E-3   7.166544441133738E-3  
 2.424000000000000E10    8.022026158869267E-3   4.774797707796097E-3  
 2.426000000000000E10    3.897214308381081E-3  -8.165298961102963E-3  
 2.428000000000000E10   -8.913493715226650E-3  -2.452799584716559E-3  
 2.430000000000000E10   -1.232559443451464E-3   9.272293187677860E-3  
 2.432000000000000E10    9.781130589544773E-3   5.143092130310834E-4  
 2.434000000000000E10   -1.000804360955954E-3  -9.866391308605671E-3  
 2.436000000000000E10   -9.518561884760857E-3   2.044766908511519E-3  
 2.438000000000000E10    3.212392795830965E-3   9.267888963222504E-3  
 2.440000000000000E10    8.718939498066902E-3  -4.049960989505053E-3  
 2.442000000000000E10   -4.546282812952995E-3  -7.955385372042656E-3  
 2.444000000000000E10   -7.035561837255955E-3   5.543108563870192E-3  
 2.446000000000000E10    6.056712474673986E-3   6.155744194984436E-3  
 2.448000000000000E10    5.945554003119469E-3  -6.305326241999865E-3  
 2.450000000000000E10   -6.713544484227896E-3  -5.003459285944700E-3  
 2.452000000000000E10   -3.624928649514914E-3   7.109030615538359E-3  
 2.454000000000000E10    7.450504228472710E-3   3.044479060918093E-3  
 2.456000000000000E10    2.005619462579489E-3  -7.435369305312634E-3  
 2.458000000000000E10   -7.790894247591496E-3  -1.482214196585119E-3  
 2.460000000000000E10   -1.638000831007958E-4   7.847834378480911E-3  
 2.462000000000000E10    7.785642053931952E-3  -9.013409144245088E-4  
 2.464000000000000E10   -1.465237233787775E-3  -8.177041076123714E-3  
 2.466000000000000E10   -7.643813267350197E-3   2.665701555088162E-3  
 2.468000000000000E10    3.583198878914118E-3   7.667991798371077E-3  
 2.470000000000000E10    7.521291263401508E-3  -4.500663839280605E-3  
 2.472000000000000E10   -5.532703828066587E-3  -6.129781715571880E-3  
 2.474000000000000E10   -6.329215597361326E-3   5.434415768831968E-3  
 2.476000000000000E10    6.046477705240250E-3   5.700329318642616E-3  
 2.478000000000000E10    4.527177661657333E-3  -6.849139928817749E-3  
 2.480000000000000E10   -7.454039994627237E-3  -4.211155232042074E-3  
 2.482000000000000E10   -3.434332320466638E-3   7.016257848590612E-3  
 2.484000000000000E10    7.886026054620743E-3   2.383412560448051E-3  
 2.486000000000000E10    1.500970567576587E-3  -8.118414320051670E-3  
 2.488000000000000E10   -8.342250250279903E-3  -1.039968119584955E-4  
 2.490000000000000E10    6.247824057936668E-4   8.210797794163227E-3  
 2.492000000000000E10    7.652520667761564E-3  -1.463517546653748E-3  
 2.494000000000000E10   -3.082572948187590E-3  -7.405398413538933E-3  
 2.496000000000000E10   -7.173471618443728E-3   4.005208145827055E-3  
 2.498000000000000E10    4.767329432070255E-3   6.491724867373705E-3  
 2.500000000000000E10    6.078730802983046E-3  -5.844155326485634E-3  
 2.502000000000000E10   -5.924273282289505E-3  -5.606994032859802E-3  
 2.504000000000000E10   -3.936107270419598E-3   6.531057413667440E-3  
 2.506000000000000E10    7.020257879048586E-3   3.090861719101667E-3  
 2.508000000000000E10    3.467899514362216E-3  -7.034995127469301E-3  
 2.510000000000000E10   -7.371245883405209E-3  -2.723406068980694E-3  
 2.512000000000000E10   -1.850997214205563E-3   7.325955200940371E-3  
 2.514000000000000E10    8.110391907393932E-3   1.115493476390839E-3  
 2.516000000000000E10    3.312529297545552E-4  -8.868399076163769E-3  
 2.518000000000000E10   -8.443810977041721E-3   3.817923425231129E-4  
 2.520000000000000E10    2.216120949015021E-3   8.243350312113762E-3  
 2.522000000000000E10    7.804751861840487E-3  -3.134730039164424E-3  
 2.524000000000000E10   -3.355408553034067E-3  -7.569325156509876E-3  
 2.526000000000000E10   -6.489192135632038E-3   4.517600405961275E-3  
 2.528000000000000E10    4.710526671260595E-3   5.834488198161125E-3  
 2.530000000000000E10    5.771072581410408E-3  -5.701856222003698E-3  
 2.532000000000000E10   -6.613863166421652E-3  -4.979405086487532E-3  
 2.534000000000000E10   -4.122124519199133E-3   6.657133344560862E-3  
 2.536000000000000E10    7.832512259483337E-3   2.534075407311320E-3  
 2.538000000000000E10    1.897794194519520E-3  -7.993375882506371E-3  
 2.540000000000000E10   -8.547757752239704E-3  -7.792687392793596E-4  
 2.542000000000000E10    6.603886722587049E-4   8.363896980881691E-3  
 2.544000000000000E10    7.884203456342220E-3  -1.053447253070772E-3  
 2.546000000000000E10   -2.512824488803744E-3  -8.040406741201878E-3  
 2.548000000000000E10   -8.084696717560291E-3   3.628320759162307E-3  
 2.550000000000000E10    3.874361049383879E-3   7.993959821760654E-3  
 2.552000000000000E10    6.661273073405027E-3  -5.486036185175180E-3  
 2.554000000000000E10   -6.274471525102854E-3  -5.669102072715759E-3  
 2.556000000000000E10   -5.217114463448525E-3   7.143201772123575E-3  
 2.558000000000000E10    7.294233888387680E-3   4.471138585358858E-3  
 2.560000000000000E10    3.420825116336346E-3  -7.034576497972012E-3  
 2.562000000000000E10   -8.163520134985447E-3  -1.916195382364094E-3  
 2.564000000000000E10   -2.034622011706233E-3   8.502542972564697E-3  
 2.566000000000000E10    8.473813533782959E-3   1.146089867688716E-3  
 2.568000000000000E10   -8.637048304080963E-4  -8.846746757626534E-3  
 2.570000000000000E10   -8.857122622430325E-3   2.647280693054199E-3  
 2.572000000000000E10    3.451854456216097E-3   8.086826652288437E-3  
 2.574000000000000E10    7.629544939845800E-3  -4.227285739034414E-3  
 2.576000000000000E10   -5.180263426154852E-3  -6.572911981493235E-3  
 2.578000000000000E10   -6.130378227680922E-3   6.134828552603722E-3  
 2.580000000000000E10    6.599179469048977E-3   5.104020703583956E-3  
 2.582000000000000E10    4.381591919809580E-3  -7.051594555377960E-3  
 2.584000000000000E10   -8.167097344994545E-3  -3.478650702163577E-3  
 2.586000000000000E10   -2.587582217529416E-3   8.376143872737885E-3  
 2.588000000000000E10    8.713850751519203E-3   1.191076356917620E-3  
 2.590000000000000E10    2.770880528260022E-4  -8.243708871304989E-3  
 2.592000000000000E10   -8.393601514399052E-3   3.453899116721004E-4  
 2.594000000000000E10    1.399068161845207E-3   8.323128335177898E-3  
 2.596000000000000E10    8.344845846295357E-3  -2.108215354382992E-3  
 2.598000000000000E10   -3.233659546822310E-3  -8.251881226897240E-3  
 2.600000000000000E10   -8.359260857105255E-3   4.036220721900463E-3  
 2.602000000000000E10    5.724207963794470E-3   7.808987516909838E-3  
 2.604000000000000E10    6.936552468687296E-3  -6.772930733859539E-3  
 2.606000000000000E10   -7.223486900329590E-3  -5.789135582745075E-3  
 2.608000000000000E10   -4.450524691492319E-3   7.527499925345182E-3  
 2.610000000000000E10    8.194207213819027E-3   3.909757360816002E-3  
 2.612000000000000E10    2.797835739329457E-3  -8.357123471796513E-3  
 2.614000000000000E10   -8.610266260802746E-3  -1.862783567048609E-3  
 2.616000000000000E10   -1.095618121325970E-3   8.885346353054047E-3  
 2.618000000000000E10    8.990656584501267E-3  -5.717611638829112E-4  
 2.620000000000000E10   -1.987526658922434E-3  -8.779189549386501E-3  
 2.622000000000000E10   -8.053335361182690E-3   2.957103773951531E-3  
 2.624000000000000E10    4.073331598192453E-3   7.494931574910879E-3  
 2.626000000000000E10    7.185327820479870E-3  -4.284834023565054E-3  
 2.628000000000000E10   -5.544795654714108E-3  -6.533255334943533E-3  
 2.630000000000000E10   -5.623644217848778E-3   6.608339492231607E-3  
 2.632000000000000E10    7.147128693759441E-3   5.134730134159327E-3  
 2.634000000000000E10    3.701089182868600E-3  -7.895004004240036E-3  
 2.636000000000000E10   -8.252285420894623E-3  -3.147094976156950E-3  
 2.638000000000000E10   -1.920232782140374E-3   8.604220114648342E-3  
 2.640000000000000E10    8.147530257701874E-3   4.873816797044128E-4  
 2.642000000000000E10    2.663486520759761E-4  -8.209244348108769E-3  
 2.644000000000000E10   -8.050184696912766E-3   5.602701567113400E-4  
 2.646000000000000E10    1.359319197945297E-3   8.188406005501747E-3  
 2.648000000000000E10    8.001261390745640E-3  -2.165486570447683E-3  
 2.650000000000000E10   -4.232456907629967E-3  -7.574360817670822E-3  
 2.652000000000000E10   -7.157583720982075E-3   5.019458476454020E-3  
 2.654000000000000E10    5.790629889816046E-3   6.075154989957809E-3  
 2.656000000000000E10    4.532354883849621E-3  -6.969765760004520E-3  
 2.658000000000000E10   -7.051018066704273E-3  -3.577343653887510E-3  
 2.660000000000000E10   -2.304311143234372E-3   7.544300984591246E-3  
 2.662000000000000E10    7.568326778709889E-3   1.502684317529202E-3  
 2.664000000000000E10    6.503373733721674E-4  -7.519047707319260E-3  
 2.666000000000000E10   -7.415185216814280E-3   5.553903174586594E-4  
 2.668000000000000E10    1.487627625465393E-3   7.154915947467089E-3  
 2.670000000000000E10    6.537284702062607E-3  -2.480369061231613E-3  
 2.672000000000000E10   -3.042022930458188E-3  -6.587936542928219E-3  
 2.674000000000000E10   -6.080310326069593E-3   3.423968795686960E-3  
 2.676000000000000E10    3.806537250056863E-3   5.773602519184351E-3  
 2.678000000000000E10    5.162680987268686E-3  -4.745928570628166E-3  
 2.680000000000000E10   -4.776671063154936E-3  -4.822948016226292E-3  
 2.682000000000000E10   -3.630448365584016E-3   5.577466450631619E-3  
 2.684000000000000E10    5.906460806727409E-3   3.312595887109637E-3  
 2.686000000000000E10    2.241236623376608E-3  -6.541550159454346E-3  
 2.688000000000000E10   -5.968799348920584E-3  -1.128421281464398E-3  
 2.690000000000000E10   -2.198617876274511E-4   6.267164368182421E-3  
 2.692000000000000E10    6.331402342766523E-3  -5.623779143206775E-4  
 2.694000000000000E10   -6.715013878419995E-4  -6.212073378264904E-3  
 2.696000000000000E10   -5.300960037857294E-3   1.794672338292003E-3  
 2.698000000000000E10    2.731397980824113E-3   5.531843751668930E-3  
 2.700000000000000E10    5.672941915690899E-3  -3.252153750509024E-3  
 2.702000000000000E10   -3.559799864888191E-3  -5.144873168319464E-3  
 2.704000000000000E10   -4.226643592119217E-3   4.197595641016960E-3  
 2.706000000000000E10    4.776236601173878E-3   3.305777674540877E-3  
 2.708000000000000E10    3.187765832990408E-3  -4.807618446648121E-3  
 2.710000000000000E10   -4.769071936607361E-3  -2.448764629662037E-3  
 2.712000000000000E10   -1.678845845162869E-3   5.172581411898136E-3  
 2.714000000000000E10    5.463633686304092E-3   1.203238964080811E-3  
 2.716000000000000E10    8.543347939848900E-4  -5.186907481402159E-3  
 2.718000000000000E10   -5.153218284249306E-3   5.114170562592335E-5  
 2.720000000000000E10    5.302164936438203E-4   4.882051143795252E-3  
 2.722000000000000E10    4.903039429336786E-3  -1.455915858969092E-3  
 2.724000000000000E10   -1.809205510653555E-3  -4.676999524235725E-3  
 2.726000000000000E10   -4.633886273950338E-3   2.251137280836701E-3  
 2.728000000000000E10    2.961210440844297E-3   4.040885716676712E-3  
 2.730000000000000E10    3.970111720263958E-3  -3.168365452438593E-3  
 2.732000000000000E10   -3.815738717094064E-3  -3.267639083787799E-3  
 2.734000000000000E10   -3.060463117435575E-3   3.842394798994064E-3  
 2.736000000000000E10    3.968562465161085E-3   2.307011978700757E-3  
 2.738000000000000E10    1.344905584119260E-3  -4.869946744292975E-3  
 2.740000000000000E10   -5.303057376295328E-3  -1.065563643351197E-3  
 2.742000000000000E10   -9.781054686754942E-4   4.553405102342367E-3  
 2.744000000000000E10    4.430255852639675E-3  -6.751928594894707E-5  
 2.746000000000000E10   -7.311376975849271E-4  -4.728216212242842E-3  
 2.748000000000000E10   -4.571420140564442E-3   1.019978779368103E-3  
 2.750000000000000E10    1.113561564125121E-3   4.192599095404148E-3  
 2.752000000000000E10    4.032602533698082E-3  -1.915550325065851E-3  
 2.754000000000000E10   -3.146728267893195E-3  -3.773251781240106E-3  
 2.756000000000000E10   -3.846421837806702E-3   2.961776452139020E-3  
