#  HZ   S   RI   R     50.00 
! Rohde & Schwarz ZVA40 4Ports - Version 3.90 - 1145.1110k42 SN: 100403
! Date: 2023-10-04 08:40:39
! Measurement: S12 
! 
 2.200000000000000E10    8.472328074276447E-3   1.595847425051034E-4  
 2.202000000000000E10   -5.493506905622780E-4  -8.075186982750893E-3  
 2.204000000000000E10   -8.221471682190895E-3   1.004901714622974E-3  
 2.206000000000000E10    1.562838326208293E-3   7.995697669684887E-3  
 2.208000000000000E10    7.638258393853903E-3  -2.908080816268921E-3  
 2.210000000000000E10   -4.048276226967573E-3  -7.624667603522539E-3  
 2.212000000000000E10   -6.717674434185028E-3   4.389377310872078E-3  
 2.214000000000000E10    5.256238859146833E-3   5.863380618393421E-3  
 2.216000000000000E10    5.890241358429194E-3  -6.458746269345284E-3  
 2.218000000000000E10   -6.537719629704952E-3  -4.549617413431406E-3  
 2.220000000000000E10   -3.870625980198383E-3   7.272804155945778E-3  
 2.222000000000000E10    7.901975885033608E-3   3.347058314830065E-3  
 2.224000000000000E10    2.149272942915559E-3  -8.274097926914692E-3  
 2.226000000000000E10   -9.091766551136971E-3  -1.225097570568323E-3  
 2.228000000000000E10   -2.159077121177688E-4   9.312210604548454E-3  
 2.230000000000000E10    9.274723008275032E-3  -9.099832968786359E-4  
 2.232000000000000E10   -1.565111335366964E-3  -9.403559379279614E-3  
 2.234000000000000E10   -9.019969031214714E-3   3.243425162509084E-3  
 2.236000000000000E10    3.916434943675995E-3   8.325613103806973E-3  
 2.238000000000000E10    8.233536966145039E-3  -4.378062207251787E-3  
 2.240000000000000E10   -5.296858958899975E-3  -7.945192046463490E-3  
 2.242000000000000E10   -7.137459702789784E-3   6.670037284493446E-3  
 2.244000000000000E10    7.239390164613724E-3   6.234590895473957E-3  
 2.246000000000000E10    5.184674635529518E-3  -7.290721870958805E-3  
 2.248000000000000E10   -8.282305672764778E-3  -4.047869239002466E-3  
 2.250000000000000E10   -3.459465224295855E-3   9.392019361257553E-3  
 2.252000000000000E10    9.155995212495327E-3   2.370666945353150E-3  
 2.254000000000000E10    1.032700180076063E-3  -8.840207941830158E-3  
 2.256000000000000E10   -9.682091884315014E-3   2.945327432826161E-4  
 2.258000000000000E10    1.576909096911550E-3   1.002404931932688E-2  
 2.260000000000000E10    9.404744952917099E-3  -1.707193674519658E-3  
 2.262000000000000E10   -3.076738910749555E-3  -8.871007710695267E-3  
 2.264000000000000E10   -8.950436487793922E-3   4.392155446112156E-3  
 2.266000000000000E10    5.472060292959213E-3   8.980669081211090E-3  
 2.268000000000000E10    8.305785246193409E-3  -6.399273872375488E-3  
 2.270000000000000E10   -6.953359581530094E-3  -7.174496538937092E-3  
 2.272000000000000E10   -6.524580996483564E-3   7.798542734235525E-3  
 2.274000000000000E10    8.874596096575260E-3   5.652349442243576E-3  
 2.276000000000000E10    4.967168904840946E-3  -9.180507622659206E-3  
 2.278000000000000E10   -9.604120627045631E-3  -3.551398869603872E-3  
 2.280000000000000E10   -2.293891739100218E-3   9.902800433337688E-3  
 2.282000000000000E10    7.545135915279388E-3   7.002763915807009E-3  
 2.284000000000000E10    5.522763240151107E-4  -1.004859153181315E-2  
 2.286000000000000E10   -9.862038306891918E-3   9.439905406907201E-4  
 2.288000000000000E10    2.175163244828582E-3   9.705391712486744E-3  
 2.290000000000000E10    9.337794966995716E-3  -3.035498317331076E-3  
 2.292000000000000E10   -4.434533417224884E-3  -9.334178641438484E-3  
 2.294000000000000E10   -8.416702970862389E-3   5.382203031331301E-3  
 2.296000000000000E10    6.625962443649769E-3   7.967201992869377E-3  
 2.298000000000000E10    7.263900712132454E-3  -7.593061309307814E-3  
 2.300000000000000E10   -8.259199559688568E-3  -6.613847333937883E-3  
 2.302000000000000E10   -5.512000527232885E-3   9.423810988664627E-3  
 2.304000000000000E10    1.028485782444477E-2   3.936825320124626E-3  
 2.306000000000000E10    3.157651983201504E-3  -1.046326570212841E-2  
 2.308000000000000E10   -1.093631051480770E-2  -2.332329982891679E-3  
 2.310000000000000E10   -1.050191931426525E-3   1.092336606234312E-2  
 2.312000000000000E10    1.139216404408217E-2  -4.364804772194475E-4  
 2.314000000000000E10   -1.864249701611698E-3  -1.157809700816870E-2  
 2.316000000000000E10   -1.108740270137787E-2   3.036536043509841E-3  
 2.318000000000000E10    4.452812485396862E-3   1.040772348642349E-2  
 2.320000000000000E10    9.794220328330994E-3  -5.665570031851530E-3  
 2.322000000000000E10   -6.699795834720135E-3  -9.024325758218765E-3  
 2.324000000000000E10   -8.588764816522598E-3   7.373854052275419E-3  
 2.326000000000000E10    8.180934935808182E-3   7.418346125632525E-3  
 2.328000000000000E10    6.347802933305502E-3  -9.971414692699909E-3  
 2.330000000000000E10   -1.079300791025162E-2  -5.123514682054520E-3  
 2.332000000000000E10   -3.585684346035123E-3   1.088379044085741E-2  
 2.334000000000000E10    1.130322739481926E-2   2.248510019853711E-3  
 2.336000000000000E10    2.808411954902113E-4  -1.172910444438458E-2  
 2.338000000000000E10   -1.148254703730345E-2   1.171263516880572E-3  
 2.340000000000000E10    1.992837060242891E-3   1.147497445344925E-2  
 2.342000000000000E10    1.090665441006422E-2  -3.604359459131956E-3  
 2.344000000000000E10   -5.402088630944490E-3  -1.109604910016060E-2  
 2.346000000000000E10   -1.044483669102192E-2   6.559590343385935E-3  
 2.348000000000000E10    7.572483271360397E-3   9.244152344763279E-3  
 2.350000000000000E10    8.555243723094463E-3  -8.907832205295563E-3  
 2.352000000000000E10   -9.941000491380692E-3  -7.568724453449249E-3  
 2.354000000000000E10   -6.337959319353104E-3   1.047087740153074E-2  
 2.356000000000000E10    1.165033038705587E-2   5.215796642005444E-3  
 2.358000000000000E10    3.844316815957427E-3  -1.205916143953800E-2  
 2.360000000000000E10   -1.252360735088587E-2  -2.442551776766777E-3  
 2.362000000000000E10   -9.218930499628186E-4   1.293211895972490E-2  
 2.364000000000000E10    1.232099905610085E-2  -8.746318635530770E-4  
 2.366000000000000E10   -2.363571664318442E-3  -1.212666835635901E-2  
 2.368000000000000E10   -1.171544939279556E-2   3.630692837759852E-3  
 2.370000000000000E10    4.909965209662914E-3   1.108858827501535E-2  
 2.372000000000000E10    1.042317040264607E-2  -6.461948156356812E-3  
 2.374000000000000E10   -7.717308588325977E-3  -9.946598671376705E-3  
 2.376000000000000E10   -9.066063910722733E-3   9.083321318030357E-3  
 2.378000000000000E10    1.073109731078148E-2   7.651058025658131E-3  
 2.380000000000000E10    6.225870922207832E-3  -1.214966550469399E-2  
 2.382000000000000E10   -1.288963295519352E-2  -4.602440167218447E-3  
 2.384000000000000E10   -2.929690061137080E-3   1.368768513202667E-2  
 2.386000000000000E10    1.415499020367861E-2   1.261198776774108E-3  
 2.388000000000000E10   -4.720142169389874E-4  -1.460245810449123E-2  
 2.390000000000000E10   -1.420454028993845E-2   2.321691485121846E-3  
 2.392000000000000E10    4.083133768290281E-3   1.349962130188942E-2  
 2.394000000000000E10    1.277660299092531E-2  -5.855541210621595E-3  
 2.396000000000000E10   -7.178972009569407E-3  -1.283796131610870E-2  
 2.398000000000000E10   -1.121532265096903E-2   8.734726347029209E-3  
 2.400000000000000E10    9.766811504960060E-3   9.697628207504749E-3  
 2.402000000000000E10    6.695081945508719E-3  -1.207619998604059E-2  
 2.404000000000000E10   -1.229174248874188E-2  -5.267614033073187E-3  
 2.406000000000000E10   -4.353846888989210E-3   1.250253152102232E-2  
 2.408000000000000E10    1.294331159442663E-2   2.663971390575171E-3  
 2.410000000000000E10    1.176552264951170E-3  -1.306538097560406E-2  
 2.412000000000000E10   -1.333341188728809E-2   3.275006019975990E-4  
 2.414000000000000E10    2.014069119468331E-3   1.323611382395029E-2  
 2.416000000000000E10    1.341279596090317E-2  -3.811089321970940E-3  
 2.418000000000000E10   -5.694568622857332E-3  -1.252399571239948E-2  
 2.420000000000000E10   -1.119718421250582E-2   7.021147757768631E-3  
 2.422000000000000E10    8.078004233539105E-3   1.073673646897078E-2  
 2.424000000000000E10    9.986204095184803E-3  -9.403485804796219E-3  
 2.426000000000000E10   -1.022178959101439E-2  -8.811553940176964E-3  
 2.428000000000000E10   -7.423007860779762E-3   1.191356219351292E-2  
 2.430000000000000E10    1.225123275071383E-2   6.258241832256317E-3  
 2.432000000000000E10    5.241489969193935E-3  -1.300159841775894E-2  
 2.434000000000000E10   -1.394027564674616E-2  -3.312224289402366E-3  
 2.436000000000000E10   -1.180630992166698E-3   1.406622491776943E-2  
 2.438000000000000E10    1.354019157588482E-2  -9.082260658033192E-5  
 2.440000000000000E10   -1.617213245481253E-3  -1.324148848652840E-2  
 2.442000000000000E10   -1.304714661091566E-2   2.890820149332285E-3  
 2.444000000000000E10    4.593503661453724E-3   1.230375003069639E-2  
 2.446000000000000E10    1.101672369986773E-2  -5.414715968072414E-3  
 2.448000000000000E10   -6.455286871641874E-3  -9.969133883714676E-3  
 2.450000000000000E10   -9.241792373359203E-3   8.023488335311413E-3  
 2.452000000000000E10    8.712538518011570E-3   8.968438021838665E-3  
 2.454000000000000E10    7.215293124318123E-3  -9.476533159613609E-3  
 2.456000000000000E10   -1.049471646547318E-2  -5.926583427935839E-3  
 2.458000000000000E10   -5.925249774008989E-3   1.143126655369997E-2  
 2.460000000000000E10    1.225698366761208E-2   3.808745415881276E-3  
 2.462000000000000E10    2.629959722980857E-3  -1.264800690114498E-2  
 2.464000000000000E10   -1.270391047000885E-2  -1.516901189461350E-3  
 2.466000000000000E10   -1.737046259222552E-4   1.344574708491564E-2  
 2.468000000000000E10    1.386574562638998E-2  -1.613664091564715E-3  
 2.470000000000000E10   -3.681464120745659E-3  -1.297963131219149E-2  
 2.472000000000000E10   -1.181980315595865E-2   5.358289461582899E-3  
 2.474000000000000E10    5.510228686034679E-3   1.126914285123348E-2  
 2.476000000000000E10    1.015652343630791E-2  -6.660563871264458E-3  
 2.478000000000000E10   -8.141407743096352E-3  -9.479619562625885E-3  
 2.480000000000000E10   -8.385739289224148E-3   8.311789482831955E-3  
 2.482000000000000E10    9.563700295984745E-3   7.303462363779545E-3  
 2.484000000000000E10    6.079850718379021E-3  -1.065540406852961E-2  
 2.486000000000000E10   -1.141612790524960E-2  -4.353526048362255E-3  
 2.488000000000000E10   -2.445176476612687E-3   1.180825103074312E-2  
 2.490000000000000E10    1.109995972365141E-2   1.603075303137302E-3  
 2.492000000000000E10    4.795883724000305E-4  -1.112901512533426E-2  
 2.494000000000000E10   -1.182363461703062E-2   9.081248426809907E-4  
 2.496000000000000E10    2.435840200632811E-3   1.183930691331625E-2  
 2.498000000000000E10    1.142452936619520E-2  -3.998739644885063E-3  
 2.500000000000000E10   -5.022881552577019E-3  -1.094321161508560E-2  
 2.502000000000000E10   -1.059725880622864E-2   6.076849531382322E-3  
 2.504000000000000E10    7.958678528666496E-3   9.389322251081467E-3  
 2.506000000000000E10    8.055846206843853E-3  -7.672320120036602E-3  
 2.508000000000000E10   -8.167824707925320E-3  -8.059990592300892E-3  
 2.510000000000000E10   -7.551074959337711E-3   9.480771608650684E-3  
 2.512000000000000E10    1.035389676690102E-2   6.654319353401661E-3  
 2.514000000000000E10    5.289119668304920E-3  -1.151177287101746E-2  
 2.516000000000000E10   -1.185355056077242E-2  -3.298155963420868E-3  
 2.518000000000000E10   -2.288250252604485E-3   1.247551105916500E-2  
 2.520000000000000E10    1.301797386258841E-2   7.275217212736607E-4  
 2.522000000000000E10   -1.107367104850709E-3  -1.159603893756867E-2  
 2.524000000000000E10   -1.174660120159388E-2   2.802107948809862E-3  
 2.526000000000000E10    3.895352594554424E-3   1.132250111550093E-2  
 2.528000000000000E10    1.063641160726547E-2  -4.709181841462851E-3  
 2.530000000000000E10   -6.462215445935726E-3  -1.020863745361567E-2  
 2.532000000000000E10   -8.745889179408550E-3   7.821675390005112E-3  
 2.534000000000000E10    8.796862326562405E-3   8.617392741143704E-3  
 2.536000000000000E10    7.084494456648827E-3  -1.009270269423723E-2  
 2.538000000000000E10   -1.011062320321798E-2  -5.546985659748316E-3  
 2.540000000000000E10   -4.411402624100447E-3   1.145823672413826E-2  
 2.542000000000000E10    1.189871225506067E-2   3.465521847829223E-3  
 2.544000000000000E10    2.127896295860410E-3  -1.222427189350128E-2  
 2.546000000000000E10   -1.279981620609760E-2  -8.536299574188888E-4  
 2.548000000000000E10    8.993851952254772E-4   1.291248481720686E-2  
 2.550000000000000E10    1.318886410444975E-2  -2.631235867738724E-3  
 2.552000000000000E10   -4.798226058483124E-3  -1.268208678811789E-2  
 2.554000000000000E10   -1.096528302878141E-2   6.300617475062609E-3  
 2.556000000000000E10    7.088424172252417E-3   1.007137447595596E-2  
 2.558000000000000E10    9.098097681999207E-3  -8.512971922755241E-3  
 2.560000000000000E10   -9.372226893901825E-3  -8.023518137633801E-3  
 2.562000000000000E10   -7.181443739682436E-3   9.866436012089253E-3  
 2.564000000000000E10    1.091592200100422E-2   5.906160920858383E-3  
 2.566000000000000E10    4.528075456619263E-3  -1.249083969742060E-2  
 2.568000000000000E10   -1.320398319512606E-2  -2.714633941650391E-3  
 2.570000000000000E10   -1.156654179794714E-4   1.290199160575867E-2  
 2.572000000000000E10    1.233934704214335E-2  -1.346202800050378E-3  
 2.574000000000000E10   -2.440451877191663E-3  -1.286221388727427E-2  
 2.576000000000000E10   -1.293168682605028E-2   3.914316650480032E-3  
 2.578000000000000E10    6.075019482523203E-3   1.226796023547649E-2  
 2.580000000000000E10    1.074857544153929E-2  -8.284954354166985E-3  
 2.582000000000000E10   -9.086441248655319E-3  -1.020602695643902E-2  
 2.584000000000000E10   -8.941791020333767E-3   1.045025046914816E-2  
 2.586000000000000E10    1.166502293199301E-2   7.089409511536360E-3  
 2.588000000000000E10    5.588047672063112E-3  -1.170768775045872E-2  
 2.590000000000000E10   -1.158213801681995E-2  -4.603647626936436E-3  
 2.592000000000000E10   -4.003462847322226E-3   1.279380638152361E-2  
 2.594000000000000E10    1.327859237790108E-2   2.590848598629236E-3  
 2.596000000000000E10    8.750464767217636E-4  -1.366890687495470E-2  
 2.598000000000000E10   -1.392802130430937E-2   9.627825929783285E-4  
 2.600000000000000E10    2.921548206359148E-3   1.416599005460739E-2  
 2.602000000000000E10    1.378063764423132E-2  -5.147044081240892E-3  
 2.604000000000000E10   -6.121076177805662E-3  -1.201959047466517E-2  
 2.606000000000000E10   -1.077142264693975E-2   8.036865852773190E-3  
 2.608000000000000E10    8.714298717677593E-3   1.064555440098047E-2  
 2.610000000000000E10    9.558302350342274E-3  -9.247437119483948E-3  
 2.612000000000000E10   -1.045384071767330E-2  -7.923252880573273E-3  
 2.614000000000000E10   -7.237333338707686E-3   1.159852556884289E-2  
 2.616000000000000E10    1.222798414528370E-2   5.673035513609648E-3  
 2.618000000000000E10    3.991116303950548E-3  -1.276805251836777E-2  
 2.620000000000000E10   -1.290179975330830E-2  -2.317385980859399E-3  
 2.622000000000000E10   -9.189902921207249E-4   1.326969079673290E-2  
 2.624000000000000E10    1.300565153360367E-2   1.629439648240805E-4  
 2.626000000000000E10   -1.555675757117569E-3  -1.307021919637919E-2  
 2.628000000000000E10   -1.355675794184208E-2   3.792699659243226E-3  
 2.630000000000000E10    5.340839270502329E-3   1.323529612272978E-2  
 2.632000000000000E10    1.167926564812660E-2  -7.755500264465809E-3  
 2.634000000000000E10   -8.945603854954243E-3  -1.087001524865627E-2  
 2.636000000000000E10   -9.930059313774109E-3   9.704311378300190E-3  
 2.638000000000000E10    1.111899968236685E-2   8.144332095980644E-3  
 2.640000000000000E10    6.704235449433327E-3  -1.176114473491907E-2  
 2.642000000000000E10   -1.233985275030136E-2  -5.274576600641012E-3  
 2.644000000000000E10   -4.039271734654903E-3   1.299300324171782E-2  
 2.646000000000000E10    1.332778111100197E-2   2.504403935745359E-3  
 2.648000000000000E10    2.134083333658055E-4  -1.371887512505055E-2  
 2.650000000000000E10   -1.393518876284361E-2   1.038325368426740E-3  
 2.652000000000000E10    2.408938249573112E-3   1.324167475104332E-2  
 2.654000000000000E10    1.251750253140926E-2  -5.224271211773157E-3  
 2.656000000000000E10   -6.673027761280537E-3  -1.180276088416576E-2  
 2.658000000000000E10   -1.085555460304022E-2   7.382819429039955E-3  
 2.660000000000000E10    9.180952794849873E-3   9.513507597148418E-3  
 2.662000000000000E10    8.105493150651455E-3  -1.030946336686611E-2  
 2.664000000000000E10   -1.111767813563347E-2  -6.726828403770924E-3  
 2.666000000000000E10   -5.213080439716578E-3   1.139651145786047E-2  
 2.668000000000000E10    1.168528851121664E-2   3.511645132675767E-3  
 2.670000000000000E10    1.940940623171628E-3  -1.242078375071287E-2  
 2.672000000000000E10   -1.212477404624224E-2  -9.041384910233319E-4  
 2.674000000000000E10    1.873955916380510E-4   1.214561797678471E-2  
 2.676000000000000E10    1.214286126196384E-2  -2.074404386803508E-3  
 2.678000000000000E10   -3.132352372631431E-3  -1.165888551622629E-2  
 2.680000000000000E10   -1.118022855371237E-2   4.608945455402136E-3  
 2.682000000000000E10    5.874851252883673E-3   1.054282858967781E-2  
 2.684000000000000E10    1.010469440370798E-2  -7.527403067797422E-3  
 2.686000000000000E10   -8.644263260066509E-3  -8.255786262452602E-3  
 2.688000000000000E10   -7.158936932682991E-3   9.346798062324524E-3  
 2.690000000000000E10    9.964707307517529E-3   6.195650901645422E-3  
 2.692000000000000E10    4.912819713354111E-3  -1.037256140261889E-2  
 2.694000000000000E10   -1.062370091676712E-2  -3.457287792116404E-3  
 2.696000000000000E10   -2.123432466760278E-3   1.118855923414230E-2  
 2.698000000000000E10    1.114787999540567E-2   9.672979358583689E-4  
 2.700000000000000E10   -4.264722520019859E-4  -1.137363072484732E-2  
 2.702000000000000E10   -1.124721579253674E-2   1.930495724081993E-3  
 2.704000000000000E10    3.182902466505766E-3   1.071098819375038E-2  
 2.706000000000000E10    9.922923520207405E-3  -3.953550476580858E-3  
 2.708000000000000E10   -4.953335039317608E-3  -8.902261964976788E-3  
 2.710000000000000E10   -9.180793538689613E-3   6.158644799143076E-3  
 2.712000000000000E10    6.983503233641386E-3   8.432609029114246E-3  
 2.714000000000000E10    6.614931393414736E-3  -7.393715903162956E-3  
 2.716000000000000E10   -8.472465910017490E-3  -5.441001616418362E-3  
 2.718000000000000E10   -4.790516570210457E-3   8.804554119706154E-3  
 2.720000000000000E10    9.313688613474369E-3   3.485193476080895E-3  
 2.722000000000000E10    2.464004093781114E-3  -9.461400099098682E-3  
 2.724000000000000E10   -9.707021526992321E-3  -1.288530882447958E-3  
 2.726000000000000E10   -6.230172584764659E-4   1.013917289674282E-2  
 2.728000000000000E10    1.022338122129440E-2  -5.279307952150703E-4  
 2.730000000000000E10   -1.954603940248489E-3  -9.245152585208416E-3  
 2.732000000000000E10   -9.647863917052746E-3   3.035171423107386E-3  
 2.734000000000000E10    3.981416113674641E-3   9.038896299898624E-3  
 2.736000000000000E10    8.872461505234242E-3  -5.083323922008276E-3  
 2.738000000000000E10   -6.454716902226210E-3  -7.930927909910679E-3  
 2.740000000000000E10   -6.481078453361988E-3   6.595827639102936E-3  
 2.742000000000000E10    7.796718738973141E-3   5.985951982438564E-3  
 2.744000000000000E10    5.041501950472593E-3  -8.160966448485851E-3  
 2.746000000000000E10   -8.166588842868805E-3  -3.736790968105197E-3  
 2.748000000000000E10   -2.641855273395777E-3   8.897096849977970E-3  
 2.750000000000000E10    8.860832080245018E-3   1.711983582936227E-3  
 2.752000000000000E10    8.732306305319071E-4  -9.007377550005913E-3  
 2.754000000000000E10   -8.808697573840618E-3   7.557141543657053E-6  
 2.756000000000000E10    1.445464557036758E-3   8.296784013509750E-3  
