#  HZ   S   RI   R     50.00 
! Rohde & Schwarz ZVA40 4Ports - Version 3.90 - 1145.1110k42 SN: 100403
! Date: 2023-10-04 08:41:05
! Measurement: S12 
! 
 2.200000000000000E10    6.924876943230629E-3  -6.514050997793675E-3  
 2.202000000000000E10   -7.370065432041884E-3  -5.152763333171606E-3  
 2.204000000000000E10   -4.916672129184008E-3   7.957655005156994E-3  
 2.206000000000000E10    9.092823602259159E-3   3.618021262809634E-3  
 2.208000000000000E10    2.621724037453532E-3  -9.365752339363098E-3  
 2.210000000000000E10   -9.387264959514141E-3  -1.223207451403141E-3  
 2.212000000000000E10    1.633647334529087E-4   9.594153612852097E-3  
 2.214000000000000E10    9.807072579860687E-3  -7.436659070663154E-4  
 2.216000000000000E10   -1.872515189461410E-3  -9.744874201714993E-3  
 2.218000000000000E10   -9.556110017001629E-3   3.204323817044497E-3  
 2.220000000000000E10    3.337746253237128E-3   9.341915138065815E-3  
 2.222000000000000E10    9.193493053317070E-3  -4.454017151147127E-3  
 2.224000000000000E10   -5.938530899584293E-3  -8.588738739490509E-3  
 2.226000000000000E10   -7.940183393657208E-3   6.612712983042002E-3  
 2.228000000000000E10    7.701999507844448E-3   7.358441129326820E-3  
 2.230000000000000E10    6.231739185750485E-3  -8.345203474164009E-3  
 2.232000000000000E10   -8.901494555175304E-3  -4.963536281138659E-3  
 2.234000000000000E10   -3.894320689141750E-3   9.428912773728371E-3  
 2.236000000000000E10    9.916896000504494E-3   2.579614054411650E-3  
 2.238000000000000E10    1.755062490701675E-3  -1.001546531915665E-2  
 2.240000000000000E10   -1.023911405354738E-2  -7.007056265138090E-4  
 2.242000000000000E10    1.273652655072510E-3   1.030516996979713E-2  
 2.244000000000000E10    1.008886937052012E-2  -2.914633601903915E-3  
 2.246000000000000E10   -3.672694321721792E-3  -9.787177667021751E-3  
 2.248000000000000E10   -9.622295387089253E-3   4.289909265935421E-3  
 2.250000000000000E10    6.024157162755728E-3   8.860500529408455E-3  
 2.252000000000000E10    8.290680125355721E-3  -7.494852878153324E-3  
 2.254000000000000E10   -8.143022656440735E-3  -8.141820318996906E-3  
 2.256000000000000E10   -7.150982972234488E-3   8.634250611066818E-3  
 2.258000000000000E10    9.735891595482826E-3   5.588727537542582E-3  
 2.260000000000000E10    5.241016857326031E-3  -1.034789811819792E-2  
 2.262000000000000E10   -1.051785983145237E-2  -4.167607054114342E-3  
 2.264000000000000E10   -3.203661646693945E-3   1.073363889008761E-2  
 2.266000000000000E10    1.130700949579477E-2   1.302982098422945E-3  
 2.268000000000000E10    5.889059975743294E-4  -1.142104063183069E-2  
 2.270000000000000E10   -1.115700416266918E-2   6.542921182699502E-4  
 2.272000000000000E10    1.648790552280843E-3   1.097649242728949E-2  
 2.274000000000000E10    1.122121606022120E-2  -3.649729071184993E-3  
 2.276000000000000E10   -5.113684106618166E-3  -1.063491683453322E-2  
 2.278000000000000E10   -9.914206340909004E-3   6.226736120879650E-3  
 2.280000000000000E10    7.252600509673357E-3   8.480571210384369E-3  
 2.282000000000000E10    1.079496834427118E-2  -2.573772566393018E-3  
 2.284000000000000E10   -9.641183540225029E-3  -6.877804175019264E-3  
 2.286000000000000E10   -5.608452484011650E-3   1.010642666369677E-2  
 2.288000000000000E10    1.052511949092150E-2   4.434131085872650E-3  
 2.290000000000000E10    3.313763998448849E-3  -1.115751173347235E-2  
 2.292000000000000E10   -1.205724198371172E-2  -2.088376320898533E-3  
 2.294000000000000E10   -6.973436102271080E-4   1.198387425392866E-2  
 2.296000000000000E10    1.183367986232042E-2  -8.049103780649602E-4  
 2.298000000000000E10   -1.674648839980364E-3  -1.154305785894394E-2  
 2.300000000000000E10   -1.173103693872690E-2   2.885507186874747E-3  
 2.302000000000000E10    4.134898539632559E-3   1.169688068330288E-2  
 2.304000000000000E10    1.085567194968462E-2  -5.606998223811388E-3  
 2.306000000000000E10   -6.776132155209780E-3  -9.591887705028057E-3  
 2.308000000000000E10   -9.145538322627544E-3   7.756513077765703E-3  
 2.310000000000000E10    9.228227660059929E-3   8.446563966572285E-3  
 2.312000000000000E10    6.865324452519417E-3  -1.020446512848139E-2  
 2.314000000000000E10   -1.072533708065748E-2  -4.855934996157885E-3  
 2.316000000000000E10   -3.960872069001198E-3   1.145012024790049E-2  
 2.318000000000000E10    1.198035012930632E-2   2.774676773697138E-3  
 2.320000000000000E10    1.052279840223491E-3  -1.204329263418913E-2  
 2.322000000000000E10   -1.275171060115099E-2   2.243320050183684E-4  
 2.324000000000000E10    1.855909358710051E-3   1.258404180407524E-2  
 2.326000000000000E10    1.306558214128017E-2  -3.557573538273573E-3  
 2.328000000000000E10   -5.309454631060362E-3  -1.249965000897646E-2  
 2.330000000000000E10   -1.098948437720537E-2   6.917921360582113E-3  
 2.332000000000000E10    8.264199830591679E-3   1.077666506171227E-2  
 2.334000000000000E10    9.453549049794674E-3  -9.285894222557545E-3  
 2.336000000000000E10   -1.052462495863438E-2  -8.580347523093224E-3  
 2.338000000000000E10   -7.336796261370182E-3   1.161164510995150E-2  
 2.340000000000000E10    1.249782834202051E-2   6.020617205649614E-3  
 2.342000000000000E10    4.670182242989540E-3  -1.338625792413950E-2  
 2.344000000000000E10   -1.384706515818834E-2  -2.477888017892838E-3  
 2.346000000000000E10   -1.063789939507842E-3   1.342311315238476E-2  
 2.348000000000000E10    1.307530701160431E-2  -6.613873410969973E-4  
 2.350000000000000E10   -1.642436138354242E-3  -1.291046105325222E-2  
 2.352000000000000E10   -1.276754774153233E-2   3.775106742978096E-3  
 2.354000000000000E10    5.336484871804714E-3   1.269594300538302E-2  
 2.356000000000000E10    1.205749623477459E-2  -6.414201110601425E-3  
 2.358000000000000E10   -8.707373403012753E-3  -1.060079783201218E-2  
 2.360000000000000E10   -9.838169440627098E-3   1.032871659845114E-2  
 2.362000000000000E10    1.120629627257586E-2   8.095656521618366E-3  
 2.364000000000000E10    6.053016986697912E-3  -1.269335485994816E-2  
 2.366000000000000E10   -1.287923287600279E-2  -4.525851923972368E-3  
 2.368000000000000E10   -3.383601550012827E-3   1.368187926709652E-2  
 2.370000000000000E10    1.434669084846973E-2   1.937018707394600E-3  
 2.372000000000000E10    2.784893731586635E-4  -1.434697676450014E-2  
 2.374000000000000E10   -1.468018349260092E-2   2.080245874822140E-3  
 2.376000000000000E10    3.405995666980743E-3   1.483163516968489E-2  
 2.378000000000000E10    1.408686954528093E-2  -5.113194696605206E-3  
 2.380000000000000E10   -7.474463433027268E-3  -1.366044394671917E-2  
 2.382000000000000E10   -1.276692561805248E-2   9.112318046391010E-3  
 2.384000000000000E10    1.031628064811230E-2   1.180408243089914E-2  
 2.386000000000000E10    1.046113763004541E-2  -1.176175381988287E-2  
 2.388000000000000E10   -1.302350312471390E-2  -8.814933709800243E-3  
 2.390000000000000E10   -6.584477145224810E-3   1.403471361845732E-2  
 2.392000000000000E10    1.480708830058575E-2   4.891895689070225E-3  
 2.394000000000000E10    3.044853918254376E-3  -1.463792752474546E-2  
 2.396000000000000E10   -1.490583922713995E-2  -9.677407797425985E-4  
 2.398000000000000E10    9.207786642946303E-4   1.499828230589628E-2  
 2.400000000000000E10    1.443417649716139E-2  -3.235286567360163E-3  
 2.402000000000000E10   -6.455015391111374E-3  -1.279195118695498E-2  
 2.404000000000000E10   -1.221411675214768E-2   7.942378520965576E-3  
 2.406000000000000E10    9.294891729950905E-3   1.139368116855621E-2  
 2.408000000000000E10    1.032955851405859E-2  -1.103665214031935E-2  
 2.410000000000000E10   -1.207698043435812E-2  -9.015636518597603E-3  
 2.412000000000000E10   -7.423733361065388E-3   1.308713294565678E-2  
 2.414000000000000E10    1.454996690154076E-2   6.245462223887444E-3  
 2.416000000000000E10    4.630378913134337E-3  -1.507581770420075E-2  
 2.418000000000000E10   -1.567618548870087E-2  -2.459578914567828E-3  
 2.420000000000000E10   -5.081247072666884E-4   1.530387904495001E-2  
 2.422000000000000E10    1.505596097558737E-2  -7.024615188129246E-4  
 2.424000000000000E10   -2.184034790843725E-3  -1.563257165253162E-2  
 2.426000000000000E10   -1.482781302183867E-2   3.629903309047222E-3  
 2.428000000000000E10    5.660787690430880E-3   1.391353923827410E-2  
 2.430000000000000E10    1.334567647427321E-2  -7.144901901483536E-3  
 2.432000000000000E10   -8.467987179756165E-3  -1.258393470197916E-2  
 2.434000000000000E10   -1.114262454211712E-2   1.027810573577881E-2  
 2.436000000000000E10    1.191532798111439E-2   8.925558067858219E-3  
 2.438000000000000E10    7.543448824435473E-3  -1.210481673479080E-2  
 2.440000000000000E10   -1.286364812403917E-2  -6.380067672580481E-3  
 2.442000000000000E10   -4.549762234091759E-3   1.344746537506580E-2  
 2.444000000000000E10    1.376753021031618E-2   2.886355854570866E-3  
 2.446000000000000E10    1.431233831681311E-3  -1.413048338145018E-2  
 2.448000000000000E10   -1.388323213905096E-2   1.136739447247237E-4  
 2.450000000000000E10    1.452564960345626E-3   1.399037800729275E-2  
 2.452000000000000E10    1.414492353796959E-2  -3.607241204008460E-3  
 2.454000000000000E10   -4.596397280693054E-3  -1.392752490937710E-2  
 2.456000000000000E10   -1.275126077234745E-2   5.697063636034727E-3  
 2.458000000000000E10    7.513962686061859E-3   1.250991132110357E-2  
 2.460000000000000E10    1.183336880058050E-2  -8.967890404164791E-3  
 2.462000000000000E10   -1.001129765063524E-2  -1.012788992375135E-2  
 2.464000000000000E10   -8.824679069221020E-3   1.122742984443903E-2  
 2.466000000000000E10    1.214208919554949E-2   7.994081825017929E-3  
 2.468000000000000E10    6.423229351639748E-3  -1.312083192169666E-2  
 2.470000000000000E10   -1.334990374743938E-2  -4.319597501307726E-3  
 2.472000000000000E10   -2.247503725811839E-3   1.344577688723803E-2  
 2.474000000000000E10    1.335706561803818E-2   1.333500607870519E-3  
 2.476000000000000E10   -2.099288394674659E-4  -1.356149371713400E-2  
 2.478000000000000E10   -1.284397486597300E-2   2.112073358148336E-3  
 2.480000000000000E10    4.044739063829184E-3   1.284789294004440E-2  
 2.482000000000000E10    1.260697748512030E-2  -4.712196532636881E-3  
 2.484000000000000E10   -6.591336335986853E-3  -1.189980376511812E-2  
 2.486000000000000E10   -1.085323095321655E-2   8.443522267043591E-3  
 2.488000000000000E10    9.292179718613625E-3   9.637087583541870E-3  
 2.490000000000000E10    8.755485527217388E-3  -1.006935536861420E-2  
 2.492000000000000E10   -1.119446754455566E-2  -7.783218752592802E-3  
 2.494000000000000E10   -6.654044147580862E-3   1.227795612066984E-2  
 2.496000000000000E10    1.375838369131088E-2   5.134703125804663E-3  
 2.498000000000000E10    3.307334845885634E-3  -1.332715619355440E-2  
 2.500000000000000E10   -1.364137977361679E-2  -2.001367509365082E-3  
 2.502000000000000E10   -4.619535466190428E-4   1.410806737840176E-2  
 2.504000000000000E10    1.333257835358381E-2  -1.479704165831208E-3  
 2.506000000000000E10   -2.649407833814621E-3  -1.245029829442501E-2  
 2.508000000000000E10   -1.240690052509308E-2   2.938694553449750E-3  
 2.510000000000000E10    4.235794302076101E-3   1.244114246219397E-2  
 2.512000000000000E10    1.134874578565359E-2  -6.337734404951334E-3  
 2.514000000000000E10   -7.546410895884037E-3  -1.096908189356327E-2  
 2.516000000000000E10   -1.002927031368017E-2   8.715647272765636E-3  
 2.518000000000000E10    9.905030019581318E-3   8.438245393335819E-3  
 2.520000000000000E10    7.501336745917797E-3  -1.148859225213528E-2  
 2.522000000000000E10   -1.256866194307804E-2  -5.880331620573998E-3  
 2.524000000000000E10   -4.531443584710360E-3   1.240832079201937E-2  
 2.526000000000000E10    1.297818124294281E-2   2.725642872974277E-3  
 2.528000000000000E10    1.019544899463654E-3  -1.383428648114204E-2  
 2.530000000000000E10   -1.450694445520639E-2  -1.897517067845911E-4  
 2.532000000000000E10    2.113653346896172E-3   1.394645962864161E-2  
 2.534000000000000E10    1.336712017655373E-2  -3.603461198508740E-3  
 2.536000000000000E10   -5.312936846166849E-3  -1.327288523316383E-2  
 2.538000000000000E10   -1.270124688744545E-2   6.475372705608606E-3  
 2.540000000000000E10    7.872199639678001E-3   1.160789933055639E-2  
 2.542000000000000E10    1.067953929305077E-2  -9.707546792924404E-3  
 2.544000000000000E10   -1.115540415048599E-2  -9.664177894592285E-3  
 2.546000000000000E10   -8.124998770654202E-3   1.156143937259913E-2  
 2.548000000000000E10    1.263796165585518E-2   6.277397274971008E-3  
 2.550000000000000E10    3.907932434231043E-3  -1.384633034467697E-2  
 2.552000000000000E10   -1.387297268956900E-2  -2.350454917177558E-3  
 2.554000000000000E10   -2.657429431565106E-4   1.374323666095734E-2  
 2.556000000000000E10    1.313757058233023E-2  -1.225730055011809E-3  
 2.558000000000000E10   -2.895280485972762E-3  -1.331813074648380E-2  
 2.560000000000000E10   -1.213194429874420E-2   4.512932617217302E-3  
 2.562000000000000E10    5.629525054246187E-3   1.170619018375874E-2  
 2.564000000000000E10    1.168072409927845E-2  -6.996523123234510E-3  
 2.566000000000000E10   -8.825873956084251E-3  -1.073973719030619E-2  
 2.568000000000000E10   -9.537184610962868E-3   1.091493014246225E-2  
 2.570000000000000E10    1.239411626011133E-2   8.138676173985004E-3  
 2.572000000000000E10    6.565839052200317E-3  -1.297769136726856E-2  
 2.574000000000000E10   -1.388308592140675E-2  -5.485440138727427E-3  
 2.576000000000000E10   -3.209128277376294E-3   1.557263638824225E-2  
 2.578000000000000E10    1.566050015389919E-2   7.965075201354921E-4  
 2.580000000000000E10   -1.242108293808997E-3  -1.493571884930134E-2  
 2.582000000000000E10   -1.467416621744633E-2   3.070207545533776E-3  
 2.584000000000000E10    4.312979057431221E-3   1.470225490629673E-2  
 2.586000000000000E10    1.356351096183062E-2  -6.384349893778563E-3  
 2.588000000000000E10   -8.145759813487530E-3  -1.237966399639845E-2  
 2.590000000000000E10   -1.120948512107134E-2   8.866519667208195E-3  
 2.592000000000000E10    1.005734130740166E-2   1.057587191462517E-2  
 2.594000000000000E10    9.340848773717880E-3  -1.172594726085663E-2  
 2.596000000000000E10   -1.217965595424175E-2  -7.809079252183437E-3  
 2.598000000000000E10   -6.454654969274998E-3   1.347189024090767E-2  
 2.600000000000000E10    1.397883892059326E-2   4.820053000003099E-3  
 2.602000000000000E10    2.668633125722408E-3  -1.491903793066740E-2  
 2.604000000000000E10   -1.502778753638268E-2  -8.993180817924440E-4  
 2.606000000000000E10    3.934511623810977E-4   1.469235215336084E-2  
 2.608000000000000E10    1.402530726045370E-2  -2.996401162818074E-3  
 2.610000000000000E10   -4.016693681478500E-3  -1.409984473139048E-2  
 2.612000000000000E10   -1.324100233614445E-2   5.379984155297279E-3  
 2.614000000000000E10    6.928575690835714E-3   1.287255901843309E-2  
 2.616000000000000E10    1.224408391863108E-2  -8.229028433561325E-3  
 2.618000000000000E10   -1.000043749809265E-2  -1.134648732841015E-2  
 2.620000000000000E10   -9.769405238330364E-3   1.148602087050676E-2  
 2.622000000000000E10    1.228460855782032E-2   8.536861278116703E-3  
 2.624000000000000E10    7.005964405834675E-3  -1.315082143992186E-2  
 2.626000000000000E10   -1.364677865058184E-2  -6.097360979765654E-3  
 2.628000000000000E10   -3.809358924627304E-3   1.472154725342989E-2  
 2.630000000000000E10    1.553162839263678E-2   1.246924861334264E-3  
 2.632000000000000E10   -7.890177221270278E-5  -1.551397237926722E-2  
 2.634000000000000E10   -1.462047174572945E-2   2.245161449536681E-3  
 2.636000000000000E10    4.131664056330919E-3   1.449842005968094E-2  
 2.638000000000000E10    1.346764061599970E-2  -5.818101577460766E-3  
 2.640000000000000E10   -7.109388243407011E-3  -1.207872387021780E-2  
 2.642000000000000E10   -1.126383524388075E-2   8.101111277937889E-3  
 2.644000000000000E10    9.044646285474300E-3   1.046577747911215E-2  
 2.646000000000000E10    9.654900990426540E-3  -1.012844871729612E-2  
 2.648000000000000E10   -1.167146302759647E-2  -8.338018320500851E-3  
 2.650000000000000E10   -6.274164188653231E-3   1.314195059239864E-2  
 2.652000000000000E10    1.421081740409136E-2   5.297949537634850E-3  
 2.654000000000000E10    3.273962996900082E-3  -1.450561173260212E-2  
 2.656000000000000E10   -1.458982378244400E-2  -5.834964686073363E-4  
 2.658000000000000E10    1.503745676018298E-3   1.472764275968075E-2  
 2.660000000000000E10    1.430978812277317E-2  -2.771028783172369E-3  
 2.662000000000000E10   -4.728190600872040E-3  -1.350859273225069E-2  
 2.664000000000000E10   -1.257475186139345E-2   6.725679617375135E-3  
 2.666000000000000E10    8.213990367949009E-3   1.162737142294645E-2  
 2.668000000000000E10    1.046175416558981E-2  -9.052863344550133E-3  
 2.670000000000000E10   -1.059474516659975E-2  -8.940227329730988E-3  
 2.672000000000000E10   -7.580761332064867E-3   1.118062715977430E-2  
 2.674000000000000E10    1.134774088859558E-2   6.501974072307348E-3  
 2.676000000000000E10    5.343080498278141E-3  -1.197884418070316E-2  
 2.678000000000000E10   -1.260732673108578E-2  -3.416393650695682E-3  
 2.680000000000000E10   -2.298798644915223E-3   1.301918365061283E-2  
 2.682000000000000E10    1.323362067341805E-2   5.490767071023583E-4  
 2.684000000000000E10   -9.030106011778116E-4  -1.344921067357063E-2  
 2.686000000000000E10   -1.312726829200983E-2   3.153091762214899E-3  
 2.688000000000000E10    4.526333883404732E-3   1.219798997044563E-2  
 2.690000000000000E10    1.129463873803616E-2  -5.704385228455067E-3  
 2.692000000000000E10   -7.219356950372458E-3  -1.065878476947546E-2  
 2.694000000000000E10   -9.484052658081055E-3   7.944040931761265E-3  
 2.696000000000000E10    9.032848291099072E-3   8.383403532207012E-3  
 2.698000000000000E10    7.727191317826510E-3  -9.871345944702625E-3  
 2.700000000000000E10   -1.056239660829306E-2  -6.584100890904665E-3  
 2.702000000000000E10   -4.859438631683588E-3   1.146764960139990E-2  
 2.704000000000000E10    1.179084740579128E-2   2.770600374788046E-3  
 2.706000000000000E10    1.623879070393741E-3  -1.177432388067246E-2  
 2.708000000000000E10   -1.180138625204563E-2  -7.296084077097476E-4  
 2.710000000000000E10    9.038679418154061E-4   1.138844061642885E-2  
 2.712000000000000E10    1.157946698367596E-2  -2.519511850550771E-3  
 2.714000000000000E10   -3.306564409285784E-3  -1.109958067536354E-2  
 2.716000000000000E10   -9.834154509007931E-3   4.522977862507105E-3  
 2.718000000000000E10    6.029633339494467E-3   9.213236160576344E-3  
 2.720000000000000E10    8.771020919084549E-3  -6.879685912281275E-3  
 2.722000000000000E10   -7.744564674794674E-3  -7.939735427498817E-3  
 2.724000000000000E10   -7.068777456879616E-3   8.561782538890839E-3  
 2.726000000000000E10    9.078406728804112E-3   5.594908725470305E-3  
 2.728000000000000E10    4.936939105391502E-3  -1.000475231558085E-2  
 2.730000000000000E10   -1.042618416249752E-2  -3.771984716877341E-3  
 2.732000000000000E10   -2.390442183241248E-3   1.028421055525541E-2  
 2.734000000000000E10    1.106843259185553E-2   1.386108342558146E-3  
 2.736000000000000E10    4.335253615863621E-4  -1.107862312346697E-2  
 2.738000000000000E10   -1.120820362120867E-2   1.229438348673284E-3  
 2.740000000000000E10    2.858116524294019E-3   1.034555863589048E-2  
 2.742000000000000E10    9.385998360812664E-3  -3.489812370389700E-3  
 2.744000000000000E10   -5.128501914441586E-3  -9.139522910118103E-3  
 2.746000000000000E10   -8.200461044907570E-3   5.929176229983568E-3  
 2.748000000000000E10    6.540393922477961E-3   6.951989140361548E-3  
 2.750000000000000E10    6.220234092324972E-3  -7.260438986122608E-3  
 2.752000000000000E10   -7.722548209130764E-3  -5.363252945244312E-3  
 2.754000000000000E10   -4.300053697079420E-3   8.330270648002625E-3  
 2.756000000000000E10    8.604113012552261E-3   3.690746845677495E-3  
