#  HZ   S   RI   R     50.00 
! Rohde & Schwarz ZVA40 4Ports - Version 3.90 - 1145.1110k42 SN: 100403
! Date: 2023-10-04 08:42:34
! Measurement: S12 
! 
 2.200000000000000E10    1.778346020728350E-3  -1.035811472684145E-2  
 2.202000000000000E10   -1.078449655324221E-2  -1.796163123799488E-4  
 2.204000000000000E10    8.658381993882358E-4   1.073886640369892E-2  
 2.206000000000000E10    1.032217126339674E-2  -1.704671303741634E-3  
 2.208000000000000E10   -3.474124474450946E-3  -1.051489263772965E-2  
 2.210000000000000E10   -1.014804001897574E-2   4.336500074714422E-3  
 2.212000000000000E10    5.121589638292790E-3   9.728131815791130E-3  
 2.214000000000000E10    9.380273520946503E-3  -6.263103336095810E-3  
 2.216000000000000E10   -7.549538742750883E-3  -8.797294460237026E-3  
 2.218000000000000E10   -7.618371397256851E-3   7.872657850384712E-3  
 2.220000000000000E10    8.726583793759346E-3   7.308101747184992E-3  
 2.222000000000000E10    6.444688886404038E-3  -9.327016770839691E-3  
 2.224000000000000E10   -1.056160032749176E-2  -4.974378738552332E-3  
 2.226000000000000E10   -3.689941484481096E-3   1.075455546379089E-2  
 2.228000000000000E10    1.086641009896994E-2   2.031579148024321E-3  
 2.230000000000000E10    4.036229220218957E-4  -1.134759839624167E-2  
 2.232000000000000E10   -1.128652784973383E-2   9.828647598624229E-4  
 2.234000000000000E10    2.418433548882604E-3   1.062939967960119E-2  
 2.236000000000000E10    1.055297441780567E-2  -3.405976342037320E-3  
 2.238000000000000E10   -4.953527357429266E-3  -9.962041862308979E-3  
 2.240000000000000E10   -9.934162721037865E-3   6.281090434640646E-3  
 2.242000000000000E10    7.860098034143448E-3   9.575209580361843E-3  
 2.244000000000000E10    8.015752770006657E-3  -8.920229971408844E-3  
 2.246000000000000E10   -9.794464334845543E-3  -6.636179052293301E-3  
 2.248000000000000E10   -6.234544329345226E-3   1.041908841580153E-2  
 2.250000000000000E10    1.112975738942623E-2   5.400203634053469E-3  
 2.252000000000000E10    4.056833684444428E-3  -1.158351916819811E-2  
 2.254000000000000E10   -1.217605452984572E-2  -2.683829749003053E-3  
 2.256000000000000E10   -1.518328906968236E-3   1.266558282077313E-2  
 2.258000000000000E10    1.239704899489880E-2   4.180056857876480E-4  
 2.260000000000000E10   -6.320914253592491E-4  -1.199820078909397E-2  
 2.262000000000000E10   -1.196499168872833E-2   2.685154089704156E-3  
 2.264000000000000E10    2.987402258440852E-3   1.166313700377941E-2  
 2.266000000000000E10    1.108011696487665E-2  -4.358873702585697E-3  
 2.268000000000000E10   -6.083041895180941E-3  -1.035115588456392E-2  
 2.270000000000000E10   -9.904821403324604E-3   7.296962663531303E-3  
 2.272000000000000E10    8.541140705347061E-3   9.260602295398712E-3  
 2.274000000000000E10    8.119769394397736E-3  -1.009979005903006E-2  
 2.276000000000000E10   -1.111679803580046E-2  -6.388521753251553E-3  
 2.278000000000000E10   -4.881467204540968E-3   1.178697682917118E-2  
 2.280000000000000E10    1.251942012459040E-2   3.221022197976708E-3  
 2.282000000000000E10    8.865989744663239E-3  -8.740084245800972E-3  
 2.284000000000000E10   -1.303395163267851E-2  -8.341965731233358E-4  
 2.286000000000000E10    1.156110782176256E-3   1.273994799703360E-2  
 2.288000000000000E10    1.292547956109047E-2  -1.585396588779986E-3  
 2.290000000000000E10   -3.247292246669531E-3  -1.297865249216557E-2  
 2.292000000000000E10   -1.217962708324194E-2   5.165024660527706E-3  
 2.294000000000000E10    6.552080623805523E-3   1.175171881914139E-2  
 2.296000000000000E10    1.056791283190250E-2  -7.824782282114029E-3  
 2.298000000000000E10   -7.954671978950501E-3  -9.582618251442909E-3  
 2.300000000000000E10   -8.807247504591942E-3   9.190002456307411E-3  
 2.302000000000000E10    1.087821740657091E-2   8.014332503080368E-3  
 2.304000000000000E10    6.644316483289003E-3  -1.174796745181084E-2  
 2.306000000000000E10   -1.191729027777910E-2  -4.597531631588936E-3  
 2.308000000000000E10   -3.140546614304185E-3   1.269404590129852E-2  
 2.310000000000000E10    1.368292514234781E-2   1.806325744837523E-3  
 2.312000000000000E10   -4.772434476763010E-4  -1.347735617309809E-2  
 2.314000000000000E10   -1.300798822194338E-2   2.067312365397811E-3  
 2.316000000000000E10    3.605298465117812E-3   1.290028356015682E-2  
 2.318000000000000E10    1.321657188236713E-2  -5.474980454891920E-3  
 2.320000000000000E10   -6.793492473661900E-3  -1.231406629085541E-2  
 2.322000000000000E10   -1.107445638626814E-2   8.184044621884823E-3  
 2.324000000000000E10    1.015875674784184E-2   1.056894846260548E-2  
 2.326000000000000E10    9.448218159377575E-3  -1.136705372482538E-2  
 2.328000000000000E10   -1.254703756421804E-2  -7.739426568150520E-3  
 2.330000000000000E10   -6.185736972838640E-3   1.305556576699019E-2  
 2.332000000000000E10    1.336954068392515E-2   5.088007543236017E-3  
 2.334000000000000E10    3.835737705230713E-3  -1.427625678479672E-2  
 2.336000000000000E10   -1.461805403232575E-2  -1.676219166256487E-3  
 2.338000000000000E10   -8.128159242914990E-5   1.457178220152855E-2  
 2.340000000000000E10    1.473015546798706E-2  -2.025176770985127E-3  
 2.342000000000000E10   -3.479477018117905E-3  -1.423510722815990E-2  
 2.344000000000000E10   -1.362830027937889E-2   5.603197030723095E-3  
 2.346000000000000E10    6.927074398845434E-3   1.225563511252403E-2  
 2.348000000000000E10    1.162533275783062E-2  -8.301340974867344E-3  
 2.350000000000000E10   -1.017245929688215E-2  -1.057033613324165E-2  
 2.352000000000000E10   -9.485543705523014E-3   1.169389113783836E-2  
 2.354000000000000E10    1.294034346938133E-2   7.716259453445673E-3  
 2.356000000000000E10    5.788429174572229E-3  -1.430301461368799E-2  
 2.358000000000000E10   -1.489923056215048E-2  -4.186191596090794E-3  
 2.360000000000000E10   -1.749747782014310E-3   1.535339932888746E-2  
 2.362000000000000E10    1.577761583030224E-2  -1.933180610649288E-4  
 2.364000000000000E10   -2.065857173874974E-3  -1.559039298444986E-2  
 2.366000000000000E10   -1.483146660029888E-2   4.258406814187765E-3  
 2.368000000000000E10    5.719418637454510E-3   1.475165970623493E-2  
 2.370000000000000E10    1.435854472219944E-2  -7.447619922459126E-3  
 2.372000000000000E10   -8.929670788347721E-3  -1.324450504034758E-2  
 2.374000000000000E10   -1.234322413802147E-2   1.048538926988840E-2  
 2.376000000000000E10    1.181551907211542E-2   1.103935670107603E-2  
 2.378000000000000E10    9.448898024857044E-3  -1.325112022459507E-2  
 2.380000000000000E10   -1.421608775854111E-2  -8.375020697712898E-3  
 2.382000000000000E10   -5.996694788336754E-3   1.492140349000692E-2  
 2.384000000000000E10    1.601838693022728E-2   3.831592155620456E-3  
 2.386000000000000E10    2.122962381690741E-3  -1.659801602363586E-2  
 2.388000000000000E10   -1.638292334973812E-2   2.112125803250819E-4  
 2.390000000000000E10    2.818649634718895E-3   1.628287509083748E-2  
 2.392000000000000E10    1.524529140442610E-2  -5.264633800834417E-3  
 2.394000000000000E10   -6.894242018461227E-3  -1.449190359562635E-2  
 2.396000000000000E10   -1.393714360892773E-2   8.750642649829388E-3  
 2.398000000000000E10    1.076683867722750E-2   1.205146778374910E-2  
 2.400000000000000E10    1.102851051837206E-2  -1.268529985100031E-2  
 2.402000000000000E10   -1.461931783705950E-2  -7.863100618124008E-3  
 2.404000000000000E10   -5.913279019296169E-3   1.510124094784260E-2  
 2.406000000000000E10    1.643261499702931E-2   3.960620611906052E-3  
 2.408000000000000E10    1.698686042800546E-3  -1.646860875189304E-2  
 2.410000000000000E10   -1.651004329323769E-2  -4.277163243386895E-4  
 2.412000000000000E10    9.707148419693112E-4   1.670457236468792E-2  
 2.414000000000000E10    1.616453379392624E-2  -3.063781885430217E-3  
 2.416000000000000E10   -5.048305727541447E-3  -1.636223681271076E-2  
 2.418000000000000E10   -1.570805348455906E-2   6.886222865432501E-3  
 2.420000000000000E10    8.048463612794876E-3   1.395562011748552E-2  
 2.422000000000000E10    1.317482069134712E-2  -9.884695522487164E-3  
 2.424000000000000E10   -1.101115997880697E-2  -1.215691585093737E-2  
 2.426000000000000E10   -1.091961003839970E-2   1.220283564180136E-2  
 2.428000000000000E10    1.306825503706932E-2   9.187407791614533E-3  
 2.430000000000000E10    7.711868733167648E-3  -1.369594410061836E-2  
 2.432000000000000E10   -1.513297948986292E-2  -5.853678099811077E-3  
 2.434000000000000E10   -3.751602722331882E-3   1.575276069343090E-2  
 2.436000000000000E10    1.614693552255631E-2   1.126545947045088E-3  
 2.438000000000000E10   -8.457214571535587E-4  -1.535907853394747E-2  
 2.440000000000000E10   -1.550839375704527E-2   2.374984323978424E-3  
 2.442000000000000E10    4.457789473235607E-3   1.554799638688564E-2  
 2.444000000000000E10    1.427358388900757E-2  -6.279057823121548E-3  
 2.446000000000000E10   -7.740253116935492E-3  -1.310963369905949E-2  
 2.448000000000000E10   -1.262264419347048E-2   9.037639014422894E-3  
 2.450000000000000E10    1.041314098984003E-2   1.222178060561419E-2  
 2.452000000000000E10    1.079140976071358E-2  -1.177008356899023E-2  
 2.454000000000000E10   -1.272585801780224E-2  -8.746130391955376E-3  
 2.456000000000000E10   -8.095412515103817E-3   1.328048016875982E-2  
 2.458000000000000E10    1.428853999823332E-2   6.795559544116259E-3  
 2.460000000000000E10    4.490462597459555E-3  -1.501275412738323E-2  
 2.462000000000000E10   -1.485015917569399E-2  -3.060739487409592E-3  
 2.464000000000000E10   -1.395003637298942E-3   1.492706127464771E-2  
 2.466000000000000E10    1.518204808235169E-2  -3.317401278764010E-4  
 2.468000000000000E10   -2.354153199121356E-3  -1.527247112244368E-2  
 2.470000000000000E10   -1.449284330010414E-2   4.634775221347809E-3  
 2.472000000000000E10    6.216077134013176E-3   1.291648484766483E-2  
 2.474000000000000E10    1.214931067079306E-2  -7.375490386039019E-3  
 2.476000000000000E10   -8.681098930537701E-3  -1.124836876988411E-2  
 2.478000000000000E10   -1.019393466413021E-2   9.533474221825600E-3  
 2.480000000000000E10    1.095092482864857E-2   9.157022461295128E-3  
 2.482000000000000E10    8.247872814536095E-3  -1.221820153295994E-2  
 2.484000000000000E10   -1.349603850394487E-2  -7.184277754276991E-3  
 2.486000000000000E10   -5.183606874197722E-3   1.416512019932270E-2  
 2.488000000000000E10    1.475664786994457E-2   2.795592881739140E-3  
 2.490000000000000E10    1.519372221082449E-3  -1.479898672550917E-2  
 2.492000000000000E10   -1.504735555499792E-2  -1.398847671225667E-4  
 2.494000000000000E10    1.863409415818751E-3   1.501156669110060E-2  
 2.496000000000000E10    1.495872996747494E-2  -3.626554040238261E-3  
 2.498000000000000E10   -5.535902455449104E-3  -1.374238356947899E-2  
 2.500000000000000E10   -1.294473651796579E-2   6.167245097458363E-3  
 2.502000000000000E10    7.901256904006004E-3   1.249282434582710E-2  
 2.504000000000000E10    1.042067445814610E-2  -9.714657440781593E-3  
 2.506000000000000E10   -9.520875290036202E-3  -8.940340019762516E-3  
 2.508000000000000E10   -8.526887744665146E-3   1.023651566356421E-2  
 2.510000000000000E10    1.149584818631411E-2   7.899525575339794E-3  
 2.512000000000000E10    6.566217634826899E-3  -1.240417640656233E-2  
 2.514000000000000E10   -1.327167637646198E-2  -4.335447214543819E-3  
 2.516000000000000E10   -2.852364210411906E-3   1.404882594943047E-2  
 2.518000000000000E10    1.473099365830421E-2   1.594584435224533E-3  
 2.520000000000000E10   -8.313035359606147E-4  -1.454249396920204E-2  
 2.522000000000000E10   -1.463252771645784E-2   2.887778915464878E-3  
 2.524000000000000E10    4.364962689578533E-3   1.431690808385611E-2  
 2.526000000000000E10    1.368764974176884E-2  -5.672678817063570E-3  
 2.528000000000000E10   -7.401134818792343E-3  -1.305663958191872E-2  
 2.530000000000000E10   -1.246659737080336E-2   9.115088731050491E-3  
 2.532000000000000E10    1.072638761252165E-2   1.171776931732893E-2  
 2.534000000000000E10    1.009132247418165E-2  -1.145709119737148E-2  
 2.536000000000000E10   -1.302889082580805E-2  -7.863503880798817E-3  
 2.538000000000000E10   -7.094682659953833E-3   1.400109939277172E-2  
 2.540000000000000E10    1.442347932606936E-2   5.484963767230511E-3  
 2.542000000000000E10    2.909192582592368E-3  -1.487519778311253E-2  
 2.544000000000000E10   -1.517360191792250E-2  -1.117733656428754E-3  
 2.546000000000000E10    4.673433140851557E-4   1.506925839930773E-2  
 2.548000000000000E10    1.477975025773048E-2  -2.607581438496709E-3  
 2.550000000000000E10   -4.639474209398031E-3  -1.441912073642016E-2  
 2.552000000000000E10   -1.333926059305668E-2   7.270672358572483E-3  
 2.554000000000000E10    8.597077801823616E-3   1.245398167520762E-2  
 2.556000000000000E10    1.027407776564360E-2  -9.675444103777409E-3  
 2.558000000000000E10   -1.110492087900639E-2  -9.422395378351212E-3  
 2.560000000000000E10   -7.851073518395424E-3   1.203593891113997E-2  
 2.562000000000000E10    1.227588951587677E-2   6.193441338837147E-3  
 2.564000000000000E10    5.486574489623308E-3  -1.385597512125969E-2  
 2.566000000000000E10   -1.504628174006939E-2  -4.198101814836264E-3  
 2.568000000000000E10   -1.684006303548813E-3   1.619398407638073E-2  
 2.570000000000000E10    1.605704426765442E-2  -1.126867136918008E-3  
 2.572000000000000E10   -2.822496928274632E-3  -1.572895422577858E-2  
 2.574000000000000E10   -1.565542444586754E-2   4.522175528109074E-3  
 2.576000000000000E10    6.883636116981506E-3   1.487171836197376E-2  
 2.578000000000000E10    1.346104405820370E-2  -9.258525446057320E-3  
 2.580000000000000E10   -1.023552846163511E-2  -1.266316324472427E-2  
 2.582000000000000E10   -1.131135690957308E-2   1.129809021949768E-2  
 2.584000000000000E10    1.315312925726175E-2   9.259893558919430E-3  
 2.586000000000000E10    7.838033139705658E-3  -1.427883654832840E-2  
 2.588000000000000E10   -1.423757057636976E-2  -5.487966816872358E-3  
 2.590000000000000E10   -3.772015450522304E-3   1.403188705444336E-2  
 2.592000000000000E10    1.462805643677712E-2   2.328416332602501E-3  
 2.594000000000000E10    1.005995436571538E-3  -1.527053955942392E-2  
 2.596000000000000E10   -1.545515563338995E-2   5.305922240950167E-4  
 2.598000000000000E10    2.607114380225539E-3   1.502315048128367E-2  
 2.600000000000000E10    1.531838998198509E-2  -4.987937863916159E-3  
 2.602000000000000E10   -6.612088531255722E-3  -1.474490202963352E-2  
 2.604000000000000E10   -1.328351907432079E-2   8.958979509770870E-3  
 2.606000000000000E10    1.037114020437002E-2   1.161285862326622E-2  
 2.608000000000000E10    1.053832191973925E-2  -1.124860625714064E-2  
 2.610000000000000E10   -1.196635887026787E-2  -9.053768590092659E-3  
 2.612000000000000E10   -8.138554170727730E-3   1.290108822286129E-2  
 2.614000000000000E10    1.405459176748991E-2   6.703245453536511E-3  
 2.616000000000000E10    5.170875694602728E-3  -1.470568589866161E-2  
 2.618000000000000E10   -1.595442928373814E-2  -3.554069204255939E-3  
 2.620000000000000E10   -7.511010044254363E-4   1.634088158607483E-2  
 2.622000000000000E10    1.554863993078470E-2  -7.208012393675745E-4  
 2.624000000000000E10   -2.621546154841781E-3  -1.546503789722920E-2  
 2.626000000000000E10   -1.515367347747088E-2   4.175215959548950E-3  
 2.628000000000000E10    5.901943892240524E-3   1.458423212170601E-2  
 2.630000000000000E10    1.310780644416809E-2  -8.211896754801273E-3  
 2.632000000000000E10   -9.298109449446201E-3  -1.206276006996632E-2  
 2.634000000000000E10   -1.104289758950472E-2   1.034332159906626E-2  
 2.636000000000000E10    1.177605986595154E-2   9.123156778514385E-3  
 2.638000000000000E10    7.411577738821507E-3  -1.254709810018539E-2  
 2.640000000000000E10   -1.310053002089262E-2  -6.028463598340750E-3  
 2.642000000000000E10   -4.716803319752216E-3   1.328607462346554E-2  
 2.644000000000000E10    1.385145355015993E-2   3.287337720394135E-3  
 2.646000000000000E10    1.624668482691050E-3  -1.453766878694296E-2  
 2.648000000000000E10   -1.512786094099283E-2  -3.401392023079097E-4  
 2.650000000000000E10    2.298635663464665E-3   1.504937838762999E-2  
 2.652000000000000E10    1.472580526024103E-2  -4.902416840195656E-3  
 2.654000000000000E10   -6.732008885592222E-3  -1.417487673461437E-2  
 2.656000000000000E10   -1.308661885559559E-2   8.535545319318771E-3  
 2.658000000000000E10    1.044657826423645E-2   1.138240285217762E-2  
 2.660000000000000E10    9.843640029430389E-3  -1.141836028546095E-2  
 2.662000000000000E10   -1.237446721643210E-2  -8.498200215399265E-3  
 2.664000000000000E10   -6.867254152894020E-3   1.315498165786266E-2  
 2.666000000000000E10    1.403255481272936E-2   4.220562055706978E-3  
 2.668000000000000E10    3.249882487580180E-3  -1.388508640229702E-2  
 2.670000000000000E10   -1.372820604592562E-2  -1.605649944394827E-3  
 2.672000000000000E10    3.209831775166094E-4   1.365728583186865E-2  
 2.674000000000000E10    1.361261121928692E-2  -1.450405106879771E-3  
 2.676000000000000E10   -2.845171838998795E-3  -1.281198207288981E-2  
 2.678000000000000E10   -1.288240961730480E-2   4.522930365055800E-3  
 2.680000000000000E10    5.840477067977190E-3   1.224795076996088E-2  
 2.682000000000000E10    1.132554002106190E-2  -7.346633356064558E-3  
 2.684000000000000E10   -8.335157297551632E-3  -1.086226571351290E-2  
 2.686000000000000E10   -9.258461184799671E-3   1.003626827150583E-2  
 2.688000000000000E10    1.110902987420559E-2   7.796754129230976E-3  
 2.690000000000000E10    6.650345399975777E-3  -1.136041432619095E-2  
 2.692000000000000E10   -1.199663057923317E-2  -4.943179897964001E-3  
 2.694000000000000E10   -3.487370442599058E-3   1.308511383831501E-2  
 2.696000000000000E10    1.308274175971746E-2   2.053364412859082E-3  
 2.698000000000000E10    5.046974401921034E-4  -1.270924694836140E-2  
 2.700000000000000E10   -1.306684222072363E-2   9.793054778128862E-4  
 2.702000000000000E10    3.001632867380977E-3   1.261310651898384E-2  
 2.704000000000000E10    1.169089600443840E-2  -4.328642040491104E-3  
 2.706000000000000E10   -5.680507980287075E-3  -1.054845191538334E-2  
 2.708000000000000E10   -1.026628073304892E-2   6.274965591728687E-3  
 2.710000000000000E10    7.798669394105673E-3   9.966349229216576E-3  
 2.712000000000000E10    7.704321295022965E-3  -8.845038712024689E-3  
 2.714000000000000E10   -1.001865044236183E-2  -6.939405575394630E-3  
 2.716000000000000E10   -6.033211946487427E-3   1.053020730614662E-2  
 2.718000000000000E10    1.071816030889750E-2   4.133266396820545E-3  
 2.720000000000000E10    2.890587551519275E-3  -1.130539644509554E-2  
 2.722000000000000E10   -1.141904201358557E-2  -2.126183127984405E-3  
 2.724000000000000E10   -7.210876210592687E-4   1.139806956052780E-2  
 2.726000000000000E10    1.142149232327938E-2  -4.595368227455765E-4  
 2.728000000000000E10   -2.075112890452147E-3  -1.107899099588394E-2  
 2.730000000000000E10   -1.135615445673466E-2   2.848040778189898E-3  
 2.732000000000000E10    4.200603812932968E-3   1.074690464884043E-2  
 2.734000000000000E10    9.545344859361649E-3  -5.476698279380798E-3  
 2.736000000000000E10   -6.695053540170193E-3  -9.379395283758640E-3  
 2.738000000000000E10   -8.276280015707016E-3   7.488553412258625E-3  
 2.740000000000000E10    8.517616428434849E-3   7.110767997801304E-3  
 2.742000000000000E10    5.585866048932076E-3  -9.243908338248730E-3  
 2.744000000000000E10   -9.160928428173065E-3  -4.255764652043581E-3  
 2.746000000000000E10   -3.165704198181629E-3   9.883624501526356E-3  
 2.748000000000000E10    9.930127300322056E-3   1.889277948066592E-3  
 2.750000000000000E10    6.340017425827682E-4  -9.583679959177971E-3  
 2.752000000000000E10   -9.598764590919018E-3   1.441948843421415E-4  
 2.754000000000000E10    1.061834744177759E-3   9.987554512917996E-3  
 2.756000000000000E10    9.535527788102627E-3  -2.557785483077169E-3  
