#  HZ   S   RI   R     50.00 
! Rohde & Schwarz ZVA40 4Ports - Version 3.90 - 1145.1110k42 SN: 100403
! Date: 2023-10-04 08:44:01
! Measurement: S12 
! 
 2.200000000000000E10   -8.661184459924698E-3  -9.351113811135292E-3  
 2.202000000000000E10   -7.971540093421936E-3   9.391848929226399E-3  
 2.204000000000000E10    1.028442662209272E-2   7.043744437396526E-3  
 2.206000000000000E10    6.017971783876419E-3  -1.163367275148630E-2  
 2.208000000000000E10   -1.185572426766157E-2  -4.666340537369251E-3  
 2.210000000000000E10   -3.255401039496064E-3   1.162701565772295E-2  
 2.212000000000000E10    1.204203255474567E-2   1.763790263794363E-3  
 2.214000000000000E10    7.303596357814968E-4  -1.237284392118454E-2  
 2.216000000000000E10   -1.207110472023487E-2   1.009606174193323E-3  
 2.218000000000000E10    2.379274694249034E-3   1.160727441310883E-2  
 2.220000000000000E10    1.158251054584980E-2  -3.537527984008193E-3  
 2.222000000000000E10   -5.221443716436625E-3  -1.088708732277155E-2  
 2.224000000000000E10   -1.032988633960486E-2   6.455481983721256E-3  
 2.226000000000000E10    7.623726502060890E-3   9.674409404397011E-3  
 2.228000000000000E10    8.670551702380180E-3  -9.426211006939411E-3  
 2.230000000000000E10   -1.071327459067106E-2  -7.513966411352158E-3  
 2.232000000000000E10   -5.970201455056667E-3   1.168255601078272E-2  
 2.234000000000000E10    1.273076981306076E-2   4.475392866879702E-3  
 2.236000000000000E10    2.876993967220187E-3  -1.272501423954964E-2  
 2.238000000000000E10   -1.312455162405968E-2  -1.522240694612265E-3  
 2.240000000000000E10   -5.454332949739182E-6   1.379626709967852E-2  
 2.242000000000000E10    1.401853095740080E-2  -1.975697465240955E-3  
 2.244000000000000E10   -3.441434819251299E-3  -1.329562067985535E-2  
 2.246000000000000E10   -1.254263985902071E-2   4.374990239739418E-3  
 2.248000000000000E10    5.387239158153534E-3   1.247620396316052E-2  
 2.250000000000000E10    1.185546442866325E-2  -7.099165581166744E-3  
 2.252000000000000E10   -8.192210458219051E-3  -1.073061581701040E-2  
 2.254000000000000E10   -9.563814848661423E-3   9.064037352800369E-3  
 2.256000000000000E10    1.020933780819178E-2   8.963144384324551E-3  
 2.258000000000000E10    7.858035154640675E-3  -1.167599111795425E-2  
 2.260000000000000E10   -1.200209930539131E-2  -6.406645756214857E-3  
 2.262000000000000E10   -4.342379048466682E-3   1.264639385044575E-2  
 2.264000000000000E10    1.314059924334288E-2   3.240129677578807E-3  
 2.266000000000000E10    1.589961582794786E-3  -1.370519027113915E-2  
 2.268000000000000E10   -1.386698987334967E-2   3.372040519025177E-4  
 2.270000000000000E10    2.014919416978955E-3   1.338485442101955E-2  
 2.272000000000000E10    1.378811057657003E-2  -3.222925588488579E-3  
 2.274000000000000E10   -5.132558289915323E-3  -1.368900388479233E-2  
 2.276000000000000E10   -1.278806012123823E-2   7.131351623684168E-3  
 2.278000000000000E10    8.613683283329010E-3   1.195724122226238E-2  
 2.280000000000000E10    1.062382198870182E-2  -9.582991711795330E-3  
 2.282000000000000E10   -3.656199434772134E-3  -1.376310177147389E-2  
 2.284000000000000E10   -8.721782825887203E-3   1.194157265126705E-2  
 2.286000000000000E10    1.206873264163733E-2   7.306228391826153E-3  
 2.288000000000000E10    6.175127346068621E-3  -1.341926306486130E-2  
 2.290000000000000E10   -1.427931152284145E-2  -4.487972240895033E-3  
 2.292000000000000E10   -2.782699419185519E-3   1.480590179562569E-2  
 2.294000000000000E10    1.509938482195139E-2   8.329338743351400E-4  
 2.296000000000000E10   -1.499776379205287E-3  -1.447428297251463E-2  
 2.298000000000000E10   -1.412708964198828E-2   2.665196079760790E-3  
 2.300000000000000E10    4.297444596886635E-3   1.440691202878952E-2  
 2.302000000000000E10    1.316748838871718E-2  -5.838627461344004E-3  
 2.304000000000000E10   -7.945576682686806E-3  -1.235403213649988E-2  
 2.306000000000000E10   -1.137034222483635E-2   9.393221698701382E-3  
 2.308000000000000E10    1.067713648080826E-2   1.062853448092938E-2  
 2.310000000000000E10    9.022601880133152E-3  -1.247573923319578E-2  
 2.312000000000000E10   -1.386674307286739E-2  -7.271120324730873E-3  
 2.314000000000000E10   -5.618159659206867E-3   1.464891713112593E-2  
 2.316000000000000E10    1.535151526331902E-2   3.978985827416182E-3  
 2.318000000000000E10    1.841921010054648E-3  -1.574211567640305E-2  
 2.320000000000000E10   -1.575571857392788E-2   2.998534182552248E-4  
 2.322000000000000E10    1.440963940694928E-3   1.586327143013477E-2  
 2.324000000000000E10    1.578831858932972E-2  -3.514999756589532E-3  
 2.326000000000000E10   -5.901801399886608E-3  -1.519094500690699E-2  
 2.328000000000000E10   -1.468717493116856E-2   7.391297258436680E-3  
 2.330000000000000E10    9.319129399955273E-3   1.341221574693918E-2  
 2.332000000000000E10    1.156309153884649E-2  -1.033654529601336E-2  
 2.334000000000000E10   -1.125803124159575E-2  -1.061663962900639E-2  
 2.336000000000000E10   -9.342510253190994E-3   1.248967275023460E-2  
 2.338000000000000E10    1.368069741874933E-2   7.614723406732082E-3  
 2.340000000000000E10    5.913570523262024E-3  -1.460511982440949E-2  
 2.342000000000000E10   -1.543164253234863E-2  -4.136588890105486E-3  
 2.344000000000000E10   -1.758079975843430E-3   1.601366139948368E-2  
 2.346000000000000E10    1.604675687849522E-2  -5.573292146436870E-4  
 2.348000000000000E10   -2.524110721424222E-3  -1.547233853489161E-2  
 2.350000000000000E10   -1.548761967569590E-2   4.314504563808441E-3  
 2.352000000000000E10    7.245315704494715E-3   1.524853799492121E-2  
 2.354000000000000E10    1.404094602912664E-2  -9.195803664624691E-3  
 2.356000000000000E10   -1.076617650687695E-2  -1.287407521158457E-2  
 2.358000000000000E10   -1.148533541709185E-2   1.215889584273100E-2  
 2.360000000000000E10    1.379590947180986E-2   1.012817770242691E-2  
 2.362000000000000E10    8.368463255465031E-3  -1.497316639870405E-2  
 2.364000000000000E10   -1.614933647215366E-2  -6.342464592307806E-3  
 2.366000000000000E10   -4.590513650327921E-3   1.628700457513332E-2  
 2.368000000000000E10    1.642558723688126E-2   2.896687248721719E-3  
 2.370000000000000E10    6.581453490070999E-4  -1.740070618689060E-2  
 2.372000000000000E10   -1.736613549292088E-2   1.047800062224269E-3  
 2.374000000000000E10    3.383493516594172E-3   1.731988787651062E-2  
 2.376000000000000E10    1.633221283555031E-2  -5.757235456258059E-3  
 2.378000000000000E10   -7.705300115048885E-3  -1.550851948559284E-2  
 2.380000000000000E10   -1.451251935213804E-2   9.802128188312054E-3  
 2.382000000000000E10    1.159202400594950E-2   1.293293293565512E-2  
 2.384000000000000E10    1.125552132725716E-2  -1.289568468928337E-2  
 2.386000000000000E10   -1.463408861309290E-2  -9.319444186985493E-3  
 2.388000000000000E10   -7.464627269655466E-3   1.614522002637386E-2  
 2.390000000000000E10    1.664111204445362E-2   5.293784663081169E-3  
 2.392000000000000E10    2.467655343934894E-3  -1.716197468340397E-2  
 2.394000000000000E10   -1.736933924257755E-2  -3.771738265641034E-4  
 2.396000000000000E10    2.089323708787561E-3   1.766456291079521E-2  
 2.398000000000000E10    1.736522093415260E-2  -4.092565737664700E-3  
 2.400000000000000E10   -6.568595301359892E-3  -1.630605198442936E-2  
 2.402000000000000E10   -1.423206552863121E-2   1.036486402153969E-2  
 2.404000000000000E10    1.160154491662979E-2   1.330104283988476E-2  
 2.406000000000000E10    1.157921180129051E-2  -1.261967141181231E-2  
 2.408000000000000E10   -1.413065101951361E-2  -1.011892315000296E-2  
 2.410000000000000E10   -8.660244755446911E-3   1.537494920194149E-2  
 2.412000000000000E10    1.559775229543448E-2   6.917978636920452E-3  
 2.414000000000000E10    5.274533294141293E-3  -1.619463227689266E-2  
 2.416000000000000E10   -1.678345352411270E-2  -3.488735528662801E-3  
 2.418000000000000E10   -1.090924954041839E-3   1.700589247047901E-2  
 2.420000000000000E10    1.656050048768520E-2  -3.673454921226949E-4  
 2.422000000000000E10   -1.894602086395025E-3  -1.612019911408424E-2  
 2.424000000000000E10   -1.620593853294849E-2   4.022237844765186E-3  
 2.426000000000000E10    5.814007949084044E-3   1.570086553692818E-2  
 2.428000000000000E10    1.464445888996124E-2  -7.625377736985683E-3  
 2.430000000000000E10   -9.123817086219788E-3  -1.376660168170929E-2  
 2.432000000000000E10   -1.238919235765934E-2   1.139646675437689E-2  
 2.434000000000000E10    1.308154687285423E-2   1.046045124530792E-2  
 2.436000000000000E10    8.385865949094296E-3  -1.432645972818136E-2  
 2.438000000000000E10   -1.457477547228336E-2  -6.537851411849260E-3  
 2.440000000000000E10   -4.553986247628927E-3   1.554742548614740E-2  
 2.442000000000000E10    1.595497131347656E-2   2.831566845998168E-3  
 2.444000000000000E10    9.776550577953458E-4  -1.575008593499661E-2  
 2.446000000000000E10   -1.582932472229004E-2   5.478972452692688E-4  
 2.448000000000000E10    2.197301480919123E-3   1.541494298726320E-2  
 2.450000000000000E10    1.544360350817442E-2  -3.806652501225472E-3  
 2.452000000000000E10   -5.272707436233759E-3  -1.530243735760450E-2  
 2.454000000000000E10   -1.383797824382782E-2   6.553232669830322E-3  
 2.456000000000000E10    7.701855618506670E-3   1.354151684790850E-2  
 2.458000000000000E10    1.295148488134146E-2  -9.749495424330235E-3  
 2.460000000000000E10   -1.089851465076208E-2  -1.142169255763292E-2  
 2.462000000000000E10   -9.822465479373932E-3   1.209512539207935E-2  
 2.464000000000000E10    1.257725898176432E-2   8.233063854277134E-3  
 2.466000000000000E10    7.022432051599026E-3  -1.374284923076630E-2  
 2.468000000000000E10   -1.470974832773209E-2  -5.453429184854031E-3  
 2.470000000000000E10   -2.490276005119085E-3   1.483339164406061E-2  
 2.472000000000000E10    1.444700267165899E-2   5.936682573519647E-4  
 2.474000000000000E10   -2.064085856545717E-4  -1.389395818114281E-2  
 2.476000000000000E10   -1.397088263183832E-2   1.854507485404611E-3  
 2.478000000000000E10    3.621001495048404E-3   1.419271901249886E-2  
 2.480000000000000E10    1.354639884084463E-2  -5.190121009945869E-3  
 2.482000000000000E10   -6.973207928240299E-3  -1.312366873025894E-2  
 2.484000000000000E10   -1.285230927169323E-2   8.695662021636963E-3  
 2.486000000000000E10    1.104900892823935E-2   1.142908167093992E-2  
 2.488000000000000E10    9.153727442026138E-3  -1.223182864487171E-2  
 2.490000000000000E10   -1.234333589673042E-2  -7.619593758136034E-3  
 2.492000000000000E10   -6.159897893667221E-3   1.331352442502976E-2  
 2.494000000000000E10    1.410929858684540E-2   5.603693891316652E-3  
 2.496000000000000E10    3.453033510595560E-3  -1.441981550306082E-2  
 2.498000000000000E10   -1.415513735264540E-2  -1.081957016140223E-3  
 2.500000000000000E10   -4.575861967168748E-4   1.444340124726296E-2  
 2.502000000000000E10    1.450536027550697E-2  -1.160954707302153E-3  
 2.504000000000000E10   -3.088133642449975E-3  -1.312961988151074E-2  
 2.506000000000000E10   -1.223559398204088E-2   3.774782177060843E-3  
 2.508000000000000E10    4.663119558244944E-3   1.256580278277397E-2  
 2.510000000000000E10    1.283433660864830E-2  -6.333314813673496E-3  
 2.512000000000000E10   -7.860148325562477E-3  -1.148836035281420E-2  
 2.514000000000000E10   -1.051476597785950E-2   9.768233634531498E-3  
 2.516000000000000E10    1.105303410440683E-2   9.755979292094708E-3  
 2.518000000000000E10    7.893376052379608E-3  -1.223402656614780E-2  
 2.520000000000000E10   -1.339365635067225E-2  -6.175862625241280E-3  
 2.522000000000000E10   -4.429764579981566E-3   1.385191269218922E-2  
 2.524000000000000E10    1.397660654038191E-2   2.701224060729146E-3  
 2.526000000000000E10    1.211045193485916E-3  -1.449366100132465E-2  
 2.528000000000000E10   -1.469112653285265E-2   3.424656752031297E-4  
 2.530000000000000E10    1.953675644472241E-3   1.504371315240860E-2  
 2.532000000000000E10    1.452518999576569E-2  -4.246254917234182E-3  
 2.534000000000000E10   -5.670608952641487E-3  -1.397821027785540E-2  
 2.536000000000000E10   -1.328098773956299E-2   7.341196760535240E-3  
 2.538000000000000E10    8.819774724543095E-3   1.184045523405075E-2  
 2.540000000000000E10    1.079547405242920E-2  -1.026204507797957E-2  
 2.542000000000000E10   -1.104529108852148E-2  -9.747700765728951E-3  
 2.544000000000000E10   -8.009601384401321E-3   1.237607002258301E-2  
 2.546000000000000E10    1.307481527328491E-2   6.576603278517723E-3  
 2.548000000000000E10    4.814026877284050E-3  -1.422152481973171E-2  
 2.550000000000000E10   -1.490359567105770E-2  -2.265319693833590E-3  
 2.552000000000000E10   -1.577250259288121E-5   1.463996246457100E-2  
 2.554000000000000E10    1.397837419062853E-2  -2.303013578057289E-3  
 2.556000000000000E10   -3.496789373457432E-3  -1.339728944003582E-2  
 2.558000000000000E10   -1.307980157434940E-2   5.483112763613462E-3  
 2.560000000000000E10    6.979238241910934E-3   1.199467852711678E-2  
 2.562000000000000E10    1.151769887655973E-2  -7.981631904840469E-3  
 2.564000000000000E10   -9.817400015890598E-3  -1.075877062976360E-2  
 2.566000000000000E10   -9.904609061777592E-3   1.167561765760183E-2  
 2.568000000000000E10    1.345938071608543E-2   8.209623396396637E-3  
 2.570000000000000E10    5.385201890021563E-3  -1.417614985257387E-2  
 2.572000000000000E10   -1.461381930857897E-2  -3.872138448059559E-3  
 2.574000000000000E10   -2.443106845021248E-3   1.472238637506962E-2  
 2.576000000000000E10    1.557163055986166E-2   5.805167602375150E-4  
 2.578000000000000E10   -1.884188037365675E-3  -1.540527679026127E-2  
 2.580000000000000E10   -1.456440147012472E-2   3.611389081925154E-3  
 2.582000000000000E10    5.405046045780182E-3   1.436978764832020E-2  
 2.584000000000000E10    1.305170916020870E-2  -6.882739719003439E-3  
 2.586000000000000E10   -8.905322290956974E-3  -1.188271213322878E-2  
 2.588000000000000E10   -1.031688507646322E-2   9.539389982819557E-3  
 2.590000000000000E10    9.943362325429916E-3   8.738460019230843E-3  
 2.592000000000000E10    8.484523743391037E-3  -1.107444148510695E-2  
 2.594000000000000E10   -1.220348943024874E-2  -7.425377611070871E-3  
 2.596000000000000E10   -5.611730739474297E-3   1.284739375114441E-2  
 2.598000000000000E10    1.413291599601507E-2   4.136851523071528E-3  
 2.600000000000000E10    1.941267400979996E-3  -1.480226218700409E-2  
 2.602000000000000E10   -1.527198869735003E-2  -3.484388289507479E-4  
 2.604000000000000E10    2.039741491898894E-3   1.492468826472759E-2  
 2.606000000000000E10    1.338041108101606E-2  -3.893558867275715E-3  
 2.608000000000000E10   -4.770479165017605E-3  -1.354000717401505E-2  
 2.610000000000000E10   -1.276216935366392E-2   5.952464882284403E-3  
 2.612000000000000E10    7.796290330588818E-3   1.201963610947132E-2  
 2.614000000000000E10    1.133697945624590E-2  -9.320109151303768E-3  
 2.616000000000000E10   -1.033430825918913E-2  -1.024283841252327E-2  
 2.618000000000000E10   -8.990988135337830E-3   1.176284067332745E-2  
 2.620000000000000E10    1.243792846798897E-2   6.872427184134722E-3  
 2.622000000000000E10    5.268855951726437E-3  -1.255892496556044E-2  
 2.624000000000000E10   -1.298868376761675E-2  -4.537430126219988E-3  
 2.626000000000000E10   -2.759201452136040E-3   1.325606275349855E-2  
 2.628000000000000E10    1.405104901641607E-2   1.034109969623387E-3  
 2.630000000000000E10   -4.043270018883050E-4  -1.418387610465288E-2  
 2.632000000000000E10   -1.331872399896383E-2   2.468071877956390E-3  
 2.634000000000000E10    4.114383831620216E-3   1.276186853647232E-2  
 2.636000000000000E10    1.202956307679415E-2  -5.795330740511417E-3  
 2.638000000000000E10   -6.815211847424507E-3  -1.090301200747490E-2  
 2.640000000000000E10   -9.949521161615849E-3   8.014544844627380E-3  
 2.642000000000000E10    8.931005373597145E-3   9.002425707876682E-3  
 2.644000000000000E10    8.197921328246594E-3  -9.801501408219338E-3  
 2.646000000000000E10   -1.101108826696873E-2  -7.182421162724495E-3  
 2.648000000000000E10   -5.521303508430719E-3   1.255324296653271E-2  
 2.650000000000000E10    1.298365369439125E-2   3.627991769462824E-3  
 2.652000000000000E10    1.926024677231908E-3  -1.315514370799065E-2  
 2.654000000000000E10   -1.352487877011299E-2   4.396250005811453E-5  
 2.656000000000000E10    1.854243222624064E-3   1.342310849577189E-2  
 2.658000000000000E10    1.234808564186096E-2  -3.410899313166738E-3  
 2.660000000000000E10   -4.830705933272839E-3  -1.181094907224178E-2  
 2.662000000000000E10   -1.125772669911385E-2   6.533882580697537E-3  
 2.664000000000000E10    7.802929263561964E-3   1.056779734790325E-2  
 2.666000000000000E10    8.662366308271885E-3  -8.413916453719139E-3  
 2.668000000000000E10   -9.378514252603054E-3  -7.589946035295725E-3  
 2.670000000000000E10   -6.693219766020775E-3   1.038150023669004E-2  
 2.672000000000000E10    9.927833452820778E-3   5.003183614462614E-3  
 2.674000000000000E10    3.996047656983137E-3  -1.057642698287964E-2  
 2.676000000000000E10   -1.102919690310955E-2  -2.825947012752295E-3  
 2.678000000000000E10   -1.594093395397067E-3   1.149203069508076E-2  
 2.680000000000000E10    1.142489537596703E-2   4.827004158869386E-4  
 2.682000000000000E10   -6.778960232622922E-4  -1.099668163806200E-2  
 2.684000000000000E10   -1.158580742776394E-2   2.326607936993241E-3  
 2.686000000000000E10    4.120181780308485E-3   1.121067628264427E-2  
 2.688000000000000E10    9.565874934196472E-3  -5.235986784100533E-3  
 2.690000000000000E10   -6.357204169034958E-3  -9.329347871243954E-3  
 2.692000000000000E10   -8.543831296265125E-3   7.433936465531588E-3  
 2.694000000000000E10    8.307149633765221E-3   7.005801890045404E-3  
 2.696000000000000E10    6.070378702133894E-3  -9.182121604681015E-3  
 2.698000000000000E10   -9.278972633183003E-3  -5.219233687967062E-3  
 2.700000000000000E10   -4.126947373151779E-3   1.006614509969950E-2  
 2.702000000000000E10    1.061263587325811E-2   2.052826806902885E-3  
 2.704000000000000E10    8.219338487833738E-4  -9.960654191672802E-3  
 2.706000000000000E10   -1.025505084544420E-2  -1.306900812778622E-4  
 2.708000000000000E10    8.578245760872960E-4   9.898399934172630E-3  
 2.710000000000000E10    9.792592376470566E-3  -2.239094348624349E-3  
 2.712000000000000E10   -3.117313375696540E-3  -9.429611265659332E-3  
 2.714000000000000E10   -8.710442110896111E-3   4.419098142534494E-3  
 2.716000000000000E10    5.746663082391024E-3   8.168109692633152E-3  
 2.718000000000000E10    7.349007297307253E-3  -6.208109669387341E-3  
 2.720000000000000E10   -6.762012839317322E-3  -6.313628982752562E-3  
 2.722000000000000E10   -5.953169893473387E-3   7.505899760872126E-3  
 2.724000000000000E10    8.143346756696701E-3   4.913274664431810E-3  
 2.726000000000000E10    3.735198872163892E-3  -8.193777874112129E-3  
 2.728000000000000E10   -8.838695473968983E-3  -2.941935788840056E-3  
 2.730000000000000E10   -1.457305159419775E-3   9.523595683276653E-3  
 2.732000000000000E10    9.329848922789097E-3   6.669244612567127E-4  
 2.734000000000000E10   -3.180148778483272E-4  -9.003025479614735E-3  
 2.736000000000000E10   -8.861321024596691E-3   1.571513828821480E-3  
 2.738000000000000E10    2.613958902657032E-3   9.211163967847824E-3  
 2.740000000000000E10    8.079838939011097E-3  -3.903544740751386E-3  
 2.742000000000000E10   -4.792493302375078E-3  -7.005893159657717E-3  
 2.744000000000000E10   -7.012973073869944E-3   5.230497103184462E-3  
 2.746000000000000E10    6.282694172114134E-3   5.928123369812965E-3  
 2.748000000000000E10    4.837368614971638E-3  -6.226927042007446E-3  
 2.750000000000000E10   -6.566055119037628E-3  -4.269814584404230E-3  
 2.752000000000000E10   -3.512664698064327E-3   6.935999728739262E-3  
 2.754000000000000E10    7.597462274134159E-3   2.804681891575456E-3  
 2.756000000000000E10    1.518412143923342E-3  -7.808810099959374E-3  
