#  HZ   S   RI   R     50.00 
! Rohde & Schwarz ZVA40 4Ports - Version 3.90 - 1145.1110k42 SN: 100403
! Date: 2023-10-04 08:44:17
! Measurement: S12 
! 
 2.200000000000000E10   -7.761304266750813E-3  -8.927614428102970E-3  
 2.202000000000000E10   -7.464256603270769E-3   9.031374938786030E-3  
 2.204000000000000E10    9.604799561202526E-3   6.623572204262018E-3  
 2.206000000000000E10    5.515481811016798E-3  -1.043983269482851E-2  
 2.208000000000000E10   -1.142368186265230E-2  -4.008105490356684E-3  
 2.210000000000000E10   -2.464270684868097E-3   1.151915360242128E-2  
 2.212000000000000E10    1.175339333713055E-2   9.704200201667845E-4  
 2.214000000000000E10   -4.156612267252058E-4  -1.191685628145933E-2  
 2.216000000000000E10   -1.215948723256588E-2   1.997049897909164E-3  
 2.218000000000000E10    3.323437878862023E-3   1.175328530371189E-2  
 2.220000000000000E10    1.137226354330778E-2  -4.416227806359530E-3  
 2.222000000000000E10   -6.065798923373222E-3  -1.145706605166197E-2  
 2.224000000000000E10   -1.063773594796658E-2   7.182046771049500E-3  
 2.226000000000000E10    8.304957300424576E-3   9.832161478698254E-3  
 2.228000000000000E10    9.028875268995762E-3  -9.952655062079430E-3  
 2.230000000000000E10   -1.105659082531929E-2  -7.837133482098579E-3  
 2.232000000000000E10   -6.693683099001646E-3   1.195297855883837E-2  
 2.234000000000000E10    1.232540886849165E-2   4.425073973834515E-3  
 2.236000000000000E10    3.153816796839237E-3  -1.254706550389528E-2  
 2.238000000000000E10   -1.297994889318943E-2  -2.484511584043503E-3  
 2.240000000000000E10   -7.016424206085503E-4   1.320921722799540E-2  
 2.242000000000000E10    1.329714618623257E-2  -1.233760849572718E-3  
 2.244000000000000E10   -3.082256997004151E-3  -1.289701368659735E-2  
 2.246000000000000E10   -1.196389924734831E-2   4.357971716672182E-3  
 2.248000000000000E10    5.280758719891310E-3   1.133378036320210E-2  
 2.250000000000000E10    1.083676982671022E-2  -7.164778187870979E-3  
 2.252000000000000E10   -8.147118613123894E-3  -9.580947458744049E-3  
 2.254000000000000E10   -9.012518450617790E-3   9.108016267418861E-3  
 2.256000000000000E10    1.052621472626925E-2   8.035066537559032E-3  
 2.258000000000000E10    6.415109615772963E-3  -1.163136586546898E-2  
 2.260000000000000E10   -1.267453189939261E-2  -5.621806718409061E-3  
 2.262000000000000E10   -3.749344497919083E-3   1.296926848590374E-2  
 2.264000000000000E10    1.320603489875794E-2   2.838179934769869E-3  
 2.266000000000000E10    1.302153919823468E-3  -1.423480082303286E-2  
 2.268000000000000E10   -1.382896956056356E-2   3.909179940819740E-4  
 2.270000000000000E10    1.717312843538821E-3   1.386844087392092E-2  
 2.272000000000000E10    1.403967943042517E-2  -3.195412224158645E-3  
 2.274000000000000E10   -5.017238669097424E-3  -1.382511574774981E-2  
 2.276000000000000E10   -1.321862824261189E-2   6.721867714077234E-3  
 2.278000000000000E10    7.979807443916798E-3   1.176548842340708E-2  
 2.280000000000000E10    1.064639445394278E-2  -9.327792562544346E-3  
 2.282000000000000E10   -2.744121011346579E-3  -1.350187137722969E-2  
 2.284000000000000E10   -8.597651496529579E-3   1.106270682066679E-2  
 2.286000000000000E10    1.228610984981060E-2   7.138818502426148E-3  
 2.288000000000000E10    5.583677440881729E-3  -1.312891673296690E-2  
 2.290000000000000E10   -1.377068739384413E-2  -3.925357479602099E-3  
 2.292000000000000E10   -2.010965952649713E-3   1.424578670412302E-2  
 2.294000000000000E10    1.416044775396586E-2  -4.103210449102335E-5  
 2.296000000000000E10   -2.008920768275857E-3  -1.432797871530056E-2  
 2.298000000000000E10   -1.349429506808519E-2   3.441477660089731E-3  
 2.300000000000000E10    4.880656488239765E-3   1.342972088605166E-2  
 2.302000000000000E10    1.289430912584066E-2  -6.788264960050583E-3  
 2.304000000000000E10   -8.192361332476139E-3  -1.223327126353979E-2  
 2.306000000000000E10   -1.108811236917973E-2   9.387273341417313E-3  
 2.308000000000000E10    1.118585467338562E-2   1.019793003797531E-2  
 2.310000000000000E10    9.383118711411953E-3  -1.241454202681780E-2  
 2.312000000000000E10   -1.377151440829039E-2  -7.529935799539089E-3  
 2.314000000000000E10   -5.561177618801594E-3   1.417683716863394E-2  
 2.316000000000000E10    1.511275675147772E-2   3.998352214694023E-3  
 2.318000000000000E10    1.915338099934161E-3  -1.572520285844803E-2  
 2.320000000000000E10   -1.512689329683781E-2   3.174676676280797E-4  
 2.322000000000000E10    1.611882122233510E-3   1.507002767175436E-2  
 2.324000000000000E10    1.510606333613396E-2  -3.552767680957913E-3  
 2.326000000000000E10   -5.774264689534903E-3  -1.451824512332678E-2  
 2.328000000000000E10   -1.330437790602446E-2   7.627856452018023E-3  
 2.330000000000000E10    9.091272018849850E-3   1.214632857590914E-2  
 2.332000000000000E10    1.069111749529839E-2  -1.015562471002340E-2  
 2.334000000000000E10   -1.124166231602430E-2  -9.507369250059128E-3  
 2.336000000000000E10   -8.436065167188644E-3   1.253272406756878E-2  
 2.338000000000000E10    1.380480546504259E-2   6.768933963030577E-3  
 2.340000000000000E10    5.192033946514130E-3  -1.473079901188612E-2  
 2.342000000000000E10   -1.571919955313206E-2  -3.095317399129272E-3  
 2.344000000000000E10   -9.902121964842081E-4   1.646623574197292E-2  
 2.346000000000000E10    1.614693179726601E-2  -9.340504184365273E-4  
 2.348000000000000E10   -3.148412564769387E-3  -1.560696773231030E-2  
 2.350000000000000E10   -1.590573787689209E-2   4.734841175377369E-3  
 2.352000000000000E10    6.962906569242477E-3   1.528506632894278E-2  
 2.354000000000000E10    1.382319349795580E-2  -8.852590806782246E-3  
 2.356000000000000E10   -1.033580116927624E-2  -1.276916451752186E-2  
 2.358000000000000E10   -1.122216694056988E-2   1.183893345296383E-2  
 2.360000000000000E10    1.301469281315804E-2   9.705455042421818E-3  
 2.362000000000000E10    8.000053465366364E-3  -1.420063991099596E-2  
 2.364000000000000E10   -1.507751364260912E-2  -5.791747011244297E-3  
 2.366000000000000E10   -3.928184043616056E-3   1.520079467445612E-2  
 2.368000000000000E10    1.556919887661934E-2   2.353130606934428E-3  
 2.370000000000000E10    5.125579773448408E-4  -1.564921252429485E-2  
 2.372000000000000E10   -1.587207801640034E-2   1.809664419852197E-3  
 2.374000000000000E10    3.815686330199242E-3   1.597957499325275E-2  
 2.376000000000000E10    1.506526209414005E-2  -5.986901931464672E-3  
 2.378000000000000E10   -8.092428557574749E-3  -1.426699385046959E-2  
 2.380000000000000E10   -1.314939465373755E-2   1.000253576785326E-2  
 2.382000000000000E10    1.220191176980734E-2   1.208190154284239E-2  
 2.384000000000000E10    1.072553917765617E-2  -1.356201712042093E-2  
 2.386000000000000E10   -1.442347001284361E-2  -8.603352122008801E-3  
 2.388000000000000E10   -6.630912423133850E-3   1.615951582789421E-2  
 2.390000000000000E10    1.715161651372910E-2   4.843839444220066E-3  
 2.392000000000000E10    2.555429236963391E-3  -1.695610582828522E-2  
 2.394000000000000E10   -1.725345477461815E-2  -6.336915539577603E-4  
 2.396000000000000E10    1.510561094619334E-3   1.763856224715710E-2  
 2.398000000000000E10    1.719188317656517E-2  -4.163372330367565E-3  
 2.400000000000000E10   -5.913679953664541E-3  -1.636096835136414E-2  
 2.402000000000000E10   -1.348227821290493E-2   9.231579490005970E-3  
 2.404000000000000E10    1.096105109900236E-2   1.228657457977533E-2  
 2.406000000000000E10    1.123204641044140E-2  -1.225836947560310E-2  
 2.408000000000000E10   -1.293161511421204E-2  -9.429570287466049E-3  
 2.410000000000000E10   -7.253312040120363E-3   1.395966857671738E-2  
 2.412000000000000E10    1.472834032028914E-2   5.971991922706366E-3  
 2.414000000000000E10    4.188602790236473E-3  -1.533837616443634E-2  
 2.416000000000000E10   -1.575138419866562E-2  -2.181289484724402E-3  
 2.418000000000000E10    9.351329936180264E-5   1.561790425330401E-2  
 2.420000000000000E10    1.516132149845362E-2  -1.680972287431359E-3  
 2.422000000000000E10   -2.904891269281507E-3  -1.523827016353607E-2  
 2.424000000000000E10   -1.490985229611397E-2   4.711192101240158E-3  
 2.426000000000000E10    6.314489059150219E-3   1.464276481419802E-2  
 2.428000000000000E10    1.373999752104282E-2  -8.465034887194634E-3  
 2.430000000000000E10   -9.731705300509930E-3  -1.286653988063335E-2  
 2.432000000000000E10   -1.176788751035929E-2   1.163496263325214E-2  
 2.434000000000000E10    1.283041201531887E-2   9.725070558488369E-3  
 2.436000000000000E10    7.943173870444298E-3  -1.401285734027624E-2  
 2.438000000000000E10   -1.451210305094719E-2  -6.343759596347809E-3  
 2.440000000000000E10   -4.725967068225145E-3   1.479285769164562E-2  
 2.442000000000000E10    1.527402456849814E-2   2.790117869153619E-3  
 2.444000000000000E10    1.094737905077636E-3  -1.525221113115549E-2  
 2.446000000000000E10   -1.474004890769720E-2   3.290929598733783E-4  
 2.448000000000000E10    1.695627579465509E-3   1.447330787777901E-2  
 2.450000000000000E10    1.411931309849024E-2  -3.384564537554979E-3  
 2.452000000000000E10   -5.249181762337685E-3  -1.387925632297993E-2  
 2.454000000000000E10   -1.258685160428286E-2   6.614804733544588E-3  
 2.456000000000000E10    7.000657264143229E-3   1.147764828056097E-2  
 2.458000000000000E10    1.119336578994989E-2  -8.876693435013294E-3  
 2.460000000000000E10   -1.044001057744026E-2  -9.554643183946610E-3  
 2.462000000000000E10   -8.621639572083950E-3   1.120140403509140E-2  
 2.464000000000000E10    1.212109904736280E-2   6.996873766183853E-3  
 2.466000000000000E10    5.640548188239336E-3  -1.291661523282528E-2  
 2.468000000000000E10   -1.405243296176195E-2  -3.917603287845850E-3  
 2.470000000000000E10   -1.672348822467029E-3   1.465983502566814E-2  
 2.472000000000000E10    1.351947803050280E-2  -2.664311978151090E-5  
 2.474000000000000E10   -1.185059663839638E-3  -1.368104573339224E-2  
 2.476000000000000E10   -1.394039019942284E-2   2.658485900610685E-3  
 2.478000000000000E10    4.111065529286861E-3   1.327702123671770E-2  
 2.480000000000000E10    1.324148103594780E-2  -5.887885112315416E-3  
 2.482000000000000E10   -6.869340781122446E-3  -1.282801851630211E-2  
 2.484000000000000E10   -1.181587856262922E-2   8.608615957200527E-3  
 2.486000000000000E10    1.050787698477507E-2   1.061257719993591E-2  
 2.488000000000000E10    8.664197288453579E-3  -1.143019180744886E-2  
 2.490000000000000E10   -1.170766633003950E-2  -7.164397276937962E-3  
 2.492000000000000E10   -6.137166172266007E-3   1.210291963070631E-2  
 2.494000000000000E10    1.276482455432415E-2   4.269159398972988E-3  
 2.496000000000000E10    2.808853052556515E-3  -1.371761877089739E-2  
 2.498000000000000E10   -1.290233246982098E-2  -1.175796962343156E-3  
 2.500000000000000E10    1.113845864892937E-4   1.243530493229628E-2  
 2.502000000000000E10    1.339655555784702E-2  -1.967822434380651E-3  
 2.504000000000000E10   -3.730686148628593E-3  -1.218368113040924E-2  
 2.506000000000000E10   -1.096829399466515E-2   4.456180613487959E-3  
 2.508000000000000E10    5.314274225383997E-3   1.121846958994865E-2  
 2.510000000000000E10    1.079325657337904E-2  -7.101784460246563E-3  
 2.512000000000000E10   -8.518481627106667E-3  -1.043690647929907E-2  
 2.514000000000000E10   -9.162360802292824E-3   9.494887664914131E-3  
 2.516000000000000E10    1.067628990858793E-2   7.960041984915733E-3  
 2.518000000000000E10    7.301028817892075E-3  -1.215709652751684E-2  
 2.520000000000000E10   -1.272573601454496E-2  -5.484928376972675E-3  
 2.522000000000000E10   -3.655062755569816E-3   1.304148975759745E-2  
 2.524000000000000E10    1.356355194002390E-2   2.134597860276699E-3  
 2.526000000000000E10    9.151665144599974E-4  -1.344108860939741E-2  
 2.528000000000000E10   -1.350121665745974E-2   4.595674690790474E-4  
 2.530000000000000E10    2.069184090942144E-3   1.357046701014042E-2  
 2.532000000000000E10    1.286345534026623E-2  -3.982783295214176E-3  
 2.534000000000000E10   -5.429413635283709E-3  -1.226777862757444E-2  
 2.536000000000000E10   -1.126156933605671E-2   6.998556666076183E-3  
 2.538000000000000E10    8.037464693188667E-3   1.013276726007462E-2  
 2.540000000000000E10    9.080876596271992E-3  -9.379195980727673E-3  
 2.542000000000000E10   -1.054265536367893E-2  -7.457520347088575E-3  
 2.544000000000000E10   -6.409954745322466E-3   1.165789552032948E-2  
 2.546000000000000E10    1.229053456336260E-2   4.820793401449919E-3  
 2.548000000000000E10    3.284324193373323E-3  -1.303679496049881E-2  
 2.550000000000000E10   -1.385945547372103E-2  -9.543813648633659E-4  
 2.552000000000000E10    1.074444386176765E-3   1.361843477934599E-2  
 2.554000000000000E10    1.303300075232983E-2  -2.625527558848262E-3  
 2.556000000000000E10   -4.073158837854862E-3  -1.224195864051580E-2  
 2.558000000000000E10   -1.241105701774359E-2   5.327568855136633E-3  
 2.560000000000000E10    7.066991180181503E-3   1.127852685749531E-2  
 2.562000000000000E10    1.027009263634682E-2  -7.810074370354414E-3  
 2.564000000000000E10   -9.293131530284882E-3  -1.010787766426802E-2  
 2.566000000000000E10   -9.101422503590584E-3   1.106951665133238E-2  
 2.568000000000000E10    1.248011458665133E-2   7.347066421061754E-3  
 2.570000000000000E10    4.640761297196150E-3  -1.311143673956394E-2  
 2.572000000000000E10   -1.302068959921598E-2  -3.180817933753133E-3  
 2.574000000000000E10   -1.922825002111495E-3   1.359982974827290E-2  
 2.576000000000000E10    1.366607658565044E-2  -1.773940748535097E-4  
 2.578000000000000E10   -2.234463812783361E-3  -1.352962199598551E-2  
 2.580000000000000E10   -1.283227466046810E-2   3.860911587253213E-3  
 2.582000000000000E10    5.477593746036291E-3   1.226727291941643E-2  
 2.584000000000000E10    1.144994702190161E-2  -6.765507161617279E-3  
 2.586000000000000E10   -8.370570838451386E-3  -9.952062740921974E-3  
 2.588000000000000E10   -8.566325530409813E-3   9.677532128989697E-3  
 2.590000000000000E10    9.783077053725720E-3   7.727549411356449E-3  
 2.592000000000000E10    6.494425702840090E-3  -1.062166877090931E-2  
 2.594000000000000E10   -1.159485336393118E-2  -5.775328725576401E-3  
 2.596000000000000E10   -4.557430744171143E-3   1.270044408738613E-2  
 2.598000000000000E10    1.302725635468960E-2   2.804456045851111E-3  
 2.600000000000000E10    1.154977944679558E-3  -1.373356766998768E-2  
 2.602000000000000E10   -1.363263465464115E-2   8.828875143080950E-4  
 2.604000000000000E10    2.826296491548419E-3   1.353669911623001E-2  
 2.606000000000000E10    1.242298725992441E-2  -4.132851492613554E-3  
 2.608000000000000E10   -5.091614089906216E-3  -1.134654693305492E-2  
 2.610000000000000E10   -1.171902660280466E-2   6.251015700399876E-3  
 2.612000000000000E10    7.448766380548477E-3   1.066733151674271E-2  
 2.614000000000000E10    9.482574649155140E-3  -8.477648720145226E-3  
 2.616000000000000E10   -9.617851115763187E-3  -8.466833271086216E-3  
 2.618000000000000E10   -7.470376789569855E-3   1.055945456027985E-2  
 2.620000000000000E10    1.144036650657654E-2   5.851976573467255E-3  
 2.622000000000000E10    3.986223600804806E-3  -1.133105717599392E-2  
 2.624000000000000E10   -1.145657431334257E-2  -2.831858582794666E-3  
 2.626000000000000E10   -2.089360496029258E-3   1.230625435709953E-2  
 2.628000000000000E10    1.262684073299170E-2   2.088575565721840E-4  
 2.630000000000000E10   -1.700210035778582E-3  -1.224680244922638E-2  
 2.632000000000000E10   -1.193962618708611E-2   3.220568178221583E-3  
 2.634000000000000E10    4.641106352210045E-3   1.135756168514490E-2  
 2.636000000000000E10    1.069327536970377E-2  -6.066857371479273E-3  
 2.638000000000000E10   -7.329975254833698E-3  -8.836510591208935E-3  
 2.640000000000000E10   -8.444584906101227E-3   7.569537032395601E-3  
 2.642000000000000E10    8.703724481165409E-3   7.713681086897850E-3  
 2.644000000000000E10    6.543215829879046E-3  -9.763555601239204E-3  
 2.646000000000000E10   -1.013153605163097E-2  -5.570300854742527E-3  
 2.648000000000000E10   -4.358001518994570E-3   1.103270798921585E-2  
 2.650000000000000E10    1.203341968357563E-2   2.752815606072545E-3  
 2.652000000000000E10    1.184957101941109E-3  -1.215056329965591E-2  
 2.654000000000000E10   -1.169187109917402E-2   3.391581703908742E-4  
 2.656000000000000E10    2.268584677949548E-3   1.186226401478052E-2  
 2.658000000000000E10    1.125994231551886E-2  -3.872218774631620E-3  
 2.660000000000000E10   -5.102132912725210E-3  -1.019422337412834E-2  
 2.662000000000000E10   -9.476322680711746E-3   5.814213305711746E-3  
 2.664000000000000E10    7.018283009529114E-3   8.589298464357853E-3  
 2.666000000000000E10    7.234381977468729E-3  -8.073362521827221E-3  
 2.668000000000000E10   -8.399780839681625E-3  -6.017403211444616E-3  
 2.670000000000000E10   -4.935276228934526E-3   8.485361002385616E-3  
 2.672000000000000E10    9.202888235449791E-3   3.928836900740862E-3  
 2.674000000000000E10    2.549827098846436E-3  -9.324830025434494E-3  
 2.676000000000000E10   -9.210804477334023E-3  -1.886676764115691E-3  
 2.678000000000000E10   -9.803695138543844E-4   1.006027217954397E-2  
 2.680000000000000E10    1.015719864517450E-2  -4.981096135452390E-4  
 2.682000000000000E10   -1.814197632484138E-3  -1.023093517869711E-2  
 2.684000000000000E10   -9.472914971411228E-3   3.015569411218166E-3  
 2.686000000000000E10    4.244557581841946E-3   9.251504205167294E-3  
 2.688000000000000E10    8.650170639157295E-3  -5.490654613822699E-3  
 2.690000000000000E10   -6.191052962094545E-3  -7.093384396284819E-3  
 2.692000000000000E10   -6.869309116154909E-3   6.728788837790489E-3  
 2.694000000000000E10    7.824844680726528E-3   6.072288844734430E-3  
 2.696000000000000E10    4.484971985220909E-3  -8.242584764957428E-3  
 2.698000000000000E10   -8.418753743171692E-3  -3.816075855866075E-3  
 2.700000000000000E10   -2.802867908030748E-3   8.889275602996349E-3  
 2.702000000000000E10    9.501153603196144E-3   1.845921971835196E-3  
 2.704000000000000E10    1.755357225192711E-4  -9.322061203420162E-3  
 2.706000000000000E10   -8.396104909479618E-3   7.906665559858084E-4  
 2.708000000000000E10    1.088362769223750E-3   8.450591936707497E-3  
 2.710000000000000E10    8.405113592743874E-3  -2.525000367313623E-3  
 2.712000000000000E10   -3.771391697227955E-3  -8.026057854294777E-3  
 2.714000000000000E10   -7.293814793229103E-3   4.167102277278900E-3  
 2.716000000000000E10    5.042390897870064E-3   6.517122033983469E-3  
 2.718000000000000E10    6.098752375692129E-3  -6.188380997627974E-3  
 2.720000000000000E10   -6.292150821536779E-3  -5.218399222940207E-3  
 2.722000000000000E10   -4.146431572735310E-3   6.565430201590061E-3  
 2.724000000000000E10    6.900599692016840E-3   3.553683403879404E-3  
 2.726000000000000E10    2.691989066079259E-3  -7.711141370236874E-3  
 2.728000000000000E10   -7.476370781660080E-3  -1.539432443678379E-3  
 2.730000000000000E10   -1.149705378338695E-3   7.561828009784222E-3  
 2.732000000000000E10    7.799078244715929E-3  -6.358766313496744E-6  
 2.734000000000000E10   -5.466694128699601E-4  -7.662279997020960E-3  
 2.736000000000000E10   -7.253954652696848E-3   1.437099766917527E-3  
 2.738000000000000E10    2.785505494102836E-3   6.936293561011553E-3  
 2.740000000000000E10    6.839750334620476E-3  -3.565250663086772E-3  
 2.742000000000000E10   -4.569997079670429E-3  -5.792058538645506E-3  
 2.744000000000000E10   -4.701151046901941E-3   4.714818671345711E-3  
 2.746000000000000E10    5.120062734931707E-3   4.735168535262346E-3  
 2.748000000000000E10    3.768291091546416E-3  -5.749664269387722E-3  
 2.750000000000000E10   -5.885161459445953E-3  -2.741987816989422E-3  
 2.752000000000000E10   -2.415105234831572E-3   6.113716401159763E-3  
 2.754000000000000E10    6.614365149289370E-3   1.506757922470570E-3  
 2.756000000000000E10    1.056531793437898E-3  -6.483277771621943E-3  
