#  HZ   S   RI   R     50.00 
! Rohde & Schwarz ZVA40 4Ports - Version 3.90 - 1145.1110k42 SN: 100403
! Date: 2023-10-04 08:45:42
! Measurement: S12 
! 
 2.200000000000000E10   -5.900664720684290E-3  -9.007415734231472E-3  
 2.202000000000000E10   -7.793409284204245E-3   6.737422663718462E-3  
 2.204000000000000E10    7.652575150132179E-3   7.157641462981701E-3  
 2.206000000000000E10    6.153865717351437E-3  -8.506916463375092E-3  
 2.208000000000000E10   -9.268078953027725E-3  -5.108828190714121E-3  
 2.210000000000000E10   -3.990433644503355E-3   9.556382894515991E-3  
 2.212000000000000E10    9.929489344358444E-3   2.715736161917448E-3  
 2.214000000000000E10    1.259817392565310E-3  -1.042538508772850E-2  
 2.216000000000000E10   -1.061412226408720E-2  -4.852368147112429E-4  
 2.218000000000000E10    1.245504477992654E-3   1.042702794075012E-2  
 2.220000000000000E10    1.053697895258665E-2  -2.499265130609274E-3  
 2.222000000000000E10   -3.474744269624353E-3  -1.065657753497362E-2  
 2.224000000000000E10   -1.036820095032454E-2   5.067035555839539E-3  
 2.226000000000000E10    6.025512702763081E-3   9.510580450296402E-3  
 2.228000000000000E10    9.072904475033283E-3  -7.373169064521790E-3  
 2.230000000000000E10   -8.763172663748264E-3  -8.174751885235310E-3  
 2.232000000000000E10   -7.169566117227078E-3   9.601227939128876E-3  
 2.234000000000000E10    1.027827057987452E-2   5.299300421029329E-3  
 2.236000000000000E10    4.242048598825932E-3  -1.028391160070896E-2  
 2.238000000000000E10   -1.047637313604355E-2  -3.612061962485313E-3  
 2.240000000000000E10   -2.349928487092257E-3   1.128958817571402E-2  
 2.242000000000000E10    1.122625544667244E-2   8.067057933658361E-4  
 2.244000000000000E10   -5.179115687496960E-4  -1.106076315045357E-2  
 2.246000000000000E10   -1.056875661015511E-2   2.150930697098374E-3  
 2.248000000000000E10    2.876169513911009E-3   1.050774287432432E-2  
 2.250000000000000E10    1.012303028255701E-2  -4.340956918895245E-3  
 2.252000000000000E10   -5.799687933176756E-3  -9.269122965633869E-3  
 2.254000000000000E10   -8.282699622213841E-3   6.792461499571800E-3  
 2.256000000000000E10    7.715660613030195E-3   8.002911694347858E-3  
 2.258000000000000E10    7.221824023872614E-3  -8.637695573270321E-3  
 2.260000000000000E10   -9.572432376444340E-3  -6.328429561108351E-3  
 2.262000000000000E10   -4.379551392048597E-3   1.059550419449806E-2  
 2.264000000000000E10    1.107250619679689E-2   3.964152187108994E-3  
 2.266000000000000E10    2.645059488713741E-3  -1.166715566068888E-2  
 2.268000000000000E10   -1.175875775516033E-2  -1.229733461514115E-3  
 2.270000000000000E10   -3.316606453154236E-4   1.157262641936541E-2  
 2.272000000000000E10    1.195146981626749E-2  -6.016007391735911E-4  
 2.274000000000000E10   -1.949889934621751E-3  -1.189533155411482E-2  
 2.276000000000000E10   -1.155851222574711E-2   3.252527909353375E-3  
 2.278000000000000E10    4.785424564033747E-3   1.121074892580509E-2  
 2.280000000000000E10    1.015940681099892E-2  -5.597176495939493E-3  
 2.282000000000000E10   -1.885272795334458E-4  -1.152348890900612E-2  
 2.284000000000000E10   -8.607110939919949E-3   7.889308966696262E-3  
 2.286000000000000E10    8.372272364795208E-3   7.692543324083090E-3  
 2.288000000000000E10    6.506057456135750E-3  -9.255059063434601E-3  
 2.290000000000000E10   -1.030130684375763E-2  -5.349733401089907E-3  
 2.292000000000000E10   -3.894612891599536E-3   1.114129275083542E-2  
 2.294000000000000E10    1.132689788937569E-2   2.430691383779049E-3  
 2.296000000000000E10    8.928489405661821E-4  -1.185064017772675E-2  
 2.298000000000000E10   -1.153056230396032E-2   3.590953128878027E-4  
 2.300000000000000E10    2.060595434159041E-3   1.194838434457779E-2  
 2.302000000000000E10    1.180814020335674E-2  -3.891311585903168E-3  
 2.304000000000000E10   -5.295376759022474E-3  -1.099292468279600E-2  
 2.306000000000000E10   -1.010072138160467E-2   6.296595558524132E-3  
 2.308000000000000E10    7.634967099875212E-3   9.756914339959621E-3  
 2.310000000000000E10    9.086448699235916E-3  -9.074700064957142E-3  
 2.312000000000000E10   -9.960393421351910E-3  -7.987577468156815E-3  
 2.314000000000000E10   -6.822432857006788E-3   1.055917050689459E-2  
 2.316000000000000E10    1.159691065549851E-2   5.383252631872892E-3  
 2.318000000000000E10    3.924729302525520E-3  -1.257384102791548E-2  
 2.320000000000000E10   -1.224059145897627E-2  -2.112635178491473E-3  
 2.322000000000000E10   -6.837876862846315E-4   1.242375560104847E-2  
 2.324000000000000E10    1.252883020788431E-2  -7.798775332048535E-4  
 2.326000000000000E10   -1.802203943952918E-3  -1.227335538715124E-2  
 2.328000000000000E10   -1.209189929068089E-2   3.414805745705962E-3  
 2.330000000000000E10    5.205051973462105E-3   1.115963887423277E-2  
 2.332000000000000E10    1.047574449330568E-2  -6.672563496977091E-3  
 2.334000000000000E10   -7.316021248698235E-3  -9.742842055857182E-3  
 2.336000000000000E10   -8.369454182684422E-3   8.605276234447956E-3  
 2.338000000000000E10    9.786327369511128E-3   7.422395516186953E-3  
 2.340000000000000E10    6.584476679563522E-3  -1.074527483433485E-2  
 2.342000000000000E10   -1.122660655528307E-2  -5.260434933006764E-3  
 2.344000000000000E10   -3.350374056026340E-3   1.251679752022028E-2  
 2.346000000000000E10    1.248614024370909E-2   1.826380379498005E-3  
 2.348000000000000E10   -9.352267079520971E-5  -1.258675940334797E-2  
 2.350000000000000E10   -1.290861517190933E-2   1.387079944834113E-3  
 2.352000000000000E10    3.073389176279306E-3   1.261060312390328E-2  
 2.354000000000000E10    1.197061780840159E-2  -5.053521133959293E-3  
 2.356000000000000E10   -6.251096725463867E-3  -1.126722060143948E-2  
 2.358000000000000E10   -1.038688328117132E-2   7.808252703398466E-3  
 2.360000000000000E10    8.630604483187199E-3   9.477317333221436E-3  
 2.362000000000000E10    8.291937410831451E-3  -9.752712212502956E-3  
 2.364000000000000E10   -1.108566485345364E-2  -7.062274962663651E-3  
 2.366000000000000E10   -5.579670425504446E-3   1.207208260893822E-2  
 2.368000000000000E10    1.205638982355595E-2   4.094439558684826E-3  
 2.370000000000000E10    2.567729447036982E-3  -1.252331677824259E-2  
 2.372000000000000E10   -1.264547370374203E-2  -1.046314951963723E-3  
 2.374000000000000E10    8.184816397260875E-5   1.285724341869354E-2  
 2.376000000000000E10    1.266782078891993E-2  -1.784200663678348E-3  
 2.378000000000000E10   -3.573126858100295E-3  -1.245024614036083E-2  
 2.380000000000000E10   -1.203908305615187E-2   5.247720982879400E-3  
 2.382000000000000E10    7.041124161332846E-3   1.135915983468294E-2  
 2.384000000000000E10    1.016319822520018E-2  -8.198489435017109E-3  
 2.386000000000000E10   -9.447319433093071E-3  -8.782356977462769E-3  
 2.388000000000000E10   -7.900725118815899E-3   1.078144926577807E-2  
 2.390000000000000E10    1.167475525289774E-2   6.102974526584148E-3  
 2.392000000000000E10    4.522304981946945E-3  -1.231212448328733E-2  
 2.394000000000000E10   -1.277393661439419E-2  -2.963444218039513E-3  
 2.396000000000000E10   -1.355633023194969E-3   1.353412587195635E-2  
 2.398000000000000E10    1.339362747967243E-2  -7.107358542270958E-4  
 2.400000000000000E10   -2.291563432663679E-3  -1.307908073067665E-2  
 2.402000000000000E10   -1.198412571102381E-2   5.349444225430489E-3  
 2.404000000000000E10    6.810894235968590E-3   1.127662509679794E-2  
 2.406000000000000E10    1.023518852889538E-2  -7.715381681919098E-3  
 2.408000000000000E10   -9.041124023497105E-3  -9.028374217450619E-3  
 2.410000000000000E10   -7.859179750084877E-3   9.584832005202770E-3  
 2.412000000000000E10    1.034820638597012E-2   6.850431673228741E-3  
 2.414000000000000E10    5.797953344881535E-3  -1.117051765322685E-2  
 2.416000000000000E10   -1.143025048077107E-2  -4.304138012230396E-3  
 2.418000000000000E10   -2.480550203472376E-3   1.244523841887713E-2  
 2.420000000000000E10    1.218361780047417E-2   9.312297333963215E-4  
 2.422000000000000E10    1.240034616785124E-4  -1.183241233229637E-2  
 2.424000000000000E10   -1.224206201732159E-2   1.436828635632992E-3  
 2.426000000000000E10    3.100649686530232E-3   1.184152811765671E-2  
 2.428000000000000E10    1.161567121744156E-2  -4.432857967913151E-3  
 2.430000000000000E10   -5.966804921627045E-3  -1.123215910047293E-2  
 2.432000000000000E10   -1.010006759315729E-2   7.054022978991270E-3  
 2.434000000000000E10    8.696644566953182E-3   8.646580390632153E-3  
 2.436000000000000E10    7.472023367881775E-3  -9.324516169726849E-3  
 2.438000000000000E10   -9.765249677002430E-3  -6.497384048998356E-3  
 2.440000000000000E10   -5.538168828934431E-3   1.049479190260172E-2  
 2.442000000000000E10    1.141656935214996E-2   4.057581536471844E-3  
 2.444000000000000E10    2.222846494987607E-3  -1.158907078206539E-2  
 2.446000000000000E10   -1.109895762056112E-2  -9.018976707011461E-4  
 2.448000000000000E10   -1.741516607580707E-4   1.073685754090548E-2  
 2.450000000000000E10    1.109880860894918E-2  -7.938999333418906E-4  
 2.452000000000000E10   -2.095073228701949E-3  -1.098144147545099E-2  
 2.454000000000000E10   -9.964937344193459E-3   3.380654146894813E-3  
 2.456000000000000E10    4.635269287973642E-3   9.833403863012791E-3  
 2.458000000000000E10    9.194379672408104E-3  -5.627096164971590E-3  
 2.460000000000000E10   -6.497914437204599E-3  -7.943857461214066E-3  
 2.462000000000000E10   -7.129920646548271E-3   6.870203651487827E-3  
 2.464000000000000E10    7.477244362235069E-3   6.764709018170834E-3  
 2.466000000000000E10    5.678855348378420E-3  -8.429629728198052E-3  
 2.468000000000000E10   -9.025015868246555E-3  -4.417910240590572E-3  
 2.470000000000000E10   -3.038336290046573E-3   9.765854105353355E-3  
 2.472000000000000E10    9.781166911125183E-3   1.828856999054551E-3  
 2.474000000000000E10    8.046372095122933E-4  -9.187028743326664E-3  
 2.476000000000000E10   -9.551579132676125E-3   4.899614141322672E-4  
 2.478000000000000E10    1.388188800774515E-3   9.825496003031731E-3  
 2.480000000000000E10    9.445426054298878E-3  -2.460853895172477E-3  
 2.482000000000000E10   -4.051317460834980E-3  -9.024351835250855E-3  
 2.484000000000000E10   -8.923882618546486E-3   5.004490260034800E-3  
 2.486000000000000E10    6.533956620842218E-3   8.180622011423111E-3  
 2.488000000000000E10    6.737827323377132E-3  -7.074375171214342E-3  
 2.490000000000000E10   -7.373719476163387E-3  -5.905203055590391E-3  
 2.492000000000000E10   -5.112199578434229E-3   7.819008082151413E-3  
 2.494000000000000E10    8.945455774664879E-3   4.870961420238018E-3  
 2.496000000000000E10    3.524567233398557E-3  -9.100276045501232E-3  
 2.498000000000000E10   -8.791267871856690E-3  -2.307780785486102E-3  
 2.500000000000000E10   -1.941905822604895E-3   9.167080745100975E-3  
 2.502000000000000E10    9.642094373703003E-3   7.532634190283716E-4  
 2.504000000000000E10   -7.758007268421352E-4  -9.155677631497383E-3  
 2.506000000000000E10   -8.435799740254879E-3   1.697646104730666E-3  
 2.508000000000000E10    2.411638619378209E-3   8.271900936961174E-3  
 2.510000000000000E10    8.187331259250641E-3  -3.667318029329181E-3  
 2.512000000000000E10   -4.320822190493345E-3  -7.305011618882418E-3  
 2.514000000000000E10   -7.044897880405188E-3   5.522130057215691E-3  
 2.516000000000000E10    6.492674816399813E-3   6.600536871701479E-3  
 2.518000000000000E10    5.362603813409805E-3  -7.123323157429695E-3  
 2.520000000000000E10   -8.103877305984497E-3  -4.471981432288885E-3  
 2.522000000000000E10   -2.877193735912442E-3   8.346240967512131E-3  
 2.524000000000000E10    8.194003254175186E-3   1.753094955347478E-3  
 2.526000000000000E10    1.384294941090047E-3  -8.761282078921795E-3  
 2.528000000000000E10   -8.576727472245693E-3  -7.840764592401683E-4  
 2.530000000000000E10    5.220026359893382E-4   8.903363719582558E-3  
 2.532000000000000E10    9.118536487221718E-3  -1.810157671570778E-3  
 2.534000000000000E10   -2.296783728525043E-3  -8.478854782879353E-3  
 2.536000000000000E10   -8.350031450390816E-3   3.725300775840879E-3  
 2.538000000000000E10    4.500557668507099E-3   7.366219535470009E-3  
 2.540000000000000E10    6.909371819347143E-3  -4.993870854377747E-3  
 2.542000000000000E10   -6.533821579068899E-3  -6.669256836175919E-3  
 2.544000000000000E10   -5.131009034812450E-3   6.687362212687731E-3  
 2.546000000000000E10    7.307603955268860E-3   4.277428146451712E-3  
 2.548000000000000E10    3.515968099236488E-3  -7.689952850341797E-3  
 2.550000000000000E10   -8.461376652121544E-3  -2.224775264039636E-3  
 2.552000000000000E10   -7.244459702633321E-4   8.793354034423828E-3  
 2.554000000000000E10    8.097731508314610E-3  -4.382148035801947E-4  
 2.556000000000000E10   -1.259753829799593E-3  -7.883497513830662E-3  
 2.558000000000000E10   -8.351556025445461E-3   2.605043817311525E-3  
 2.560000000000000E10    3.345961449667811E-3   6.913913879543543E-3  
 2.562000000000000E10    6.784680765122175E-3  -4.126638174057007E-3  
 2.564000000000000E10   -4.886743146926165E-3  -6.783497985452414E-3  
 2.566000000000000E10   -6.353055126965046E-3   6.036257371306419E-3  
 2.568000000000000E10    7.406263146549463E-3   5.342735443264246E-3  
 2.570000000000000E10    3.874044632539153E-3  -7.963736541569233E-3  
 2.572000000000000E10   -8.073351345956326E-3  -2.814120613038540E-3  
 2.574000000000000E10   -1.823639729991555E-3   8.361808024346829E-3  
 2.576000000000000E10    8.393182419240475E-3   5.482825217768550E-4  
 2.578000000000000E10   -6.376976380124688E-4  -8.358260616660118E-3  
 2.580000000000000E10   -8.237075060606003E-3   9.749495657160878E-4  
 2.582000000000000E10    2.544511575251818E-3   7.839905098080635E-3  
 2.584000000000000E10    7.642068900167942E-3  -3.558551194146276E-3  
 2.586000000000000E10   -4.266131669282913E-3  -7.256225217133761E-3  
 2.588000000000000E10   -6.124158855527639E-3   5.004135426133871E-3  
 2.590000000000000E10    5.360997281968594E-3   5.355424247682095E-3  
 2.592000000000000E10    4.729510284960270E-3  -5.576409399509430E-3  
 2.594000000000000E10   -6.514835171401501E-3  -4.439291078597307E-3  
 2.596000000000000E10   -3.620755858719349E-3   6.966385990381241E-3  
 2.598000000000000E10    7.396967615932226E-3   2.428083913400769E-3  
 2.600000000000000E10    1.351298065856099E-3  -7.352183107286692E-3  
 2.602000000000000E10   -7.994130253791809E-3  -8.830822771415114E-4  
 2.604000000000000E10    1.035906956531107E-3   8.060377091169357E-3  
 2.606000000000000E10    7.018629927188158E-3  -1.404280657880008E-3  
 2.608000000000000E10   -2.374020870774984E-3  -6.621613632887602E-3  
 2.610000000000000E10   -6.673629861325026E-3   3.189678536728025E-3  
 2.612000000000000E10    4.002784844487906E-3   5.968695506453514E-3  
 2.614000000000000E10    5.302338395267725E-3  -4.207172896713018E-3  
 2.616000000000000E10   -4.829871933907270E-3  -5.678061861544848E-3  
 2.618000000000000E10   -5.257494747638702E-3   5.525245331227779E-3  
 2.620000000000000E10    6.484184879809618E-3   4.269554279744625E-3  
 2.622000000000000E10    2.948530716821551E-3  -6.199424155056477E-3  
 2.624000000000000E10   -6.897319108247757E-3  -2.610099269077182E-3  
 2.626000000000000E10   -2.024221932515502E-3   7.224692963063717E-3  
 2.628000000000000E10    7.122492417693138E-3   1.061127986758947E-3  
 2.630000000000000E10    2.625247725518420E-5  -7.208400405943394E-3  
 2.632000000000000E10   -7.109449245035648E-3   5.932561471126974E-4  
 2.634000000000000E10    2.028458518907428E-3   7.102478761225939E-3  
 2.636000000000000E10    6.107530090957880E-3  -2.713483758270741E-3  
 2.638000000000000E10   -3.468561917543411E-3  -5.228105001151562E-3  
 2.640000000000000E10   -4.922445397824049E-3   3.819440957158804E-3  
 2.642000000000000E10    4.266840871423483E-3   4.425734747201204E-3  
 2.644000000000000E10    3.612053347751498E-3  -4.940711427479982E-3  
 2.646000000000000E10   -4.839802626520395E-3  -3.667630720883608E-3  
 2.648000000000000E10   -2.993992762640119E-3   5.944823380559683E-3  
 2.650000000000000E10    6.403601728379726E-3   1.842522760853171E-3  
 2.652000000000000E10    1.046737306751311E-3  -6.139512173831463E-3  
 2.654000000000000E10   -6.474342197179794E-3  -3.102003829553723E-4  
 2.656000000000000E10    4.784902266692370E-4   7.052487228065729E-3  
 2.658000000000000E10    6.367267109453678E-3  -2.095873700454831E-3  
 2.660000000000000E10   -2.549297874793410E-3  -5.436318926513195E-3  
 2.662000000000000E10   -5.595083348453045E-3   2.688449341803789E-3  
 2.664000000000000E10    3.954205196350813E-3   5.084913689643145E-3  
 2.666000000000000E10    3.923601005226374E-3  -4.322507418692112E-3  
 2.668000000000000E10   -4.071280360221863E-3  -3.575741779059172E-3  
 2.670000000000000E10   -3.183266380801797E-3   4.865812603384256E-3  
 2.672000000000000E10    5.153313744813204E-3   2.387630054727197E-3  
 2.674000000000000E10    1.372298109345138E-3  -5.238455254584551E-3  
 2.676000000000000E10   -5.031184758991003E-3  -8.756510796956718E-4  
 2.678000000000000E10   -9.036724222823978E-4   5.257572978734970E-3  
 2.680000000000000E10    5.378433037549257E-3  -5.709616234526038E-4  
 2.682000000000000E10   -7.969171856530011E-4  -4.814732819795609E-3  
 2.684000000000000E10   -4.819213412702084E-3   1.043799682520330E-3  
 2.686000000000000E10    2.164781093597412E-3   4.880883265286684E-3  
 2.688000000000000E10    4.248068202286959E-3  -2.832021564245224E-3  
 2.690000000000000E10   -2.980966120958328E-3  -3.509337780997157E-3  
 2.692000000000000E10   -3.595450660213828E-3   3.388748271390796E-3  
 2.694000000000000E10    3.870591055601835E-3   2.976488554850221E-3  
 2.696000000000000E10    1.662008929997683E-3  -4.246791359037161E-3  
 2.698000000000000E10   -3.957845736294985E-3  -1.549636130221188E-3  
 2.700000000000000E10   -1.570825930684805E-3   4.147592000663281E-3  
 2.702000000000000E10    4.951163660734892E-3   4.865336231887341E-4  
 2.704000000000000E10   -2.464970457367599E-4  -3.898512804880738E-3  
 2.706000000000000E10   -3.968873061239719E-3   2.571244549471885E-4  
 2.708000000000000E10    3.931822138838470E-4   4.386025015264750E-3  
 2.710000000000000E10    3.878047224134207E-3  -1.404680893756449E-3  
 2.712000000000000E10   -2.090700203552842E-3  -3.590848762542009E-3  
 2.714000000000000E10   -3.454480785876513E-3   1.988985808566213E-3  
 2.716000000000000E10    2.417423296719790E-3   3.278452437371016E-3  
 2.718000000000000E10    2.902650972828269E-3  -3.389820456504822E-3  
 2.720000000000000E10   -2.942885737866163E-3  -2.379375277087092E-3  
 2.722000000000000E10   -1.819914556108415E-3   2.968280809000135E-3  
 2.724000000000000E10    3.509736619889736E-3   1.593907712958753E-3  
 2.726000000000000E10    7.868640823289752E-4  -3.251163987442851E-3  
 2.728000000000000E10   -3.241502447053790E-3  -8.525609155185521E-4  
 2.730000000000000E10   -4.916520556434989E-4   3.402803326025605E-3  
 2.732000000000000E10    3.395873587578535E-3   1.506355874880683E-5  
 2.734000000000000E10   -9.580449550412595E-4  -3.427481744438410E-3  
 2.736000000000000E10   -2.648735884577036E-3   8.797296904958785E-4  
 2.738000000000000E10    1.395059982314706E-3   3.067829646170139E-3  
 2.740000000000000E10    2.583926776424050E-3  -2.134395530447364E-3  
 2.742000000000000E10   -1.991468714550138E-3  -1.951892976649106E-3  
 2.744000000000000E10   -1.966800540685654E-3   2.336862031370401E-3  
 2.746000000000000E10    2.766669495031238E-3   1.839117030613124E-3  
 2.748000000000000E10    1.436468795873225E-3  -2.880112966522574E-3  
 2.750000000000000E10   -2.955073257908225E-3  -8.841321687214077E-4  
 2.752000000000000E10   -4.955150652676821E-4   2.817952306941152E-3  
 2.754000000000000E10    2.899346873164177E-3   5.308736581355333E-4  
 2.756000000000000E10   -2.046160079771653E-4  -3.198251128196716E-3  
