#  HZ   S   RI   R     50.00 
! Rohde & Schwarz ZVA40 4Ports - Version 3.90 - 1145.1110k42 SN: 100403
! Date: 2023-10-04 08:46:21
! Measurement: S12 
! 
 2.200000000000000E10   -8.009742014110088E-3  -5.433180835098028E-3  
 2.202000000000000E10   -4.090160597115755E-3   8.781705051660538E-3  
 2.204000000000000E10    8.976085111498833E-3   3.013441571965814E-3  
 2.206000000000000E10    2.305766567587853E-3  -9.359638206660748E-3  
 2.208000000000000E10   -9.390768595039845E-3  -1.188151421956718E-3  
 2.210000000000000E10    1.623712305445224E-4   9.245239198207855E-3  
 2.212000000000000E10    8.742690086364746E-3  -1.024335506372154E-3  
 2.214000000000000E10   -1.694734091870487E-3  -8.460571989417076E-3  
 2.216000000000000E10   -8.718717843294144E-3   2.544222632423043E-3  
 2.218000000000000E10    4.198090173304081E-3   8.012040518224239E-3  
 2.220000000000000E10    7.594003342092037E-3  -4.809654317796230E-3  
 2.222000000000000E10   -5.931594409048557E-3  -7.117824628949165E-3  
 2.224000000000000E10   -6.306280381977558E-3   6.914951372891665E-3  
 2.226000000000000E10    7.909868843853474E-3   5.363129079341888E-3  
 2.228000000000000E10    4.279753193259239E-3  -9.032709524035454E-3  
 2.230000000000000E10   -9.187851101160049E-3  -3.036536742001772E-3  
 2.232000000000000E10   -1.968496013432741E-3   9.365428239107132E-3  
 2.234000000000000E10    9.800332598388195E-3   5.614508991129696E-4  
 2.236000000000000E10   -2.639422600623220E-4  -9.286806918680668E-3  
 2.238000000000000E10   -9.514928795397282E-3   1.357541070319712E-3  
 2.240000000000000E10    2.469807863235474E-3   9.722406044602394E-3  
 2.242000000000000E10    9.106435813009739E-3  -3.601737320423126E-3  
 2.244000000000000E10   -4.614464472979307E-3  -8.352285251021385E-3  
 2.246000000000000E10   -7.756586186587811E-3   5.116851069033146E-3  
 2.248000000000000E10    5.839153658598661E-3   7.578175980597735E-3  
 2.250000000000000E10    6.794871296733618E-3  -6.588471122086048E-3  
 2.252000000000000E10   -7.362953852862120E-3  -5.351833533495665E-3  
 2.254000000000000E10   -4.951916635036469E-3   7.736569736152887E-3  
 2.256000000000000E10    8.096436038613319E-3   4.524758551269770E-3  
 2.258000000000000E10    3.222569124773145E-3  -8.641412481665611E-3  
 2.260000000000000E10   -9.190244600176811E-3  -1.935943379066885E-3  
 2.262000000000000E10   -8.565967436879873E-4   8.889428339898586E-3  
 2.264000000000000E10    8.733836933970451E-3  -1.156731304945424E-4  
 2.266000000000000E10   -1.371774473227561E-3  -9.297192096710205E-3  
 2.268000000000000E10   -8.933847770094872E-3   2.620673738420010E-3  
 2.270000000000000E10    3.588179824873805E-3   8.114502765238285E-3  
 2.272000000000000E10    8.005340583622456E-3  -4.460217431187630E-3  
 2.274000000000000E10   -5.634743254631758E-3  -7.559467107057571E-3  
 2.276000000000000E10   -7.146844174712896E-3   6.564687937498093E-3  
 2.278000000000000E10    7.307430729269981E-3   6.139484234154224E-3  
 2.280000000000000E10    5.165031645447016E-3  -7.825680077075958E-3  
 2.282000000000000E10   -4.122473299503326E-3  -8.408192545175552E-3  
 2.284000000000000E10   -3.878119401633740E-3   8.681889623403549E-3  
 2.286000000000000E10    8.958374150097370E-3   2.790123922750354E-3  
 2.288000000000000E10    1.733543234877288E-3  -9.233070537447929E-3  
 2.290000000000000E10   -9.452396072447300E-3  -1.192637835629284E-3  
 2.292000000000000E10   -3.763152199098840E-5   9.382496587932110E-3  
 2.294000000000000E10    9.008274413645268E-3  -1.154559548012912E-3  
 2.296000000000000E10   -2.148537896573544E-3  -9.365555830299854E-3  
 2.298000000000000E10   -8.486381731927395E-3   2.861492102965713E-3  
 2.300000000000000E10    4.224383272230625E-3   7.958704605698586E-3  
 2.302000000000000E10    7.773771416395903E-3  -5.600445903837681E-3  
 2.304000000000000E10   -6.313065066933632E-3  -6.557154934853315E-3  
 2.306000000000000E10   -5.664742551743984E-3   6.936062127351761E-3  
 2.308000000000000E10    7.950494997203350E-3   4.526397679001093E-3  
 2.310000000000000E10    3.829381428658962E-3  -8.723536506295204E-3  
 2.312000000000000E10   -9.031764231622219E-3  -2.492433646693826E-3  
 2.314000000000000E10   -9.451088262721896E-4   9.297847747802734E-3  
 2.316000000000000E10    9.470195509493351E-3  -2.052404888672754E-4  
 2.318000000000000E10   -9.099819581024349E-4  -9.660453535616398E-3  
 2.320000000000000E10   -9.136347100138664E-3   2.687462372705340E-3  
 2.322000000000000E10    3.744639689102769E-3   8.820069953799248E-3  
 2.324000000000000E10    8.889514952898026E-3  -4.481909796595573E-3  
 2.326000000000000E10   -5.734871141612530E-3  -7.849932648241520E-3  
 2.328000000000000E10   -7.235085591673851E-3   6.573202088475227E-3  
 2.330000000000000E10    7.429506629705429E-3   6.432885769754648E-3  
 2.332000000000000E10    5.603941623121500E-3  -7.959695532917976E-3  
 2.334000000000000E10   -8.514652960002422E-3  -5.069993436336517E-3  
 2.336000000000000E10   -3.574140369892120E-3   8.986632339656353E-3  
 2.338000000000000E10    9.095083922147751E-3   2.553672064095736E-3  
 2.340000000000000E10    1.647167722694576E-3  -9.301292710006237E-3  
 2.342000000000000E10   -9.478697553277016E-3  -5.555917159654200E-4  
 2.344000000000000E10    1.001793658360839E-3   9.535990655422211E-3  
 2.346000000000000E10    8.889250457286835E-3  -2.055535092949867E-3  
 2.348000000000000E10   -3.425043076276779E-3  -8.055533282458782E-3  
 2.350000000000000E10   -8.075273595750332E-3   4.127176478505135E-3  
 2.352000000000000E10    5.211927462369204E-3   7.356732618063688E-3  
 2.354000000000000E10    6.160821765661240E-3  -5.966752767562866E-3  
 2.356000000000000E10   -7.009877357631922E-3  -5.489150993525982E-3  
 2.358000000000000E10   -4.985164850950241E-3   7.768135517835617E-3  
 2.360000000000000E10    7.918587885797024E-3   3.899706061929464E-3  
 2.362000000000000E10    2.706448081880808E-3  -9.075251407921314E-3  
 2.364000000000000E10   -9.476100094616413E-3  -1.261769444681704E-3  
 2.366000000000000E10   -4.879932675976306E-4   9.158101864159107E-3  
 2.368000000000000E10    8.914320729672909E-3  -6.004431052133441E-4  
 2.370000000000000E10   -1.852636807598174E-3  -8.953250013291836E-3  
 2.372000000000000E10   -9.342751465737820E-3   2.711837412789464E-3  
 2.374000000000000E10    3.776136087253690E-3   8.761551231145859E-3  
 2.376000000000000E10    8.141079917550087E-3  -4.639326129108667E-3  
 2.378000000000000E10   -5.811291746795178E-3  -7.560084573924542E-3  
 2.380000000000000E10   -7.261248305439949E-3   6.745352875441313E-3  
 2.382000000000000E10    7.500229403376579E-3   6.354467477649450E-3  
 2.384000000000000E10    5.332696251571178E-3  -8.483152836561203E-3  
 2.386000000000000E10   -9.256937541067600E-3  -3.940072376281023E-3  
 2.388000000000000E10   -2.904269611462951E-3   9.530790150165558E-3  
 2.390000000000000E10    9.562107734382153E-3   1.354396459646523E-3  
 2.392000000000000E10   -2.984538732562214E-4  -1.027122512459755E-2  
 2.394000000000000E10   -9.913395158946514E-3   1.424477435648441E-3  
 2.396000000000000E10    2.550971461459994E-3   9.537759236991406E-3  
 2.398000000000000E10    8.812362328171730E-3  -3.956528846174479E-3  
 2.400000000000000E10   -4.997136071324348E-3  -8.476772345602512E-3  
 2.402000000000000E10   -6.584829650819302E-3   7.189978379756212E-3  
 2.404000000000000E10    7.478493731468916E-3   5.651749204844236E-3  
 2.406000000000000E10    4.970319569110870E-3  -7.979950867593288E-3  
 2.408000000000000E10   -8.353256620466709E-3  -3.650248283520341E-3  
 2.410000000000000E10   -2.614178229123354E-3   8.755078539252281E-3  
 2.412000000000000E10    8.860584348440170E-3   1.649852143600583E-3  
 2.414000000000000E10    6.117081502452493E-4  -8.825882337987423E-3  
 2.416000000000000E10   -8.449106477200985E-3   3.133361460641027E-4  
 2.418000000000000E10    1.775072538293898E-3   8.855590596795082E-3  
 2.420000000000000E10    8.578739129006863E-3  -2.644844120368362E-3  
 2.422000000000000E10   -3.186648711562157E-3  -8.182585239410400E-3  
 2.424000000000000E10   -7.676301058381796E-3   4.889374598860741E-3  
 2.426000000000000E10    5.623825825750828E-3   6.671953015029430E-3  
 2.428000000000000E10    6.340824533253908E-3  -5.736242514103651E-3  
 2.430000000000000E10   -6.361519452184439E-3  -5.738525185734034E-3  
 2.432000000000000E10   -4.993671085685492E-3   7.760235108435154E-3  
 2.434000000000000E10    8.721645921468735E-3   3.706143004819751E-3  
 2.436000000000000E10    2.290874486789107E-3  -8.293201215565205E-3  
 2.438000000000000E10   -8.285867981612682E-3  -1.344175892882049E-3  
 2.440000000000000E10   -3.308432060293853E-4   8.314226754009724E-3  
 2.442000000000000E10    7.990669459104538E-3  -1.974140468519181E-4  
 2.444000000000000E10   -1.368692144751549E-3  -7.775803562253714E-3  
 2.446000000000000E10   -7.309257052838802E-3   2.396498573943973E-3  
 2.448000000000000E10    3.032497130334377E-3   7.258730940520763E-3  
 2.450000000000000E10    6.817441899329424E-3  -3.932966850697994E-3  
 2.452000000000000E10   -4.277519416064024E-3  -5.848644766956568E-3  
 2.454000000000000E10   -5.434456747025251E-3   5.291306879371405E-3  
 2.456000000000000E10    5.909892730414867E-3   4.781104624271393E-3  
 2.458000000000000E10    4.126712679862976E-3  -6.229626480489969E-3  
 2.460000000000000E10   -6.832628510892391E-3  -3.236155258491635E-3  
 2.462000000000000E10   -2.388814464211464E-3   6.909373216331005E-3  
 2.464000000000000E10    7.265549153089523E-3   1.559319905936718E-3  
 2.466000000000000E10    8.589817443862557E-4  -7.157274521887302E-3  
 2.468000000000000E10   -7.294957991689444E-3  -3.497750149108470E-4  
 2.470000000000000E10    1.040076953358948E-3   7.473605219274759E-3  
 2.472000000000000E10    6.431230343878269E-3  -1.923948409967125E-3  
 2.474000000000000E10   -2.107532462105155E-3  -6.220653187483549E-3  
 2.476000000000000E10   -6.210184190422297E-3   2.807385055348277E-3  
 2.478000000000000E10    3.381412010639906E-3   5.633371416479349E-3  
 2.480000000000000E10    4.947967827320099E-3  -4.178465809673071E-3  
 2.482000000000000E10   -4.653232637792826E-3  -4.360811319202185E-3  
 2.484000000000000E10   -4.007097333669663E-3   5.158506333827972E-3  
 2.486000000000000E10    5.873974878340960E-3   2.699512988328934E-3  
 2.488000000000000E10    1.591688836924732E-3  -5.844150204211474E-3  
 2.490000000000000E10   -5.510396324098110E-3  -1.070058555342257E-3  
 2.492000000000000E10   -5.771048599854112E-4   5.784134380519390E-3  
 2.494000000000000E10    5.909532774239779E-3  -2.168267965316773E-4  
 2.496000000000000E10   -9.576031006872654E-4  -5.750865209847689E-3  
 2.498000000000000E10   -6.049319170415402E-3   1.406223513185978E-3  
 2.500000000000000E10    1.838881056755781E-3   5.623326171189547E-3  
 2.502000000000000E10    5.319080781191587E-3  -2.874263329431415E-3  
 2.504000000000000E10   -3.280964680016041E-3  -5.041403230279684E-3  
 2.506000000000000E10   -4.720930475741625E-3   3.526628250256181E-3  
 2.508000000000000E10    3.765141358599067E-3   4.456481896340847E-3  
 2.510000000000000E10    3.949398640543222E-3  -4.520948510617018E-3  
 2.512000000000000E10   -5.223828367888928E-3  -3.510873997583985E-3  
 2.514000000000000E10   -2.865482354536653E-3   5.481767933815718E-3  
 2.516000000000000E10    5.394635722041130E-3   2.176478039473295E-3  
 2.518000000000000E10    1.496497658081353E-3  -5.695545580238104E-3  
 2.520000000000000E10   -5.910108331590891E-3  -6.197913317009807E-4  
 2.522000000000000E10    3.495761193335056E-4   5.638442467898130E-3  
 2.524000000000000E10    5.345605313777924E-3  -1.024076133035123E-3  
 2.526000000000000E10   -1.434142584912479E-3  -5.364899523556233E-3  
 2.528000000000000E10   -4.694561939686537E-3   2.417536918073893E-3  
 2.530000000000000E10    2.865592483431101E-3   4.493644461035729E-3  
 2.532000000000000E10    4.420639015734196E-3  -3.157677128911018E-3  
 2.534000000000000E10   -3.576691495254636E-3  -3.656458575278521E-3  
 2.536000000000000E10   -3.264198545366526E-3   4.379856865853071E-3  
 2.538000000000000E10    4.381382372230291E-3   2.489718841388822E-3  
 2.540000000000000E10    2.079908270388842E-3  -4.721986129879952E-3  
 2.542000000000000E10   -5.025975406169891E-3  -1.212683622725308E-3  
 2.544000000000000E10   -3.718674415722489E-4   5.072871688753367E-3  
 2.546000000000000E10    5.415941122919321E-3   4.377033910714090E-4  
 2.548000000000000E10   -6.121165934018791E-4  -5.561369936913252E-3  
 2.550000000000000E10   -5.283318459987640E-3   1.955003477632999E-3  
 2.552000000000000E10    2.214421285316348E-3   4.559245891869068E-3  
 2.554000000000000E10    4.255723673850298E-3  -2.556125167757273E-3  
 2.556000000000000E10   -3.189815441146493E-3  -3.980479668825865E-3  
 2.558000000000000E10   -3.460473846644163E-3   3.496485063806176E-3  
 2.560000000000000E10    3.606988815590739E-3   3.213279647752643E-3  
 2.562000000000000E10    2.762754447758198E-3  -4.255131818354130E-3  
 2.564000000000000E10   -4.502429626882076E-3  -2.150865970179439E-3  
 2.566000000000000E10   -1.332481857389212E-3   4.816626198589802E-3  
 2.568000000000000E10    4.775254987180233E-3   9.931940585374832E-4  
 2.570000000000000E10    3.665912954602391E-4  -4.959975369274616E-3  
 2.572000000000000E10   -4.724618047475815E-3   6.169002735987306E-4  
 2.574000000000000E10    1.114398590289056E-3   4.469705745577812E-3  
 2.576000000000000E10    4.716678988188505E-3  -1.964457565918565E-3  
 2.578000000000000E10   -2.746397862210870E-3  -4.121973644942045E-3  
 2.580000000000000E10   -3.220875747501850E-3   3.024907317012548E-3  
 2.582000000000000E10    3.336347639560700E-3   2.877467079088092E-3  
 2.584000000000000E10    2.697040094062686E-3  -3.493072465062141E-3  
 2.586000000000000E10   -4.175351001322269E-3  -2.147385850548744E-3  
 2.588000000000000E10   -1.057186513207853E-3   4.251926671713591E-3  
 2.590000000000000E10    3.957388456910849E-3   1.070809899829328E-3  
 2.592000000000000E10    1.144583453424275E-3  -4.478742834180594E-3  
 2.594000000000000E10   -4.668330773711205E-3  -1.776623976184055E-4  
 2.596000000000000E10    2.746479585766792E-4   4.422125406563282E-3  
 2.598000000000000E10    4.852954763919115E-3  -8.285215590149164E-4  
 2.600000000000000E10   -1.579096191562712E-3  -4.288638010621071E-3  
 2.602000000000000E10   -4.006306640803814E-3   2.147527178749442E-3  
 2.604000000000000E10    2.647585468366742E-3   3.549853572621942E-3  
 2.606000000000000E10    2.996779512614012E-3  -2.491619437932968E-3  
 2.608000000000000E10   -2.838763175532222E-3  -2.864870708435774E-3  
 2.610000000000000E10   -2.209055703133345E-3   3.138152183964849E-3  
 2.612000000000000E10    3.306902712211013E-3   2.007892355322838E-3  
 2.614000000000000E10    1.758545055054128E-3  -3.593064611777663E-3  
 2.616000000000000E10   -4.015512764453888E-3  -1.226453226990998E-3  
 2.618000000000000E10   -4.834144783671945E-4   3.868703497573733E-3  
 2.620000000000000E10    3.514331299811602E-3   8.812847954686731E-5  
 2.622000000000000E10   -1.807792577892542E-4  -3.462003776803613E-3  
 2.624000000000000E10   -4.295201972126961E-3   8.280253969132900E-4  
 2.626000000000000E10    1.783087500371039E-3   3.758024889975786E-3  
 2.628000000000000E10    3.194954944774509E-3  -1.719017047435045E-3  
 2.630000000000000E10   -2.073604846373200E-3  -3.158174687996507E-3  
 2.632000000000000E10   -2.636770252138376E-3   2.732466673478484E-3  
 2.634000000000000E10    2.741218777373433E-3   2.190775005146861E-3  
 2.636000000000000E10    2.072202041745186E-3  -2.968068700283766E-3  
 2.638000000000000E10   -3.597698407247663E-3  -1.611265935935080E-3  
 2.640000000000000E10   -7.508478011004627E-4   3.615344176068902E-3  
 2.642000000000000E10    3.269405802711844E-3   3.251266316510737E-4  
 2.644000000000000E10    5.215411656536162E-4  -3.177166916429997E-3  
 2.646000000000000E10   -3.885889891535044E-3   8.188558422261849E-5  
 2.648000000000000E10    1.298975083045661E-3   3.600810887292028E-3  
 2.650000000000000E10    2.872838638722897E-3  -9.464087197557092E-4  
 2.652000000000000E10   -1.681594178080559E-3  -3.304228652268648E-3  
 2.654000000000000E10   -2.841883338987827E-3   2.466778270900250E-3  
 2.656000000000000E10    2.212731633335352E-3   1.978836487978697E-3  
 2.658000000000000E10    1.715926802717149E-3  -2.139412565156817E-3  
 2.660000000000000E10   -2.527053933590651E-3  -1.810152549296618E-3  
 2.662000000000000E10   -1.265274127945304E-3   3.242987440899015E-3  
 2.664000000000000E10    2.759453840553761E-3   4.952094750478864E-4  
 2.666000000000000E10    4.914087476208806E-4  -2.556987572461367E-3  
 2.668000000000000E10   -3.162809880450368E-3  -4.355976416263729E-4  
 2.670000000000000E10    6.411962094716728E-4   2.909741131588817E-3  
 2.672000000000000E10    2.091118600219488E-3  -6.617829203605652E-4  
 2.674000000000000E10   -7.115843473002315E-4  -2.671831287443638E-3  
 2.676000000000000E10   -2.501823939383030E-3   1.463363412767649E-3  
 2.678000000000000E10    1.842277939431369E-3   1.952707767486572E-3  
 2.680000000000000E10    1.744389417581260E-3  -1.891215913929045E-3  
 2.682000000000000E10   -1.607931219041348E-3  -1.983830472454429E-3  
 2.684000000000000E10   -1.408123294822872E-3   2.480200957506895E-3  
 2.686000000000000E10    2.307413844391704E-3   6.831724313087761E-4  
 2.688000000000000E10    8.004070841707289E-4  -2.405006205663085E-3  
 2.690000000000000E10   -2.606815658509731E-3  -8.279896574094892E-4  
 2.692000000000000E10    3.015237452927977E-4   2.853550715371966E-3  
 2.694000000000000E10    2.128646709024906E-3  -6.206238176673651E-4  
 2.696000000000000E10   -2.849063603207469E-4  -1.913785235956311E-3  
 2.698000000000000E10   -2.169315703213215E-3   5.658244481310248E-4  
 2.700000000000000E10    1.264961436390877E-3   2.296902006492019E-3  
 2.702000000000000E10    1.809673616662622E-3  -1.464289613068104E-3  
 2.704000000000000E10   -1.311208936385810E-3  -1.445243484340608E-3  
 2.706000000000000E10   -1.454922719858587E-3   1.678333384916186E-3  
 2.708000000000000E10    1.764724380336702E-3   9.590338449925184E-4  
 2.710000000000000E10    7.736244006082416E-4  -1.469525275751948E-3  
 2.712000000000000E10   -1.730312244035304E-3  -9.441963629797101E-4  
 2.714000000000000E10   -1.839422766352072E-4   2.119663404300809E-3  
 2.716000000000000E10    1.763070002198219E-3  -1.168876988231205E-4  
 2.718000000000000E10   -5.184976998862112E-6  -1.658567925915122E-3  
 2.720000000000000E10   -1.695501036010683E-3   1.786915672710165E-4  
 2.722000000000000E10    7.322718738578260E-4   1.653192797675729E-3  
 2.724000000000000E10    1.504805637523532E-3  -1.131554367020726E-3  
 2.726000000000000E10   -9.820179548114538E-4  -1.131733530201018E-3  
 2.728000000000000E10   -1.420340733602643E-3   8.757290779612958E-4  
 2.730000000000000E10    1.291233580559492E-3   1.064060372300446E-3  
 2.732000000000000E10    8.935247897170484E-4  -1.409185351803899E-3  
 2.734000000000000E10   -1.475231372751296E-3  -7.689715712331235E-4  
 2.736000000000000E10   -4.632277123164386E-4   1.541799632832408E-3  
 2.738000000000000E10    1.660496694967151E-3   1.637356035644189E-4  
 2.740000000000000E10   -7.737079431535676E-5  -1.630580867640674E-3  
 2.742000000000000E10   -1.528302906081080E-3   2.029851748375222E-4  
 2.744000000000000E10    2.872841141652316E-4   1.365355798043311E-3  
 2.746000000000000E10    1.018880167976022E-3  -6.849342607893050E-4  
 2.748000000000000E10   -4.590177268255502E-4  -7.141635869629681E-4  
 2.750000000000000E10   -1.115908962674439E-3   4.937830381095409E-4  
 2.752000000000000E10    7.553059840574861E-4   6.234733154997230E-4  
 2.754000000000000E10    6.175954476930201E-4  -7.839286699891090E-4  
 2.756000000000000E10   -9.445591713301837E-4  -6.706654676236212E-4  
