#  HZ   S   RI   R     50.00 
! Rohde & Schwarz ZVA40 4Ports - Version 3.90 - 1145.1110k42 SN: 100403
! Date: 2023-10-04 08:47:41
! Measurement: S12 
! 
 2.200000000000000E10    1.664042429183610E-5  -7.813675329089165E-3  
 2.202000000000000E10   -7.886142469942570E-3   6.523267948068678E-4  
 2.204000000000000E10    1.347092562355101E-3   7.623349316418171E-3  
 2.206000000000000E10    7.429723627865315E-3  -2.541967667639256E-3  
 2.208000000000000E10   -3.185607260093093E-3  -7.436467800289393E-3  
 2.210000000000000E10   -6.751233711838722E-3   4.064823035150766E-3  
 2.212000000000000E10    4.681231454014778E-3   6.026879884302616E-3  
 2.214000000000000E10    5.814164411276579E-3  -4.861517343670130E-3  
 2.216000000000000E10   -5.681473296135664E-3  -5.682304501533508E-3  
 2.218000000000000E10   -4.545683506876230E-3   6.720621604472399E-3  
 2.220000000000000E10    6.456917617470026E-3   3.773485776036978E-3  
 2.222000000000000E10    3.270120592787862E-3  -6.909808143973351E-3  
 2.224000000000000E10   -7.412592880427837E-3  -2.590887015685439E-3  
 2.226000000000000E10   -1.375484745949507E-3   7.589357905089855E-3  
 2.228000000000000E10    7.461692206561565E-3   3.122441412415355E-4  
 2.230000000000000E10   -4.553593462333083E-4  -7.352762855589390E-3  
 2.232000000000000E10   -7.285455241799355E-3   1.594807254150510E-3  
 2.234000000000000E10    2.538999076932669E-3   6.754667963832617E-3  
 2.236000000000000E10    6.374663673341274E-3  -2.906702924519777E-3  
 2.238000000000000E10   -3.822694532573223E-3  -5.975225474685431E-3  
 2.240000000000000E10   -5.588401108980179E-3   5.046761129051447E-3  
 2.242000000000000E10    5.518670659512281E-3   4.697169642895460E-3  
 2.244000000000000E10    4.099173471331596E-3  -6.122091319411993E-3  
 2.246000000000000E10   -6.248996127396822E-3  -3.208710113540292E-3  
 2.248000000000000E10   -2.721689408645034E-3   6.659214384853840E-3  
 2.250000000000000E10    7.169747259467840E-3   2.171084284782410E-3  
 2.252000000000000E10    1.271931221708655E-3  -7.171674165874720E-3  
 2.254000000000000E10   -7.114550098776817E-3  -4.960321821272373E-4  
 2.256000000000000E10    2.341113577131182E-4   7.224466186016798E-3  
 2.258000000000000E10    7.393939886242151E-3  -8.781659416854382E-4  
 2.260000000000000E10   -1.628194586373866E-3  -7.149606943130493E-3  
 2.262000000000000E10   -6.679220125079155E-3   2.538485452532768E-3  
 2.264000000000000E10    2.792774466797710E-3   5.985302384942770E-3  
 2.266000000000000E10    6.386217195540667E-3  -3.479551523923874E-3  
 2.268000000000000E10   -4.260408692061901E-3  -5.862093996256590E-3  
 2.270000000000000E10   -5.168662406504154E-3   4.935214761644602E-3  
 2.272000000000000E10    5.525835324078798E-3   4.309195093810558E-3  
 2.274000000000000E10    3.735563484951854E-3  -5.768401548266411E-3  
 2.276000000000000E10   -6.434521172195673E-3  -3.159818239510059E-3  
 2.278000000000000E10   -1.841136137954891E-3   6.409851368516684E-3  
 2.280000000000000E10    6.572865415364504E-3   1.096841646358371E-3  
 2.282000000000000E10    4.294917918741703E-3  -5.106050521135330E-3  
 2.284000000000000E10   -6.654157303273678E-3   7.608629675814882E-5  
 2.286000000000000E10    1.110262121073902E-3   6.754246074706316E-3  
 2.288000000000000E10    6.498878356069326E-3  -1.849409076385200E-3  
 2.290000000000000E10   -2.752315253019333E-3  -6.610630545765162E-3  
 2.292000000000000E10   -6.150759290903807E-3   3.498907433822751E-3  
 2.294000000000000E10    4.353339318186045E-3   5.555294454097748E-3  
 2.296000000000000E10    5.280313082039356E-3  -4.917141050100327E-3  
 2.298000000000000E10   -4.839865956455469E-3  -5.046119447797537E-3  
 2.300000000000000E10   -4.395913332700729E-3   5.827930755913258E-3  
 2.302000000000000E10    6.434093229472637E-3   3.661356400698423E-3  
 2.304000000000000E10    2.841363660991192E-3  -6.406532134860754E-3  
 2.306000000000000E10   -6.659341044723988E-3  -2.052065450698137E-3  
 2.308000000000000E10   -1.463203574530780E-3   6.932305637747049E-3  
 2.310000000000000E10    7.275200448930264E-3   4.470913845580071E-4  
 2.312000000000000E10   -2.266888477606699E-4  -6.867761258035898E-3  
 2.314000000000000E10   -6.537286099046469E-3   1.044015982188284E-3  
 2.316000000000000E10    1.887828460894525E-3   6.505268625915051E-3  
 2.318000000000000E10    6.136185955256224E-3  -2.769372658804059E-3  
 2.320000000000000E10   -3.689079778268933E-3  -5.444466136395931E-3  
 2.322000000000000E10   -5.116221029311419E-3   4.263331182301045E-3  
 2.324000000000000E10    4.800813738256693E-3   4.048031289130449E-3  
 2.326000000000000E10    3.443950554355979E-3  -5.175849888473749E-3  
 2.328000000000000E10   -5.506965797394514E-3  -2.975907176733017E-3  
 2.330000000000000E10   -2.068959642201662E-3   6.234029307961464E-3  
 2.332000000000000E10    6.394484080374241E-3   1.247617066837847E-3  
 2.334000000000000E10    5.179913132451475E-4  -6.650280207395554E-3  
 2.336000000000000E10   -6.667072419077158E-3   2.302460343344137E-4  
 2.338000000000000E10    9.930565720424056E-4   6.779437884688377E-3  
 2.340000000000000E10    6.449836306273937E-3  -2.210177946835756E-3  
 2.342000000000000E10   -2.773597603663802E-3  -6.416358053684235E-3  
 2.344000000000000E10   -6.255720276385546E-3   3.184350673109293E-3  
 2.346000000000000E10    3.923230804502964E-3   5.403615068644285E-3  
 2.348000000000000E10    4.965289030224085E-3  -4.396095406264067E-3  
 2.350000000000000E10   -4.775958601385355E-3  -4.920330829918385E-3  
 2.352000000000000E10   -3.874554764479399E-3   5.436284001916647E-3  
 2.354000000000000E10    5.501412320882082E-3   3.163667162880302E-3  
 2.356000000000000E10    2.509916666895151E-3  -5.975369829684496E-3  
 2.358000000000000E10   -6.260396912693977E-3  -2.045650500804186E-3  
 2.360000000000000E10   -1.453003729693592E-3   6.411079317331314E-3  
 2.362000000000000E10    6.274297833442688E-3   7.704170457145665E-7  
 2.364000000000000E10   -2.495177031960338E-4  -6.246807519346476E-3  
 2.366000000000000E10   -6.125641055405140E-3   8.611195371486247E-4  
 2.368000000000000E10    1.897542970255017E-3   6.021190900355578E-3  
 2.370000000000000E10    5.491305142641068E-3  -2.866357564926148E-3  
 2.372000000000000E10   -3.290607128292322E-3  -4.899660591036081E-3  
 2.374000000000000E10   -4.695774056017399E-3   4.144677892327309E-3  
 2.376000000000000E10    4.535088315606117E-3   4.188557621091604E-3  
 2.378000000000000E10    3.771783318370581E-3  -5.043504759669304E-3  
 2.380000000000000E10   -5.447894800454378E-3  -3.489898284897208E-3  
 2.382000000000000E10   -2.340159611776471E-3   5.976069252938032E-3  
 2.384000000000000E10    6.738499272614718E-3   1.843035803176463E-3  
 2.386000000000000E10    7.365824421867728E-4  -6.921961437910795E-3  
 2.388000000000000E10   -7.021163124591112E-3   4.053162410855293E-4  
 2.390000000000000E10    1.396067673340440E-3   7.130259647965431E-3  
 2.392000000000000E10    6.756698712706566E-3  -2.311743795871735E-3  
 2.394000000000000E10   -3.100957488641143E-3  -6.265820469707251E-3  
 2.396000000000000E10   -6.087211426347494E-3   4.132940899580717E-3  
 2.398000000000000E10    4.578719846904278E-3   5.258747842162848E-3  
 2.400000000000000E10    4.676747601479292E-3  -5.437376443296671E-3  
 2.402000000000000E10   -6.239283364266157E-3  -3.193290438503027E-3  
 2.404000000000000E10   -2.517845248803496E-3   6.406564731150866E-3  
 2.406000000000000E10    6.825040560215712E-3   1.819732133299112E-3  
 2.408000000000000E10    9.866877226158977E-4  -6.667404435575008E-3  
 2.410000000000000E10   -6.517096422612667E-3   3.032933091162704E-5  
 2.412000000000000E10    8.203238248825073E-4   6.592917256057262E-3  
 2.414000000000000E10    6.290654186159372E-3  -1.299869501963258E-3  
 2.416000000000000E10   -2.074471442028880E-3  -6.071734707802534E-3  
 2.418000000000000E10   -5.233178846538067E-3   3.003806341439486E-3  
 2.420000000000000E10    3.184332279488444E-3   4.917994607239962E-3  
 2.422000000000000E10    4.603012464940548E-3  -3.894679713994265E-3  
 2.424000000000000E10   -4.515867214649916E-3  -3.943278454244137E-3  
 2.426000000000000E10   -3.053091000765562E-3   4.955393262207508E-3  
 2.428000000000000E10    5.059967283159494E-3   2.231798367574811E-3  
 2.430000000000000E10    1.524169696494937E-3  -5.353116896003485E-3  
 2.432000000000000E10   -5.861191079020500E-3  -1.292619854211807E-3  
 2.434000000000000E10   -1.382710470352322E-4   5.794182419776917E-3  
 2.436000000000000E10    5.369102582335472E-3  -5.678113666363061E-4  
 2.438000000000000E10   -1.084371586330235E-3  -5.318535026162863E-3  
 2.440000000000000E10   -5.035237409174442E-3   1.557094743475318E-3  
 2.442000000000000E10    1.977734733372927E-3   4.804998636245728E-3  
 2.444000000000000E10    4.485670942813158E-3  -2.599265659227967E-3  
 2.446000000000000E10   -3.094193525612354E-3  -3.788859583437443E-3  
 2.448000000000000E10   -3.419628599658608E-3   3.458361839875579E-3  
 2.450000000000000E10    3.178317798301578E-3   3.252048511058092E-3  
 2.452000000000000E10    3.000943688675761E-3  -3.562385914847255E-3  
 2.454000000000000E10   -4.128233063966036E-3  -2.165025332942605E-3  
 2.456000000000000E10   -1.768871326930821E-3   4.446505103260279E-3  
 2.458000000000000E10    4.442177712917328E-3   1.242646831087768E-3  
 2.460000000000000E10    6.693990435451269E-4  -4.921155981719494E-3  
 2.462000000000000E10   -4.546442534774542E-3   3.024882462341338E-4  
 2.464000000000000E10    5.000735982321203E-4   4.321778658777475E-3  
 2.466000000000000E10    4.446420818567276E-3  -7.829543901607394E-4  
 2.468000000000000E10   -1.437195227481425E-3  -4.316493868827820E-3  
 2.470000000000000E10   -4.040167201310396E-3   1.921518356539309E-3  
 2.472000000000000E10    2.382118953391910E-3   3.742076456546783E-3  
 2.474000000000000E10    3.506250446662307E-3  -2.789089223369956E-3  
 2.476000000000000E10   -3.167338902130723E-3  -2.986143110319972E-3  
 2.478000000000000E10   -2.190791536122561E-3   2.871316391974688E-3  
 2.480000000000000E10    3.197269048541784E-3   2.153305104002357E-3  
 2.482000000000000E10    2.406654180958867E-3  -3.474049270153046E-3  
 2.484000000000000E10   -4.007236566394568E-3  -1.337565947324038E-3  
 2.486000000000000E10   -5.468527087941766E-4   4.062271211296320E-3  
 2.488000000000000E10    3.955979831516743E-3   7.559202640550211E-5  
 2.490000000000000E10   -6.919728475622833E-4  -3.440646454691887E-3  
 2.492000000000000E10   -3.089282428845763E-3   7.691421196796000E-4  
 2.494000000000000E10    1.355069689452648E-3   3.240311983972788E-3  
 2.496000000000000E10    3.013044828549027E-3  -1.854196656495333E-3  
 2.498000000000000E10   -1.850028289481998E-3  -2.623048843815923E-3  
 2.500000000000000E10   -2.454043366014957E-3   2.057317644357681E-3  
 2.502000000000000E10    2.698803087696433E-3   1.988861477002502E-3  
 2.504000000000000E10    1.770272501744330E-3  -2.567082876339555E-3  
 2.506000000000000E10   -2.481168601661921E-3  -1.166474306955934E-3  
 2.508000000000000E10   -1.356797758489847E-3   2.531151520088315E-3  
 2.510000000000000E10    2.936134114861488E-3   9.148324024863541E-4  
 2.512000000000000E10    3.990255063399673E-4  -3.060093382373452E-3  
 2.514000000000000E10   -2.735272748395801E-3  -3.879685536958277E-4  
 2.516000000000000E10    2.438976371195167E-4   2.949470654129982E-3  
 2.518000000000000E10    2.742203418165445E-3  -6.145726656541228E-4  
 2.520000000000000E10   -1.190558396046981E-4  -2.569905947893858E-3  
 2.522000000000000E10   -2.570995362475514E-3   1.110472949221730E-3  
 2.524000000000000E10    1.500292215496302E-3   2.665780950337648E-3  
 2.526000000000000E10    2.284341026097536E-3  -1.943076378665865E-3  
 2.528000000000000E10   -2.088106004521251E-3  -2.055477816611528E-3  
 2.530000000000000E10   -2.082987222820520E-3   2.056714845821261E-3  
 2.532000000000000E10    2.572366734966636E-3   1.338027534075081E-3  
 2.534000000000000E10    1.182039035484195E-3  -2.335994504392147E-3  
 2.536000000000000E10   -2.579688094556332E-3  -1.254202914424241E-3  
 2.538000000000000E10   -4.860725312028080E-4   2.988595981150866E-3  
 2.540000000000000E10    2.818383974954486E-3   1.500482612755150E-4  
 2.542000000000000E10    2.398000106040854E-5  -2.734589856117964E-3  
 2.544000000000000E10   -2.847939962521195E-3   1.337690191576257E-4  
 2.546000000000000E10    6.342558190226555E-4   2.439577598124743E-3  
 2.548000000000000E10    1.941183814778924E-3  -1.097147003747523E-3  
 2.550000000000000E10   -1.268030144274235E-3  -1.963975140824914E-3  
 2.552000000000000E10   -1.795839751139283E-3   1.642218674533069E-3  
 2.554000000000000E10    1.877293805591762E-3   9.837766410782933E-4  
 2.556000000000000E10    7.516136975027621E-4  -1.723155030049384E-3  
 2.558000000000000E10   -1.742382533848286E-3  -9.291211026720703E-4  
 2.560000000000000E10   -4.954190808348358E-4   2.222454873844981E-3  
 2.562000000000000E10    2.059856429696083E-3  -7.795927376719192E-5  
 2.564000000000000E10   -2.223565825261176E-4  -2.048066118732095E-3  
 2.566000000000000E10   -2.164541045203805E-3   6.712998729199171E-4  
 2.568000000000000E10    9.478871361352503E-4   2.193513326346874E-3  
 2.570000000000000E10    2.009600168094039E-3  -1.362655544653535E-3  
 2.572000000000000E10   -1.057737506926060E-3  -1.743439584970474E-3  
 2.574000000000000E10   -1.875774818472564E-3   1.325974590145052E-3  
 2.576000000000000E10    2.053309464827180E-3   1.611099229194224E-3  
 2.578000000000000E10    1.205928390845656E-3  -2.024239161983132E-3  
 2.580000000000000E10   -1.850601402111352E-3  -1.157903578132391E-3  
 2.582000000000000E10   -7.715775282122195E-4   1.980458851903677E-3  
 2.584000000000000E10    1.834242488257587E-3   4.140176170039922E-4  
 2.586000000000000E10    2.010329335462302E-4  -1.884257071651518E-3  
 2.588000000000000E10   -1.693489030003548E-3   6.438274431275204E-5  
 2.590000000000000E10    9.698874055175111E-5   1.672422164119780E-3  
 2.592000000000000E10    1.755337929353118E-3  -4.192299675196409E-4  
 2.594000000000000E10   -6.506135105155408E-4  -1.289301901124418E-3  
 2.596000000000000E10   -1.189527567476034E-3   7.081621442921460E-4  
 2.598000000000000E10    1.135773374699056E-3   1.212936127558351E-3  
 2.600000000000000E10    8.703466737642884E-4  -1.282135490328074E-3  
 2.602000000000000E10   -1.130596036091447E-3  -4.242621944285929E-4  
 2.604000000000000E10   -2.879989915527403E-4   1.322115538641810E-3  
 2.606000000000000E10    1.368077122606337E-3   6.254416075535119E-4  
 2.608000000000000E10    1.373368868371472E-4  -1.402670517563820E-3  
 2.610000000000000E10   -1.317881280556321E-3  -3.693512917379849E-5  
 2.612000000000000E10   -1.268358464585617E-4   1.578995143063366E-3  
 2.614000000000000E10    1.740204519592226E-3  -2.465039142407477E-4  
 2.616000000000000E10   -5.037072114646435E-4  -1.800155732780695E-3  
 2.618000000000000E10   -1.211463124491274E-3   3.871857188642025E-4  
 2.620000000000000E10    5.882325931452215E-4   1.531013287603855E-3  
 2.622000000000000E10    1.362426206469536E-3  -9.689559810794890E-4  
 2.624000000000000E10   -1.094089006073773E-3  -7.313754758797586E-4  
 2.626000000000000E10   -1.019068993628025E-3   1.080881920643151E-3  
 2.628000000000000E10    1.055077766068280E-3   8.148682536557317E-4  
 2.630000000000000E10    5.566317122429609E-4  -1.536753145046532E-3  
 2.632000000000000E10   -1.018974930047989E-3  -3.272353787906468E-4  
 2.634000000000000E10   -4.785228811670095E-4   8.222190663218498E-4  
 2.636000000000000E10    1.486474298872054E-3   2.662586048245430E-4  
 2.638000000000000E10   -4.120606754440814E-4  -1.201008213683963E-3  
 2.640000000000000E10   -7.125064730644226E-4   3.131736884824932E-4  
 2.642000000000000E10    6.373516953317449E-5   1.074953353963792E-3  
 2.644000000000000E10    9.774077916517854E-4  -1.018314855173230E-3  
 2.646000000000000E10   -9.616671595722437E-4  -7.103708339855075E-4  
 2.648000000000000E10   -7.664250442758203E-4   5.824840627610683E-4  
 2.650000000000000E10    1.233213464729488E-3   3.713657206390053E-4  
 2.652000000000000E10   -3.109349927399308E-5  -1.427450682967901E-3  
 2.654000000000000E10   -1.045229262672365E-3   2.376035990891978E-4  
 2.656000000000000E10    3.501357423374429E-5   9.345930302515626E-4  
 2.658000000000000E10    1.109147677198052E-3  -3.557662130333483E-4  
 2.660000000000000E10   -1.066787051968277E-3  -1.022262033075094E-3  
 2.662000000000000E10   -6.032067467458546E-4   6.243297248147428E-4  
 2.664000000000000E10    6.496784626506269E-4   5.997471744194627E-4  
 2.666000000000000E10    6.520755123347044E-4  -1.135789440013468E-3  
 2.668000000000000E10   -9.275974589399993E-4  -4.998567746952176E-4  
 2.670000000000000E10   -2.721261407714337E-4   7.068670820444822E-4  
 2.672000000000000E10    1.013390719890595E-3   2.500205300748348E-4  
 2.674000000000000E10    1.254713861271739E-4  -1.259868033230305E-3  
 2.676000000000000E10   -1.051404397003353E-3   5.454855272546411E-4  
 2.678000000000000E10    3.279559605289251E-4   8.164049359038472E-4  
 2.680000000000000E10    9.130399557761848E-4  -4.621201078407466E-4  
 2.682000000000000E10   -6.857975968159735E-4  -6.155662704259157E-4  
 2.684000000000000E10   -2.906634472310543E-4   5.821922095492482E-4  
 2.686000000000000E10    4.881441127508879E-4   6.276933709159493E-4  
 2.688000000000000E10    6.842506700195372E-4  -8.492041379213333E-4  
 2.690000000000000E10   -9.022043668664992E-4  -5.843837425345555E-5  
 2.692000000000000E10    2.028565722866915E-5   7.457431638613343E-4  
 2.694000000000000E10    5.793605232611299E-4   2.629172013257630E-5  
 2.696000000000000E10   -1.574257621541619E-4  -6.867878255434334E-4  
 2.698000000000000E10   -8.539686677977443E-4   5.906488513574004E-4  
 2.700000000000000E10    5.560708814300597E-4   4.569477168843150E-4  
 2.702000000000000E10    6.686932174488902E-4  -4.522411327343434E-4  
 2.704000000000000E10   -8.906242437660694E-4  -2.895454526878893E-4  
 2.706000000000000E10   -2.005929563893005E-4   5.968945333734155E-4  
 2.708000000000000E10    4.965038388036192E-4   2.536849060561508E-4  
 2.710000000000000E10    3.654023748822510E-4  -7.796045392751694E-4  
 2.712000000000000E10   -1.153197837993503E-3  -1.262757577933371E-4  
 2.714000000000000E10    5.842814789502882E-5   9.477959247305989E-4  
 2.716000000000000E10    8.380903163924813E-4  -1.719762512948364E-4  
 2.718000000000000E10    3.945842618122697E-4  -8.327164687216282E-4  
 2.720000000000000E10   -7.794698467478156E-4   1.734996039886028E-4  
 2.722000000000000E10    3.625630051828921E-4   6.019485299475491E-4  
 2.724000000000000E10    7.302516605705023E-4   7.879456097725779E-5  
 2.726000000000000E10   -4.115588671993464E-4  -7.969945436343551E-4  
 2.728000000000000E10   -4.022493667434901E-4   8.264564094133675E-4  
 2.730000000000000E10    5.962381837889552E-4   2.189684455515817E-4  
 2.732000000000000E10    4.722085723187774E-4  -7.904853555373848E-4  
 2.734000000000000E10   -7.230617920868099E-4  -1.411640696460381E-4  
 2.736000000000000E10    1.158798258984461E-4   7.184961577877402E-4  
 2.738000000000000E10    1.012146589346230E-3  -2.918062964454293E-4  
 2.740000000000000E10   -1.142951296060346E-4  -8.037784718908370E-4  
 2.742000000000000E10   -9.330338798463345E-4   2.521609130781144E-4  
 2.744000000000000E10    7.472215220332146E-4   6.843152805231512E-4  
 2.746000000000000E10    8.112558280117810E-4  -3.024624893441796E-4  
 2.748000000000000E10   -4.430357075762004E-4  -6.226201658137143E-4  
 2.750000000000000E10   -6.588022224605084E-4   5.560339195653796E-4  
 2.752000000000000E10    5.840983358211815E-4   6.352878990583122E-4  
 2.754000000000000E10    5.773068987764418E-4  -5.990687059238553E-4  
 2.756000000000000E10   -6.068121292628348E-4  -4.345745255704969E-4  
