#  HZ   S   RI   R     50.00 
! Rohde & Schwarz ZVA40 4Ports - Version 3.90 - 1145.1110k42 SN: 100403
! Date: 2023-10-04 08:48:06
! Measurement: S12 
! 
 2.200000000000000E10   -3.249838482588530E-3  -5.938470829278231E-3  
 2.202000000000000E10   -5.594851449131966E-3   4.025879781693220E-3  
 2.204000000000000E10    3.972559235990048E-3   5.309324245899916E-3  
 2.206000000000000E10    4.879175685346127E-3  -5.209818016737700E-3  
 2.208000000000000E10   -5.512872245162725E-3  -4.192656837403774E-3  
 2.210000000000000E10   -3.874950809404254E-3   5.942191462963820E-3  
 2.212000000000000E10    5.731033626943827E-3   3.322291653603315E-3  
 2.214000000000000E10    2.668831497430801E-3  -6.327699869871140E-3  
 2.216000000000000E10   -6.746333092451096E-3  -1.892165280878544E-3  
 2.218000000000000E10   -1.129932585172355E-3   6.452276371419430E-3  
 2.220000000000000E10    6.261479575186968E-3   7.521443185396493E-4  
 2.222000000000000E10   -6.658094207523391E-5  -6.419964600354433E-3  
 2.224000000000000E10   -6.160265766084194E-3   5.581355071626604E-4  
 2.226000000000000E10    1.358577632345259E-3   6.161446683108807E-3  
 2.228000000000000E10    5.982016678899527E-3  -2.476578811183572E-3  
 2.230000000000000E10   -2.985049271956086E-3  -5.305168684571981E-3  
 2.232000000000000E10   -4.729264415800571E-3   3.861785866320133E-3  
 2.234000000000000E10    4.773302469402552E-3   4.020746797323227E-3  
 2.236000000000000E10    3.558334428817034E-3  -4.892809316515923E-3  
 2.238000000000000E10   -5.287981126457453E-3  -2.805695636197925E-3  
 2.240000000000000E10   -1.921415678225458E-3   5.845415871590376E-3  
 2.242000000000000E10    6.186892278492451E-3   1.314994064159691E-3  
 2.244000000000000E10    8.675894932821393E-4  -6.247914861887693E-3  
 2.246000000000000E10   -6.148229818791151E-3   2.256374136777595E-5  
 2.248000000000000E10    8.951599011197686E-4   6.188178900629282E-3  
 2.250000000000000E10    6.258484907448292E-3  -1.210966962389648E-3  
 2.252000000000000E10   -2.232711296528578E-3  -5.688553210347891E-3  
 2.254000000000000E10   -5.444277543574572E-3   2.620995510369539E-3  
 2.256000000000000E10    2.784163923934102E-3   5.408471915870905E-3  
 2.258000000000000E10    5.264543928205967E-3  -3.404879709705710E-3  
 2.260000000000000E10   -3.855845890939236E-3  -4.600318614393473E-3  
 2.262000000000000E10   -3.961856476962566E-3   4.169698338955641E-3  
 2.264000000000000E10    4.753486718982458E-3   3.850414650514722E-3  
 2.266000000000000E10    3.221730468794704E-3  -4.884518217295408E-3  
 2.268000000000000E10   -5.420266184955835E-3  -2.508575096726418E-3  
 2.270000000000000E10   -1.842801109887660E-3   5.465969908982515E-3  
 2.272000000000000E10    5.157382227480412E-3   1.610035193152726E-3  
 2.274000000000000E10    6.865475443191826E-4  -5.838199052959681E-3  
 2.276000000000000E10   -5.817472003400326E-3   3.356592787895352E-4  
 2.278000000000000E10    8.090434130281210E-4   5.510464776307344E-3  
 2.280000000000000E10    5.141424480825663E-3  -1.535830204375088E-3  
 2.282000000000000E10    1.275264075957239E-3  -5.279913544654846E-3  
 2.284000000000000E10   -4.859158769249916E-3   2.790316008031368E-3  
 2.286000000000000E10    3.088261466473341E-3   4.680430050939322E-3  
 2.288000000000000E10    4.153708461672068E-3  -3.902300726622343E-3  
 2.290000000000000E10   -4.248774144798517E-3  -3.984563052654266E-3  
 2.292000000000000E10   -3.049037884920836E-3   5.016699898988009E-3  
 2.294000000000000E10    4.723174497485161E-3   2.330060582607985E-3  
 2.296000000000000E10    2.179616130888462E-3  -5.135023500770330E-3  
 2.298000000000000E10   -5.354575347155333E-3  -1.651652506552637E-3  
 2.300000000000000E10   -1.114257145673037E-3   5.247768014669418E-3  
 2.302000000000000E10    5.820744670927525E-3   6.034341640770435E-4  
 2.304000000000000E10   -7.259508711285889E-4  -5.544097628444433E-3  
 2.306000000000000E10   -5.322077777236700E-3   1.247308915480971E-3  
 2.308000000000000E10    1.917026122100651E-3   4.817262757569552E-3  
 2.310000000000000E10    5.006574094295502E-3  -2.019772771745920E-3  
 2.312000000000000E10   -2.755664521828294E-3  -4.580613225698471E-3  
 2.314000000000000E10   -4.054575692862272E-3   3.021012293174863E-3  
 2.316000000000000E10    3.491478040814400E-3   3.646952798590064E-3  
 2.318000000000000E10    3.078486770391464E-3  -4.270339384675026E-3  
 2.320000000000000E10   -4.352592397481203E-3  -2.155928406864405E-3  
 2.322000000000000E10   -1.836100942455232E-3   4.345297813415527E-3  
 2.324000000000000E10    4.799969028681517E-3   1.056113629601896E-3  
 2.326000000000000E10    6.947150686755776E-4  -4.749891348183155E-3  
 2.328000000000000E10   -5.003801081329584E-3  -3.071871760766953E-4  
 2.330000000000000E10    7.421772461384535E-4   4.800910130143166E-3  
 2.332000000000000E10    5.189955700188875E-3  -1.082234084606171E-3  
 2.334000000000000E10   -2.168888924643397E-3  -4.893896635621786E-3  
 2.336000000000000E10   -4.272912163287401E-3   2.269668737426400E-3  
 2.338000000000000E10    2.736333990469575E-3   4.124278668314219E-3  
 2.340000000000000E10    3.953921142965555E-3  -3.411764279007912E-3  
 2.342000000000000E10   -3.439377062022686E-3  -3.714092308655381E-3  
 2.344000000000000E10   -3.216664772480726E-3   4.201774019747973E-3  
 2.346000000000000E10    4.290342796593905E-3   2.502833493053913E-3  
 2.348000000000000E10    2.027714625000954E-3  -4.395014606416225E-3  
 2.350000000000000E10   -5.051432177424431E-3  -1.723538618534803E-3  
 2.352000000000000E10   -1.276117516681552E-3   4.974505864083767E-3  
 2.354000000000000E10    4.844238050282002E-3   6.859076675027609E-4  
 2.356000000000000E10    2.203530166298151E-4  -4.651102237403393E-3  
 2.358000000000000E10   -4.856321960687637E-3   1.453973527532071E-4  
 2.360000000000000E10    6.231883889995515E-4   4.917468875646591E-3  
 2.362000000000000E10    4.595816135406494E-3  -1.452177180908620E-3  
 2.364000000000000E10   -2.219045767560601E-3  -4.416838288307190E-3  
 2.366000000000000E10   -3.665125230327249E-3   2.526569413021207E-3  
 2.368000000000000E10    2.990774810314179E-3   3.658964065834880E-3  
 2.370000000000000E10    2.973516704514623E-3  -3.336275462061167E-3  
 2.372000000000000E10   -3.851688699796796E-3  -2.714800648391247E-3  
 2.374000000000000E10   -2.004358684644103E-3   4.124272149056196E-3  
 2.376000000000000E10    4.272609483450651E-3   1.700557651929557E-3  
 2.378000000000000E10    1.079925568774343E-3  -5.056262016296387E-3  
 2.380000000000000E10   -5.405592266470194E-3  -4.227829049341381E-4  
 2.382000000000000E10    6.209826096892357E-4   5.142698530107737E-3  
 2.384000000000000E10    5.328220780938864E-3  -1.328998012468219E-3  
 2.386000000000000E10   -2.284850459545851E-3  -5.305801983922720E-3  
 2.388000000000000E10   -4.960020072758198E-3   3.219033591449261E-3  
 2.390000000000000E10    3.494683653116226E-3   4.610987380146980E-3  
 2.392000000000000E10    3.856962546706200E-3  -4.489623941481113E-3  
 2.394000000000000E10   -5.023307166993618E-3  -3.367487806826830E-3  
 2.396000000000000E10   -2.832551486790180E-3   5.016490351408720E-3  
 2.398000000000000E10    5.430898629128933E-3   2.278138184919953E-3  
 2.400000000000000E10    1.409758348017931E-3  -5.695530679076910E-3  
 2.402000000000000E10   -5.582091398537159E-3   9.860958925855812E-6  
 2.404000000000000E10    7.151239551603794E-4   5.278347525745630E-3  
 2.406000000000000E10    4.873735364526510E-3  -1.050559454597533E-3  
 2.408000000000000E10   -1.454430632293224E-3  -4.766528028994799E-3  
 2.410000000000000E10   -4.472211468964815E-3   1.858328701928258E-3  
 2.412000000000000E10    2.798895817250013E-3   4.099923651665449E-3  
 2.414000000000000E10    3.741182386875153E-3  -2.904957626014948E-3  
 2.416000000000000E10   -3.605723846703768E-3  -3.184800734743476E-3  
 2.418000000000000E10   -2.478299662470818E-3   3.749151481315494E-3  
 2.420000000000000E10    4.362621810287237E-3   1.931295613758266E-3  
 2.422000000000000E10    1.375141786411405E-3  -4.368847236037254E-3  
 2.424000000000000E10   -4.245755262672901E-3  -3.293011104688048E-4  
 2.426000000000000E10   -3.817653487203643E-5   4.436661954969168E-3  
 2.428000000000000E10    4.536425229161978E-3  -3.429478965699673E-4  
 2.430000000000000E10   -1.255361828953028E-3  -4.305583424866200E-3  
 2.432000000000000E10   -3.887202125042677E-3   1.613678876310587E-3  
 2.434000000000000E10    2.164943609386683E-3   3.569464664906263E-3  
 2.436000000000000E10    3.383174771443009E-3  -2.610098337754607E-3  
 2.438000000000000E10   -2.624500077217817E-3  -2.764105796813965E-3  
 2.440000000000000E10   -2.541524358093739E-3   2.832086058333516E-3  
 2.442000000000000E10    3.488663583993912E-3   2.130470238626003E-3  
 2.444000000000000E10    1.276685623452067E-3  -3.384560812264681E-3  
 2.446000000000000E10   -2.821717644110322E-3  -8.596088155172765E-4  
 2.448000000000000E10   -7.245630258694291E-4   2.966598141938448E-3  
 2.450000000000000E10    3.266364103183150E-3   4.714626411441714E-4  
 2.452000000000000E10    8.089553011814132E-5  -3.016022266820073E-3  
 2.454000000000000E10   -3.027550876140595E-3   3.811562055489048E-5  
 2.456000000000000E10    4.794406704604626E-4   3.080166177824140E-3  
 2.458000000000000E10    3.361878450959921E-3  -1.121141249313951E-3  
 2.460000000000000E10   -1.312493695877492E-3  -2.794546307995915E-3  
 2.462000000000000E10   -2.561586676165462E-3   1.535575487650931E-3  
 2.464000000000000E10    1.902692136354744E-3   2.582874614745379E-3  
 2.466000000000000E10    2.044014167040587E-3  -1.912515494041145E-3  
 2.468000000000000E10   -2.018154133111239E-3  -1.950550824403763E-3  
 2.470000000000000E10   -1.738092512823641E-3   2.324252855032682E-3  
 2.472000000000000E10    2.338435035198927E-3   1.039898605085909E-3  
 2.474000000000000E10    8.486753795295954E-4  -2.164272591471672E-3  
 2.476000000000000E10   -2.221094910055399E-3  -5.753356963396072E-4  
 2.478000000000000E10   -4.495141620282084E-4   2.177654998376966E-3  
 2.480000000000000E10    2.059281105175614E-3   2.366988701396622E-5  
 2.482000000000000E10   -2.852197794709355E-4  -2.037653001025319E-3  
 2.484000000000000E10   -2.249945886433125E-3   5.813478492200375E-4  
 2.486000000000000E10    6.764837307855487E-4   2.125299535691738E-3  
 2.488000000000000E10    1.825931714847684E-3  -1.288234838284552E-3  
 2.490000000000000E10   -1.564246485941112E-3  -1.762022031471133E-3  
 2.492000000000000E10   -1.654091523960233E-3   1.626067562028766E-3  
 2.494000000000000E10    1.878555165603757E-3   1.111004617996514E-3  
 2.496000000000000E10    8.954402292147279E-4  -1.878381241112948E-3  
 2.498000000000000E10   -1.801813719794154E-3  -9.459062130190432E-4  
 2.500000000000000E10   -4.657919926103205E-4   2.025102265179157E-3  
 2.502000000000000E10    1.878246315754950E-3   6.241313531063497E-4  
 2.504000000000000E10    4.641292616724968E-4  -2.177512506023049E-3  
 2.506000000000000E10   -1.812600647099316E-3   1.590351457707584E-4  
 2.508000000000000E10    4.820504182134755E-5   1.496374839916825E-3  
 2.510000000000000E10    1.667213509790599E-3  -4.702489823102951E-4  
 2.512000000000000E10   -7.240380509756506E-4  -1.672824611887336E-3  
 2.514000000000000E10   -1.214100280776620E-3   7.645406294614077E-4  
 2.516000000000000E10    1.184048480354250E-3   1.219624653458595E-3  
 2.518000000000000E10    1.049598678946495E-3  -1.224368694238365E-3  
 2.520000000000000E10   -1.374968094751239E-3  -9.278374491259456E-4  
 2.522000000000000E10    2.940634840342682E-5   1.317644026130438E-3  
 2.524000000000000E10    8.921590633690357E-4   4.614439094439149E-4  
 2.526000000000000E10    4.599021340254694E-4  -1.411214238032699E-3  
 2.528000000000000E10   -1.520082354545593E-3  -1.475146855227649E-4  
 2.530000000000000E10   -2.629326772876084E-4   1.182315754704177E-3  
 2.532000000000000E10    1.465274486690760E-3  -2.174242254113779E-4  
 2.534000000000000E10    2.055296645266935E-4  -1.200315658934414E-3  
 2.536000000000000E10   -1.353461528196931E-3   2.017858496401459E-4  
 2.538000000000000E10    3.667093988042325E-4   1.221917802467942E-3  
 2.540000000000000E10    1.428753719665110E-3  -3.990935510955751E-4  
 2.542000000000000E10   -7.848348468542099E-4  -9.545620996505022E-4  
 2.544000000000000E10   -8.129435009323061E-4   7.768668583594263E-4  
 2.546000000000000E10    6.429914501495659E-4   6.581963389180601E-4  
 2.548000000000000E10    5.574812530539930E-4  -7.411994738504291E-4  
 2.550000000000000E10   -8.868973818607628E-4  -3.261530655436218E-4  
 2.552000000000000E10   -2.604470937512815E-4   6.750510074198246E-4  
 2.554000000000000E10    9.071555687114596E-4  -1.591399486642331E-4  
 2.556000000000000E10   -2.285837108502165E-4  -5.776489851996303E-4  
 2.558000000000000E10   -6.998116150498390E-4   3.938024747185409E-4  
 2.560000000000000E10    5.535814561881125E-4   7.316092378459871E-4  
 2.562000000000000E10    6.095786811783910E-4  -3.495771961752325E-4  
 2.564000000000000E10   -4.733380919788033E-4  -6.718916702084243E-4  
 2.566000000000000E10   -4.479473573155701E-4   8.016720530577004E-4  
 2.568000000000000E10    1.023378223180771E-3   3.358964750077575E-4  
 2.570000000000000E10    3.575744049157947E-4  -8.316608727909625E-4  
 2.572000000000000E10   -6.702382816001773E-4  -2.492036230705708E-7  
 2.574000000000000E10   -1.097212734748609E-4   7.623503333888948E-4  
 2.576000000000000E10    8.868796867318451E-4   6.285184645093978E-5  
 2.578000000000000E10   -1.070140424417332E-4  -9.240852086804807E-4  
 2.580000000000000E10   -1.039687893353403E-3   1.902498479466885E-4  
 2.582000000000000E10    5.945894517935813E-4   6.119009340181947E-4  
 2.584000000000000E10    4.088795394636691E-4  -2.843799011316150E-4  
 2.586000000000000E10   -4.803046758752316E-4  -5.355734610930085E-4  
 2.588000000000000E10   -4.441589699126780E-4   3.848725464195013E-4  
 2.590000000000000E10    4.888897528871894E-4   2.985948522109538E-4  
 2.592000000000000E10    1.936589833348990E-4  -5.879391101188958E-4  
 2.594000000000000E10   -3.125799994450063E-4  -3.897356800734997E-4  
 2.596000000000000E10   -1.090096484404057E-4   4.797323490493000E-4  
 2.598000000000000E10    4.629490722436458E-4  -2.818211796693504E-4  
 2.600000000000000E10   -3.194808668922633E-4  -2.526608659536578E-5  
 2.602000000000000E10   -4.845649527851492E-5   2.212077524745837E-4  
 2.604000000000000E10    6.000065477564931E-4   3.369190671946853E-4  
 2.606000000000000E10   -2.870603348128498E-4  -3.661697846837342E-4  
 2.608000000000000E10   -4.036738537251949E-4   1.237255783053115E-4  
 2.610000000000000E10    2.330139068362769E-5   4.001287743449211E-4  
 2.612000000000000E10    5.515541997738183E-4  -3.921228926628828E-4  
 2.614000000000000E10   -2.438811206957325E-4  -4.625658912118524E-4  
 2.616000000000000E10   -6.826863391324878E-4  -5.630145460600033E-5  
 2.618000000000000E10    1.865889353211969E-4   1.010510255582631E-3  
 2.620000000000000E10    6.014255923219025E-4  -7.763209869153798E-4  
 2.622000000000000E10   -7.257065735757351E-4  -1.669803459662944E-4  
 2.624000000000000E10   -6.777638336643577E-4   3.241863159928471E-4  
 2.626000000000000E10    6.972298724576831E-4   7.610630709677935E-4  
 2.628000000000000E10    2.142193261533976E-4  -5.114322411827743E-4  
 2.630000000000000E10   -1.891355204861611E-4  -3.556454903446138E-4  
 2.632000000000000E10   -1.713506644591689E-4   2.872773620765656E-4  
 2.634000000000000E10    5.994894308969379E-4  -2.730729174800217E-4  
 2.636000000000000E10   -1.010713676805608E-4  -4.007388197351247E-4  
 2.638000000000000E10   -4.713865346275270E-4   3.486672721919604E-5  
 2.640000000000000E10    1.993820624193177E-4   2.637417637743056E-4  
 2.642000000000000E10    1.955863699549809E-4  -3.973126295022667E-4  
 2.644000000000000E10   -5.328215193003416E-4  -3.581656492315233E-4  
 2.646000000000000E10   -4.371662798803300E-4   4.410729452501983E-4  
 2.648000000000000E10    9.370098705403507E-4   1.894646993605420E-4  
 2.650000000000000E10   -3.127087838947773E-4  -1.205374486744404E-3  
 2.652000000000000E10   -8.517865207977593E-4  -1.068573237716919E-5  
 2.654000000000000E10    5.671683902619407E-5   1.206627814099193E-3  
 2.656000000000000E10    1.147137372754514E-3  -7.034956943243742E-4  
 2.658000000000000E10   -8.156525436788797E-4  -9.763714624568820E-4  
 2.660000000000000E10   -9.000878199003637E-4   1.070240396074951E-3  
 2.662000000000000E10    8.385584806092084E-4   7.480583735741675E-4  
 2.664000000000000E10    6.586837116628885E-4  -1.082410220988095E-3  
 2.666000000000000E10   -9.365822188556194E-4  -3.211145522072911E-4  
 2.668000000000000E10   -3.826918255072087E-4   9.856016840785742E-4  
 2.670000000000000E10    1.375844003632665E-3  -4.321875530877151E-5  
 2.672000000000000E10   -2.367445849813521E-4  -1.209132606163621E-3  
 2.674000000000000E10   -1.042338670231402E-3   1.704664609860629E-4  
 2.676000000000000E10    3.444756730459631E-4   1.253484864719212E-3  
 2.678000000000000E10    1.218235935084522E-3  -4.905313253402710E-4  
 2.680000000000000E10   -7.707990589551628E-4  -8.447497966699302E-4  
 2.682000000000000E10   -7.422685739584267E-4   1.087648444809020E-3  
 2.684000000000000E10    1.017870032228530E-3   8.524667937308550E-4  
 2.686000000000000E10    3.758457605727017E-4  -1.187763409689069E-3  
 2.688000000000000E10   -1.214724034070969E-3  -1.706130024103914E-5  
 2.690000000000000E10   -1.940774236572906E-4   9.238338680006564E-4  
 2.692000000000000E10    1.148854847997427E-3   2.594181569293141E-4  
 2.694000000000000E10   -1.486473047407344E-4  -1.248938497155905E-3  
 2.696000000000000E10   -1.127350609749556E-3   3.029441868420690E-4  
 2.698000000000000E10    4.750307707581669E-4   1.014706445857883E-3  
 2.700000000000000E10    1.206161105073988E-3  -5.955200758762658E-4  
 2.702000000000000E10   -1.000197371467948E-3  -1.107214717194438E-3  
 2.704000000000000E10   -8.224521880038083E-4   1.148964744061232E-3  
 2.706000000000000E10    9.775151265785098E-4   4.492277803365141E-4  
 2.708000000000000E10    3.801919519901276E-4  -1.407345407642424E-3  
 2.710000000000000E10   -1.517648226581514E-3  -3.204793611075729E-4  
 2.712000000000000E10   -1.791307440726087E-4   1.076221815310419E-3  
 2.714000000000000E10    1.291852910071611E-3   3.065538767259568E-4  
 2.716000000000000E10   -1.029738486977294E-4  -1.585054793395102E-3  
 2.718000000000000E10   -1.013817614875734E-3   2.071171038551256E-4  
 2.720000000000000E10    3.264892147853971E-4   1.155581790953875E-3  
 2.722000000000000E10    1.082495786249638E-3  -6.038168794475496E-4  
 2.724000000000000E10   -8.576345280744135E-4  -1.095494837500155E-3  
 2.726000000000000E10   -8.773131994530559E-4   6.636356702074409E-4  
 2.728000000000000E10    7.793601835146546E-4   6.245752447284758E-4  
 2.730000000000000E10    8.936772355809808E-4  -7.979970541782677E-4  
 2.732000000000000E10   -1.336555462330580E-3  -6.414726376533508E-4  
 2.734000000000000E10   -1.890205603558570E-4   8.684240747243166E-4  
 2.736000000000000E10    1.221299287863076E-3   5.319960182532668E-4  
 2.738000000000000E10   -2.555247010604944E-5  -1.500932849012315E-3  
 2.740000000000000E10   -8.076623198576272E-4  -7.916492177173495E-5  
 2.742000000000000E10    1.373734558001161E-4   1.059587695635855E-3  
 2.744000000000000E10    8.826251141726971E-4  -3.000508004333824E-4  
 2.746000000000000E10   -3.049731312785298E-4  -1.136026578024030E-3  
 2.748000000000000E10   -8.380998042412102E-4   6.678074714727700E-4  
 2.750000000000000E10    5.536000244319439E-4   9.545185603201389E-4  
 2.752000000000000E10    6.957615260034800E-4  -5.097135435789824E-4  
 2.754000000000000E10   -6.938765291124582E-4  -7.400510367006064E-4  
 2.756000000000000E10   -6.413921946659684E-4   8.722324855625629E-4  
