#  HZ   S   RI   R     50.00 
! Rohde & Schwarz ZVA40 4Ports - Version 3.90 - 1145.1110k42 SN: 100403
! Date: 2023-10-04 08:48:32
! Measurement: S12 
! 
 2.200000000000000E10    2.650253882165998E-4  -5.394349806010723E-3  
 2.202000000000000E10   -5.543351173400879E-3   3.455500118434429E-4  
 2.204000000000000E10    6.723238038830459E-4   5.449525080621243E-3  
 2.206000000000000E10    5.315236281603575E-3  -1.510751666501164E-3  
 2.208000000000000E10   -2.178389113396406E-3  -5.153105128556490E-3  
 2.210000000000000E10   -4.885226488113403E-3   2.737345406785607E-3  
 2.212000000000000E10    2.927818801254034E-3   4.096847027540207E-3  
 2.214000000000000E10    4.148761741816998E-3  -3.217901336029172E-3  
 2.216000000000000E10   -3.826961386948824E-3  -3.853603499010205E-3  
 2.218000000000000E10   -3.025822341442108E-3   3.986224997788668E-3  
 2.220000000000000E10    3.930043894797564E-3   2.582857850939035E-3  
 2.222000000000000E10    2.255961066111922E-3  -4.207666963338852E-3  
 2.224000000000000E10   -4.516789223998785E-3  -1.722514047287405E-3  
 2.226000000000000E10   -1.195714809000492E-3   4.793638829141855E-3  
 2.228000000000000E10    4.719274118542671E-3   3.567451203707606E-4  
 2.230000000000000E10   -2.757204347290099E-4  -5.193713586777449E-3  
 2.232000000000000E10   -5.215913057327271E-3   1.097585540264845E-3  
 2.234000000000000E10    2.126532373949885E-3   4.739852622151375E-3  
 2.236000000000000E10    4.422443918883801E-3  -2.346854424104095E-3  
 2.238000000000000E10   -2.819115994498134E-3  -4.569904878735542E-3  
 2.240000000000000E10   -4.100487567484379E-3   3.717250656336546E-3  
 2.242000000000000E10    4.102685954421759E-3   3.745414316654205E-3  
 2.244000000000000E10    3.195893485099077E-3  -4.419025965034962E-3  
 2.246000000000000E10   -4.692120011895895E-3  -3.037705784663558E-3  
 2.248000000000000E10   -2.369739348068833E-3   5.100611597299576E-3  
 2.250000000000000E10    5.124795716255903E-3   1.747806789353490E-3  
 2.252000000000000E10    1.647085417062044E-3  -5.019552540034056E-3  
 2.254000000000000E10   -5.325345322489739E-3  -8.615700062364340E-4  
 2.256000000000000E10   -3.642036172095686E-4   5.340246483683586E-3  
 2.258000000000000E10    4.983836319297552E-3   1.084689720300958E-4  
 2.260000000000000E10   -1.660838897805661E-4  -4.837635904550552E-3  
 2.262000000000000E10   -4.674299620091915E-3   9.092852124013007E-4  
 2.264000000000000E10    1.460851519368589E-3   4.260560031980276E-3  
 2.266000000000000E10    4.203379619866610E-3  -1.712390803731978E-3  
 2.268000000000000E10   -2.427603350952268E-3  -3.936796449124813E-3  
 2.270000000000000E10   -3.148252144455910E-3   2.967602573335171E-3  
 2.272000000000000E10    3.314408240839839E-3   2.972217509523034E-3  
 2.274000000000000E10    2.460116520524025E-3  -3.274072427302599E-3  
 2.276000000000000E10   -3.837864380329847E-3  -2.382741542533040E-3  
 2.278000000000000E10   -1.674816710874438E-3   4.259410314261913E-3  
 2.280000000000000E10    4.288994707167149E-3   9.984202915802598E-4  
 2.282000000000000E10    3.228566842153668E-3  -3.336274996399880E-3  
 2.284000000000000E10   -5.139248445630074E-3  -1.935765976668336E-5  
 2.286000000000000E10    6.054939585737884E-4   4.843438509851694E-3  
 2.288000000000000E10    4.564067348837853E-3  -1.001832890324295E-3  
 2.290000000000000E10   -1.160520012490451E-3  -4.668281413614750E-3  
 2.292000000000000E10   -4.343057051301003E-3   1.670966623350978E-3  
 2.294000000000000E10    2.291896846145392E-3   4.289248492568731E-3  
 2.296000000000000E10    3.552410518750548E-3  -2.495806431397796E-3  
 2.298000000000000E10   -2.808743156492710E-3  -3.757941769436002E-3  
 2.300000000000000E10   -3.268545260652900E-3   3.198451595380902E-3  
 2.302000000000000E10    3.494838951155543E-3   2.669865032657981E-3  
 2.304000000000000E10    2.462857170030475E-3  -3.884381614625454E-3  
 2.306000000000000E10   -3.687816206365824E-3  -1.890759449452162E-3  
 2.308000000000000E10   -1.064215903170407E-3   3.913179505616427E-3  
 2.310000000000000E10    4.280880093574524E-3   8.362426306121051E-4  
 2.312000000000000E10    3.306996659375727E-4  -4.237191751599312E-3  
 2.314000000000000E10   -4.172335844486952E-3   4.653238866012543E-4  
 2.316000000000000E10    1.001678057946265E-3   3.883111523464322E-3  
 2.318000000000000E10    3.772529540583491E-3  -1.655773841775954E-3  
 2.320000000000000E10   -2.067854395136237E-3  -3.544440958648920E-3  
 2.322000000000000E10   -3.041157964617014E-3   2.555166138336062E-3  
 2.324000000000000E10    2.676774747669697E-3   2.795176347717643E-3  
 2.326000000000000E10    2.661791397258639E-3  -3.028736682608724E-3  
 2.328000000000000E10   -3.232126357033849E-3  -2.406413666903973E-3  
 2.330000000000000E10   -2.112659858539701E-3   3.679080167785287E-3  
 2.332000000000000E10    3.841656260192394E-3   1.426894916221499E-3  
 2.334000000000000E10    1.320882816798985E-3  -3.886764403432608E-3  
 2.336000000000000E10   -4.241858609020710E-3  -7.819026359356940E-4  
 2.338000000000000E10   -1.632640778552741E-4   4.156114999204874E-3  
 2.340000000000000E10    3.923761192709208E-3   3.238435965613462E-5  
 2.342000000000000E10   -4.695008101407439E-4  -4.230862949043512E-3  
 2.344000000000000E10   -3.791570896282792E-3   3.073201805818826E-4  
 2.346000000000000E10    9.755663340911269E-4   3.832642920315266E-3  
 2.348000000000000E10    3.705931361764669E-3  -1.293993904255331E-3  
 2.350000000000000E10   -1.731962896883488E-3  -3.553731832653284E-3  
 2.352000000000000E10   -3.089804202318192E-3   2.443654695525765E-3  
 2.354000000000000E10    2.202981384471059E-3   2.566069597378373E-3  
 2.356000000000000E10    2.258307533338666E-3  -2.742510288953781E-3  
 2.358000000000000E10   -3.082393202930689E-3  -2.096140058711171E-3  
 2.360000000000000E10   -1.735310535877943E-3   2.943750238046050E-3  
 2.362000000000000E10    3.524228231981397E-3   1.044602133333683E-3  
 2.364000000000000E10    6.368846516124904E-4  -3.891106229275465E-3  
 2.366000000000000E10   -4.122073762118816E-3  -5.289111286401749E-4  
 2.368000000000000E10    4.989940207451582E-4   4.216771572828293E-3  
 2.370000000000000E10    3.866810351610184E-3  -9.690857259556651E-4  
 2.372000000000000E10   -1.764956163242459E-3  -4.035918042063713E-3  
 2.374000000000000E10   -4.070186521857977E-3   1.948421355336905E-3  
 2.376000000000000E10    2.376146614551544E-3   3.985274583101273E-3  
 2.378000000000000E10    3.794050309807062E-3  -3.295974573120475E-3  
 2.380000000000000E10   -3.980072680860758E-3  -3.399271983653307E-3  
 2.382000000000000E10   -2.628269372507930E-3   4.059633240103722E-3  
 2.384000000000000E10    4.864445887506008E-3   2.216427819803357E-3  
 2.386000000000000E10    1.639095717109740E-3  -4.842045251280069E-3  
 2.388000000000000E10   -5.109230522066355E-3  -3.936412686016411E-4  
 2.390000000000000E10    1.119429871323519E-4   4.809922073036432E-3  
 2.392000000000000E10    4.898793529719114E-3  -8.837971254251897E-4  
 2.394000000000000E10   -1.700041932053864E-3  -4.682948812842369E-3  
 2.396000000000000E10   -4.171655979007483E-3   2.155991503968835E-3  
 2.398000000000000E10    2.365866675972939E-3   3.738702973350883E-3  
 2.400000000000000E10    3.465408692136407E-3  -3.023425815626979E-3  
 2.402000000000000E10   -3.648179816082120E-3  -2.263124566525221E-3  
 2.404000000000000E10   -1.830777502618730E-3   3.561722813174129E-3  
 2.406000000000000E10    3.875952214002609E-3   1.499077654443681E-3  
 2.408000000000000E10    1.046422752551734E-3  -4.153170157223940E-3  
 2.410000000000000E10   -3.955884836614132E-3   2.001710163312964E-5  
 2.412000000000000E10    2.926843590103090E-4   3.407830139622092E-3  
 2.414000000000000E10    3.478897968307138E-3  -3.488159272819758E-4  
 2.416000000000000E10   -1.294864574447274E-3  -3.863235004246235E-3  
 2.418000000000000E10   -2.947038505226374E-3   1.720264903269708E-3  
 2.420000000000000E10    2.145850099623203E-3   2.517010085284710E-3  
 2.422000000000000E10    2.423156052827835E-3  -2.349809277802706E-3  
 2.424000000000000E10   -2.870054682716727E-3  -1.893423497676849E-3  
 2.426000000000000E10   -1.011320855468512E-3   2.806048141792417E-3  
 2.428000000000000E10    2.878694096580148E-3   1.130492077209055E-3  
 2.430000000000000E10    1.149943214841187E-3  -3.310517407953739E-3  
 2.432000000000000E10   -3.518301760777831E-3  -3.333167696837336E-4  
 2.434000000000000E10    2.400147350272164E-4   3.222347470000386E-3  
 2.436000000000000E10    3.510081442072988E-3  -2.984637685585767E-4  
 2.438000000000000E10   -8.105025044642389E-4  -3.216553712263703E-3  
 2.440000000000000E10   -2.732530236244202E-3   1.236318144947290E-3  
 2.442000000000000E10    1.110809040255845E-3   2.497534267604351E-3  
 2.444000000000000E10    2.683681203052402E-3  -1.358959940262139E-3  
 2.446000000000000E10   -1.439715269953013E-3  -2.583382651209831E-3  
 2.448000000000000E10   -1.909564947709441E-3   1.637778012081981E-3  
 2.450000000000000E10    1.523787737824023E-3   1.929558347910643E-3  
 2.452000000000000E10    2.004599431529641E-3  -1.876965281553567E-3  
 2.454000000000000E10   -1.998065505176783E-3  -1.046061515808106E-3  
 2.456000000000000E10   -8.787115220911801E-4   1.833417103625834E-3  
 2.458000000000000E10    2.007867209613323E-3   5.697798333130777E-4  
 2.460000000000000E10    9.186812530970201E-5  -2.031188691034913E-3  
 2.462000000000000E10   -1.800358644686639E-3   3.215257311239839E-4  
 2.464000000000000E10    5.878052324987948E-4   1.666922471486032E-3  
 2.466000000000000E10    1.416913350112736E-3  -8.856859640218318E-4  
 2.468000000000000E10   -1.056985231116414E-3  -1.270545297302306E-3  
 2.470000000000000E10   -1.095295418053865E-3   1.072566607035697E-3  
 2.472000000000000E10    8.644441841170192E-4   8.071166812442243E-4  
 2.474000000000000E10    8.842558017931879E-4  -9.748481679707766E-4  
 2.476000000000000E10   -1.332586864009500E-3  -8.033008198253810E-4  
 2.478000000000000E10   -6.583515205420554E-4   9.379119728691876E-4  
 2.480000000000000E10    1.458566985093057E-3   7.536857738159597E-4  
 2.482000000000000E10    3.451629600021988E-4  -1.433793688192964E-3  
 2.484000000000000E10   -1.373547478578985E-3  -2.602810272946954E-4  
 2.486000000000000E10   -1.298392307944596E-4   1.461275154724717E-3  
 2.488000000000000E10    1.216572360135615E-3  -3.871322842314839E-4  
 2.490000000000000E10   -2.571440418250859E-4  -9.232432930730283E-4  
 2.492000000000000E10   -1.415658975020051E-3   2.029548777500168E-4  
 2.494000000000000E10    3.069696249440312E-4   9.921086020767689E-4  
 2.496000000000000E10    7.468861876986921E-4  -7.785855559632182E-4  
 2.498000000000000E10   -6.371834315359592E-4  -7.927170372568071E-4  
 2.500000000000000E10   -6.658221827819943E-4   3.900475858245045E-4  
 2.502000000000000E10    6.792746717110276E-4   7.693455554544926E-4  
 2.504000000000000E10    5.004854756407440E-4  -4.278945561964065E-4  
 2.506000000000000E10   -5.824294057674706E-4  -8.523249416612089E-4  
 2.508000000000000E10   -9.280012454837561E-4   1.087846001610160E-3  
 2.510000000000000E10    7.631989428773522E-4   9.406344179296866E-5  
 2.512000000000000E10    4.013743891846389E-4  -7.057580514810979E-4  
 2.514000000000000E10   -1.133978599682450E-3  -3.935056447517127E-4  
 2.516000000000000E10    1.373500708723441E-4   6.589313852600753E-4  
 2.518000000000000E10    6.499188602901995E-4  -5.768232585978694E-5  
 2.520000000000000E10   -1.764013431966305E-4  -5.520854610949755E-4  
 2.522000000000000E10   -9.531821706332266E-5   1.917723966471385E-5  
 2.524000000000000E10    2.265686489408836E-4   3.289764572400600E-4  
 2.526000000000000E10    1.531502057332546E-4  -6.306300929281861E-5  
 2.528000000000000E10   -9.520228923065588E-5  -4.865429946221411E-4  
 2.530000000000000E10   -4.480386269278824E-4   6.735979695804417E-4  
 2.532000000000000E10    5.087924073450267E-4   1.821336045395583E-4  
 2.534000000000000E10    1.162045518867672E-4  -3.058665606658906E-4  
 2.536000000000000E10   -5.690063117071986E-4   2.728231775108725E-4  
 2.538000000000000E10    7.326367631321773E-5   3.503896587062627E-4  
 2.540000000000000E10    3.623878874350339E-4   1.119439366448205E-5  
 2.542000000000000E10   -1.027628695737803E-5  -3.339341856190004E-5  
 2.544000000000000E10   -3.318342787679285E-4   2.465826401021332E-4  
 2.546000000000000E10    2.562199915701058E-5   2.559583808761090E-4  
 2.548000000000000E10   -1.496180357207777E-5  -3.619955896283500E-5  
 2.550000000000000E10   -7.446395466104150E-5   2.581709304649849E-5  
 2.552000000000000E10   -1.101745801861398E-4   7.564834959339351E-5  
 2.554000000000000E10    6.584626135008875E-6   1.498631900176406E-4  
 2.556000000000000E10   -2.892999145842623E-5  -1.671867939876393E-4  
 2.558000000000000E10    4.203687058179639E-5   1.674143277341500E-4  
 2.560000000000000E10    1.715561375021935E-4  -2.085804007947445E-4  
 2.562000000000000E10    2.600573679956142E-6   1.254219823749736E-4  
 2.564000000000000E10   -4.744544639834203E-5  -1.960502122528851E-4  
 2.566000000000000E10   -2.141605655197054E-4   2.091834467137232E-4  
 2.568000000000000E10    2.244515490019694E-4   1.904347154777497E-4  
 2.570000000000000E10    1.507250126451254E-4  -2.507935860194266E-4  
 2.572000000000000E10   -1.371184916933999E-4  -1.925717660924420E-4  
 2.574000000000000E10   -8.339502528542653E-6   1.503302773926407E-4  
 2.576000000000000E10    1.199973848997615E-4  -1.125620619859546E-4  
 2.578000000000000E10    2.329920389456675E-4   5.022809273214079E-5  
 2.580000000000000E10   -7.367721991613507E-5  -2.385604602750391E-4  
 2.582000000000000E10   -1.360897440463305E-4  -8.714952127775177E-5  
 2.584000000000000E10    2.788797428365797E-4   1.820146280806512E-4  
 2.586000000000000E10   -1.026928366627544E-4  -1.813140697777271E-4  
 2.588000000000000E10    2.604576002340764E-4   1.721597800496966E-4  
 2.590000000000000E10   -7.439280307153240E-5  -2.944985753856599E-4  
 2.592000000000000E10   -1.729661162244156E-4  -5.952965148026124E-5  
 2.594000000000000E10   -2.650895621627569E-4   5.239619640633464E-4  
 2.596000000000000E10    5.576294497586787E-4   3.904659024556167E-6  
 2.598000000000000E10    4.778752190759406E-5  -6.661185761913657E-4  
 2.600000000000000E10   -4.055024764966220E-4   8.851980965118855E-5  
 2.602000000000000E10   -5.678198795067146E-5   6.182586657814682E-4  
 2.604000000000000E10    6.004120805300772E-4   1.072335289791226E-4  
 2.606000000000000E10    3.426663461141288E-4  -2.905058208853006E-4  
 2.608000000000000E10   -7.908799452707171E-4   1.627918827580288E-4  
 2.610000000000000E10    3.010126238223165E-4   7.424802752211690E-4  
 2.612000000000000E10    6.827607867307961E-4  -3.371745697222650E-4  
 2.614000000000000E10   -3.297856892459095E-4  -9.310675668530166E-4  
 2.616000000000000E10   -7.629671017639339E-4   4.166274447925389E-4  
 2.618000000000000E10    5.943868891336024E-4   3.748835006263107E-4  
 2.620000000000000E10    1.378882880089805E-4  -5.184286274015904E-4  
 2.622000000000000E10   -4.997868672944605E-4  -4.911192227154970E-4  
 2.624000000000000E10   -5.828060675412417E-4   9.155791485682130E-4  
 2.626000000000000E10    9.248415008187294E-4   2.180664450861514E-4  
 2.628000000000000E10   -1.532826136099175E-4  -6.096868892200291E-4  
 2.630000000000000E10   -7.740764413028956E-4   2.509929181542248E-4  
 2.632000000000000E10    2.727881073951721E-4   9.374081273563206E-4  
 2.634000000000000E10    7.272102520801127E-4  -3.281866374891251E-4  
 2.636000000000000E10   -5.160265718586743E-4  -9.773827623575926E-4  
 2.638000000000000E10   -9.135754080489278E-4   9.555552387610078E-4  
 2.640000000000000E10    9.645324898883700E-4   4.524652322288603E-4  
 2.642000000000000E10    7.300717988982797E-4  -7.326421327888966E-4  
 2.644000000000000E10   -1.101078465580940E-3  -6.137366872280836E-4  
 2.646000000000000E10   -5.978466942906380E-4   1.203147578053176E-3  
 2.648000000000000E10    1.624399796128273E-3   3.301202668808401E-4  
 2.650000000000000E10    1.630359911359847E-4  -1.344432705081999E-3  
 2.652000000000000E10   -1.535331713967025E-3  -1.361507020192221E-4  
 2.654000000000000E10    2.929872134700418E-4   1.691966783255339E-3  
 2.656000000000000E10    1.527217798866332E-3  -5.747626419179142E-4  
 2.658000000000000E10   -6.398298428393900E-4  -1.590133411809802E-3  
 2.660000000000000E10   -1.250400790013373E-3   1.078537548892200E-3  
 2.662000000000000E10    1.231094589456916E-3   1.344894990324974E-3  
 2.664000000000000E10    1.297156093642116E-3  -1.537377596832812E-3  
 2.666000000000000E10   -1.480478909797967E-3  -8.426734711974859E-4  
 2.668000000000000E10   -4.162288969382644E-4   1.789441565051675E-3  
 2.670000000000000E10    1.607168582268059E-3   1.673798542469740E-4  
 2.672000000000000E10    1.330023806076497E-4  -1.432045595720410E-3  
 2.674000000000000E10   -1.653244835324585E-3  -2.204698830610141E-4  
 2.676000000000000E10    2.685744257178158E-4   1.640060218051076E-3  
 2.678000000000000E10    1.525110332295299E-3  -5.881378310732544E-4  
 2.680000000000000E10   -6.562395137734711E-4  -1.398982130922377E-3  
 2.682000000000000E10   -1.228727749548852E-3   9.289564331993461E-4  
 2.684000000000000E10    1.234763069078326E-3   1.111860619857907E-3  
 2.686000000000000E10    7.917180773802102E-4  -1.328884507529438E-3  
 2.688000000000000E10   -1.395876635797322E-3  -8.903915295377374E-4  
 2.690000000000000E10   -6.907785427756608E-4   1.564514124765992E-3  
 2.692000000000000E10    1.512818620540202E-3  -2.567696719779633E-5  
 2.694000000000000E10    2.998878517246340E-5  -1.454287557862699E-3  
 2.696000000000000E10   -1.776920398697257E-3   1.261856232304126E-4  
 2.698000000000000E10    1.596026704646647E-4   1.503788982518017E-3  
 2.700000000000000E10    1.505387597717345E-3  -5.029165185987949E-4  
 2.702000000000000E10   -6.375093944370747E-4  -1.676495769061148E-3  
 2.704000000000000E10   -1.623038901016116E-3   1.006550388410687E-3  
 2.706000000000000E10    1.046063611283898E-3   1.045061624608934E-3  
 2.708000000000000E10    1.082739210687578E-3  -1.187043380923569E-3  
 2.710000000000000E10   -1.442703185603023E-3  -1.375335268676281E-3  
 2.712000000000000E10   -1.030988874845207E-3   1.428385381586850E-3  
 2.714000000000000E10    1.537035685032606E-3   8.602431626059115E-4  
 2.716000000000000E10    3.734978090506047E-4  -1.600976451300085E-3  
 2.718000000000000E10   -1.330555416643620E-3  -3.413021622691304E-4  
 2.720000000000000E10    1.020892250380712E-5   1.430669333785772E-3  
 2.722000000000000E10    1.459976891055703E-3  -2.759316994342953E-4  
 2.724000000000000E10   -3.926045028492808E-4  -1.457603182643652E-3  
 2.726000000000000E10   -1.515769399702549E-3   5.285276565700769E-4  
 2.728000000000000E10    7.654868531972170E-4   1.259916462004185E-3  
 2.730000000000000E10    1.246712985448539E-3  -7.240281556732953E-4  
 2.732000000000000E10   -1.081141992472112E-3  -8.498654933646321E-4  
 2.734000000000000E10   -7.529059075750411E-4   9.291598689742386E-4  
 2.736000000000000E10    1.219494850374758E-3   6.453826790675521E-4  
 2.738000000000000E10    4.820371686946601E-4  -9.875830728560686E-4  
 2.740000000000000E10   -1.226256717927754E-3  -5.463652196340263E-4  
 2.742000000000000E10   -1.042113653966226E-4   1.594146830029786E-3  
 2.744000000000000E10    1.294573652558029E-3   1.712016965029761E-4  
 2.746000000000000E10    3.494698103168048E-5  -1.083379611372948E-3  
 2.748000000000000E10   -1.389558659866452E-3   5.224224296398461E-4  
 2.750000000000000E10    3.534199495334178E-4   1.132920151576400E-3  
 2.752000000000000E10    9.332696790806949E-4  -4.227551398798823E-4  
 2.754000000000000E10   -7.058985065668821E-4  -1.078706118278205E-3  
 2.756000000000000E10   -7.460831548087299E-4   7.446403615176678E-4  
