#  HZ   S   RI   R     50.00 
! Rohde & Schwarz ZVA40 4Ports - Version 3.90 - 1145.1110k42 SN: 100403
! Date: 2023-10-04 08:48:57
! Measurement: S12 
! 
 2.200000000000000E10    2.767522120848298E-3  -2.957955701276660E-3  
 2.202000000000000E10   -3.403926966711879E-3  -2.503659576177597E-3  
 2.204000000000000E10   -2.107014646753669E-3   3.439153544604778E-3  
 2.206000000000000E10    3.869912587106228E-3   1.376694766804576E-3  
 2.208000000000000E10    8.590959478169680E-4  -3.621529089286923E-3  
 2.210000000000000E10   -3.963060677051544E-3  -6.682596867904067E-4  
 2.212000000000000E10   -1.880202471511439E-4   4.028631374239922E-3  
 2.214000000000000E10    3.830632893368602E-3  -2.455410140100867E-4  
 2.216000000000000E10   -5.975033855065703E-4  -3.761728527024388E-3  
 2.218000000000000E10   -4.032446071505547E-3   1.131022698245943E-3  
 2.220000000000000E10    1.116318744607270E-3   3.915707115083933E-3  
 2.222000000000000E10    3.691635327413678E-3  -1.727590453810990E-3  
 2.224000000000000E10   -2.034059027209878E-3  -3.364056581631303E-3  
 2.226000000000000E10   -3.433394012972713E-3   2.404332393780351E-3  
 2.228000000000000E10    3.106883494183421E-3   3.132159821689129E-3  
 2.230000000000000E10    2.531496109440923E-3  -3.126454772427678E-3  
 2.232000000000000E10   -3.449528478085995E-3  -2.566660055890679E-3  
 2.234000000000000E10   -2.002179156988859E-3   3.698097076267004E-3  
 2.236000000000000E10    3.930511418730021E-3   1.431805198080838E-3  
 2.238000000000000E10    1.180242281407118E-3  -3.882315475493670E-3  
 2.240000000000000E10   -4.166090860962868E-3  -9.266776614822447E-4  
 2.242000000000000E10   -1.967030548257753E-4   4.270867444574833E-3  
 2.244000000000000E10    4.061306826770306E-3  -2.041382831521332E-4  
 2.246000000000000E10   -5.905217258259654E-4  -3.514321753755212E-3  
 2.248000000000000E10   -3.840526565909386E-3   7.271767244674265E-4  
 2.250000000000000E10    1.528649008832872E-3   3.745891619473696E-3  
 2.252000000000000E10    3.451035823673010E-3  -1.937399152666330E-3  
 2.254000000000000E10   -1.750740106217563E-3  -3.102774033322930E-3  
 2.256000000000000E10   -2.860703505575657E-3   2.099771518260241E-3  
 2.258000000000000E10    2.911969553679228E-3   2.425172831863165E-3  
 2.260000000000000E10    1.984020927920938E-3  -2.745233243331313E-3  
 2.262000000000000E10   -2.795608248561621E-3  -1.617984380573034E-3  
 2.264000000000000E10   -1.267880667001009E-3   3.270886838436127E-3  
 2.266000000000000E10    3.381164278835058E-3   6.450351793318987E-4  
 2.268000000000000E10    5.337940528988838E-4  -3.591125598177314E-3  
 2.270000000000000E10   -3.443150315433741E-3  -7.078293128870428E-5  
 2.272000000000000E10    3.745022113434970E-4   3.395966952666640E-3  
 2.274000000000000E10    3.983969800174236E-3  -8.278752793557942E-4  
 2.276000000000000E10   -1.063663861714304E-3  -3.792840288951993E-3  
 2.278000000000000E10   -3.694926388561726E-3   1.545990468002856E-3  
 2.280000000000000E10    1.761072315275669E-3   3.344112075865269E-3  
 2.282000000000000E10    3.973226528614759E-3   1.183691711048596E-4  
 2.284000000000000E10   -2.413385780528188E-3  -2.908071270212531E-3  
 2.286000000000000E10   -2.937985351309180E-3   2.512505743652582E-3  
 2.288000000000000E10    2.932043280452490E-3   2.647260902449489E-3  
 2.290000000000000E10    2.399513730779290E-3  -3.136822255328298E-3  
 2.292000000000000E10   -3.506197594106197E-3  -1.949884695932269E-3  
 2.294000000000000E10   -1.281836419366300E-3   3.299601143226028E-3  
 2.296000000000000E10    3.346556099131703E-3   9.098445298150182E-4  
 2.298000000000000E10    7.344985497184098E-4  -3.349131438881159E-3  
 2.300000000000000E10   -3.452176693826914E-3  -2.659288875292987E-4  
 2.302000000000000E10    4.292343510314822E-5   3.318436443805695E-3  
 2.304000000000000E10    2.778131747618318E-3  -8.344548405148089E-4  
 2.306000000000000E10   -9.665799443610013E-4  -2.989616245031357E-3  
 2.308000000000000E10   -2.779378322884440E-3   1.347937504760921E-3  
 2.310000000000000E10    1.830981811508536E-3   2.510688966140151E-3  
 2.312000000000000E10    2.296195132657886E-3  -1.891382387839258E-3  
 2.314000000000000E10   -2.436082810163498E-3  -1.931973500177264E-3  
 2.316000000000000E10   -1.623440533876419E-3   2.256084233522415E-3  
 2.318000000000000E10    2.779501490294933E-3   1.483418862335384E-3  
 2.320000000000000E10    1.115570543333888E-3  -3.022973192855716E-3  
 2.322000000000000E10   -3.094356739893556E-3  -9.748037555254996E-4  
 2.324000000000000E10   -8.435665513388813E-4   3.036925336346030E-3  
 2.326000000000000E10    3.105599898844957E-3   4.291097866371274E-4  
 2.328000000000000E10    2.676229632925242E-5  -3.566144267097116E-3  
 2.330000000000000E10   -3.566814819350839E-3   5.121325375512242E-4  
 2.332000000000000E10    7.198331877589226E-4   2.948677632957697E-3  
 2.334000000000000E10    3.034201916307211E-3  -8.749688859097660E-4  
 2.336000000000000E10   -1.265146885998547E-3  -2.949307207018137E-3  
 2.338000000000000E10   -2.719540614634752E-3   1.603194861672819E-3  
 2.340000000000000E10    1.786836772225797E-3   2.253836719319224E-3  
 2.342000000000000E10    2.382803009822965E-3  -1.731673721224070E-3  
 2.344000000000000E10   -2.108665183186531E-3  -2.177356043830514E-3  
 2.346000000000000E10   -1.832282054238021E-3   2.472961088642478E-3  
 2.348000000000000E10    2.372869057580829E-3   1.523403450846672E-3  
 2.350000000000000E10    1.145859365351498E-3  -2.746677026152611E-3  
 2.352000000000000E10   -2.761994954198599E-3  -4.999847733415663E-4  
 2.354000000000000E10   -6.556988810189068E-4   3.055710578337312E-3  
 2.356000000000000E10    3.348195692524314E-3   3.340464900247753E-4  
 2.358000000000000E10   -3.657861379906535E-4  -3.191439900547266E-3  
 2.360000000000000E10   -3.276884090155363E-3   9.093199041672051E-4  
 2.362000000000000E10    1.288270694203675E-3   3.207161789759994E-3  
 2.364000000000000E10    3.293898189440370E-3  -1.662354683503509E-3  
 2.366000000000000E10   -2.419751603156328E-3  -3.063037758693099E-3  
 2.368000000000000E10   -3.111066529527307E-3   2.718742005527020E-3  
 2.370000000000000E10    3.093126928433776E-3   2.388376509770751E-3  
 2.372000000000000E10    2.176714828237891E-3  -3.304841229692102E-3  
 2.374000000000000E10   -3.748256247490645E-3  -1.920638140290976E-3  
 2.376000000000000E10   -1.258707954548299E-3   4.173003137111664E-3  
 2.378000000000000E10    4.100796766579151E-3   1.038727816194296E-3  
 2.380000000000000E10    3.363151918165386E-4  -4.424744751304388E-3  
 2.382000000000000E10   -4.291242454200983E-3   2.234754938399419E-4  
 2.384000000000000E10    8.861387614160776E-4   4.158659372478724E-3  
 2.386000000000000E10    4.196689464151859E-3  -1.405184622853994E-3  
 2.388000000000000E10   -2.066011540591717E-3  -3.731813980266452E-3  
 2.390000000000000E10   -3.247015876695514E-3   2.647312358021736E-3  
 2.392000000000000E10    2.925493754446507E-3   2.480475464835763E-3  
 2.394000000000000E10    2.380621386691928E-3  -3.114939900115132E-3  
 2.396000000000000E10   -3.720794571563602E-3  -1.715989201329649E-3  
 2.398000000000000E10   -5.081075942143798E-4   3.480934072285891E-3  
 2.400000000000000E10    3.501253668218851E-3   1.629992912057787E-4  
 2.402000000000000E10   -8.163603488355875E-4  -3.544653533026576E-3  
 2.404000000000000E10   -3.422718960791826E-3   1.690934528596699E-3  
 2.406000000000000E10    1.996101345866919E-3   2.723383950069547E-3  
 2.408000000000000E10    2.809503581374884E-3  -2.190517028793693E-3  
 2.410000000000000E10   -2.693432616069913E-3  -2.283456502482295E-3  
 2.412000000000000E10   -2.102690981701016E-3   3.097631968557835E-3  
 2.414000000000000E10    3.050664905458689E-3   1.450673444196582E-3  
 2.416000000000000E10    1.631978549994528E-3  -2.767451805993915E-3  
 2.418000000000000E10   -3.185259178280830E-3  -1.121026230975986E-3  
 2.420000000000000E10   -4.933315212838352E-4   3.085143631324172E-3  
 2.422000000000000E10    2.773914719000459E-3   2.924207074102014E-4  
 2.424000000000000E10    2.354552852921188E-4  -2.910837065428495E-3  
 2.426000000000000E10   -2.844527829438448E-3   3.660036891233176E-4  
 2.428000000000000E10    6.729142041876912E-4   2.186175901442766E-3  
 2.430000000000000E10    2.278542844578624E-3  -8.063828572630882E-4  
 2.432000000000000E10   -1.148582668974996E-3  -2.101097721606493E-3  
 2.434000000000000E10   -1.902513904497027E-3   1.407343428581953E-3  
 2.436000000000000E10    1.754199620336294E-3   1.451554126106203E-3  
 2.438000000000000E10    1.160129206255078E-3  -1.415444188751280E-3  
 2.440000000000000E10   -1.942909904755652E-3  -1.164491288363934E-3  
 2.442000000000000E10   -7.955215405672789E-4   1.870795735158026E-3  
 2.444000000000000E10    1.858154544606805E-3   3.703121328726411E-4  
 2.446000000000000E10   -1.269515923922882E-4  -1.897818641737104E-3  
 2.448000000000000E10   -1.741365762427449E-3  -1.467164984205738E-4  
 2.450000000000000E10    3.173766599502415E-4   1.672817976213992E-3  
 2.452000000000000E10    1.323262345977128E-3  -3.444908652454615E-4  
 2.454000000000000E10   -5.179368308745325E-4  -1.201621955260634E-3  
 2.456000000000000E10   -1.244461745955050E-3   6.764777936041355E-4  
 2.458000000000000E10    5.901858094148338E-4   1.031629508361220E-3  
 2.460000000000000E10    8.835348999127746E-4  -1.055373460985720E-3  
 2.462000000000000E10   -1.061980379745364E-3  -4.882684734184295E-4  
 2.464000000000000E10   -1.012334250845015E-4   1.025666017085314E-3  
 2.466000000000000E10    9.061842574737966E-4   4.254212544765323E-4  
 2.468000000000000E10    2.705513907130808E-4  -1.153353485278785E-3  
 2.470000000000000E10   -1.354557578451932E-3  -1.405461516696960E-4  
 2.472000000000000E10    1.951079611899331E-4   1.377403037622571E-3  
 2.474000000000000E10    1.249823602847755E-3  -2.015208883676678E-4  
 2.476000000000000E10   -6.834264495410025E-4  -1.221343525685370E-3  
 2.478000000000000E10   -9.233021992258728E-4   5.377734196372330E-4  
 2.480000000000000E10    6.036888225935400E-4   1.135927275754511E-3  
 2.482000000000000E10    1.082622911781073E-3  -6.629797280766070E-4  
 2.484000000000000E10   -9.414116502739489E-4  -5.969196208752692E-4  
 2.486000000000000E10   -3.213950549252331E-4   6.698414799757302E-4  
 2.488000000000000E10    2.366941916989163E-4   5.360687500797212E-4  
 2.490000000000000E10    3.769937902688980E-4  -2.897018275689334E-4  
 2.492000000000000E10   -2.378514000156429E-5  -4.354744669399224E-5  
 2.494000000000000E10   -6.231531733646989E-4   5.245949796517380E-5  
 2.496000000000000E10   -9.439764107810333E-5   3.085348871536553E-4  
 2.498000000000000E10    2.208742662332952E-4   4.402321937959641E-4  
 2.500000000000000E10    9.092379332287237E-5  -3.453681711107492E-4  
 2.502000000000000E10   -1.639690599404275E-4  -3.202299412805587E-4  
 2.504000000000000E10    1.539402874186635E-4   3.785473527386785E-4  
 2.506000000000000E10    6.932536052772775E-5   1.249792985618115E-4  
 2.508000000000000E10   -9.788171155378223E-6   1.200511760544032E-4  
 2.510000000000000E10    7.110766455298290E-5  -2.476203662808985E-4  
 2.512000000000000E10   -2.201300958404318E-4  -3.786593151744455E-4  
 2.514000000000000E10   -1.912628067657352E-5   4.584719426929951E-4  
 2.516000000000000E10   -1.413175959896762E-5  -9.445811156183481E-5  
 2.518000000000000E10    1.773633994162083E-4   5.995491846988443E-6  
 2.520000000000000E10   -4.108318171347491E-5  -7.959915092214942E-5  
 2.522000000000000E10   -2.680777106434107E-4  -3.791701601585373E-5  
 2.524000000000000E10    3.208892667316832E-5  -1.804362254915759E-4  
 2.526000000000000E10   -1.710569777060300E-4  -1.178854217869230E-4  
 2.528000000000000E10    2.182353928219527E-4   6.060304076527245E-5  
 2.530000000000000E10   -8.879102097125724E-5  -4.329254152253270E-4  
 2.532000000000000E10   -1.605392608325928E-4   1.535322517156601E-4  
 2.534000000000000E10    2.927517052739859E-4  -8.854395127855241E-5  
 2.536000000000000E10    4.001399247499649E-6  -2.021674736170098E-4  
 2.538000000000000E10    3.047973041248042E-5   2.573809251771309E-5  
 2.540000000000000E10   -1.226620806846768E-4  -2.614574914332479E-4  
 2.542000000000000E10    5.720029730582610E-5   1.373347186017782E-4  
 2.544000000000000E10    5.555501047638245E-5   5.811535811517388E-5  
 2.546000000000000E10    4.397780285216868E-4  -1.125918279285543E-4  
 2.548000000000000E10   -3.824846644420177E-4  -1.208192479680292E-4  
 2.550000000000000E10   -4.118398646824062E-5   2.823769464157522E-4  
 2.552000000000000E10    3.619029012043029E-4   2.756140202109236E-5  
 2.554000000000000E10   -1.387112279189751E-4  -3.592220891732723E-4  
 2.556000000000000E10   -3.245799161959440E-4   1.796200813259929E-4  
 2.558000000000000E10   -1.001850250759162E-4   2.905351866502315E-4  
 2.560000000000000E10    3.354622458573431E-4  -6.877449777675793E-6  
 2.562000000000000E10   -3.709339944180101E-4  -4.579384985845536E-4  
 2.564000000000000E10   -5.648431251756847E-4   2.515657979529351E-4  
 2.566000000000000E10    3.472664393484592E-4   2.125854807673022E-4  
 2.568000000000000E10    1.595756766619161E-4  -3.205286047887057E-4  
 2.570000000000000E10   -6.792087806388736E-4   2.031220210483298E-4  
 2.572000000000000E10    9.488023351877928E-5   4.191622720099986E-4  
 2.574000000000000E10    3.779336693696678E-4   2.750608546193689E-4  
 2.576000000000000E10   -1.513516053819330E-6  -5.432763718999922E-4  
 2.578000000000000E10   -5.375426262617111E-4   1.309856015723199E-4  
 2.580000000000000E10   -7.314465619856492E-5   4.369895614217967E-4  
 2.582000000000000E10    3.325465659145266E-4   6.011335790390149E-5  
 2.584000000000000E10    2.113397204084322E-4  -7.858400349505246E-4  
 2.586000000000000E10   -5.617172573693097E-4  -1.415883070876589E-5  
 2.588000000000000E10   -1.176500882138498E-5   4.821114707738161E-4  
 2.590000000000000E10    8.037029765546322E-4  -1.813673879951239E-4  
 2.592000000000000E10   -6.290807505138218E-4  -4.726273473352194E-4  
 2.594000000000000E10   -6.002505542710424E-4   7.391831604763866E-5  
 2.596000000000000E10    4.767755453940481E-4   8.372369920834899E-4  
 2.598000000000000E10    6.813356885686517E-4  -7.009615655988455E-4  
 2.600000000000000E10   -6.358653190545738E-4  -5.212335381656885E-4  
 2.602000000000000E10   -1.429839612683281E-4   5.038897506892681E-4  
 2.604000000000000E10    6.550376419909298E-4   5.034350324422121E-4  
 2.606000000000000E10    3.812006907537580E-4  -8.437199285253882E-4  
 2.608000000000000E10   -2.305469824932516E-4   1.084944960894063E-4  
 2.610000000000000E10   -4.694184099207632E-5   6.132940761744976E-4  
 2.612000000000000E10    8.669010712765157E-4   4.134263690502849E-6  
 2.614000000000000E10    7.990414451342076E-5  -6.577016320079565E-4  
 2.616000000000000E10   -7.056915783323348E-4  -1.410016993759200E-4  
 2.618000000000000E10    1.839858596213162E-4   7.690695929341018E-4  
 2.620000000000000E10    6.609561387449503E-4  -5.246435175649822E-4  
 2.622000000000000E10   -5.890033789910376E-4  -8.383544045500457E-4  
 2.624000000000000E10   -9.530872339382768E-4   5.126427276991308E-4  
 2.626000000000000E10    1.083800103515387E-3   9.923194302245975E-4  
 2.628000000000000E10    5.525292363017798E-4  -1.238466822542250E-3  
 2.630000000000000E10   -1.138514489866793E-3  -2.980610879603773E-4  
 2.632000000000000E10   -4.340702726040036E-4   1.423398265615106E-3  
 2.634000000000000E10    1.339447801001370E-3   6.029418436810374E-4  
 2.636000000000000E10    1.074402462108992E-4  -1.548217493109405E-3  
 2.638000000000000E10   -1.513185212388635E-3   9.777442028280348E-5  
 2.640000000000000E10    3.219071368221194E-4   1.684810500591993E-3  
 2.642000000000000E10    1.381869195029140E-3  -5.980323767289519E-4  
 2.644000000000000E10   -1.122071353165666E-5  -1.526671461760998E-3  
 2.646000000000000E10   -1.497211749665439E-3   6.601714994758368E-4  
 2.648000000000000E10    1.053328858688474E-3   1.558654359541833E-3  
 2.650000000000000E10    1.310638501308858E-3  -9.763630805537105E-4  
 2.652000000000000E10   -1.262343488633633E-3  -1.282769721001387E-3  
 2.654000000000000E10   -9.720747475512326E-4   1.474519958719611E-3  
 2.656000000000000E10    1.563580241054297E-3   5.944048753008246E-4  
 2.658000000000000E10    3.926467616111040E-4  -1.716051483526826E-3  
 2.660000000000000E10   -1.688972814008594E-3  -4.350084927864373E-4  
 2.662000000000000E10    1.006720922305249E-4   1.755728502757847E-3  
 2.664000000000000E10    1.708007999695838E-3  -6.625598762184382E-4  
 2.666000000000000E10   -6.398566183634102E-4  -1.690403092652559E-3  
 2.668000000000000E10   -1.681762281805277E-3   8.384526590816677E-4  
 2.670000000000000E10    1.435525598935783E-3   1.418194849975407E-3  
 2.672000000000000E10    1.239276607520878E-3  -1.664657494984567E-3  
 2.674000000000000E10   -1.857335795648396E-3  -1.229559653438628E-3  
 2.676000000000000E10   -8.437962969765067E-4   1.975199440494180E-3  
 2.678000000000000E10    2.021082444116473E-3   6.367731839418411E-4  
 2.680000000000000E10    4.304560134187341E-4  -1.951183308847249E-3  
 2.682000000000000E10   -2.158100716769695E-3  -2.112611837219447E-4  
 2.684000000000000E10    1.011479325825349E-4   2.171764848753810E-3  
 2.686000000000000E10    1.992072910070419E-3  -5.229850648902357E-4  
 2.688000000000000E10   -6.678773788735271E-4  -1.982728717848659E-3  
 2.690000000000000E10   -2.013786230236292E-3   9.545036009512842E-4  
 2.692000000000000E10    1.026584650389850E-3   1.658323686569929E-3  
 2.694000000000000E10    1.210897462442517E-3  -1.296907314099371E-3  
 2.696000000000000E10   -1.478198100812733E-3  -9.403574513271451E-4  
 2.698000000000000E10   -1.113249803893268E-3   1.622937852516770E-3  
 2.700000000000000E10    1.761566498316824E-3   7.874065195210278E-4  
 2.702000000000000E10    5.836326163262129E-4  -1.692548161372542E-3  
 2.704000000000000E10   -2.056590048596263E-3  -2.845644776243717E-4  
 2.706000000000000E10   -1.829916618589778E-5   1.756909419782460E-3  
 2.708000000000000E10    1.652391394600272E-3  -2.932075294665992E-4  
 2.710000000000000E10   -3.926471981685609E-4  -1.943018403835595E-3  
 2.712000000000000E10   -2.128133084625006E-3   3.957920707762241E-4  
 2.714000000000000E10    1.009688712656498E-3   1.683099544607103E-3  
 2.716000000000000E10    1.456910045817494E-3  -1.152163022197783E-3  
 2.718000000000000E10   -9.930897504091263E-4  -1.484917593188584E-3  
 2.720000000000000E10   -1.090493286028504E-3   1.139059080742300E-3  
 2.722000000000000E10    1.213154057040811E-3   9.713122854009271E-4  
 2.724000000000000E10    7.434286526404321E-4  -1.338714850135148E-3  
 2.726000000000000E10   -1.502012950368226E-3  -6.752322660759091E-4  
 2.728000000000000E10   -5.108558689244092E-4   1.590459374710918E-3  
 2.730000000000000E10    1.687094918452203E-3   6.990617112023756E-5  
 2.732000000000000E10   -2.253403799841180E-4  -8.934793295338750E-4  
 2.734000000000000E10   -1.325427321717143E-3   3.747381560970098E-4  
 2.736000000000000E10    7.006474188528955E-4   1.293017528951168E-3  
 2.738000000000000E10    1.173617900349200E-3  -8.009735029190779E-4  
 2.740000000000000E10   -9.105938370339572E-4  -1.083737704902887E-3  
 2.742000000000000E10   -9.828213369473815E-4   1.019077957607806E-3  
 2.744000000000000E10    1.393210492096841E-3   8.779223426245153E-4  
 2.746000000000000E10    8.708885870873928E-4  -1.346154953353107E-3  
 2.748000000000000E10   -1.208322006277740E-3  -5.268953973427415E-4  
 2.750000000000000E10   -7.556622149422765E-4   1.440170803107321E-3  
 2.752000000000000E10    1.588040729984641E-3   4.774256085511297E-4  
 2.754000000000000E10    5.513144424185157E-5  -1.311971922405064E-3  
 2.756000000000000E10   -1.526475534774363E-3  -1.954655162990093E-4  
