#  HZ   S   RI   R     50.00 
! Rohde & Schwarz ZVA40 4Ports - Version 3.90 - 1145.1110k42 SN: 100403
! Date: 2023-10-04 08:49:22
! Measurement: S12 
! 
 2.200000000000000E10    3.481273073703051E-3   5.357422051019967E-4  
 2.202000000000000E10    1.277046685572714E-4  -3.525441512465477E-3  
 2.204000000000000E10   -2.967102220281959E-3   4.773831751663238E-4  
 2.206000000000000E10    6.034749094396830E-4   3.056309418752790E-3  
 2.208000000000000E10    3.089263336732984E-3  -1.246345927938819E-3  
 2.210000000000000E10   -1.605037483386695E-3  -2.663852879777551E-3  
 2.212000000000000E10   -2.363256178796291E-3   1.582279684953392E-3  
 2.214000000000000E10    1.572413835674524E-3   2.424520207569003E-3  
 2.216000000000000E10    2.172858687117696E-3  -2.029922557994723E-3  
 2.218000000000000E10   -2.402049256488681E-3  -1.670431229285896E-3  
 2.220000000000000E10   -1.797237782739103E-3   2.214465523138642E-3  
 2.222000000000000E10    2.537467284128070E-3   1.665980555117130E-3  
 2.224000000000000E10    1.428824500180781E-3  -2.944680862128735E-3  
 2.226000000000000E10   -2.784687560051680E-3  -1.182426931336522E-3  
 2.228000000000000E10   -9.444588795304298E-4   2.750077284872532E-3  
 2.230000000000000E10    2.951448317617178E-3   7.755886763334274E-4  
 2.232000000000000E10    3.763921849895269E-4  -2.957324730232358E-3  
 2.234000000000000E10   -2.605332294479013E-3  -2.394964540144429E-4  
 2.236000000000000E10   -4.582771798595786E-4   2.797682303935289E-3  
 2.238000000000000E10    2.877000020816922E-3  -2.403475955361500E-4  
 2.240000000000000E10   -8.335495949722827E-4  -3.061948344111443E-3  
 2.242000000000000E10   -2.658039098605514E-3   9.729262674227357E-4  
 2.244000000000000E10    1.150247990153730E-3   2.535637700930238E-3  
 2.246000000000000E10    2.238980261608958E-3  -1.432364340871573E-3  
 2.248000000000000E10   -2.054359531030059E-3  -1.998526509851217E-3  
 2.250000000000000E10   -1.676252344623208E-3   2.285520778968930E-3  
 2.252000000000000E10    2.150046173483133E-3   1.314559485763311E-3  
 2.254000000000000E10    1.180608174763620E-3  -2.356881741434336E-3  
 2.256000000000000E10   -2.764073200523853E-3  -1.504629617556930E-3  
 2.258000000000000E10   -7.035355083644390E-4   2.937113167718053E-3  
 2.260000000000000E10    2.884267596527934E-3   3.945194766856730E-4  
 2.262000000000000E10    6.082570325816050E-5  -3.000275464728475E-3  
 2.264000000000000E10   -2.986409934237599E-3  -2.691973350010812E-5  
 2.266000000000000E10    6.583482172572985E-5   3.160817315801978E-3  
 2.268000000000000E10    2.731399843469262E-3  -6.170161068439484E-4  
 2.270000000000000E10   -8.142146398313344E-4  -2.898510545492172E-3  
 2.272000000000000E10   -2.891755197197199E-3   1.071622944436967E-3  
 2.274000000000000E10    1.176597783342004E-3   2.550891600549221E-3  
 2.276000000000000E10    2.954578725621104E-3  -1.597278169356287E-3  
 2.278000000000000E10   -2.128453692421317E-3  -2.639430575072765E-3  
 2.280000000000000E10   -1.863788813352585E-3   2.353850286453962E-3  
 2.282000000000000E10    5.860592937096953E-4   2.542267553508282E-3  
 2.284000000000000E10    1.876648166216910E-3  -2.376781543716788E-3  
 2.286000000000000E10   -2.489850856363773E-3  -1.281256321817637E-3  
 2.288000000000000E10   -1.023701042868197E-3   2.719167387112975E-3  
 2.290000000000000E10    2.577340463176370E-3   8.125438471324742E-4  
 2.292000000000000E10    6.095229764468968E-4  -2.635055687278509E-3  
 2.294000000000000E10   -2.816510386765003E-3  -4.133069014642388E-4  
 2.296000000000000E10    6.302308174781501E-4   2.381279133260250E-3  
 2.298000000000000E10    2.280918648466468E-3  -3.407944750506431E-4  
 2.300000000000000E10   -7.003188366070390E-4  -2.577037317678332E-3  
 2.302000000000000E10   -2.322513144463301E-3   8.123299339786172E-4  
 2.304000000000000E10    1.153169898316264E-3   2.039852086454630E-3  
 2.306000000000000E10    1.941281137987971E-3  -1.329986727796495E-3  
 2.308000000000000E10   -1.885608537122607E-3  -2.161992713809013E-3  
 2.310000000000000E10   -1.655464293435216E-3   2.375205047428608E-3  
 2.312000000000000E10    2.463387791067362E-3   1.169767696410418E-3  
 2.314000000000000E10    9.992028353735805E-4  -2.479116432368755E-3  
 2.316000000000000E10   -2.733641071245074E-3  -7.194948266260326E-4  
 2.318000000000000E10   -3.177737526129931E-4   2.716928953304887E-3  
 2.320000000000000E10    2.287789015099406E-3   2.402369427727535E-4  
 2.322000000000000E10    1.647168392082676E-4  -2.531207632273436E-3  
 2.324000000000000E10   -2.538564382120967E-3   5.733087527914904E-5  
 2.326000000000000E10    1.568609295645729E-4   2.784099429845810E-3  
 2.328000000000000E10    2.872089389711618E-3  -5.818866193294525E-4  
 2.330000000000000E10   -1.008012681268156E-3  -2.657981123775244E-3  
 2.332000000000000E10   -2.549592871218920E-3   1.238842145539820E-3  
 2.334000000000000E10    1.482856459915638E-3   2.371658338233829E-3  
 2.336000000000000E10    2.535633509978652E-3  -1.674408908002079E-3  
 2.338000000000000E10   -2.055852906778455E-3  -1.915085129439831E-3  
 2.340000000000000E10   -1.890736748464406E-3   2.184957265853882E-3  
 2.342000000000000E10    2.531506586819887E-3   1.520791905932128E-3  
 2.344000000000000E10    1.470855437219143E-3  -2.791602862998843E-3  
 2.346000000000000E10   -2.758869435638189E-3  -1.012724358588457E-3  
 2.348000000000000E10   -5.459889071062207E-4   3.094565588980913E-3  
 2.350000000000000E10    3.160076448693872E-3   2.321726788068190E-4  
 2.352000000000000E10   -2.678968885447830E-4  -3.489881521090865E-3  
 2.354000000000000E10   -3.311408916488290E-3   7.675842498429120E-4  
 2.356000000000000E10    1.281612785533071E-3   3.077606903389096E-3  
 2.358000000000000E10    2.628563204780221E-3  -1.398546621203423E-3  
 2.360000000000000E10   -1.504337182268500E-3  -2.903247252106667E-3  
 2.362000000000000E10   -3.040133742615581E-3   2.160613657906652E-3  
 2.364000000000000E10    2.498461632058024E-3   2.550511155277491E-3  
 2.366000000000000E10    2.391665242612362E-3  -2.885819878429174E-3  
 2.368000000000000E10   -3.418151754885912E-3  -1.977351726964116E-3  
 2.370000000000000E10   -1.580125186592341E-3   3.476013895124197E-3  
 2.372000000000000E10    3.848820226266980E-3   9.221250656992197E-4  
 2.374000000000000E10    5.288048414513469E-4  -3.859586082398891E-3  
 2.376000000000000E10   -4.299794789403677E-3   1.244040468009189E-4  
 2.378000000000000E10    1.129714655689895E-3   3.652926534414291E-3  
 2.380000000000000E10    3.489404218271375E-3  -1.502173719927669E-3  
 2.382000000000000E10   -1.971005694940686E-3  -3.403411945328116E-3  
 2.384000000000000E10   -2.979322569444776E-3   2.790631493553519E-3  
 2.386000000000000E10    3.449489595368505E-3   2.343127503991127E-3  
 2.388000000000000E10    1.943484996445477E-3  -3.106262767687440E-3  
 2.390000000000000E10   -3.543015336617827E-3  -1.414628466591239E-3  
 2.392000000000000E10   -6.513207335956395E-4   3.947465680539608E-3  
 2.394000000000000E10    3.708277596160770E-3  -5.889145541004837E-5  
 2.396000000000000E10   -4.388484521768987E-4  -3.513270756229758E-3  
 2.398000000000000E10   -3.513999050483108E-3   6.646710098721087E-4  
 2.400000000000000E10    1.796796335838735E-3   3.181003499776125E-3  
 2.402000000000000E10    2.600639825686812E-3  -2.074795076623559E-3  
 2.404000000000000E10   -2.564789028838277E-3  -2.446108963340521E-3  
 2.406000000000000E10   -1.852974877692759E-3   3.190606134012342E-3  
 2.408000000000000E10    3.220443380996585E-3   1.036587753333151E-3  
 2.410000000000000E10    1.080117770470679E-3  -2.656167838722467E-3  
 2.412000000000000E10   -2.959564095363021E-3  -3.249010478612036E-4  
 2.414000000000000E10   -7.441048364853486E-5   2.797146793454886E-3  
 2.416000000000000E10    2.622041618451476E-3  -6.743352423654869E-5  
 2.418000000000000E10   -2.093718940159306E-4  -2.493212232366204E-3  
 2.420000000000000E10   -2.584934234619141E-3   4.992496687918901E-4  
 2.422000000000000E10    1.091757672838867E-3   2.007914939895272E-3  
 2.424000000000000E10    1.994546735659242E-3  -8.919207612052560E-4  
 2.426000000000000E10   -9.383031283505261E-4  -2.145175822079182E-3  
 2.428000000000000E10   -1.492969109676778E-3   1.341096940450370E-3  
 2.430000000000000E10    1.339920447207987E-3   1.171901589259505E-3  
 2.432000000000000E10    1.034438260830939E-3  -1.516265561804175E-3  
 2.434000000000000E10   -1.587459468282759E-3  -7.024958613328636E-4  
 2.436000000000000E10   -3.241647209506482E-4   1.539252698421478E-3  
 2.438000000000000E10    1.302263117395341E-3   4.981086749467067E-5  
 2.440000000000000E10   -2.916133089456707E-4  -1.250675995834172E-3  
 2.442000000000000E10   -1.257967669516802E-3   7.658365939278156E-5  
 2.444000000000000E10    3.929736849386245E-4   8.022346301004291E-4  
 2.446000000000000E10    7.119291112758219E-4  -5.164298345334828E-4  
 2.448000000000000E10   -4.014510195702314E-4  -1.262765959836543E-3  
 2.450000000000000E10   -1.247721840627492E-3   8.086735615506768E-4  
 2.452000000000000E10    1.113137113861740E-3   8.997076656669378E-4  
 2.454000000000000E10    4.302891902625561E-4  -1.108946045860648E-3  
 2.456000000000000E10   -1.444567926228046E-3  -7.172081386670470E-4  
 2.458000000000000E10   -3.221702936571091E-4   1.170864095911384E-3  
 2.460000000000000E10    1.077641267329454E-3   9.218385457643308E-6  
 2.462000000000000E10    1.764978223945946E-4  -7.688760524615645E-4  
 2.464000000000000E10   -9.610253619030118E-4  -3.463781613390893E-4  
 2.466000000000000E10   -3.558573371265084E-4   7.793238619342446E-4  
 2.468000000000000E10    9.081386378966272E-4   1.335218112217262E-4  
 2.470000000000000E10    1.683610171312466E-4  -1.131811062805355E-3  
 2.472000000000000E10   -9.270511800423265E-4   1.779740123311058E-4  
 2.474000000000000E10   -1.105527098843595E-5   4.865945084020495E-4  
 2.476000000000000E10    5.029463791288436E-4  -1.676513602433261E-5  
 2.478000000000000E10   -1.928660785779357E-4  -4.170252650510520E-4  
 2.480000000000000E10   -4.488979466259480E-4   7.152604666771367E-5  
 2.482000000000000E10    1.300073927268386E-4   3.733575867954642E-4  
 2.484000000000000E10    1.591698674019426E-4  -1.407183299306780E-4  
 2.486000000000000E10   -3.136490704491735E-5  -1.856346934800968E-4  
 2.488000000000000E10   -2.310143463546410E-4  -2.096018142765388E-4  
 2.490000000000000E10   -1.410037948517129E-4   2.648156369104981E-4  
 2.492000000000000E10    3.866843762807548E-4   1.360025926260278E-4  
 2.494000000000000E10   -1.665946001594421E-5  -9.600296834832989E-6  
 2.496000000000000E10   -1.145213027484715E-4   4.288661875762045E-5  
 2.498000000000000E10   -1.546167040942237E-4   1.340169183094986E-5  
 2.500000000000000E10   -1.412790152244270E-4   6.159056210890412E-4  
 2.502000000000000E10    6.686072447337210E-4   4.962502498528920E-5  
 2.504000000000000E10   -4.203580319881439E-4  -4.685710300691426E-4  
 2.506000000000000E10   -5.845949053764343E-4   5.949258338660002E-4  
 2.508000000000000E10    3.681732050608844E-4   3.244883264414966E-4  
 2.510000000000000E10    3.470590454526246E-4  -6.667728885076940E-4  
 2.512000000000000E10   -7.307662745006383E-4  -2.681057667359710E-4  
 2.514000000000000E10   -2.357739867875353E-4   5.244309431873262E-4  
 2.516000000000000E10    2.671841939445585E-4   1.041082869051024E-4  
 2.518000000000000E10   -7.764608017168939E-5  -6.055100820958614E-4  
 2.520000000000000E10   -1.682213187450543E-4   3.555270668584853E-4  
 2.522000000000000E10   -5.329459600034170E-5   4.088189452886581E-4  
 2.524000000000000E10    1.855925220297650E-4  -3.107201191596687E-4  
 2.526000000000000E10   -4.879896878264844E-4  -1.670221354288515E-5  
 2.528000000000000E10   -1.469841081416234E-4   1.761348394211382E-4  
 2.530000000000000E10    4.548009019345045E-4  -1.500581583968597E-5  
 2.532000000000000E10    1.008662002277561E-4  -5.146423936821520E-4  
 2.534000000000000E10   -5.225074128247798E-4   1.128015574067831E-4  
 2.536000000000000E10    4.438176983967423E-4   5.816211341880262E-4  
 2.538000000000000E10    7.493302109651268E-4  -2.428519073873758E-4  
 2.540000000000000E10   -1.837355812313035E-4  -5.703971837647259E-4  
 2.542000000000000E10   -7.631509215570986E-4   5.333396256901324E-4  
 2.544000000000000E10    6.203934317454696E-4   7.589037995785475E-4  
 2.546000000000000E10    1.756229466991499E-4  -2.766673860605806E-4  
 2.548000000000000E10   -2.063657739199698E-4  -6.725494749844074E-4  
 2.550000000000000E10   -6.638119230046868E-4   9.744018461788073E-5  
 2.552000000000000E10    4.922488587908447E-4   8.083476568572223E-4  
 2.554000000000000E10    5.353156011551619E-4  -3.160365449730307E-4  
 2.556000000000000E10   -3.902050957549363E-4  -6.683357059955597E-4  
 2.558000000000000E10   -6.479700095951557E-4   7.936269976198673E-4  
 2.560000000000000E10    5.502589046955109E-4   5.290536792017520E-4  
 2.562000000000000E10    2.922416024375707E-4  -6.712593603879213E-4  
 2.564000000000000E10   -1.117407111451030E-3  -1.690087519818917E-4  
 2.566000000000000E10   -1.851216220529750E-4   7.815296994522214E-4  
 2.568000000000000E10    5.258048768155277E-4  -5.155112012289465E-5  
 2.570000000000000E10   -3.118061431450769E-5  -4.970050649717450E-4  
 2.572000000000000E10   -8.099316037259996E-4   2.264924842165783E-4  
 2.574000000000000E10    8.060302934609354E-4   8.134196978062391E-4  
 2.576000000000000E10    6.683446117676795E-4  -4.512711311690509E-4  
 2.578000000000000E10   -6.302270339801908E-4  -4.707284097094089E-4  
 2.580000000000000E10   -2.427922445349395E-4   7.319151191040874E-4  
 2.582000000000000E10    4.020341730210930E-4   1.395302679156885E-4  
 2.584000000000000E10    3.110000398010016E-4  -4.565252456814051E-4  
 2.586000000000000E10   -5.551731446757913E-4  -6.175566231831908E-4  
 2.588000000000000E10   -4.801467002835125E-4   7.316574337892234E-4  
 2.590000000000000E10    8.148644701577723E-4   5.079971379018389E-5  
 2.592000000000000E10    3.854212118312717E-4  -6.873223464936018E-4  
 2.594000000000000E10   -7.139926892705262E-4  -1.215888478327543E-4  
 2.596000000000000E10   -3.241982485633344E-4   6.018860149197280E-4  
 2.598000000000000E10    7.808603695593774E-4   2.240621543023735E-4  
 2.600000000000000E10   -1.729982759570703E-4  -1.017133356072009E-3  
 2.602000000000000E10   -1.037370529957116E-3   1.261608558706939E-4  
 2.604000000000000E10    5.629984079860151E-4   5.846149288117886E-4  
 2.606000000000000E10    6.745096761733294E-4  -4.185815341770649E-4  
 2.608000000000000E10   -1.373338600387797E-4  -7.422123453579843E-4  
 2.610000000000000E10   -6.878430722281337E-4   4.283049202058464E-4  
 2.612000000000000E10    7.291203364729881E-4   5.307635292410851E-4  
 2.614000000000000E10    8.091833442449570E-4  -8.161395671777427E-4  
 2.616000000000000E10   -8.264183998107910E-4  -7.344590849243105E-4  
 2.618000000000000E10   -6.588052492588759E-4   7.993376930244267E-4  
 2.620000000000000E10    1.078930101357400E-3   2.748709521256387E-4  
 2.622000000000000E10    7.826872752048075E-4  -9.978946764022112E-4  
 2.624000000000000E10   -1.734907971695066E-3  -7.406786317005754E-4  
 2.626000000000000E10   -6.143318023532629E-4   1.530873007141054E-3  
 2.628000000000000E10    1.763709355145693E-3   1.314253167947754E-4  
 2.630000000000000E10   -2.021186664933339E-4  -1.544968457892537E-3  
 2.632000000000000E10   -1.585389021784067E-3  -5.482717460836284E-5  
 2.634000000000000E10    2.358511992497370E-4   1.601768773980439E-3  
 2.636000000000000E10    1.528457971289754E-3  -1.696643157629296E-4  
 2.638000000000000E10   -4.822668852284551E-4  -1.922192866913974E-3  
 2.640000000000000E10   -1.524280989542604E-3   1.162470784038305E-3  
 2.642000000000000E10    9.225334506481886E-4   1.093507744371891E-3  
 2.644000000000000E10    1.248515211045742E-3  -1.341554569080472E-3  
 2.646000000000000E10   -1.257682335563004E-3  -1.226882683113217E-3  
 2.648000000000000E10   -1.036512432619929E-3   1.796615426428616E-3  
 2.650000000000000E10    2.062360523268580E-3   5.131941870786250E-4  
 2.652000000000000E10    3.653862222563475E-5  -2.042376203462482E-3  
 2.654000000000000E10   -2.169505693018436E-3   1.617187663214281E-4  
 2.656000000000000E10    4.149246960878372E-4   2.040065126493573E-3  
 2.658000000000000E10    1.811273396015167E-3  -8.436201605945826E-4  
 2.660000000000000E10   -1.090162317268550E-3  -1.661431044340134E-3  
 2.662000000000000E10   -1.690445700660348E-3   1.671675825491548E-3  
 2.664000000000000E10    1.783815794624388E-3   1.496582524850965E-3  
 2.666000000000000E10    9.026832412928343E-4  -1.889816485345364E-3  
 2.668000000000000E10   -1.915299682877958E-3  -8.040628163143992E-4  
 2.670000000000000E10   -7.537645287811756E-4   1.982028363272548E-3  
 2.672000000000000E10    2.141197444871068E-3   2.277742023579776E-4  
 2.674000000000000E10   -3.762444612220861E-5  -2.157613402232528E-3  
 2.676000000000000E10   -2.236126456409693E-3   4.121103265788406E-4  
 2.678000000000000E10    5.973555380478501E-4   2.317230217158794E-3  
 2.680000000000000E10    2.197417430579662E-3  -8.171622757799923E-4  
 2.682000000000000E10   -1.045122742652893E-3  -1.800719299353659E-3  
 2.684000000000000E10   -1.710189273580909E-3   1.476327423006296E-3  
 2.686000000000000E10    1.533325295895338E-3   1.538538723252714E-3  
 2.688000000000000E10    1.331942854449153E-3  -1.821241574361920E-3  
 2.690000000000000E10   -1.811862573958933E-3  -1.029056496918201E-3  
 2.692000000000000E10   -8.818429778330028E-4   1.960971858352423E-3  
 2.694000000000000E10    2.032565884292126E-3   7.088991696946323E-4  
 2.696000000000000E10    2.907211601268500E-4  -2.118112752214074E-3  
 2.698000000000000E10   -1.814012997783721E-3   1.096977939596400E-4  
 2.700000000000000E10    1.774990814737976E-4   2.006037859246135E-3  
 2.702000000000000E10    1.913866726681590E-3  -8.614381076768041E-4  
 2.704000000000000E10   -9.800177067518234E-4  -1.519151381216943E-3  
 2.706000000000000E10   -1.558931195177138E-3   9.683554526418448E-4  
 2.708000000000000E10    1.311866799369454E-3   1.294911722652614E-3  
 2.710000000000000E10    1.182344742119312E-3  -1.478684484027326E-3  
 2.712000000000000E10   -1.787530258297920E-3  -8.123935549519956E-4  
 2.714000000000000E10   -8.040433167479932E-4   1.654437161050737E-3  
 2.716000000000000E10    1.933087944053114E-3   7.647154270671308E-4  
 2.718000000000000E10    3.437852137722075E-4  -1.977495849132538E-3  
 2.720000000000000E10   -1.770583214238286E-3   3.957099892204496E-8  
 2.722000000000000E10    2.045886503765360E-4   1.642728340812028E-3  
 2.724000000000000E10    1.767370966263115E-3  -4.863875219598413E-4  
 2.726000000000000E10   -2.540886052884162E-4  -1.671135658398271E-3  
 2.728000000000000E10   -1.486965920776129E-3   8.928102906793356E-4  
 2.730000000000000E10    1.007262151688337E-3   1.212420291267335E-3  
 2.732000000000000E10    1.161416876129806E-3  -8.983291336335242E-4  
 2.734000000000000E10   -1.030739280395210E-3  -8.015673374757171E-4  
 2.736000000000000E10   -6.211413419805467E-4   8.513016509823501E-4  
 2.738000000000000E10    1.263946760445833E-3   6.033232784830034E-4  
 2.740000000000000E10    1.812035334296525E-4  -1.565171405673027E-3  
 2.742000000000000E10   -1.305045443587005E-3   6.400403799489141E-5  
 2.744000000000000E10    3.118172753602266E-4   1.312502776272595E-3  
 2.746000000000000E10    1.254598959349096E-3  -2.487632445991039E-4  
 2.748000000000000E10   -3.908847284037620E-4  -1.162842847406864E-3  
 2.750000000000000E10   -1.261038589291275E-3   3.653686726465821E-4  
 2.752000000000000E10    6.074003758840263E-4   1.251969253644347E-3  
 2.754000000000000E10    1.240945188328624E-3  -7.066987454891205E-4  
 2.756000000000000E10   -8.269918034784496E-4  -1.158423372544348E-3  
