#  HZ   S   RI   R     50.00 
! Rohde & Schwarz ZVA40 4Ports - Version 3.90 - 1145.1110k42 SN: 100403
! Date: 2023-10-04 08:49:55
! Measurement: S12 
! 
 2.200000000000000E10    2.507303361198865E-5   3.036576090380549E-3  
 2.202000000000000E10    3.077888162806630E-3  -4.441599594429135E-4  
 2.204000000000000E10   -6.959113525226712E-4  -3.057900117710233E-3  
 2.206000000000000E10   -2.924492117017508E-3   1.162805128842592E-3  
 2.208000000000000E10    1.300108851864934E-3   2.693013753741980E-3  
 2.210000000000000E10    2.433540998026729E-3  -1.408125273883343E-3  
 2.212000000000000E10   -1.374205108731985E-3  -2.222402254119515E-3  
 2.214000000000000E10   -1.962444512173533E-3   1.748065813444555E-3  
 2.216000000000000E10    1.785262138582766E-3   1.925288699567318E-3  
 2.218000000000000E10    1.202502171508968E-3  -2.194621833041310E-3  
 2.220000000000000E10   -1.872974680736661E-3  -1.106842886656523E-3  
 2.222000000000000E10   -1.117755775339901E-3   1.816696487367153E-3  
 2.224000000000000E10    2.067954512313008E-3   8.362800581380725E-4  
 2.226000000000000E10    5.212051328271627E-4  -2.418987918645144E-3  
 2.228000000000000E10   -2.067984780296683E-3  -2.393931499682367E-4  
 2.230000000000000E10   -1.725788315525278E-4   2.007583389058709E-3  
 2.232000000000000E10    2.506500110030174E-3   3.006772021763027E-4  
 2.234000000000000E10   -3.162099164910615E-4  -2.355849603191018E-3  
 2.236000000000000E10   -2.158272778615356E-3   3.467162023298442E-4  
 2.238000000000000E10    5.480441614054143E-4   2.249439479783177E-3  
 2.240000000000000E10    2.314267447218299E-3  -9.110387181863189E-4  
 2.242000000000000E10   -1.100792665965855E-3  -2.489261794835329E-3  
 2.244000000000000E10   -2.366338158026338E-3   1.067135483026505E-3  
 2.246000000000000E10    1.700498745776713E-3   2.275255508720875E-3  
 2.248000000000000E10    1.961419824510813E-3  -1.895448775030673E-3  
 2.250000000000000E10   -1.783445477485657E-3  -1.577960327267647E-3  
 2.252000000000000E10   -1.773568685166538E-3   2.108007436618209E-3  
 2.254000000000000E10    2.460565418004990E-3   1.582516357302666E-3  
 2.256000000000000E10    1.215224736370146E-3  -2.483100397512317E-3  
 2.258000000000000E10   -2.380310557782650E-3  -9.780939435586333E-4  
 2.260000000000000E10   -6.839935667812824E-4   2.220671391114593E-3  
 2.262000000000000E10    2.536152256652713E-3   6.093823467381299E-4  
 2.264000000000000E10    4.307469062041491E-4  -2.593466080725193E-3  
 2.266000000000000E10   -2.570966258645058E-3  -1.684125600149855E-4  
 2.268000000000000E10    4.223380528856069E-4   2.633175114169717E-3  
 2.270000000000000E10    2.370237605646253E-3  -5.799679784104228E-4  
 2.272000000000000E10   -1.048604142852128E-3  -2.302449662238360E-3  
 2.274000000000000E10   -2.114788629114628E-3   1.196210505440831E-3  
 2.276000000000000E10    1.331557054072619E-3   1.788639347068965E-3  
 2.278000000000000E10    1.880526309832931E-3  -1.390228280797601E-3  
 2.280000000000000E10   -1.758694881573319E-3  -1.461231615394354E-3  
 2.282000000000000E10   -2.381555736064911E-3   4.697597469203174E-4  
 2.284000000000000E10    1.969328848645091E-3   1.311599044129252E-3  
 2.286000000000000E10    1.206002896651626E-3  -2.593644661828876E-3  
 2.288000000000000E10   -2.597059123218060E-3  -4.000369226559997E-4  
 2.290000000000000E10   -3.688418655656278E-4   2.334360964596272E-3  
 2.292000000000000E10    2.181332325562835E-3   2.042012056335807E-4  
 2.294000000000000E10    3.618373739300296E-5  -2.597931539639831E-3  
 2.296000000000000E10   -2.463057637214661E-3   2.844155824277550E-4  
 2.298000000000000E10    1.820802426664159E-4   2.313791774213314E-3  
 2.300000000000000E10    2.647657645866275E-3  -2.279025648022071E-4  
 2.302000000000000E10   -9.615397430025041E-4  -2.616615733131766E-3  
 2.304000000000000E10   -2.123629208654165E-3   1.179992570541799E-3  
 2.306000000000000E10    1.052482402883470E-3   2.265454269945622E-3  
 2.308000000000000E10    2.244501374661923E-3  -1.463949098251760E-3  
 2.310000000000000E10   -1.918573048897088E-3  -2.285722643136978E-3  
 2.312000000000000E10   -1.916721579618752E-3   1.914520282298327E-3  
 2.314000000000000E10    2.200689166784287E-3   1.517987460829318E-3  
 2.316000000000000E10    1.333587220869958E-3  -2.192297950387001E-3  
 2.318000000000000E10   -2.479427726939321E-3  -1.165249967016280E-3  
 2.320000000000000E10   -6.499026203528047E-4   2.279297448694706E-3  
 2.322000000000000E10    2.412814181298018E-3   3.776411176659167E-4  
 2.324000000000000E10    2.918608079198748E-4  -2.797602443024516E-3  
 2.326000000000000E10   -2.429556334391236E-3  -5.310850610840134E-5  
 2.328000000000000E10    3.637200861703605E-4   2.678329357877374E-3  
 2.330000000000000E10    2.534974133595824E-3  -8.693414856679738E-4  
 2.332000000000000E10   -1.093014725483954E-3  -2.249330282211304E-3  
 2.334000000000000E10   -2.151785651221871E-3   1.285037375055254E-3  
 2.336000000000000E10    1.405747723765671E-3   2.219100249931216E-3  
 2.338000000000000E10    2.079602563753724E-3  -1.713127596303821E-3  
 2.340000000000000E10   -1.995970262214541E-3  -1.890236861072481E-3  
 2.342000000000000E10   -1.509179710410535E-3   2.399826655164361E-3  
 2.344000000000000E10    2.615781035274267E-3   1.488626701757312E-3  
 2.346000000000000E10    1.202821149490774E-3  -2.773666055873036E-3  
 2.348000000000000E10   -2.987628104165196E-3  -6.210586871020496E-4  
 2.350000000000000E10   -6.121306214481592E-4   3.195171011611819E-3  
 2.352000000000000E10    3.278258722275496E-3   2.826159179676324E-4  
 2.354000000000000E10   -3.903931064996868E-4  -3.561452263966203E-3  
 2.356000000000000E10   -3.481127554550767E-3   1.103691989555955E-3  
 2.358000000000000E10    1.510082627646625E-3   3.192006377503276E-3  
 2.360000000000000E10    3.267502877861261E-3  -1.727059949189425E-3  
 2.362000000000000E10   -2.394854091107845E-3  -2.640863647684455E-3  
 2.364000000000000E10   -2.466010395437479E-3   2.738704206421971E-3  
 2.366000000000000E10    2.852443372830749E-3   1.965244999155402E-3  
 2.368000000000000E10    1.911695348098874E-3  -3.257000818848610E-3  
 2.370000000000000E10   -3.562034573405981E-3  -1.394155086018145E-3  
 2.372000000000000E10   -5.712608690373600E-4   3.884176956489682E-3  
 2.374000000000000E10    3.675885032862425E-3   1.399378088535741E-4  
 2.376000000000000E10   -1.881432108348236E-4  -3.983663860708475E-3  
 2.378000000000000E10   -3.999259788542986E-3   9.181448840536177E-4  
 2.380000000000000E10    1.459274091757834E-3   3.599736839532852E-3  
 2.382000000000000E10    3.428147872909904E-3  -2.063521416857839E-3  
 2.384000000000000E10   -2.550191245973110E-3  -3.344454104080796E-3  
 2.386000000000000E10   -2.731380984187126E-3   3.191347932443023E-3  
 2.388000000000000E10    2.966072410345078E-3   1.940904068760574E-3  
 2.390000000000000E10    1.719503430649638E-3  -3.326750360429287E-3  
 2.392000000000000E10   -3.470908384770155E-3  -1.424146816134453E-3  
 2.394000000000000E10   -5.113965598866344E-4   3.553949994966388E-3  
 2.396000000000000E10    3.639497794210911E-3  -2.328315022168681E-4  
 2.398000000000000E10   -6.593555444851518E-4  -3.504842519760132E-3  
 2.400000000000000E10   -3.156372811645269E-3   1.380030647851527E-3  
 2.402000000000000E10    1.879574963822961E-3   1.999003812670708E-3  
 2.404000000000000E10    1.615129294805229E-3  -2.136844210326672E-3  
 2.406000000000000E10   -2.140023047104478E-3  -1.816785661503673E-3  
 2.408000000000000E10   -1.187242101877928E-3   2.439708681777120E-3  
 2.410000000000000E10    2.334391232579947E-3   4.892754368484020E-4  
 2.412000000000000E10    6.553439307026565E-4  -2.374445553869009E-3  
 2.414000000000000E10   -2.307677874341607E-3  -3.799126425292343E-4  
 2.416000000000000E10    7.633462519152090E-5   2.119407989084721E-3  
 2.418000000000000E10    2.105400199070573E-3  -4.993941984139383E-4  
 2.420000000000000E10   -5.524244043044746E-4  -2.140895463526249E-3  
 2.422000000000000E10   -2.354977419599891E-3   6.522741168737412E-4  
 2.424000000000000E10    1.236580661498010E-3   2.025019144639373E-3  
 2.426000000000000E10    1.598853152245283E-3  -1.124904491007328E-3  
 2.428000000000000E10   -1.446326961740851E-3  -1.520947669632733E-3  
 2.430000000000000E10   -1.332705607637763E-3   1.460278755985200E-3  
 2.432000000000000E10    1.439850544556975E-3   1.017121598124504E-3  
 2.434000000000000E10    9.458138374611735E-4  -1.491051982156932E-3  
 2.436000000000000E10   -1.844592159613967E-3  -3.490101080387831E-4  
 2.438000000000000E10   -2.337022888241336E-4   1.407535281032324E-3  
 2.440000000000000E10    1.001984695903957E-3  -7.383686352113728E-6  
 2.442000000000000E10   -1.455038000131026E-4  -1.227865694090724E-3  
 2.444000000000000E10   -1.178184174932540E-3   2.212965628132224E-4  
 2.446000000000000E10    9.957692236639559E-5   1.201734994538128E-3  
 2.448000000000000E10    8.836158667691052E-4  -3.449716023169458E-4  
 2.450000000000000E10   -3.477818390820175E-4  -9.234406170435250E-4  
 2.452000000000000E10   -9.659698698669672E-4   4.561014939099550E-4  
 2.454000000000000E10    2.453944180160761E-4   6.733593763783574E-4  
 2.456000000000000E10    6.621405482292175E-4  -3.957779263146222E-4  
 2.458000000000000E10   -4.475481691770256E-4  -5.774413584731519E-4  
 2.460000000000000E10   -7.241086568683386E-4   3.415817045606673E-4  
 2.462000000000000E10    1.944144605658948E-4   4.137602227274329E-4  
 2.464000000000000E10   -2.914857032010332E-5  -2.805687836371362E-4  
 2.466000000000000E10   -2.475192377460189E-5  -2.608037029858679E-4  
 2.468000000000000E10   -2.406499697826803E-4  -5.733854777645320E-6  
 2.470000000000000E10   -1.022055585053749E-4  -5.867650543223135E-5  
 2.472000000000000E10   -4.892444394499762E-6   1.691473880782723E-5  
 2.474000000000000E10   -2.740754280239344E-4  -5.592154411715455E-5  
 2.476000000000000E10    4.985095438314602E-5  -1.177497542812489E-4  
 2.478000000000000E10    1.286307087866589E-4  -5.382398012443446E-5  
 2.480000000000000E10   -5.471766344271600E-4   6.384147854987532E-5  
 2.482000000000000E10   -1.182031246571569E-5   3.630180726759136E-4  
 2.484000000000000E10    3.787350142374635E-4   4.064089807798155E-5  
 2.486000000000000E10   -1.435829290130641E-5  -3.972387930843979E-4  
 2.488000000000000E10   -4.306967312004417E-4  -6.722682883264497E-6  
 2.490000000000000E10    6.389290501829237E-5   4.260964051354677E-4  
 2.492000000000000E10    2.910348121076822E-4   6.163432408357039E-5  
 2.494000000000000E10   -8.914084173738957E-5  -2.930529881268740E-4  
 2.496000000000000E10   -4.240266280248761E-4  -1.644346775719896E-4  
 2.498000000000000E10   -2.918393292929977E-4   2.615362463984639E-4  
 2.500000000000000E10    1.079457870218903E-4   2.166537597076967E-4  
 2.502000000000000E10    3.491440438665450E-4   1.239610428456217E-4  
 2.504000000000000E10   -1.812159316614270E-4  -5.240543978288770E-4  
 2.506000000000000E10   -2.159896394005045E-4   3.129114629700780E-4  
 2.508000000000000E10   -8.859860827215016E-5   4.778721195179969E-4  
 2.510000000000000E10    5.247215158306062E-4   2.780891663860530E-4  
 2.512000000000000E10    2.552905061747879E-5  -3.097260196227580E-4  
 2.514000000000000E10   -7.673181244172156E-4  -3.099847235716879E-4  
 2.516000000000000E10    1.600193063495681E-4   1.075682579539716E-3  
 2.518000000000000E10    7.310939254239202E-4  -1.227613101946190E-4  
 2.520000000000000E10   -3.078678564634174E-4  -8.504760917276144E-4  
 2.522000000000000E10   -6.042701425030828E-4   2.116805262630805E-4  
 2.524000000000000E10    5.314191803336144E-4   6.519336020573974E-4  
 2.526000000000000E10    5.944526055827737E-4  -9.249037248082459E-4  
 2.528000000000000E10   -7.619894458912313E-4  -3.943845513276756E-4  
 2.530000000000000E10   -4.755191039294004E-4   8.772099972702563E-4  
 2.532000000000000E10    8.260571630671620E-4   1.866299571702257E-4  
 2.534000000000000E10    1.422823061147938E-5  -5.578073905780911E-4  
 2.536000000000000E10   -6.002751179039478E-4  -3.368441248312593E-4  
 2.538000000000000E10   -2.376739430474117E-4   7.168133743107319E-4  
 2.540000000000000E10    8.340544882230461E-4  -1.221354032168165E-4  
 2.542000000000000E10    1.552199864818249E-5  -5.279463948681951E-4  
 2.544000000000000E10   -4.580431268550456E-4  -1.139630057878094E-5  
 2.546000000000000E10    1.991722092498094E-4   5.737136234529316E-4  
 2.548000000000000E10    5.402633687481284E-4  -1.779445738065988E-4  
 2.550000000000000E10   -7.882066711317748E-5  -9.068114013643935E-5  
 2.552000000000000E10   -6.065216148272157E-4   3.370776539668441E-4  
 2.554000000000000E10    5.670615355484188E-4   3.114767314400524E-4  
 2.556000000000000E10    1.104040566133335E-4  -1.222208375111222E-4  
 2.558000000000000E10   -4.044104134663940E-4  -4.195009241811931E-4  
 2.560000000000000E10   -8.355938189197332E-5   8.332385332323611E-4  
 2.562000000000000E10    6.162315839901567E-4  -1.321609306614846E-4  
 2.564000000000000E10    3.267719293944538E-4  -6.920961313880980E-4  
 2.566000000000000E10   -8.502291166223586E-4  -9.514897828921676E-5  
 2.568000000000000E10   -2.921508348663338E-5   9.662116062827408E-4  
 2.570000000000000E10    7.507950067520142E-4  -3.091171674896032E-4  
 2.572000000000000E10   -8.774675370659679E-5  -7.378360023722053E-4  
 2.574000000000000E10   -1.278694486245513E-3   1.167397931567393E-4  
 2.576000000000000E10    4.487887490540743E-4   9.647429105825722E-4  
 2.578000000000000E10    8.979713311418891E-4  -4.856914747506380E-4  
 2.580000000000000E10   -7.762078894302249E-4  -7.547487621195614E-4  
 2.582000000000000E10   -6.603862275369465E-4   8.786609978415072E-4  
 2.584000000000000E10    5.591072258539498E-4   5.160440341569483E-4  
 2.586000000000000E10    5.065406439825892E-4  -5.901250406168401E-4  
 2.588000000000000E10   -9.202955989167094E-4  -3.478931612335146E-4  
 2.590000000000000E10   -1.928482088260353E-4   9.199489722959697E-4  
 2.592000000000000E10    5.400563823059201E-4  -6.308166484814137E-5  
 2.594000000000000E10    1.542347599752247E-4  -5.843759281560779E-4  
 2.596000000000000E10   -6.555274594575167E-4  -1.423468056600541E-4  
 2.598000000000000E10   -9.877458069240674E-5   7.886464591138065E-4  
 2.600000000000000E10    8.974557276815176E-4  -1.140289168688469E-4  
 2.602000000000000E10   -4.469057603273541E-4  -8.993066148832440E-4  
 2.604000000000000E10   -1.291926018893719E-3   1.857213355833665E-4  
 2.606000000000000E10    1.279725256608799E-4   1.048795529641211E-3  
 2.608000000000000E10    7.260561105795205E-4  -5.944085423834622E-4  
 2.610000000000000E10   -4.717972478829324E-4  -6.379468250088394E-4  
 2.612000000000000E10   -8.809383143670857E-4   4.792603140231222E-4  
 2.614000000000000E10    4.942695959471166E-4   1.251523033715785E-3  
 2.616000000000000E10    9.724927367642522E-4  -7.754282560199499E-4  
 2.618000000000000E10   -6.420051795430481E-4  -5.185284535400569E-4  
 2.620000000000000E10   -1.039745402522385E-3   9.432543301954866E-4  
 2.622000000000000E10    8.701691403985024E-4   9.469435899518430E-4  
 2.624000000000000E10    8.710453403182328E-4  -8.705819491297007E-4  
 2.626000000000000E10   -1.082322676666081E-3  -7.825388456694782E-4  
 2.628000000000000E10   -1.739535364322364E-4   1.377232139930129E-3  
 2.630000000000000E10    1.603106968104839E-3   1.071898004738614E-4  
 2.632000000000000E10   -6.246557404665509E-6  -1.310339197516441E-3  
 2.634000000000000E10   -1.507428940385580E-3   9.764130663825199E-5  
 2.636000000000000E10    5.726871895603836E-4   1.757157966494560E-3  
 2.638000000000000E10    1.134697464294732E-3  -7.729255012236536E-4  
 2.640000000000000E10   -8.585792384110391E-4  -1.193899312056601E-3  
 2.642000000000000E10   -1.254948088899255E-3   1.296794274821878E-3  
 2.644000000000000E10    1.321379677392542E-3   1.379840425215662E-3  
 2.646000000000000E10    1.210375106893480E-3  -1.432880060747266E-3  
 2.648000000000000E10   -1.719575142487884E-3  -9.477400453761220E-4  
 2.650000000000000E10   -5.585047765634954E-4   2.273147460073233E-3  
 2.652000000000000E10    2.307660179212689E-3   3.901213349308819E-4  
 2.654000000000000E10   -5.532831346499734E-5  -2.383436542004347E-3  
 2.656000000000000E10   -2.326346002519131E-3   2.333856973564252E-4  
 2.658000000000000E10    5.265242070890963E-4   2.400058321654797E-3  
 2.660000000000000E10    2.198282396420836E-3  -9.654454188421369E-4  
 2.662000000000000E10   -1.004543504677713E-3  -2.147746738046408E-3  
 2.664000000000000E10   -1.889834529720247E-3   1.540958066470921E-3  
 2.666000000000000E10    1.754410099238157E-3   1.398078398779035E-3  
 2.668000000000000E10    1.142967725172639E-3  -1.840467914007604E-3  
 2.670000000000000E10   -1.790066598914564E-3  -9.957846486940980E-4  
 2.672000000000000E10   -8.017051150090993E-4   2.057971199974418E-3  
 2.674000000000000E10    1.985382987186313E-3   4.278385895304382E-4  
 2.676000000000000E10    1.268218911718577E-4  -2.033770550042391E-3  
 2.678000000000000E10   -2.096025971695781E-3   3.504786000121385E-4  
 2.680000000000000E10    3.170055861119181E-4   2.107734559103847E-3  
 2.682000000000000E10    2.050850074738264E-3  -7.846402004361153E-4  
 2.684000000000000E10   -9.908191859722138E-4  -1.974539132788777E-3  
 2.686000000000000E10   -1.630042213946581E-3   1.440698746591806E-3  
 2.688000000000000E10    1.843291916884482E-3   1.317582093179226E-3  
 2.690000000000000E10    1.131000579334796E-3  -2.006347291171551E-3  
 2.692000000000000E10   -1.823851140215993E-3  -9.239515638910234E-4  
 2.694000000000000E10   -6.652724114246666E-4   1.854142872616649E-3  
 2.696000000000000E10    2.041586674749851E-3   4.953577299602330E-4  
 2.698000000000000E10    3.372257924638689E-4  -2.158826217055321E-3  
 2.700000000000000E10   -2.081495244055986E-3   1.880998752312735E-4  
 2.702000000000000E10    3.044912591576576E-4   1.885759993456304E-3  
 2.704000000000000E10    1.846215920522809E-3  -8.073907229118049E-4  
 2.706000000000000E10   -8.798903436399996E-4  -1.673457561992109E-3  
 2.708000000000000E10   -1.573517918586731E-3   7.103774114511907E-4  
 2.710000000000000E10    1.173303229734302E-3   1.425404218025506E-3  
 2.712000000000000E10    1.191542716696858E-3  -1.266643637791276E-3  
 2.714000000000000E10   -1.370298094116151E-3  -9.383831638842821E-4  
 2.716000000000000E10   -6.526985089294612E-4   1.799162128008902E-3  
 2.718000000000000E10    1.609467668458819E-3   4.458321200218052E-4  
 2.720000000000000E10    7.751681550871581E-5  -1.842319034039974E-3  
 2.722000000000000E10   -1.783029525540769E-3  -1.917386980494484E-4  
 2.724000000000000E10   -1.110149532905780E-4   1.700807013548911E-3  
 2.726000000000000E10    1.844816608354449E-3  -4.080983926542103E-4  
 2.728000000000000E10   -7.397541776299477E-4  -1.624451950192452E-3  
 2.730000000000000E10   -1.512673567049205E-3   7.608244777657092E-4  
 2.732000000000000E10    1.016937778331339E-3   1.319020986557007E-3  
 2.734000000000000E10    1.327825593762100E-3  -9.373994544148445E-4  
 2.736000000000000E10   -1.226423075422645E-3  -1.111581455916166E-3  
 2.738000000000000E10   -7.117181667126715E-4   1.168530085124075E-3  
 2.740000000000000E10    1.274652779102325E-3   5.967922625131905E-4  
 2.742000000000000E10    3.172628348693252E-4  -1.323856995441020E-3  
 2.744000000000000E10   -1.104617607779801E-3  -5.675242209690623E-5  
 2.746000000000000E10   -9.124184725806117E-5   1.029818668030202E-3  
 2.748000000000000E10    1.067143282853067E-3  -1.114822589443065E-5  
 2.750000000000000E10   -2.935487136710435E-4  -8.695711148902774E-4  
 2.752000000000000E10   -9.177965694107115E-4   1.934077445184812E-4  
 2.754000000000000E10    6.207785918377340E-4   1.146498485468328E-3  
 2.756000000000000E10    8.289616671390832E-4  -5.315575981512666E-4  
