#  HZ   S   RI   R     50.00 
! Rohde & Schwarz ZVA40 4Ports - Version 3.90 - 1145.1110k42 SN: 100403
! Date: 2023-10-04 08:50:15
! Measurement: S12 
! 
 2.200000000000000E10   -7.982590468600392E-4   2.227554563432932E-3  
 2.202000000000000E10    2.431562403216958E-3   4.941492807120085E-4  
 2.204000000000000E10    1.251856447197497E-4  -2.410363871604204E-3  
 2.206000000000000E10   -2.328208647668362E-3   1.949061115738004E-4  
 2.208000000000000E10    4.493760934565216E-4   2.099960809573531E-3  
 2.210000000000000E10    1.712972298264504E-3  -5.684163770638406E-4  
 2.212000000000000E10   -5.005506682209671E-4  -1.921584247611463E-3  
 2.214000000000000E10   -1.811126829124987E-3   9.406275348737836E-4  
 2.216000000000000E10    1.246688654646277E-3   1.654132967814803E-3  
 2.218000000000000E10    1.465499983169138E-3  -1.193329691886902E-3  
 2.220000000000000E10   -1.319933100603521E-3  -1.078023924492300E-3  
 2.222000000000000E10   -9.106492507271469E-4   1.508900080807507E-3  
 2.224000000000000E10    1.471247407607734E-3   6.547070224769414E-4  
 2.226000000000000E10    3.176005266141146E-4  -1.370613812468946E-3  
 2.228000000000000E10   -1.440674532204866E-3  -3.480070736259222E-4  
 2.230000000000000E10   -2.768205595202744E-4   1.602397416718304E-3  
 2.232000000000000E10    1.552397035993636E-3   4.439677286427468E-4  
 2.234000000000000E10    3.198579070158303E-4  -1.370381331071258E-3  
 2.236000000000000E10   -1.588402665220201E-3  -2.179660368710756E-4  
 2.238000000000000E10   -3.359312540851533E-5   1.916878158226609E-3  
 2.240000000000000E10    1.952168880961835E-3  -2.414426853647456E-4  
 2.242000000000000E10   -9.539181337459013E-5  -1.800584141165018E-3  
 2.244000000000000E10   -1.928707468323410E-3   2.225809585070238E-4  
 2.246000000000000E10    3.742902481462807E-4   2.122892998158932E-3  
 2.248000000000000E10    2.125156577676535E-3  -7.630861364305019E-4  
 2.250000000000000E10   -6.118766032159329E-4  -1.942028175108135E-3  
 2.252000000000000E10   -1.829653745517135E-3   8.512521162629128E-4  
 2.254000000000000E10    1.210641465149820E-3   1.875842106528580E-3  
 2.256000000000000E10    1.594732631929219E-3  -1.473934622481465E-3  
 2.258000000000000E10   -1.462752232328057E-3  -1.502398285083473E-3  
 2.260000000000000E10   -1.334635075181723E-3   1.827708096243441E-3  
 2.262000000000000E10    1.810600631870329E-3   9.445690666325390E-4  
 2.264000000000000E10    7.909777923487127E-4  -2.135498914867640E-3  
 2.266000000000000E10   -2.040032995864749E-3  -6.848874618299305E-4  
 2.268000000000000E10   -4.633261414710432E-5   2.384734340012074E-3  
 2.270000000000000E10    2.484867582097650E-3  -3.166284295730293E-4  
 2.272000000000000E10   -1.206358574563637E-4  -2.047628397122026E-3  
 2.274000000000000E10   -2.209915546700358E-3   6.092581897974014E-4  
 2.276000000000000E10    8.358482737094164E-4   2.427632221952081E-3  
 2.278000000000000E10    1.888871425762773E-3  -1.156571321189404E-3  
 2.280000000000000E10   -9.934218833222985E-4  -1.960654277354479E-3  
 2.282000000000000E10   -2.243813360109925E-3  -4.432902496773750E-4  
 2.284000000000000E10    1.284947502426803E-3   1.683247275650501E-3  
 2.286000000000000E10    1.711337710730732E-3  -1.400159089826047E-3  
 2.288000000000000E10   -1.443282701075077E-3  -1.786288805305958E-3  
 2.290000000000000E10   -1.643425901420414E-3   2.079211175441742E-3  
 2.292000000000000E10    2.150563988834620E-3   1.323120202869177E-3  
 2.294000000000000E10    1.084432238712907E-3  -2.255266299471259E-3  
 2.296000000000000E10   -2.384538529440761E-3  -9.991474216803908E-4  
 2.298000000000000E10   -6.147879175841808E-4   2.609332092106342E-3  
 2.300000000000000E10    2.514715073630214E-3   1.456741592846811E-4  
 2.302000000000000E10    4.427577368915081E-4  -2.369838301092386E-3  
 2.304000000000000E10   -2.469856059178710E-3  -2.344206877751276E-4  
 2.306000000000000E10    6.930350791662931E-4   2.474304754287005E-3  
 2.308000000000000E10    2.236126223579049E-3  -8.047079318203032E-4  
 2.310000000000000E10   -9.013762464746833E-4  -2.480166265740991E-3  
 2.312000000000000E10   -2.214017324149609E-3   1.319663133472204E-3  
 2.314000000000000E10    1.480360748246312E-3   1.832859823480249E-3  
 2.316000000000000E10    1.649679383262992E-3  -1.785694039426744E-3  
 2.318000000000000E10   -1.977422041818500E-3  -1.614039414562285E-3  
 2.320000000000000E10   -1.499197795055807E-3   2.103084232658148E-3  
 2.322000000000000E10    2.077075187116861E-3   1.182357664220035E-3  
 2.324000000000000E10    1.276581897400320E-3  -2.287750598043203E-3  
 2.326000000000000E10   -2.828309545293450E-3  -8.613374666310847E-4  
 2.328000000000000E10   -3.175243327859789E-4   3.167010610923171E-3  
 2.330000000000000E10    2.999766031280160E-3  -5.095015148981474E-5  
 2.332000000000000E10   -3.770659677684307E-4  -2.741727977991104E-3  
 2.334000000000000E10   -2.907147863879800E-3   6.104201893322170E-4  
 2.336000000000000E10    1.023705583065748E-3   2.742514247074723E-3  
 2.338000000000000E10    2.673191716894507E-3  -1.364064635708928E-3  
 2.340000000000000E10   -1.561698853038251E-3  -2.745875855907798E-3  
 2.342000000000000E10   -2.570967888459563E-3   2.057975158095360E-3  
 2.344000000000000E10    2.289063297212124E-3   2.351834205910564E-3  
 2.346000000000000E10    2.226818120107055E-3  -2.860978478565812E-3  
 2.348000000000000E10   -3.112950595095754E-3  -1.699376502074301E-3  
 2.350000000000000E10   -1.349991769529879E-3   3.493307158350945E-3  
 2.352000000000000E10    3.602268872782588E-3   7.369979284703732E-4  
 2.354000000000000E10    2.775086031761020E-4  -3.769765375182033E-3  
 2.356000000000000E10   -3.900756128132343E-3   9.673494787421078E-5  
 2.358000000000000E10    4.944708198308945E-4   3.947083372622728E-3  
 2.360000000000000E10    3.697764826938510E-3  -1.195865101180971E-3  
 2.362000000000000E10   -1.457340316846967E-3  -3.403039649128914E-3  
 2.364000000000000E10   -3.571586916223168E-3   2.179106930270791E-3  
 2.366000000000000E10    2.853676909580827E-3   3.095848020166159E-3  
 2.368000000000000E10    2.490394981577992E-3  -3.175278427079320E-3  
 2.370000000000000E10   -3.291513072326779E-3  -2.098035998642445E-3  
 2.372000000000000E10   -1.590627245604992E-3   3.841175464913249E-3  
 2.374000000000000E10    4.041728097945452E-3   9.319124510511756E-4  
 2.376000000000000E10    7.931663276394829E-5  -3.971043508499861E-3  
 2.378000000000000E10   -3.824081504717469E-3   4.316651902627200E-4  
 2.380000000000000E10    1.033615320920944E-3   4.031914286315441E-3  
 2.382000000000000E10    3.609270788729191E-3  -1.729836803860962E-3  
 2.384000000000000E10   -2.631485695019364E-3  -2.914110664278269E-3  
 2.386000000000000E10   -2.776836743578315E-3   2.859620144590735E-3  
 2.388000000000000E10    3.072348190471530E-3   2.137835836037993E-3  
 2.390000000000000E10    1.556377741508186E-3  -3.018361050635576E-3  
 2.392000000000000E10   -3.413112368434668E-3  -1.053627929650247E-3  
 2.394000000000000E10   -7.276269025169313E-4   3.733665216714144E-3  
 2.396000000000000E10    3.570146393030882E-3  -2.288960677105933E-4  
 2.398000000000000E10   -6.476428243331611E-4  -3.079838119447231E-3  
 2.400000000000000E10   -2.817945554852486E-3   9.848418412730098E-4  
 2.402000000000000E10    1.547816093079746E-3   2.769610146060586E-3  
 2.404000000000000E10    2.334573771804571E-3  -2.006208058446646E-3  
 2.406000000000000E10   -2.743505174294114E-3  -1.635859953239560E-3  
 2.408000000000000E10   -1.171768759377301E-3   2.527521923184395E-3  
 2.410000000000000E10    2.217715838924050E-3   9.713149629533291E-4  
 2.412000000000000E10    6.042136228643358E-4  -2.531929407268763E-3  
 2.414000000000000E10   -2.257514744997025E-3  -4.912014119327068E-4  
 2.416000000000000E10   -2.262422931380570E-4   2.338301390409470E-3  
 2.418000000000000E10    2.196283079683781E-3  -2.052740892395377E-4  
 2.420000000000000E10   -3.202413208782673E-4  -1.866224454715848E-3  
 2.422000000000000E10   -1.861323602497578E-3   5.802766536362469E-4  
 2.424000000000000E10    7.738312124274671E-4   1.611481187865138E-3  
 2.426000000000000E10    1.269213273189962E-3  -4.847438540309668E-4  
 2.428000000000000E10   -4.533531609922648E-4  -1.262559671886265E-3  
 2.430000000000000E10   -1.425538677722216E-3   4.348395450506359E-4  
 2.432000000000000E10    8.876970969140530E-4   1.321908668614924E-3  
 2.434000000000000E10    6.635327590629458E-4  -9.661433869041503E-4  
 2.436000000000000E10   -6.967664230614901E-4  -8.448664448224008E-4  
 2.438000000000000E10   -5.867701256647706E-4   9.058166178874672E-4  
 2.440000000000000E10    7.997275679372251E-4   1.665041781961918E-4  
 2.442000000000000E10    4.890066338703036E-4  -9.744107373990119E-4  
 2.444000000000000E10   -1.079738489352167E-3   3.935488057322800E-4  
 2.446000000000000E10    5.016761715523899E-4   5.196286365389824E-4  
 2.448000000000000E10    5.568304914049804E-4  -3.303745179437101E-4  
 2.450000000000000E10   -4.823604831472039E-4  -5.246298387646675E-4  
 2.452000000000000E10   -4.044972592964768E-4   5.425505223684013E-4  
 2.454000000000000E10    5.754622397944331E-4   4.225018492434174E-4  
 2.456000000000000E10    1.337083376711235E-4  -5.449239979498088E-4  
 2.458000000000000E10   -4.413492279127240E-4  -4.782320684171282E-5  
 2.460000000000000E10   -2.187097124988213E-4   4.177649097982794E-4  
 2.462000000000000E10    5.721205161535181E-5   3.333597560413182E-4  
 2.464000000000000E10    4.336032725404948E-4  -1.943448587553576E-4  
 2.466000000000000E10   -1.512212911620736E-4  -1.304200559388846E-4  
 2.468000000000000E10   -3.254295370425098E-5   1.639379042899236E-4  
 2.470000000000000E10    3.747810114873573E-5   3.520080354064703E-4  
 2.472000000000000E10    2.877252991311252E-4   2.430120512144640E-4  
 2.474000000000000E10   -7.325280603254214E-5  -1.575609494466335E-4  
 2.476000000000000E10   -3.984503564424813E-4   2.711786364670843E-4  
 2.478000000000000E10    3.857821575365961E-4   6.021620938554406E-4  
 2.480000000000000E10    5.560948920901865E-5  -3.098491870332509E-4  
 2.482000000000000E10   -3.020036965608597E-4   1.361965260002762E-4  
 2.484000000000000E10   -3.558830358088017E-4   8.724580402486026E-5  
 2.486000000000000E10    3.676050109788775E-4   1.250180794158950E-4  
 2.488000000000000E10    4.263218215783127E-5  -3.891441447194666E-4  
 2.490000000000000E10   -3.909395891241729E-4   7.245570304803550E-5  
 2.492000000000000E10   -2.011654723901302E-4   4.318075370974839E-4  
 2.494000000000000E10    5.093914223834872E-4   3.576560702640563E-4  
 2.496000000000000E10    2.555694081820548E-4  -7.737602572888136E-4  
 2.498000000000000E10   -9.196354658342898E-4   1.066483237082139E-4  
 2.500000000000000E10    1.423871872248128E-4   4.560802190098912E-4  
 2.502000000000000E10    5.339567433111370E-4   3.723724803421646E-4  
 2.504000000000000E10    4.107040294911712E-4  -5.990365170873702E-4  
 2.506000000000000E10   -7.239205879159272E-4  -3.877521085087210E-4  
 2.508000000000000E10   -3.551929839886725E-4   6.529990932904184E-4  
 2.510000000000000E10    8.224351331591606E-4   4.912561271339655E-4  
 2.512000000000000E10    3.157366008963436E-4  -6.847227923572063E-4  
 2.514000000000000E10   -7.878923206590116E-4  -2.991888613905758E-4  
 2.516000000000000E10   -3.484504995867610E-4   5.561322323046625E-4  
 2.518000000000000E10    8.874614723026753E-4   3.706839925143868E-4  
 2.520000000000000E10   -1.399701432092115E-5  -4.967960412614048E-4  
 2.522000000000000E10   -4.340350860729814E-4  -2.674980496522039E-4  
 2.524000000000000E10   -1.826752122724429E-4   7.042789366096258E-4  
 2.526000000000000E10    7.953313761390746E-4  -2.718706964515150E-4  
 2.528000000000000E10   -1.595363573869690E-4  -6.105931242927909E-4  
 2.530000000000000E10   -5.752255674451590E-4   4.453227447811514E-4  
 2.532000000000000E10    7.573384209536016E-4   3.856485418509692E-4  
 2.534000000000000E10    1.745749177644029E-4  -7.364184129983187E-4  
 2.536000000000000E10   -8.153864764608443E-4   2.192229294450954E-4  
 2.538000000000000E10   -1.118208365369355E-5   4.188201855868101E-4  
 2.540000000000000E10    8.526219171471894E-4  -3.790077971643768E-5  
 2.542000000000000E10   -5.927626625634730E-4  -7.247503381222487E-4  
 2.544000000000000E10   -5.665528587996960E-4   3.341442497912794E-4  
 2.546000000000000E10    4.872417484875768E-4   5.724792135879397E-4  
 2.548000000000000E10    4.300585715100169E-4  -5.903163109906018E-4  
 2.550000000000000E10   -2.346245746593922E-4  -5.168041097931564E-4  
 2.552000000000000E10   -5.238324520178139E-4   3.947720688302070E-4  
 2.554000000000000E10    4.354383563622832E-4   6.439488497562707E-4  
 2.556000000000000E10    2.820854715537280E-4  -9.730951860547066E-4  
 2.558000000000000E10   -4.451064160093665E-4  -1.835985021898523E-4  
 2.560000000000000E10   -4.472363798413426E-4   4.318779392633587E-4  
 2.562000000000000E10    5.772052682004869E-4   3.624656528700143E-4  
 2.564000000000000E10    3.000508295372129E-4  -1.078618457540870E-3  
 2.566000000000000E10   -1.068965881131589E-3  -3.845975443255156E-4  
 2.568000000000000E10   -9.184623922919855E-5   1.198397949337959E-3  
 2.570000000000000E10    9.288049768656492E-4  -1.497700577601790E-4  
 2.572000000000000E10    5.172592409508070E-6  -6.387869361788034E-4  
 2.574000000000000E10   -9.515473502688110E-4  -2.398287142568734E-5  
 2.576000000000000E10    1.878985494840890E-4   1.117741339839995E-3  
 2.578000000000000E10    8.244737400673330E-4  -3.574193688109517E-4  
 2.580000000000000E10   -2.164199104299769E-4  -8.546663448214531E-4  
 2.582000000000000E10   -8.568809716962278E-4   2.727115934249014E-4  
 2.584000000000000E10    5.865398561581969E-4   1.158035942353308E-3  
 2.586000000000000E10    8.175249095074832E-4  -8.757702889852226E-4  
 2.588000000000000E10   -6.385341985151172E-4  -6.386841996572912E-4  
 2.590000000000000E10   -4.394068382680416E-4   9.004888706840575E-4  
 2.592000000000000E10    8.412796887569130E-4   4.476150206755847E-4  
 2.594000000000000E10    5.427996511571109E-4  -8.773688459768891E-4  
 2.596000000000000E10   -8.211108506657183E-4  -2.727714017964900E-4  
 2.598000000000000E10   -2.177112037315965E-6   1.216119504533708E-3  
 2.600000000000000E10    6.879377178847790E-4  -1.160139363491908E-4  
 2.602000000000000E10    1.441791118850233E-5  -1.142060267738998E-3  
 2.604000000000000E10   -8.487979648634791E-4   2.991841756738722E-4  
 2.606000000000000E10    2.875298087019473E-4   1.154851634055376E-3  
 2.608000000000000E10    8.640566375106573E-4  -3.359610855113715E-4  
 2.610000000000000E10   -4.608497547451407E-4  -6.899562431499362E-4  
 2.612000000000000E10   -6.008166819810867E-4   4.248350160196424E-4  
 2.614000000000000E10    2.609587681945413E-4   1.229090034030378E-3  
 2.616000000000000E10    1.187392161227763E-3  -7.796191493980587E-4  
 2.618000000000000E10   -1.175978104583919E-3  -1.029998180456460E-3  
 2.620000000000000E10   -6.924496847204864E-4   1.146937487646937E-3  
 2.622000000000000E10    1.094726845622063E-3   7.190952310338616E-4  
 2.624000000000000E10    7.876234012655914E-4  -1.553659792989492E-3  
 2.626000000000000E10   -1.158617087639868E-3  -3.854878887068480E-4  
 2.628000000000000E10   -3.941544855479151E-4   1.491045346483588E-3  
 2.630000000000000E10    1.807905500754714E-3   9.637192852096632E-5  
 2.632000000000000E10   -3.075099957641214E-4  -1.747683854773641E-3  
 2.634000000000000E10   -1.461257808841765E-3   4.588021838571876E-4  
 2.636000000000000E10    5.259722820483148E-4   1.388877280987799E-3  
 2.638000000000000E10    1.798578887246549E-3  -7.319748401641846E-4  
 2.640000000000000E10   -1.205034670419991E-3  -1.686474075540900E-3  
 2.642000000000000E10   -1.366448123008013E-3   1.091490034013987E-3  
 2.644000000000000E10    1.662912894971669E-3   1.472498755902052E-3  
 2.646000000000000E10    1.229081419296563E-3  -1.652616309002042E-3  
 2.648000000000000E10   -1.396039035171270E-3  -9.691571467556059E-4  
 2.650000000000000E10   -1.064761541783810E-3   2.061906270682812E-3  
 2.652000000000000E10    2.516679698601365E-3   7.856083684600890E-4  
 2.654000000000000E10    2.898768252634909E-5  -2.712908899411559E-3  
 2.656000000000000E10   -2.514940686523914E-3   4.454164009075612E-4  
 2.658000000000000E10    4.621635307557881E-4   2.169223036617041E-3  
 2.660000000000000E10    2.284585498273373E-3  -9.574258001521230E-4  
 2.662000000000000E10   -1.224610954523087E-3  -1.770343165844679E-3  
 2.664000000000000E10   -1.772680901922286E-3   1.459273626096547E-3  
 2.666000000000000E10    1.836298848502338E-3   1.566384802572429E-3  
 2.668000000000000E10    1.160667045041919E-3  -2.020827494561672E-3  
 2.670000000000000E10   -2.024526474997401E-3  -4.848561657126993E-4  
 2.672000000000000E10   -2.915082150138915E-4   1.973887206986547E-3  
 2.674000000000000E10    1.916278502903879E-3   2.136116527253762E-4  
 2.676000000000000E10   -1.485842803958803E-4  -1.909877406433225E-3  
 2.678000000000000E10   -2.103397157043219E-3   4.610770556610078E-4  
 2.680000000000000E10    9.032433736138046E-4   1.964576076716185E-3  
 2.682000000000000E10    2.014664234593511E-3  -1.202581916004419E-3  
 2.684000000000000E10   -1.405648072250187E-3  -1.822864753194153E-3  
 2.686000000000000E10   -1.551641384139657E-3   1.689165481366217E-3  
 2.688000000000000E10    1.518281176686287E-3   1.286811078898609E-3  
 2.690000000000000E10    1.243638456799090E-3  -1.882252981886268E-3  
 2.692000000000000E10   -2.180250128731132E-3  -9.882635204121471E-4  
 2.694000000000000E10   -7.466009701602161E-4   1.968901604413986E-3  
 2.696000000000000E10    2.117969561368227E-3   4.534130566753447E-4  
 2.698000000000000E10    3.737763909157366E-4  -1.934688421897590E-3  
 2.700000000000000E10   -1.859660260379314E-3  -1.148462033597753E-4  
 2.702000000000000E10    3.796586534008384E-4   1.944564515724778E-3  
 2.704000000000000E10    1.778207486495376E-3  -4.898684564977884E-4  
 2.706000000000000E10   -7.151039317250252E-4  -1.636161701753736E-3  
 2.708000000000000E10   -1.356700086034834E-3   8.241210016421974E-4  
 2.710000000000000E10    8.751397836022079E-4   1.041674753651023E-3  
 2.712000000000000E10    9.576791198924184E-4  -1.362808048725128E-3  
 2.714000000000000E10   -1.262480393052101E-3  -6.044362671673298E-4  
 2.716000000000000E10   -5.230911774560809E-4   1.416292856447399E-3  
 2.718000000000000E10    1.510817091912031E-3   2.324591769138351E-4  
 2.720000000000000E10    5.549989145947620E-5  -1.487492583692074E-3  
 2.722000000000000E10   -1.612427295185626E-3   1.321363015449606E-5  
 2.724000000000000E10    4.998957156203687E-4   1.376857166178525E-3  
 2.726000000000000E10    1.452585565857589E-3  -6.122582126408815E-4  
 2.728000000000000E10   -6.388238398358226E-4  -1.605923520401120E-3  
 2.730000000000000E10   -1.632705214433372E-3   9.219177300110459E-4  
 2.732000000000000E10    8.514208020642400E-4   1.476466422900558E-3  
 2.734000000000000E10    1.255484181456268E-3  -1.233201939612627E-3  
 2.736000000000000E10   -1.130177523009479E-3  -9.350856998935342E-4  
 2.738000000000000E10   -8.716827724128962E-4   1.130111864767969E-3  
 2.740000000000000E10    1.201996346935630E-3   4.401545156724751E-4  
 2.742000000000000E10    2.845594426617026E-4  -1.168822520412505E-3  
 2.744000000000000E10   -1.162790227681398E-3  -2.479823015164584E-4  
 2.746000000000000E10    3.418727283133194E-5   1.026529003866017E-3  
 2.748000000000000E10    8.688874077051878E-4  -2.362501982133836E-4  
 2.750000000000000E10   -2.249777899123728E-4  -1.019019167870283E-3  
 2.752000000000000E10   -8.670911774970591E-4   5.647261859849095E-4  
 2.754000000000000E10    5.642813048325479E-4   7.073021843098104E-4  
 2.756000000000000E10    9.176114108413458E-4  -7.760580047033727E-4  
