#  HZ   S   RI   R     50.00 
! Rohde & Schwarz ZVA40 4Ports - Version 3.90 - 1145.1110k42 SN: 100403
! Date: 2023-10-04 08:50:39
! Measurement: S12 
! 
 2.200000000000000E10   -7.551112212240696E-4   1.826528925448656E-3  
 2.202000000000000E10    1.800577854737639E-3   3.274202754255384E-4  
 2.204000000000000E10    1.832487905630842E-4  -2.164023229852319E-3  
 2.206000000000000E10   -1.942456816323102E-3   3.443014065851457E-5  
 2.208000000000000E10    2.559848071541637E-4   1.760369166731834E-3  
 2.210000000000000E10    1.960107823833823E-3  -3.685476840473712E-4  
 2.212000000000000E10   -7.648575701750815E-4  -1.705850241705775E-3  
 2.214000000000000E10   -1.652802457101643E-3   8.143722079694271E-4  
 2.216000000000000E10    9.206788381561637E-4   1.556465867906809E-3  
 2.218000000000000E10    1.213006442412734E-3  -1.033975277096033E-3  
 2.220000000000000E10   -1.034190412610769E-3  -1.334114233031869E-3  
 2.222000000000000E10   -1.123405643738806E-3   1.016138354316354E-3  
 2.224000000000000E10    1.386941643431783E-3   1.201792270876467E-3  
 2.226000000000000E10    7.153531769290566E-4  -1.334204920567572E-3  
 2.228000000000000E10   -1.001142198219895E-3  -6.523531046696007E-4  
 2.230000000000000E10   -7.848912500776351E-4   1.314096851274371E-3  
 2.232000000000000E10    1.265963539481163E-3   7.778679719194770E-4  
 2.234000000000000E10    6.784378783777356E-4  -9.191814460791647E-4  
 2.236000000000000E10   -1.340297632850707E-3  -5.638454458676279E-4  
 2.238000000000000E10   -6.791820633225143E-4   1.347364857792854E-3  
 2.240000000000000E10    1.405743067152798E-3   2.023663546424359E-4  
 2.242000000000000E10    2.661132602952421E-4  -1.563864992931485E-3  
 2.244000000000000E10   -1.608491758815944E-3  -1.388904056511819E-4  
 2.246000000000000E10    1.373264094581828E-4   1.691977144218981E-3  
 2.248000000000000E10    1.553606474772096E-3  -2.470232720952481E-4  
 2.250000000000000E10   -2.723768993746489E-4  -1.384178292937577E-3  
 2.252000000000000E10   -1.504432177171111E-3   5.522106657736003E-4  
 2.254000000000000E10    5.666532088071108E-4   1.371714635752142E-3  
 2.256000000000000E10    1.554170623421669E-3  -1.007612096145749E-3  
 2.258000000000000E10   -9.749461314640939E-4  -1.150071620941162E-3  
 2.260000000000000E10   -1.278997398912907E-3   8.640444139018655E-4  
 2.262000000000000E10    1.556726871058345E-3   1.296936301514506E-3  
 2.264000000000000E10    1.401276676915586E-3  -1.732066273689270E-3  
 2.266000000000000E10   -2.031544456258416E-3  -1.106915995478630E-3  
 2.268000000000000E10   -7.959509384818375E-4   2.278939355164766E-3  
 2.270000000000000E10    2.411697059869766E-3   5.047799786552787E-4  
 2.272000000000000E10    3.276098577771336E-4  -2.459301147609949E-3  
 2.274000000000000E10   -2.341063460335136E-3  -3.254426992498338E-4  
 2.276000000000000E10    9.934177069226280E-5   2.571294084191322E-3  
 2.278000000000000E10    2.460328862071037E-3  -5.596603150479496E-4  
 2.280000000000000E10   -4.871935525443405E-4  -2.223092364147306E-3  
 2.282000000000000E10   -2.051124814897776E-3  -8.018094231374562E-4  
 2.284000000000000E10    1.065643853507936E-3   2.431055065244436E-3  
 2.286000000000000E10    2.057384699583054E-3  -1.549003180116415E-3  
 2.288000000000000E10   -1.392504433169961E-3  -1.605694182217121E-3  
 2.290000000000000E10   -1.545660663396120E-3   1.525423373095691E-3  
 2.292000000000000E10    1.810985268093646E-3   1.393027021549642E-3  
 2.294000000000000E10    9.675095789134502E-4  -1.960315043106675E-3  
 2.296000000000000E10   -1.967906020581722E-3  -9.754021884873509E-4  
 2.298000000000000E10   -8.616357808932662E-4   2.274919534102082E-3  
 2.300000000000000E10    2.508437493816018E-3   3.675021289382130E-4  
 2.302000000000000E10    1.086354313883930E-4  -2.146708080545068E-3  
 2.304000000000000E10   -2.513653831556439E-3   9.451538790017366E-5  
 2.306000000000000E10    4.912698641419411E-4   2.560525434091687E-3  
 2.308000000000000E10    2.523426432162523E-3  -7.843166240490973E-4  
 2.310000000000000E10   -9.000271675176919E-4  -2.481874311342835E-3  
 2.312000000000000E10   -2.811615355312824E-3   1.130167627707124E-3  
 2.314000000000000E10    1.684269169345498E-3   2.459628041833639E-3  
 2.316000000000000E10    2.115445910021663E-3  -2.014292404055595E-3  
 2.318000000000000E10   -2.147700870409608E-3  -2.042648149654269E-3  
 2.320000000000000E10   -1.976858358830214E-3   2.580816159024835E-3  
 2.322000000000000E10    2.872850280255079E-3   1.355180982500315E-3  
 2.324000000000000E10    1.167819136753678E-3  -2.977396361529827E-3  
 2.326000000000000E10   -2.971021691337228E-3  -1.124313101172447E-3  
 2.328000000000000E10   -8.487856248393655E-4   3.153578378260136E-3  
 2.330000000000000E10    3.199928905814886E-3   2.181476447731257E-4  
 2.332000000000000E10    8.257776789832860E-5  -3.146743634715676E-3  
 2.334000000000000E10   -3.198335412889719E-3   3.575520531740040E-4  
 2.336000000000000E10    9.348959429189563E-4   3.225486725568771E-3  
 2.338000000000000E10    3.174127079546452E-3  -1.186458161100745E-3  
 2.340000000000000E10   -1.608036807738245E-3  -2.749365288764238E-3  
 2.342000000000000E10   -2.854063874110580E-3   2.027051523327828E-3  
 2.344000000000000E10    2.542639384046197E-3   2.875721780583262E-3  
 2.346000000000000E10    2.324652392417193E-3  -2.933811163529754E-3  
 2.348000000000000E10   -3.287835745140910E-3  -1.680545392446220E-3  
 2.350000000000000E10   -1.345876837149262E-3   3.562335157766938E-3  
 2.352000000000000E10    4.013397730886936E-3   9.354120120406151E-4  
 2.354000000000000E10    2.419413940515369E-4  -3.823603736236692E-3  
 2.356000000000000E10   -3.947770223021507E-3   4.468254046514630E-4  
 2.358000000000000E10    6.276112399064004E-4   4.114586394280195E-3  
 2.360000000000000E10    4.320786334574223E-3  -1.715470105409622E-3  
 2.362000000000000E10   -2.208683406934142E-3  -3.591842250898480E-3  
 2.364000000000000E10   -3.244356717914343E-3   2.957489341497421E-3  
 2.366000000000000E10    3.174900542944670E-3   2.582781482487917E-3  
 2.368000000000000E10    2.339785918593407E-3  -3.585089929401875E-3  
 2.370000000000000E10   -3.758435603231192E-3  -1.596854301169515E-3  
 2.372000000000000E10   -1.041946816258133E-3   4.057263024151325E-3  
 2.374000000000000E10    4.439884796738625E-3   3.435917606111616E-4  
 2.376000000000000E10   -5.383443785831332E-4  -4.509093705564737E-3  
 2.378000000000000E10   -4.036101512610912E-3   1.407913630828261E-3  
 2.380000000000000E10    1.956614200025797E-3   3.817219519987702E-3  
 2.382000000000000E10    3.589659929275513E-3  -2.595392987132072E-3  
 2.384000000000000E10   -2.857276936993003E-3  -3.103554481640458E-3  
 2.386000000000000E10   -2.588814124464989E-3   3.126719500869513E-3  
 2.388000000000000E10    3.669854486361146E-3   1.910758554004133E-3  
 2.390000000000000E10    1.615173416212201E-3  -3.692572470754385E-3  
 2.392000000000000E10   -3.920187707990408E-3  -6.189800333231688E-4  
 2.394000000000000E10   -5.548443004954606E-5   3.581986064091325E-3  
 2.396000000000000E10    3.166779642924666E-3  -3.713408659677953E-4  
 2.398000000000000E10   -7.205395959317684E-4  -3.204468172043562E-3  
 2.400000000000000E10   -2.789110178127885E-3   1.251968205906451E-3  
 2.402000000000000E10    1.534912385977805E-3   2.354662399739027E-3  
 2.404000000000000E10    1.882138662040234E-3  -1.920270500704646E-3  
 2.406000000000000E10   -1.945027033798397E-3  -1.282271347008646E-3  
 2.408000000000000E10   -8.512189378961921E-4   2.164535457268357E-3  
 2.410000000000000E10    1.897860318422318E-3   9.430389036424458E-4  
 2.412000000000000E10    7.199869141913950E-4  -1.820774399675429E-3  
 2.414000000000000E10   -1.880733994767070E-3  -6.839443085482344E-5  
 2.416000000000000E10    8.972648356575519E-5   1.793165574781597E-3  
 2.418000000000000E10    1.601696130819619E-3  -6.039764775778167E-5  
 2.420000000000000E10   -6.209122366271913E-4  -1.555037568323314E-3  
 2.422000000000000E10   -1.539954915642738E-3   5.460596294142306E-4  
 2.424000000000000E10    9.137620218098164E-4   1.371014863252640E-3  
 2.426000000000000E10    1.076734275557101E-3  -8.830189472064376E-4  
 2.428000000000000E10   -7.794734556227922E-4  -9.094410343095660E-4  
 2.430000000000000E10   -1.156332204118371E-3   9.733456536196172E-4  
 2.432000000000000E10    1.134869176894426E-3   7.456112070940435E-4  
 2.434000000000000E10    6.870806100778282E-4  -1.141714747063816E-3  
 2.436000000000000E10   -1.221810001879931E-3  -1.348582300124690E-4  
 2.438000000000000E10   -3.209873102605343E-4   1.092492253519595E-3  
 2.440000000000000E10    1.080164220184088E-3   3.860697688651271E-5  
 2.442000000000000E10   -3.210483118891716E-4  -8.301830384880304E-4  
 2.444000000000000E10   -7.568521541543305E-4   1.255052484339103E-4  
 2.446000000000000E10    1.351411192445085E-4   9.288190631195903E-4  
 2.448000000000000E10    7.153858314268291E-4  -5.324814119376242E-4  
 2.450000000000000E10   -2.360825455980375E-4  -3.419928252696991E-4  
 2.452000000000000E10   -4.285745962988585E-4   3.047838981729001E-4  
 2.454000000000000E10    1.816564326873049E-4   5.642624455504119E-4  
 2.456000000000000E10    2.550808712840080E-4  -2.026365546043962E-4  
 2.458000000000000E10   -2.932733332272619E-5  -5.097587709315121E-4  
 2.460000000000000E10   -6.352956406772137E-4   1.277756236959249E-4  
 2.462000000000000E10    2.103346923831850E-4   6.041764281690121E-4  
 2.464000000000000E10    2.908802416641265E-4   1.645062438910827E-4  
 2.466000000000000E10    2.859949599951506E-4  -5.082897259853780E-4  
 2.468000000000000E10   -5.979510024189949E-4  -1.576083741383627E-4  
 2.470000000000000E10   -7.746036862954497E-5   5.387087003327906E-4  
 2.472000000000000E10    6.183545337989926E-4   4.299720458220691E-4  
 2.474000000000000E10   -3.065092460019514E-5  -8.950536721386015E-4  
 2.476000000000000E10   -2.595379191916436E-4   2.006854629144073E-4  
 2.478000000000000E10   -1.988477015402168E-4   5.409066798165441E-4  
 2.480000000000000E10    3.994195431005210E-4   2.357901685172692E-4  
 2.482000000000000E10    1.503781386418268E-4  -4.493069718591869E-4  
 2.484000000000000E10   -4.239991249050945E-4  -1.161384352599271E-4  
 2.486000000000000E10    5.385241092881188E-5   5.146925686858594E-4  
 2.488000000000000E10    2.515048254281282E-4  -1.616524095879868E-4  
 2.490000000000000E10   -6.188538918650011E-6  -3.410325443837792E-4  
 2.492000000000000E10   -3.494730044621974E-4   2.544448361732066E-4  
 2.494000000000000E10    4.131968598812819E-4   4.493297019507736E-4  
 2.496000000000000E10    1.619611430214718E-4  -4.443041980266571E-4  
 2.498000000000000E10   -2.393204631516710E-4  -1.792220718925819E-4  
 2.500000000000000E10   -1.694909587968141E-4   4.295109538361430E-4  
 2.502000000000000E10    6.190735148265958E-4   3.752346965484321E-4  
 2.504000000000000E10    1.380914764013141E-4  -4.032881988678128E-4  
 2.506000000000000E10   -3.252838505432010E-4   1.657555112615228E-4  
 2.508000000000000E10   -7.579811790492386E-5   1.304667530348525E-4  
 2.510000000000000E10    3.118133754469454E-4   1.155809368356131E-4  
 2.512000000000000E10    5.548339686356485E-5  -3.017358249053359E-4  
 2.514000000000000E10   -6.263212999328971E-4  -2.531607460696250E-4  
 2.516000000000000E10    1.160293613793328E-4   3.684866533149034E-4  
 2.518000000000000E10    4.945793771184981E-4   1.020890631480143E-4  
 2.520000000000000E10    1.341258175671101E-4  -5.232707480899990E-4  
 2.522000000000000E10   -3.961475158575922E-4   3.565380175132304E-4  
 2.524000000000000E10    3.490700910333544E-4   3.536497533787042E-4  
 2.526000000000000E10    5.126448231749237E-4  -4.507128614932299E-4  
 2.528000000000000E10   -5.748636322095990E-4  -5.399728543125093E-4  
 2.530000000000000E10   -2.473802887834609E-4   6.439185235649347E-4  
 2.532000000000000E10    9.936781134456396E-4   6.012610392645001E-4  
 2.534000000000000E10    4.612566262949258E-4  -1.118405605666339E-3  
 2.536000000000000E10   -1.075510052032769E-3  -2.260346809634939E-4  
 2.538000000000000E10    1.226582680828869E-4   1.113748294301331E-3  
 2.540000000000000E10    1.206823741085827E-3   1.510002039140090E-5  
 2.542000000000000E10   -9.361882257508114E-5  -1.283273450098932E-3  
 2.544000000000000E10   -1.174152130261064E-3   5.110532511025667E-4  
 2.546000000000000E10    4.397318116389215E-4   1.126845483668149E-3  
 2.548000000000000E10    1.289261388592422E-3  -3.713025362230837E-4  
 2.550000000000000E10   -5.610890802927315E-4  -8.386908448301256E-4  
 2.552000000000000E10   -9.075814741663635E-4   6.773116183467209E-4  
 2.554000000000000E10    4.732496163342148E-4   8.309429977089167E-4  
 2.556000000000000E10    7.795391720719636E-4  -4.481334181036800E-4  
 2.558000000000000E10   -5.966181633993983E-4  -7.183959241956472E-4  
 2.560000000000000E10   -4.923466476611793E-4   7.226037560030818E-4  
 2.562000000000000E10    5.588927888311446E-4   2.694254217203707E-4  
 2.564000000000000E10    2.218350709881634E-4  -7.135337218642235E-4  
 2.566000000000000E10   -7.969524594955146E-4  -1.060352442436852E-4  
 2.568000000000000E10   -2.836551284417510E-4   5.581325385719538E-4  
 2.570000000000000E10    6.941125029698014E-4   1.227234679390676E-5  
 2.572000000000000E10   -1.338797592325136E-4  -5.787939298897982E-4  
 2.574000000000000E10   -6.465435726568103E-4   1.024087905534543E-4  
 2.576000000000000E10    2.001742250286043E-4   7.374983397312462E-4  
 2.578000000000000E10    6.554163410328329E-4  -3.778603568207473E-4  
 2.580000000000000E10   -3.042271418962628E-4  -8.055068319663405E-4  
 2.582000000000000E10   -7.999211084097624E-4   6.722190883010626E-4  
 2.584000000000000E10    6.458905409090221E-4   7.344440673477948E-4  
 2.586000000000000E10    5.172436358407140E-4  -9.162849746644497E-4  
 2.588000000000000E10   -9.387537138536573E-4  -7.020212360657752E-4  
 2.590000000000000E10   -4.639933758880943E-4   1.009485451504588E-3  
 2.592000000000000E10    9.759432286955416E-4   3.027172642759979E-4  
 2.594000000000000E10    4.136189818382263E-4  -9.826140012592077E-4  
 2.596000000000000E10   -1.285934238694608E-3  -4.182659904472530E-4  
 2.598000000000000E10   -1.007447353913449E-4   1.317136571742594E-3  
 2.600000000000000E10    9.847712935879827E-4  -1.685643219389021E-4  
 2.602000000000000E10   -1.197991005028598E-4  -1.191204646602273E-3  
 2.604000000000000E10   -1.505725085735321E-3   1.441568892914802E-4  
 2.606000000000000E10    3.028946812264621E-4   1.255343318916857E-3  
 2.608000000000000E10    1.097776694223285E-3  -3.554986615199596E-4  
 2.610000000000000E10   -7.323288009501994E-4  -1.235351548530161E-3  
 2.612000000000000E10   -1.217508106492460E-3   9.227640694007278E-4  
 2.614000000000000E10    9.510858799330890E-4   1.100496854633093E-3  
 2.616000000000000E10    1.017601927742362E-3  -1.313460525125265E-3  
 2.618000000000000E10   -1.242440077476203E-3  -8.031812030822039E-4  
 2.620000000000000E10   -7.376068970188499E-4   1.567013212479651E-3  
 2.622000000000000E10    1.453363453038037E-3   6.447861087508500E-4  
 2.624000000000000E10    4.426362283993512E-4  -1.362564973533154E-3  
 2.626000000000000E10   -1.648913603276014E-3  -2.855226630344987E-4  
 2.628000000000000E10   -1.117426218115725E-4   1.602274598553777E-3  
 2.630000000000000E10    1.586678554303944E-3   1.396596198901534E-4  
 2.632000000000000E10   -3.576923627406359E-4  -1.712849480099976E-3  
 2.634000000000000E10   -1.808086992241442E-3   2.286922826897353E-4  
 2.636000000000000E10    5.630553350783885E-4   1.752327894791961E-3  
 2.638000000000000E10    1.588518614880741E-3  -7.272967486642301E-4  
 2.640000000000000E10   -9.616835741326213E-4  -1.509247114881873E-3  
 2.642000000000000E10   -1.529940403997898E-3   1.289093052037060E-3  
 2.644000000000000E10    1.682872651144862E-3   1.437258208170533E-3  
 2.646000000000000E10    1.107200630940497E-3  -1.754334662109613E-3  
 2.648000000000000E10   -1.906560384668410E-3  -7.551276357844472E-4  
 2.650000000000000E10   -3.523697087075561E-4   2.039412967860699E-3  
 2.652000000000000E10    2.300820779055357E-3  -6.602160283364356E-5  
 2.654000000000000E10   -5.843840772286058E-4  -2.226139185950160E-3  
 2.656000000000000E10   -2.385245170444250E-3   9.391183848492801E-4  
 2.658000000000000E10    1.086566597223282E-3   2.250621793791652E-3  
 2.660000000000000E10    1.835152739658952E-3  -1.496924436651170E-3  
 2.662000000000000E10   -1.709930715151131E-3  -1.382801565341651E-3  
 2.664000000000000E10   -1.261323923245072E-3   1.890146755613387E-3  
 2.666000000000000E10    2.206822624430060E-3   1.231223461218178E-3  
 2.668000000000000E10    5.910656764172018E-4  -2.349788323044777E-3  
 2.670000000000000E10   -2.220194553956389E-3  -2.142872253898531E-4  
 2.672000000000000E10   -2.067340683424845E-4   2.248596632853150E-3  
 2.674000000000000E10    2.456238958984613E-3  -1.512195740360767E-4  
 2.676000000000000E10   -4.478620539885014E-4  -2.157346578314900E-3  
 2.678000000000000E10   -2.281333087012172E-3   9.313462651334703E-4  
 2.680000000000000E10    9.977316949516535E-4   2.239380031824112E-3  
 2.682000000000000E10    1.866661128588021E-3  -1.647361903451383E-3  
 2.684000000000000E10   -1.726841321215034E-3  -1.537714269943535E-3  
 2.686000000000000E10   -1.225312473252416E-3   1.894529792480171E-3  
 2.688000000000000E10    1.896156114526093E-3   1.107067218981683E-3  
 2.690000000000000E10    9.339681710116565E-4  -2.118584932759404E-3  
 2.692000000000000E10   -1.989606302231550E-3  -3.687907010316849E-4  
 2.694000000000000E10   -4.425551160238683E-4   1.966425450518727E-3  
 2.696000000000000E10    2.065708162263036E-3  -2.070549817290157E-4  
 2.698000000000000E10   -4.263937298674136E-4  -1.769188791513443E-3  
 2.700000000000000E10   -1.688123098574579E-3   5.949938204139471E-4  
 2.702000000000000E10    6.942469626665115E-4   1.279933843761683E-3  
 2.704000000000000E10    1.364017603918910E-3  -9.117830777540803E-4  
 2.706000000000000E10   -1.061951857991517E-3  -1.161154825240374E-3  
 2.708000000000000E10   -8.755958988331258E-4   1.236733747646213E-3  
 2.710000000000000E10    1.400408102199435E-3   6.752440822310746E-4  
 2.712000000000000E10    2.595910336822271E-4  -1.507867709733546E-3  
 2.714000000000000E10   -1.166405505500734E-3  -7.683998433094530E-7  
 2.716000000000000E10   -1.771041752363090E-5   1.370496931485832E-3  
 2.718000000000000E10    1.625109231099486E-3  -1.037631300278008E-4  
 2.720000000000000E10   -8.553760562790558E-5  -1.584059675224125E-3  
 2.722000000000000E10   -1.531158690340817E-3   5.790470750071108E-4  
 2.724000000000000E10    6.270929588936269E-4   1.444546040147543E-3  
 2.726000000000000E10    1.458634273149073E-3  -6.237810594029725E-4  
 2.728000000000000E10   -9.000511490739882E-4  -1.285668113268912E-3  
 2.730000000000000E10   -1.195332384668291E-3   9.323737467639148E-4  
 2.732000000000000E10    8.143708109855652E-4   1.302241347730160E-3  
 2.734000000000000E10    7.829264504835010E-4  -8.291180129162967E-4  
 2.736000000000000E10   -9.804823203012347E-4  -9.027710184454918E-4  
 2.738000000000000E10   -8.081626147031784E-4   9.972328552976251E-4  
 2.740000000000000E10    9.651705622673035E-4   2.070339251076803E-4  
 2.742000000000000E10    1.734136312734336E-4  -1.051506842486560E-3  
 2.744000000000000E10   -9.173999424092472E-4  -1.275109825655818E-4  
 2.746000000000000E10    2.252166887046769E-4   7.878239848650992E-4  
 2.748000000000000E10    5.210429080761969E-4  -1.644756848691031E-4  
 2.750000000000000E10   -5.465497379191220E-4  -6.673561874777079E-4  
 2.752000000000000E10   -6.868806667625904E-4   6.185436504893005E-4  
 2.754000000000000E10    6.423214217647910E-4   5.527655011974275E-4  
 2.756000000000000E10    4.581132670864463E-4  -9.188447147607803E-4  
