#  HZ   S   RI   R     50.00 
! Rohde & Schwarz ZVA40 4Ports - Version 3.90 - 1145.1110k42 SN: 100403
! Date: 2023-10-04 08:51:41
! Measurement: S12 
! 
 2.200000000000000E10   -6.396354874596000E-4  -1.333162188529968E-3  
 2.202000000000000E10   -8.940502302721143E-4   9.421437862329185E-4  
 2.204000000000000E10    1.173598109744489E-3   7.381516625173390E-4  
 2.206000000000000E10    9.316550567746162E-4  -1.236699288710952E-3  
 2.208000000000000E10   -1.257006311789155E-3  -9.501554304733872E-4  
 2.210000000000000E10   -3.018606803379953E-4   1.344248768873513E-3  
 2.212000000000000E10    1.544387778267264E-3   2.819777582772076E-4  
 2.214000000000000E10    4.662571009248495E-4  -1.608135993592441E-3  
 2.216000000000000E10   -1.345344819128513E-3   7.929634739411995E-5  
 2.218000000000000E10    1.279004500247538E-4   1.642559189349413E-3  
 2.220000000000000E10    1.604969380423427E-3   6.266385298658861E-6  
 2.222000000000000E10   -2.054277574643493E-4  -1.678963424637914E-3  
 2.224000000000000E10   -1.689328229986131E-3   2.829186269082129E-4  
 2.226000000000000E10    6.176167516969144E-4   1.505931257270277E-3  
 2.228000000000000E10    1.773660071194172E-3  -1.103751477785409E-3  
 2.230000000000000E10   -8.591326768510044E-4  -1.305153826251626E-3  
 2.232000000000000E10   -1.364844734780490E-3   7.174834609031677E-4  
 2.234000000000000E10    1.322928932495415E-3   1.606821548193693E-3  
 2.236000000000000E10    1.222932361997664E-3  -1.280756667256355E-3  
 2.238000000000000E10   -1.221326179802418E-3  -1.012487802654505E-3  
 2.240000000000000E10   -9.878162527456880E-4   1.418738160282373E-3  
 2.242000000000000E10    1.812001224607229E-3   5.242680781520903E-4  
 2.244000000000000E10    2.066700835712254E-4  -1.543452846817672E-3  
 2.246000000000000E10   -1.649532816372812E-3  -5.208724178373814E-4  
 2.248000000000000E10   -3.283878613729030E-4   1.877394504845142E-3  
 2.250000000000000E10    1.971299061551690E-3   1.325327190215830E-7  
 2.252000000000000E10   -2.655268472153693E-4  -1.667951466515660E-3  
 2.254000000000000E10   -1.967820571735501E-3   2.595837577246130E-4  
 2.256000000000000E10    5.232023540884256E-4   2.162453718483448E-3  
 2.258000000000000E10    1.847905339673162E-3  -8.555818349123001E-4  
 2.260000000000000E10   -8.635893464088440E-4  -1.853242167271674E-3  
 2.262000000000000E10   -1.841765595600009E-3   1.089228433556855E-3  
 2.264000000000000E10    1.280976342968643E-3   1.818259246647358E-3  
 2.266000000000000E10    1.675886684097350E-3  -1.520505524240434E-3  
 2.268000000000000E10   -1.485690125264227E-3  -1.494026393629611E-3  
 2.270000000000000E10   -1.349674887023866E-3   1.683722250163555E-3  
 2.272000000000000E10    1.809754641726613E-3   1.325266086496413E-3  
 2.274000000000000E10    1.026161713525653E-3  -2.127083949744701E-3  
 2.276000000000000E10   -2.456267829984427E-3  -8.810710860416293E-4  
 2.278000000000000E10   -5.447841831482947E-4   2.304297871887684E-3  
 2.280000000000000E10    2.517660148441792E-3   2.357852936256677E-4  
 2.282000000000000E10    1.441397005692124E-3  -2.178967231884599E-3  
 2.284000000000000E10   -2.635194454342127E-3   1.075139080057852E-4  
 2.286000000000000E10    5.219181184656918E-4   2.603818662464619E-3  
 2.288000000000000E10    2.515190746635199E-3  -9.937487775459886E-4  
 2.290000000000000E10   -1.435287296772003E-3  -2.494586398825049E-3  
 2.292000000000000E10   -2.202868228778243E-3   1.796409487724304E-3  
 2.294000000000000E10    1.832152134738863E-3   1.954818144440651E-3  
 2.296000000000000E10    1.728338073007762E-3  -2.491802675649524E-3  
 2.298000000000000E10   -2.585326787084341E-3  -1.497474382631481E-3  
 2.300000000000000E10   -1.248432905413210E-3   2.840560628101230E-3  
 2.302000000000000E10    2.943982603028417E-3   7.950355065986514E-4  
 2.304000000000000E10    6.373619544319809E-4  -3.173922188580036E-3  
 2.306000000000000E10   -3.252245718613267E-3   7.848950190236792E-5  
 2.308000000000000E10    1.537943608127534E-4   3.355094930157065E-3  
 2.310000000000000E10    3.367164637893438E-3  -6.000777939334512E-4  
 2.312000000000000E10   -1.418662141077220E-3  -3.383032046258450E-3  
 2.314000000000000E10   -3.238972043618560E-3   1.572911394760013E-3  
 2.316000000000000E10    2.057848963886499E-3   2.800079295411706E-3  
 2.318000000000000E10    2.719108015298843E-3  -2.541470807045698E-3  
 2.320000000000000E10   -2.963818842545152E-3  -2.221283502876759E-3  
 2.322000000000000E10   -1.677852240391076E-3   2.956004580482841E-3  
 2.324000000000000E10    3.289405955001712E-3   1.590093364939094E-3  
 2.326000000000000E10    1.068317913450301E-3  -3.151430515572429E-3  
 2.328000000000000E10   -3.462274093180895E-3  -3.455586847849190E-4  
 2.330000000000000E10   -1.298803981626406E-4   3.486409783363342E-3  
 2.332000000000000E10    3.368008881807327E-3  -1.838288881117478E-4  
 2.334000000000000E10   -6.482608732767403E-4  -3.471489064395428E-3  
 2.336000000000000E10   -3.195385681465268E-3   1.349281053990126E-3  
 2.338000000000000E10    1.593701774254441E-3   3.236393211409450E-3  
 2.340000000000000E10    2.868611132726073E-3  -1.953247468918562E-3  
 2.342000000000000E10   -2.459093928337097E-3  -3.025749465450645E-3  
 2.344000000000000E10   -2.303035696968436E-3   3.207282163202763E-3  
 2.346000000000000E10    3.411008045077324E-3   1.948541030287743E-3  
 2.348000000000000E10    1.252402784302831E-3  -3.464855719357729E-3  
 2.350000000000000E10   -4.059962928295136E-3  -8.243640186265111E-4  
 2.352000000000000E10   -2.158339775633067E-4   4.040729720145464E-3  
 2.354000000000000E10    4.073509015142918E-3  -6.447761552408338E-4  
 2.356000000000000E10   -1.173916622065008E-3  -4.219775088131428E-3  
 2.358000000000000E10   -4.063689149916172E-3   1.871890621259809E-3  
 2.360000000000000E10    2.578379120677710E-3   3.420626278966665E-3  
 2.362000000000000E10    3.006043145433068E-3  -3.034800058230758E-3  
 2.364000000000000E10   -3.473364282399416E-3  -2.629475900903344E-3  
 2.366000000000000E10   -1.648910576477647E-3   3.922413568943739E-3  
 2.368000000000000E10    3.762979060411453E-3   1.119331805966795E-3  
 2.370000000000000E10    6.887908093631268E-4  -3.801806364208460E-3  
 2.372000000000000E10   -3.823380451649427E-3  -1.231026690220460E-4  
 2.374000000000000E10    4.131103924009949E-4   3.667663317173719E-3  
 2.376000000000000E10    3.408739576116204E-3  -1.188982510939241E-3  
 2.378000000000000E10   -1.668404205702245E-3  -3.016244620084763E-3  
 2.380000000000000E10   -2.924347063526511E-3   1.947570475749672E-3  
 2.382000000000000E10    2.403306774795055E-3   2.227107761427760E-3  
 2.384000000000000E10    1.600402174517512E-3  -2.808136399835348E-3  
 2.386000000000000E10   -2.603212604299188E-3  -1.032287487760186E-3  
 2.388000000000000E10   -5.346441757865250E-4   2.890442963689566E-3  
 2.390000000000000E10    2.673761220648885E-3  -1.208718385896646E-4  
 2.392000000000000E10   -6.011000950820744E-4  -2.515469677746296E-3  
 2.394000000000000E10   -2.066042507067323E-3   9.218171471729875E-4  
 2.396000000000000E10    1.139066298492253E-3   1.891758176498115E-3  
 2.398000000000000E10    1.650384976528585E-3  -1.766683883033693E-3  
 2.400000000000000E10   -1.990833319723606E-3  -9.280649828724563E-4  
 2.402000000000000E10   -8.631388191133738E-4   1.689814613200724E-3  
 2.404000000000000E10    1.938164583407342E-3   6.260859663598239E-4  
 2.406000000000000E10   -1.269348722416908E-4  -2.024333225563169E-3  
 2.408000000000000E10   -1.717874198220670E-3   1.043342053890228E-4  
 2.410000000000000E10   -1.225077430717647E-4   1.514256582595408E-3  
 2.412000000000000E10    1.553760492242873E-3  -4.966076812706888E-4  
 2.414000000000000E10   -4.165903083048761E-4  -1.051881583407521E-3  
 2.416000000000000E10   -1.139165717177093E-3   4.472385626286268E-4  
 2.418000000000000E10    5.619657458737493E-4   8.610751247033477E-4  
 2.420000000000000E10    6.022094166837633E-4  -5.796115729026496E-4  
 2.422000000000000E10   -3.997850872110575E-4  -3.012890229001641E-4  
 2.424000000000000E10   -5.016201175749302E-4   1.976508210645989E-4  
 2.426000000000000E10    4.166302096564323E-4   3.934243286494166E-4  
 2.428000000000000E10   -6.117968587204814E-5  -3.141475026495755E-4  
 2.430000000000000E10    6.577940803254023E-5  -4.550741577986628E-4  
 2.432000000000000E10   -1.879370684036985E-4  -1.855026785051450E-4  
 2.434000000000000E10   -3.587342871469446E-5  -3.157366591040045E-4  
 2.436000000000000E10   -5.828398934681900E-5   4.492590378504247E-4  
 2.438000000000000E10    5.102701252326369E-4  -1.029268751153722E-4  
 2.440000000000000E10   -2.142099401680753E-5  -5.836189375258982E-4  
 2.442000000000000E10   -8.760319324210286E-4  -4.093946336070076E-5  
 2.444000000000000E10    3.055220004171133E-4   8.580400026403368E-4  
 2.446000000000000E10    4.488883423618972E-4  -2.382305829087272E-4  
 2.448000000000000E10   -2.288906835019589E-4  -6.675069453194737E-4  
 2.450000000000000E10   -5.133646773174405E-4   1.887839753180742E-4  
 2.452000000000000E10    5.093159270472825E-4   4.371031827758998E-4  
 2.454000000000000E10    8.700960279384162E-6  -3.506351495161653E-4  
 2.456000000000000E10   -9.693688480183482E-5  -3.683677350636572E-4  
 2.458000000000000E10   -1.565229904372245E-4   1.933371386257932E-4  
 2.460000000000000E10   -3.810524867731147E-5   3.258250071667135E-4  
 2.462000000000000E10    2.675760479178280E-4  -1.014918307191692E-4  
 2.464000000000000E10   -3.229501598980278E-4  -9.094071720028296E-5  
 2.466000000000000E10    4.032471406389959E-5   4.026356618851423E-4  
 2.468000000000000E10    3.548748209141195E-4  -3.402591682970524E-4  
 2.470000000000000E10   -3.651176812127233E-4  -1.025963938445784E-4  
 2.472000000000000E10   -2.751627180259675E-4   2.782642259262502E-4  
 2.474000000000000E10    2.889468159992248E-4   2.573859237600118E-4  
 2.476000000000000E10    9.208310802932829E-5  -4.372406401671469E-4  
 2.478000000000000E10   -4.381682374514639E-4  -1.540046068839729E-4  
 2.480000000000000E10   -1.252958318218589E-4   5.358547205105424E-4  
 2.482000000000000E10    5.229230737313628E-4   2.738316543400288E-4  
 2.484000000000000E10    1.893423032015562E-4  -6.306238938122988E-4  
 2.486000000000000E10   -8.733345894142985E-4  -1.637503301026300E-4  
 2.488000000000000E10   -2.663161722011864E-4   9.596353047527373E-4  
 2.490000000000000E10    9.756194194778800E-4   8.724868530407548E-5  
 2.492000000000000E10   -2.330205315956846E-4  -7.049451232887805E-4  
 2.494000000000000E10   -1.067685079760850E-3   9.413559018867090E-5  
 2.496000000000000E10   -2.996965122292750E-5   1.203245134092867E-3  
 2.498000000000000E10    1.176786376163364E-3  -4.560499219223857E-4  
 2.500000000000000E10   -5.942055140621960E-4  -1.282672863453627E-3  
 2.502000000000000E10   -1.386606134474278E-3   8.151477086357772E-4  
 2.504000000000000E10    7.736203842796385E-4   9.766485309228301E-4  
 2.506000000000000E10    1.076231128536165E-3  -9.486734634265304E-4  
 2.508000000000000E10   -9.674730827100575E-4  -9.923733305186033E-4  
 2.510000000000000E10   -5.673852865584195E-4   9.065829799510539E-4  
 2.512000000000000E10    8.692779811099172E-4   7.097976049408317E-4  
 2.514000000000000E10    7.199652609415352E-4  -1.305279904045165E-3  
 2.516000000000000E10   -1.005145255476236E-3  -6.202336517162621E-4  
 2.518000000000000E10   -4.137774812988937E-4   1.207009074278176E-3  
 2.520000000000000E10    1.121802488341928E-3   2.071814669761807E-4  
 2.522000000000000E10    1.677145155554172E-5  -1.159750740043819E-3  
 2.524000000000000E10   -8.685930515639484E-4   1.410725417372305E-5  
 2.526000000000000E10    4.119067452847958E-4   8.307013195008040E-4  
 2.528000000000000E10    9.865576867014170E-4  -2.196457644458860E-4  
 2.530000000000000E10   -5.112104699946940E-4  -7.997765787877142E-4  
 2.532000000000000E10   -4.437382158357650E-4   7.582129328511655E-4  
 2.534000000000000E10    8.260096656158567E-4   6.093268748372793E-4  
 2.536000000000000E10    4.923202213831246E-4  -1.069764606654644E-3  
 2.538000000000000E10   -9.505611378699541E-4  -2.391074376646429E-4  
 2.540000000000000E10   -2.484638243913651E-4   1.043176045641303E-3  
 2.542000000000000E10    1.223209430463612E-3   2.139315183740109E-4  
 2.544000000000000E10    4.290139713702956E-6  -1.312819309532642E-3  
 2.546000000000000E10   -1.040265779010952E-3   3.514722920954227E-4  
 2.548000000000000E10    2.132021763827652E-4   1.329677877947688E-3  
 2.550000000000000E10    1.356397522613406E-3   2.882095395762008E-5  
 2.552000000000000E10   -5.645857308991253E-4  -1.096247229725123E-3  
 2.554000000000000E10   -1.446316717192531E-3   4.633475327864289E-4  
 2.556000000000000E10    6.873019738122821E-4   1.263458281755447E-3  
 2.558000000000000E10    1.154690980911255E-3  -6.199901108630002E-4  
 2.560000000000000E10   -6.658398197032511E-4  -1.238081604242325E-3  
 2.562000000000000E10   -1.386814401485026E-3   7.491684518754482E-4  
 2.564000000000000E10    1.216776203364134E-3   9.816954843699932E-4  
 2.566000000000000E10    8.917101658880711E-4  -1.384920789860189E-3  
 2.568000000000000E10   -1.669768593274057E-3  -6.942106992937625E-4  
 2.570000000000000E10   -6.911710952408612E-4   1.459480612538755E-3  
 2.572000000000000E10    1.685051247477531E-3   4.857914464082569E-4  
 2.574000000000000E10    2.784358803182840E-4  -1.977853244170547E-3  
 2.576000000000000E10   -1.982383430004120E-3   1.192666532006115E-4  
 2.578000000000000E10    3.113909042440355E-4   1.715097809210420E-3  
 2.580000000000000E10    1.914103282615542E-3  -4.703926679212600E-4  
 2.582000000000000E10   -7.155604544095695E-4  -1.906847697682679E-3  
 2.584000000000000E10   -1.796616357751191E-3   1.002489356324077E-3  
 2.586000000000000E10    1.328355050645769E-3   1.379362074658275E-3  
 2.588000000000000E10    1.288485480472446E-3  -1.268536434508860E-3  
 2.590000000000000E10   -1.493925345130265E-3  -1.326605211943388E-3  
 2.592000000000000E10   -1.046569203026593E-3   1.509170746430755E-3  
 2.594000000000000E10    1.862134085968137E-3   6.528531084768474E-4  
 2.596000000000000E10    6.927468930371106E-4  -1.793475472368300E-3  
 2.598000000000000E10   -1.778954989276826E-3  -3.715726779773831E-4  
 2.600000000000000E10   -3.189997223671526E-4   1.860174234025180E-3  
 2.602000000000000E10    2.250710967928171E-3   3.799880516908161E-7  
 2.604000000000000E10   -5.208877846598625E-4  -2.054122043773532E-3  
 2.606000000000000E10   -1.889236853457987E-3   1.077392837032676E-3  
 2.608000000000000E10    9.352017077617347E-4   1.706768875010312E-3  
 2.610000000000000E10    1.699631451629102E-3  -9.368992177769542E-4  
 2.612000000000000E10   -1.193534582853317E-3  -1.805504551157355E-3  
 2.614000000000000E10   -1.955020707100630E-3   1.659830333665013E-3  
 2.616000000000000E10    2.075422788038850E-3   1.380040077492595E-3  
 2.618000000000000E10    1.415946288034320E-3  -2.087286440655589E-3  
 2.620000000000000E10   -2.339970087632537E-3  -9.745017741806805E-4  
 2.622000000000000E10   -6.846334435977042E-4   2.502682153135538E-3  
 2.624000000000000E10    2.474921057000756E-3   4.449947737157345E-4  
 2.626000000000000E10    2.163251483580098E-4  -2.530508907511830E-3  
 2.628000000000000E10   -2.661328762769699E-3   1.164279601653107E-4  
 2.630000000000000E10    4.748538485728204E-4   2.831097459420562E-3  
 2.632000000000000E10    2.474842593073845E-3  -9.893813403323293E-4  
 2.634000000000000E10   -1.391791622154415E-3  -2.571146003901959E-3  
 2.636000000000000E10   -2.116078743711114E-3   1.776742050424218E-3  
 2.638000000000000E10    1.869789324700832E-3   1.892228377982974E-3  
 2.640000000000000E10    1.506922068074346E-3  -2.173255663365126E-3  
 2.642000000000000E10   -2.335958648473024E-3  -1.381985493935645E-3  
 2.644000000000000E10   -9.484714828431606E-4   2.457319758832455E-3  
 2.646000000000000E10    2.781200455501676E-3   6.832745857536793E-4  
 2.648000000000000E10    1.871316489996389E-4  -2.977168420329690E-3  
 2.650000000000000E10   -2.711012260988355E-3   2.908884489443153E-4  
 2.652000000000000E10    9.452521335333586E-4   3.015772672370076E-3  
 2.654000000000000E10    2.825482748448849E-3  -1.885973964817822E-3  
 2.656000000000000E10   -2.058354439213872E-3  -2.299330430105329E-3  
 2.658000000000000E10   -1.861823024228215E-3   2.200020244345069E-3  
 2.660000000000000E10    2.571110846474767E-3   1.343812327831984E-3  
 2.662000000000000E10    7.535868207924068E-4  -2.727356273680925E-3  
 2.664000000000000E10   -2.580335363745689E-3  -4.050984862260521E-4  
 2.666000000000000E10   -1.019475312205032E-4   2.476451918482781E-3  
 2.668000000000000E10    2.664776984602213E-3  -1.312839449383318E-4  
 2.670000000000000E10   -6.445141043514013E-4  -2.506254473701119E-3  
 2.672000000000000E10   -2.346085617318749E-3   7.624340942129493E-4  
 2.674000000000000E10    1.037398935295641E-3   2.171467291191220E-3  
 2.676000000000000E10    1.817157026380301E-3  -1.165614346973598E-3  
 2.678000000000000E10   -1.498611294664443E-3  -1.514170202426612E-3  
 2.680000000000000E10   -1.159669016487896E-3   1.678049215115607E-3  
 2.682000000000000E10    1.603624550625682E-3   9.461264708079398E-4  
 2.684000000000000E10    9.771438781172037E-4  -1.874510431662202E-3  
 2.686000000000000E10   -1.957896165549755E-3  -5.159686552360654E-4  
 2.688000000000000E10   -2.526953467167914E-4   1.746464869938791E-3  
 2.690000000000000E10    2.022611908614636E-3  -4.327682472649030E-5  
 2.692000000000000E10   -4.950123839080334E-4  -1.904485048726201E-3  
 2.694000000000000E10   -1.455156248994172E-3   7.237953832373023E-4  
 2.696000000000000E10    4.939930513501167E-4   1.343424548394978E-3  
 2.698000000000000E10    1.192566473037005E-3  -7.756359991617501E-4  
 2.700000000000000E10   -1.079833135008812E-3  -1.086531090550125E-3  
 2.702000000000000E10   -7.304309401661158E-4   8.866058778949082E-4  
 2.704000000000000E10    1.011535059660673E-3   8.037221268750727E-4  
 2.706000000000000E10    6.215267931111157E-4  -1.246871077455580E-3  
 2.708000000000000E10   -1.262463978491724E-3  -3.484734334051609E-4  
 2.710000000000000E10   -1.048404010361992E-4   1.031481195241213E-3  
 2.712000000000000E10    1.184682245366275E-3   2.630945818964392E-4  
 2.714000000000000E10   -1.842899946495891E-4  -1.167364069260657E-3  
 2.716000000000000E10   -7.132809842005372E-4   2.329118578927591E-4  
 2.718000000000000E10    2.198009169660509E-4   6.471686647273600E-4  
 2.720000000000000E10    8.135196403600276E-4  -4.548377182800323E-4  
 2.722000000000000E10   -3.419248096179217E-4  -5.811315495520830E-4  
 2.724000000000000E10   -5.212895339354873E-4   2.759066992439330E-4  
 2.726000000000000E10    4.980340017937124E-4   8.706711814738810E-4  
 2.728000000000000E10    6.612708093598485E-4  -5.707783275283873E-4  
 2.730000000000000E10   -8.201008313335478E-4  -3.826833853963763E-4  
 2.732000000000000E10   -5.473377532325685E-4   6.325077847577632E-4  
 2.734000000000000E10    5.667640361934900E-4   4.427995590958744E-4  
 2.736000000000000E10    3.197390178684145E-4  -5.896901129744947E-4  
 2.738000000000000E10   -5.994408857077360E-4  -3.654492902569473E-4  
 2.740000000000000E10   -1.607284939382225E-4   5.632721586152911E-4  
 2.742000000000000E10    6.166316452436149E-4   1.091129379346967E-4  
 2.744000000000000E10    1.994194026337937E-4  -4.259840352460742E-4  
 2.746000000000000E10   -5.167098133824766E-4   1.926846307469532E-4  
 2.748000000000000E10    1.986296265386045E-4   5.026829894632101E-4  
 2.750000000000000E10    2.691675035748631E-4  -1.014212684822269E-4  
 2.752000000000000E10   -2.497975074220449E-4  -3.157072351314127E-4  
 2.754000000000000E10   -1.079960275092162E-4   3.850649809464812E-4  
 2.756000000000000E10    3.679285000544041E-4   2.392345631960779E-4  
