#  HZ   S   RI   R     50.00 
! Rohde & Schwarz ZVA40 4Ports - Version 3.90 - 1145.1110k42 SN: 100403
! Date: 2023-10-04 08:53:07
! Measurement: S12 
! 
 2.200000000000000E10    1.191021947306581E-4  -2.819275017827749E-3  
 2.202000000000000E10   -2.360424492508173E-3   1.030647981679067E-4  
 2.204000000000000E10    1.141231841756962E-4   2.678284887224436E-3  
 2.206000000000000E10    2.780613256618381E-3  -5.048970342613757E-5  
 2.208000000000000E10   -5.633485270664096E-4  -2.552622696384788E-3  
 2.210000000000000E10   -2.601501764729619E-3   7.393946871161461E-4  
 2.212000000000000E10    9.170324192382395E-4   2.751394873484969E-3  
 2.214000000000000E10    2.635992597788572E-3  -1.008498948067427E-3  
 2.216000000000000E10   -1.473882002756000E-3  -2.141185803338885E-3  
 2.218000000000000E10   -2.266730880364776E-3   1.796153141185641E-3  
 2.220000000000000E10    1.754101132974029E-3   2.013314282521606E-3  
 2.222000000000000E10    1.624009339138866E-3  -1.999635016545653E-3  
 2.224000000000000E10   -1.988943899050355E-3  -1.223528990522027E-3  
 2.226000000000000E10   -1.279712771065533E-3   2.491544699296355E-3  
 2.228000000000000E10    2.533809747546911E-3   5.837286007590592E-4  
 2.230000000000000E10    2.006734139285982E-4  -2.367210807278752E-3  
 2.232000000000000E10   -2.544583054259419E-3   3.055770939681679E-4  
 2.234000000000000E10    3.460908774286509E-4   2.417111769318581E-3  
 2.236000000000000E10    2.218907000496984E-3  -7.053438457660377E-4  
 2.238000000000000E10   -9.944398188963532E-4  -2.436034847050905E-3  
 2.240000000000000E10   -2.470494480803609E-3   1.305069075897336E-3  
 2.242000000000000E10    1.861261785961688E-3   2.118584932759404E-3  
 2.244000000000000E10    1.994318561628461E-3  -1.615655492059887E-3  
 2.246000000000000E10   -1.994714373722673E-3  -1.803153776563704E-3  
 2.248000000000000E10   -1.849662861786783E-3   2.242303220555186E-3  
 2.250000000000000E10    2.392737893387675E-3   1.426774309948087E-3  
 2.252000000000000E10    1.459146849811077E-3  -2.533714286983013E-3  
 2.254000000000000E10   -2.667818916961551E-3  -1.315362751483917E-3  
 2.256000000000000E10   -1.093751168809831E-3   2.775003667920828E-3  
 2.258000000000000E10    2.702188445255160E-3   7.531017763540149E-4  
 2.260000000000000E10    7.754519465379417E-4  -3.125251969322562E-3  
 2.262000000000000E10   -2.904811408370733E-3   6.470491643995047E-5  
 2.264000000000000E10    4.067237314302474E-4   2.781851449981332E-3  
 2.266000000000000E10    2.846765797585249E-3  -2.569016069173813E-4  
 2.268000000000000E10   -1.332976506091654E-3  -3.067253855988383E-3  
 2.270000000000000E10   -2.751387655735016E-3   1.467108842916787E-3  
 2.272000000000000E10    1.779521582648158E-3   2.663254039362073E-3  
 2.274000000000000E10    2.466674894094467E-3  -2.233353909105063E-3  
 2.276000000000000E10   -2.549907891079783E-3  -2.149050589650869E-3  
 2.278000000000000E10   -1.642010291106999E-3   2.735462738201022E-3  
 2.280000000000000E10    3.003876190632582E-3   1.312304870225489E-3  
 2.282000000000000E10    2.586692571640015E-3  -1.725133159197867E-3  
 2.284000000000000E10   -3.246156731620431E-3  -6.235500331968069E-4  
 2.286000000000000E10   -4.998624790459871E-4   3.124609123915434E-3  
 2.288000000000000E10    3.305558348074555E-3   1.480239880038425E-4  
 2.290000000000000E10   -2.879112435039133E-4  -3.585130674764514E-3  
 2.292000000000000E10   -3.353008767589927E-3   5.657616420648992E-4  
 2.294000000000000E10    7.617525407113135E-4   3.084904048591852E-3  
 2.296000000000000E10    3.188527189195156E-3  -1.368860364891589E-3  
 2.298000000000000E10   -1.568433130159974E-3  -3.226593369618058E-3  
 2.300000000000000E10   -2.627130830660462E-3   2.025004243478179E-3  
 2.302000000000000E10    2.485028235241771E-3   2.638538135215640E-3  
 2.304000000000000E10    2.393812639638782E-3  -2.634983044117689E-3  
 2.306000000000000E10   -3.045691875740886E-3  -1.996160717681050E-3  
 2.308000000000000E10   -1.615704852156341E-3   3.112658625468612E-3  
 2.310000000000000E10    3.425800241529942E-3   1.236126059666276E-3  
 2.312000000000000E10    6.780329858884215E-4  -4.223747644573450E-3  
 2.314000000000000E10   -3.663711948320270E-3  -8.213108230847865E-5  
 2.316000000000000E10    3.627887053880841E-4   3.677992848679423E-3  
 2.318000000000000E10    3.791117109358311E-3  -9.823263389989734E-4  
 2.320000000000000E10   -1.342935254797339E-3  -3.427138784900308E-3  
 2.322000000000000E10   -3.294927300885320E-3   1.656441832892597E-3  
 2.324000000000000E10    2.129642758518457E-3   3.128060372546315E-3  
 2.326000000000000E10    2.890935633331537E-3  -2.701158868148923E-3  
 2.328000000000000E10   -3.374599618837237E-3  -2.473120810464025E-3  
 2.330000000000000E10   -1.861518248915672E-3   3.353465115651488E-3  
 2.332000000000000E10    3.463358851149678E-3   1.402731286361814E-3  
 2.334000000000000E10    8.427845896221697E-4  -3.938569221645594E-3  
 2.336000000000000E10   -3.472784534096718E-3  -5.131544894538820E-4  
 2.338000000000000E10    8.064822031883523E-5   3.715372178703547E-3  
 2.340000000000000E10    3.781861159950495E-3  -8.844820549711585E-4  
 2.342000000000000E10   -1.267751096747816E-3  -3.694414859637618E-3  
 2.344000000000000E10   -3.519099438562989E-3   1.872709253802896E-3  
 2.346000000000000E10    2.334890188649297E-3   2.990533830597997E-3  
 2.348000000000000E10    2.479063579812646E-3  -3.142250003293157E-3  
 2.350000000000000E10   -3.294007387012243E-3  -2.154760295525193E-3  
 2.352000000000000E10   -1.609714468941093E-3   3.455678466707468E-3  
 2.354000000000000E10    3.840646240860224E-3   8.068510796874762E-4  
 2.356000000000000E10    1.719869760563597E-4  -3.847269574180245E-3  
 2.358000000000000E10   -3.735184436663985E-3   3.587460378184915E-4  
 2.360000000000000E10    1.100282883271575E-3   3.702343441545963E-3  
 2.362000000000000E10    3.667298238724470E-3  -1.701109460555017E-3  
 2.364000000000000E10   -2.147193998098373E-3  -2.874304307624698E-3  
 2.366000000000000E10   -2.566601615399122E-3   2.370791742578149E-3  
 2.368000000000000E10    2.743076300248504E-3   2.134124748408794E-3  
 2.370000000000000E10    1.491571892984211E-3  -3.004126483574510E-3  
 2.372000000000000E10   -3.051314968615770E-3  -1.222010352648795E-3  
 2.374000000000000E10   -3.012133238371462E-4   3.181059379130602E-3  
 2.376000000000000E10    2.837857697159052E-3  -2.312905853614211E-4  
 2.378000000000000E10   -6.196869653649628E-4  -2.590870251879096E-3  
 2.380000000000000E10   -2.070464193820953E-3   1.331979525275528E-3  
 2.382000000000000E10    1.344030257314444E-3   1.826876658014953E-3  
 2.384000000000000E10    1.335571170784533E-3  -1.761713763698936E-3  
 2.386000000000000E10   -2.019960666075349E-3  -8.027238072827458E-4  
 2.388000000000000E10   -2.728254185058177E-4   1.748050795868039E-3  
 2.390000000000000E10    1.723536173813045E-3  -7.370040111709386E-5  
 2.392000000000000E10   -5.071285995654762E-4  -1.678614760749042E-3  
 2.394000000000000E10   -1.358967158012092E-3   8.770978311076760E-4  
 2.396000000000000E10    1.398338819853962E-3   7.187409792095423E-4  
 2.398000000000000E10    6.554855499416590E-4  -1.149969408288598E-3  
 2.400000000000000E10   -1.340463524684310E-3  -2.344351523788646E-4  
 2.402000000000000E10    8.862032700562850E-5   1.025430508889258E-3  
 2.404000000000000E10    1.142700202763081E-3  -2.607447677291930E-4  
 2.406000000000000E10   -5.184797337278724E-4  -8.353765006177127E-4  
 2.408000000000000E10   -9.217867045663297E-4   4.720368306152523E-4  
 2.410000000000000E10    7.454496808350086E-4   3.958728339057416E-4  
 2.412000000000000E10    1.836914452724159E-4  -8.211943204514682E-4  
 2.414000000000000E10   -6.284666596911848E-4  -1.907417317852378E-4  
 2.416000000000000E10    5.413060353021137E-5   7.194038480520248E-4  
 2.418000000000000E10    2.979717683047056E-4  -5.443678237497807E-4  
 2.420000000000000E10   -6.950896349735558E-4  -6.467122002504766E-4  
 2.422000000000000E10   -2.729950356297195E-4   8.930064504966140E-4  
 2.424000000000000E10    7.839509635232389E-4  -1.002963472274132E-4  
 2.426000000000000E10   -2.299278457940090E-5  -9.682974778115749E-4  
 2.428000000000000E10   -9.946689242497087E-4   2.410309389233589E-4  
 2.430000000000000E10    4.786842328030616E-4   1.090349862352014E-3  
 2.432000000000000E10    1.045263721607626E-3  -6.305081187747419E-4  
 2.434000000000000E10   -8.230396779254079E-4  -1.095950370654464E-3  
 2.436000000000000E10   -1.160247484222055E-3   9.566163644194603E-4  
 2.438000000000000E10    1.207115245051682E-3   8.787353872321546E-4  
 2.440000000000000E10    9.068725630640984E-4  -1.445733592845500E-3  
 2.442000000000000E10   -1.527328975498676E-3  -9.954778943210840E-4  
 2.444000000000000E10   -5.842870450578630E-4   1.640824368223548E-3  
 2.446000000000000E10    1.523576327599585E-3   4.108957364223898E-4  
 2.448000000000000E10    2.962162834592164E-4  -1.689024735242128E-3  
 2.450000000000000E10   -1.613791449926794E-3   7.707426266279072E-5  
 2.452000000000000E10    1.400615701641073E-6   1.735732425004244E-3  
 2.454000000000000E10    1.364809111692011E-3  -2.515790692996234E-4  
 2.456000000000000E10   -3.151196870021522E-4  -1.372604281641543E-3  
 2.458000000000000E10   -1.418649801053107E-3   5.087585304863751E-4  
 2.460000000000000E10    4.519414505921304E-4   1.505085267126560E-3  
 2.462000000000000E10    1.084028859622777E-3  -7.902601500973105E-4  
 2.464000000000000E10   -1.040761359035969E-3  -9.715357446111739E-4  
 2.466000000000000E10   -7.648820173926652E-4   1.228262088261545E-3  
 2.468000000000000E10    1.358619192615151E-3   6.716629141010344E-4  
 2.470000000000000E10    2.492877829354256E-4  -1.232308102771640E-3  
 2.472000000000000E10   -1.268277526833117E-3  -4.455373709788546E-5  
 2.474000000000000E10    1.882360811578110E-4   1.379702240228653E-3  
 2.476000000000000E10    1.271702698431909E-3  -3.220295184291899E-4  
 2.478000000000000E10   -6.411541253328323E-4  -1.283681136555970E-3  
 2.480000000000000E10   -1.138525316491723E-3   6.162089412100613E-4  
 2.482000000000000E10    7.014886941760778E-4   1.265305094420910E-3  
 2.484000000000000E10    1.140158739872277E-3  -9.933183901011944E-4  
 2.486000000000000E10   -1.086061354726553E-3  -1.330475090071559E-3  
 2.488000000000000E10   -1.112060504965484E-3   1.312623382546008E-3  
 2.490000000000000E10    1.475260825827718E-3   9.165905648842454E-4  
 2.492000000000000E10    7.878577453084290E-4  -1.529033994302154E-3  
 2.494000000000000E10   -1.631230465136468E-3  -6.778647657483816E-4  
 2.496000000000000E10   -7.581080426461995E-4   1.583320205099881E-3  
 2.498000000000000E10    1.848950400017202E-3   5.639753071591258E-4  
 2.500000000000000E10    4.357978468760848E-4  -1.913813175633550E-3  
 2.502000000000000E10   -1.831126166507602E-3  -2.456320507917553E-4  
 2.504000000000000E10   -1.235822855960578E-4   2.114924136549234E-3  
 2.506000000000000E10    1.877094502560794E-3  -2.124188758898526E-4  
 2.508000000000000E10    4.271141733624972E-6  -2.106220228597522E-3  
 2.510000000000000E10   -1.879575080238283E-3   1.828121457947418E-4  
 2.512000000000000E10    3.383601433597505E-4   1.978229731321335E-3  
 2.514000000000000E10    1.912990352138877E-3  -5.434764898382127E-4  
 2.516000000000000E10   -6.084338529035449E-4  -1.856759074144065E-3  
 2.518000000000000E10   -1.785251661203802E-3   1.116391620598733E-3  
 2.520000000000000E10    1.348157995380461E-3   1.599409151822329E-3  
 2.522000000000000E10    1.324177486822009E-3  -1.306688878685236E-3  
 2.524000000000000E10   -1.584678888320923E-3  -1.286753453314304E-3  
 2.526000000000000E10   -7.085509714670479E-4   1.625874312594533E-3  
 2.528000000000000E10    1.554485294036567E-3   6.368855247274041E-4  
 2.530000000000000E10    4.312067758291960E-4  -1.722279586829245E-3  
 2.532000000000000E10   -2.114981180056930E-3  -3.497903162497096E-5  
 2.534000000000000E10    4.442881327122450E-4   2.027851762250066E-3  
 2.536000000000000E10    1.978119369596243E-3  -7.303141755983234E-4  
 2.538000000000000E10   -1.323001692071557E-3  -2.001641085371375E-3  
 2.540000000000000E10   -1.585104619152844E-3   1.635865424759686E-3  
 2.542000000000000E10    1.564455800689757E-3   1.653558807447553E-3  
 2.544000000000000E10    1.546579063870013E-3  -1.938646193593741E-3  
 2.546000000000000E10   -2.293300582095981E-3  -1.240432262420654E-3  
 2.548000000000000E10   -9.376158704981208E-4   2.299875952303410E-3  
 2.550000000000000E10    2.322246087715030E-3   8.167882333509624E-4  
 2.552000000000000E10    4.265156749170274E-4  -2.851475961506367E-3  
 2.554000000000000E10   -2.762480406090617E-3   2.426939463475719E-4  
 2.556000000000000E10    1.485783468524460E-5   2.554106758907437E-3  
 2.558000000000000E10    2.428565640002489E-3  -4.397007578518242E-4  
 2.560000000000000E10   -5.265164654701948E-4  -2.523114439100027E-3  
 2.562000000000000E10   -2.448412356898189E-3   8.106872555799782E-4  
 2.564000000000000E10    9.706837008707225E-4   2.470022765919566E-3  
 2.566000000000000E10    2.290825592353940E-3  -1.530537614598870E-3  
 2.568000000000000E10   -1.828458625823259E-3  -1.975998515263200E-3  
 2.570000000000000E10   -1.763172447681427E-3   1.978206215426326E-3  
 2.572000000000000E10    2.047994639724493E-3   1.412960933521390E-3  
 2.574000000000000E10    1.389271812513471E-3  -2.249339828267694E-3  
 2.576000000000000E10   -2.404158236458898E-3  -1.022963086143136E-3  
 2.578000000000000E10   -5.181178566999733E-4   2.379922661930323E-3  
 2.580000000000000E10    2.406867220997810E-3   2.068980684271082E-4  
 2.582000000000000E10    1.157710066763684E-4  -2.514835447072983E-3  
 2.584000000000000E10   -2.628056099638343E-3   4.768525541294366E-4  
 2.586000000000000E10    6.393805961124599E-4   2.107849111780524E-3  
 2.588000000000000E10    2.194793662056327E-3  -9.658052586019039E-4  
 2.590000000000000E10   -9.816047968342900E-4  -1.959631917998195E-3  
 2.592000000000000E10   -2.216869732365012E-3   1.358678098767996E-3  
 2.594000000000000E10    1.845341641455889E-3   1.808684552088380E-3  
 2.596000000000000E10    1.885710866190493E-3  -1.828113337978721E-3  
 2.598000000000000E10   -2.471548970788717E-3  -1.518286764621735E-3  
 2.600000000000000E10   -1.440328545868397E-3   2.829574747011066E-3  
 2.602000000000000E10    3.080071415752173E-3   9.274850599467754E-4  
 2.604000000000000E10    1.684759190538898E-4  -3.374351887032390E-3  
 2.606000000000000E10   -3.176387632265687E-3   1.669102202868089E-4  
 2.608000000000000E10    5.486581358127296E-4   3.163893241435289E-3  
 2.610000000000000E10    3.213535528630018E-3  -7.741565350443125E-4  
 2.612000000000000E10   -1.042841817252338E-3  -2.968406304717064E-3  
 2.614000000000000E10   -3.383152652531862E-3   1.419846434146166E-3  
 2.616000000000000E10    1.908266334794462E-3   2.984243910759687E-3  
 2.618000000000000E10    2.926419256255031E-3  -2.557304222136736E-3  
 2.620000000000000E10   -2.953418996185064E-3  -2.439886331558228E-3  
 2.622000000000000E10   -2.059731399640441E-3   3.170250682160258E-3  
 2.624000000000000E10    3.140140557661653E-3   1.471554045565426E-3  
 2.626000000000000E10    1.024970668368042E-3  -3.292346838861704E-3  
 2.628000000000000E10   -3.418165026232600E-3  -9.914918337017298E-4  
 2.630000000000000E10   -2.131873479811475E-4   3.813149873167276E-3  
 2.632000000000000E10    3.451994853094220E-3  -3.410064382478595E-4  
 2.634000000000000E10   -6.399283302016556E-4  -3.501180559396744E-3  
 2.636000000000000E10   -3.187158610671759E-3   1.371327321976423E-3  
 2.638000000000000E10    1.558907446451485E-3   2.915793564170599E-3  
 2.640000000000000E10    2.302534412592650E-3  -1.684040762484074E-3  
 2.642000000000000E10   -2.091318368911743E-3  -2.397865755483508E-3  
 2.644000000000000E10   -2.220508409664035E-3   2.477771602571011E-3  
 2.646000000000000E10    2.738825045526028E-3   1.878938986919820E-3  
 2.648000000000000E10    1.234769821166992E-3  -3.090394427999854E-3  
 2.650000000000000E10   -3.190596355125308E-3  -8.374300086870790E-4  
 2.652000000000000E10   -1.374375074192358E-6   3.609915962442756E-3  
 2.654000000000000E10    3.247458720579743E-3  -5.542593426071107E-4  
 2.656000000000000E10   -1.051556901074946E-3  -3.315451554954052E-3  
 2.658000000000000E10   -3.226527245715261E-3   1.444778521545231E-3  
 2.660000000000000E10    1.817959127947688E-3   2.820617752149701E-3  
 2.662000000000000E10    2.150207525119185E-3  -2.313334960490465E-3  
 2.664000000000000E10   -2.610099734738469E-3  -1.943920506164432E-3  
 2.666000000000000E10   -1.562069635838270E-3   2.852057339623570E-3  
 2.668000000000000E10    2.962148515507579E-3   9.818349499255419E-4  
 2.670000000000000E10    4.343969922047108E-4  -2.933595329523087E-3  
 2.672000000000000E10   -2.804217627272010E-3  -2.399212244199589E-4  
 2.674000000000000E10    9.630542052718738E-8   2.821898320689797E-3  
 2.676000000000000E10    2.761490410193801E-3  -4.241763090249151E-4  
 2.678000000000000E10   -7.071800646372140E-4  -2.481275005266070E-3  
 2.680000000000000E10   -2.472494961693883E-3   1.113624661229551E-3  
 2.682000000000000E10    1.407996867783368E-3   2.325981622561812E-3  
 2.684000000000000E10    1.981735229492188E-3  -1.533545670099556E-3  
 2.686000000000000E10   -1.733009936287999E-3  -1.606427598744631E-3  
 2.688000000000000E10   -1.215852913446724E-3   1.922056660987437E-3  
 2.690000000000000E10    1.903679221868515E-3   9.055122500285506E-4  
 2.692000000000000E10    4.753323155455291E-4  -2.076107310131192E-3  
 2.694000000000000E10   -2.053740667179227E-3  -3.667072160169482E-4  
 2.696000000000000E10    2.372610470047221E-5   1.971397316083312E-3  
 2.698000000000000E10    1.732577220536768E-3  -3.797151657636277E-5  
 2.700000000000000E10   -5.192164098843932E-4  -1.427972922101617E-3  
 2.702000000000000E10   -1.377499080263078E-3   5.847402499057353E-4  
 2.704000000000000E10    6.758586969226599E-4   1.206090324558318E-3  
 2.706000000000000E10    1.096016145311296E-3  -6.971181137487292E-4  
 2.708000000000000E10   -9.394480148330331E-4  -8.298905449919403E-4  
 2.710000000000000E10   -6.182663491927087E-4   9.896893752738833E-4  
 2.712000000000000E10    8.163153543137014E-4   4.671565839089453E-4  
 2.714000000000000E10    2.836460771504790E-4  -8.850113372318447E-4  
 2.716000000000000E10   -8.520059636794031E-4  -1.174707285827026E-4  
 2.718000000000000E10    3.269774606451392E-5   8.011314785107970E-4  
 2.720000000000000E10    9.947485523298383E-4  -2.643600455485284E-4  
 2.722000000000000E10   -4.240995331201702E-4  -9.557950543239713E-4  
 2.724000000000000E10   -9.120837785303593E-4   2.874991914723069E-4  
 2.726000000000000E10    4.274325910955668E-4   7.977639324963093E-4  
 2.728000000000000E10    7.185310241766274E-4  -3.231092705391347E-4  
 2.730000000000000E10   -7.141998503357172E-4  -6.658788770437241E-4  
 2.732000000000000E10   -7.609219173900783E-4   6.360536208376288E-4  
 2.734000000000000E10    5.910163163207471E-4   9.107116493396461E-4  
 2.736000000000000E10    7.757172570563853E-4  -4.892619908787310E-4  
 2.738000000000000E10   -5.356420879252255E-4  -7.794728735461831E-4  
 2.740000000000000E10   -6.628680857829750E-4   5.010541062802076E-4  
 2.742000000000000E10    6.720831734128296E-4   6.614869926124811E-4  
 2.744000000000000E10    5.115385865792632E-4  -5.436892970465124E-4  
 2.746000000000000E10   -2.764505625236780E-4  -4.550721496343613E-4  
 2.748000000000000E10   -5.089208134450018E-4   4.886789829470217E-4  
 2.750000000000000E10    5.921334959566593E-4   5.654823035001755E-4  
 2.752000000000000E10    3.815657400991768E-4  -4.209329199511558E-4  
 2.754000000000000E10   -5.735467420890927E-4  -2.525129821151495E-4  
 2.756000000000000E10    3.219379505026154E-5   4.462575016077608E-4  
