#  HZ   S   RI   R     50.00 
! Rohde & Schwarz ZVA40 4Ports - Version 3.90 - 1145.1110k42 SN: 100403
! Date: 2023-10-04 08:53:26
! Measurement: S12 
! 
 2.200000000000000E10    4.925079992972314E-4  -2.302022185176611E-3  
 2.202000000000000E10   -2.230500569567084E-3  -1.283030287595466E-4  
 2.204000000000000E10    2.502526622265577E-4   2.274625236168504E-3  
 2.206000000000000E10    2.470014616847038E-3  -3.562316123861820E-4  
 2.208000000000000E10   -6.692369352094829E-4  -2.534648170694709E-3  
 2.210000000000000E10   -2.243845025077462E-3   9.727894212119281E-4  
 2.212000000000000E10    1.316215842962265E-3   1.948772580362856E-3  
 2.214000000000000E10    2.065019449219108E-3  -1.324542332440615E-3  
 2.216000000000000E10   -1.670694327913225E-3  -2.045330358669162E-3  
 2.218000000000000E10   -1.772214425727725E-3   1.810471410863102E-3  
 2.220000000000000E10    2.226158510893583E-3   1.429139752872288E-3  
 2.222000000000000E10    1.274610171094537E-3  -2.256202744320035E-3  
 2.224000000000000E10   -2.606274792924523E-3  -8.764477679505944E-4  
 2.226000000000000E10   -6.584014045074582E-4   2.976917428895831E-3  
 2.228000000000000E10    2.776978071779013E-3   2.188594080507755E-4  
 2.230000000000000E10   -8.747826359467581E-5  -3.077778033912182E-3  
 2.232000000000000E10   -3.051702864468098E-3   5.287699168547988E-4  
 2.234000000000000E10    9.732801117934287E-4   3.246957669034600E-3  
 2.236000000000000E10    3.130603116005659E-3  -1.174889155663550E-3  
 2.238000000000000E10   -1.833971706219018E-3  -2.922530286014080E-3  
 2.240000000000000E10   -3.043684875592589E-3   1.906702760607004E-3  
 2.242000000000000E10    2.388905966654420E-3   2.516625216230750E-3  
 2.244000000000000E10    2.095804084092379E-3  -2.476891502737999E-3  
 2.246000000000000E10   -2.623266540467739E-3  -1.954911509528756E-3  
 2.248000000000000E10   -1.806619809940457E-3   2.697974909096956E-3  
 2.250000000000000E10    2.751033287495375E-3   1.452430034987629E-3  
 2.252000000000000E10    1.163309207186103E-3  -2.898528007790446E-3  
 2.254000000000000E10   -2.727599116042256E-3  -8.744177757762373E-4  
 2.256000000000000E10   -6.692048627883196E-4   3.145124297589064E-3  
 2.258000000000000E10    2.859391970559955E-3   3.616359317675233E-4  
 2.260000000000000E10   -8.355889440281317E-5  -2.942026127129793E-3  
 2.262000000000000E10   -2.668762579560280E-3   6.854728562757373E-4  
 2.264000000000000E10    4.530457663349807E-4   2.651348942890763E-3  
 2.266000000000000E10    2.655251417309046E-3  -8.587396005168557E-4  
 2.268000000000000E10   -1.488208305090666E-3  -2.771507482975721E-3  
 2.270000000000000E10   -2.462473465129733E-3   1.464050030335784E-3  
 2.272000000000000E10    2.181776799261570E-3   2.429158426821232E-3  
 2.274000000000000E10    2.013697288930416E-3  -2.216180087998509E-3  
 2.276000000000000E10   -2.692243084311485E-3  -1.916283625178039E-3  
 2.278000000000000E10   -1.710310229100287E-3   3.070785431191325E-3  
 2.280000000000000E10    3.209867281839252E-3   1.199400518089533E-3  
 2.282000000000000E10    2.673450857400894E-3  -1.993161858990789E-3  
 2.284000000000000E10   -3.433641046285629E-3  -6.592173012904823E-4  
 2.286000000000000E10   -3.769287723116577E-4   3.464768873527646E-3  
 2.288000000000000E10    3.720691427588463E-3  -2.177585411118344E-4  
 2.290000000000000E10   -6.608415278606117E-4  -3.635352710261941E-3  
 2.292000000000000E10   -3.505910513922572E-3   1.046960009261966E-3  
 2.294000000000000E10    1.630638260394335E-3   3.336500376462936E-3  
 2.296000000000000E10    2.907168352976441E-3  -1.845641876570880E-3  
 2.298000000000000E10   -2.210506936535239E-3  -2.647659508511424E-3  
 2.300000000000000E10   -2.702179132029414E-3   2.398781245574355E-3  
 2.302000000000000E10    2.711638342589140E-3   2.089886227622628E-3  
 2.304000000000000E10    1.530014211311936E-3  -2.902566920965910E-3  
 2.306000000000000E10   -2.937696408480406E-3  -1.528998720459640E-3  
 2.308000000000000E10   -1.087902230210602E-3   3.451525932177901E-3  
 2.310000000000000E10    3.588677616789937E-3   4.724027821794152E-4  
 2.312000000000000E10   -3.161901258863509E-4  -3.654649481177330E-3  
 2.314000000000000E10   -3.553995164111257E-3   4.760823212563992E-4  
 2.316000000000000E10    1.041450770571828E-3   3.247413318604231E-3  
 2.318000000000000E10    3.173875156790018E-3  -1.485129585489631E-3  
 2.320000000000000E10   -1.854505157098174E-3  -3.203908912837505E-3  
 2.322000000000000E10   -2.959354547783732E-3   2.182082971557975E-3  
 2.324000000000000E10    2.766800113022327E-3   2.400717698037624E-3  
 2.326000000000000E10    2.414819085970521E-3  -2.820988185703754E-3  
 2.328000000000000E10   -3.199949627742171E-3  -1.828669803217053E-3  
 2.330000000000000E10   -1.519593526609242E-3   3.449681913480163E-3  
 2.332000000000000E10    3.674287348985672E-3   6.814333610236645E-4  
 2.334000000000000E10    5.834524054080248E-4  -3.830938367173076E-3  
 2.336000000000000E10   -3.823601175099611E-3  -2.831062593031675E-4  
 2.338000000000000E10    5.718102911487222E-4   3.711341880261898E-3  
 2.340000000000000E10    3.370170015841723E-3  -1.058773952536285E-3  
 2.342000000000000E10   -1.621965551748872E-3  -3.653253428637981E-3  
 2.344000000000000E10   -3.166305366903544E-3   2.487878315150738E-3  
 2.346000000000000E10    2.461956115439534E-3   2.855330007150769E-3  
 2.348000000000000E10    2.112806541845202E-3  -3.014903282746673E-3  
 2.350000000000000E10   -3.335070563480258E-3  -1.938005327247083E-3  
 2.352000000000000E10   -1.301547978073359E-3   3.610777435824275E-3  
 2.354000000000000E10    3.737834747880697E-3   5.531958304345608E-4  
 2.356000000000000E10   -1.457195467082784E-4  -3.750508651137352E-3  
 2.358000000000000E10   -3.471110016107559E-3   5.496182711794972E-4  
 2.360000000000000E10    1.188888214528561E-3   3.256883006542921E-3  
 2.362000000000000E10    3.100396832451224E-3  -1.899149618111551E-3  
 2.364000000000000E10   -2.178070833906531E-3  -2.485322067514062E-3  
 2.366000000000000E10   -2.131456043571234E-3   2.406440442427993E-3  
 2.368000000000000E10    2.664770931005478E-3   1.562209567055106E-3  
 2.370000000000000E10    8.497482049278915E-4  -2.944641979411244E-3  
 2.372000000000000E10   -2.760917646810412E-3  -2.963179431390017E-4  
 2.374000000000000E10    3.222477680537850E-4   2.903112443163991E-3  
 2.376000000000000E10    2.358180936425924E-3  -9.612350258976221E-4  
 2.378000000000000E10   -1.247306237928569E-3  -2.004211535677314E-3  
 2.380000000000000E10   -1.486426335759461E-3   1.429199008271098E-3  
 2.382000000000000E10    1.799689838662744E-3   1.229341025464237E-3  
 2.384000000000000E10    5.363589734770358E-4  -1.947931130416691E-3  
 2.386000000000000E10   -1.611754065379500E-3  -4.886917304247618E-4  
 2.388000000000000E10    5.322320066625252E-5   1.819523400627077E-3  
 2.390000000000000E10    1.683110953308642E-3  -5.119348061271012E-4  
 2.392000000000000E10   -9.421764989383519E-4  -1.342398230917752E-3  
 2.394000000000000E10   -9.289970621466637E-4   1.082684844732285E-3  
 2.396000000000000E10    1.036197762005031E-3   8.231662213802338E-4  
 2.398000000000000E10    2.948188630398363E-4  -1.179419225081801E-3  
 2.400000000000000E10   -1.014920882880688E-3  -1.911291037686169E-4  
 2.402000000000000E10    4.117826465517283E-4   6.527852965518832E-4  
 2.404000000000000E10    6.191614083945751E-4  -3.554284630808979E-4  
 2.406000000000000E10   -7.584624108858407E-4  -4.510634171310812E-4  
 2.408000000000000E10   -1.622769777895883E-4   6.611560820601881E-4  
 2.410000000000000E10    6.191399297676981E-4   3.864750033244491E-5  
 2.412000000000000E10   -1.500525977462530E-4  -8.641518652439117E-4  
 2.414000000000000E10   -6.089861853979528E-4   4.452111315913498E-4  
 2.416000000000000E10    1.037209294736385E-3   8.520921110175550E-4  
 2.418000000000000E10    4.371806571725756E-4  -1.077152672223747E-3  
 2.420000000000000E10   -1.365167670883238E-3  -6.523766787722707E-4  
 2.422000000000000E10   -3.539358149282634E-4   1.423762063495815E-3  
 2.424000000000000E10    1.455645659007132E-3  -3.837119584204629E-5  
 2.426000000000000E10   -1.266532635781914E-4  -1.560482662171125E-3  
 2.428000000000000E10   -1.779562211595476E-3   1.409801625413820E-4  
 2.430000000000000E10    5.256064468994737E-4   1.720606232993305E-3  
 2.432000000000000E10    1.599957584403455E-3  -8.717805612832308E-4  
 2.434000000000000E10   -9.626885876059532E-4  -1.610927865840495E-3  
 2.436000000000000E10   -1.572035020217300E-3   1.095908926799893E-3  
 2.438000000000000E10    1.312788575887680E-3   1.253855647519231E-3  
 2.440000000000000E10    1.017161877825856E-3  -1.309502171352506E-3  
 2.442000000000000E10   -1.582213910296559E-3  -1.092967344447970E-3  
 2.444000000000000E10   -5.731286946684122E-4   1.915654283948243E-3  
 2.446000000000000E10    1.572209876030684E-3   3.778805839829147E-4  
 2.448000000000000E10    2.153679088223726E-4  -1.296163769438863E-3  
 2.450000000000000E10   -1.576793962158263E-3   2.842599933501333E-4  
 2.452000000000000E10    4.994015907868743E-4   1.553435460664332E-3  
 2.454000000000000E10    1.278550131246448E-3  -8.018436492420733E-4  
 2.456000000000000E10   -8.380935178138316E-4  -1.201588194817305E-3  
 2.458000000000000E10   -1.129861455410719E-3   1.159317092970014E-3  
 2.460000000000000E10    1.390550285577774E-3   9.280081139877439E-4  
 2.462000000000000E10    6.968048401176930E-4  -1.427515177056193E-3  
 2.464000000000000E10   -1.615404384210706E-3  -7.367865182459354E-4  
 2.466000000000000E10   -4.837900341954082E-4   1.998027786612511E-3  
 2.468000000000000E10    1.833144575357437E-3   1.078742279787548E-4  
 2.470000000000000E10    8.622217865195125E-5  -1.930402591824532E-3  
 2.472000000000000E10   -2.185306511819363E-3   2.091333881253377E-4  
 2.474000000000000E10    5.801384104415774E-4   2.325141336768866E-3  
 2.476000000000000E10    1.837788149714470E-3  -7.974777836352587E-4  
 2.478000000000000E10   -6.710579618811607E-4  -2.069634385406971E-3  
 2.480000000000000E10   -2.083837520331144E-3   1.081966096535325E-3  
 2.482000000000000E10    1.237983233295381E-3   1.921829883940518E-3  
 2.484000000000000E10    1.852148328907788E-3  -1.234047464095056E-3  
 2.486000000000000E10   -1.347761950455606E-3  -1.835611066780984E-3  
 2.488000000000000E10   -1.481153653003275E-3   1.719402614980936E-3  
 2.490000000000000E10    1.751261414028704E-3   1.192342839203775E-3  
 2.492000000000000E10    1.199327292852104E-3  -1.508250716142356E-3  
 2.494000000000000E10   -1.649758894927800E-3  -1.133243902586401E-3  
 2.496000000000000E10   -6.889256765134633E-4   1.987656578421593E-3  
 2.498000000000000E10    1.800449797883630E-3   2.871663891710341E-4  
 2.500000000000000E10    3.106323129031807E-4  -1.701153116300702E-3  
 2.502000000000000E10   -2.308722352609038E-3   2.828176657203585E-4  
 2.504000000000000E10    4.851207486353815E-4   1.390698482282460E-3  
 2.506000000000000E10    1.119637163355947E-3  -3.803002473432571E-4  
 2.508000000000000E10   -2.124259190168232E-4  -1.389886485412717E-3  
 2.510000000000000E10   -1.281785313040018E-3   6.472637760452926E-4  
 2.512000000000000E10    8.400437072850764E-4   1.454294426366687E-3  
 2.514000000000000E10    1.093391911126673E-3  -1.055792556144297E-3  
 2.516000000000000E10   -1.444394933059812E-3  -1.270028064027429E-3  
 2.518000000000000E10   -1.035032095387578E-3   1.629339880309999E-3  
 2.520000000000000E10    1.859837328083813E-3   8.137180120684207E-4  
 2.522000000000000E10    7.362039759755135E-4  -2.019866136834025E-3  
 2.524000000000000E10   -2.072379924356937E-3  -4.706229665316641E-4  
 2.526000000000000E10   -1.629189500818029E-4   2.143882447853684E-3  
 2.528000000000000E10    2.405834849923849E-3  -2.719101321417838E-4  
 2.530000000000000E10   -1.579141244292259E-4  -2.400407334789634E-3  
 2.532000000000000E10   -2.564115216955543E-3   6.389865302480757E-4  
 2.534000000000000E10    7.854619179852307E-4   2.644130494445562E-3  
 2.536000000000000E10    2.221885602921248E-3  -1.375134335830808E-3  
 2.538000000000000E10   -1.321729738265276E-3  -2.419440075755119E-3  
 2.540000000000000E10   -2.088733948767185E-3   1.697709551081061E-3  
 2.542000000000000E10    1.959719927981496E-3   2.117306226864457E-3  
 2.544000000000000E10    1.968325348570943E-3  -2.407884458079934E-3  
 2.546000000000000E10   -2.498241374269128E-3  -1.798570738174021E-3  
 2.548000000000000E10   -1.234781346283853E-3   2.668079454451799E-3  
 2.550000000000000E10    2.951468108221889E-3   9.648618870414794E-4  
 2.552000000000000E10    4.250652564223856E-4  -2.547184238210321E-3  
 2.554000000000000E10   -2.765619894489646E-3  -3.411267534829676E-4  
 2.556000000000000E10    1.260923600057140E-4   2.659823046997190E-3  
 2.558000000000000E10    2.446257509291172E-3  -6.408030749298632E-4  
 2.560000000000000E10   -7.783589535392821E-4  -2.434196416288614E-3  
 2.562000000000000E10   -2.165675396099687E-3   9.671368170529604E-4  
 2.564000000000000E10    1.205081818625331E-3   2.005467191338539E-3  
 2.566000000000000E10    1.776074175722897E-3  -1.652985461987555E-3  
 2.568000000000000E10   -2.119992394000292E-3  -1.566643011756241E-3  
 2.570000000000000E10   -1.205946668051183E-3   2.389229368418455E-3  
 2.572000000000000E10    2.444570884108543E-3   8.754568989388645E-4  
 2.574000000000000E10    4.206891462672502E-4  -2.783731324598193E-3  
 2.576000000000000E10   -2.782256575301290E-3   1.624088472453877E-4  
 2.578000000000000E10    3.295630449429154E-4   2.540772315114737E-3  
 2.580000000000000E10    2.774089341983199E-3  -7.068380364216864E-4  
 2.582000000000000E10   -9.408675250597298E-4  -2.577238017693162E-3  
 2.584000000000000E10   -2.737744478508830E-3   1.404121401719749E-3  
 2.586000000000000E10    1.912691164761782E-3   2.520533045753837E-3  
 2.588000000000000E10    2.001266693696380E-3  -2.189135877415538E-3  
 2.590000000000000E10   -2.261781133711338E-3  -2.017969498410821E-3  
 2.592000000000000E10   -1.723748398944736E-3   2.471924060955644E-3  
 2.594000000000000E10    2.609713468700647E-3   1.831687754020095E-3  
 2.596000000000000E10    1.388733391650021E-3  -3.006809623911977E-3  
 2.598000000000000E10   -3.074215957894921E-3  -1.282535842619836E-3  
 2.600000000000000E10   -8.077771635726094E-4   3.439587540924549E-3  
 2.602000000000000E10    3.644052660092711E-3   3.368605102878064E-4  
 2.604000000000000E10   -2.153452223865315E-4  -3.364447271451354E-3  
 2.606000000000000E10   -3.304205834865570E-3   6.371807539835572E-4  
 2.608000000000000E10    6.127014639787376E-4   3.225530497729778E-3  
 2.610000000000000E10    3.353644860908389E-3  -9.707101271487773E-4  
 2.612000000000000E10   -1.341211842373014E-3  -2.958362456411123E-3  
 2.614000000000000E10   -3.134318161755800E-3   1.874449546448886E-3  
 2.616000000000000E10    2.381167141720653E-3   2.907851012423635E-3  
 2.618000000000000E10    2.450566273182631E-3  -2.839925931766629E-3  
 2.620000000000000E10   -2.814855426549912E-3  -1.859463634900749E-3  
 2.622000000000000E10   -1.599706010892987E-3   3.249094123020768E-3  
 2.624000000000000E10    3.372106235474348E-3   1.151973032392561E-3  
 2.626000000000000E10    7.699864218011499E-4  -3.431491320952773E-3  
 2.628000000000000E10   -3.543023020029068E-3   1.267327479581581E-5  
 2.630000000000000E10    4.232426290400326E-4   3.645445685833693E-3  
 2.632000000000000E10    3.506416222080588E-3  -1.010621199384332E-3  
 2.634000000000000E10   -1.397303771227598E-3  -3.191422438248992E-3  
 2.636000000000000E10   -3.005111590027809E-3   1.980495871976018E-3  
 2.638000000000000E10    2.366332570090890E-3   2.757564419880509E-3  
 2.640000000000000E10    2.365731168538332E-3  -2.519833156839013E-3  
 2.642000000000000E10   -2.980432705953717E-3  -1.852987799793482E-3  
 2.644000000000000E10   -1.695249462500215E-3   3.197925165295601E-3  
 2.646000000000000E10    3.819136647507548E-3   1.001427182927728E-3  
 2.648000000000000E10    5.191342206671834E-4  -3.714062040671706E-3  
 2.650000000000000E10   -3.762689884752035E-3   2.174823894165456E-4  
 2.652000000000000E10    8.077181992121041E-4   3.650672966614366E-3  
 2.654000000000000E10    3.697651438415051E-3  -1.480456325225532E-3  
 2.656000000000000E10   -2.003713976591826E-3  -3.485189750790596E-3  
 2.658000000000000E10   -2.967844717204571E-3   2.364668762311339E-3  
 2.660000000000000E10    2.759021241217852E-3   2.496564062312245E-3  
 2.662000000000000E10    2.084176987409592E-3  -2.890423173084855E-3  
 2.664000000000000E10   -3.318212926387787E-3  -1.603425946086645E-3  
 2.666000000000000E10   -9.085321216844022E-4   3.428878495469689E-3  
 2.668000000000000E10    3.183080116286874E-3   6.153966533020139E-4  
 2.670000000000000E10    2.881349355448037E-4  -3.246788633987308E-3  
 2.672000000000000E10   -3.017510520294309E-3   4.459836418391205E-5  
 2.674000000000000E10    4.172641201876104E-4   2.656237455084920E-3  
 2.676000000000000E10    2.535901032388210E-3  -6.824643933214247E-4  
 2.678000000000000E10   -9.416818502359092E-4  -2.375361742451787E-3  
 2.680000000000000E10   -1.978177344426513E-3   1.295321853831410E-3  
 2.682000000000000E10    1.349320518784225E-3   1.617026980966330E-3  
 2.684000000000000E10    1.607332611456513E-3  -1.677095540799201E-3  
 2.686000000000000E10   -1.722262590192258E-3  -1.196047989651561E-3  
 2.688000000000000E10   -8.375094621442258E-4   1.786005333997309E-3  
 2.690000000000000E10    1.853680470958352E-3   5.788616836071014E-4  
 2.692000000000000E10    2.387658169027418E-4  -1.978065818548203E-3  
 2.694000000000000E10   -1.956736436113715E-3   1.508458717580652E-5  
 2.696000000000000E10    3.800517006311566E-4   2.066893037408590E-3  
 2.698000000000000E10    1.693345606327057E-3  -5.370198050513864E-4  
 2.700000000000000E10   -9.628309635445476E-4  -1.472203875891864E-3  
 2.702000000000000E10   -1.245378400199115E-3   1.154567697085440E-3  
 2.704000000000000E10    1.071315025910735E-3   1.398238353431225E-3  
 2.706000000000000E10    1.131630968302488E-3  -1.228184788487852E-3  
 2.708000000000000E10   -1.321714720688760E-3  -8.504086872562766E-4  
 2.710000000000000E10   -7.825806387700141E-4   1.353052211925387E-3  
 2.712000000000000E10    1.357282162643969E-3   7.158494554460049E-4  
 2.714000000000000E10    2.451623731758446E-4  -1.373091130517423E-3  
 2.716000000000000E10   -1.269271946512163E-3  -1.904750388348475E-4  
 2.718000000000000E10   -1.051389554049820E-4   1.341896713711321E-3  
 2.720000000000000E10    1.268094405531883E-3  -1.029626855597599E-5  
 2.722000000000000E10   -3.249494475312531E-4  -1.268267515115440E-3  
 2.724000000000000E10   -1.211231108754873E-3   3.454066754784435E-4  
 2.726000000000000E10    2.596478734631091E-4   1.011228887364268E-3  
 2.728000000000000E10    7.345898775383830E-4  -3.158165200147778E-4  
 2.730000000000000E10   -5.333763547241688E-4  -8.321882924064994E-4  
 2.732000000000000E10   -8.290935074910522E-4   4.458573530428112E-4  
 2.734000000000000E10    3.251314337830991E-4   7.504653185606003E-4  
 2.736000000000000E10    6.703274557366967E-4  -4.674917436204851E-4  
 2.738000000000000E10   -4.051266005262733E-4  -7.398104062303901E-4  
 2.740000000000000E10   -5.053133354522288E-4   5.306284292601049E-4  
 2.742000000000000E10    4.853592545259744E-4   5.012041074223816E-4  
 2.744000000000000E10    4.602585977409035E-4  -3.967793018091470E-4  
 2.746000000000000E10   -4.540639638435096E-4  -5.170709919184446E-4  
 2.748000000000000E10   -3.769533650483936E-4   4.687507171183825E-4  
 2.750000000000000E10    4.391253460198641E-4   4.000936751253903E-4  
 2.752000000000000E10    2.580864238552749E-4  -5.089677870273590E-4  
 2.754000000000000E10   -4.952840972691774E-4   1.096179985324852E-4  
 2.756000000000000E10    1.938126952154562E-4   2.321094652870670E-4  
