#  HZ   S   RI   R     50.00 
! Rohde & Schwarz ZVA40 4Ports - Version 3.90 - 1145.1110k42 SN: 100403
! Date: 2023-10-04 08:54:40
! Measurement: S12 
! 
 2.200000000000000E10    1.145196380093694E-3  -2.274100435897708E-3  
 2.202000000000000E10   -2.238408429548144E-3  -1.054096501320601E-3  
 2.204000000000000E10   -6.864297320134938E-4   2.225860953330994E-3  
 2.206000000000000E10    2.396160503849387E-3   3.920295275747776E-4  
 2.208000000000000E10   -4.950328275299398E-6  -2.380782505497336E-3  
 2.210000000000000E10   -2.579362131655216E-3   3.617125330492854E-4  
 2.212000000000000E10    5.628546932712197E-4   2.493684412911534E-3  
 2.214000000000000E10    2.326318761333823E-3  -9.051864035427570E-4  
 2.216000000000000E10   -1.050085294991732E-3  -2.394729992374778E-3  
 2.218000000000000E10   -2.416920615360141E-3   1.678751432336867E-3  
 2.220000000000000E10    1.756617566570640E-3   2.174239372834563E-3  
 2.222000000000000E10    1.989326439797878E-3  -1.951779238879681E-3  
 2.224000000000000E10   -2.428179373964667E-3  -1.937477267347276E-3  
 2.226000000000000E10   -1.775637618266046E-3   2.731920219957829E-3  
 2.228000000000000E10    2.688714768737555E-3   1.495627337135375E-3  
 2.230000000000000E10    1.243637874722481E-3  -2.901957137510181E-3  
 2.232000000000000E10   -3.151899902150035E-3  -9.843476582318544E-4  
 2.234000000000000E10   -8.049626485444605E-4   3.037590300664306E-3  
 2.236000000000000E10    3.167055780068040E-3   3.421598230488598E-4  
 2.238000000000000E10    2.271360717713833E-4  -3.118433989584446E-3  
 2.240000000000000E10   -3.461462212726474E-3  -1.256235118489713E-4  
 2.242000000000000E10    4.208649916108698E-4   3.238354343920946E-3  
 2.244000000000000E10    3.137529361993074E-3  -6.415829411707819E-4  
 2.246000000000000E10   -8.324534865096211E-4  -3.023677738383412E-3  
 2.248000000000000E10   -2.946304390206933E-3   1.267449930310249E-3  
 2.250000000000000E10    1.445077243261039E-3   2.537335036322475E-3  
 2.252000000000000E10    2.239652676507831E-3  -1.990074990317226E-3  
 2.254000000000000E10   -1.945383148267865E-3  -2.260423498228192E-3  
 2.256000000000000E10   -1.947659300640225E-3   2.271607285365462E-3  
 2.258000000000000E10    2.689209068194032E-3   1.762093976140022E-3  
 2.260000000000000E10    1.324727549217641E-3  -2.774735679849982E-3  
 2.262000000000000E10   -3.050424391403794E-3  -8.098895777948201E-4  
 2.264000000000000E10   -3.761364496313036E-4   2.947781002148986E-3  
 2.266000000000000E10    3.380521433427930E-3   1.720192522043362E-4  
 2.268000000000000E10   -3.552715643309057E-4  -3.216124372556806E-3  
 2.270000000000000E10   -2.929189475253224E-3   1.072728657163680E-3  
 2.272000000000000E10    1.189380302093923E-3   3.185431472957134E-3  
 2.274000000000000E10    2.946516266092658E-3  -1.509818830527365E-3  
 2.276000000000000E10   -1.909514656290412E-3  -2.570854499936104E-3  
 2.278000000000000E10   -2.170947613194585E-3   2.404287457466126E-3  
 2.280000000000000E10    2.500118222087622E-3   2.091801492497325E-3  
 2.282000000000000E10    2.818861743435264E-3  -1.298240036703646E-3  
 2.284000000000000E10   -2.764658536761999E-3  -1.212923205457628E-3  
 2.286000000000000E10   -1.081269816495478E-3   2.653742907568812E-3  
 2.288000000000000E10    2.932064235210419E-3   1.182383624836803E-3  
 2.290000000000000E10    6.066095666028559E-4  -3.019268391653895E-3  
 2.292000000000000E10   -3.076412947848439E-3  -4.871068522334099E-4  
 2.294000000000000E10   -3.299024319858290E-5   2.968586981296539E-3  
 2.296000000000000E10    3.249616129323840E-3  -4.593166522681713E-4  
 2.298000000000000E10   -7.601900142617524E-4  -3.018888412043452E-3  
 2.300000000000000E10   -3.077094908803701E-3   1.124314730986953E-3  
 2.302000000000000E10    1.135063823312521E-3   2.791996812447906E-3  
 2.304000000000000E10    2.641091123223305E-3  -1.646675285883248E-3  
 2.306000000000000E10   -1.688416465185583E-3  -2.529315650463104E-3  
 2.308000000000000E10   -2.422773744910955E-3   2.220452763140202E-3  
 2.310000000000000E10    2.263736911118031E-3   2.098384778946638E-3  
 2.312000000000000E10    1.910145627334714E-3  -2.681881422176957E-3  
 2.314000000000000E10   -2.998732728883624E-3  -1.616280525922775E-3  
 2.316000000000000E10   -1.140915439464152E-3   3.004850121214986E-3  
 2.318000000000000E10    3.266553860157728E-3   6.760628893971443E-4  
 2.320000000000000E10   -3.575123628252186E-5  -3.444783389568329E-3  
 2.322000000000000E10   -3.125667572021484E-3   3.636853361967951E-4  
 2.324000000000000E10    8.493131608702242E-4   3.266915678977966E-3  
 2.326000000000000E10    2.906804205849767E-3  -1.333362306468189E-3  
 2.328000000000000E10   -1.859002048149705E-3  -2.557549159973860E-3  
 2.330000000000000E10   -2.382067963480949E-3   2.215303480625153E-3  
 2.332000000000000E10    2.621665364131331E-3   1.794676063582301E-3  
 2.334000000000000E10    1.301682787016034E-3  -2.934595569968224E-3  
 2.336000000000000E10   -3.077568486332893E-3  -1.004694378934801E-3  
 2.338000000000000E10   -3.366474702488631E-4   2.919173333793879E-3  
 2.340000000000000E10    3.030793042853475E-3  -1.149799354607239E-4  
 2.342000000000000E10   -3.407765179872513E-4  -3.007101360708475E-3  
 2.344000000000000E10   -3.021393902599812E-3   9.981842013075948E-4  
 2.346000000000000E10    1.466641668230295E-3   2.686535473912954E-3  
 2.348000000000000E10    2.256042789667845E-3  -1.718743937090039E-3  
 2.350000000000000E10   -2.000956563279033E-3  -2.034085802733898E-3  
 2.352000000000000E10   -1.788479508832097E-3   2.372343558818102E-3  
 2.354000000000000E10    2.673174953088164E-3   1.131418510340154E-3  
 2.356000000000000E10    4.328064387664199E-4  -2.405963605269790E-3  
 2.358000000000000E10   -2.332666423171759E-3  -2.757733745966107E-4  
 2.360000000000000E10    1.871027197921649E-4   2.104893559589982E-3  
 2.362000000000000E10    1.881141448393464E-3  -5.567241460084915E-4  
 2.364000000000000E10   -8.626992930658162E-4  -1.346907112747431E-3  
 2.366000000000000E10   -1.471336465328932E-3   1.010791980661452E-3  
 2.368000000000000E10    1.134392921812832E-3   9.923171019181609E-4  
 2.370000000000000E10    3.710991877596825E-4  -1.173968194052577E-3  
 2.372000000000000E10   -1.071505597792566E-3  -1.737287384457886E-4  
 2.374000000000000E10    2.015303762163967E-4   1.101728412322700E-3  
 2.376000000000000E10    1.046681427396834E-3  -5.351456929929555E-4  
 2.378000000000000E10   -8.037182851694524E-4  -6.833102088421583E-4  
 2.380000000000000E10   -4.298720450606197E-4   9.319020900875330E-4  
 2.382000000000000E10    1.011270913295448E-3   5.532886716537178E-4  
 2.384000000000000E10   -1.368805096717551E-4  -1.434367266483605E-3  
 2.386000000000000E10   -1.053596613928676E-3   5.216043209657073E-4  
 2.388000000000000E10    8.710407419130206E-4   8.391820592805743E-4  
 2.390000000000000E10    6.587015232071281E-4  -9.212166187353432E-4  
 2.392000000000000E10   -1.306379796005786E-3  -4.291682562325150E-4  
 2.394000000000000E10   -8.340764179592952E-5   1.457301899790764E-3  
 2.396000000000000E10    1.314032706432045E-3  -6.272674363572151E-5  
 2.398000000000000E10   -7.358150905929506E-4  -1.368214143440127E-3  
 2.400000000000000E10   -1.039997907355428E-3   1.057434361428022E-3  
 2.402000000000000E10    1.382300630211830E-3   8.616960258223116E-4  
 2.404000000000000E10    4.830730322282761E-4  -1.479238271713257E-3  
 2.406000000000000E10   -1.728474744595587E-3  -2.074836229439825E-4  
 2.408000000000000E10    3.958081651944667E-4   1.707902643829584E-3  
 2.410000000000000E10    1.561041106469929E-3  -5.423169932328165E-4  
 2.412000000000000E10   -6.731688627041876E-4  -1.519440440461040E-3  
 2.414000000000000E10   -1.555064925923944E-3   1.091439276933670E-3  
 2.416000000000000E10    1.562735415063798E-3   1.520726946182549E-3  
 2.418000000000000E10    9.132003178820014E-4  -1.774513511918485E-3  
 2.420000000000000E10   -1.908769248984754E-3  -9.494429104961455E-4  
 2.422000000000000E10   -8.049204479902983E-4   2.269712742418051E-3  
 2.424000000000000E10    2.054038923233748E-3   5.903563578613102E-4  
 2.426000000000000E10    1.414646249031648E-4  -2.201105933636427E-3  
 2.428000000000000E10   -2.196385292336345E-3  -2.269930846523494E-4  
 2.430000000000000E10    5.782214575447142E-4   2.439405070617795E-3  
 2.432000000000000E10    2.191406674683094E-3  -6.050902884453535E-4  
 2.434000000000000E10   -1.045084325596690E-3  -2.284647198393941E-3  
 2.436000000000000E10   -2.167837228626013E-3   1.429272466339171E-3  
 2.438000000000000E10    1.461919164285064E-3   1.806512824259698E-3  
 2.440000000000000E10    1.664114301092923E-3  -1.759555889293551E-3  
 2.442000000000000E10   -1.901375362649560E-3  -1.575774862430990E-3  
 2.444000000000000E10   -1.207801513373852E-3   1.992723904550076E-3  
 2.446000000000000E10    1.949290395714343E-3   1.160395215265453E-3  
 2.448000000000000E10    9.460308938287199E-4  -1.854316447861493E-3  
 2.450000000000000E10   -2.080619335174561E-3  -7.014693110249937E-4  
 2.452000000000000E10   -3.658661444205791E-4   2.347319619730115E-3  
 2.454000000000000E10    2.113032620400190E-3   1.230255002155900E-4  
 2.456000000000000E10   -1.770753442542628E-4  -2.155731664970517E-3  
 2.458000000000000E10   -1.932605169713497E-3   5.885775317437947E-4  
 2.460000000000000E10    5.505033768713474E-4   1.953979721292853E-3  
 2.462000000000000E10    2.041007159277797E-3  -7.367083453573287E-4  
 2.464000000000000E10   -1.251702429726720E-3  -1.810043700970709E-3  
 2.466000000000000E10   -1.609252416528761E-3   1.419643172994256E-3  
 2.468000000000000E10    1.840424025431275E-3   1.552395639009774E-3  
 2.470000000000000E10    8.933543576858938E-4  -2.044728957116604E-3  
 2.472000000000000E10   -2.048260066658258E-3  -4.569435259327292E-4  
 2.474000000000000E10   -5.813579773530364E-4   2.086556982249022E-3  
 2.476000000000000E10    2.266668248921633E-3   2.060924161924049E-4  
 2.478000000000000E10    1.720406144158915E-4  -2.512745093554258E-3  
 2.480000000000000E10   -2.222807146608830E-3   3.979003522545099E-4  
 2.482000000000000E10    5.674726562574506E-4   2.411170164123178E-3  
 2.484000000000000E10    2.526219235733151E-3  -8.305895607918501E-4  
 2.486000000000000E10   -1.065975287929177E-3  -2.430406166240573E-3  
 2.488000000000000E10   -2.445090329274535E-3   1.452636090107262E-3  
 2.490000000000000E10    1.838922966271639E-3   2.153584267944098E-3  
 2.492000000000000E10    2.030228497460485E-3  -1.879787072539330E-3  
 2.494000000000000E10   -2.152577275410295E-3  -1.851816079579294E-3  
 2.496000000000000E10   -1.587326638400555E-3   2.360400510951877E-3  
 2.498000000000000E10    2.436007373034954E-3   1.234101247973740E-3  
 2.500000000000000E10    1.175995916128159E-3  -2.457309747114778E-3  
 2.502000000000000E10   -2.768469974398613E-3  -4.973143222741783E-4  
 2.504000000000000E10   -2.410225715721026E-4   2.505372744053602E-3  
 2.506000000000000E10    2.409614389762282E-3   8.206681377487257E-5  
 2.508000000000000E10    9.901143494062126E-5  -2.459921874105930E-3  
 2.510000000000000E10   -2.371630631387234E-3  -9.428347402717918E-5  
 2.512000000000000E10    3.016001719515771E-4   2.515115775167942E-3  
 2.514000000000000E10    2.452214248478413E-3  -6.677902420051396E-4  
 2.516000000000000E10   -8.163229795172811E-4  -2.510722726583481E-3  
 2.518000000000000E10   -2.399643417447805E-3   1.258018193766475E-3  
 2.520000000000000E10    1.641729380935431E-3   2.150293905287981E-3  
 2.522000000000000E10    1.722741522826254E-3  -1.802649698220193E-3  
 2.524000000000000E10   -1.755157718434930E-3  -1.479580532759428E-3  
 2.526000000000000E10   -1.204364700242877E-3   2.098157303407788E-3  
 2.528000000000000E10    2.153369132429361E-3   9.596720919944346E-4  
 2.530000000000000E10    6.490140222012997E-4  -2.477655652910471E-3  
 2.532000000000000E10   -2.651599235832691E-3  -1.618961687199771E-4  
 2.534000000000000E10    3.561817720765248E-5   2.846833085641265E-3  
 2.536000000000000E10    2.619929378852248E-3  -9.591583511792123E-4  
 2.538000000000000E10   -9.872099617496133E-4  -2.746565267443657E-3  
 2.540000000000000E10   -2.324246801435947E-3   1.284318859688938E-3  
 2.542000000000000E10    1.508005545474589E-3   2.377678407356143E-3  
 2.544000000000000E10    2.094131661579013E-3  -2.019838895648718E-3  
 2.546000000000000E10   -2.439775504171848E-3  -2.041435334831476E-3  
 2.548000000000000E10   -1.774766133166850E-3   2.469233935698867E-3  
 2.550000000000000E10    2.772517967969179E-3   1.623924938030541E-3  
 2.552000000000000E10    8.087966707535088E-4  -3.060298273339868E-3  
 2.554000000000000E10   -3.109819721430540E-3  -5.007045110687614E-4  
 2.556000000000000E10   -4.799443122465164E-4   2.923557301983237E-3  
 2.558000000000000E10    2.986056962981820E-3  -6.980422040214762E-5  
 2.560000000000000E10   -3.735736245289445E-4  -3.184085479006171E-3  
 2.562000000000000E10   -2.881151624023914E-3   4.410117981024087E-4  
 2.564000000000000E10    7.070890860632062E-4   2.903821645304561E-3  
 2.566000000000000E10    2.882948145270348E-3  -1.335877692326903E-3  
 2.568000000000000E10   -1.858501578681171E-3  -2.509140642359853E-3  
 2.570000000000000E10   -2.453322755172849E-3   2.124447142705321E-3  
 2.572000000000000E10    2.148629864677787E-3   1.937927445396781E-3  
 2.574000000000000E10    1.478103338740766E-3  -2.475712681189179E-3  
 2.576000000000000E10   -2.782023511826992E-3  -1.426377100870013E-3  
 2.578000000000000E10   -8.604883332736790E-4   2.831427846103907E-3  
 2.580000000000000E10    2.840328263118863E-3   4.205293662380427E-4  
 2.582000000000000E10    9.686774137662724E-5  -2.898797392845154E-3  
 2.584000000000000E10   -3.100264584645629E-3   5.132983787916601E-4  
 2.586000000000000E10    9.879326680675149E-4   2.588594565168023E-3  
 2.588000000000000E10    2.593371784314513E-3  -1.330329687334597E-3  
 2.590000000000000E10   -1.432972261682153E-3  -2.632360905408859E-3  
 2.592000000000000E10   -2.479793038219214E-3   1.811358728446066E-3  
 2.594000000000000E10    1.957888249307871E-3   2.300600288435817E-3  
 2.596000000000000E10    2.274740487337112E-3  -2.271946286782622E-3  
 2.598000000000000E10   -2.770759398117662E-3  -2.127164741978049E-3  
 2.600000000000000E10   -1.802958548069000E-3   3.140487940981984E-3  
 2.602000000000000E10    3.425359958782792E-3   1.257781754247844E-3  
 2.604000000000000E10    9.333468042314053E-4  -3.707831725478172E-3  
 2.606000000000000E10   -3.789511742070317E-3  -3.031407250091434E-4  
 2.608000000000000E10    9.900351142277941E-5   3.634199267253280E-3  
 2.610000000000000E10    3.706039395183325E-3  -4.053173470310867E-4  
 2.612000000000000E10   -6.934730336070061E-4  -3.764802357181907E-3  
 2.614000000000000E10   -3.837733762338758E-3   1.257722382433713E-3  
 2.616000000000000E10    1.723092980682850E-3   3.317854367196560E-3  
 2.618000000000000E10    3.043433884158731E-3  -2.106653526425362E-3  
 2.620000000000000E10   -2.381464932113886E-3  -2.809174126014113E-3  
 2.622000000000000E10   -2.087396103888750E-3   2.846796996891499E-3  
 2.624000000000000E10    2.824852941557765E-3   1.765155699104071E-3  
 2.626000000000000E10    1.454479177482426E-3  -2.819933230057359E-3  
 2.628000000000000E10   -3.300154581665993E-3  -9.255821933038533E-4  
 2.630000000000000E10   -6.658090860582888E-4   3.392053069546819E-3  
 2.632000000000000E10    3.288538195192814E-3  -2.456061156408396E-5  
 2.634000000000000E10   -3.825854219030589E-4  -3.228786867111921E-3  
 2.636000000000000E10   -3.431299002841115E-3   8.862380054779351E-4  
 2.638000000000000E10    1.384830451570451E-3   3.076048567891121E-3  
 2.640000000000000E10    2.649656962603331E-3  -1.700685475952923E-3  
 2.642000000000000E10   -1.863642712123692E-3  -2.568641910329461E-3  
 2.644000000000000E10   -2.466004807502031E-3   2.444395562633872E-3  
 2.646000000000000E10    2.962418133392930E-3   2.141148084774613E-3  
 2.648000000000000E10    1.587840146385133E-3  -3.006763523444533E-3  
 2.650000000000000E10   -3.302722238004208E-3  -1.190498471260071E-3  
 2.652000000000000E10   -5.888722371309996E-4   3.527503926306963E-3  
 2.654000000000000E10    3.580012358725071E-3  -1.062012597685680E-5  
 2.656000000000000E10   -4.878851759713143E-4  -3.534045303240418E-3  
 2.658000000000000E10   -3.191814525052905E-3   9.876887779682875E-4  
 2.660000000000000E10    1.543246209621429E-3   3.140768501907587E-3  
 2.662000000000000E10    2.774945227429271E-3  -2.142062643542886E-3  
 2.664000000000000E10   -2.286325208842754E-3  -2.471665618941188E-3  
 2.666000000000000E10   -1.960555091500282E-3   2.739361952990294E-3  
 2.668000000000000E10    2.864540088921785E-3   1.585850026458502E-3  
 2.670000000000000E10    1.093782833777368E-3  -2.785312011837959E-3  
 2.672000000000000E10   -2.869100542739034E-3  -9.555856813676655E-4  
 2.674000000000000E10   -6.942688487470150E-4   2.649295842275024E-3  
 2.676000000000000E10    2.805518684908748E-3   1.999792002607137E-4  
 2.678000000000000E10   -1.948976278072223E-4  -2.522859722375870E-3  
 2.680000000000000E10   -2.515056170523167E-3   6.381864077411592E-4  
 2.682000000000000E10    7.867221138440073E-4   2.306330716237426E-3  
 2.684000000000000E10    2.122133038938046E-3  -1.247075386345387E-3  
 2.686000000000000E10   -1.241142861545086E-3  -1.676941639743745E-3  
 2.688000000000000E10   -1.682890579104424E-3   1.315907575190067E-3  
 2.690000000000000E10    1.599220093339682E-3   1.379667548462749E-3  
 2.692000000000000E10    9.050706867128611E-4  -1.882409560494125E-3  
 2.694000000000000E10   -1.555496244691312E-3  -7.479751948267222E-4  
 2.696000000000000E10   -5.331847933121026E-4   1.807919819839299E-3  
 2.698000000000000E10    1.902295043691993E-3   2.368316636420786E-4  
 2.700000000000000E10   -2.192165120504797E-4  -1.757129328325391E-3  
 2.702000000000000E10   -1.629490987397730E-3   3.965390205848962E-4  
 2.704000000000000E10    5.412460886873305E-4   1.586099038831890E-3  
 2.706000000000000E10    1.323031028732657E-3  -7.516648038290441E-4  
 2.708000000000000E10   -9.365209261886776E-4  -1.218984834849834E-3  
 2.710000000000000E10   -1.303294440731406E-3   8.795163012109697E-4  
 2.712000000000000E10    1.193148782476783E-3   1.069340389221907E-3  
 2.714000000000000E10    7.647508173249662E-4  -1.387594733387232E-3  
 2.716000000000000E10   -1.043405500240624E-3  -3.937006986234337E-4  
 2.718000000000000E10   -3.676809137687087E-4   1.009137951768935E-3  
 2.720000000000000E10    1.067084143869579E-3   2.454962814226747E-4  
 2.722000000000000E10    1.562944089528173E-4  -1.160144805908203E-3  
 2.724000000000000E10   -1.128742471337318E-3  -1.337959402007982E-4  
 2.726000000000000E10   -1.191705159726553E-4   1.108792610466480E-3  
 2.728000000000000E10    1.186376553960145E-3   2.706511850192328E-6  
 2.730000000000000E10   -2.486704615876079E-4  -1.049188547767699E-3  
 2.732000000000000E10   -1.118576736189425E-3   3.520281170494855E-4  
 2.734000000000000E10    4.856029991060495E-4   1.079107634723187E-3  
 2.736000000000000E10    1.069458667188883E-3  -4.289663338568062E-4  
 2.738000000000000E10   -4.170858883298934E-4  -1.130033051595092E-3  
 2.740000000000000E10   -8.453791961073875E-4   4.225354641675949E-4  
 2.742000000000000E10    5.549939814954996E-4   8.288428070954979E-4  
 2.744000000000000E10    9.332072222605348E-4  -3.916354908142239E-4  
 2.746000000000000E10   -2.809102879837155E-4  -7.603775593452156E-4  
 2.748000000000000E10   -7.329811924137175E-4   6.942138425074518E-4  
 2.750000000000000E10    4.733478417620063E-4   7.669520564377308E-4  
 2.752000000000000E10    6.817120010964572E-4  -5.272105336189270E-4  
 2.754000000000000E10   -4.821181355509907E-4  -5.592750385403633E-4  
 2.756000000000000E10   -5.960148992016912E-4   3.555997391231358E-4  
