#  HZ   S   RI   R     50.00 
! Rohde & Schwarz ZVA40 4Ports - Version 3.90 - 1145.1110k42 SN: 100403
! Date: 2023-10-04 08:54:57
! Measurement: S12 
! 
 2.200000000000000E10    1.801064121536911E-3  -2.048135269433260E-3  
 2.202000000000000E10   -1.900188508443534E-3  -1.469619804993272E-3  
 2.204000000000000E10   -1.198421698063612E-3   2.269642194733024E-3  
 2.206000000000000E10    2.444072626531124E-3   1.249871449545026E-3  
 2.208000000000000E10    8.737787720747292E-4  -2.325538778677583E-3  
 2.210000000000000E10   -2.790272934362292E-3  -7.347233477048576E-4  
 2.212000000000000E10   -4.622873966582120E-4   2.883515786379576E-3  
 2.214000000000000E10    2.797367749735713E-3   2.579759457148612E-4  
 2.216000000000000E10    3.144223592244089E-5  -2.946135355159640E-3  
 2.218000000000000E10   -2.944669453427196E-3   2.806935226544738E-4  
 2.220000000000000E10    6.736264913342893E-4   2.849757438525558E-3  
 2.222000000000000E10    2.441962948068976E-3  -8.494309731759131E-4  
 2.224000000000000E10   -9.666940313763917E-4  -2.415067749097943E-3  
 2.226000000000000E10   -2.646939130499959E-3   1.733783516101539E-3  
 2.228000000000000E10    1.730386167764664E-3   1.754836528562009E-3  
 2.230000000000000E10    1.712218858301640E-3  -1.916189678013325E-3  
 2.232000000000000E10   -2.143787685781717E-3  -1.409507589414716E-3  
 2.234000000000000E10   -1.173878437839449E-3   2.219540532678366E-3  
 2.236000000000000E10    2.599317114800215E-3   8.241651230491698E-4  
 2.238000000000000E10    6.376163219101727E-4  -2.515139756724238E-3  
 2.240000000000000E10   -3.188975853845477E-3  -3.618941118475050E-4  
 2.242000000000000E10    3.600376076065004E-4   3.059193724766374E-3  
 2.244000000000000E10    2.759752562269568E-3  -4.271911457180977E-4  
 2.246000000000000E10   -8.351618889719248E-4  -2.896101679652929E-3  
 2.248000000000000E10   -3.027422353625298E-3   1.027501071803272E-3  
 2.250000000000000E10    1.265354570932686E-3   2.975537441670895E-3  
 2.252000000000000E10    2.705519087612629E-3  -1.801883918233216E-3  
 2.254000000000000E10   -1.843775273300707E-3  -2.714676316827536E-3  
 2.256000000000000E10   -2.717527560889721E-3   2.313857199624181E-3  
 2.258000000000000E10    2.368579152971506E-3   2.337856451049447E-3  
 2.260000000000000E10    2.093105344101787E-3  -2.534774830564857E-3  
 2.262000000000000E10   -2.965280087664723E-3  -1.700305263511837E-3  
 2.264000000000000E10   -1.469569513574243E-3   2.700012642890215E-3  
 2.266000000000000E10    2.854446182027459E-3   1.698449719697237E-3  
 2.268000000000000E10    9.817543905228376E-4  -3.311407286673784E-3  
 2.270000000000000E10   -3.474253229796886E-3  -4.374678246676922E-4  
 2.272000000000000E10   -2.150686923414469E-4   3.107923548668623E-3  
 2.274000000000000E10    3.078027861192823E-3  -6.862241571070626E-5  
 2.276000000000000E10   -6.634632591158152E-4  -2.902191597968340E-3  
 2.278000000000000E10   -3.219889942556620E-3   1.080550951883197E-3  
 2.280000000000000E10    1.433620112948120E-3   2.617117017507553E-3  
 2.282000000000000E10    2.760236850008369E-3   2.560234279371798E-4  
 2.284000000000000E10   -2.014186698943377E-3  -2.104036742821336E-3  
 2.286000000000000E10   -1.894000452011824E-3   2.147105522453785E-3  
 2.288000000000000E10    2.372155664488673E-3   1.784758875146508E-3  
 2.290000000000000E10    1.350783160887659E-3  -2.656922908499837E-3  
 2.292000000000000E10   -2.739570802077651E-3  -1.038231072016060E-3  
 2.294000000000000E10   -7.687421166338027E-4   2.689212327823043E-3  
 2.296000000000000E10    3.054813481867313E-3   2.700076438486576E-4  
 2.298000000000000E10   -6.128245149739087E-5  -3.068912541493774E-3  
 2.300000000000000E10   -2.935556694865227E-3   4.039074992761016E-4  
 2.302000000000000E10    7.633914356119931E-4   2.777759451419115E-3  
 2.304000000000000E10    2.629293827340007E-3  -1.100024906918407E-3  
 2.306000000000000E10   -1.109570963308215E-3  -2.489757491275668E-3  
 2.308000000000000E10   -2.403025282546878E-3   1.625538454391062E-3  
 2.310000000000000E10    1.773965312168002E-3   2.126490464434028E-3  
 2.312000000000000E10    2.086710650473833E-3  -2.138547133654356E-3  
 2.314000000000000E10   -2.380411606281996E-3  -1.752171665430069E-3  
 2.316000000000000E10   -1.399320201016963E-3   2.449281280860305E-3  
 2.318000000000000E10    2.773394342511892E-3   1.151716685853899E-3  
 2.320000000000000E10    9.019493591040373E-4  -2.859732368960977E-3  
 2.322000000000000E10   -2.864483976736665E-3  -4.333203833084554E-4  
 2.324000000000000E10   -2.602270687930286E-4   3.092129249125719E-3  
 2.326000000000000E10    3.432244295254350E-3  -2.992011141031981E-4  
 2.328000000000000E10   -8.734859293326736E-4  -3.141103778034449E-3  
 2.330000000000000E10   -3.100661095231772E-3   1.116676721721888E-3  
 2.332000000000000E10    1.825979561544955E-3   2.706245984882116E-3  
 2.334000000000000E10    2.439625328406692E-3  -2.239755587652326E-3  
 2.336000000000000E10   -2.150673652067781E-3  -2.151968656107783E-3  
 2.338000000000000E10   -1.757160876877606E-3   2.579655265435576E-3  
 2.340000000000000E10    2.550912788137794E-3   1.235429081134498E-3  
 2.342000000000000E10    9.063758770935237E-4  -2.933527110144496E-3  
 2.344000000000000E10   -2.860023640096188E-3  -1.760309532983229E-4  
 2.346000000000000E10    2.324396482435986E-4   2.732765860855579E-3  
 2.348000000000000E10    2.546205418184400E-3  -8.053007186390460E-4  
 2.350000000000000E10   -1.233936054632068E-3  -2.172982553020120E-3  
 2.352000000000000E10   -1.958224689587951E-3   1.681010005995631E-3  
 2.354000000000000E10    1.895947614684701E-3   1.313409185968339E-3  
 2.356000000000000E10    1.015550922602415E-3  -2.276014536619186E-3  
 2.358000000000000E10   -2.114903181791306E-3  -2.458285598549992E-4  
 2.360000000000000E10    2.315906203875784E-5   2.032091375440359E-3  
 2.362000000000000E10    2.114171627908945E-3  -4.717910196632147E-4  
 2.364000000000000E10   -1.032103784382343E-3  -1.774105243384838E-3  
 2.366000000000000E10   -1.326674129813910E-3   1.148318522609770E-3  
 2.368000000000000E10    1.216964446939528E-3   1.180087216198444E-3  
 2.370000000000000E10    6.921396125108004E-4  -1.486952998675406E-3  
 2.372000000000000E10   -1.182154286652803E-3  -3.631053550634533E-4  
 2.374000000000000E10    2.481014234945178E-4   1.312096719630063E-3  
 2.376000000000000E10    1.144308713264763E-3  -4.607825540006161E-4  
 2.378000000000000E10   -6.198883056640625E-4  -7.789635565131903E-4  
 2.380000000000000E10   -3.459706786088646E-4   6.049813819117844E-4  
 2.382000000000000E10    8.547664619982243E-4   5.570389912463725E-4  
 2.384000000000000E10   -2.065033622784540E-4  -8.424872648902237E-4  
 2.386000000000000E10   -6.952382973395288E-4   3.942034672945738E-4  
 2.388000000000000E10    1.003259676508606E-3   4.138362710364163E-4  
 2.390000000000000E10    5.712401471100748E-4  -9.541743784211576E-4  
 2.392000000000000E10   -1.364476862363517E-3  -2.608395880088210E-4  
 2.394000000000000E10    3.913110413122922E-5   1.565553247928619E-3  
 2.396000000000000E10    1.655002706684172E-3  -2.710940607357770E-4  
 2.398000000000000E10   -6.538224406540394E-4  -1.548862201161683E-3  
 2.400000000000000E10   -1.422669040039182E-3   1.040495117194951E-3  
 2.402000000000000E10    1.360158901661634E-3   9.740059031173587E-4  
 2.404000000000000E10    1.075755106285214E-3  -1.600737217813730E-3  
 2.406000000000000E10   -1.865340513177216E-3  -9.591439156793058E-4  
 2.408000000000000E10   -3.621759533416480E-4   1.875687856227160E-3  
 2.410000000000000E10    2.117614727467299E-3  -2.618806138343643E-5  
 2.412000000000000E10    6.482668686658144E-5  -2.125742146745324E-3  
 2.414000000000000E10   -2.224815543740988E-3   4.884697264060378E-4  
 2.416000000000000E10    8.997019613161683E-4   2.249837853014469E-3  
 2.418000000000000E10    1.744902343489230E-3  -1.468366361223161E-3  
 2.420000000000000E10   -1.403657370246947E-3  -1.896481262519956E-3  
 2.422000000000000E10   -1.633379142731428E-3   1.516109099611640E-3  
 2.424000000000000E10    1.796248718164861E-3   1.206286833621562E-3  
 2.426000000000000E10    1.223271479830146E-3  -1.821471843868494E-3  
 2.428000000000000E10   -1.923130010254681E-3  -8.123333100229502E-4  
 2.430000000000000E10   -3.928207734134048E-4   2.206037286669016E-3  
 2.432000000000000E10    2.305317670106888E-3   2.075988595606759E-4  
 2.434000000000000E10   -2.570337383076549E-4  -2.333637326955795E-3  
 2.436000000000000E10   -2.379597863182426E-3   7.843396742828190E-4  
 2.438000000000000E10    1.056218869052827E-3   2.161187352612615E-3  
 2.440000000000000E10    1.990961376577616E-3  -1.285534934140742E-3  
 2.442000000000000E10   -1.535839284770191E-3  -1.940754824317992E-3  
 2.444000000000000E10   -1.799118705093861E-3   2.112624235451222E-3  
 2.446000000000000E10    2.135792281478643E-3   1.268127700313926E-3  
 2.448000000000000E10    1.140492153353989E-3  -2.200879622250795E-3  
 2.450000000000000E10   -2.447050064802170E-3  -8.687790832482278E-4  
 2.452000000000000E10   -7.597808726131916E-4   2.567599294707179E-3  
 2.454000000000000E10    2.450978383421898E-3   3.195617173332721E-4  
 2.456000000000000E10   -7.785865454934537E-5  -2.458790084347129E-3  
 2.458000000000000E10   -2.551866695284843E-3   1.684684102656320E-4  
 2.460000000000000E10    1.578152878209949E-4   2.665890846401453E-3  
 2.462000000000000E10    2.392956288531423E-3  -5.320219788700342E-4  
 2.464000000000000E10   -4.789188678842038E-4  -2.585223875939846E-3  
 2.466000000000000E10   -2.626047469675541E-3   9.483858011662960E-4  
 2.468000000000000E10    1.446294365450740E-3   2.314740559086204E-3  
 2.470000000000000E10    2.295799320563674E-3  -1.763458247296512E-3  
 2.472000000000000E10   -1.945976633578539E-3  -1.841025659814477E-3  
 2.474000000000000E10   -1.652091275900602E-3   2.038196194916964E-3  
 2.476000000000000E10    2.093094633892179E-3   1.490972819738090E-3  
 2.478000000000000E10    1.270203385502100E-3  -2.070922870188952E-3  
 2.480000000000000E10   -2.125510945916176E-3  -9.956681169569492E-4  
 2.482000000000000E10   -8.660875610075891E-4   2.378425793722272E-3  
 2.484000000000000E10    2.474524080753326E-3   3.085789503529668E-4  
 2.486000000000000E10    1.881594798760489E-4  -2.511032391339541E-3  
 2.488000000000000E10   -2.428066916763783E-3   3.347622405271977E-4  
 2.490000000000000E10    7.841087644919753E-4   2.279745414853096E-3  
 2.492000000000000E10    2.219720743596554E-3  -9.224613895639777E-4  
 2.494000000000000E10   -1.411061850376427E-3  -2.073448384180665E-3  
 2.496000000000000E10   -1.899567316286266E-3   1.546237152069807E-3  
 2.498000000000000E10    2.073845360428095E-3   1.562817720696330E-3  
 2.500000000000000E10    1.382632297463715E-3  -2.049493603408337E-3  
 2.502000000000000E10   -2.337684854865074E-3  -8.105873130261898E-4  
 2.504000000000000E10   -5.947979516349733E-4   2.252970123663545E-3  
 2.506000000000000E10    2.369345398619771E-3   2.255731378681958E-4  
 2.508000000000000E10    5.447486764751375E-4  -2.536575077101588E-3  
 2.510000000000000E10   -2.417186275124550E-3   1.219583937199786E-4  
 2.512000000000000E10    8.360289939446375E-5   2.697861287742853E-3  
 2.514000000000000E10    2.646923530846834E-3  -6.608544499613345E-4  
 2.516000000000000E10   -7.983979303389788E-4  -2.584485569968820E-3  
 2.518000000000000E10   -2.641755389049649E-3   1.041288487613201E-3  
 2.520000000000000E10    1.500053796917200E-3   2.569554606452584E-3  
 2.522000000000000E10    2.321693114936352E-3  -1.367828692309558E-3  
 2.524000000000000E10   -1.699784421361983E-3  -2.484126482158899E-3  
 2.526000000000000E10   -2.029011724516749E-3   2.070451388135552E-3  
 2.528000000000000E10    2.089694375172257E-3   1.812407514080405E-3  
 2.530000000000000E10    1.889896229840815E-3  -2.399581717327237E-3  
 2.532000000000000E10   -2.707234816625714E-3  -1.204885076731443E-3  
 2.534000000000000E10   -1.049177953973413E-3   2.709751715883613E-3  
 2.536000000000000E10    2.797236433252692E-3   6.418687989935279E-4  
 2.538000000000000E10    3.420792636461556E-4  -3.068509045988321E-3  
 2.540000000000000E10   -2.676375210285187E-3   1.260538119822741E-4  
 2.542000000000000E10    2.414348564343527E-4   2.792815444990993E-3  
 2.544000000000000E10    2.871914068236947E-3  -6.165771628729999E-4  
 2.546000000000000E10   -9.885549079626799E-4  -2.754811197519302E-3  
 2.548000000000000E10   -2.512498293071985E-3   1.503195031546056E-3  
 2.550000000000000E10    1.715776394121349E-3   2.254111226648092E-3  
 2.552000000000000E10    1.834081951528788E-3  -2.236374421045184E-3  
 2.554000000000000E10   -2.321550156921148E-3  -1.233537332154810E-3  
 2.556000000000000E10   -8.800803916528821E-4   2.306969137862325E-3  
 2.558000000000000E10    2.777054440230131E-3   5.629411316476762E-4  
 2.560000000000000E10    3.019691212102771E-4  -2.762802876532078E-3  
 2.562000000000000E10   -2.404664643108845E-3  -7.238763646455482E-5  
 2.564000000000000E10    3.321585536468774E-4   2.727121813222766E-3  
 2.566000000000000E10    2.960400655865669E-3  -8.764616795815527E-4  
 2.568000000000000E10   -1.270023174583912E-3  -2.800326095893979E-3  
 2.570000000000000E10   -2.762723714113236E-3   1.867687096819282E-3  
 2.572000000000000E10    2.001763554289937E-3   2.304280875250697E-3  
 2.574000000000000E10    2.205631695687771E-3  -2.438398543745279E-3  
 2.576000000000000E10   -2.672395668923855E-3  -2.057635691016913E-3  
 2.578000000000000E10   -1.643932540901005E-3   2.811777405440807E-3  
 2.580000000000000E10    3.143453970551491E-3   1.277554780244827E-3  
 2.582000000000000E10    1.126494840718806E-3  -3.112796461209655E-3  
 2.584000000000000E10   -3.526985412463546E-3  -6.993250572122634E-4  
 2.586000000000000E10    5.813539246446453E-6   3.298600204288960E-3  
 2.588000000000000E10    3.256608964875341E-3  -6.067563663236797E-4  
 2.590000000000000E10   -5.115715321153402E-4  -3.032457549124956E-3  
 2.592000000000000E10   -2.727213082835078E-3   8.441071840934455E-4  
 2.594000000000000E10    1.085166935808957E-3   2.684967359527946E-3  
 2.596000000000000E10    2.632507355883718E-3  -1.479398342780769E-3  
 2.598000000000000E10   -1.477502053603530E-3  -2.584531670436263E-3  
 2.600000000000000E10   -2.696567215025425E-3   2.052919240668416E-3  
 2.602000000000000E10    2.607658971101046E-3   2.111681504175067E-3  
 2.604000000000000E10    1.511740614660084E-3  -2.764789154753089E-3  
 2.606000000000000E10   -2.973482944071293E-3  -1.239639590494335E-3  
 2.608000000000000E10   -7.163373520597816E-4   3.166315145790577E-3  
 2.610000000000000E10    3.078461624681950E-3   2.915792865678668E-4  
 2.612000000000000E10    1.529172586742789E-4  -3.435311606153846E-3  
 2.614000000000000E10   -3.466354450210929E-3   3.755770158022642E-4  
 2.616000000000000E10    8.343969238922000E-4   3.384287469089031E-3  
 2.618000000000000E10    3.392533166334033E-3  -1.678493339568377E-3  
 2.620000000000000E10   -1.855674781836569E-3  -3.270167857408524E-3  
 2.622000000000000E10   -2.832130761817098E-3   2.360821701586247E-3  
 2.624000000000000E10    2.698074793443084E-3   2.543645910918713E-3  
 2.626000000000000E10    2.110480098053813E-3  -2.882877131924033E-3  
 2.628000000000000E10   -3.167140297591686E-3  -1.831934670917690E-3  
 2.630000000000000E10   -1.490523689426482E-3   3.610342741012573E-3  
 2.632000000000000E10    3.514764597639442E-3   7.675159140489996E-4  
 2.634000000000000E10    1.248794869752601E-4  -3.550776746124029E-3  
 2.636000000000000E10   -3.387771081179380E-3  -1.246574247488752E-4  
 2.638000000000000E10    4.269393102731556E-4   3.600368509069085E-3  
 2.640000000000000E10    3.057646099478006E-3  -1.008681487292051E-3  
 2.642000000000000E10   -9.974152781069279E-4  -3.019841387867928E-3  
 2.644000000000000E10   -3.085245843976736E-3   1.271117478609085E-3  
 2.646000000000000E10    1.960193039849401E-3   2.978602889925242E-3  
 2.648000000000000E10    2.541218418627977E-3  -2.068748231977224E-3  
 2.650000000000000E10   -2.486241282895207E-3  -2.148502040654421E-3  
 2.652000000000000E10   -1.820729579776526E-3   2.938752295449376E-3  
 2.654000000000000E10    3.231837879866362E-3   1.129837939515710E-3  
 2.656000000000000E10    7.196238730102778E-4  -3.392455400899053E-3  
 2.658000000000000E10   -3.278040327131748E-3  -1.712116209091619E-4  
 2.660000000000000E10    3.858300042338669E-4   3.247415646910667E-3  
 2.662000000000000E10    2.932156436145306E-3  -8.855825872160494E-4  
 2.664000000000000E10   -1.244828687049449E-3  -2.784015145152807E-3  
 2.666000000000000E10   -2.470917766913772E-3   1.740390318445861E-3  
 2.668000000000000E10    1.993467565625906E-3   2.225442323833704E-3  
 2.670000000000000E10    1.576448325067759E-3  -2.362139290198684E-3  
 2.672000000000000E10   -2.530921949073672E-3  -1.329521532170475E-3  
 2.674000000000000E10   -1.093375263735652E-3   2.452268265187740E-3  
 2.676000000000000E10    2.468100050464273E-3   8.631279924884439E-4  
 2.678000000000000E10    2.985293976962566E-4  -2.527775242924690E-3  
 2.680000000000000E10   -2.300069434568286E-3   2.862574183382094E-4  
 2.682000000000000E10    2.771582803688943E-4   2.405664883553982E-3  
 2.684000000000000E10    2.219785470515490E-3  -4.388345696497709E-4  
 2.686000000000000E10   -8.715713047422469E-4  -2.312637399882078E-3  
 2.688000000000000E10   -1.819076132960618E-3   1.054147025570273E-3  
 2.690000000000000E10    1.193594769574702E-3   1.760635175742209E-3  
 2.692000000000000E10    1.479693572036922E-3  -1.451504300348461E-3  
 2.694000000000000E10   -1.574398018419743E-3  -1.295755966566503E-3  
 2.696000000000000E10   -1.098038046620786E-3   1.746418070979416E-3  
 2.698000000000000E10    1.815485535189509E-3   1.072418410331011E-3  
 2.700000000000000E10    5.914425710216165E-4  -1.908997423015535E-3  
 2.702000000000000E10   -1.892199390567839E-3  -3.787752648349851E-4  
 2.704000000000000E10   -3.742366970982403E-4   1.867715734988451E-3  
 2.706000000000000E10    1.721917535178363E-3   3.265173872932792E-4  
 2.708000000000000E10   -1.829307293519378E-4  -1.703336252830923E-3  
 2.710000000000000E10   -1.655851025134325E-3   2.831878373399377E-4  
 2.712000000000000E10    3.799825499299914E-4   1.520403078757227E-3  
 2.714000000000000E10    1.175915356725454E-3  -4.715630493592471E-4  
 2.716000000000000E10   -4.267136391717941E-4  -1.147345290519297E-3  
 2.718000000000000E10   -6.781776901334524E-4   6.650776485912502E-4  
 2.720000000000000E10    7.862617494538426E-4   8.405329426750541E-4  
 2.722000000000000E10    5.079219117760658E-4  -8.525880402885377E-4  
 2.724000000000000E10   -6.108608795329928E-4  -4.346747591625899E-4  
 2.726000000000000E10   -3.884105826728046E-4   7.453853031620383E-4  
 2.728000000000000E10    7.686187746003270E-4   2.735240559559315E-4  
 2.730000000000000E10    1.517485507065430E-4  -7.116700871847570E-4  
 2.732000000000000E10   -7.651221239939332E-4   3.895308509527240E-6  
 2.734000000000000E10    5.948878242634237E-5   9.673173772171140E-4  
 2.736000000000000E10    6.278417422436178E-4  -5.087850513518788E-5  
 2.738000000000000E10   -1.387769134453265E-5  -9.227568516507745E-4  
 2.740000000000000E10   -8.342157816514373E-4   3.251523012295365E-4  
 2.742000000000000E10    5.271809059195221E-4   7.329997024498880E-4  
 2.744000000000000E10    5.394158652052283E-4  -5.011163302697241E-4  
 2.746000000000000E10   -4.845573275815696E-4  -5.465582362376154E-4  
 2.748000000000000E10   -4.941669758409262E-4   4.729378852061927E-4  
 2.750000000000000E10    4.401431942824274E-4   4.546176351141185E-4  
 2.752000000000000E10    4.601502150762826E-4  -3.814269439317286E-4  
 2.754000000000000E10   -5.503439460881054E-4  -4.511743318289518E-4  
 2.756000000000000E10   -2.713151334319264E-4   6.754916394129396E-4  
