#  HZ   S   RI   R     50.00 
! Rohde & Schwarz ZVA40 4Ports - Version 3.90 - 1145.1110k42 SN: 100403
! Date: 2023-10-04 08:55:43
! Measurement: S12 
! 
 2.200000000000000E10    1.254912582226098E-3   1.062339521013200E-3  
 2.202000000000000E10    9.261429077014327E-4  -1.498243073001504E-3  
 2.204000000000000E10   -1.535018323920667E-3  -5.456131766550243E-4  
 2.206000000000000E10   -5.934621440246701E-4   1.395304687321186E-3  
 2.208000000000000E10    1.526390551589429E-3   4.977823700755835E-4  
 2.210000000000000E10    3.040911105927080E-4  -1.610277220606804E-3  
 2.212000000000000E10   -1.574018155224621E-3  -8.339524356415495E-5  
 2.214000000000000E10    1.334505359409377E-4   1.678643515333533E-3  
 2.216000000000000E10    1.600568881258369E-3  -1.247356558451429E-4  
 2.218000000000000E10   -3.235771728213877E-4  -1.503955340012908E-3  
 2.220000000000000E10   -1.665610354393721E-3   5.579519784078002E-4  
 2.222000000000000E10    8.296804735437036E-4   1.537256757728756E-3  
 2.224000000000000E10    1.523623592220247E-3  -1.053600106388331E-3  
 2.226000000000000E10   -1.232491573318839E-3  -1.323604490607977E-3  
 2.228000000000000E10   -1.267251675017178E-3   1.313597080297768E-3  
 2.230000000000000E10    1.348452060483396E-3   8.744985680095851E-4  
 2.232000000000000E10    9.409110061824322E-4  -1.303821452893317E-3  
 2.234000000000000E10   -1.664290321059525E-3  -8.259271853603423E-4  
 2.236000000000000E10   -4.569970769807696E-4   1.588185550644994E-3  
 2.238000000000000E10    1.701556728221476E-3   5.505088483914733E-4  
 2.240000000000000E10    1.492202718509361E-4  -1.730806776322424E-3  
 2.242000000000000E10   -1.851098495535553E-3   1.757327263476327E-4  
 2.244000000000000E10    1.968453143490478E-4   1.474349410273135E-3  
 2.246000000000000E10    1.438446692191064E-3  -2.832118188962340E-4  
 2.248000000000000E10   -4.429363470990211E-4  -1.637560548260808E-3  
 2.250000000000000E10   -1.534618088044226E-3   9.197921608574688E-4  
 2.252000000000000E10    6.930264644324780E-4   1.456914120353758E-3  
 2.254000000000000E10    1.527533633634448E-3  -9.223203524015844E-4  
 2.256000000000000E10   -8.365002577193081E-4  -1.344868680462241E-3  
 2.258000000000000E10   -1.188847236335278E-3   1.102216192521155E-3  
 2.260000000000000E10    9.051698143593967E-4   1.075779320672154E-3  
 2.262000000000000E10    6.144909420982003E-4  -1.024604425765574E-3  
 2.264000000000000E10   -1.158589031547308E-3  -7.411425467580557E-4  
 2.266000000000000E10   -5.540307611227036E-4   1.256550312973559E-3  
 2.268000000000000E10    1.109395758248866E-3   3.929017984773964E-4  
 2.270000000000000E10    2.071071648970246E-4  -1.252397545613349E-3  
 2.272000000000000E10   -1.247411943040788E-3  -8.591249934397638E-5  
 2.274000000000000E10    2.531267818994820E-4   1.068442477844656E-3  
 2.276000000000000E10    9.807191090658307E-4  -3.434078535065055E-4  
 2.278000000000000E10   -6.092547555454075E-4  -7.900199270807207E-4  
 2.280000000000000E10   -7.827033405192196E-4   5.731332930736244E-4  
 2.282000000000000E10    2.600418229121715E-4   7.246789173223078E-4  
 2.284000000000000E10    5.904230056330562E-4  -1.025183591991663E-3  
 2.286000000000000E10   -8.562779403291643E-4  -4.089723224751651E-4  
 2.288000000000000E10   -2.414769987808541E-4   1.219821395352483E-3  
 2.290000000000000E10    1.060094335116446E-3   1.730165531625971E-4  
 2.292000000000000E10    2.904593420680612E-4  -1.058168709278107E-3  
 2.294000000000000E10   -1.065555261448026E-3  -1.699298445601016E-5  
 2.296000000000000E10   -2.131566870957613E-4   1.340656308457255E-3  
 2.298000000000000E10    1.127408817410469E-3  -1.113736943807453E-4  
 2.300000000000000E10   -6.154547736514360E-5  -1.367570715956390E-3  
 2.302000000000000E10   -1.371022546663880E-3   1.838356256484985E-4  
 2.304000000000000E10    2.797933411784470E-4   1.656947657465935E-3  
 2.306000000000000E10    1.256457064300776E-3  -2.883755660150200E-4  
 2.308000000000000E10   -2.504003932699561E-4  -1.145591144450009E-3  
 2.310000000000000E10   -1.119037508033216E-3   3.702348622027785E-4  
 2.312000000000000E10    1.170144314528443E-4   1.349745783954859E-3  
 2.314000000000000E10    1.081144320778549E-3  -2.736779279075563E-4  
 2.316000000000000E10   -1.459212799090892E-4  -1.123787835240364E-3  
 2.318000000000000E10   -1.126835588365793E-3   4.951269365847111E-4  
 2.320000000000000E10    3.801292041316629E-4   9.392882930114865E-4  
 2.322000000000000E10    8.904568967409432E-4  -1.967334828805178E-4  
 2.324000000000000E10   -4.385075590107590E-4  -8.440709789283574E-4  
 2.326000000000000E10   -9.472361998632550E-4   1.949743309523910E-4  
 2.328000000000000E10    2.527620818000287E-4   7.636683876626194E-4  
 2.330000000000000E10    5.772761651314795E-4  -3.033082175534219E-4  
 2.332000000000000E10   -1.964010734809563E-4  -4.186669248156250E-4  
 2.334000000000000E10   -4.300594737287611E-4   3.763340064324439E-4  
 2.336000000000000E10    1.401764748152345E-4   8.200315642170608E-5  
 2.338000000000000E10    5.203366745263338E-4  -2.197236171923578E-4  
 2.340000000000000E10    1.482498337281868E-4  -1.612255437066779E-4  
 2.342000000000000E10   -2.369352732785046E-4  -5.274605791782960E-5  
 2.344000000000000E10   -3.737896258826368E-5   3.127857344225049E-4  
 2.346000000000000E10    3.197070327587426E-4  -8.552788494853303E-5  
 2.348000000000000E10   -6.842405127827078E-5  -2.043422427959740E-4  
 2.350000000000000E10   -1.378234301228076E-4   1.009554835036397E-4  
 2.352000000000000E10    1.924154494190589E-4   3.420037392061204E-4  
 2.354000000000000E10    3.215143806301057E-4  -5.714209401048720E-4  
 2.356000000000000E10   -3.739027888514102E-4  -3.783224019571208E-5  
 2.358000000000000E10    2.696385490708053E-4   8.222608012147248E-4  
 2.360000000000000E10    7.498543709516525E-4   2.221298927906901E-5  
 2.362000000000000E10   -3.530750982463360E-4  -1.313974731601775E-3  
 2.364000000000000E10   -1.242481055669487E-3   6.828617770224810E-4  
 2.366000000000000E10    9.447847260162234E-4   1.181861036457121E-3  
 2.368000000000000E10    1.247131032869220E-3  -1.080274814739823E-3  
 2.370000000000000E10   -1.548950676806271E-3  -1.140756881795824E-3  
 2.372000000000000E10   -9.937129216268659E-4   2.008642302826047E-3  
 2.374000000000000E10    1.939395093359053E-3   6.754299392923713E-4  
 2.376000000000000E10    5.815208423882723E-4  -2.225208561867476E-3  
 2.378000000000000E10   -2.776049077510834E-3  -6.598473555641249E-5  
 2.380000000000000E10    1.319495349889621E-4   2.616550074890256E-3  
 2.382000000000000E10    2.536711515858769E-3  -7.596015930175781E-4  
 2.384000000000000E10   -1.054590451531112E-3  -2.657490782439709E-3  
 2.386000000000000E10   -2.324732951819897E-3   1.471961732022464E-3  
 2.388000000000000E10    1.742423744872212E-3   2.210585167631507E-3  
 2.390000000000000E10    1.928318291902542E-3  -2.243520459160209E-3  
 2.392000000000000E10   -2.422148594632745E-3  -1.814151881262660E-3  
 2.394000000000000E10   -1.287508173845708E-3   2.713897265493870E-3  
 2.396000000000000E10    2.899582264944911E-3   8.250297396443784E-4  
 2.398000000000000E10    3.977389715146273E-4  -3.022601827979088E-3  
 2.400000000000000E10   -2.897420199587941E-3   1.510232541477308E-4  
 2.402000000000000E10    9.562925552017987E-4   2.548150485381484E-3  
 2.404000000000000E10    2.471053507179022E-3  -1.172883436083794E-3  
 2.406000000000000E10   -1.403965870849788E-3  -2.437344985082746E-3  
 2.408000000000000E10   -1.943129929713905E-3   1.968883210793138E-3  
 2.410000000000000E10    2.245167735964060E-3   1.830303808674216E-3  
 2.412000000000000E10    1.373470062389970E-3  -2.291315933689475E-3  
 2.414000000000000E10   -2.385878004133701E-3  -1.140392269007862E-3  
 2.416000000000000E10   -6.990035180933774E-4   2.533519407734275E-3  
 2.418000000000000E10    2.742160344496369E-3   5.061544943600893E-4  
 2.420000000000000E10   -4.207279562251642E-5  -2.683514496311545E-3  
 2.422000000000000E10   -2.714181086048484E-3   1.973043254110962E-4  
 2.424000000000000E10    6.300704553723335E-4   2.262192545458674E-3  
 2.426000000000000E10    2.460906747728586E-3  -8.909522439353168E-4  
 2.428000000000000E10   -1.147512230090797E-3  -2.079616300761700E-3  
 2.430000000000000E10   -2.233887324109674E-3   1.599244773387909E-3  
 2.432000000000000E10    1.877489848993719E-3   1.536406343802810E-3  
 2.434000000000000E10    1.313113840296865E-3  -1.973899547010660E-3  
 2.436000000000000E10   -2.190321218222380E-3  -1.062269671820104E-3  
 2.438000000000000E10   -5.603241152130067E-4   2.074655378237367E-3  
 2.440000000000000E10    1.856912509538233E-3   4.569412558339536E-4  
 2.442000000000000E10    1.454446828574874E-5  -2.269198419526219E-3  
 2.444000000000000E10   -2.243041293695569E-3   3.550535184331238E-4  
 2.446000000000000E10    5.644993507303298E-4   1.783489249646664E-3  
 2.448000000000000E10    1.997281564399600E-3  -7.585971616208553E-4  
 2.450000000000000E10   -7.608509040437639E-4  -2.064098604023457E-3  
 2.452000000000000E10   -1.927047967910767E-3   1.141628134064376E-3  
 2.454000000000000E10    1.607429934665561E-3   1.598171424120665E-3  
 2.456000000000000E10    1.662726514041424E-3  -1.655913772992790E-3  
 2.458000000000000E10   -1.838834374211729E-3  -1.285266596823931E-3  
 2.460000000000000E10   -1.135638100095093E-3   1.948522403836250E-3  
 2.462000000000000E10    2.169626066461206E-3   1.013669185340405E-3  
 2.464000000000000E10    7.309237262234092E-4  -2.208377234637737E-3  
 2.466000000000000E10   -2.165463985875249E-3  -4.131299501750618E-4  
 2.468000000000000E10   -6.229610880836844E-5   2.296671736985445E-3  
 2.470000000000000E10    2.274263650178909E-3   1.620226430532057E-5  
 2.472000000000000E10   -2.808955032378435E-4  -2.263870788738132E-3  
 2.474000000000000E10   -2.200088929384947E-3   4.682239377871156E-4  
 2.476000000000000E10    7.231540512293577E-4   1.955356914550066E-3  
 2.478000000000000E10    2.277815015986562E-3  -8.259798050858080E-4  
 2.480000000000000E10   -1.167437294498086E-3  -1.883140183053911E-3  
 2.482000000000000E10   -1.827367232181132E-3   1.325039542280138E-3  
 2.484000000000000E10    1.771994284354150E-3   1.746047288179398E-3  
 2.486000000000000E10    1.459855120629072E-3  -2.094868803396821E-3  
 2.488000000000000E10   -2.341317245736718E-3  -1.004521735012531E-3  
 2.490000000000000E10   -7.784324116073549E-4   2.287342678755522E-3  
 2.492000000000000E10    2.118897857144475E-3   5.986106698401272E-4  
 2.494000000000000E10    1.282375742448494E-4  -2.297250088304281E-3  
 2.496000000000000E10   -2.298487350344658E-3   1.623813295736909E-4  
 2.498000000000000E10    3.634986642282456E-4   2.165081445127726E-3  
 2.500000000000000E10    2.209242200478911E-3  -6.420750287361443E-4  
 2.502000000000000E10   -9.213832090608776E-4  -1.647992408834398E-3  
 2.504000000000000E10   -1.735924743115902E-3   1.066597877070308E-3  
 2.506000000000000E10    1.105447183363140E-3   1.482303952798247E-3  
 2.508000000000000E10    1.528188004158437E-3  -1.494975294917822E-3  
 2.510000000000000E10   -1.702569425106049E-3  -1.411939854733646E-3  
 2.512000000000000E10   -1.108546275645495E-3   1.698572887107730E-3  
 2.514000000000000E10    1.577127957716584E-3   1.066979835741222E-3  
 2.516000000000000E10    8.563754381611943E-4  -2.225599484518170E-3  
 2.518000000000000E10   -2.032314660027623E-3  -5.241848411969841E-4  
 2.520000000000000E10   -4.944872489431873E-5   2.193324267864227E-3  
 2.522000000000000E10    1.979621127247810E-3  -3.026658669114113E-5  
 2.524000000000000E10   -2.129973436240107E-4  -2.136365510523319E-3  
 2.526000000000000E10   -2.158816903829575E-3   5.524787120521069E-4  
 2.528000000000000E10    7.088953279890120E-4   1.979031832888722E-3  
 2.530000000000000E10    1.637528999708593E-3  -1.071120030246675E-3  
 2.532000000000000E10   -1.046659192070365E-3  -1.497942139394581E-3  
 2.534000000000000E10   -1.507943728938699E-3   1.173855038359761E-3  
 2.536000000000000E10    1.388150616548955E-3   1.365431817248464E-3  
 2.538000000000000E10    1.095187850296497E-3  -1.871028332971036E-3  
 2.540000000000000E10   -1.798728480935097E-3  -1.016390393488109E-3  
 2.542000000000000E10   -5.345572717487812E-4   1.629646285437048E-3  
 2.544000000000000E10    1.983074937015772E-3   4.827388911508024E-4  
 2.546000000000000E10    2.559476997703314E-4  -2.038127509877086E-3  
 2.548000000000000E10   -1.940622110851109E-3  -1.900772986118682E-5  
 2.550000000000000E10    3.650989092420787E-4   1.815219409763813E-3  
 2.552000000000000E10    1.528711174614728E-3  -4.065354296471924E-4  
 2.554000000000000E10   -6.121291080489755E-4  -1.690750941634178E-3  
 2.556000000000000E10   -1.688518561422825E-3   8.229825180023909E-4  
 2.558000000000000E10    8.257055305875838E-4   1.513386843726039E-3  
 2.560000000000000E10    1.259422977454960E-3  -9.630628628656268E-4  
 2.562000000000000E10   -1.204577973112464E-3  -1.264459686353803E-3  
 2.564000000000000E10   -1.391820376738906E-3   1.430919743143022E-3  
 2.566000000000000E10    1.480207196436822E-3   1.175266224890947E-3  
 2.568000000000000E10    7.677817484363914E-4  -1.741284620948136E-3  
 2.570000000000000E10   -2.241936046630144E-3  -5.697218584828079E-4  
 2.572000000000000E10   -9.611016866983846E-5   1.947116688825190E-3  
 2.574000000000000E10    2.068822039291263E-3   2.672870687092654E-5  
 2.576000000000000E10   -3.305627906229347E-4  -2.011982724070549E-3  
 2.578000000000000E10   -1.921980874612927E-3   6.113179842941463E-4  
 2.580000000000000E10    8.981321589089930E-4   1.822776626795530E-3  
 2.582000000000000E10    1.729498384520412E-3  -1.153613091446459E-3  
 2.584000000000000E10   -1.621710136532784E-3  -1.638452522456646E-3  
 2.586000000000000E10   -1.437824219465256E-3   1.764554879628122E-3  
 2.588000000000000E10    1.801189268007875E-3   1.024377066642046E-3  
 2.590000000000000E10    9.303955012001097E-4  -1.871569431386888E-3  
 2.592000000000000E10   -1.976069528609514E-3  -5.096283857710660E-4  
 2.594000000000000E10   -3.542588383425027E-4   1.948240678757429E-3  
 2.596000000000000E10    2.088604029268026E-3   4.258850240148604E-4  
 2.598000000000000E10   -4.858381726080552E-5  -1.965475734323263E-3  
 2.600000000000000E10   -2.274238271638751E-3   1.572401670273393E-4  
 2.602000000000000E10    5.757792387157679E-4   1.991166966035962E-3  
 2.604000000000000E10    2.082246588543057E-3  -8.763791993260384E-4  
 2.606000000000000E10   -8.042328990995884E-4  -1.881527481600642E-3  
 2.608000000000000E10   -1.794016221538186E-3   1.400479930453003E-3  
 2.610000000000000E10    1.258694916032255E-3   1.408038777299225E-3  
 2.612000000000000E10    1.662874943576753E-3  -1.243012375198305E-3  
 2.614000000000000E10   -1.420493121258915E-3  -1.521954778581858E-3  
 2.616000000000000E10   -1.345270429737866E-3   1.773136784322560E-3  
 2.618000000000000E10    1.802043989300728E-3   1.211002469062805E-3  
 2.620000000000000E10    9.662784868851304E-4  -2.111726906150580E-3  
 2.622000000000000E10   -2.119524870067835E-3  -6.452266243286431E-4  
 2.624000000000000E10   -2.991275687236339E-4   2.130091655999422E-3  
 2.626000000000000E10    2.044829772785306E-3   1.572619949001819E-4  
 2.628000000000000E10    6.038983701728284E-5  -2.141351345926523E-3  
 2.630000000000000E10   -1.831337576732040E-3   6.995320436544716E-4  
 2.632000000000000E10    7.396891596727073E-4   1.988045638427138E-3  
 2.634000000000000E10    1.799846882931888E-3  -1.100839348509908E-3  
 2.636000000000000E10   -1.405509188771248E-3  -1.629207632504404E-3  
 2.638000000000000E10   -1.414737431332469E-3   1.362397684715688E-3  
 2.640000000000000E10    1.462986925616860E-3   1.072808168828487E-3  
 2.642000000000000E10    9.967557853087783E-4  -1.719069550745189E-3  
 2.644000000000000E10   -1.956239109858871E-3  -9.145829826593399E-4  
 2.646000000000000E10   -5.708090611733496E-4   1.972686266526580E-3  
 2.648000000000000E10    2.175681060180068E-3   4.033149161841720E-4  
 2.650000000000000E10    1.876923342933878E-4  -2.198813715949655E-3  
 2.652000000000000E10   -2.224555937573314E-3   5.858492804691196E-4  
 2.654000000000000E10    5.710875266231597E-4   2.303232671692967E-3  
 2.656000000000000E10    2.190070226788521E-3  -1.309878774918616E-3  
 2.658000000000000E10   -1.523701474070549E-3  -1.755316974595189E-3  
 2.660000000000000E10   -1.597050693817437E-3   1.894830376841128E-3  
 2.662000000000000E10    1.810331130400300E-3   1.354660838842392E-3  
 2.664000000000000E10    1.137472805567086E-3  -2.031087176874280E-3  
 2.666000000000000E10   -2.317311242222786E-3  -7.965734694153070E-4  
 2.668000000000000E10   -2.767772239167243E-4   2.265353687107563E-3  
 2.670000000000000E10    2.258365508168936E-3  -1.886614336399362E-4  
 2.672000000000000E10   -3.176398458890617E-4  -2.243750961497426E-3  
 2.674000000000000E10   -2.294152975082398E-3   6.983903585933149E-4  
 2.676000000000000E10    6.799292168579996E-4   2.004661830142140E-3  
 2.678000000000000E10    1.753972610458732E-3  -9.800326079130173E-4  
 2.680000000000000E10   -1.128131290897727E-3  -1.465363311581314E-3  
 2.682000000000000E10   -1.447051647119224E-3   1.268636318854988E-3  
 2.684000000000000E10    1.220090081915259E-3   1.280978554859757E-3  
 2.686000000000000E10    1.099561457522214E-3  -1.428387011401355E-3  
 2.688000000000000E10   -1.685997005552054E-3  -6.690488080494106E-4  
 2.690000000000000E10   -6.225020624697208E-4   1.446571084670723E-3  
 2.692000000000000E10    1.547202467918396E-3   5.096100503578782E-4  
 2.694000000000000E10    9.193111327476800E-5  -1.595681183971465E-3  
 2.696000000000000E10   -1.419663894921541E-3  -1.087237978936173E-4  
 2.698000000000000E10    2.816466439981014E-4   1.618737471289933E-3  
 2.700000000000000E10    1.414289930835366E-3  -2.270917757414281E-4  
 2.702000000000000E10   -2.833916514646262E-4  -1.532329944893718E-3  
 2.704000000000000E10   -1.262087724171579E-3   6.165935774333775E-4  
 2.706000000000000E10    8.146301261149347E-4   1.024858327582479E-3  
 2.708000000000000E10    1.058322726748884E-3  -7.422693888656795E-4  
 2.710000000000000E10   -1.103712711483240E-3  -1.193624222651124E-3  
 2.712000000000000E10   -1.160643529146910E-3   9.905856568366289E-4  
 2.714000000000000E10    1.545070786960423E-3   8.450575405731797E-4  
 2.716000000000000E10    6.122193881310523E-4  -1.299602212384343E-3  
 2.718000000000000E10   -1.230058842338622E-3  -3.508620138745755E-4  
 2.720000000000000E10    8.209611405618489E-5   1.298535498790443E-3  
 2.722000000000000E10    1.445586327463388E-3  -1.353625702904537E-4  
 2.724000000000000E10   -3.042843309231103E-4  -1.236148178577423E-3  
 2.726000000000000E10   -1.188350841403008E-3   1.909669954329729E-4  
 2.728000000000000E10    3.606860700529069E-4   1.144829438999295E-3  
 2.730000000000000E10    1.125980401411653E-3  -5.998647538945079E-4  
 2.732000000000000E10   -5.505841108970344E-4  -9.182541398331523E-4  
 2.734000000000000E10   -9.980151662603021E-4   7.188312010839582E-4  
 2.736000000000000E10    1.090047298930585E-3   9.183706133626401E-4  
 2.738000000000000E10    7.888365071266890E-4  -1.001800294034183E-3  
 2.740000000000000E10   -1.098098931834102E-3  -8.234226843342185E-4  
 2.742000000000000E10   -6.309297168627381E-4   9.659618954174221E-4  
 2.744000000000000E10    1.080542220734060E-3   6.343348068185151E-4  
 2.746000000000000E10    2.874343481380492E-4  -1.175545738078654E-3  
 2.748000000000000E10   -1.090686302632093E-3  -3.957664885092527E-4  
 2.750000000000000E10   -3.135300648864359E-4   9.683860116638243E-4  
 2.752000000000000E10    1.085939700715244E-3   1.487946137785912E-4  
 2.754000000000000E10    1.741541054798290E-4  -8.126974571496248E-4  
 2.756000000000000E10   -1.053185318596661E-3  -1.358605659333989E-4  
