#  HZ   S   RI   R     50.00 
! Rohde & Schwarz ZVA40 4Ports - Version 3.90 - 1145.1110k42 SN: 100403
! Date: 2023-09-26 10:39:34
! Measurement: S12 
! 
 2.300000000000000E10    1.449644615487920E-2  -7.247340720856308E-3  
 2.304000000000000E10   -1.375951213851589E-2  -8.556461470187996E-3  
 2.308000000000000E10   -7.804610132079173E-4   1.663554228263544E-2  
 2.312000000000000E10    1.403125885991853E-2  -7.443239326885559E-3  
 2.316000000000000E10   -1.328073256249637E-2  -8.326519564727963E-3  
 2.320000000000000E10    1.296850376281484E-3   1.595842901590903E-2  
 2.324000000000000E10    1.325656367158589E-2  -9.239416707117325E-3  
 2.328000000000000E10   -1.693837476662691E-2  -6.274310760363860E-3  
 2.332000000000000E10    2.245696426714516E-3   1.710794323130989E-2  
 2.336000000000000E10    1.404872917972453E-2  -1.153369990756395E-2  
 2.340000000000000E10   -1.539281146032690E-2  -5.781224150698712E-3  
 2.344000000000000E10    3.424522180134464E-3   1.609562719155197E-2  
 2.348000000000000E10    1.056915150600525E-2  -1.172085573261448E-2  
 2.352000000000000E10   -1.670833941845077E-2  -2.417496240977765E-3  
 2.356000000000000E10    7.081376527744713E-3   1.537873351660726E-2  
 2.360000000000000E10    1.068154575354333E-2  -1.379103576158977E-2  
 2.364000000000000E10   -1.704440366461179E-2  -2.009128414254811E-3  
 2.368000000000000E10    5.734315587492870E-3   1.458147991007724E-2  
 2.372000000000000E10    7.698410719792520E-3  -1.226158244003471E-2  
 2.376000000000000E10   -1.342690630390446E-2   4.725263694604370E-4  
 2.380000000000000E10    8.801865601750020E-3   1.116163323691751E-2  
 2.384000000000000E10    6.037148016276939E-3  -1.392373280562402E-2  
 2.388000000000000E10   -1.624783880638029E-2   1.747061726773407E-3  
 2.392000000000000E10    8.595441262994469E-3   1.257266343017198E-2  
 2.396000000000000E10    7.479631545606403E-3  -1.262740866438139E-2  
 2.400000000000000E10   -1.255922773954594E-2  -6.112271068469575E-4  
 2.404000000000000E10    7.757067826758340E-3   9.699682499242551E-3  
 2.408000000000000E10    1.503726167360438E-3  -1.333871098921614E-2  
 2.412000000000000E10   -1.185076969451284E-2   3.977442778905499E-3  
 2.416000000000000E10    1.125681216013594E-2   9.388876983910950E-3  
 2.420000000000000E10    2.846604646340561E-3  -1.275414654272994E-2  
 2.424000000000000E10   -1.397800405458872E-2   3.424263014951783E-3  
 2.428000000000000E10    1.032861470838681E-2   7.973580079053962E-3  
 2.432000000000000E10    1.189041697783125E-3  -1.344131459683554E-2  
 2.436000000000000E10   -9.738945101300207E-3   7.163815435364526E-3  
 2.440000000000000E10    1.160486226685040E-2   5.668182936339890E-3  
 2.444000000000000E10   -4.956495825242625E-4  -1.312762380854734E-2  
 2.448000000000000E10   -9.877947295101707E-3   5.218668813989635E-3  
 2.452000000000000E10    1.030959722298260E-2   6.909928382818940E-3  
 2.456000000000000E10   -1.118703261127137E-4  -9.234474759295683E-3  
 2.460000000000000E10   -7.960236832245657E-3   5.202292992183751E-3  
 2.464000000000000E10    8.754085290784978E-3   2.396239421259118E-3  
 2.468000000000000E10   -8.100158935289328E-4  -1.051025504587516E-2  
 2.472000000000000E10   -7.983486304552969E-3   8.628700465239244E-3  
 2.476000000000000E10    7.711374069369135E-3   4.082252871478427E-3  
 2.480000000000000E10   -2.036903206075770E-4  -9.426595232922103E-3  
 2.484000000000000E10   -6.212077791954420E-3   3.902156780307356E-3  
 2.488000000000000E10    6.272169443530097E-3   3.867291693603652E-3  
 2.492000000000000E10   -2.313854992628344E-3  -5.846711313669555E-3  
 2.496000000000000E10   -6.251107793637468E-3   3.829046505819736E-3  
 2.500000000000000E10    8.320814582538909E-3   3.256217949284066E-3  
 2.504000000000000E10    1.597684296582974E-3  -7.823450282690233E-3  
 2.508000000000000E10   -7.573019832440133E-3   3.674768053566444E-3  
 2.512000000000000E10    3.992081312493833E-3   5.643631960069393E-3  
 2.516000000000000E10    2.214549460290938E-3  -7.372260040436759E-3  
 2.520000000000000E10   -5.282682840235706E-3   3.182044459030763E-3  
 2.524000000000000E10    6.353685161751162E-3   5.349161005261336E-3  
 2.528000000000000E10    7.423705257272876E-4  -9.004952912020600E-3  
 2.532000000000000E10   -9.712603469853101E-3   4.106007832637888E-3  
 2.536000000000000E10    7.730890294901988E-3   7.315144019697000E-3  
 2.540000000000000E10    1.872803341902954E-3  -9.718796832692484E-3  
 2.544000000000000E10   -8.825390064728609E-3   3.621729822132571E-3  
 2.548000000000000E10    7.995254618345733E-3   4.848204065339565E-3  
 2.552000000000000E10   -7.312041157761950E-4  -9.757098220267338E-3  
 2.556000000000000E10   -9.615776620490157E-3   6.136606601282816E-3  
 2.560000000000000E10    1.020105496202694E-2   6.073753589278869E-3  
 2.564000000000000E10    1.291299934762241E-4  -1.207482726814087E-2  
 2.568000000000000E10   -9.688529930993077E-3   6.052117635389428E-3  
 2.572000000000000E10    8.756353817017967E-3   5.867225494800207E-3  
 2.576000000000000E10   -4.899014689657630E-4  -1.099502170843804E-2  
 2.580000000000000E10   -9.020964179639173E-3   7.808926203571321E-3  
 2.584000000000000E10    1.337922466038454E-2   4.123251075073347E-3  
 2.588000000000000E10   -3.636845866106058E-3  -1.417892008562590E-2  
 2.592000000000000E10   -1.166948765924311E-2   9.469147850551953E-3  
 2.596000000000000E10    1.237639128423371E-2   3.697751042696265E-3  
 2.600000000000000E10   -3.207988821237255E-3  -1.272081951845368E-2  
 2.604000000000000E10   -8.039259173889993E-3   1.094160200596099E-2  
 2.608000000000000E10    1.383565921166470E-2   1.389887496673798E-3  
 2.612000000000000E10   -6.716093416896152E-3  -1.328056395228162E-2  
 2.616000000000000E10   -9.696101763782456E-3   1.145115641068987E-2  
 2.620000000000000E10    1.432916044117530E-2   2.993804577331367E-3  
 2.624000000000000E10   -5.423727664970037E-3  -1.321352826308735E-2  
 2.628000000000000E10   -7.693971288019189E-3   1.106837093258387E-2  
 2.632000000000000E10    1.315021774215688E-2  -1.112425552564739E-3  
 2.636000000000000E10   -8.534103390975574E-3  -9.953721950159960E-3  
 2.640000000000000E10   -5.718782763754475E-3   1.377081904321680E-2  
 2.644000000000000E10    1.430246541402349E-2  -1.510630638952686E-3  
 2.648000000000000E10   -6.881560061968539E-3  -1.302494495814214E-2  
 2.652000000000000E10   -6.439679276219072E-3   1.225277944287255E-2  
 2.656000000000000E10    1.287320599986633E-2  -7.724574632709641E-4  
 2.660000000000000E10   -9.012579815474264E-3  -1.067868757017271E-2  
 2.664000000000000E10   -3.630638638924279E-3   1.369259072673059E-2  
 2.668000000000000E10    1.585620436675993E-2  -4.216660779702283E-3  
 2.672000000000000E10   -1.195297499704853E-2  -1.023508632408442E-2  
 2.676000000000000E10   -4.427161333282950E-3   1.419775885106872E-2  
 2.680000000000000E10    1.394010554235340E-2  -3.343778384637933E-3  
 2.684000000000000E10   -9.904107178609459E-3  -9.522989241774815E-3  
 2.688000000000000E10   -1.866182817036116E-3   1.421328479792590E-2  
 2.692000000000000E10    1.380651227541481E-2  -6.956181344468424E-3  
 2.696000000000000E10   -1.384841806082512E-2  -9.259873731885047E-3  
 2.700000000000000E10   -1.673905036432835E-3   1.665303839716496E-2  
