#  HZ   S   RI   R     50.00 
! Rohde & Schwarz ZVA40 4Ports - Version 3.90 - 1145.1110k42 SN: 100403
! Date: 2023-09-26 10:41:19
! Measurement: S12 
! 
 2.300000000000000E10    8.206396303509334E-3  -1.627401661094990E-2  
 2.304000000000000E10   -1.994181829795571E-2   5.839901600007594E-4  
 2.308000000000000E10    1.171533437850190E-2   1.667714136970730E-2  
 2.312000000000000E10    9.568401071167186E-3  -1.640879073805485E-2  
 2.316000000000000E10   -1.976300766430989E-2   5.339948000134529E-4  
 2.320000000000000E10    9.704155691553787E-3   1.504144357087603E-2  
 2.324000000000000E10    7.818707351805258E-3  -1.793643207721043E-2  
 2.328000000000000E10   -1.888604596933251E-2   4.112941923683357E-3  
 2.332000000000000E10    1.344249672944880E-2   1.599327169936448E-2  
 2.336000000000000E10    5.169691727321149E-3  -2.030486358571530E-2  
 2.340000000000000E10   -1.993369375729352E-2   4.764691771809007E-3  
 2.344000000000000E10    1.452815261096135E-2   1.317135055454932E-2  
 2.348000000000000E10    3.677390123100401E-3  -1.787937988197671E-2  
 2.352000000000000E10   -1.746427119692155E-2   7.983969329193976E-3  
 2.356000000000000E10    1.652441754549637E-2   1.068672930597668E-2  
 2.360000000000000E10    4.047488685023204E-4  -2.126247297204419E-2  
 2.364000000000000E10   -1.705120546076508E-2   1.075421453717175E-2  
 2.368000000000000E10    1.675054330086747E-2   9.220101068798545E-3  
 2.372000000000000E10   -8.857857685873094E-4  -1.911704013491879E-2  
 2.376000000000000E10   -1.521695355961495E-2   1.049661636270266E-2  
 2.380000000000000E10    1.706461396261330E-2   6.657108511846498E-3  
 2.384000000000000E10   -4.364939832040311E-3  -1.772013550627995E-2  
 2.388000000000000E10   -1.392887544575978E-2   1.245200673653736E-2  
 2.392000000000000E10    1.775666095315915E-2   5.760504854296256E-3  
 2.396000000000000E10   -3.941235655711103E-3  -1.856890030074501E-2  
 2.400000000000000E10   -1.431311709916525E-2   1.113041660865412E-2  
 2.404000000000000E10    1.567551780195151E-2   2.923280933596875E-3  
 2.408000000000000E10   -7.055502837843848E-3  -1.517738615124445E-2  
 2.412000000000000E10   -7.797531668504335E-3   1.466585998400479E-2  
 2.416000000000000E10    1.728405348619118E-2   7.602309424206019E-4  
 2.420000000000000E10   -7.499179681217102E-3  -1.684751588289071E-2  
 2.424000000000000E10   -1.014648035417386E-2   1.453729624334031E-2  
 2.428000000000000E10    1.644022766623688E-2   1.379857611233998E-3  
 2.432000000000000E10   -8.510249479039670E-3  -1.333597189157715E-2  
 2.436000000000000E10   -6.625589030008652E-3   1.307084793705397E-2  
 2.440000000000000E10    1.613965577935467E-2  -2.621083349618835E-3  
 2.444000000000000E10   -1.095504945310812E-2  -1.021815800136356E-2  
 2.448000000000000E10   -5.606786462745526E-3   1.480885700072832E-2  
 2.452000000000000E10    1.471718324346581E-2  -3.723250781717873E-3  
 2.456000000000000E10   -8.918753386614325E-3  -1.080224846037960E-2  
 2.460000000000000E10   -2.391507825749517E-3   1.270730168795529E-2  
 2.464000000000000E10    1.170578030283070E-2  -4.653075146197225E-3  
 2.468000000000000E10   -1.171794737043915E-2  -8.836380388168624E-3  
 2.472000000000000E10    1.660590370838433E-4   1.377231560852642E-2  
 2.476000000000000E10    1.280285035812502E-2  -5.418297997721650E-3  
 2.480000000000000E10   -9.499771825056080E-3  -8.259568410114672E-3  
 2.484000000000000E10   -3.318313437414361E-3   1.221285194979411E-2  
 2.488000000000000E10    9.877345365578176E-3  -4.173681504350948E-3  
 2.492000000000000E10   -7.770602272806074E-3  -6.479143378268388E-3  
 2.496000000000000E10    3.768844071800352E-4   9.715827244201758E-3  
 2.500000000000000E10    9.513239538292506E-3  -4.155712710668303E-3  
 2.504000000000000E10   -9.572143914640525E-3  -7.386235717455675E-3  
 2.508000000000000E10   -1.790350662185645E-3   1.058189890765095E-2  
 2.512000000000000E10    1.069127318659773E-2  -3.136084513346673E-3  
 2.516000000000000E10   -6.463334321781303E-3  -6.095376680939390E-3  
 2.520000000000000E10   -2.755818421390844E-3   9.112226268921567E-3  
 2.524000000000000E10    1.008634462405396E-2  -4.311309929215098E-3  
 2.528000000000000E10   -9.455818811888315E-3  -6.928793244551089E-3  
 2.532000000000000E10   -5.954754907804491E-4   1.264299622370062E-2  
 2.536000000000000E10    1.124777935660172E-2  -3.895206209914064E-3  
 2.540000000000000E10   -8.803044248192025E-3  -8.127597513941575E-3  
 2.544000000000000E10   -1.924640748675669E-3   1.135297049071303E-2  
 2.548000000000000E10    9.506140745785333E-3  -3.840117199801828E-3  
 2.552000000000000E10   -9.503096072687532E-3  -5.809127390475512E-3  
 2.556000000000000E10    2.057826135065437E-4   1.157469251502419E-2  
 2.560000000000000E10    1.163807872702522E-2  -6.135579633260252E-3  
 2.564000000000000E10   -1.104636995326529E-2  -6.511573821565058E-3  
 2.568000000000000E10   -2.171489596170903E-3   1.399123197881651E-2  
 2.572000000000000E10    1.265828385009432E-2  -5.707398897776128E-3  
 2.576000000000000E10   -1.015285057582808E-2  -6.085997861631633E-3  
 2.580000000000000E10    4.726769550165833E-4   1.362200516520977E-2  
 2.584000000000000E10    1.019928633529759E-2  -8.367838599647048E-3  
 2.588000000000000E10   -1.402565308758498E-2  -5.689473739305736E-3  
 2.592000000000000E10    4.299661698440671E-3   1.569562894298602E-2  
 2.596000000000000E10    1.181393492257309E-2  -8.896533351068974E-3  
 2.600000000000000E10   -1.509425453131104E-2  -4.827573041334868E-3  
 2.604000000000000E10    2.594785251652957E-3   1.427949744357109E-2  
 2.608000000000000E10    9.538552659599783E-3  -1.053513016219568E-2  
 2.612000000000000E10   -1.373761303039599E-2  -1.214926819800377E-3  
 2.616000000000000E10    5.750614916874410E-3   1.389456160759354E-2  
 2.620000000000000E10    9.034231883479599E-3  -1.286693858235741E-2  
 2.624000000000000E10   -1.575492736447716E-2  -2.166063607062042E-3  
 2.628000000000000E10    6.501428763715746E-3   1.251566142118788E-2  
 2.632000000000000E10    6.884099483964444E-3  -1.156786322737313E-2  
 2.636000000000000E10   -1.498492496404314E-2   1.221748418024930E-5  
 2.640000000000000E10    8.507075283723357E-3   1.233195762406874E-2  
 2.644000000000000E10    6.158761103766682E-3  -1.430993456113244E-2  
 2.648000000000000E10   -1.654109432390690E-2   2.056552102752209E-3  
 2.652000000000000E10    8.644514398309711E-3   1.280823055202103E-2  
 2.656000000000000E10    5.944460109024287E-3  -1.413674998949623E-2  
 2.660000000000000E10   -1.317251033072710E-2   2.216288777436614E-3  
 2.664000000000000E10    8.667499800158502E-3   9.904829972730164E-3  
 2.668000000000000E10    2.881354729463101E-3  -1.399376275284863E-2  
 2.672000000000000E10   -1.369003603708935E-2   4.238546540782214E-3  
 2.676000000000000E10    1.095920093809033E-2   1.035448541466236E-2  
 2.680000000000000E10    3.798080832086326E-3  -1.405074802723074E-2  
 2.684000000000000E10   -1.426840893753720E-2   3.679074645260931E-3  
 2.688000000000000E10    1.009681151710510E-2   8.346871731560231E-3  
 2.692000000000000E10    1.332964603200466E-3  -1.269778819742871E-2  
 2.696000000000000E10   -1.205832098254586E-2   6.268973549884082E-3  
 2.700000000000000E10    1.253295470768595E-2   7.165842712849381E-3  
