#  HZ   S   RI   R     50.00 
! Rohde & Schwarz ZVA40 4Ports - Version 3.90 - 1145.1110k42 SN: 100403
! Date: 2023-09-26 10:42:20
! Measurement: S12 
! 
 2.300000000000000E10    4.555063190412522E-3  -2.192680518333913E-2  
 2.304000000000000E10   -2.127857093505860E-2   6.583077567011121E-3  
 2.308000000000000E10    1.619685702733994E-2   1.550220168734789E-2  
 2.312000000000000E10    4.507504486912491E-3  -2.047073929617405E-2  
 2.316000000000000E10   -2.021955513620377E-2   6.206469574880602E-3  
 2.320000000000000E10    1.717858443348408E-2   1.225871235409975E-2  
 2.324000000000000E10    1.947101219379902E-3  -2.103829948322773E-2  
 2.328000000000000E10   -2.063446245617867E-2   1.187522207064629E-2  
 2.332000000000000E10    2.040304651849271E-2   1.120423436791897E-2  
 2.336000000000000E10   -5.982243554063143E-4  -2.396857362015248E-2  
 2.340000000000000E10   -1.898016747596264E-2   1.287615121670962E-2  
 2.344000000000000E10    1.961213969275952E-2   1.016358538134098E-2  
 2.348000000000000E10   -3.533472283822299E-3  -2.109799579548836E-2  
 2.352000000000000E10   -1.664685601172448E-2   1.475154310109616E-2  
 2.356000000000000E10    2.242656822857857E-2   5.717914958155158E-3  
 2.360000000000000E10   -6.454059761869910E-3  -2.302459705603123E-2  
 2.364000000000000E10   -1.606181165986061E-2   1.798160905790329E-2  
 2.368000000000000E10    2.224953085961342E-2   4.814192475086451E-3  
 2.372000000000000E10   -7.539201028043033E-3  -2.116713420004845E-2  
 2.376000000000000E10   -1.194486774628163E-2   1.717418837857247E-2  
 2.380000000000000E10    2.132484192934037E-2   8.423286305941643E-4  
 2.384000000000000E10   -1.150996250261068E-2  -1.813635703716279E-2  
 2.388000000000000E10   -1.013530779223442E-2   1.934466242454053E-2  
 2.392000000000000E10    2.138170845305920E-2  -1.407049255670607E-3  
 2.396000000000000E10   -1.157898179438114E-2  -1.855189059951306E-2  
 2.400000000000000E10   -1.021628856258392E-2   1.853878528692723E-2  
 2.404000000000000E10    1.888964694852829E-2  -3.186655994743109E-3  
 2.408000000000000E10   -1.510431991735697E-2  -1.478931985194683E-2  
 2.412000000000000E10   -5.673076590943339E-3   1.976344312858582E-2  
 2.416000000000000E10    2.072108550267220E-2  -6.748582894790174E-3  
 2.420000000000000E10   -1.608553854219914E-2  -1.430023357012272E-2  
 2.424000000000000E10   -5.894237330543997E-3   2.007880493471623E-2  
 2.428000000000000E10    1.846097616183758E-2  -7.110414726871254E-3  
 2.432000000000000E10   -1.505055097225905E-2  -1.073816433602572E-2  
 2.436000000000000E10    8.654189763680102E-4   1.892952058219910E-2  
 2.440000000000000E10    1.415070766621828E-2  -1.018848418759108E-2  
 2.444000000000000E10   -1.913575272908211E-2  -8.390679311871530E-3  
 2.448000000000000E10    1.303453573333472E-3   1.854381885535718E-2  
 2.452000000000000E10    1.720480037126541E-2  -8.858415744483473E-3  
 2.456000000000000E10   -1.577334237368107E-2  -7.158592726349833E-3  
 2.460000000000000E10    7.768285517930985E-4   1.678704232449532E-2  
 2.464000000000000E10    1.146265764163733E-2  -1.190317299690247E-2  
 2.468000000000000E10   -1.542983317594529E-2  -5.885917372220755E-3  
 2.472000000000000E10    4.329054979637266E-3   1.740809878215790E-2  
 2.476000000000000E10    1.225970641369820E-2  -1.074637954206467E-2  
 2.480000000000000E10   -1.604403027970791E-2  -5.828935726034643E-3  
 2.484000000000000E10    4.142108258965612E-3   1.407687672009468E-2  
 2.488000000000000E10    1.128557884713411E-2  -9.085163262176513E-3  
 2.492000000000000E10   -1.400286498204470E-2  -2.401849614787102E-3  
 2.496000000000000E10    5.163008902579548E-3   1.288244674729109E-2  
 2.500000000000000E10    8.631389943206313E-3  -1.336618678135872E-2  
 2.504000000000000E10   -1.450555552765131E-2  -7.943254957199098E-4  
 2.508000000000000E10    5.339792896187306E-3   1.468553294297457E-2  
 2.512000000000000E10    8.978563622617723E-3  -1.064786414358616E-2  
 2.516000000000000E10   -1.269240659244061E-2  -4.433440749830008E-3  
 2.520000000000000E10    4.953062395384910E-3   1.270725431445837E-2  
 2.524000000000000E10    8.682191055762770E-3  -1.086393277415037E-2  
 2.528000000000000E10   -1.503510139284134E-2  -1.085629600709677E-3  
 2.532000000000000E10    7.385872077661755E-3   1.304354148445130E-2  
 2.536000000000000E10    1.057924009071589E-2  -1.245358858619929E-2  
 2.540000000000000E10   -1.521729689409733E-2  -1.187198167112470E-3  
 2.544000000000000E10    6.361787349987031E-3   1.247415413624049E-2  
 2.548000000000000E10    7.217050542461873E-3  -1.197192214295864E-2  
 2.552000000000000E10   -1.386722007924319E-2   2.333770572984219E-3  
 2.556000000000000E10    9.557408333384991E-3   1.279508132416010E-2  
 2.560000000000000E10    6.391935447305442E-3  -1.449388749448062E-2  
 2.564000000000000E10   -1.703766319987774E-2   8.838641281247140E-4  
 2.568000000000000E10    1.071225384795666E-2   1.389777401009799E-2  
 2.572000000000000E10    7.106519927865268E-3  -1.331781833800078E-2  
 2.576000000000000E10   -1.456253806279898E-2   1.784195795561374E-3  
 2.580000000000000E10    1.037425570430756E-2   1.052788268171549E-2  
 2.584000000000000E10    4.767812950399519E-3  -1.600373851654530E-2  
 2.588000000000000E10   -1.597875085842610E-2   5.927131201767922E-3  
 2.592000000000000E10    1.169396145176888E-2   1.423880738532544E-2  
 2.596000000000000E10    4.900188195919992E-3  -1.892188784904480E-2  
 2.600000000000000E10   -1.655446124069691E-2   5.534140142971278E-3  
 2.604000000000000E10    1.418593930752277E-2   1.060080090471506E-2  
 2.608000000000000E10    5.588736471367070E-4  -1.449808914554119E-2  
 2.612000000000000E10   -1.530163769472838E-2   8.538448740184309E-3  
 2.616000000000000E10    1.623031399033070E-2   7.618841180491449E-3  
 2.620000000000000E10    1.315772796720267E-4  -1.792791818933487E-2  
 2.624000000000000E10   -1.510107747381926E-2   9.590264063966276E-3  
 2.628000000000000E10    1.486360982712508E-2   8.609527636444569E-3  
 2.632000000000000E10   -1.955469652444125E-3  -1.708287538855077E-2  
 2.636000000000000E10   -1.265376580828429E-2   1.051843079279662E-2  
 2.640000000000000E10    1.653517110993863E-2   4.554563950359821E-3  
 2.644000000000000E10   -4.688954870507122E-3  -1.702926663165093E-2  
 2.648000000000000E10   -1.297492919279337E-2   1.232469473412037E-2  
 2.652000000000000E10    1.692442082980872E-2   4.784735409873724E-3  
 2.656000000000000E10   -5.605914382851125E-3  -1.581570709719658E-2  
 2.660000000000000E10   -9.987435891938210E-3   1.282850725580454E-2  
 2.664000000000000E10    1.562986418133974E-2   8.320404226478192E-4  
 2.668000000000000E10   -8.355904963862898E-3  -1.400251782763005E-2  
 2.672000000000000E10   -7.700016269612315E-3   1.540049841947556E-2  
 2.676000000000000E10    1.706936005377770E-2  -1.405427892969921E-4  
 2.680000000000000E10   -8.427296522736549E-3  -1.497412388961316E-2  
 2.684000000000000E10   -8.921441096675397E-3   1.436748020523787E-2  
 2.688000000000000E10    1.515681094276905E-2   1.096484790746868E-3  
 2.692000000000000E10   -8.980912322580817E-3  -1.279768088017703E-2  
 2.696000000000000E10   -5.814045624554158E-3   1.510733077338934E-2  
 2.700000000000000E10    1.648184683659077E-2  -3.161332276189328E-3  
