#  HZ   S   RI   R     50.00 
! Rohde & Schwarz ZVA40 4Ports - Version 3.90 - 1145.1110k42 SN: 100403
! Date: 2023-09-26 10:43:33
! Measurement: S12 
! 
 2.300000000000000E10   -1.641467966530383E-3  -2.106746330705262E-2  
 2.304000000000000E10   -1.828168149463082E-2   1.208775983635235E-2  
 2.308000000000000E10    2.098092561501885E-2   8.875621015770914E-3  
 2.312000000000000E10   -2.339675447892309E-3  -2.261021126881124E-2  
 2.316000000000000E10   -1.859522176986599E-2   1.504204196802235E-2  
 2.320000000000000E10    2.019717937846280E-2   7.721840311286214E-3  
 2.324000000000000E10   -4.145902571472169E-3  -2.239272618987179E-2  
 2.328000000000000E10   -1.538487742754889E-2   1.678486756997967E-2  
 2.332000000000000E10    2.350821229189683E-2   4.572228459064246E-3  
 2.336000000000000E10   -1.010780328740788E-2  -2.275748377809334E-2  
 2.340000000000000E10   -1.475758159450532E-2   1.957899839040852E-2  
 2.344000000000000E10    2.460658161871434E-2   2.682214863935114E-3  
 2.348000000000000E10   -9.751700723268510E-3  -2.226269800686360E-2  
 2.352000000000000E10   -1.329473301138783E-2   2.026792656666470E-2  
 2.356000000000000E10    2.284862687157441E-2  -2.614169072523713E-4  
 2.360000000000000E10   -1.407326980392457E-2  -1.931537628198529E-2  
 2.364000000000000E10   -8.962507191339970E-3   2.236539624232675E-2  
 2.368000000000000E10    2.447595699515821E-2  -3.062354065692426E-3  
 2.372000000000000E10   -1.587364771230126E-2  -1.981807281875897E-2  
 2.376000000000000E10   -8.823131773529532E-3   2.325547527221585E-2  
 2.380000000000000E10    2.270458845670986E-2  -4.455614774642468E-3  
 2.384000000000000E10   -1.576506451791573E-2  -1.532582164650345E-2  
 2.388000000000000E10   -3.535467258124591E-3   2.249815802665139E-2  
 2.392000000000000E10    2.091308796741391E-2  -9.445794456161024E-3  
 2.396000000000000E10   -2.034456048023797E-2  -1.353007931076479E-2  
 2.400000000000000E10   -4.022458486801863E-3   2.409533621770668E-2  
 2.404000000000000E10    2.135722920376301E-2  -1.098162948709870E-2  
 2.408000000000000E10   -1.821017351500416E-2  -1.164584428819895E-2  
 2.412000000000000E10   -3.243435512202979E-4   2.279726649622346E-2  
 2.416000000000000E10    1.717543095193196E-2  -1.223616163679171E-2  
 2.420000000000000E10   -2.094039898790074E-2  -8.797374942405704E-3  
 2.424000000000000E10    5.751532174205305E-3   2.253126453167057E-2  
 2.428000000000000E10    1.664757234086133E-2  -1.486073507371378E-2  
 2.432000000000000E10   -2.193760585349274E-2  -7.001559985034229E-3  
 2.436000000000000E10    5.294861779796602E-3   2.068298019211960E-2  
 2.440000000000000E10    1.380378197179985E-2  -1.619492088619519E-2  
 2.444000000000000E10   -2.002792998570824E-2  -5.912527243028135E-4  
 2.448000000000000E10    8.099799004916669E-3   1.565559578242112E-2  
 2.452000000000000E10    1.080317651240540E-2  -1.827692080077362E-2  
 2.456000000000000E10   -1.961968678166581E-2  -2.053290933996380E-3  
 2.460000000000000E10    9.595463919170858E-3   1.994128565386296E-2  
 2.464000000000000E10    1.015517265310479E-2  -1.641228978010035E-2  
 2.468000000000000E10   -1.826958227308274E-2  -1.715567631790698E-3  
 2.472000000000000E10    9.530609666246415E-3   1.455656075422383E-2  
 2.476000000000000E10    8.669652772191051E-3  -1.519084485216618E-2  
 2.480000000000000E10   -1.894117956764508E-2   1.755417333529473E-3  
 2.484000000000000E10    1.043876771354008E-2   1.405294266185523E-2  
 2.488000000000000E10    8.443554029870513E-3  -1.792477682853413E-2  
 2.492000000000000E10   -1.844707500150490E-2   1.652097614826151E-3  
 2.496000000000000E10    9.485419449796202E-3   1.481870954442645E-2  
 2.500000000000000E10    5.675966783419252E-3  -1.557255178381873E-2  
 2.504000000000000E10   -1.498495585751057E-2   3.158413469272137E-3  
 2.508000000000000E10    1.358533023733854E-2   1.163602553103781E-2  
 2.512000000000000E10    3.828694343578459E-3  -1.678713740175629E-2  
 2.516000000000000E10   -1.742475395391656E-2   4.421889320840837E-3  
 2.520000000000000E10    1.216461664172507E-2   1.234229480399371E-2  
 2.524000000000000E10    5.628655490642074E-3  -1.628827051773835E-2  
 2.528000000000000E10   -1.565582457338763E-2   4.934334690394164E-3  
 2.532000000000000E10    1.165862369362688E-2   1.158981036344719E-2  
 2.536000000000000E10    2.593174801334739E-3  -1.720404596274758E-2  
 2.540000000000000E10   -1.551076161528874E-2   7.635577864811660E-3  
 2.544000000000000E10    1.548756344563008E-2   1.065132097962380E-2  
 2.548000000000000E10    1.831149791981637E-3  -1.808010772148705E-2  
 2.552000000000000E10   -1.601715692032242E-2   6.973059438190462E-3  
 2.556000000000000E10    1.536847962004948E-2   9.484816444779875E-3  
 2.560000000000000E10   -9.104577952434422E-4  -1.635227889708328E-2  
 2.564000000000000E10   -1.432614306250048E-2   9.218324685305120E-3  
 2.568000000000000E10    1.676232209703446E-2   7.675094075119497E-3  
 2.572000000000000E10   -1.756449692510128E-3  -1.919076473699189E-2  
 2.576000000000000E10   -1.593309192938280E-2   1.134756881210947E-2  
 2.580000000000000E10    1.620634473904228E-2   8.578365243665698E-3  
 2.584000000000000E10   -1.229926118603707E-3  -1.918816941807271E-2  
 2.588000000000000E10   -1.490147144212246E-2   1.215767315662098E-2  
 2.592000000000000E10    1.805155314570904E-2   6.243166816141845E-3  
 2.596000000000000E10   -6.632357709721327E-3  -1.953334144269276E-2  
 2.600000000000000E10   -1.412003181261588E-2   1.528181744456101E-2  
 2.604000000000000E10    2.079106421043206E-2   2.983154772137702E-3  
 2.608000000000000E10   -6.784614457058193E-3  -1.790758480505467E-2  
 2.612000000000000E10   -1.143427725826073E-2   1.688572098599434E-2  
 2.616000000000000E10    1.826459910351849E-2   6.446369026028963E-4  
 2.620000000000000E10   -9.842585512489321E-3  -1.657183581724549E-2  
 2.624000000000000E10   -8.443920440331461E-3   1.763279110161496E-2  
 2.628000000000000E10    2.145562881394673E-2  -1.320845700913430E-3  
 2.632000000000000E10   -1.311541464749670E-2  -1.744966353263474E-2  
 2.636000000000000E10   -9.929593496168615E-3   1.880078283178426E-2  
 2.640000000000000E10    2.021272197134590E-2  -1.691591718481213E-3  
 2.644000000000000E10   -1.135708639192916E-2  -1.478911037794591E-2  
 2.648000000000000E10   -5.315327059022905E-3   1.836342430224705E-2  
 2.652000000000000E10    1.869217205919361E-2  -7.013386505301478E-3  
 2.656000000000000E10   -1.622610256322671E-2  -1.242220894668675E-2  
 2.660000000000000E10   -2.790096370697499E-3   2.128620168695164E-2  
 2.664000000000000E10    1.892132150948811E-2  -7.214302985239509E-3  
 2.668000000000000E10   -1.552852728418446E-2  -1.195335276466561E-2  
 2.672000000000000E10   -9.660918502615692E-4   1.917960873670101E-2  
 2.676000000000000E10    1.617616391274262E-2  -8.969129652654173E-3  
 2.680000000000000E10   -1.727287752849102E-2  -9.193203812573672E-3  
 2.684000000000000E10    1.356287644804359E-3   1.984171319692994E-2  
 2.688000000000000E10    1.673973035469151E-2  -1.053203276253605E-2  
 2.692000000000000E10   -1.846070358605480E-2  -8.700821328780176E-3  
 2.696000000000000E10    1.909851262586952E-3   1.930114509123803E-2  
 2.700000000000000E10    1.439620314559555E-2  -1.101733985737801E-2  
