#  HZ   S   RI   R     50.00 
! Rohde & Schwarz ZVA40 4Ports - Version 3.90 - 1145.1110k42 SN: 100403
! Date: 2023-09-26 10:44:48
! Measurement: S12 
! 
 2.300000000000000E10   -6.065830338054858E-3  -2.002114242613279E-2  
 2.304000000000000E10   -1.298003825883236E-2   1.702242757473562E-2  
 2.308000000000000E10    2.089839438003344E-2   1.908970597671576E-3  
 2.312000000000000E10   -9.617969232183315E-3  -1.962936556513912E-2  
 2.316000000000000E10   -1.119608081226383E-2   1.966121537981016E-2  
 2.320000000000000E10    2.346408359255161E-2   6.925440075856344E-4  
 2.324000000000000E10   -1.153648579611721E-2  -2.055430988724874E-2  
 2.328000000000000E10   -1.120811370447469E-2   2.088913249338919E-2  
 2.332000000000000E10    2.342596747071551E-2  -2.397757364465739E-3  
 2.336000000000000E10   -1.397910456483973E-2  -1.729621877482817E-2  
 2.340000000000000E10   -6.947483587628590E-3   2.237306045043218E-2  
 2.344000000000000E10    2.317667804036214E-2  -5.960182943499308E-3  
 2.348000000000000E10   -1.721183937083219E-2  -1.709047353436045E-2  
 2.352000000000000E10   -5.601974575884601E-3   2.354495027127217E-2  
 2.356000000000000E10    2.298283199154511E-2  -6.617385670077042E-3  
 2.360000000000000E10   -1.776393067171953E-2  -1.579076672101083E-2  
 2.364000000000000E10   -3.060283698131929E-3   2.307334620468383E-2  
 2.368000000000000E10    2.068887350384989E-2  -1.064856873337720E-2  
 2.372000000000000E10   -2.099157912170882E-2  -1.168424987848256E-2  
 2.376000000000000E10    5.621906377478366E-4   2.453665144662999E-2  
 2.380000000000000E10    2.064502828609804E-2  -1.321553681592458E-2  
 2.384000000000000E10   -2.180843433006301E-2  -1.087850850709777E-2  
 2.388000000000000E10    2.347465843174150E-3   2.316716868714841E-2  
 2.392000000000000E10    1.743526217883148E-2  -1.498719976037537E-2  
 2.396000000000000E10   -2.209329941332930E-2  -6.373992660751050E-3  
 2.400000000000000E10    4.732028283215769E-3   2.361551193203999E-2  
 2.404000000000000E10    1.516108497013033E-2  -1.816650799099977E-2  
 2.408000000000000E10   -2.460659232372990E-2  -5.777482141998657E-3  
 2.412000000000000E10    7.938293535193155E-3   2.267415128781409E-2  
 2.416000000000000E10    1.415686060900747E-2  -1.720452550721027E-2  
 2.420000000000000E10   -2.270850039778380E-2  -3.251842200211871E-3  
 2.424000000000000E10    9.982034506539663E-3   1.785992187285709E-2  
 2.428000000000000E10    1.016947028535555E-2  -1.948077656685805E-2  
 2.432000000000000E10   -2.284776568817721E-2   3.598871352616664E-3  
 2.436000000000000E10    1.392841470466003E-2   1.894034915417405E-2  
 2.440000000000000E10    8.451012092182386E-3  -2.187350825190788E-2  
 2.444000000000000E10   -1.936912226744272E-2   1.871994478848980E-3  
 2.448000000000000E10    1.246368076461025E-2   1.552356268413772E-2  
 2.452000000000000E10    5.323559863872604E-3  -1.760130621703231E-2  
 2.456000000000000E10   -1.824676094618318E-2   4.518102031077380E-3  
 2.460000000000000E10    1.507759639830322E-2   1.195712389277525E-2  
 2.464000000000000E10    4.814105871475959E-3  -1.874389137590271E-2  
 2.468000000000000E10   -2.029201143768137E-2   6.511063081914563E-3  
 2.472000000000000E10    1.369845252902246E-2   1.323890680185817E-2  
 2.476000000000000E10    4.326266067811088E-3  -1.805405105436946E-2  
 2.480000000000000E10   -1.636757456209438E-2   6.769220819787493E-3  
 2.484000000000000E10    1.513969647862565E-2   1.073030483115771E-2  
 2.488000000000000E10   -2.798792855695371E-4  -1.869597844925066E-2  
 2.492000000000000E10   -1.739115691781208E-2   8.235919427041334E-3  
 2.496000000000000E10    1.786069444411743E-2   9.476954185818128E-3  
 2.500000000000000E10    5.607885099581797E-4  -2.029479522978560E-2  
 2.504000000000000E10   -1.698809973684936E-2   9.477912272806898E-3  
 2.508000000000000E10    1.547737241835105E-2   8.647611620313668E-3  
 2.512000000000000E10   -1.342580951588081E-3  -1.719609956255635E-2  
 2.516000000000000E10   -1.377490644058343E-2   1.054951455761830E-2  
 2.520000000000000E10    1.755262038284540E-2   6.989522111006380E-3  
 2.524000000000000E10   -2.002436040939513E-3  -1.903270000553725E-2  
 2.528000000000000E10   -1.559994987849486E-2   1.130551962826196E-2  
 2.532000000000000E10    1.768459581878701E-2   8.319087973483635E-3  
 2.536000000000000E10   -2.586503392992099E-3  -1.844982687682038E-2  
 2.540000000000000E10   -1.313705728859316E-2   1.124016754390463E-2  
 2.544000000000000E10    1.792174559320168E-2   4.490568134054356E-3  
 2.548000000000000E10   -6.622258486393448E-3  -1.818956390306189E-2  
 2.552000000000000E10   -1.277466252029117E-2   1.647628257759327E-2  
 2.556000000000000E10    2.078395871145537E-2   3.286364223584912E-3  
 2.560000000000000E10   -5.992103968332359E-3  -1.870939551867498E-2  
 2.564000000000000E10   -1.174269633936419E-2   1.478445476419752E-2  
 2.568000000000000E10    1.867006465131143E-2   2.067765161226857E-3  
 2.572000000000000E10   -8.892124879205881E-3  -1.709482648995662E-2  
 2.576000000000000E10   -9.666781714069154E-3   1.671548035394073E-2  
 2.580000000000000E10    2.046971549051820E-2  -6.737757004075026E-6  
 2.584000000000000E10   -1.186293096862142E-2  -1.858893341514431E-2  
 2.588000000000000E10   -9.824347100239413E-3   1.887489916031119E-2  
 2.592000000000000E10    2.295140705857945E-2  -2.021663966108173E-3  
 2.596000000000000E10   -1.326353747700305E-2  -1.637377299213789E-2  
 2.600000000000000E10   -6.462131658841108E-3   2.043102387428455E-2  
 2.604000000000000E10    2.002790398498715E-2  -5.733430522572964E-3  
 2.608000000000000E10   -1.604681727304673E-2  -1.463791562284765E-2  
 2.612000000000000E10   -3.621711251516972E-3   2.184729997407534E-2  
 2.616000000000000E10    2.185381090684029E-2  -6.796838101504452E-3  
 2.620000000000000E10   -1.660068279103068E-2  -1.424305049613554E-2  
 2.624000000000000E10   -3.992556169906784E-3   2.072948148438671E-2  
 2.628000000000000E10    1.965911228494848E-2  -8.553064228282725E-3  
 2.632000000000000E10   -1.822404791759951E-2  -1.096739592778509E-2  
 2.636000000000000E10    1.328197900185121E-3   2.326526505635507E-2  
 2.640000000000000E10    1.860768680885473E-2  -1.338609384523015E-2  
 2.644000000000000E10   -2.002541715908222E-2  -9.562137578596310E-3  
 2.648000000000000E10    1.623551376420553E-3   2.233016719342907E-2  
 2.652000000000000E10    1.735796109912315E-2  -1.237824777796623E-2  
 2.656000000000000E10   -1.956327097023318E-2  -6.823603399021190E-3  
 2.660000000000000E10    5.911178625497536E-3   1.905708351405669E-2  
 2.664000000000000E10    1.356360458985192E-2  -1.532859108659065E-2  
 2.668000000000000E10   -2.158716044804027E-2  -2.406830134511287E-3  
 2.672000000000000E10    8.194319008548312E-3   2.031163790403946E-2  
 2.676000000000000E10    1.290910525321340E-2  -1.645549650110717E-2  
 2.680000000000000E10   -2.097580364628201E-2  -3.064679351620334E-3  
 2.684000000000000E10    9.375297229147532E-3   1.896981350731513E-2  
 2.688000000000000E10    1.002601349139463E-2  -1.643056897163106E-2  
 2.692000000000000E10   -1.913890193380153E-2   1.888253659088639E-3  
 2.696000000000000E10    1.203572319691828E-2   1.715999416281009E-2  
 2.700000000000000E10    8.006910453090099E-3  -1.868096936230750E-2  
