#  HZ   S   RI   R     50.00 
! Rohde & Schwarz ZVA40 4Ports - Version 3.90 - 1145.1110k42 SN: 100403
! Date: 2023-09-26 10:45:54
! Measurement: S12 
! 
 2.300000000000000E10   -1.314840975743533E-2  -1.384325574746132E-2  
 2.304000000000000E10   -5.352270794022085E-3   1.839458237843514E-2  
 2.308000000000000E10    1.973211400599480E-2  -6.685159613454343E-3  
 2.312000000000000E10   -1.605173182568551E-2  -1.293753030930758E-2  
 2.316000000000000E10   -2.136043244080245E-3   2.189627849819661E-2  
 2.320000000000000E10    2.026542058591843E-2  -8.705822591888904E-3  
 2.324000000000000E10   -1.750995556139946E-2  -1.385583811391592E-2  
 2.328000000000000E10   -1.851908734193444E-3   2.257360355215073E-2  
 2.332000000000000E10    1.895308284637928E-2  -9.797327650225165E-3  
 2.336000000000000E10   -1.920661018698216E-2  -9.881535117936139E-3  
 2.340000000000000E10    2.378272245636583E-3   2.167004163608551E-2  
 2.344000000000000E10    1.808471611032486E-2  -1.371348430961371E-2  
 2.348000000000000E10   -2.146496882736684E-2  -7.659438078480961E-3  
 2.352000000000000E10    4.152989709270001E-3   2.284648236696720E-2  
 2.356000000000000E10    1.788734958717823E-2  -1.481576045795680E-2  
 2.360000000000000E10   -2.143047040202618E-2  -6.762450975370409E-3  
 2.364000000000000E10    5.929419721001388E-3   2.086927809939385E-2  
 2.368000000000000E10    1.393915557651520E-2  -1.675001114566327E-2  
 2.372000000000000E10   -2.330192120461464E-2  -2.187440387406946E-3  
 2.376000000000000E10    1.099219468368292E-2   2.135994853115082E-2  
 2.380000000000000E10    1.333839005827904E-2  -2.001510336613656E-2  
 2.384000000000000E10   -2.405431867072583E-2   1.526206086799499E-5  
 2.388000000000000E10    1.127506121883393E-2   2.055172439687253E-2  
 2.392000000000000E10    9.830355496215821E-3  -2.022375075888634E-2  
 2.396000000000000E10   -2.208903687374592E-2   2.235978439283371E-3  
 2.400000000000000E10    1.290092155094147E-2   1.854002397944927E-2  
 2.404000000000000E10    7.232831918370725E-3  -2.120020233962536E-2  
 2.408000000000000E10   -2.353671910326481E-2   5.402716400241853E-3  
 2.412000000000000E10    1.607164097310305E-2   1.574459577095509E-2  
 2.416000000000000E10    4.868888437640669E-3  -2.236889075267316E-2  
 2.420000000000000E10   -1.992005816113950E-2   7.416749014109375E-3  
 2.424000000000000E10    1.790338414247036E-2   1.326937805649043E-2  
 2.428000000000000E10   -6.433135555222631E-4  -2.159555233993531E-2  
 2.432000000000000E10   -1.886816143910885E-2   1.113719660967589E-2  
 2.436000000000000E10    2.056877207598687E-2   9.985178347456459E-3  
 2.440000000000000E10   -4.529878355592490E-4  -2.163637746882439E-2  
 2.444000000000000E10   -1.929118110685349E-2   1.177827469596863E-2  
 2.448000000000000E10    1.748345038216114E-2   8.007833675360680E-3  
 2.452000000000000E10   -1.585871935892385E-3  -1.921674791831971E-2  
 2.456000000000000E10   -1.388128539854288E-2   1.291526615704298E-2  
 2.460000000000000E10    1.799393991873265E-2   6.554828133016827E-3  
 2.464000000000000E10   -6.565586697113515E-3  -1.990073146376610E-2  
 2.468000000000000E10   -1.402067752451897E-2   1.370150776942969E-2  
 2.472000000000000E10    2.003101425273419E-2   5.378985956794024E-3  
 2.476000000000000E10   -4.578160075122119E-3  -1.810899520416260E-2  
 2.480000000000000E10   -1.325723898339272E-2   1.268572515772582E-2  
 2.484000000000000E10    1.668244342854024E-2   2.691975462394954E-3  
 2.488000000000000E10   -6.493727229064704E-3  -1.799319191300870E-2  
 2.492000000000000E10   -9.475698416042329E-3   1.664127485734225E-2  
 2.496000000000000E10    2.041782074463368E-2  -8.110157545767722E-5  
 2.500000000000000E10   -8.685045263814929E-3  -1.881039270782471E-2  
 2.504000000000000E10   -9.943592266845705E-3   1.536376409738064E-2  
 2.508000000000000E10    1.983491307320595E-2   2.538768140386046E-3  
 2.512000000000000E10   -9.343812715435029E-3  -1.660030704758168E-2  
 2.516000000000000E10   -8.677894396460060E-3   1.466253013647795E-2  
 2.520000000000000E10    1.814287853727341E-2  -2.699884212595225E-3  
 2.524000000000000E10   -1.042215700033903E-2  -1.478272354923487E-2  
 2.528000000000000E10   -8.479819234263898E-3   1.838610994520188E-2  
 2.532000000000000E10    2.035785351402760E-2  -3.358740047967435E-3  
 2.536000000000000E10   -1.129993818105459E-2  -1.647045603971482E-2  
 2.540000000000000E10   -6.550996539539101E-3   1.784900027964115E-2  
 2.544000000000000E10    1.968313496391774E-2  -3.249822667209805E-3  
 2.548000000000000E10   -1.403590449422599E-2  -1.343987341111899E-2  
 2.552000000000000E10   -3.498123409733177E-3   1.951589616451264E-2  
 2.556000000000000E10    2.039945242829323E-2  -7.899269278150800E-3  
 2.560000000000000E10   -1.659551718180180E-2  -1.362200855730772E-2  
 2.564000000000000E10   -2.322691080833227E-3   1.979376842908860E-2  
 2.568000000000000E10    1.955364282422066E-2  -7.732626436316969E-3  
 2.572000000000000E10   -1.641441464314461E-2  -1.186604545595646E-2  
 2.576000000000000E10   -5.984939604699611E-4   2.058412371089459E-2  
 2.580000000000000E10    1.763254503123761E-2  -1.150144621243477E-2  
 2.584000000000000E10   -2.003179467968941E-2  -9.708128172349931E-3  
 2.588000000000000E10    1.870595675963164E-3   2.302822518908978E-2  
 2.592000000000000E10    1.853578607399464E-2  -1.272642443464995E-2  
 2.596000000000000E10   -2.068775378510953E-2  -9.645259654402735E-3  
 2.600000000000000E10    4.290308803647758E-3   2.173440395264626E-2  
 2.604000000000000E10    1.474397567065955E-2  -1.436426974918843E-2  
 2.608000000000000E10   -2.117959538979531E-2  -3.792807694011928E-3  
 2.612000000000000E10    7.930385475885871E-3   1.992932062869072E-2  
 2.616000000000000E10    1.477718901374341E-2  -1.873331251480579E-2  
 2.620000000000000E10   -2.205686511750222E-2  -3.200446159005166E-3  
 2.624000000000000E10    8.222482267963889E-3   2.109134944541455E-2  
 2.628000000000000E10    1.223441735011340E-2  -1.647941660635472E-2  
 2.632000000000000E10   -2.153240201244355E-2  -2.065974615961314E-3  
 2.636000000000000E10    1.244199116193057E-2   1.833609520840645E-2  
 2.640000000000000E10    9.289267382276060E-3  -1.880047392058373E-2  
 2.644000000000000E10   -2.186801307921410E-2   2.392990459186584E-3  
 2.648000000000000E10    1.398126439613104E-2   1.837590018279553E-2  
 2.652000000000000E10    9.722772706043723E-3  -2.151130403895378E-2  
 2.656000000000000E10   -2.188025309309960E-2   3.812188547629119E-3  
 2.660000000000000E10    1.472288495219946E-2   1.573394262678624E-2  
 2.664000000000000E10    4.663048110586406E-3  -2.043101975069047E-2  
 2.668000000000000E10   -2.060465983171464E-2   8.620256823492052E-3  
 2.672000000000000E10    1.790933196926118E-2   1.322033046693802E-2  
 2.676000000000000E10    2.320437389770151E-3  -2.255929501502514E-2  
 2.680000000000000E10   -1.983290057749749E-2   9.358749331402782E-3  
 2.684000000000000E10    1.778333883209229E-2   1.222713882303238E-2  
 2.688000000000000E10    1.366456564992666E-3  -2.056010103445053E-2  
 2.692000000000000E10   -1.715883024170399E-2   1.074669635109901E-2  
 2.696000000000000E10    1.868065401318074E-2   8.087796589577201E-3  
 2.700000000000000E10   -3.125338760787250E-3  -2.038480255341530E-2  
