#  HZ   S   RI   R     50.00 
! Rohde & Schwarz ZVA40 4Ports - Version 3.90 - 1145.1110k42 SN: 100403
! Date: 2023-09-26 10:47:18
! Measurement: S12 
! 
 2.300000000000000E10   -1.508093578293982E-2  -6.589256336146114E-3  
 2.304000000000000E10    2.743701963944664E-3   1.688647244452904E-2  
 2.308000000000000E10    1.266186603585531E-2  -1.170310797845603E-2  
 2.312000000000000E10   -1.681583342858144E-2  -3.979194286726526E-3  
 2.316000000000000E10    6.138227509933788E-3   1.763669061422765E-2  
 2.320000000000000E10    1.213301290008353E-2  -1.463401994240985E-2  
 2.324000000000000E10   -1.955243939577935E-2  -3.150191901292286E-3  
 2.328000000000000E10    7.166008635496744E-3   1.839715371133141E-2  
 2.332000000000000E10    1.129855156359034E-2  -1.514337016396488E-2  
 2.336000000000000E10   -1.876833856186767E-2  -8.887445942873100E-4  
 2.340000000000000E10    9.784490017882177E-3   1.651547910552015E-2  
 2.344000000000000E10    8.221976144248909E-3  -1.800145399834505E-2  
 2.348000000000000E10   -1.958664080711491E-2   2.865703139064544E-3  
 2.352000000000000E10    1.277874333619421E-2   1.622794801380569E-2  
 2.356000000000000E10    7.891125274680715E-3  -1.931907269888270E-2  
 2.360000000000000E10   -2.089804769329331E-2   3.642848688680323E-3  
 2.364000000000000E10    1.478387137472433E-2   1.450445743576782E-2  
 2.368000000000000E10    4.262920004850133E-3  -1.949641360030153E-2  
 2.372000000000000E10   -1.880245705826630E-2   7.653570030313055E-3  
 2.376000000000000E10    1.741768740720747E-2   1.215163532909086E-2  
 2.380000000000000E10    1.246077422726790E-3  -2.234501053861690E-2  
 2.384000000000000E10   -2.031618477896025E-2   9.962815223338802E-3  
 2.388000000000000E10    1.833914918070377E-2   1.134974289096834E-2  
 2.392000000000000E10    3.471952762149653E-4  -2.047442089401276E-2  
 2.396000000000000E10   -1.745938235873927E-2   1.040300318323611E-2  
 2.400000000000000E10    1.756269761236660E-2   9.995140141345612E-3  
 2.404000000000000E10   -4.349407682092388E-3  -1.989127464158058E-2  
 2.408000000000000E10   -1.494431572491667E-2   1.584087378666696E-2  
 2.412000000000000E10    2.175266164386995E-2   5.484564964877308E-3  
 2.416000000000000E10   -7.283767519604448E-3  -2.090659098160614E-2  
 2.420000000000000E10   -1.553703374133721E-2   1.650780433728302E-2  
 2.424000000000000E10    2.040805877043560E-2   3.057697580310341E-3  
 2.428000000000000E10   -9.073214567865291E-3  -1.784874778896489E-2  
 2.432000000000000E10   -9.939538647840869E-3   1.878494927300657E-2  
 2.436000000000000E10    1.972424246126331E-2  -6.860750454175872E-4  
 2.440000000000000E10   -1.183719608153301E-2  -1.795311529606751E-2  
 2.444000000000000E10   -8.676965155957343E-3   1.885649886180646E-2  
 2.448000000000000E10    1.939681272123379E-2  -1.179320008797305E-3  
 2.452000000000000E10   -1.130589182250435E-2  -1.522172799542324E-2  
 2.456000000000000E10   -6.326531879892253E-3   1.625807463198487E-2  
 2.460000000000000E10    1.687659646794186E-2  -4.569406521708724E-3  
 2.464000000000000E10   -1.210449921657679E-2  -1.098275331886109E-2  
 2.468000000000000E10   -4.354441663610363E-3   1.924669492592595E-2  
 2.472000000000000E10    1.866248809794995E-2  -5.235127653289632E-3  
 2.476000000000000E10   -1.327605473566584E-2  -1.354228229582693E-2  
 2.480000000000000E10   -4.861024075174736E-3   1.851576401703269E-2  
 2.484000000000000E10    1.747401739974590E-2  -5.490586194078933E-3  
 2.488000000000000E10   -1.399463180469907E-2  -1.089667699199380E-2  
 2.492000000000000E10   -2.378566065590968E-4   1.788318308873299E-2  
 2.496000000000000E10    1.532255693999310E-2  -9.632270621840029E-3  
 2.500000000000000E10   -1.692555191247407E-2  -9.089245868516852E-3  
 2.504000000000000E10   -3.363205006407086E-5   1.953589323037134E-2  
 2.508000000000000E10    1.642248283364488E-2  -1.012263825520170E-2  
 2.512000000000000E10   -1.551960986912991E-2  -8.563887841266578E-3  
 2.516000000000000E10    1.145203495510536E-4   1.717425303315110E-2  
 2.520000000000000E10    1.254453287288582E-2  -1.005474771288797E-2  
 2.524000000000000E10   -1.622343833492359E-2  -5.765216985573436E-3  
 2.528000000000000E10    3.852962986268497E-3   1.796009656200981E-2  
 2.532000000000000E10    1.386161833867753E-2  -1.295778622034906E-2  
 2.536000000000000E10   -1.920396966164813E-2  -7.024246281483579E-3  
 2.540000000000000E10    4.520121119496680E-3   1.997158971785688E-2  
 2.544000000000000E10    1.471494021200762E-2  -1.371048057467882E-2  
 2.548000000000000E10   -1.832352665277340E-2  -2.734792553946214E-3  
 2.552000000000000E10    7.141083052641960E-3   1.661806597234832E-2  
 2.556000000000000E10    1.113276336275932E-2  -1.684063651805635E-2  
 2.560000000000000E10   -2.063697354547925E-2  -7.238282674716928E-4  
 2.564000000000000E10    9.929449437575936E-3   1.753098153956218E-2  
 2.568000000000000E10    1.046683796900686E-2  -1.901948358616308E-2  
 2.572000000000000E10   -1.989965598156749E-2   7.634047170472860E-5  
 2.576000000000000E10    1.054817613222402E-2   1.711113640756933E-2  
 2.580000000000000E10    8.677091091904737E-3  -1.895302681790490E-2  
 2.584000000000000E10   -2.055024965630275E-2   3.595342614321548E-3  
 2.588000000000000E10    1.531751695677980E-2   1.564682929043241E-2  
 2.592000000000000E10    5.000732574259364E-3  -2.157694227095650E-2  
 2.596000000000000E10   -2.094203994804118E-2   6.224269775877919E-3  
 2.600000000000000E10    1.632384241193843E-2   1.497999417683801E-2  
 2.604000000000000E10    4.411119970242561E-3  -2.183704678628084E-2  
 2.608000000000000E10   -1.852134241967452E-2   8.278178323140312E-3  
 2.612000000000000E10    1.654035468449277E-2   1.096170171018060E-2  
 2.616000000000000E10    5.076911768630114E-4  -2.134240661414396E-2  
 2.620000000000000E10   -1.868425500113520E-2   1.037869603825485E-2  
 2.624000000000000E10    1.944473584787353E-2   1.031575444410341E-2  
 2.628000000000000E10   -1.608379322044612E-3  -2.166510515852975E-2  
 2.632000000000000E10   -1.768722408242901E-2   1.129574600736412E-2  
 2.636000000000000E10    1.923234071429368E-2   8.963430146016102E-3  
 2.640000000000000E10   -4.223522268364388E-3  -2.094538288358766E-2  
 2.644000000000000E10   -1.313386727979415E-2   1.549804109639696E-2  
 2.648000000000000E10    2.113914415395937E-2   4.571963966282245E-3  
 2.652000000000000E10   -6.770354842751070E-3  -2.105354340620857E-2  
 2.656000000000000E10   -1.457526870942984E-2   1.762630614938551E-2  
 2.660000000000000E10    2.224085008839025E-2   3.787086664612555E-3  
 2.664000000000000E10   -7.871826471183587E-3  -1.939230616904496E-2  
 2.668000000000000E10   -1.127740159838254E-2   1.729677788550008E-2  
 2.672000000000000E10    2.036549189886287E-2  -1.386497613480438E-3  
 2.676000000000000E10   -1.204391422214633E-2  -1.780967871508085E-2  
 2.680000000000000E10   -8.123611306646470E-3   1.957629404983197E-2  
 2.684000000000000E10    2.184734578461505E-2  -2.100714240812916E-3  
 2.688000000000000E10   -1.271731014688276E-2  -1.735878535900918E-2  
 2.692000000000000E10   -8.161816432037901E-3   1.900948577781615E-2  
 2.696000000000000E10    1.901125000904174E-2  -3.463936027567738E-3  
 2.700000000000000E10   -1.270776423176083E-2  -1.294359861944637E-2  
