#  HZ   S   RI   R     50.00 
! Rohde & Schwarz ZVA40 4Ports - Version 3.90 - 1145.1110k42 SN: 100403
! Date: 2023-09-26 10:48:20
! Measurement: S12 
! 
 2.300000000000000E10   -1.438480261623860E-2  -5.363637736439705E-3  
 2.304000000000000E10    2.330572488531471E-3   1.517390600681305E-2  
 2.308000000000000E10    1.187694617062807E-2  -1.108455219447613E-2  
 2.312000000000000E10   -1.517990840405226E-2  -3.448673468902708E-3  
 2.316000000000000E10    6.355712081491949E-3   1.447944415807724E-2  
 2.320000000000000E10    8.899890266060830E-3  -1.316271546989680E-2  
 2.324000000000000E10   -1.737066267967224E-2  -8.753538872115316E-4  
 2.328000000000000E10    8.824752572178841E-3   1.593204447329044E-2  
 2.332000000000000E10    8.806596103012564E-3  -1.541429904341698E-2  
 2.336000000000000E10   -1.753256857097149E-2   4.569536703266205E-4  
 2.340000000000000E10    9.050594668388368E-3   1.308508510380984E-2  
 2.344000000000000E10    5.927684712260963E-3  -1.466477476984263E-2  
 2.348000000000000E10   -1.614571087539196E-2   3.164439052268863E-3  
 2.352000000000000E10    1.233769746482373E-2   1.241961067736149E-2  
 2.356000000000000E10    4.241676393449308E-3  -1.753674008131028E-2  
 2.360000000000000E10   -1.797293940484524E-2   5.775096113830805E-3  
 2.364000000000000E10    1.450332922101021E-2   1.225732827723026E-2  
 2.368000000000000E10    3.118653278276326E-3  -1.830025300621987E-2  
 2.372000000000000E10   -1.644825784325600E-2   8.096278951764109E-3  
 2.376000000000000E10    1.604989489018917E-2   8.932011901438238E-3  
 2.380000000000000E10   -9.235598993301395E-4  -1.886432220757008E-2  
 2.384000000000000E10   -1.514170475363732E-2   1.175720573574305E-2  
 2.388000000000000E10    1.761509610831738E-2   7.733750149011613E-3  
 2.392000000000000E10   -2.207023742944003E-3  -1.939530307650567E-2  
 2.396000000000000E10   -1.453514193832875E-2   1.213057278096676E-2  
 2.400000000000000E10    1.682806735038758E-2   7.317163869738580E-3  
 2.404000000000000E10   -5.008515713363886E-3  -1.739510026156903E-2  
 2.408000000000000E10   -1.165890775859356E-2   1.480635760366917E-2  
 2.412000000000000E10    1.997939454793930E-2   1.166259691752494E-3  
 2.416000000000000E10   -9.756381493508819E-3  -1.817152934849262E-2  
 2.420000000000000E10   -1.094267252445221E-2   1.683303507030011E-2  
 2.424000000000000E10    2.085695531368256E-2   8.495352310198361E-4  
 2.428000000000000E10   -9.840997096300127E-3  -1.679478306353092E-2  
 2.432000000000000E10   -7.842817912250760E-3   1.671813180208207E-2  
 2.436000000000000E10    1.784323169171810E-2  -1.932729890942574E-3  
 2.440000000000000E10   -1.302560973882676E-2  -1.275583353072405E-2  
 2.444000000000000E10   -3.574532796144486E-3   1.742907297849656E-2  
 2.448000000000000E10    1.783677515745163E-2  -5.269865813255312E-3  
 2.452000000000000E10   -1.365956723183394E-2  -1.208444989442826E-2  
 2.456000000000000E10   -4.751928235143425E-3   1.784742250144482E-2  
 2.460000000000000E10    1.674504378318787E-2  -5.926326515674592E-3  
 2.464000000000000E10   -1.291452220559120E-2  -1.098742874443531E-2  
 2.468000000000000E10   -2.646611368516461E-4   1.666377499520779E-2  
 2.472000000000000E10    1.507333582490683E-2  -7.995981702208520E-3  
 2.476000000000000E10   -1.659635780572891E-2  -7.812870783805850E-3  
 2.480000000000000E10   -4.554878257028759E-4   1.938881051659585E-2  
 2.484000000000000E10    1.539890331387520E-2  -1.034919301062823E-2  
 2.488000000000000E10   -1.593936539113522E-2  -7.725089667141439E-3  
 2.492000000000000E10   -4.843846933916212E-4   1.714366307854653E-2  
 2.496000000000000E10    1.272104014277459E-2  -9.837523572742942E-3  
 2.500000000000000E10   -1.438670700192452E-2  -5.974944122880698E-3  
 2.504000000000000E10    4.179548062980175E-3   1.521146519362927E-2  
 2.508000000000000E10    1.236605313152075E-2  -1.148204310685396E-2  
 2.512000000000000E10   -1.639075655519963E-2  -6.072208599299194E-3  
 2.516000000000000E10    3.546297429949046E-3   1.627737203359604E-2  
 2.520000000000000E10    1.275638583630324E-2  -1.191961074858904E-2  
 2.524000000000000E10   -1.671271662533284E-2  -4.201003355979921E-3  
 2.528000000000000E10    5.674745446741581E-3   1.604859499275685E-2  
 2.532000000000000E10    1.055170932412148E-2  -1.423251514136791E-2  
 2.536000000000000E10   -1.856386874139309E-2  -2.212889052592218E-3  
 2.540000000000000E10    8.560614376664163E-3   1.694859218001366E-2  
 2.544000000000000E10    1.030681608319283E-2  -1.722924190878868E-2  
 2.548000000000000E10   -1.907330446064473E-2  -2.805017185583711E-4  
 2.552000000000000E10    8.823158142566682E-3   1.547248759210110E-2  
 2.556000000000000E10    7.826050209403038E-3  -1.734386678874493E-2  
 2.560000000000000E10   -1.793920936644078E-2   1.693953210078180E-3  
 2.564000000000000E10    1.289152755439282E-2   1.292333025157452E-2  
 2.568000000000000E10    4.853197406530381E-3  -1.830956653058529E-2  
 2.572000000000000E10   -1.960816815435887E-2   5.290699825435878E-3  
 2.576000000000000E10    1.417637907892466E-2   1.418784431219101E-2  
 2.580000000000000E10    4.766889691650868E-3  -1.910544518649579E-2  
 2.584000000000000E10   -1.827808810710907E-2   5.416358332037927E-3  
 2.588000000000000E10    1.479543135255576E-2   1.171953224748373E-2  
 2.592000000000000E10    1.098308631330729E-3  -1.959094936072827E-2  
 2.596000000000000E10   -1.670366191625596E-2   1.098008715122938E-2  
 2.600000000000000E10    1.866266531169415E-2   9.397889165580273E-3  
 2.604000000000000E10   -7.262379820272328E-4  -2.149711237728596E-2  
 2.608000000000000E10   -1.751680116534234E-2   1.108442747056485E-2  
 2.612000000000000E10    1.762928895711899E-2   8.444249677956105E-3  
 2.616000000000000E10   -4.302863581804559E-4  -1.889094961106777E-2  
 2.620000000000000E10   -1.468932934731245E-2   1.137043053984642E-2  
 2.624000000000000E10    1.841345916092396E-2   6.031134537458422E-3  
 2.628000000000000E10   -5.315605851113797E-3  -1.878500078141690E-2  
 2.632000000000000E10   -1.420038865566254E-2   1.532561034679413E-2  
 2.636000000000000E10    2.083030073702336E-2   4.623839724883438E-3  
 2.640000000000000E10   -7.004756185114386E-3  -1.914569266080856E-2  
 2.644000000000000E10   -1.227708558261395E-2   1.494742455691099E-2  
 2.648000000000000E10    1.895085278034210E-2   2.641829846352339E-3  
 2.652000000000000E10   -9.805095382332802E-3  -1.764787498235703E-2  
 2.656000000000000E10   -8.229277881681920E-3   1.845770311713219E-2  
 2.660000000000000E10    2.116972016036511E-2  -1.324007652918809E-3  
 2.664000000000000E10   -1.242616639643908E-2  -1.678569603383541E-2  
 2.668000000000000E10   -7.466361735910179E-3   1.924218159735203E-2  
 2.672000000000000E10    1.987624544441700E-2  -3.908242348730565E-3  
 2.676000000000000E10   -1.249557879805565E-2  -1.384066838800907E-2  
 2.680000000000000E10   -5.002382126301528E-3   1.895394407391549E-2  
 2.684000000000000E10    1.790783060312271E-2  -7.015031426548958E-3  
 2.688000000000000E10   -1.531752983152867E-2  -1.204617394983769E-2  
 2.692000000000000E10   -1.880025790631771E-3   2.015015906631947E-2  
 2.696000000000000E10    1.793387225270272E-2  -7.061272560060026E-3  
 2.700000000000000E10   -1.626235942125321E-2  -1.213471763759852E-2  
