#  HZ   S   RI   R     50.00 
! Rohde & Schwarz ZVA40 4Ports - Version 3.90 - 1145.1110k42 SN: 100403
! Date: 2023-09-26 10:49:52
! Measurement: S12 
! 
 2.300000000000000E10   -1.360001452599764E-2   3.223027300480753E-5  
 2.304000000000000E10    6.617590945607425E-3   1.143574233217239E-2  
 2.308000000000000E10    6.891924464571477E-3  -1.199302851159573E-2  
 2.312000000000000E10   -1.300690763851405E-2   1.529647290322185E-3  
 2.316000000000000E10    8.344449743044378E-3   9.141530721235277E-3  
 2.320000000000000E10    2.815587866452337E-3  -1.313481210315228E-2  
 2.324000000000000E10   -1.265496231886149E-2   4.886148174750806E-3  
 2.328000000000000E10    1.183664969512224E-2   8.821290336704256E-3  
 2.332000000000000E10    1.753890512873233E-3  -1.468266488982439E-2  
 2.336000000000000E10   -1.355663502751589E-2   6.175447732871773E-3  
 2.340000000000000E10    1.240386601464749E-2   8.119165126234293E-3  
 2.344000000000000E10   -2.474983841009438E-4  -1.348542124193907E-2  
 2.348000000000000E10   -1.115311568025351E-2   7.542317327326538E-3  
 2.352000000000000E10    1.329269506279231E-2   4.434770081287623E-3  
 2.356000000000000E10   -3.409648280635477E-3  -1.456917657214404E-2  
 2.360000000000000E10   -1.083134360957146E-2   1.139556140748263E-2  
 2.364000000000000E10    1.597709898040295E-2   4.620243110364676E-3  
 2.368000000000000E10   -4.309126584380866E-3  -1.580955707061291E-2  
 2.372000000000000E10   -1.066035941076279E-2   1.151399128471613E-2  
 2.376000000000000E10    1.464159747329951E-2   2.398160068389774E-3  
 2.380000000000000E10   -6.680036151552202E-3  -1.328340388150216E-2  
 2.384000000000000E10   -8.028539620578291E-3   1.385301390227080E-2  
 2.388000000000000E10    1.570013848910332E-2  -1.424065799081326E-3  
 2.392000000000000E10   -9.161007258820537E-3  -1.347571145029069E-2  
 2.396000000000000E10   -6.856618349581959E-3   1.524926543601752E-2  
 2.400000000000000E10    1.681069416809082E-2  -1.153498345935019E-4  
 2.404000000000000E10   -1.100721286792755E-2  -1.204660356637240E-2  
 2.408000000000000E10   -4.584485462635756E-3   1.471835661706925E-2  
 2.412000000000000E10    1.551569863913060E-2  -4.873703471094370E-3  
 2.416000000000000E10   -1.318814235752821E-2  -1.009508875110150E-2  
 2.420000000000000E10   -2.429925555062295E-3   1.715544962668419E-2  
 2.424000000000000E10    1.601714044413567E-2  -7.885448505562547E-3  
 2.428000000000000E10   -1.500555980052948E-2  -8.997778043365481E-3  
 2.432000000000000E10    1.096667540383339E-3   1.601583758425713E-2  
 2.436000000000000E10    1.240189916912317E-2  -8.490305872750285E-3  
 2.440000000000000E10   -1.379045728625060E-2  -4.883780475288630E-3  
 2.444000000000000E10    3.756248033022882E-3   1.456619616538286E-2  
 2.448000000000000E10    1.147904611173868E-2  -1.077607767213583E-2  
 2.452000000000000E10   -1.631949651937485E-2  -2.512020095947385E-3  
 2.456000000000000E10    4.008925941210986E-3   1.575893515796662E-2  
 2.460000000000000E10    1.177497505774498E-2  -1.208726947041751E-2  
 2.464000000000000E10   -1.557091093335152E-2  -3.845527208805085E-3  
 2.468000000000000E10    4.488949492764474E-3   1.425217346497774E-2  
 2.472000000000000E10    7.773040413957835E-3  -1.207285810757876E-2  
 2.476000000000000E10   -1.514692405328751E-2  -1.432899203237147E-4  
 2.480000000000000E10    7.957905727052690E-3   1.339148659859896E-2  
 2.484000000000000E10    8.297773691093923E-3  -1.466824845139981E-2  
 2.488000000000000E10   -1.660943129938841E-2   6.922909672304989E-4  
 2.492000000000000E10    8.486074653768541E-3   1.376442313460112E-2  
 2.496000000000000E10    7.532370092773438E-3  -1.240246473687888E-2  
 2.500000000000000E10   -1.290177729659081E-2   1.574193671731651E-3  
 2.504000000000000E10    7.793702914422754E-3   9.931631184208395E-3  
 2.508000000000000E10    4.182656503188611E-3  -1.331983414421082E-2  
 2.512000000000000E10   -1.355787995573283E-2   4.452046070253850E-3  
 2.516000000000000E10    1.000521984556914E-2   1.115818939858675E-2  
 2.520000000000000E10    4.868462704133989E-3  -1.371474025772810E-2  
 2.524000000000000E10   -1.509211754603386E-2   2.845912574410439E-3  
 2.528000000000000E10    1.126707052346468E-2   1.073166537559033E-2  
 2.532000000000000E10    3.802018062371016E-3  -1.500707044004202E-2  
 2.536000000000000E10   -1.462652114977837E-2   5.575440366894007E-3  
 2.540000000000000E10    1.425021811497212E-2   8.784296931862830E-3  
 2.544000000000000E10    3.994218762282283E-4  -1.811864197905064E-2  
 2.548000000000000E10   -1.481105570431948E-2   8.890654711043836E-3  
 2.552000000000000E10    1.524004741069079E-2   8.538918213391306E-3  
 2.556000000000000E10   -4.439886457622051E-4  -1.794732445201874E-2  
 2.560000000000000E10   -1.319767442263365E-2   9.467020810031894E-3  
 2.564000000000000E10    1.461065031008721E-2   5.730752740234138E-3  
 2.568000000000000E10   -3.563159293171764E-3  -1.699735344483853E-2  
 2.572000000000000E10   -1.196326143565178E-2   1.275237672075033E-2  
 2.576000000000000E10    1.777810255606175E-2   3.858334172928335E-3  
 2.580000000000000E10   -4.680177342981101E-3  -1.780788702161312E-2  
 2.584000000000000E10   -1.251869297249317E-2   1.325652854537964E-2  
 2.588000000000000E10    1.764111934118271E-2   3.357910899215938E-3  
 2.592000000000000E10   -7.257344656109812E-3  -1.523093120077849E-2  
 2.596000000000000E10   -8.424876383745672E-3   1.479244690909386E-2  
 2.600000000000000E10    1.799772532222271E-2  -1.195303503461928E-3  
 2.604000000000000E10   -1.026846547421217E-2  -1.528434411175251E-2  
 2.608000000000000E10   -6.381726566648486E-3   1.714692026276589E-2  
 2.612000000000000E10    1.811443987932206E-2  -3.215850114427509E-4  
 2.616000000000000E10   -1.053676127899885E-2  -1.571359851599932E-2  
 2.620000000000000E10   -6.854297172677519E-3   1.508704904708863E-2  
 2.624000000000000E10    1.674928093767166E-2  -2.909998797571659E-3  
 2.628000000000000E10   -1.263198500344754E-2  -1.195721512649060E-2  
 2.632000000000000E10   -2.963123975096644E-3   1.777269543313980E-2  
 2.636000000000000E10    1.800377583656311E-2  -7.760504809308053E-3  
 2.640000000000000E10   -1.515441111736298E-2  -1.151834581763745E-2  
 2.644000000000000E10   -2.017371040654183E-3   1.909621946156025E-2  
 2.648000000000000E10    1.712264972701073E-2  -7.250399838787319E-3  
 2.652000000000000E10   -1.555776186347008E-2  -1.107067283873558E-2  
 2.656000000000000E10    1.173494368791580E-3   1.790994251966477E-2  
 2.660000000000000E10    1.479523165965081E-2  -9.918316014051439E-3  
 2.664000000000000E10   -1.740197784492970E-2  -6.258512087649107E-3  
 2.668000000000000E10    4.531252185565234E-3   1.907024058511258E-2  
 2.672000000000000E10    1.398286944396496E-2  -1.417503965803385E-2  
 2.676000000000000E10   -1.780643355660439E-2  -5.516287986129525E-3  
 2.680000000000000E10    4.408644422972204E-3   1.728686488757134E-2  
 2.684000000000000E10    1.227965590080023E-2  -1.227279960402251E-2  
 2.688000000000000E10   -1.623134497122765E-2  -3.917190271246434E-3  
 2.692000000000000E10    6.862396457552910E-3   1.528439926749468E-2  
 2.696000000000000E10    9.849214877545835E-3  -1.556279536900521E-2  
 2.700000000000000E10   -1.836691534349919E-2  -9.191552612699570E-4  
