#Parameters = {C=4.48e-14; C_off=4.48e-14; C_on=0; H_add_decoupl=0.338; Hair=10; Hair_lower=10; Hpre1=0.204; Hpre1_2=0.306; Hsub1=0.508; Hsub_add1=0.168; Hsub_bottom=0.101; Hsub_top2=0.762; L=0; L1=0.02; L2_buf=0.26; L_add_cut=0.66; L_off=0; L_on=1.3e-10; L_stub_low=1.5; Ldiode=0.3302; Lline_low=1; Lp=1.52; Period_wall=0.5; Px=5; R=2.5; R_bottom_in=0.86; R_bottom_out=0.96; R_inner_bottom_ring=0.96; R_off=2.5; R_on=5.2; R_out_bottom_ring=1.11; Sigma_copper=58000000; W_ring_inner=0.15; WcircleInner_2=0.4; Wcut=0.9; Wp=1.52; X1Stub=-1.15; angle_stub=30; delta=0.3; deltaHAdd=0.101; deltaL1=0.14; deltaR2=0.15; deltaRCircle=0.2; deltaStubY=0.1; deltaStubY_top=0.3; delta_annual_ring=0.1; delta_edge=0.1; delta_via=0.9; delta_via_screen_center=0.25; h2_fr4=0.25; h2_prepreg=0.138; hSub=1.067; hfr4=0.102; l_add=0.76; phi=0; r_area=0.2; r_area_center=0.225; r_bottom_2=1.8; r_circle=0; r_out1=0; r_par=0.1; r_par_w=0.05; r_per=0.1; r_rez=0; r_road=0.05; r_shaped=1.15; r_shaped_2=1.2; r_shaped_low=1.2; r_via=0.1; r_via_center=0.125; r_via_wall=0.1; rad_circle=0.65; rez=0; roughness=0.0028; t_pog=0; th=0.018; th2=0.204; th3=0.5; th_top=0.07; theta=15; wDiode=0.3048; w_add=0.1; wstub=0.2}
#"Frequency / GHz"	"SZmax(1),Zmax(1) (theta=15) [Real/Imaginary Part] [Re]"	"SZmax(1),Zmax(1) (theta=15) [Real/Imaginary Part] [Im]"
#-----------------------------------------------------------------------------------------------------------------------------------
22.000000000000	-0.78394616987310	0.061630668781789
22.007000000000	-0.78627145893986	0.068514384668119
22.014000000000	-0.78847689439270	0.075338181693274
22.021000000000	-0.79056622946129	0.082101695500655
22.028000000000	-0.79254310384776	0.088804651574178
22.035000000000	-0.79441104595642	0.095446858753774
22.042000000000	-0.79617347521261	0.10202820312708
22.049000000000	-0.79783370445294	0.10854864227967
22.056000000000	-0.79939494237066	0.11500819988650
22.063000000000	-0.80086029600172	0.12140696062763
22.070000000000	-0.80223277323856	0.12774506541208
22.077000000000	-0.80351528536018	0.13402270689379
22.084000000000	-0.80471064956812	0.14024012526454
22.091000000000	-0.80582159151942	0.14639760430916
22.098000000000	-0.80685074784853	0.15249546770886
22.105000000000	-0.80780066867110	0.15853407557918
22.112000000000	-0.80867382006366	0.16451382122951
22.119000000000	-0.80947258651380	0.17043512813203
22.126000000000	-0.81019927333631	0.17629844708796
22.133000000000	-0.81085610905128	0.18210425357998
22.140000000000	-0.81144524772101	0.18785304530023
22.147000000000	-0.81196877124278	0.19354533984338
22.154000000000	-0.81242869159533	0.19918167255538
22.161000000000	-0.81282695303702	0.20476259452850
22.168000000000	-0.81316543425442	0.21028867073403
22.175000000000	-0.81344595045999	0.21576047828436
22.182000000000	-0.81367025543820	0.22117860481656
22.189000000000	-0.81384004353948	0.22654364699021
22.196000000000	-0.81395695162164	0.23185620909227
22.203000000000	-0.81402256093892	0.23711690174263
22.210000000000	-0.81403839897842	0.24232634069385
22.217000000000	-0.81400594124459	0.24748514571948
22.224000000000	-0.81392661299185	0.25259393958509
22.231000000000	-0.81380179090614	0.25765334709713
22.238000000000	-0.81363280473591	0.26266399422435
22.245000000000	-0.81342093887343	0.26762650728739
22.252000000000	-0.81316743388707	0.27254151221209
22.259000000000	-0.81287348800565	0.27740963384234
22.266000000000	-0.81254025855572	0.28223149530866
22.273000000000	-0.81216886335264	0.28700771744896
22.280000000000	-0.81176038204682	0.29173891827788
22.287000000000	-0.81131585742578	0.29642571250157
22.294000000000	-0.81083629667348	0.30106871107509
22.301000000000	-0.81032267258773	0.30566852079917
22.308000000000	-0.80977592475695	0.31022574395415
22.315000000000	-0.80919696069735	0.31474097796819
22.322000000000	-0.80858665695163	0.31921481511775
22.329000000000	-0.80794586015025	0.32364784225785
22.336000000000	-0.80727538803650	0.32804064058028
22.343000000000	-0.80657603045631	0.33239378539768
22.350000000000	-0.80584855031393	0.33670784595172
22.357000000000	-0.80509368449457	0.34098338524378
22.364000000000	-0.80431214475501	0.34522095988631
22.371000000000	-0.80350461858314	0.34942111997367
22.378000000000	-0.80267177002753	0.35358440897081
22.385000000000	-0.80181424049796	0.35771136361864
22.392000000000	-0.80093264953786	0.36180251385475
22.399000000000	-0.80002759556957	0.36585838274850
22.406000000000	-0.79909965661344	0.36987948644919
22.413000000000	-0.79814939098146	0.37386633414653
22.420000000000	-0.79717733794654	0.37781942804229
22.427000000000	-0.79618401838805	0.38173926333241
22.434000000000	-0.79516993541455	0.38562632819862
22.441000000000	-0.79413557496446	0.38948110380890
22.448000000000	-0.79308140638555	0.39330406432606
22.455000000000	-0.79200788299375	0.39709567692364
22.462000000000	-0.79091544261233	0.40085640180877
22.469000000000	-0.78980450809183	0.40458669225112
22.476000000000	-0.78867548781168	0.40828699461759
22.483000000000	-0.78752877616397	0.41195774841220
22.490000000000	-0.78636475402009	0.41559938632063
22.497000000000	-0.78518378918097	0.41921233425909
22.504000000000	-0.78398623681118	0.42279701142699
22.511000000000	-0.78277243985789	0.42635383036313
22.518000000000	-0.78154272945486	0.42988319700500
22.525000000000	-0.78029742531228	0.43338551075085
22.532000000000	-0.77903683609280	0.43686116452432
22.539000000000	-0.77776125977428	0.44031054484120
22.546000000000	-0.77647098399986	0.44373403187813
22.553000000000	-0.77516628641564	0.44713199954304
22.560000000000	-0.77384743499649	0.45050481554703
22.567000000000	-0.77251468836051	0.45385284147747
22.574000000000	-0.77116829607236	0.45717643287221
22.581000000000	-0.76980849893610	0.46047593929463
22.588000000000	-0.76843552927767	0.46375170440940
22.595000000000	-0.76704961121760	0.46700406605878
22.602000000000	-0.76565096093420	0.47023335633937
22.609000000000	-0.76423978691757	0.47343990167906
22.616000000000	-0.76281629021484	0.47662402291422
22.623000000000	-0.76138066466682	0.47978603536687
22.630000000000	-0.75993309713655	0.48292624892175
22.637000000000	-0.75847376772992	0.48604496810336
22.644000000000	-0.75700285000866	0.48914249215262
22.651000000000	-0.75552051119601	0.49221911510327
22.658000000000	-0.75402691237535	0.49527512585785
22.665000000000	-0.75252220868197	0.49831080826323
22.672000000000	-0.75100654948832	0.50132644118562
22.679000000000	-0.74948007858292	0.50432229858493
22.686000000000	-0.74794293434311	0.50729864958860
22.693000000000	-0.74639524990202	0.51025575856467
22.700000000000	-0.74483715330984	0.51319388519419
22.707000000000	-0.74326876768954	0.51611328454281
22.714000000000	-0.74169021138746	0.51901420713167
22.721000000000	-0.74010159811870	0.52189689900739
22.728000000000	-0.73850303710772	0.52476160181126
22.735000000000	-0.73689463322412	0.52760855284758
22.742000000000	-0.73527648711391	0.53043798515108
22.749000000000	-0.73364869532643	0.53325012755342
22.756000000000	-0.73201135043697	0.53604520474888
22.763000000000	-0.73036454116531	0.53882343735900
22.770000000000	-0.72870835249039	0.54158504199634
22.777000000000	-0.72704286576112	0.54433023132731
22.784000000000	-0.72536815880351	0.54705921413398
22.791000000000	-0.72368430602435	0.54977219537502
22.798000000000	-0.72199137851138	0.55246937624564
22.805000000000	-0.72028944413025	0.55515095423651
22.812000000000	-0.71857856761827	0.55781712319183
22.819000000000	-0.71685881067508	0.56046807336639
22.826000000000	-0.71513023205040	0.56310399148161
22.833000000000	-0.71339288762894	0.56572506078073
22.840000000000	-0.71164683051248	0.56833146108295
22.847000000000	-0.70989211109942	0.57092336883673
22.854000000000	-0.70812877716164	0.57350095717202
22.861000000000	-0.70635687391896	0.57606439595170
22.868000000000	-0.70457644411120	0.57861385182193
22.875000000000	-0.70278752806794	0.58114948826173
22.882000000000	-0.70099016377601	0.58367146563155
22.889000000000	-0.69918438694493	0.58617994122097
22.896000000000	-0.69737023107014	0.58867506929551
22.903000000000	-0.69554772749435	0.59115700114254
22.910000000000	-0.69371690546692	0.59362588511631
22.917000000000	-0.69187779220131	0.59608186668214
22.924000000000	-0.69003041293083	0.59852508845971
22.931000000000	-0.68817479096258	0.60095569026557
22.938000000000	-0.68631094772970	0.60337380915471
22.945000000000	-0.68443890284209	0.60577957946144
22.952000000000	-0.68255867413542	0.60817313283934
22.959000000000	-0.68067027771877	0.61055459830045
22.966000000000	-0.67877372802068	0.61292410225369
22.973000000000	-0.67686903783390	0.61528176854247
22.980000000000	-0.67495621835866	0.61762771848155
22.987000000000	-0.67303527924474	0.61996207089310
22.994000000000	-0.67110622863216	0.62228494214205
23.001000000000	-0.66916907319071	0.62459644617074
23.008000000000	-0.66722381815827	0.62689669453273
23.015000000000	-0.66527046737798	0.62918579642603
23.022000000000	-0.66330902333425	0.63146385872551
23.029000000000	-0.66133948718784	0.63373098601471
23.036000000000	-0.65936185880970	0.63598728061693
23.043000000000	-0.65737613681403	0.63823284262559
23.050000000000	-0.65538231859015	0.64046776993408
23.057000000000	-0.65338040033364	0.64269215826480
23.064000000000	-0.65137037707643	0.64490610119766
23.071000000000	-0.64935224271608	0.64710969019793
23.078000000000	-0.64732599004422	0.64930301464344
23.085000000000	-0.64529161077414	0.65148616185123
23.092000000000	-0.64324909556766	0.65365921710355
23.099000000000	-0.64119843406114	0.65582226367330
23.106000000000	-0.63913961489084	0.65797538284890
23.113000000000	-0.63707262571754	0.66011865395856
23.120000000000	-0.63499745325046	0.66225215439402
23.127000000000	-0.63291408327055	0.66437595963373
23.134000000000	-0.63082250065313	0.66649014326549
23.141000000000	-0.62872268938984	0.66859477700860
23.148000000000	-0.62661463261016	0.67068993073536
23.155000000000	-0.62449831260214	0.67277567249228
23.162000000000	-0.62237371083276	0.67485206852052
23.169000000000	-0.62024080796766	0.67691918327608
23.176000000000	-0.61809958389032	0.67897707944935
23.183000000000	-0.61595001772085	0.68102581798422
23.190000000000	-0.61379208783417	0.68306545809674
23.197000000000	-0.61162577187783	0.68509605729330
23.204000000000	-0.60945104678929	0.68711767138840
23.211000000000	-0.60726788881284	0.68913035452188
23.218000000000	-0.60507627351603	0.69113415917579
23.225000000000	-0.60287617580577	0.69312913619085
23.232000000000	-0.60066756994397	0.69511533478238
23.239000000000	-0.59845042956285	0.69709280255591
23.246000000000	-0.59622472767985	0.69906158552239
23.253000000000	-0.59399043671225	0.70102172811289
23.260000000000	-0.59174752849135	0.70297327319302
23.267000000000	-0.58949597427645	0.70491626207690
23.274000000000	-0.58723574476841	0.70685073454077
23.281000000000	-0.58496681012298	0.70877672883626
23.288000000000	-0.58268913996381	0.71069428170316
23.295000000000	-0.58040270339515	0.71260342838204
23.302000000000	-0.57810746901437	0.71450420262629
23.309000000000	-0.57580340492411	0.71639663671398
23.316000000000	-0.57349047874431	0.71828076145930
23.323000000000	-0.57116865762387	0.72015660622366
23.330000000000	-0.56883790825214	0.72202419892648
23.337000000000	-0.56649819687026	0.72388356605566
23.344000000000	-0.56414948928215	0.72573473267770
23.351000000000	-0.56179175086542	0.72757772244751
23.358000000000	-0.55942494658201	0.72941255761794
23.365000000000	-0.55704904098870	0.73123925904899
23.372000000000	-0.55466399824740	0.73305784621668
23.379000000000	-0.55226978213527	0.73486833722171
23.386000000000	-0.54986635605478	0.73667074879772
23.393000000000	-0.54745368304341	0.73846509631939
23.400000000000	-0.54503172578346	0.74025139381014
23.407000000000	-0.54260044661149	0.74202965394965
23.414000000000	-0.54015980752778	0.74379988808106
23.421000000000	-0.53770977020562	0.74556210621789
23.428000000000	-0.53525029600042	0.74731631705074
23.435000000000	-0.53278134595883	0.74906252795373
23.442000000000	-0.53030288082766	0.75080074499064
23.449000000000	-0.52781486106273	0.75253097292085
23.456000000000	-0.52531724683761	0.75425321520501
23.463000000000	-0.52280999805232	0.75596747401049
23.470000000000	-0.52029307434190	0.75767375021657
23.477000000000	-0.51776643508492	0.75937204341939
23.484000000000	-0.51523003941192	0.76106235193674
23.491000000000	-0.51268384621381	0.76274467281251
23.498000000000	-0.51012781415015	0.76441900182103
23.505000000000	-0.50756190165745	0.76608533347114
23.512000000000	-0.50498606695737	0.76774366101004
23.519000000000	-0.50240026806486	0.76939397642692
23.526000000000	-0.49980446279636	0.77103627045647
23.533000000000	-0.49719860877783	0.77267053258204
23.540000000000	-0.49458266345287	0.77429675103878
23.547000000000	-0.49195658409072	0.77591491281638
23.554000000000	-0.48932032779433	0.77752500366181
23.561000000000	-0.48667385150833	0.77912700808175
23.568000000000	-0.48401711202706	0.78072090934486
23.575000000000	-0.48135006600252	0.78230668948390
23.582000000000	-0.47867266995241	0.78388432929762
23.589000000000	-0.47598488026808	0.78545380835253
23.596000000000	-0.47328665322257	0.78701510498444
23.603000000000	-0.47057794497858	0.78856819629987
23.610000000000	-0.46785871159650	0.79011305817728
23.617000000000	-0.46512890904248	0.79164966526813
23.624000000000	-0.46238849319646	0.79317799099778
23.631000000000	-0.45963741986029	0.79469800756627
23.638000000000	-0.45687564476583	0.79620968594886
23.645000000000	-0.45410312358313	0.79771299589650
23.652000000000	-0.45131981192860	0.79920790593613
23.659000000000	-0.44852566537325	0.80069438337079
23.666000000000	-0.44572063945101	0.80217239427966
23.673000000000	-0.44290468966699	0.80364190351790
23.680000000000	-0.44007777150595	0.80510287471639
23.687000000000	-0.43723984044067	0.80655527028127
23.694000000000	-0.43439085194049	0.80799905139348
23.701000000000	-0.43153076147986	0.80943417800801
23.708000000000	-0.42865952454699	0.81086060885316
23.715000000000	-0.42577709665253	0.81227830142959
23.722000000000	-0.42288343333835	0.81368721200929
23.729000000000	-0.41997849018644	0.81508729563440
23.736000000000	-0.41706222282777	0.81647850611599
23.743000000000	-0.41413458695137	0.81786079603262
23.750000000000	-0.41119553831343	0.81923411672887
23.757000000000	-0.40824503274646	0.82059841831377
23.764000000000	-0.40528302616864	0.82195364965903
23.771000000000	-0.40230947459318	0.82329975839732
23.778000000000	-0.39932433413782	0.82463669092029
23.785000000000	-0.39632756103441	0.82596439237665
23.792000000000	-0.39331911163865	0.82728280667003
23.799000000000	-0.39029894243988	0.82859187645682
23.806000000000	-0.38726701007100	0.82989154314395
23.813000000000	-0.38422327131855	0.83118174688647
23.820000000000	-0.38116768313285	0.83246242658521
23.827000000000	-0.37810020263829	0.83373351988422
23.834000000000	-0.37502078714378	0.83499496316822
23.841000000000	-0.37192939415324	0.83624669155997
23.848000000000	-0.36882598137633	0.83748863891754
23.855000000000	-0.36571050673923	0.83872073783152
23.862000000000	-0.36258292839561	0.83994291962223
23.869000000000	-0.35944320473773	0.84115511433679
23.876000000000	-0.35629129440768	0.84235725074615
23.883000000000	-0.35312715630875	0.84354925634216
23.890000000000	-0.34995074961698	0.84473105733442
23.897000000000	-0.34676203379288	0.84590257864728
23.904000000000	-0.34356096859324	0.84706374391662
23.911000000000	-0.34034751408316	0.84821447548674
23.918000000000	-0.33712163064823	0.84935469440710
23.925000000000	-0.33388327900686	0.85048432042910
23.932000000000	-0.33063242022279	0.85160327200280
23.939000000000	-0.32736901571780	0.85271146627361
23.946000000000	-0.32409302728450	0.85380881907901
23.953000000000	-0.32080441709944	0.85489524494517
23.960000000000	-0.31750314773626	0.85597065708362
23.967000000000	-0.31418918217913	0.85703496738790
23.974000000000	-0.31086248383633	0.85808808643019
23.981000000000	-0.30752301655398	0.85912992345790
23.988000000000	-0.30417074463007	0.86016038639039
23.995000000000	-0.30080563282856	0.86117938181551
24.002000000000	-0.29742764639377	0.86218681498632
24.009000000000	-0.29403675106493	0.86318258981774
24.016000000000	-0.29063291309093	0.86416660888317
24.023000000000	-0.28721609924530	0.86513877341131
24.030000000000	-0.28378627684137	0.86609898328274
24.037000000000	-0.28034341374767	0.86704713702681
24.044000000000	-0.27688747840351	0.86798313181835
24.051000000000	-0.27341843983477	0.86890686347455
24.058000000000	-0.26993626767002	0.86981822645182
24.065000000000	-0.26644093215667	0.87071711384270
24.072000000000	-0.26293240417751	0.87160341737286
24.079000000000	-0.25941065526738	0.87247702739815
24.086000000000	-0.25587565763013	0.87333783290168
24.093000000000	-0.25232738415576	0.87418572149098
24.100000000000	-0.24876580843784	0.87502057939527
24.107000000000	-0.24519090479111	0.87584229146278
24.114000000000	-0.24160264826935	0.87665074115813
24.121000000000	-0.23800101468353	0.87744581055984
24.128000000000	-0.23438598062013	0.87822738035793
24.135000000000	-0.23075752345972	0.87899532985158
24.142000000000	-0.22711562139585	0.87974953694694
24.149000000000	-0.22346025345410	0.88048987815504
24.156000000000	-0.21979139951142	0.88121622858981
24.163000000000	-0.21610904031578	0.88192846196619
24.170000000000	-0.21241315750594	0.88262645059845
24.177000000000	-0.20870373363161	0.88331006539857
24.184000000000	-0.20498075217379	0.88397917587479
24.191000000000	-0.20124419756539	0.88463365013032
24.198000000000	-0.19749405521215	0.88527335486214
24.205000000000	-0.19373031151373	0.88589815536009
24.212000000000	-0.18995295388514	0.88650791550595
24.219000000000	-0.18616197077844	0.88710249777286
24.226000000000	-0.18235735170467	0.88768176322480
24.233000000000	-0.17853908725603	0.88824557151632
24.240000000000	-0.17470716912843	0.88879378089244
24.247000000000	-0.17086159014415	0.88932624818879
24.254000000000	-0.16700234427495	0.88984282883186
24.261000000000	-0.16312942666530	0.89034337683956
24.268000000000	-0.15924283365599	0.89082774482201
24.275000000000	-0.15534256280793	0.89129578398244
24.282000000000	-0.15142861292632	0.89174734411847
24.289000000000	-0.14750098408498	0.89218227362357
24.296000000000	-0.14355967765106	0.89260041948874
24.303000000000	-0.13960469630996	0.89300162730450
24.310000000000	-0.13563604409056	0.89338574126318
24.317000000000	-0.13165372639069	0.89375260416135
24.324000000000	-0.12765775000291	0.89410205740274
24.331000000000	-0.12364812314055	0.89443394100124
24.338000000000	-0.11962485546402	0.89474809358437
24.345000000000	-0.11558795810743	0.89504435239697
24.352000000000	-0.11153744370541	0.89532255330523
24.359000000000	-0.10747332642026	0.89558253080106
24.366000000000	-0.10339562196936	0.89582411800680
24.373000000000	-0.099304347652877	0.89604714668024
24.380000000000	-0.095199522381652	0.89625144722003
24.387000000000	-0.091081166705456	0.89643684867145
24.394000000000	-0.086949302841464	0.89660317873257
24.401000000000	-0.082803954702986	0.89675026376073
24.408000000000	-0.078645147928481	0.89687792877947
24.415000000000	-0.074472909910819	0.89698599748587
24.422000000000	-0.070287269826812	0.89707429225827
24.429000000000	-0.066088258666965	0.89714263416441
24.436000000000	-0.061875909265541	0.89719084297001
24.443000000000	-0.057650256330810	0.89721873714784
24.450000000000	-0.053411336475578	0.89722613388715
24.457000000000	-0.049159188247970	0.89721284910364
24.464000000000	-0.044893852162404	0.89717869744987
24.471000000000	-0.040615370730845	0.89712349232617
24.478000000000	-0.036323788494274	0.89704704589198
24.485000000000	-0.032019152054384	0.89694916907784
24.492000000000	-0.027701510105477	0.89682967159772
24.499000000000	-0.023370913466618	0.89668836196199
24.506000000000	-0.019027415113971	0.89652504749091
24.513000000000	-0.014671070213325	0.89633953432862
24.520000000000	-0.010301936152880	0.89613162745775
24.527000000000	-0.0059200725761677	0.89590113071455
