#Parameters = {C=4.48e-14; C_off=4.48e-14; C_on=0; H_add_decoupl=0.338; Hair=10; Hair_lower=10; Hpre1=0.204; Hpre1_2=0.306; Hsub1=0.508; Hsub_add1=0.168; Hsub_bottom=0.101; Hsub_top2=0.762; L=0; L1=0.02; L2_buf=0.26; L_add_cut=0.66; L_off=0; L_on=1.3e-10; L_stub_low=1.5; Ldiode=0.3302; Lline_low=1; Lp=1.52; Period_wall=0.5; Px=5; R=2.5; R_bottom_in=0.86; R_bottom_out=0.96; R_inner_bottom_ring=0.96; R_off=2.5; R_on=5.2; R_out_bottom_ring=1.11; Sigma_copper=58000000; W_ring_inner=0.15; WcircleInner_2=0.4; Wcut=0.9; Wp=1.52; X1Stub=-1.15; angle_stub=30; delta=0.3; deltaHAdd=0.101; deltaL1=0.14; deltaR2=0.15; deltaRCircle=0.2; deltaStubY=0.1; deltaStubY_top=0.3; delta_annual_ring=0.1; delta_edge=0.1; delta_via=0.9; delta_via_screen_center=0.25; h2_fr4=0.25; h2_prepreg=0.138; hSub=1.067; hfr4=0.102; l_add=0.76; phi=0; r_area=0.2; r_area_center=0.225; r_bottom_2=1.8; r_circle=0; r_out1=0; r_par=0.1; r_par_w=0.05; r_per=0.1; r_rez=0; r_road=0.05; r_shaped=1.15; r_shaped_2=1.2; r_shaped_low=1.2; r_via=0.1; r_via_center=0.125; r_via_wall=0.1; rad_circle=0.65; rez=0; roughness=0.0028; t_pog=0; th=0.018; th2=0.204; th3=0.5; th_top=0.07; theta=30; wDiode=0.3048; w_add=0.1; wstub=0.2}
#"Frequency / GHz"	"SZmax(1),Zmax(1) (theta=30) [Real/Imaginary Part] [Re]"	"SZmax(1),Zmax(1) (theta=30) [Real/Imaginary Part] [Im]"
#-----------------------------------------------------------------------------------------------------------------------------------
22.000000000000	-0.80785886157347	0.069401329641731
22.007000000000	-0.80995659702102	0.075662453605941
22.014000000000	-0.81194733214250	0.081861211545752
22.021000000000	-0.81383470299837	0.087997706026006
22.028000000000	-0.81562221776413	0.094072107855963
22.035000000000	-0.81731326054972	0.10008465008168
22.042000000000	-0.81891109519491	0.10603562239386
22.049000000000	-0.82041886902867	0.11192536592575
22.056000000000	-0.82183961658200	0.11775426841715
22.063000000000	-0.82317626324539	0.12352275972139
22.070000000000	-0.82443162886357	0.12923130763377
22.077000000000	-0.82560843126121	0.13488041402089
22.084000000000	-0.82670928969458	0.14047061123157
22.091000000000	-0.82773672822510	0.14600245877097
22.098000000000	-0.82869317901150	0.15147654022075
22.105000000000	-0.82958098551813	0.15689346038907
22.112000000000	-0.83040240563773	0.16225384267511
22.119000000000	-0.83115961472741	0.16755832663380
22.126000000000	-0.83185470855723	0.17280756572733
22.133000000000	-0.83248970617118	0.17800222525067
22.140000000000	-0.83306655266071	0.18314298041942
22.147000000000	-0.83358712185143	0.18823051460874
22.154000000000	-0.83405321890374	0.19326551773298
22.161000000000	-0.83446658282850	0.19824868475634
22.168000000000	-0.83482888891904	0.20318071432534
22.175000000000	-0.83514175110090	0.20806230751463
22.182000000000	-0.83540672420108	0.21289416667814
22.189000000000	-0.83562530613830	0.21767699439819
22.196000000000	-0.83579894003634	0.22241149252546
22.203000000000	-0.83592901626215	0.22709836130347
22.210000000000	-0.83601687439087	0.23173829857144
22.217000000000	-0.83606380509960	0.23633199903982
22.224000000000	-0.83607105199208	0.24088015363331
22.231000000000	-0.83603981335622	0.24538344889640
22.238000000000	-0.83597124385659	0.24984256645682
22.245000000000	-0.83586645616387	0.25425818254265
22.252000000000	-0.83572652252329	0.25863096754909
22.259000000000	-0.83555247626407	0.26296158565120
22.266000000000	-0.83534531325183	0.26725069445915
22.273000000000	-0.83510599328587	0.27149894471266
22.280000000000	-0.83483544144336	0.27570698001189
22.287000000000	-0.83453454937210	0.27987543658165
22.294000000000	-0.83420417653389	0.28400494306659
22.301000000000	-0.83384515140014	0.28809612035493
22.308000000000	-0.83345827260154	0.29214958142829
22.315000000000	-0.83304431003343	0.29616593123585
22.322000000000	-0.83260400591858	0.30014576659056
22.329000000000	-0.83213807582885	0.30408967608591
22.336000000000	-0.83164720966744	0.30799824003134
22.343000000000	-0.83113207261313	0.31187203040490
22.350000000000	-0.83059330602792	0.31571161082161
22.357000000000	-0.83003152832959	0.31951753651627
22.364000000000	-0.82944733583044	0.32329035433939
22.371000000000	-0.82884130354358	0.32703060276511
22.378000000000	-0.82821398595794	0.33073881191017
22.385000000000	-0.82756591778339	0.33441550356263
22.392000000000	-0.82689761466691	0.33806119121980
22.399000000000	-0.82620957388119	0.34167638013426
22.406000000000	-0.82550227498653	0.34526156736720
22.413000000000	-0.82477618046724	0.34881724184855
22.420000000000	-0.82403173634349	0.35234388444297
22.427000000000	-0.82326937275960	0.35584196802124
22.434000000000	-0.82248950454963	0.35931195753640
22.441000000000	-0.82169253178132	0.36275431010412
22.448000000000	-0.82087884027910	0.36616947508685
22.455000000000	-0.82004880212704	0.36955789418121
22.462000000000	-0.81920277615264	0.37292000150827
22.469000000000	-0.81834110839200	0.37625622370627
22.476000000000	-0.81746413253735	0.37956698002551
22.483000000000	-0.81657217036752	0.38285268242499
22.490000000000	-0.81566553216200	0.38611373567055
22.497000000000	-0.81474451709932	0.38935053743422
22.504000000000	-0.81380941364035	0.39256347839449
22.511000000000	-0.81286049989707	0.39575294233735
22.518000000000	-0.81189804398749	0.39891930625777
22.525000000000	-0.81092230437713	0.40206294046156
22.532000000000	-0.80993353020772	0.40518420866728
22.539000000000	-0.80893196161359	0.40828346810812
22.546000000000	-0.80791783002614	0.41136106963365
22.553000000000	-0.80689135846700	0.41441735781118
22.560000000000	-0.80585276183032	0.41745267102670
22.567000000000	-0.80480224715443	0.42046734158521
22.574000000000	-0.80374001388355	0.42346169581047
22.581000000000	-0.80266625411973	0.42643605414393
22.588000000000	-0.80158115286557	0.42939073124280
22.595000000000	-0.80048488825790	0.43232603607729
22.602000000000	-0.79937763179296	0.43524227202677
22.609000000000	-0.79825954854327	0.43813973697498
22.616000000000	-0.79713079736660	0.44101872340408
22.623000000000	-0.79599153110729	0.44387951848763
22.630000000000	-0.79484189679023	0.44672240418227
22.637000000000	-0.79368203580787	0.44954765731837
22.644000000000	-0.79251208410036	0.45235554968928
22.651000000000	-0.79133217232921	0.45514634813935
22.658000000000	-0.79014242604475	0.45792031465071
22.665000000000	-0.78894296584745	0.46067770642871
22.672000000000	-0.78773390754359	0.46341877598601
22.679000000000	-0.78651536229523	0.46614377122535
22.686000000000	-0.78528743676490	0.46885293552103
22.693000000000	-0.78405023325515	0.47154650779896
22.700000000000	-0.78280384984305	0.47422472261543
22.707000000000	-0.78154838051006	0.47688781023444
22.714000000000	-0.78028391526717	0.47953599670383
22.721000000000	-0.77901054027571	0.48216950392987
22.728000000000	-0.77772833796390	0.48478854975067
22.735000000000	-0.77643738713930	0.48739334800816
22.742000000000	-0.77513776309731	0.48998410861881
22.749000000000	-0.77382953772590	0.49256103764293
22.756000000000	-0.77251277960668	0.49512433735277
22.763000000000	-0.77118755411245	0.49767420629928
22.770000000000	-0.76985392350141	0.50021083937753
22.777000000000	-0.76851194700807	0.50273442789097
22.784000000000	-0.76716168093100	0.50524515961431
22.791000000000	-0.76580317871764	0.50774321885523
22.798000000000	-0.76443649104613	0.51022878651488
22.805000000000	-0.76306166590433	0.51270204014703
22.812000000000	-0.76167874866622	0.51516315401622
22.819000000000	-0.76028778216562	0.51761229915454
22.826000000000	-0.75888880676739	0.52004964341737
22.833000000000	-0.75748186043630	0.52247535153791
22.840000000000	-0.75606697880347	0.52488958518057
22.847000000000	-0.75464419523066	0.52729250299329
22.854000000000	-0.75321354087229	0.52968426065871
22.861000000000	-0.75177504473545	0.53206501094426
22.868000000000	-0.75032873373792	0.53443490375127
22.875000000000	-0.74887463276414	0.53679408616288
22.882000000000	-0.74741276471940	0.53914270249104
22.889000000000	-0.74594315058221	0.54148089432246
22.896000000000	-0.74446580945490	0.54380880056354
22.903000000000	-0.74298075861259	0.54612655748436
22.910000000000	-0.74148801355046	0.54843429876165
22.917000000000	-0.73998758802959	0.55073215552087
22.924000000000	-0.73847949412112	0.55302025637734
22.931000000000	-0.73696374224910	0.55529872747642
22.938000000000	-0.73544034123189	0.55756769253286
22.945000000000	-0.73390929832217	0.55982727286920
22.952000000000	-0.73237061924567	0.56207758745334
22.959000000000	-0.73082430823868	0.56431875293526
22.966000000000	-0.72927036808428	0.56655088368292
22.973000000000	-0.72770880014738	0.56877409181725
22.980000000000	-0.72613960440873	0.57098848724648
22.987000000000	-0.72456277949773	0.57319417769956
22.994000000000	-0.72297832272421	0.57539126875884
23.001000000000	-0.72138623010922	0.57757986389204
23.008000000000	-0.71978649641481	0.57976006448338
23.015000000000	-0.71817911517284	0.58193196986404
23.022000000000	-0.71656407871291	0.58409567734193
23.029000000000	-0.71494137818937	0.58625128223063
23.036000000000	-0.71331100360749	0.58839887787777
23.043000000000	-0.71167294384879	0.59053855569266
23.050000000000	-0.71002718669556	0.59267040517330
23.057000000000	-0.70837371885468	0.59479451393264
23.064000000000	-0.70671252598057	0.59691096772430
23.071000000000	-0.70504359269749	0.59901985046765
23.078000000000	-0.70336690262119	0.60112124427216
23.085000000000	-0.70168243837979	0.60321522946131
23.092000000000	-0.69999018163403	0.60530188459572
23.099000000000	-0.69829011309702	0.60738128649591
23.106000000000	-0.69658221255313	0.60945351026425
23.113000000000	-0.69486645887658	0.61151862930653
23.120000000000	-0.69314283004924	0.61357671535289
23.127000000000	-0.69141130317801	0.61562783847821
23.134000000000	-0.68967185451163	0.61767206712201
23.141000000000	-0.68792445945694	0.61970946810777
23.148000000000	-0.68616909259474	0.62174010666176
23.155000000000	-0.68440572769512	0.62376404643140
23.162000000000	-0.68263433773226	0.62578134950304
23.169000000000	-0.68085489489897	0.62779207641934
23.176000000000	-0.67906737062059	0.62979628619613
23.183000000000	-0.67727173556862	0.63179403633877
23.190000000000	-0.67546795967391	0.63378538285814
23.197000000000	-0.67365601213943	0.63577038028604
23.204000000000	-0.67183586145272	0.63774908169030
23.211000000000	-0.67000747539794	0.63972153868933
23.218000000000	-0.66817082106761	0.64168780146626
23.225000000000	-0.66632586487396	0.64364791878275
23.232000000000	-0.66447257256000	0.64560193799224
23.239000000000	-0.66261090921033	0.64754990505290
23.246000000000	-0.66074083926147	0.64949186454014
23.253000000000	-0.65886232651212	0.65142785965869
23.260000000000	-0.65697533413296	0.65335793225441
23.267000000000	-0.65507982467636	0.65528212282551
23.274000000000	-0.65317576008559	0.65720047053363
23.281000000000	-0.65126310170407	0.65911301321437
23.288000000000	-0.64934181028408	0.66101978738753
23.295000000000	-0.64741184599553	0.66292082826703
23.302000000000	-0.64547316843424	0.66481616977033
23.309000000000	-0.64352573663022	0.66670584452773
23.316000000000	-0.64156950905557	0.66858988389107
23.323000000000	-0.63960444363238	0.67046831794232
23.330000000000	-0.63763049774019	0.67234117550168
23.337000000000	-0.63564762822352	0.67420848413546
23.344000000000	-0.63365579139902	0.67607027016354
23.351000000000	-0.63165494306260	0.67792655866660
23.358000000000	-0.62964503849633	0.67977737349297
23.365000000000	-0.62762603247513	0.68162273726524
23.372000000000	-0.62559787927350	0.68346267138649
23.379000000000	-0.62356053267190	0.68529719604629
23.386000000000	-0.62151394596309	0.68712633022633
23.393000000000	-0.61945807195836	0.68895009170584
23.400000000000	-0.61739286299362	0.69076849706666
23.407000000000	-0.61531827093536	0.69258156169805
23.414000000000	-0.61323424718652	0.69438929980125
23.421000000000	-0.61114074269223	0.69619172439367
23.428000000000	-0.60903770794547	0.69798884731293
23.435000000000	-0.60692509299267	0.69978067922054
23.442000000000	-0.60480284743914	0.70156722960533
23.449000000000	-0.60267092045452	0.70334850678668
23.456000000000	-0.60052926077807	0.70512451791737
23.463000000000	-0.59837781672388	0.70689526898635
23.470000000000	-0.59621653618617	0.70866076482102
23.477000000000	-0.59404536664429	0.71042100908950
23.484000000000	-0.59186425516783	0.71217600430250
23.491000000000	-0.58967314842166	0.71392575181499
23.498000000000	-0.58747199267087	0.71567025182765
23.505000000000	-0.58526073378569	0.71740950338799
23.512000000000	-0.58303931724636	0.71914350439142
23.519000000000	-0.58080768814804	0.72087225158186
23.526000000000	-0.57856579120558	0.72259574055227
23.533000000000	-0.57631357075833	0.72431396574493
23.540000000000	-0.57405097077495	0.72602692045143
23.547000000000	-0.57177793485810	0.72773459681251
23.554000000000	-0.56949440624928	0.72943698581762
23.561000000000	-0.56720032783351	0.73113407730430
23.568000000000	-0.56489564214411	0.73282585995731
23.575000000000	-0.56258029136741	0.73451232130759
23.582000000000	-0.56025421734751	0.73619344773098
23.589000000000	-0.55791736159105	0.73786922444668
23.596000000000	-0.55556966527196	0.73953963551559
23.603000000000	-0.55321106923623	0.74120466383840
23.610000000000	-0.55084151400680	0.74286429115345
23.617000000000	-0.54846093978824	0.74451849803445
23.624000000000	-0.54606928647181	0.74616726388791
23.631000000000	-0.54366649364016	0.74781056695045
23.638000000000	-0.54125250057243	0.74944838428589
23.645000000000	-0.53882724624908	0.75108069178211
23.652000000000	-0.53639066935701	0.75270746414774
23.659000000000	-0.53394270829458	0.75432867490867
23.666000000000	-0.53148330117677	0.75594429640438
23.673000000000	-0.52901238584027	0.75755429978397
23.680000000000	-0.52652989984883	0.75915865500218
23.687000000000	-0.52403578049846	0.76075733081509
23.694000000000	-0.52152996482288	0.76235029477566
23.701000000000	-0.51901238959893	0.76393751322914
23.708000000000	-0.51648299135207	0.76551895130823
23.715000000000	-0.51394170636196	0.76709457292805
23.722000000000	-0.51138847066823	0.76866434078108
23.729000000000	-0.50882322007619	0.77022821633173
23.736000000000	-0.50624589016265	0.77178615981082
23.743000000000	-0.50365641628197	0.77333813020990
23.750000000000	-0.50105473357205	0.77488408527537
23.757000000000	-0.49844077696050	0.77642398150246
23.764000000000	-0.49581448117095	0.77795777412900
23.771000000000	-0.49317578072938	0.77948541712901
23.778000000000	-0.49052460997064	0.78100686320622
23.785000000000	-0.48786090304506	0.78252206378730
23.792000000000	-0.48518459392518	0.78403096901500
23.799000000000	-0.48249561641267	0.78553352774113
23.806000000000	-0.47979390414523	0.78702968751931
23.813000000000	-0.47707939060386	0.78851939459770
23.820000000000	-0.47435200912000	0.79000259391135
23.827000000000	-0.47161169288305	0.79147922907469
23.834000000000	-0.46885837494789	0.79294924237352
23.841000000000	-0.46609198824266	0.79441257475725
23.848000000000	-0.46331246557655	0.79586916583051
23.855000000000	-0.46051973964797	0.79731895384510
23.862000000000	-0.45771374305262	0.79876187569142
23.869000000000	-0.45489440829198	0.80019786688996
23.876000000000	-0.45206166778184	0.80162686158255
23.883000000000	-0.44921545386102	0.80304879252352
23.890000000000	-0.44635569880029	0.80446359107068
23.897000000000	-0.44348233481151	0.80587118717620
23.904000000000	-0.44059529405691	0.80727150937730
23.911000000000	-0.43769450865859	0.80866448478688
23.918000000000	-0.43477991070825	0.81005003908396
23.925000000000	-0.43185143227708	0.81142809650397
23.932000000000	-0.42890900542592	0.81279857982901
23.939000000000	-0.42595256221554	0.81416141037787
23.946000000000	-0.42298203471730	0.81551650799600
23.953000000000	-0.41999735502385	0.81686379104532
23.960000000000	-0.41699845526019	0.81820317639395
23.967000000000	-0.41398526759497	0.81953457940576
23.974000000000	-0.41095772425196	0.82085791392988
23.981000000000	-0.40791575752179	0.82217309229007
23.988000000000	-0.40485929977398	0.82348002527392
23.995000000000	-0.40178828346919	0.82477862212205
24.002000000000	-0.39870264117178	0.82606879051712
24.009000000000	-0.39560230556251	0.82735043657281
24.016000000000	-0.39248720945175	0.82862346482262
24.023000000000	-0.38935728579267	0.82988777820864
24.030000000000	-0.38621246769501	0.83114327807025
24.037000000000	-0.38305268843889	0.83238986413261
24.044000000000	-0.37987788148913	0.83362743449523
24.051000000000	-0.37668798050964	0.83485588562030
24.058000000000	-0.37348291937838	0.83607511232108
24.065000000000	-0.37026263220238	0.83728500775010
24.072000000000	-0.36702705333326	0.83848546338739
24.079000000000	-0.36377611738298	0.83967636902858
24.086000000000	-0.36050975923997	0.84085761277294
24.093000000000	-0.35722791408554	0.84202908101137
24.100000000000	-0.35393051741066	0.84319065841441
24.107000000000	-0.35061750503313	0.84434222792001
24.114000000000	-0.34728881311501	0.84548367072151
24.121000000000	-0.34394437818049	0.84661486625536
24.128000000000	-0.34058413713410	0.84773569218892
24.135000000000	-0.33720802727926	0.84884602440819
24.142000000000	-0.33381598633724	0.84994573700554
24.149000000000	-0.33040795246651	0.85103470226742
24.156000000000	-0.32698386428244	0.85211279066197
24.163000000000	-0.32354366087746	0.85317987082680
24.170000000000	-0.32008728184150	0.85423580955657
24.177000000000	-0.31661466728302	0.85528047179068
24.184000000000	-0.31312575785028	0.85631372060097
24.191000000000	-0.30962049475310	0.85733541717941
24.198000000000	-0.30609881978513	0.85834542082579
24.205000000000	-0.30256067534636	0.85934358893549
24.212000000000	-0.29900600446624	0.86032977698722
24.219000000000	-0.29543475082717	0.86130383853091
24.226000000000	-0.29184685878848	0.86226562517549
24.233000000000	-0.28824227341082	0.86321498657686
24.240000000000	-0.28462094048104	0.86415177042591
24.247000000000	-0.28098280653753	0.86507582243649
24.254000000000	-0.27732781889605	0.86598698633363
24.261000000000	-0.27365592567608	0.86688510384174
24.268000000000	-0.26996707582754	0.86777001467291
24.275000000000	-0.26626121915815	0.86864155651537
24.282000000000	-0.26253830636120	0.86949956502202
24.289000000000	-0.25879828904381	0.87034387379910
24.296000000000	-0.25504111975586	0.87117431439499
24.303000000000	-0.25126675201917	0.87199071628912
24.310000000000	-0.24747514035752	0.87279290688112
24.317000000000	-0.24366624032695	0.87358071148004
24.324000000000	-0.23984000854669	0.87435395329376
24.331000000000	-0.23599640273071	0.87511245341866
24.338000000000	-0.23213538171970	0.87585603082938
24.345000000000	-0.22825690551363	0.87658450236883
24.352000000000	-0.22436093530497	0.87729768273847
24.359000000000	-0.22044743351233	0.87799538448873
24.366000000000	-0.21651636381483	0.87867741800970
24.373000000000	-0.21256769118686	0.87934359152213
24.380000000000	-0.20860138193364	0.87999371106861
24.387000000000	-0.20461740372718	0.88062758050512
24.394000000000	-0.20061572564294	0.88124500149275
24.401000000000	-0.19659631819711	0.88184577348990
24.408000000000	-0.19255915338434	0.88242969374461
24.415000000000	-0.18850420471629	0.88299655728736
24.422000000000	-0.18443144726066	0.88354615692421
24.429000000000	-0.18034085768084	0.88407828323019
24.436000000000	-0.17623241427622	0.88459272454321
24.443000000000	-0.17210609702315	0.88508926695831
24.450000000000	-0.16796188761646	0.88556769432227
24.457000000000	-0.16379976951166	0.88602778822874
24.464000000000	-0.15961972796780	0.88646932801375
24.471000000000	-0.15542175009088	0.88689209075168
24.478000000000	-0.15120582487800	0.88729585125178
24.485000000000	-0.14697194326213	0.88768038205508
24.492000000000	-0.14272009815748	0.88804545343189
24.499000000000	-0.13845028450559	0.88839083337983
24.506000000000	-0.13416249932205	0.88871628762235
24.513000000000	-0.12985674174382	0.88902157960790
24.520000000000	-0.12553301307728	0.88930647050963
24.527000000000	-0.12119131684696	0.88957071922571
24.534000000000	-0.11683165884479	0.88981408238033
