#  HZ   S   RI   R     50.00 
! Rohde & Schwarz ZVA40 4Ports - Version 3.90 - 1145.1110k42 SN: 100403
! Date: 2023-09-06 07:06:26
! Measurements: S11 S21 S12 S22 
! 
 2.000000000000000E10   -1.386999487876892E-1  -1.535454839468002E-1   2.187495818361640E-3  -3.698731597978622E-4   1.115627936087549E-3  -1.416764920577407E-3   1.429935097694397E-1  -6.808895617723465E-2  
 2.000125000000000E10   -1.266065239906311E-1  -1.542312502861023E-1   2.068815752863884E-3  -4.759128787554801E-4   2.382248407229781E-3  -6.080415914766491E-4   1.315234899520874E-1  -6.491478532552719E-2  
 2.000250000000000E10   -1.157863512635231E-1  -1.545476317405701E-1   1.735911355353892E-3  -4.420052864588797E-4   6.476726266555488E-4  -6.639407365582883E-4   1.405331939458847E-1  -5.428396537899971E-2  
 2.000375000000000E10   -1.046368181705475E-1  -1.546465456485748E-1   1.685165334492922E-3  -2.886232105083764E-4   1.062114257365465E-3  -1.574138412252069E-3   1.366897672414780E-1  -5.893304198980331E-2  
 2.000500000000000E10   -9.384822100400925E-2  -1.536244004964829E-1   1.630140002816916E-3  -1.132976831286214E-4   1.475200522691011E-3  -8.245872450061142E-4   1.330193877220154E-1  -6.437051296234131E-2  
 2.000625000000000E10   -8.150735497474670E-2  -1.516163796186447E-1   1.907126628793776E-3  -9.376067464472726E-5   2.254142193123698E-3  -1.713347854092717E-3   1.203142702579498E-1  -5.392311513423920E-2  
 2.000750000000000E10   -7.013451308012009E-2  -1.484573334455490E-1   2.104902174323797E-3  -1.004165897029452E-4   1.327535021118820E-3   3.755592333618552E-4   1.208841204643250E-1  -5.090205743908882E-2  
 2.000875000000000E10   -5.919608846306801E-2  -1.446895003318787E-1   2.187834586948156E-3  -1.861145719885826E-4   2.972236135974526E-3   9.842723375186324E-4   1.173488274216652E-1  -4.714562371373177E-2  
 2.001000000000000E10   -4.778909683227539E-2  -1.406608670949936E-1   2.249875571578741E-3  -3.669111756607890E-4   2.822355832904577E-3  -1.617136003915221E-4   1.155651807785034E-1  -4.539598152041435E-2  
 2.001125000000000E10   -3.689520061016083E-2  -1.358939707279205E-1   2.318236976861954E-3  -5.408613360486925E-4   1.599171664565802E-3  -7.453584694303572E-4   1.094724535942078E-1  -4.557966440916061E-2  
 2.001250000000000E10   -2.581651136279106E-2  -1.289915144443512E-1   2.171634696424007E-3  -6.917369319126010E-4   1.161456806585193E-3  -1.552632777020335E-3   9.621326625347138E-2  -4.658360034227371E-2  
 2.001375000000000E10   -1.585748791694641E-2  -1.221299842000008E-1   2.178241964429617E-3  -6.507451180368662E-4   2.823364688083530E-3  -7.918372866697609E-4   1.051284447312355E-1  -3.743195161223412E-2  
 2.001500000000000E10   -5.014783702790737E-3  -1.142657622694969E-1   2.274037338793278E-3  -6.324875284917653E-4   2.358785597607493E-3  -1.959546236321330E-3   9.441868215799332E-2  -4.274294152855873E-2  
 2.001625000000000E10    5.076950415968895E-3  -1.055568605661392E-1   2.434722846373916E-3  -7.073775050230324E-4   3.706689691171050E-3  -2.673871349543333E-3   9.534332156181335E-2  -5.149292573332787E-2  
 2.001750000000000E10    1.574127748608589E-2  -9.731496870517731E-2   2.564463764429092E-3  -9.544075001031160E-4   2.666270360350609E-3  -7.908075931482017E-4   8.797737210988998E-2  -4.264010861515999E-2  
 2.001875000000000E10    2.512121200561523E-2  -8.669053018093109E-2   2.664229599758983E-3  -1.267130952328444E-3   1.773760886862874E-3  -3.143597161397338E-3   7.674107700586319E-2  -5.617372319102287E-2  
 2.002000000000000E10    3.462698683142662E-2  -7.660523802042007E-2   2.748013706877828E-3  -1.482454244978726E-3   1.591023989021778E-3  -2.533995546400547E-3   7.058070600032806E-2  -4.477508366107941E-2  
 2.002125000000000E10    4.241761937737465E-2  -6.597808003425598E-2   2.619744744151831E-3  -1.884680939838290E-3   2.333256183192134E-3  -2.131999703124166E-3   6.654253602027893E-2  -4.543210566043854E-2  
 2.002250000000000E10    5.020926892757416E-2  -5.479523912072182E-2   2.480104332789779E-3  -2.164323115721345E-3   1.507302280515432E-3  -2.577246166765690E-3   5.652467161417007E-2  -4.488314315676689E-2  
 2.002375000000000E10    5.804124847054482E-2  -4.316903278231621E-2   2.137228846549988E-3  -2.494338667020202E-3   1.170615432783961E-3  -3.071517450734973E-3   5.679031088948250E-2  -5.348774790763855E-2  
 2.002500000000000E10    6.453507393598557E-2  -2.998139336705208E-2   1.985176000744104E-3  -2.566683804616332E-3   2.007486065849662E-3  -3.315423848107457E-3   5.051725357770920E-2  -4.519275575876236E-2  
 2.002625000000000E10    7.073627412319183E-2  -1.786251366138458E-2   1.616391935385764E-3  -2.511451719328761E-3   7.082406082190573E-4  -4.519098903983831E-3   4.422688484191895E-2  -5.024731531739235E-2  
 2.002750000000000E10    7.632553577423096E-2  -5.508633796125650E-3   1.285149715840817E-3  -2.662783022969961E-3   1.074895495548844E-3  -3.255223156884313E-3   3.830387070775032E-2  -5.613158643245697E-2  
 2.002875000000000E10    8.106353878974915E-2   6.929372437298298E-3   1.163042732514441E-3  -2.545635681599379E-3  -5.026187282055616E-4  -2.422099234536290E-3   3.951295837759972E-2  -6.069206073880196E-2  
 2.003000000000000E10    8.556367456912994E-2   2.000466920435429E-2   9.993325220420957E-4  -2.616661600768566E-3   5.972923245280981E-4  -2.942827530205250E-3   2.480585500597954E-2  -5.301374197006226E-2  
 2.003125000000000E10    8.747918903827667E-2   3.335599973797798E-2   9.000939317047596E-4  -2.528696553781629E-3   1.259937183931470E-3  -3.509320784360170E-3   2.076434716582298E-2  -6.585295498371124E-2  
 2.003250000000000E10    9.044143557548523E-2   4.685441032052040E-2   8.183813188225031E-4  -2.567886374890804E-3  -1.984932605409995E-4  -1.068562734872103E-3   2.126119658350945E-2  -6.133345514535904E-2  
 2.003375000000000E10    9.181944280862808E-2   5.974879488348961E-2   8.021317189559341E-4  -2.556198276579380E-3  -1.561216777190566E-4  -2.071910304948688E-3   9.376870468258858E-3  -7.023868709802628E-2  
 2.003500000000000E10    9.272757172584534E-2   7.294018566608429E-2   5.987299373373389E-4  -2.817521803081036E-3   7.762220047879964E-5  -2.372155198827386E-3   1.276021264493465E-2  -8.077358454465866E-2  
 2.003625000000000E10    9.221885353326798E-2   8.608923852443695E-2   5.019058007746935E-4  -2.737396862357855E-3  -1.158881117589772E-3  -2.026733243837953E-3   1.184059679508209E-2  -7.900426536798477E-2  
 2.003750000000000E10    9.123549610376358E-2   9.975282102823257E-2   4.020734340883791E-4  -2.764249453321099E-3  -1.214125892147422E-3  -3.096515312790871E-3   6.756874732673168E-3  -7.491116225719452E-2  
 2.003875000000000E10    8.876949548721314E-2   1.131787225604057E-1   3.487179928924888E-4  -2.943194704130292E-3  -8.269238751381636E-4  -1.194205950014293E-3  -1.083975541405380E-3  -8.686117827892304E-2  
 2.004000000000000E10    8.568540960550308E-2   1.272601336240768E-1   8.220610470743850E-5  -2.847443101927638E-3  -5.135060055181384E-4  -4.670118913054466E-3  -4.567529540508986E-3  -8.488502353429794E-2  
 2.004125000000000E10    8.234234154224396E-2   1.408196091651917E-1  -1.499304780736566E-4  -3.024238161742687E-3  -4.258736444171518E-4  -4.219244234263897E-3  -8.355951867997646E-3  -9.279730916023254E-2  
 2.004250000000000E10    7.862991094589233E-2   1.534769237041473E-1  -2.768211707007140E-4  -3.081856528297067E-3  -5.567407351918519E-4  -2.420585136860609E-3  -1.176728587597609E-2  -9.791777282953262E-2  
 2.004375000000000E10    7.353900372982025E-2   1.660578846931458E-1  -3.443831228651106E-4  -2.928487723693252E-3  -3.250011941418052E-4  -2.917948178946972E-3  -1.786728017032147E-2  -9.824837744235992E-2  
 2.004500000000000E10    6.867729872465134E-2   1.786974370479584E-1  -6.259595393203199E-4  -3.012099070474505E-3  -1.575193018652499E-3  -2.489977516233921E-3  -2.305403165519238E-2  -9.905368834733963E-2  
 2.004625000000000E10    6.291441619396210E-2   1.892037987709045E-1  -8.070717449299991E-4  -2.938778605312109E-3  -2.817987697198987E-3  -2.702749799937010E-3  -2.464002370834351E-2  -1.020756363868713E-1  
 2.004750000000000E10    5.659370496869087E-2   2.005385756492615E-1  -9.499141597189009E-4  -3.054948756471276E-3  -1.182049047201872E-3  -3.972862847149372E-3  -2.572870068252087E-2  -1.178499609231949E-1  
 2.004875000000000E10    5.019383504986763E-2   2.107275277376175E-1  -1.284115132875741E-3  -3.081126371398568E-3  -1.923252712003887E-3  -3.162084845826030E-3  -3.103930503129959E-2  -1.360850185155869E-1  
 2.005000000000000E10    4.222652316093445E-2   2.202526926994324E-1  -1.543876016512513E-3  -2.957527991384268E-3  -6.714542396366596E-4  -2.611356554552913E-3  -2.800947614014149E-2  -1.423399448394775E-1  
 2.005125000000000E10    3.346643596887589E-2   2.281458079814911E-1  -1.863238750956953E-3  -2.761941635981202E-3  -3.003271063789725E-3  -4.383938387036324E-3  -2.063487097620964E-2  -1.411142647266388E-1  
 2.005250000000000E10    2.416836470365524E-2   2.355555593967438E-1  -2.071735681965947E-3  -2.539869630709291E-3  -3.710860852152109E-3  -2.558706561103463E-3  -2.601209841668606E-2  -1.419454365968704E-1  
 2.005375000000000E10    1.481100264936686E-2   2.428530752658844E-1  -2.159861847758293E-3  -2.321897074580193E-3  -3.212341805920005E-3  -1.635781489312649E-3  -1.834960654377937E-2  -1.474616676568985E-1  
 2.005500000000000E10    4.454971291124821E-3   2.502989172935486E-1  -2.307862741872668E-3  -1.898659043945372E-3  -3.668830264359713E-3  -4.582308756653220E-4  -2.242396771907806E-2  -1.427386105060577E-1  
 2.005625000000000E10   -6.047946400940418E-3   2.559325397014618E-1  -2.264484297484160E-3  -1.741462154313922E-3  -1.602995209395886E-3  -1.974717015400529E-3  -2.319235540926457E-2  -1.550769954919815E-1  
 2.005750000000000E10   -1.772617548704147E-2   2.611460387706757E-1  -2.163429977372289E-3  -1.450077630579472E-3  -3.072964726015925E-3  -1.415710314176977E-3  -2.964527159929276E-2  -1.541269123554230E-1  
 2.005875000000000E10   -2.835370041429997E-2   2.651730179786682E-1  -2.217863453552127E-3  -1.386666204780340E-3  -2.449190244078636E-3   9.203556692227721E-4  -2.143291197717190E-2  -1.701697558164597E-1  
 2.006000000000000E10   -3.984120115637779E-2   2.680235207080841E-1  -2.170315710827708E-3  -1.161106629297137E-3  -3.960254136472940E-3  -1.474445103667676E-3  -1.985262893140316E-2  -1.711279153823853E-1  
 2.006125000000000E10   -5.057071149349213E-2   2.721295952796936E-1  -2.046422334387898E-3  -1.362951355986297E-3  -2.108024666085839E-3  -1.259975368157029E-3  -2.488900348544121E-2  -1.727463603019714E-1  
 2.006250000000000E10   -6.065547466278076E-2   2.745913863182068E-1  -1.990722492337227E-3  -1.231699483469129E-3  -8.437664946541190E-4  -3.501891624182463E-4  -2.269492484629154E-2  -1.807722896337509E-1  
 2.006375000000000E10   -7.177957147359848E-2   2.757263481616974E-1  -2.067784080281854E-3  -1.398670487105846E-3  -3.183874767273665E-3  -1.167342998087406E-3  -1.231703348457813E-2  -1.788265854120255E-1  
 2.006500000000000E10   -8.239319175481796E-2   2.757739424705505E-1  -2.347378060221672E-3  -1.204396248795092E-3  -2.063601743429899E-3   2.663499035406858E-4  -1.559627056121826E-2  -1.848729550838471E-1  
 2.006625000000000E10   -9.290471673011780E-2   2.750521004199982E-1  -2.379147103056312E-3  -1.104282680898905E-3  -4.834022838622332E-4   7.733816164545715E-5  -4.385841544717550E-3  -1.935352236032486E-1  
 2.006750000000000E10   -1.032191962003708E-1   2.727516293525696E-1  -2.463082084432244E-3  -8.956891833804548E-4  -4.010918084532023E-3  -2.356245095143095E-4  -1.564560690894723E-3  -1.935466974973679E-1  
 2.006875000000000E10   -1.129182055592537E-1   2.703953385353088E-1  -2.531473292037845E-3  -7.243258296512067E-4  -2.596272155642510E-3   7.008236134424806E-4   2.898740931414068E-4  -1.950693875551224E-1  
 2.007000000000000E10   -1.238821968436241E-1   2.667229473590851E-1  -2.628352027386427E-3  -6.452887319028378E-4  -3.504091175273061E-3   8.217665599659085E-4  -2.020605374127626E-3  -1.991107761859894E-1  
 2.007125000000000E10   -1.342307478189468E-1   2.615963220596314E-1  -2.629965776577592E-3  -4.886008100584149E-4  -3.648627549409866E-3   9.990050457417965E-4   3.660512156784535E-3  -1.982655078172684E-1  
 2.007250000000000E10   -1.436816304922104E-1   2.569907605648041E-1  -2.645194297656417E-3  -2.060694969259203E-4  -2.263478003442287E-3   2.493705251254141E-4   1.272551063448191E-2  -2.058997452259064E-1  
 2.007375000000000E10   -1.526387929916382E-1   2.499026805162430E-1  -2.675965195521712E-3  -9.173414582619444E-5  -1.684322603978217E-3   1.066874596290290E-3   9.856862016022205E-3  -2.088121622800827E-1  
 2.007500000000000E10   -1.626614928245544E-1   2.437931448221207E-1  -2.669459441676736E-3  -9.665304241934791E-5  -3.071348881348968E-3   1.029082457534969E-3   1.286143437027931E-2  -2.035310715436935E-1  
 2.007625000000000E10   -1.713761687278748E-1   2.364008277654648E-1  -2.603650791570544E-3   2.266119117848575E-4  -1.802233164198697E-3   1.594339380972087E-3   1.112457178533077E-2  -2.042949497699738E-1  
 2.007750000000000E10   -1.793472915887833E-1   2.284360378980637E-1  -2.536865416914225E-3   3.895984264090657E-4  -2.053755102679133E-3   1.176645513623953E-3   1.240315753966570E-2  -2.024973183870316E-1  
 2.007875000000000E10   -1.853846609592438E-1   2.208355665206909E-1  -2.482553478330374E-3   5.528308684006333E-4  -2.352146431803703E-3   1.567138941027224E-3   2.789046987891197E-2  -2.063916027545929E-1  
 2.008000000000000E10   -1.922013014554977E-1   2.115971148014069E-1  -2.272546757012606E-3   8.061785483732820E-4  -1.745056826621294E-3   9.856102988123894E-4   2.234006673097611E-2  -2.089200168848038E-1  
 2.008125000000000E10   -1.971968412399292E-1   2.022446542978287E-1  -2.220030641183257E-3   9.060871670953929E-4  -1.441146159777418E-4   1.333437394350767E-3   2.836026996374130E-2  -2.063363790512085E-1  
 2.008250000000000E10   -2.020721137523651E-1   1.928135603666306E-1  -2.145709935575724E-3   9.350506588816643E-4  -1.513469265773892E-3   3.237598575651646E-3   3.585833683609963E-2  -2.131182402372360E-1  
 2.008375000000000E10   -2.050363272428513E-1   1.824223250150681E-1  -1.942032482475042E-3   1.015388057567179E-3  -1.391771365888417E-3   1.342461444437504E-3   4.379279911518097E-2  -2.081269770860672E-1  
 2.008500000000000E10   -2.082547843456268E-1   1.726097315549851E-1  -1.879944466054440E-3   9.552162955515087E-4  -1.578414230607450E-3   4.008647811133415E-4   4.122716933488846E-2  -2.121405452489853E-1  
 2.008625000000000E10   -2.100876718759537E-1   1.612935066223145E-1  -1.784916152246296E-3   1.019517425447702E-3  -1.727260241750628E-4   1.470587099902332E-3   4.809022322297096E-2  -1.956574916839600E-1  
 2.008750000000000E10   -2.108128964900971E-1   1.488997340202332E-1  -1.821915502659977E-3   1.082903356291354E-3  -1.065173884853721E-3   1.161275315098465E-3   4.063572362065315E-2  -1.968329697847366E-1  
 2.008875000000000E10   -2.109900414943695E-1   1.361054331064224E-1  -1.802574959583581E-3   1.018163398839533E-3   6.894907710375264E-5   1.381117617711425E-3   4.966203868389130E-2  -1.893379241228104E-1  
 2.009000000000000E10   -2.114028781652451E-1   1.235603019595146E-1  -1.760758808813989E-3   1.153838937170804E-3  -1.288669416680932E-3   2.054620767012239E-3   4.508249834179878E-2  -1.980510950088501E-1  
 2.009125000000000E10   -2.108217924833298E-1   1.120229363441467E-1  -1.718625309877098E-3   1.143655041232705E-3  -1.289709121920168E-3   1.330307335592806E-3   5.504316836595535E-2  -1.845173388719559E-1  
 2.009250000000000E10   -2.092957347631455E-1   9.996540099382401E-2  -1.529765781015158E-3   9.824532316997647E-4  -2.485204720869660E-3   7.056548492982984E-4   5.808584019541740E-2  -1.835940480232239E-1  
 2.009375000000000E10   -2.061135023832321E-1   8.771238476037979E-2  -1.556761912070215E-3   1.187173882499337E-3  -3.117107844445854E-4   2.301733708009124E-3   5.495430156588554E-2  -1.712206453084946E-1  
 2.009500000000000E10   -2.024891525506973E-1   7.523746788501740E-2  -1.728675444610417E-3   1.158253639005125E-3  -1.482872525230050E-3   1.017151749692857E-3   6.124791130423546E-2  -1.834061443805695E-1  
 2.009625000000000E10   -1.984072923660278E-1   6.331976503133774E-2  -1.643693307414651E-3   1.304452656768262E-3  -3.947942968807183E-5   1.558985095471144E-3   5.880894884467125E-2  -1.775811314582825E-1  
 2.009750000000000E10   -1.930502355098724E-1   5.061002448201180E-2  -1.783601706847549E-3   1.522373873740435E-3  -3.233533585444093E-3   1.895080320537090E-3   6.823557615280151E-2  -1.676269620656967E-1  
 2.009875000000000E10   -1.872879415750504E-1   3.984649479389191E-2  -1.804328174330294E-3   1.724594505503774E-3  -2.954490482807159E-4   2.177621470764279E-3   6.564398109912872E-2  -1.669338643550873E-1  
 2.010000000000000E10   -1.810795217752457E-1   2.795169316232204E-2  -1.669662888161838E-3   2.007567090913653E-3  -1.613082946278155E-3   2.293710596859455E-3   6.502455472946167E-2  -1.569064557552338E-1  
 2.010125000000000E10   -1.737624257802963E-1   1.685543917119503E-2  -1.406545634381473E-3   2.235250081866980E-3  -2.075682423310354E-4   2.406183397397399E-3   6.949879974126816E-2  -1.549255698919296E-1  
 2.010250000000000E10   -1.663249433040619E-1   5.342821590602398E-3  -1.041999319568276E-3   2.230948535725474E-3  -4.363555635791272E-4   2.375704236328602E-3   5.788406729698181E-2  -1.477829813957214E-1  
 2.010375000000000E10   -1.570709198713303E-1  -4.589832387864590E-3  -9.385550511069596E-4   2.392422873526812E-3   3.894451656378806E-4   2.606965834274888E-3   6.679533421993256E-2  -1.399797648191452E-1  
 2.010500000000000E10   -1.474886238574982E-1  -1.400888897478581E-2  -7.424471550621092E-4   2.348684938624501E-3   1.886288868263364E-3   1.676084939390421E-3   6.985545903444290E-2  -1.381674259901047E-1  
 2.010625000000000E10   -1.376297920942307E-1  -2.403975278139114E-2  -5.584154860116541E-4   2.211533719673753E-3   4.075258766533807E-5   3.060905495658517E-3   5.984520167112351E-2  -1.331424862146378E-1  
 2.010750000000000E10   -1.263089776039124E-1  -3.325223177671433E-2  -5.103846197016537E-4   2.254931023344398E-3  -2.251321566291153E-4   2.106196247041225E-3   5.218498408794403E-2  -1.317697465419769E-1  
 2.010875000000000E10   -1.141657084226608E-1  -4.191453009843826E-2  -2.830232551787049E-4   2.174500143155456E-3   1.026430982165039E-3   3.123641014099121E-3   4.758702591061592E-2  -1.333032399415970E-1  
 2.011000000000000E10   -1.027762219309807E-1  -5.004199221730232E-2  -1.511846930952743E-4   2.087168628349900E-3   1.236033509485424E-3   2.953815739601851E-3   5.135446414351463E-2  -1.278259605169296E-1  
 2.011125000000000E10   -9.086620807647705E-2  -5.678755044937134E-2  -7.224462751764804E-5   2.106375293806195E-3   1.835761009715498E-3   1.703363028354943E-3   5.764964967966080E-2  -1.173015534877777E-1  
 2.011250000000000E10   -7.859259843826294E-2  -6.351886689662933E-2   1.260966837435262E-5   2.081236569210887E-3   2.904559660237283E-4   1.699846703559160E-3   5.735205486416817E-2  -1.192445382475853E-1  
 2.011375000000000E10   -6.577283143997192E-2  -6.923877447843552E-2   1.554163754917681E-4   2.029158873483539E-3  -4.393341441755183E-5   2.787119301501662E-4   5.430315434932709E-2  -1.175933107733727E-1  
 2.011500000000000E10   -5.235652625560761E-2  -7.430261373519898E-2  -6.850870537533638E-9   2.075183438137174E-3   2.358734374865890E-3   2.258241642266512E-3   4.427629336714745E-2  -1.064672246575356E-1  
 2.011625000000000E10   -3.836237639188767E-2  -7.792674005031586E-2   2.915151999332011E-4   2.095641335472465E-3   3.622552321758121E-4   3.099590772762895E-3   4.104671254754067E-2  -9.754412621259689E-2  
