#  HZ   S   RI   R     50.00 
! Rohde & Schwarz ZVA40 4Ports - Version 3.90 - 1145.1110k42 SN: 100403
! Date: 2023-09-06 06:01:38
! Measurements: S11 S21 S12 S22 
! 
 2.000000000000000E10   -1.380524933338165E-1  -1.497706174850464E-1   1.386068412102759E-3   1.301830983720720E-3   2.241479698568583E-3   5.599741125479341E-4   1.510017514228821E-1  -6.015496328473091E-2  
 2.000125000000000E10   -1.276068389415741E-1  -1.502014845609665E-1   1.340055721811950E-3   1.212566858157516E-3   2.242546761408448E-3   8.106209570541978E-4   1.559526771306992E-1  -5.421699583530426E-2  
 2.000250000000000E10   -1.163734793663025E-1  -1.499689668416977E-1   1.504006097093225E-3   1.154939644038677E-3   1.967231510207057E-3   1.508647925220430E-3   1.494512706995010E-1  -4.750412702560425E-2  
 2.000375000000000E10   -1.070936247706413E-1  -1.494115591049194E-1   1.427765702828765E-3   1.211954047903419E-3   1.391687430441380E-3   1.152303651906550E-3   1.435596346855164E-1  -4.719373211264610E-2  
 2.000500000000000E10   -9.581181406974793E-2  -1.478806436061859E-1   1.445487141609192E-3   1.247139880433679E-3   1.601536991074681E-3   1.453176140785217E-3   1.402563303709030E-1  -4.515559971332550E-2  
 2.000625000000000E10   -8.516196906566620E-2  -1.449798643589020E-1   1.682015485130251E-3   1.236405922099948E-3   2.857914194464684E-3   1.410614582709968E-3   1.417712569236755E-1  -4.288278892636299E-2  
 2.000750000000000E10   -7.443099468946457E-2  -1.415261030197144E-1   1.743725268170238E-3   1.032865955494344E-3   1.666201744228602E-3   1.245040475623682E-4   1.346745640039444E-1  -3.650886937975884E-2  
 2.000875000000000E10   -6.402969360351563E-2  -1.373485922813416E-1   1.925676013343036E-3   9.598928154446185E-4   2.025819616392255E-3   1.152365817688406E-3   1.306480020284653E-1  -3.698761761188507E-2  
 2.001000000000000E10   -5.306349322199822E-2  -1.316657960414887E-1   1.904200529679656E-3   8.136469405144453E-4   3.097340464591980E-3   4.733766836579889E-4   1.340681910514832E-1  -3.849843889474869E-2  
 2.001125000000000E10   -4.261332750320435E-2  -1.255141645669937E-1   1.951073994860053E-3   6.213798187673092E-4   1.709314412437379E-3  -1.705375907476991E-4   1.211711913347244E-1  -3.502500429749489E-2  
 2.001250000000000E10   -3.133381903171539E-2  -1.186086013913155E-1   1.924506970681250E-3   6.664631073363125E-4   1.722879707813263E-3   8.614772232249379E-4   1.230818256735802E-1  -3.629411756992340E-2  
 2.001375000000000E10   -1.980914548039436E-2  -1.114926338195801E-1   2.069723792374134E-3   5.271632689982653E-4   1.990679185837507E-3   2.208498772233725E-4   1.110747531056404E-1  -3.797472268342972E-2  
 2.001500000000000E10   -9.589660912752152E-3  -1.042345240712166E-1   1.960196532309055E-3   5.804323009215295E-4   1.639928086660802E-3  -5.911916960030794E-4   1.096725240349770E-1  -3.270584717392921E-2  
 2.001625000000000E10    7.481905631721020E-4  -9.646587073802948E-2   1.861721044406295E-3   4.857381281908602E-4   1.751737319864333E-3   1.239667180925608E-4   1.016674488782883E-1  -3.798159956932068E-2  
 2.001750000000000E10    1.026359573006630E-2  -8.793941140174866E-2   2.035437384620309E-3   4.115708579774946E-4   2.018036320805550E-3   8.049536263570190E-4   8.998214453458786E-2  -3.509572148323059E-2  
 2.001875000000000E10    1.936892792582512E-2  -7.838708907365799E-2   2.072106348350644E-3   2.302427310496569E-4   3.470441559329629E-3   3.450847871135920E-4   9.403216838836670E-2  -4.907755926251411E-2  
 2.002000000000000E10    2.734158374369144E-2  -6.845802813768387E-2   2.002645283937454E-3  -5.106507887830958E-5   1.369473175145686E-3  -4.936825134791434E-4   8.843826502561569E-2  -4.746685549616814E-2  
 2.002125000000000E10    3.540765866637230E-2  -5.717168003320694E-2   1.918981317430735E-3  -2.088639157591388E-4   1.766803790815175E-3  -7.328152150876122E-6   8.148592710494995E-2  -4.093729704618454E-2  
 2.002250000000000E10    4.393624514341354E-2  -4.725347831845284E-2   1.605452620424330E-3  -1.920617214636877E-4   1.465743174776435E-3  -2.698292664717883E-4   7.334901392459869E-2  -5.481019988656044E-2  
 2.002375000000000E10    4.999377951025963E-2  -3.550429269671440E-2   1.561259618028998E-3  -2.529028279241175E-4   1.225686050020158E-3  -6.792791537009180E-4   6.796006858348846E-2  -4.412708431482315E-2  
 2.002500000000000E10    5.604140833020210E-2  -2.443026378750801E-2   1.439280342310667E-3  -3.322601260151714E-4   2.544111572206020E-3  -2.358550555072725E-4   6.149005517363548E-2  -4.031580686569214E-2  
 2.002625000000000E10    6.176368892192841E-2  -1.241315342485905E-2   1.338103553280234E-3  -3.390294150449336E-4  -8.104514563456178E-4  -1.344004180282354E-3   5.725362524390221E-2  -4.850861057639122E-2  
 2.002750000000000E10    6.665793806314468E-2   2.793610037770122E-4   1.350322621874511E-3  -3.073593252338469E-4   6.901147426106036E-4  -7.094069733284414E-4   5.453836545348167E-2  -4.996413365006447E-2  
 2.002875000000000E10    7.059816271066666E-2   1.190238911658526E-2   1.145664718933404E-3  -4.799444868694991E-4   1.698499778285623E-3  -1.692022487986833E-4   5.119675397872925E-2  -5.505350604653359E-2  
 2.003000000000000E10    7.383491843938828E-2   2.497989870607853E-2   1.040717354044318E-3  -3.972162376157939E-4   2.270473865792155E-3  -1.393508631736040E-3   5.426592752337456E-2  -6.476246565580368E-2  
 2.003125000000000E10    7.588174939155579E-2   3.840747475624085E-2   9.501326712779701E-4  -2.560772991273552E-4   1.828654203563929E-3   3.382276336196810E-4   4.113145917654038E-2  -6.228414550423622E-2  
 2.003250000000000E10    7.818862050771713E-2   5.166873335838318E-2   8.091063355095685E-4  -3.079887828789651E-4   2.194512053392828E-4  -4.128166765440255E-4   3.366908058524132E-2  -6.861539930105209E-2  
 2.003375000000000E10    7.991944998502731E-2   6.500915437936783E-2   6.752837798558176E-4   2.994129317812622E-5   8.414103067480028E-4   1.608634047443047E-4   2.775608561933041E-2  -6.519661098718643E-2  
 2.003500000000000E10    8.020517230033875E-2   7.799644768238068E-2   6.647906266152859E-4   3.870987275149673E-4  -6.663447711616755E-4  -1.562706311233342E-4   2.114770747721195E-2  -7.150223106145859E-2  
 2.003625000000000E10    8.094753324985504E-2   9.122452884912491E-2   8.397431229241192E-4   5.408130236901343E-4   1.158515442511998E-4   5.907177692279220E-4   1.447289064526558E-2  -7.952830940485001E-2  
 2.003750000000000E10    7.908745110034943E-2   1.048376709222794E-1   1.091994345188141E-3   9.042679448612034E-4   8.191879605874419E-4  -1.189478789456189E-3   1.661567017436028E-2  -8.448442816734314E-2  
 2.003875000000000E10    7.778909802436829E-2   1.179403364658356E-1   1.314373686909676E-3   7.648692699149251E-4   1.632340485230088E-3   1.910875784233213E-3   3.426669631153345E-3  -9.595640748739243E-2  
 2.004000000000000E10    7.536140829324722E-2   1.313768327236176E-1   1.694907550700009E-3   6.836795946583152E-4   1.013474655337632E-3   7.257870747707784E-4   1.275027729570866E-2  -9.685815870761871E-2  
 2.004125000000000E10    7.322437316179276E-2   1.447083652019501E-1   1.797436736524105E-3   5.508635658770800E-4   2.226422540843487E-3  -6.910647789482027E-5   7.636293303221464E-3  -9.781826287508011E-2  
 2.004250000000000E10    6.963242590427399E-2   1.558997631072998E-1   1.934284926392138E-3   2.861041284631938E-4   2.295173937454820E-3   6.352557684294879E-4   4.145462531596422E-3  -1.061098948121071E-1  
 2.004375000000000E10    6.540317833423615E-2   1.676175147294998E-1   2.087882487103343E-3   2.891613403335214E-4   3.576566698029637E-3  -5.460983957163990E-4   3.960388246923685E-3  -1.107917204499245E-1  
 2.004500000000000E10    6.146118417382240E-2   1.779870837926865E-1   2.195179695263505E-3   6.719820521539077E-5   2.788192825391889E-3  -1.853909692727029E-3  -9.076668880879879E-3  -1.175653487443924E-1  
 2.004625000000000E10    5.625414103269577E-2   1.884350776672363E-1   2.103339647874236E-3  -2.037869271589443E-4   1.305793062783778E-3  -6.763465353287756E-4  -7.811082527041435E-3  -1.241383254528046E-1  
 2.004750000000000E10    4.918114840984345E-2   1.979799121618271E-1   2.219377784058452E-3  -2.362593513680622E-4   2.295796060934663E-3  -1.355945249088109E-3  -7.084745448082686E-4  -1.287831664085388E-1  
 2.004875000000000E10    4.198422282934189E-2   2.073327898979187E-1   2.158461837098002E-3  -4.068996058776975E-4   4.678482364397496E-4  -9.385722223669291E-4  -9.813881479203701E-3  -1.398196369409561E-1  
 2.005000000000000E10    3.421591594815254E-2   2.165301144123077E-1   2.100201323628426E-3  -5.364352255128324E-4   2.331382595002651E-3  -1.541180070489645E-3  -9.441939182579517E-3  -1.377346068620682E-1  
 2.005125000000000E10    2.507978864014149E-2   2.255312204360962E-1   2.005165442824364E-3  -6.536402506753802E-4   1.724995556287468E-3   5.990541467326693E-5  -1.336442772299051E-2  -1.402339488267899E-1  
 2.005250000000000E10    1.628425158560276E-2   2.330498099327087E-1   1.961694797500968E-3  -6.182623328641057E-4   6.292696925811470E-4  -3.925736527889967E-4  -7.522550877183676E-3  -1.417588442564011E-1  
 2.005375000000000E10    6.547875236719847E-3   2.406092584133148E-1   1.845257589593530E-3  -7.758518913760781E-4   1.711580320261419E-3  -9.284167899750173E-4  -1.566607132554054E-2  -1.535988301038742E-1  
 2.005500000000000E10   -2.422196557745338E-3   2.471965998411179E-1   1.940515125170350E-3  -7.123200339265168E-4   1.550675951875746E-3  -9.248820715583861E-4  -1.637010276317596E-2  -1.677270084619522E-1  
 2.005625000000000E10   -1.138738729059696E-2   2.532005906105042E-1   2.057736739516258E-3  -7.681432762183249E-4   3.202124498784542E-3  -1.968035794561729E-4  -6.952659692615271E-3  -1.712488681077957E-1  
 2.005750000000000E10   -2.184019796550274E-2   2.582669258117676E-1   2.125532831996679E-3  -9.569620597176254E-4   2.537885215133429E-3  -1.740782987326384E-3  -1.588686555624008E-2  -1.760931760072708E-1  
 2.005875000000000E10   -3.160528466105461E-2   2.615240514278412E-1   2.101801102980971E-3  -1.049728016369045E-3   1.438171602785587E-3  -1.704426016658545E-3  -8.671193383634090E-3  -1.752991974353790E-1  
 2.006000000000000E10   -4.150293022394180E-2   2.651841938495636E-1   2.227547112852335E-3  -1.255887676961720E-3   2.739806193858385E-3  -2.741022733971477E-3  -1.020850148051977E-2  -1.759379059076309E-1  
 2.006125000000000E10   -5.123636871576309E-2   2.669571042060852E-1   2.228538505733013E-3  -1.476440229453147E-3   1.266073784790933E-3  -1.944215968251228E-3  -8.530206046998501E-3  -1.893261224031448E-1  
 2.006250000000000E10   -6.188496202230454E-2   2.683356106281281E-1   2.247237600386143E-3  -1.644515898078680E-3   8.615749538876116E-4  -7.751336670480669E-4  -1.482082530856133E-2  -1.872674673795700E-1  
 2.006375000000000E10   -7.166979461908341E-2   2.690614759922028E-1   2.268859650939703E-3  -1.912000938318670E-3   1.343966228887439E-3  -3.329632803797722E-3  -3.187747788615525E-4  -1.873180121183395E-1  
 2.006500000000000E10   -8.262664824724197E-2   2.678978443145752E-1   2.200805814936757E-3  -2.003506291657686E-3   4.390953399706632E-4  -2.043181797489524E-3  -2.332733478397131E-3  -2.035301476716995E-1  
 2.006625000000000E10   -9.261833876371384E-2   2.667478621006012E-1   1.908017438836396E-3  -2.171701751649380E-3   5.906306978431530E-5  -3.247737651690841E-3  -2.042289357632399E-3  -2.132067829370499E-1  
 2.006750000000000E10   -1.032843738794327E-1   2.649299800395966E-1   1.741953543387353E-3  -2.495974767953157E-3   1.570194610394537E-3  -2.841278212144971E-3   3.948999801650643E-4  -2.080164849758148E-1  
 2.006875000000000E10   -1.131221726536751E-1   2.622666656970978E-1   1.500075566582382E-3  -2.786614233627915E-3   1.332164742052555E-3  -2.530856989324093E-3   1.212606579065323E-2  -2.032427191734314E-1  
 2.007000000000000E10   -1.234365701675415E-1   2.581206560134888E-1   1.154855126515031E-3  -2.840422559529543E-3   9.308550506830216E-4  -2.724039135500789E-3   1.100076735019684E-2  -2.087828069925308E-1  
 2.007125000000000E10   -1.331359595060349E-1   2.544613182544708E-1   9.493517572991550E-4  -2.955261385068297E-3  -2.847406140062958E-4  -3.885111073032022E-3   8.156959898769856E-3  -2.096994072198868E-1  
 2.007250000000000E10   -1.421747505664825E-1   2.497933357954025E-1   7.031959830783308E-4  -3.030440304428339E-3  -3.065465425606817E-4  -2.306873211637139E-3   8.176190778613091E-3  -2.087520956993103E-1  
 2.007375000000000E10   -1.508935242891312E-1   2.446868121623993E-1   3.359823604114354E-4  -2.953655086457729E-3  -1.647673547267914E-3  -2.794578205794096E-3   1.198223698884249E-2  -2.245122343301773E-1  
 2.007500000000000E10   -1.593829244375229E-1   2.389402985572815E-1   5.542806684388779E-5  -2.640775637701154E-3  -2.969368943013251E-4  -2.578437561169267E-3   1.363547984510660E-2  -2.178056091070175E-1  
 2.007625000000000E10   -1.676100790500641E-1   2.327183037996292E-1  -1.357334531348897E-5  -2.389681059867144E-3  -8.318109903484583E-4  -3.123383270576596E-3   2.251626737415791E-2  -2.108368426561356E-1  
 2.007750000000000E10   -1.744701713323593E-1   2.236374467611313E-1  -1.354043633909896E-4  -2.307615010067821E-3  -3.983214846812189E-4  -3.181205596774817E-3   2.499948628246784E-2  -2.114967703819275E-1  
 2.007875000000000E10   -1.799909174442291E-1   2.163619250059128E-1  -2.187739446526393E-4  -2.063671359792352E-3  -1.067425357177854E-3  -1.849704771302640E-3   2.045855671167374E-2  -2.216950654983521E-1  
 2.008000000000000E10   -1.847229152917862E-1   2.073801308870316E-1  -3.110880206804723E-4  -1.918847556225956E-3  -1.029917155392468E-3  -6.537733133882284E-4   2.537235058844090E-2  -2.140609622001648E-1  
 2.008125000000000E10   -1.892489492893219E-1   1.983483135700226E-1  -3.932949330192059E-4  -1.786063774488866E-3  -1.258852425962687E-3  -2.079246565699577E-3   3.194383531808853E-2  -2.257017344236374E-1  
 2.008250000000000E10   -1.931207329034805E-1   1.873428821563721E-1  -4.234192601870745E-4  -1.500889426097274E-3   1.860393094830215E-4  -2.131923567503691E-3   3.822097927331924E-2  -2.159884572029114E-1  
 2.008375000000000E10   -1.969812810420990E-1   1.767821907997131E-1  -4.128152504563332E-4  -1.279417308978736E-3   5.457077641040087E-4  -8.107229368761182E-4   3.894111514091492E-2  -2.174745202064514E-1  
 2.008500000000000E10   -1.999916434288025E-1   1.658669859170914E-1  -2.556121035013348E-4  -1.223676372319460E-3  -4.926908877678216E-4  -5.396058550104499E-4   4.390945658087730E-2  -2.140097171068192E-1  
 2.008625000000000E10   -2.017574608325958E-1   1.540183573961258E-1   1.740506741043646E-5  -9.926420170813799E-4   5.509185139089823E-4  -1.332464860752225E-3   3.989066928625107E-2  -2.143917530775070E-1  
 2.008750000000000E10   -2.040246874094009E-1   1.425210237503052E-1   1.276224938919768E-4  -9.133860585279763E-4  -1.151312724687159E-3  -1.108245225623250E-3   3.912536799907684E-2  -2.122797816991806E-1  
 2.008875000000000E10   -2.049914747476578E-1   1.307227611541748E-1   5.492116324603558E-4  -8.917130180634558E-4  -1.338702160865068E-3  -1.032039872370660E-3   4.725776612758637E-2  -2.161700278520584E-1  
 2.009000000000000E10   -2.057274729013443E-1   1.193521842360497E-1   8.553251391276717E-4  -1.144337584264576E-3   2.023882698267698E-3  -4.587561998050660E-4   4.404068738222122E-2  -2.093844115734100E-1  
 2.009125000000000E10   -2.049835473299027E-1   1.085771769285202E-1   1.126920105889440E-3  -1.511984854005277E-3   5.289280088618398E-4  -2.161744749173522E-3   4.178219288587570E-2  -2.013726979494095E-1  
 2.009250000000000E10   -2.028466612100601E-1   9.725258499383926E-2   1.044226228259504E-3  -1.914635766297579E-3   9.346510050818324E-4  -2.838616492226720E-3   5.520149320363998E-2  -1.889531463384628E-1  
 2.009375000000000E10   -2.008790522813797E-1   8.534508943557739E-2   9.691435843706131E-4  -2.221539383754134E-3  -3.421942237764597E-4  -1.359820715151727E-3   5.489038303494453E-2  -2.025256305932999E-1  
 2.009500000000000E10   -1.970620155334473E-1   7.354862242937088E-2   6.734955240972340E-4  -2.568695461377502E-3   6.406461470760405E-4  -2.759033115580678E-3   5.673820152878761E-2  -1.912866532802582E-1  
 2.009625000000000E10   -1.932984292507172E-1   6.255293637514114E-2   3.874835674650967E-4  -2.794231753796339E-3  -1.642406918108463E-3  -2.381858648732305E-3   6.576034426689148E-2  -1.860970705747604E-1  
 2.009750000000000E10   -1.881075948476791E-1   5.109894275665283E-2   9.218048217007890E-5  -2.785469405353069E-3   3.747382434085012E-4  -1.797671779058874E-3   5.359219014644623E-2  -1.794943660497665E-1  
 2.009875000000000E10   -1.822919398546219E-1   4.026879370212555E-2  -4.490086575970054E-5  -2.730118110775948E-3  -1.416716724634171E-3  -1.740751671604812E-3   5.089681968092918E-2  -1.824682354927063E-1  
 2.010000000000000E10   -1.761572211980820E-1   2.917618863284588E-2  -2.812771999742836E-4  -2.658852608874440E-3  -9.312400361523032E-4  -2.255474450066686E-3   4.838455095887184E-2  -1.762183308601379E-1  
 2.010125000000000E10   -1.681219190359116E-1   1.869708672165871E-2  -2.733641886152327E-4  -2.588287461549044E-3  -9.824894368648529E-4  -3.011682303622365E-3   5.764021351933479E-2  -1.727373003959656E-1  
 2.010250000000000E10   -1.603654772043228E-1   7.949485443532467E-3  -3.723895933944732E-4  -2.524462994188070E-3  -9.334807400591672E-4  -1.189753413200378E-3   5.015249177813530E-2  -1.554168313741684E-1  
 2.010375000000000E10   -1.517483741044998E-1  -1.556036178953946E-3  -4.894145531579852E-4  -2.524778712540865E-3  -5.542454891838133E-4  -2.771548228338361E-3   5.407268553972244E-2  -1.643559634685516E-1  
 2.010500000000000E10   -1.427376717329025E-1  -1.156179979443550E-2  -3.152384597342461E-4  -2.626699628308415E-3  -8.497757371515036E-4  -1.626923331059516E-3   5.473195388913155E-2  -1.578743010759354E-1  
 2.010625000000000E10   -1.330493390560150E-1  -2.061815187335014E-2  -5.327626131474972E-4  -2.845997223630548E-3  -8.961398270912468E-4  -3.656769171357155E-3   4.598528146743774E-2  -1.432514488697052E-1  
 2.010750000000000E10   -1.226442679762840E-1  -2.956504561007023E-2  -5.691726692020893E-4  -2.841587876901031E-3  -1.248441170901060E-3  -3.638493828475475E-3   5.002442747354507E-2  -1.456848531961441E-1  
 2.010875000000000E10   -1.114464551210403E-1  -3.787135705351830E-2  -8.919266401790083E-4  -3.026274498552084E-3  -9.282669052481651E-4  -4.061594605445862E-3   5.155848339200020E-2  -1.319784969091415E-1  
 2.011000000000000E10   -1.005188077688217E-1  -4.548779129981995E-2  -1.194303738884628E-3  -3.205962711945176E-3  -2.536214655265212E-3  -3.681883215904236E-3   3.661436960101128E-2  -1.373164951801300E-1  
 2.011125000000000E10   -8.896038681268692E-2  -5.172718688845635E-2  -1.274594338610768E-3  -3.151578828692436E-3  -2.981504891067743E-3  -1.971267862245441E-3   4.103579744696617E-2  -1.248183101415634E-1  
 2.011250000000000E10   -7.650478929281235E-2  -5.884956568479538E-2  -1.697441213764250E-3  -3.053515451028943E-3  -1.576714101247490E-3  -2.615177771076560E-3   2.929538302123547E-2  -1.140868142247200E-1  
 2.011375000000000E10   -6.365238875150681E-2  -6.463360041379929E-2  -1.928599434904754E-3  -2.944910898804665E-3  -2.402901882305741E-3  -3.561354940757155E-3   3.397344052791596E-2  -1.184334233403206E-1  
 2.011500000000000E10   -5.112061277031899E-2  -6.935720145702362E-2  -2.233720850199461E-3  -2.869040938094258E-3  -3.021129639819264E-3  -1.956959487870336E-3   2.718248590826988E-2  -1.135306507349014E-1  
 2.011625000000000E10   -3.796556964516640E-2  -7.325334846973419E-2  -2.439660951495171E-3  -2.573576988652349E-3  -3.916819114238024E-3  -2.299341605976224E-3   2.385948784649372E-2  -1.080328077077866E-1  
