#  HZ   S   RI   R     50.00 
! Rohde & Schwarz ZVA40 4Ports - Version 3.90 - 1145.1110k42 SN: 100403
! Date: 2023-09-06 07:03:39
! Measurements: S11 S21 S12 S22 
! 
 2.000000000000000E10   -1.333134472370148E-1  -1.531603187322617E-1  -8.171222358942032E-2   6.362600624561310E-2  -6.055029109120369E-2   8.467450737953186E-2   1.363043189048767E-1  -6.971986591815949E-2  
 2.000125000000000E10   -1.223430782556534E-1  -1.545958667993546E-1  -7.586543262004852E-2   7.044027745723724E-2  -5.186686664819717E-2   9.011345356702805E-2   1.358862370252609E-1  -6.102017313241959E-2  
 2.000250000000000E10   -1.114604249596596E-1  -1.554673016071320E-1  -6.968971341848373E-2   7.682392001152039E-2  -4.792000353336334E-2   9.331722557544708E-2   1.328259110450745E-1  -6.199324876070023E-2  
 2.000375000000000E10   -1.000787317752838E-1  -1.547624319791794E-1  -6.411963701248169E-2   8.166334778070450E-2  -4.205764457583427E-2   1.002078577876091E-1   1.270160973072052E-1  -6.091885641217232E-2  
 2.000500000000000E10   -8.927425742149353E-2  -1.537630259990692E-1  -5.913784727454186E-2   8.600006252527237E-2  -3.528942167758942E-2   9.825470298528671E-2   1.342777609825134E-1  -5.134251713752747E-2  
 2.000625000000000E10   -7.725888490676880E-2  -1.521395295858383E-1  -5.346897616982460E-2   8.942333608865738E-2  -2.845467813313007E-2   1.016571149230003E-1   1.228075474500656E-1  -4.390739649534226E-2  
 2.000750000000000E10   -6.514063477516174E-2  -1.491181850433350E-1  -4.777163267135620E-2   9.283000975847244E-2  -1.959639973938465E-2   1.009629517793655E-1   1.132276654243469E-1  -4.774642363190651E-2  
 2.000875000000000E10   -5.280290171504021E-2  -1.459296047687531E-1  -4.174080863595009E-2   9.550809115171433E-2  -1.361997146159411E-2   1.034187972545624E-1   1.094486340880394E-1  -4.386959969997406E-2  
 2.001000000000000E10   -4.124888032674789E-2  -1.418733447790146E-1  -3.525315225124359E-2   9.825847297906876E-2  -6.549364421516657E-3   1.044641956686974E-1   1.090026497840881E-1  -3.648352995514870E-2  
 2.001125000000000E10   -3.001794219017029E-2  -1.382728666067123E-1  -2.882510609924793E-2   1.003189980983734E-1   1.904286327771843E-3   1.054006218910217E-1   1.189637556672096E-1  -5.044526979327202E-2  
 2.001250000000000E10   -1.830782555043697E-2  -1.329771131277084E-1  -2.193433046340942E-2   1.021323427557945E-1   6.899786181747913E-3   1.074516847729683E-1   1.129203438758850E-1  -3.593897446990013E-2  
 2.001375000000000E10   -7.790823001414537E-3  -1.274875551462174E-1  -1.494844630360603E-2   1.035323143005371E-1   1.267556194216013E-2   1.060360372066498E-1   9.892994910478592E-2  -3.064914979040623E-2  
 2.001500000000000E10    2.276686485856772E-3  -1.216132044792175E-1  -7.459989283233881E-3   1.047060862183571E-1   1.898496598005295E-2   1.041638031601906E-1   9.805375337600708E-2  -2.893904224038124E-2  
 2.001625000000000E10    1.168873254209757E-2  -1.139294654130936E-1   6.128519307821989E-4   1.050397083163261E-1   2.828142046928406E-2   1.032882556319237E-1   9.396537393331528E-2  -2.916700765490532E-2  
 2.001750000000000E10    1.964151300489903E-2  -1.064093559980393E-1   9.003600105643272E-3   1.048273965716362E-1   3.893458843231201E-2   9.803916513919830E-2   8.547310531139374E-2  -4.308231547474861E-2  
 2.001875000000000E10    2.828537672758102E-2  -9.644926339387894E-2   1.709189638495445E-2   1.038366258144379E-1   4.463385045528412E-2   9.738042950630188E-2   8.028358966112137E-2  -3.139087185263634E-2  
 2.002000000000000E10    3.600218147039414E-2  -8.647439628839493E-2   2.473495900630951E-2   1.022043749690056E-1   4.991866648197174E-2   9.399069845676422E-2   8.048407733440399E-2  -3.416764363646507E-2  
 2.002125000000000E10    4.269394651055336E-2  -7.574279606342316E-2   3.104881942272186E-2   1.004074886441231E-1   5.522910878062248E-2   9.177798777818680E-2   6.535644829273224E-2  -3.124315850436688E-2  
 2.002250000000000E10    5.021569505333901E-2  -6.419624388217926E-2   3.585514798760414E-2   9.804002195596695E-2   6.106295436620712E-2   8.461787551641464E-2   6.392126530408859E-2  -4.002378135919571E-2  
 2.002375000000000E10    5.629556253552437E-2  -5.262056738138199E-2   4.141273722052574E-2   9.535674005746841E-2   6.232196837663651E-2   8.075268566608429E-2   6.057981029152870E-2  -3.631770610809326E-2  
 2.002500000000000E10    6.205094978213310E-2  -4.044136032462120E-2   4.726894199848175E-2   9.228314459323883E-2   7.072231173515320E-2   7.795631885528565E-2   5.586711317300797E-2  -4.143869504332542E-2  
 2.002625000000000E10    6.661574542522430E-2  -2.760746888816357E-2   5.407058447599411E-2   8.870927989482880E-2   7.298374176025391E-2   7.226081937551498E-2   4.993360117077828E-2  -4.038802161812782E-2  
 2.002750000000000E10    7.047042250633240E-2  -1.452996861189604E-2   6.099570170044899E-2   8.380647003650665E-2   8.072292059659958E-2   6.535247713327408E-2   4.601890593767166E-2  -5.151848867535591E-2  
 2.002875000000000E10    7.431163638830185E-2  -2.956993703264743E-4   6.827996671199799E-2   7.854568958282471E-2   8.613177388906479E-2   5.898285284638405E-2   4.554063454270363E-2  -5.611621588468552E-2  
 2.003000000000000E10    7.710421830415726E-2   1.332199666649103E-2   7.502827048301697E-2   7.246962934732437E-2   9.407778829336166E-2   5.128253623843193E-2   3.235752880573273E-2  -6.217518076300621E-2  
 2.003125000000000E10    7.855658233165741E-2   2.728500403463841E-2   8.049626648426056E-2   6.663057953119278E-2   9.378591179847717E-2   4.519247636198998E-2   3.440197184681892E-2  -6.342897564172745E-2  
 2.003250000000000E10    8.087889850139618E-2   4.215663298964500E-2   8.471453934907913E-2   6.142579391598702E-2   9.668750315904617E-2   3.770651668310165E-2   3.075843304395676E-2  -6.534610688686371E-2  
 2.003375000000000E10    8.214275538921356E-2   5.620320513844490E-2   8.792355656623840E-2   5.679241940379143E-2   9.812281280755997E-2   3.141641989350319E-2   2.436177246272564E-2  -6.413909792900085E-2  
 2.003500000000000E10    8.295999467372894E-2   7.032237946987152E-2   9.055971354246140E-2   5.277320370078087E-2   1.018173992633820E-1   2.717941440641880E-2   1.657887548208237E-2  -7.947792112827301E-2  
 2.003625000000000E10    8.320756256580353E-2   8.478028327226639E-2   9.327948838472366E-2   4.877026006579399E-2   1.008375212550163E-1   2.365012094378471E-2   1.517482195049524E-2  -7.697984576225281E-2  
 2.003750000000000E10    8.214139193296433E-2   9.872773289680481E-2   9.569167345762253E-2   4.394397139549255E-2   1.042438521981239E-1   1.683040894567967E-2   4.817855544388294E-3  -9.035719931125641E-2  
 2.003875000000000E10    8.076401799917221E-2   1.121802553534508E-1   9.834721684455872E-2   3.827562928199768E-2   1.061932742595673E-1   1.272396557033062E-2   8.193546906113625E-3  -9.159414470195770E-2  
 2.004000000000000E10    7.724816352128983E-2   1.272528618574143E-1   1.010512933135033E-1   3.172933310270309E-2   1.056157648563385E-1   4.840986803174019E-3   7.480859640054405E-4  -9.498797357082367E-2  
 2.004125000000000E10    7.405851781368256E-2   1.405789256095886E-1   1.032941862940788E-1   2.330769784748554E-2   1.076542884111404E-1  -3.948833793401718E-3  -1.718048192560673E-2  -1.057608947157860E-1  
 2.004250000000000E10    7.103358954191208E-2   1.546874940395355E-1   1.049988046288490E-1   1.483866386115551E-2   1.054459735751152E-1  -1.547417975962162E-2  -3.629284445196390E-3  -1.054547801613808E-1  
 2.004375000000000E10    6.670559942722321E-2   1.681153774261475E-1   1.058764830231667E-1   6.261069327592850E-3   1.049773991107941E-1  -2.343982644379139E-2  -2.023872360587120E-2  -1.010011285543442E-1  
 2.004500000000000E10    6.054270267486572E-2   1.812799423933029E-1   1.062544882297516E-1  -1.018254319205880E-3   1.035911068320274E-1  -2.866239100694656E-2  -1.745017617940903E-2  -1.047836467623711E-1  
 2.004625000000000E10    5.495559424161911E-2   1.934862434864044E-1   1.060580015182495E-1  -7.335954345762730E-3   1.009123995900154E-1  -3.382818028330803E-2  -2.626547962427139E-2  -1.158535331487656E-1  
 2.004750000000000E10    4.858213663101196E-2   2.052061706781387E-1   1.055645942687988E-1  -1.230148598551750E-2   9.784868359565735E-2  -3.710389882326126E-2  -2.122435905039311E-2  -1.298464387655258E-1  
 2.004875000000000E10    4.140220209956169E-2   2.161631137132645E-1   1.046141386032105E-1  -1.641787029802799E-2   9.568211436271668E-2  -4.301460459828377E-2  -2.654276043176651E-2  -1.203839257359505E-1  
 2.005000000000000E10    3.388849273324013E-2   2.272604852914810E-1   1.037659868597984E-1  -2.080528624355793E-2   9.356680512428284E-2  -4.636638239026070E-2  -2.113411016762257E-2  -1.339036077260971E-1  
 2.005125000000000E10    2.654241025447846E-2   2.379705309867859E-1   1.025420203804970E-1  -2.607683278620243E-2   9.225890040397644E-2  -5.211400613188744E-2  -1.914809085428715E-2  -1.449904888868332E-1  
 2.005250000000000E10    1.737429574131966E-2   2.460040003061295E-1   1.006084233522415E-1  -3.123056329786778E-2   8.939015120267868E-2  -5.516859143972397E-2  -2.765708602964878E-2  -1.481799632310867E-1  
 2.005375000000000E10    9.621762670576572E-3   2.555058300495148E-1   9.811232239007950E-2  -3.777762874960899E-2   8.801531046628952E-2  -6.176157295703888E-2  -2.951807528734207E-2  -1.515940427780151E-1  
 2.005500000000000E10    7.300475845113397E-4   2.630258798599243E-1   9.509956091642380E-2  -4.445313662290573E-2   8.046162873506546E-2  -7.023568451404572E-2  -3.488175198435783E-2  -1.585611552000046E-1  
 2.005625000000000E10   -8.552077226340771E-3   2.697136402130127E-1   9.141767024993897E-2  -5.161947757005692E-2   7.640648633241653E-2  -7.427544146776199E-2  -2.211362123489380E-2  -1.649266630411148E-1  
 2.005750000000000E10   -1.686211675405502E-2   2.751334905624390E-1   8.611981570720673E-2  -5.953725427389145E-2   6.920050084590912E-2  -7.878939807415009E-2  -2.994560264050961E-2  -1.678593754768372E-1  
 2.005875000000000E10   -2.709488570690155E-2   2.798171937465668E-1   8.018694072961807E-2  -6.758161634206772E-2   6.051152572035790E-2  -8.811391890048981E-2  -2.958978153765202E-2  -1.631036698818207E-1  
 2.006000000000000E10   -3.646048158407211E-2   2.826448380947113E-1   7.387692481279373E-2  -7.462215423583984E-2   5.363662540912628E-2  -9.144247323274612E-2  -3.217499330639839E-2  -1.717139929533005E-1  
 2.006125000000000E10   -4.641295224428177E-2   2.845410704612732E-1   6.849231570959091E-2  -8.047192543745041E-2   4.848444461822510E-2  -9.483706206083298E-2  -1.891796104609966E-2  -1.841253489255905E-1  
 2.006250000000000E10   -5.788503587245941E-2   2.854199409484863E-1   6.442862749099731E-2  -8.379369974136353E-2   4.235101863741875E-2  -9.782980382442474E-2  -2.768338844180107E-2  -1.813760995864868E-1  
 2.006375000000000E10   -6.904324889183044E-2   2.846624255180359E-1   6.183663010597229E-2  -8.603681623935700E-2   4.046402499079704E-2  -1.000434905290604E-1  -2.930310368537903E-2  -1.805307716131210E-1  
 2.006500000000000E10   -8.048987388610840E-2   2.839063107967377E-1   6.050727888941765E-2  -8.744260668754578E-2   3.755225613713265E-2  -9.851615875959396E-2  -1.920739747583866E-2  -1.805789619684219E-1  
 2.006625000000000E10   -9.126955270767212E-2   2.814148962497711E-1   5.852663889527321E-2  -8.887322247028351E-2   3.401932120323181E-2  -1.022389456629753E-1  -2.437702193856239E-2  -1.957146972417831E-1  
 2.006750000000000E10   -1.020358204841614E-1   2.780534327030182E-1   5.517671257257462E-2  -9.111042320728302E-2   3.199191391468048E-2  -1.039656996726990E-1  -1.794318482279778E-2  -1.938557028770447E-1  
 2.006875000000000E10   -1.121863573789597E-1   2.744977474212647E-1   5.033965781331062E-2  -9.446207433938980E-2   2.674262411892414E-2  -1.057220548391342E-1  -8.351568132638931E-3  -1.905202716588974E-1  
 2.007000000000000E10   -1.225679367780685E-1   2.707383036613464E-1   4.364730790257454E-2  -9.786622971296310E-2   1.551653724163771E-2  -1.041615456342697E-1  -1.569743268191814E-2  -1.865787357091904E-1  
 2.007125000000000E10   -1.323561668395996E-1   2.651618719100952E-1   3.483268618583679E-2  -1.014726683497429E-1   6.912389770150185E-3  -1.058252379298210E-1  -1.324469689279795E-2  -1.886965632438660E-1  
 2.007250000000000E10   -1.412988752126694E-1   2.596328556537628E-1   2.366361767053604E-2  -1.051561385393143E-1  -4.265210125595331E-3  -1.058224067091942E-1   2.995359012857080E-3  -1.966893523931503E-1  
 2.007375000000000E10   -1.494983285665512E-1   2.532051503658295E-1   1.022206246852875E-2  -1.076095327734947E-1  -1.813234388828278E-2  -1.032492369413376E-1  -1.086774049326778E-3  -1.879230141639710E-1  
 2.007500000000000E10   -1.574863940477371E-1   2.458649724721909E-1  -4.264900460839272E-3  -1.082109361886978E-1  -3.311629593372345E-2  -1.014299318194389E-1   1.767676905728877E-3  -1.939526051282883E-1  
 2.007625000000000E10   -1.652943342924118E-1   2.382804751396179E-1  -1.645035669207573E-2  -1.074772849678993E-1  -4.595525562763214E-2  -1.013529449701309E-1   1.073964219540358E-2  -2.006921619176865E-1  
 2.007750000000000E10   -1.717744022607803E-1   2.303279638290405E-1  -2.434032224118710E-2  -1.061013117432594E-1  -4.724260047078133E-2  -9.746769815683365E-2   2.050731517374516E-2  -1.897500306367874E-1  
 2.007875000000000E10   -1.770147830247879E-1   2.221332043409348E-1  -2.683829888701439E-2  -1.056066378951073E-1  -4.850643500685692E-2  -9.624627232551575E-2   2.040537446737289E-2  -1.949275881052017E-1  
 2.008000000000000E10   -1.822742223739624E-1   2.137973755598068E-1  -2.548526413738728E-2  -1.061161682009697E-1  -4.732169583439827E-2  -9.861148148775101E-2   3.390007466077805E-2  -2.009541541337967E-1  
 2.008125000000000E10   -1.864014267921448E-1   2.049542665481567E-1  -2.368081174790859E-2  -1.064071655273438E-1  -4.805684462189674E-2  -9.801361709833145E-2   2.645972743630409E-2  -1.919101327657700E-1  
 2.008250000000000E10   -1.901710927486420E-1   1.947759389877319E-1  -2.558957785367966E-2  -1.060530543327332E-1  -5.125972628593445E-2  -9.610360860824585E-2   2.641178295016289E-2  -1.927159279584885E-1  
 2.008375000000000E10   -1.926370561122894E-1   1.836596131324768E-1  -3.255606442689896E-2  -1.040550023317337E-1  -5.937268957495689E-2  -9.392736107110977E-2   3.140838071703911E-2  -2.018790245056152E-1  
 2.008500000000000E10   -1.946235150098801E-1   1.712704598903656E-1  -4.267676174640656E-2  -1.005385518074036E-1  -6.760205328464508E-2  -8.468347042798996E-2   3.675093501806259E-2  -1.870056092739105E-1  
 2.008625000000000E10   -1.957546621561050E-1   1.582341790199280E-1  -5.525799095630646E-2  -9.415066242218018E-2  -7.851481437683106E-2  -7.504300773143768E-2   5.077755451202393E-2  -1.946494430303574E-1  
 2.008750000000000E10   -1.974713206291199E-1   1.442277878522873E-1  -6.829141080379486E-2  -8.476652950048447E-2  -9.015230834484100E-2  -6.151773035526276E-2   4.288269951939583E-2  -1.881524026393890E-1  
 2.008875000000000E10   -2.001185417175293E-1   1.301905810832977E-1  -7.954784482717514E-2  -7.431656867265701E-2  -9.524079412221909E-2  -4.858040437102318E-2   4.732405766844750E-2  -1.817931234836578E-1  
 2.009000000000000E10   -2.008201032876968E-1   1.166012138128281E-1  -8.736544847488403E-2  -6.531217694282532E-2  -1.028401106595993E-1  -3.823439776897430E-2   5.787971243262291E-2  -1.808663010597229E-1  
 2.009125000000000E10   -2.014599889516830E-1   1.043315455317497E-1  -9.074960649013519E-2  -6.031481921672821E-2  -1.021022051572800E-1  -3.461584076285362E-2   6.161930784583092E-2  -1.834361553192139E-1  
 2.009250000000000E10   -2.012258768081665E-1   9.188943356275559E-2  -9.141534566879273E-2  -5.991446226835251E-2  -1.047023460268974E-1  -3.587057441473007E-2   6.954530626535416E-2  -1.734920442104340E-1  
 2.009375000000000E10   -2.000307440757752E-1   7.958859205245972E-2  -8.982052654027939E-2  -6.211965531110764E-2  -1.048442572355270E-1  -3.900746628642082E-2   6.410634517669678E-2  -1.789654493331909E-1  
 2.009500000000000E10   -1.986125856637955E-1   6.810396909713745E-2  -8.788498491048813E-2  -6.526169180870056E-2  -1.005639955401421E-1  -4.223934561014175E-2   7.046900689601898E-2  -1.686875075101852E-1  
 2.009625000000000E10   -1.956400573253632E-1   5.561881139874458E-2  -8.709065616130829E-2  -6.621165573596954E-2  -1.014337465167046E-1  -4.172705113887787E-2   8.155721426010132E-2  -1.711791753768921E-1  
 2.009750000000000E10   -1.923843324184418E-1   4.334862902760506E-2  -8.925080299377441E-2  -6.353652477264404E-2  -1.023549214005470E-1  -3.725428506731987E-2   7.375416159629822E-2  -1.669956743717194E-1  
 2.009875000000000E10   -1.893610507249832E-1   3.145277127623558E-2  -9.456048905849457E-2  -5.547898262739182E-2  -1.062804535031319E-1  -2.585126273334026E-2   7.472635805606842E-2  -1.609742343425751E-1  
 2.010000000000000E10   -1.850479990243912E-1   2.037758380174637E-2  -1.007388383150101E-1  -4.312923550605774E-2  -1.073762848973274E-1  -1.404353138059378E-2   6.995943188667297E-2  -1.518116593360901E-1  
 2.010125000000000E10   -1.797319948673248E-1   9.069680236279964E-3  -1.057843714952469E-1  -2.754161879420281E-2  -1.077084019780159E-1   5.532375536859036E-3   7.664154469966888E-2  -1.598392128944397E-1  
 2.010250000000000E10   -1.734143495559692E-1  -1.739021972753108E-4  -1.084336563944817E-1  -1.136640273034573E-2  -1.063092574477196E-1   1.874684169888496E-2   7.137027382850647E-2  -1.506634950637817E-1  
 2.010375000000000E10   -1.649747788906097E-1  -9.199953638017178E-3  -1.085935682058334E-1   2.121792873367667E-3  -1.052405312657356E-1   3.251418471336365E-2   7.228208333253861E-2  -1.587808877229691E-1  
 2.010500000000000E10   -1.553913503885269E-1  -1.816726662218571E-2  -1.077022999525070E-1   9.998505003750324E-3  -1.002904176712036E-1   3.957494720816612E-2   7.370186597108841E-2  -1.577575504779816E-1  
 2.010625000000000E10   -1.444979459047318E-1  -2.734272554516792E-2  -1.070556640625000E-1   1.293678488582373E-2  -1.007275134325028E-1   3.727941587567329E-2   7.289853692054749E-2  -1.451430469751358E-1  
 2.010750000000000E10   -1.325277537107468E-1  -3.719975054264069E-2  -1.067379489541054E-1   1.264435611665249E-2  -1.010291650891304E-1   3.743276745080948E-2   7.403300702571869E-2  -1.419456005096436E-1  
 2.010875000000000E10   -1.209033951163292E-1  -4.535874351859093E-2  -1.068166121840477E-1   1.097123418003321E-2  -1.017561629414558E-1   3.772657737135887E-2   6.522837281227112E-2  -1.281939446926117E-1  
 2.011000000000000E10   -1.084214523434639E-1  -5.431235209107399E-2  -1.063140481710434E-1   1.135464292019606E-2  -9.980099648237228E-2   3.694994375109673E-2   6.192222982645035E-2  -1.313690245151520E-1  
 2.011125000000000E10   -9.573280066251755E-2  -6.119751185178757E-2  -1.053552180528641E-1   1.525645889341831E-2  -9.730358421802521E-2   4.210183396935463E-2   6.427010148763657E-2  -1.246156692504883E-1  
 2.011250000000000E10   -8.285860717296600E-2  -6.783734261989594E-2  -1.038074418902397E-1   2.320362813770771E-2  -9.606838226318359E-2   5.034348741173744E-2   5.920770391821861E-2  -1.110669896006584E-1  
 2.011375000000000E10   -6.956687569618225E-2  -7.359023392200470E-2  -1.005437001585960E-1   3.407429903745651E-2  -8.602689206600189E-2   6.047200039029121E-2   5.008454993367195E-2  -1.242788359522820E-1  
 2.011500000000000E10   -5.591066554188728E-2  -7.771530002355576E-2  -9.541205316781998E-2   4.595789685845375E-2  -7.916875183582306E-2   6.910543143749237E-2   5.295672267675400E-2  -1.123242527246475E-1  
 2.011625000000000E10   -4.228163138031960E-2  -8.038843423128128E-2  -8.876767754554749E-2   5.720118433237076E-2  -7.006699591875076E-2   7.927499711513519E-2   5.172073841094971E-2  -1.171492114663124E-1  
