#  HZ   S   RI   R     50.00 
! Rohde & Schwarz ZVA40 4Ports - Version 3.90 - 1145.1110k42 SN: 100403
! Date: 2023-09-06 05:59:24
! Measurements: S11 S21 S12 S22 
! 
 2.000000000000000E10   -1.321201473474503E-1  -2.509228289127350E-1  -1.817763200961053E-3   4.826250660698861E-4  -7.298914133571088E-4   5.736487801186740E-4   1.588084548711777E-1  -5.435252934694290E-2  
 2.000125000000000E10   -1.280976384878159E-1  -2.517535984516144E-1  -1.829585526138544E-3   9.076030692085624E-4  -3.880703588947654E-4   2.159040886908770E-3   1.502839773893356E-1  -5.330303683876991E-2  
 2.000250000000000E10   -1.239496693015099E-1  -2.506149411201477E-1  -2.094103023409843E-3   1.139247207902372E-3  -1.435654819943011E-3   8.332254947163165E-4   1.487212032079697E-1  -4.529296234250069E-2  
 2.000375000000000E10   -1.186574324965477E-1  -2.495186179876328E-1  -1.987545285373926E-3   1.206187997013331E-3  -1.692797988653183E-3   2.772507723420858E-3   1.434996873140335E-1  -4.314599186182022E-2  
 2.000500000000000E10   -1.140764132142067E-1  -2.477323561906815E-1  -2.079584635794163E-3   1.417517312802374E-3  -2.194190397858620E-3   1.659818575717509E-3   1.440554857254028E-1  -3.173507004976273E-2  
 2.000625000000000E10   -1.090311855077744E-1  -2.432487756013870E-1  -1.921472605317831E-3   1.310031278990209E-3  -1.042634481564164E-3   2.712605055421591E-3   1.424643993377686E-1  -4.386093094944954E-2  
 2.000750000000000E10   -1.047131940722466E-1  -2.390311509370804E-1  -1.899552647955716E-3   1.259516226127744E-3  -1.475951517932117E-3   1.964634284377098E-3   1.449270993471146E-1  -3.483454510569572E-2  
 2.000875000000000E10   -1.001402437686920E-1  -2.329086214303970E-1  -1.693194499239326E-3   1.462317304685712E-3  -1.443184097297490E-3   1.586690777912736E-3   1.358163207769394E-1  -3.299080207943916E-2  
 2.001000000000000E10   -9.589622169733048E-2  -2.261238545179367E-1  -1.582971308380365E-3   1.611879328265786E-3  -2.173419343307614E-3   2.973739174194634E-4   1.314633488655090E-1  -3.956500068306923E-2  
 2.001125000000000E10   -9.103855490684509E-2  -2.177622914314270E-1  -1.448756898753345E-3   1.859704381786287E-3  -5.280445911921561E-4   2.603009575977922E-3   1.231018006801605E-1  -3.943167626857758E-2  
 2.001250000000000E10   -8.643084019422531E-2  -2.087298631668091E-1  -1.407855655997992E-3   2.161575481295586E-3  -2.322173677384853E-3   2.522981958463788E-3   1.236443370580673E-1  -4.550948366522789E-2  
 2.001375000000000E10   -8.188514411449432E-2  -1.978508532047272E-1  -1.289121340960264E-3   2.243512310087681E-3  -1.262413919903338E-3   1.954056555405259E-3   1.162071079015732E-1  -4.206662625074387E-2  
 2.001500000000000E10   -7.744139432907105E-2  -1.866562217473984E-1  -1.070889062248170E-3   2.493892097845674E-3  -7.275115349330008E-4   3.318806411698461E-3   1.095766574144363E-1  -3.875480219721794E-2  
 2.001625000000000E10   -7.379955053329468E-2  -1.741005480289459E-1  -1.090996665880084E-3   2.510697813704610E-3  -8.717450546100736E-4   2.371940994635224E-3   1.063038185238838E-1  -4.238761961460114E-2  
 2.001750000000000E10   -6.965414434671402E-2  -1.607000827789307E-1  -9.880450088530779E-4   2.746056066825986E-3  -8.823765092529357E-4   3.596701892092824E-3   1.000514924526215E-1  -3.994864225387573E-2  
 2.001875000000000E10   -6.614691019058228E-2  -1.456909179687500E-1  -9.594782022759318E-4   2.821777947247028E-3   4.824330972041935E-4   3.742329776287079E-3   9.119872748851776E-2  -4.927813634276390E-2  
 2.002000000000000E10   -6.313383579254150E-2  -1.303739249706268E-1  -7.787446957081556E-4   2.785162767395377E-3  -1.079436973668635E-3   3.071106271818280E-3   8.864278346300125E-2  -4.123055562376976E-2  
 2.002125000000000E10   -5.902997776865959E-2  -1.141150519251823E-1  -6.808010512031615E-4   2.975896233692765E-3   7.996546628419310E-5   2.973640803247690E-3   8.380438387393951E-2  -4.653048142790794E-2  
 2.002250000000000E10   -5.517273768782616E-2  -9.726101905107498E-2  -6.060047307983041E-4   3.092053346335888E-3   2.275435253977776E-4   3.976387903094292E-3   8.380869030952454E-2  -3.880064934492111E-2  
 2.002375000000000E10   -5.216118320822716E-2  -7.946050912141800E-2  -2.810509467963129E-4   3.124912502244115E-3   3.090818645432591E-4   3.904056269675493E-3   7.077653706073761E-2  -4.095308855175972E-2  
 2.002500000000000E10   -4.868784919381142E-2  -6.055367365479469E-2  -1.991987373912707E-4   3.423893358558416E-3  -8.810147992335260E-4   3.453448647633195E-3   5.969552323222160E-2  -5.490135401487351E-2  
 2.002625000000000E10   -4.571354761719704E-2  -4.108300060033798E-2   2.688537642825395E-4   3.689070697873831E-3   1.683022943325341E-3   3.287344705313444E-3   7.010918110609055E-2  -5.280133336782455E-2  
 2.002750000000000E10   -4.329064115881920E-2  -2.228942140936852E-2   4.827103985007852E-4   3.906116820871830E-3   1.869671745225787E-3   4.360311664640904E-3   5.836919695138931E-2  -6.237439811229706E-2  
 2.002875000000000E10   -4.110698401927948E-2  -2.208187710493803E-3   9.507782524451613E-4   3.842068836092949E-3   2.240769332274795E-3   3.232484450563788E-3   5.675120279192925E-2  -5.125693976879120E-2  
 2.003000000000000E10   -3.870752826333046E-2   1.718037948012352E-2   1.150280470028520E-3   3.820315701887012E-3   3.705319482833147E-3   3.332123858854175E-3   4.975347965955734E-2  -5.592164769768715E-2  
 2.003125000000000E10   -3.628524020314217E-2   3.799779340624809E-2   1.483982079662383E-3   3.536886302754283E-3   3.106799675151706E-3   4.183844663202763E-3   3.952896222472191E-2  -6.807862222194672E-2  
 2.003250000000000E10   -3.355043008923531E-2   5.851507931947708E-2   1.535956398583949E-3   3.310378640890122E-3   1.770871342159808E-3   3.178365528583527E-3   3.967268019914627E-2  -6.905813515186310E-2  
 2.003375000000000E10   -3.139999508857727E-2   7.830478996038437E-2   1.730382675305009E-3   3.197419689968228E-3   2.655878663063049E-3   4.104494117200375E-3   2.907712012529373E-2  -7.224629074335098E-2  
 2.003500000000000E10   -3.006304986774921E-2   9.963794052600861E-2   1.956393243744969E-3   3.203642787411809E-3   1.948512042872608E-3   3.265821374952793E-3   3.070466592907906E-2  -7.687164098024368E-2  
 2.003625000000000E10   -2.886850014328957E-2   1.201557889580727E-1   2.082544146105647E-3   3.006817307323217E-3   3.275406081229448E-3   1.758163445629180E-3   2.281197533011437E-2  -8.010897040367127E-2  
 2.003750000000000E10   -2.837242372334003E-2   1.409060657024384E-1   2.460807794705033E-3   2.935401163995266E-3   1.786828157491982E-3   1.993509475141764E-3   2.033576741814613E-2  -8.677895367145538E-2  
 2.003875000000000E10   -2.772049233317375E-2   1.604766547679901E-1   2.752596512436867E-3   2.990379231050611E-3   3.681072266772389E-3   2.215212909504771E-3   2.179780788719654E-2  -9.154286235570908E-2  
 2.004000000000000E10   -2.736629173159599E-2   1.796562671661377E-1   2.865350106731057E-3   2.964203944429755E-3   3.457057755440474E-3   2.296132268384099E-3   6.482602097094059E-3  -9.504082053899765E-2  
 2.004125000000000E10   -2.641604095697403E-2   1.994428634643555E-1   2.923711203038693E-3   2.972335554659367E-3   2.388671506196261E-3   3.894730471074581E-4   6.297112908214331E-3  -1.041440889239311E-1  
 2.004250000000000E10   -2.604229561984539E-2   2.184703201055527E-1   3.204419976100326E-3   2.870451658964157E-3   2.006939146667719E-3   1.819142256863415E-3   2.712025889195502E-4  -1.046544983983040E-1  
 2.004375000000000E10   -2.680355496704578E-2   2.360127866268158E-1   3.251213813200593E-3   2.781912218779326E-3   3.574052127078176E-3   1.312374835833907E-3   4.060030914843082E-3  -9.560002386569977E-2  
 2.004500000000000E10   -2.794399484992027E-2   2.535109221935272E-1   3.461091313511133E-3   2.666862914338708E-3   3.651561448350549E-3   3.116358770057559E-3  -1.056320406496525E-2  -1.203210502862930E-1  
 2.004625000000000E10   -2.877700515091419E-2   2.705417573451996E-1   3.701796755194664E-3   2.428478561341763E-3   5.067760590463877E-3   2.827105810865760E-3  -5.804182495921850E-3  -1.292381137609482E-1  
 2.004750000000000E10   -2.933768928050995E-2   2.860509455204010E-1   3.899273928254843E-3   2.150368178263307E-3   3.656434826552868E-3   1.072339829988778E-3  -4.906812682747841E-3  -1.229055970907211E-1  
 2.004875000000000E10   -2.940911240875721E-2   3.009529411792755E-1   3.980741836130619E-3   1.930277561768889E-3   3.852390451356769E-3   3.827481996268034E-4  -1.262505818158388E-2  -1.396854668855667E-1  
 2.005000000000000E10   -3.120537288486958E-2   3.142360448837280E-1   4.154018126428127E-3   1.962339505553246E-3   4.465214442461729E-3   6.040714797563851E-4  -1.462049782276154E-2  -1.384118497371674E-1  
 2.005125000000000E10   -3.278669342398644E-2   3.278548419475555E-1   4.369270056486130E-3   1.769368303939700E-3   5.432443227618933E-3   7.003244245424867E-4  -1.565874740481377E-2  -1.397799253463745E-1  
 2.005250000000000E10   -3.429207578301430E-2   3.393878340721130E-1   4.545307252556086E-3   1.568910083733499E-3   4.065815825015307E-3  -7.563750259578228E-4  -1.223274040967226E-2  -1.481720507144928E-1  
 2.005375000000000E10   -3.551957011222839E-2   3.504768610000610E-1   4.823700059205294E-3   1.538596116006374E-3   5.794298369437456E-3   4.036940226797015E-4  -1.364074461162090E-2  -1.561027914285660E-1  
 2.005500000000000E10   -3.706889227032661E-2   3.599828779697418E-1   5.133161786943674E-3   9.898039279505611E-4   5.334672052413225E-3   1.300829608226195E-4  -1.186289824545384E-2  -1.556529849767685E-1  
 2.005625000000000E10   -3.983698040246964E-2   3.673910796642304E-1   5.139898508787155E-3   6.663489621132612E-4   5.860096309334040E-3  -1.702879555523396E-3  -1.750636287033558E-2  -1.648154258728027E-1  
 2.005750000000000E10   -4.234439134597778E-2   3.733497560024262E-1   5.311753135174513E-3   1.126398055930622E-4   5.387549754232168E-3  -8.630930096842349E-4  -2.522833878174424E-3  -1.728182137012482E-1  
 2.005875000000000E10   -4.488973319530487E-2   3.781335651874542E-1   5.217291880398989E-3  -2.147097548004240E-4   6.446638610213995E-3  -2.545799827203155E-3  -1.771706528961659E-2  -1.764118820428848E-1  
 2.006000000000000E10   -4.624236375093460E-2   3.817267715930939E-1   5.316224880516529E-3  -7.293332600966096E-4   5.166428629308939E-3  -3.573072375729680E-3  -8.571600541472435E-3  -1.828542649745941E-1  
 2.006125000000000E10   -4.791350662708283E-2   3.842665255069733E-1   5.307824350893498E-3  -8.243128540925682E-4   4.000059328973293E-3  -2.451704815030098E-3  -6.494909524917603E-3  -1.954425871372223E-1  
 2.006250000000000E10   -5.057952553033829E-2   3.851791620254517E-1   5.256882868707180E-3  -9.606815874576569E-4   4.812790546566248E-3  -1.727669266983867E-3  -6.183622404932976E-3  -1.874390691518784E-1  
 2.006375000000000E10   -5.267361178994179E-2   3.849800527095795E-1   5.024510435760021E-3  -1.330288941971958E-3   3.531424561515451E-3  -2.290051197633147E-3  -5.117861088365316E-3  -1.972187459468842E-1  
 2.006500000000000E10   -5.549985915422440E-2   3.838972747325897E-1   4.989307839423418E-3  -1.528493594378233E-3   4.797216504812241E-3  -3.341103903949261E-3  -5.809011869132519E-3  -1.979984045028687E-1  
 2.006625000000000E10   -5.906352028250694E-2   3.810513019561768E-1   5.028537940233946E-3  -1.837958116084337E-3   4.659803118556738E-3  -4.000397399067879E-3  -1.224740967154503E-2  -2.023825645446777E-1  
 2.006750000000000E10   -6.093291193246841E-2   3.776133358478546E-1   5.021413788199425E-3  -2.171157160773873E-3   4.873904865235090E-3  -4.546563141047955E-3   3.423170419409871E-3  -2.036606073379517E-1  
 2.006875000000000E10   -6.335499137639999E-2   3.719810545444489E-1   4.947820678353310E-3  -2.616005484014750E-3   3.631468396633863E-3  -4.335745237767696E-3   9.971757419407368E-3  -2.030606716871262E-1  
 2.007000000000000E10   -6.514133512973785E-2   3.644987940788269E-1   4.867422860115767E-3  -2.996232593432069E-3   4.568987060338259E-3  -3.062180709093809E-3   2.966089872643352E-3  -2.049422711133957E-1  
 2.007125000000000E10   -6.683020293712616E-2   3.560115396976471E-1   4.814414773136377E-3  -3.370451275259256E-3   2.533416030928493E-3  -4.680833313614130E-3   7.436594460159540E-3  -2.093886584043503E-1  
 2.007250000000000E10   -6.873597204685211E-2   3.468097746372223E-1   4.569714423269033E-3  -3.832955844700337E-3   3.314842004328966E-3  -4.902044776827097E-3   1.620858721435070E-2  -2.163967937231064E-1  
 2.007375000000000E10   -7.031489908695221E-2   3.369768559932709E-1   4.335915669798851E-3  -4.120201803743839E-3   2.543750684708357E-3  -5.579870194196701E-3   1.145001035183668E-2  -2.207640111446381E-1  
 2.007500000000000E10   -7.204754650592804E-2   3.247802257537842E-1   4.111365880817175E-3  -4.434688482433558E-3   1.852953224442899E-3  -6.183098070323467E-3   1.484117377549410E-2  -2.249336391687393E-1  
 2.007625000000000E10   -7.289318740367889E-2   3.123889565467835E-1   3.925486467778683E-3  -4.689330235123634E-3   2.733555622398853E-3  -4.669600632041693E-3   2.086683548986912E-2  -2.112102508544922E-1  
 2.007750000000000E10   -7.496310770511627E-2   2.970146834850311E-1   3.540936624631286E-3  -4.894943907856941E-3   2.799436217173934E-3  -5.875729024410248E-3   2.555485628545284E-2  -2.164503335952759E-1  
 2.007875000000000E10   -7.521169632673264E-2   2.819916903972626E-1   3.318354021757841E-3  -5.003029014915228E-3   3.294375957921147E-3  -4.887861665338278E-3   2.906400896608830E-2  -2.197335660457611E-1  
 2.008000000000000E10   -7.659368216991425E-2   2.654160559177399E-1   3.067460842430592E-3  -4.967501852661371E-3   1.625191420316696E-3  -5.400545895099640E-3   2.108777873218060E-2  -2.170387804508209E-1  
 2.008125000000000E10   -7.666502147912979E-2   2.485587447881699E-1   2.767524449154735E-3  -5.251318681985140E-3   1.264262478798628E-3  -7.515012752264738E-3   3.672580420970917E-2  -2.173753529787064E-1  
 2.008250000000000E10   -7.793401181697846E-2   2.303416877985001E-1   2.425015904009342E-3  -5.398049019277096E-3   1.207989989779890E-3  -6.138269789516926E-3   4.085361957550049E-2  -2.157279402017593E-1  
 2.008375000000000E10   -7.877224683761597E-2   2.119839936494827E-1   2.109419554471970E-3  -5.524327978491783E-3   1.200607861392200E-3  -5.337867885828018E-3   3.202692046761513E-2  -2.136715054512024E-1  
 2.008500000000000E10   -7.865301519632340E-2   1.925251036882401E-1   1.844142796471715E-3  -5.764464382082224E-3   3.314291534479708E-4  -6.581046618521214E-3   4.293650016188622E-2  -2.172465026378632E-1  
 2.008625000000000E10   -7.965325564146042E-2   1.733800917863846E-1   1.535774441435933E-3  -6.035537924617529E-3   1.083547947928309E-3  -6.165525875985622E-3   4.266314953565598E-2  -2.080773711204529E-1  
 2.008750000000000E10   -8.074964582920075E-2   1.528278738260269E-1   1.402443507686257E-3  -6.161935161799192E-3   7.523528765887022E-4  -6.312147248536348E-3   5.001994967460632E-2  -2.149951905012131E-1  
 2.008875000000000E10   -8.066178113222122E-2   1.327448487281799E-1   1.253256457857788E-3  -6.264909170567989E-3   1.015177040244453E-4  -6.191871594637632E-3   4.057456925511360E-2  -2.111362516880035E-1  
 2.009000000000000E10   -8.078110963106155E-2   1.126729920506477E-1   1.051461091265082E-3  -6.372789852321148E-3  -2.162647724617273E-4  -6.162011530250311E-3   5.422344058752060E-2  -1.977242082357407E-1  
 2.009125000000000E10   -8.083515614271164E-2   9.240722656250000E-2   7.745770271867514E-4  -6.414720788598061E-3  -7.965601253090426E-5  -7.673116866499186E-3   4.818128049373627E-2  -2.052416652441025E-1  
 2.009250000000000E10   -8.057563751935959E-2   7.247688621282578E-2   5.185086047276855E-4  -6.590724922716618E-3  -3.567761450540274E-4  -6.329618860036135E-3   4.255042970180512E-2  -1.913803815841675E-1  
 2.009375000000000E10   -8.036465197801590E-2   5.243709683418274E-2  -1.691197394393385E-5  -6.741711404174566E-3  -2.942213555797935E-3  -6.845869123935700E-3   5.850973725318909E-2  -1.879092156887054E-1  
 2.009500000000000E10   -7.935047149658203E-2   3.220690786838532E-2  -6.445483304560185E-4  -6.623548921197653E-3  -2.402142854407430E-3  -7.063627708703280E-3   4.987698420882225E-2  -1.963431239128113E-1  
 2.009625000000000E10   -7.840701192617416E-2   1.305314712226391E-2  -1.228611683472991E-3  -6.605751346796751E-3  -3.704933915287256E-3  -6.131158210337162E-3   4.988731816411018E-2  -1.743289083242416E-1  
 2.009750000000000E10   -7.796793431043625E-2  -5.045406054705381E-3  -1.791448565199971E-3  -6.589076481759548E-3  -3.504252992570400E-3  -5.097040440887213E-3   4.928332567214966E-2  -1.899692714214325E-1  
 2.009875000000000E10   -7.702518254518509E-2  -2.370770834386349E-2  -2.250158460810781E-3  -6.651625968515873E-3  -4.692509770393372E-3  -4.717925097793341E-3   5.297616124153137E-2  -1.704998016357422E-1  
 2.010000000000000E10   -7.640586793422699E-2  -4.287751019001007E-2  -2.728823106735945E-3  -6.293611135333777E-3  -3.857466625049710E-3  -4.622397478669882E-3   5.822722613811493E-2  -1.755213588476181E-1  
 2.010125000000000E10   -7.478359341621399E-2  -6.055305153131485E-2  -3.104635747149587E-3  -6.120993755757809E-3  -4.754103720188141E-3  -4.525123629719019E-3   5.687213316559792E-2  -1.619415432214737E-1  
 2.010250000000000E10   -7.197505235671997E-2  -7.816168665885925E-2  -3.397169057279825E-3  -5.902497097849846E-3  -5.084844771772623E-3  -5.279574077576399E-3   5.388865992426872E-2  -1.507057398557663E-1  
 2.010375000000000E10   -6.960922479629517E-2  -9.378566592931747E-2  -3.763496875762940E-3  -5.381101276725531E-3  -4.820366855710745E-3  -4.106630105525255E-3   6.079622358083725E-2  -1.616532504558563E-1  
 2.010500000000000E10   -6.647986918687820E-2  -1.095416098833084E-1  -3.679568180814385E-3  -4.963754676282406E-3  -5.012027919292450E-3  -3.191947238519788E-3   4.683426767587662E-2  -1.492628455162048E-1  
 2.010625000000000E10   -6.327536702156067E-2  -1.237118914723396E-1  -3.770451992750168E-3  -4.681332036852837E-3  -5.645869299769402E-3  -3.695878898724914E-3   5.480491742491722E-2  -1.496715396642685E-1  
 2.010750000000000E10   -6.121476739645004E-2  -1.360317617654800E-1  -3.692613448947668E-3  -4.564712755382061E-3  -4.855146631598473E-3  -2.967118285596371E-3   5.803883448243141E-2  -1.477257311344147E-1  
 2.010875000000000E10   -5.811329185962677E-2  -1.471606791019440E-1  -4.032512661069632E-3  -4.379905760288239E-3  -5.912507418543100E-3  -4.577049519866705E-3   4.038582742214203E-2  -1.296244114637375E-1  
 2.011000000000000E10   -5.569359660148621E-2  -1.575035154819489E-1  -4.395733121782541E-3  -4.401565529406071E-3  -5.594865418970585E-3  -3.235744079574943E-3   3.844334930181503E-2  -1.295443624258041E-1  
 2.011125000000000E10   -5.259134247899056E-2  -1.666303426027298E-1  -4.620374646037817E-3  -4.183449316769838E-3  -6.655540782958269E-3  -2.989478176459670E-3   4.412120953202248E-2  -1.279234588146210E-1  
 2.011250000000000E10   -4.942685738205910E-2  -1.747127920389175E-1  -5.158321931958199E-3  -4.008298274129629E-3  -5.835079587996006E-3  -2.591892844066024E-3   3.264098986983299E-2  -1.231458187103272E-1  
 2.011375000000000E10   -4.494913294911385E-2  -1.819283813238144E-1  -5.590061191469431E-3  -3.819393692538142E-3  -6.321162916719914E-3  -1.797547680325806E-3   2.984209358692169E-2  -1.098870187997818E-1  
 2.011500000000000E10   -4.089185968041420E-2  -1.873461604118347E-1  -5.742295179516077E-3  -3.436621511355043E-3  -6.508373655378819E-3  -1.473556272685528E-3   3.865522518754005E-2  -1.044834256172180E-1  
 2.011625000000000E10   -3.578005731105804E-2  -1.918821036815643E-1  -5.867211613804102E-3  -3.120489418506622E-3  -5.465201567858458E-3  -7.586069987155497E-4   3.171071782708168E-2  -1.151143312454224E-1  
