#  HZ   S   RI   R     50.00 
! Rohde & Schwarz ZVA40 4Ports - Version 3.90 - 1145.1110k42 SN: 100403
! Date: 2023-09-06 06:58:02
! Measurements: S11 S21 S12 S22 
! 
 2.000000000000000E10   -1.329455524682999E-1  -1.593543887138367E-1  -3.777595236897469E-2   9.578929096460342E-2  -9.527647867798805E-3   1.031968146562576E-1   1.333552449941635E-1  -5.124165490269661E-2  
 2.000125000000000E10   -1.232190951704979E-1  -1.614900380373001E-1  -3.060750290751457E-2   9.818346798419952E-2  -3.337995382025838E-3   1.050990968942642E-1   1.345430165529251E-1  -5.192441120743752E-2  
 2.000250000000000E10   -1.129681020975113E-1  -1.614082306623459E-1  -2.339557744562626E-2   1.004704982042313E-1   3.484131069853902E-3   1.040590852499008E-1   1.308470070362091E-1  -4.820933192968369E-2  
 2.000375000000000E10   -1.016497835516930E-1  -1.614727228879929E-1  -1.710461638867855E-2   1.019168421626091E-1   1.087206788361073E-2   1.043313145637512E-1   1.362256556749344E-1  -4.893706366419792E-2  
 2.000500000000000E10   -9.129276871681213E-2  -1.592915803194046E-1  -1.046845130622387E-2   1.029660776257515E-1   1.645518280565739E-2   1.030432283878326E-1   1.336021721363068E-1  -4.355728253722191E-2  
 2.000625000000000E10   -8.000624924898148E-2  -1.566952466964722E-1  -3.729770658537746E-3   1.036127209663391E-1   2.306164614856243E-2   1.006879284977913E-1   1.260922104120255E-1  -4.046181216835976E-2  
 2.000750000000000E10   -6.868094205856323E-2  -1.549086421728134E-1   3.227411536499858E-3   1.039893105626106E-1   3.013887815177441E-2   9.995423257350922E-2   1.322223097085953E-1  -5.080850422382355E-2  
 2.000875000000000E10   -5.690580233931541E-2  -1.518192738294601E-1   1.036036293953657E-2   1.038765832781792E-1   3.803522139787674E-2   9.724763035774231E-2   1.183079183101654E-1  -4.002191871404648E-2  
 2.001000000000000E10   -4.557258635759354E-2  -1.468070447444916E-1   1.716155745089054E-2   1.029846817255020E-1   4.548158869147301E-2   9.483588486909866E-2   1.224460527300835E-1  -3.415283560752869E-2  
 2.001125000000000E10   -3.478927537798882E-2  -1.424936503171921E-1   2.423427812755108E-2   1.014249324798584E-1   5.058369785547257E-2   9.350265562534332E-2   1.107092872262001E-1  -3.711845725774765E-2  
 2.001250000000000E10   -2.403711155056953E-2  -1.370133310556412E-1   3.105611912906170E-2   9.969302266836166E-2   5.916014686226845E-2   8.648797869682312E-2   1.170777007937431E-1  -4.487142339348793E-2  
 2.001375000000000E10   -1.450032368302345E-2  -1.306753903627396E-1   3.764337673783302E-2   9.762390702962875E-2   6.549960374832153E-2   8.413352817296982E-2   1.090703159570694E-1  -3.970020636916161E-2  
 2.001500000000000E10   -4.660950042307377E-3  -1.233822777867317E-1   4.408601298928261E-2   9.492209553718567E-2   7.002775371074677E-2   8.108370751142502E-2   1.028361767530441E-1  -3.577422350645065E-2  
 2.001625000000000E10    4.888639319688082E-3  -1.160098463296890E-1   5.042855814099312E-2   9.198268502950668E-2   7.638094574213028E-2   7.634564489126205E-2   9.669259190559387E-2  -3.842912241816521E-2  
 2.001750000000000E10    1.342080999165773E-2  -1.067015677690506E-1   5.643718317151070E-2   8.828340470790863E-2   7.796768844127655E-2   7.128033787012100E-2   9.597394615411758E-2  -3.818332403898239E-2  
 2.001875000000000E10    2.145489118993282E-2  -9.667771309614182E-2   6.252131611108780E-2   8.422675728797913E-2   8.273275941610336E-2   6.647617369890213E-2   7.347990572452545E-2  -4.296141490340233E-2  
 2.002000000000000E10    2.903559990227222E-2  -8.639494329690933E-2   6.846721470355988E-2   7.946565747261047E-2   8.912216126918793E-2   6.037519499659538E-2   7.288644462823868E-2  -4.008503630757332E-2  
 2.002125000000000E10    3.697679936885834E-2  -7.401934266090393E-2   7.358274608850479E-2   7.459063082933426E-2   8.973034471273422E-2   5.533954873681068E-2   6.967852264642716E-2  -4.148000106215477E-2  
 2.002250000000000E10    4.380949214100838E-2  -6.256468594074249E-2   7.788142561912537E-2   6.984338909387589E-2   9.505278617143631E-2   4.919547960162163E-2   6.893309950828552E-2  -5.147865787148476E-2  
 2.002375000000000E10    5.028276890516281E-2  -4.984811320900917E-2   8.246305584907532E-2   6.421065330505371E-2   9.709450602531433E-2   4.049655050039291E-2   6.663207709789276E-2  -4.908794909715653E-2  
 2.002500000000000E10    5.606168136000633E-2  -3.723542764782906E-2   8.644055575132370E-2   5.872343853116036E-2   9.897498786449432E-2   3.662078827619553E-2   5.976742878556252E-2  -5.060119926929474E-2  
 2.002625000000000E10    6.146747991442680E-2  -2.406457252800465E-2   9.023569524288178E-2   5.277565866708756E-2   1.015496775507927E-1   2.750213257968426E-2   5.894699320197105E-2  -4.498327523469925E-2  
 2.002750000000000E10    6.640537083148956E-2  -9.949944913387299E-3   9.388637542724609E-2   4.663152992725372E-2   1.048451289534569E-1   2.200563997030258E-2   4.560147598385811E-2  -5.676757916808128E-2  
 2.002875000000000E10    7.045850902795792E-2   3.875045105814934E-3   9.672899544239044E-2   4.053138568997383E-2   1.040803194046021E-1   1.654027402400971E-2   4.405619576573372E-2  -5.133699253201485E-2  
 2.003000000000000E10    7.435299456119537E-2   1.808170974254608E-2   9.932290017604828E-2   3.437943384051323E-2   1.024058237671852E-1   8.632463403046131E-3   3.394159302115440E-2  -6.685015559196472E-2  
 2.003125000000000E10    7.716862857341766E-2   3.338328376412392E-2   1.015535816550255E-1   2.787267230451107E-2   1.071457862854004E-1   3.127991920337081E-3   2.609819360077381E-2  -6.744072586297989E-2  
 2.003250000000000E10    7.970097661018372E-2   4.781838133931160E-2   1.031616851687431E-1   2.132492884993553E-2   1.057309210300446E-1  -7.045504637062550E-3   2.447623200714588E-2  -6.835644692182541E-2  
 2.003375000000000E10    8.150541782379150E-2   6.221847236156464E-2   1.043692827224731E-1   1.437216997146606E-2   1.043068766593933E-1  -1.216923259198666E-2   2.401123009622097E-2  -7.697338610887528E-2  
 2.003500000000000E10    8.302823454141617E-2   7.641550898551941E-2   1.050252467393875E-1   7.635802496224642E-3   1.044263392686844E-1  -2.127842046320438E-2   1.215796824544668E-2  -8.034097403287888E-2  
 2.003625000000000E10    8.393689990043640E-2   9.112014621496201E-2   1.053813025355339E-1   7.033700821921229E-4   1.028538644313812E-1  -2.775856480002403E-2   7.638602051883936E-3  -7.124136388301849E-2  
 2.003750000000000E10    8.272006362676621E-2   1.049414128065109E-1   1.050761193037033E-1  -6.672928109765053E-3   1.005651056766510E-1  -3.438228741288185E-2   4.358544247224927E-4  -8.802390843629837E-2  
 2.003875000000000E10    8.188188076019287E-2   1.191435977816582E-1   1.044251695275307E-1  -1.368055865168572E-2   9.567473083734512E-2  -3.942114859819412E-2  -7.195635698735714E-4  -9.426549077033997E-2  
 2.004000000000000E10    7.943035662174225E-2   1.335732340812683E-1   1.034107059240341E-1  -2.083167806267738E-2   9.418901801109314E-2  -4.590088129043579E-2  -5.970664322376251E-3  -9.380009025335312E-2  
 2.004125000000000E10    7.692082971334457E-2   1.462447345256805E-1   1.016349568963051E-1  -2.747846953570843E-2   9.019836038351059E-2  -5.332778021693230E-2  -1.342851575464010E-2  -1.021470949053764E-1  
 2.004250000000000E10    7.361172139644623E-2   1.597868055105209E-1   9.974675625562668E-2  -3.405234962701798E-2   8.797560632228851E-2  -5.979010462760925E-2  -1.536034513264895E-2  -1.008290275931358E-1  
 2.004375000000000E10    7.008813321590424E-2   1.720787435770035E-1   9.732554852962494E-2  -4.052643850445747E-2   8.294884860515595E-2  -6.491233408451080E-2  -1.954998448491097E-2  -1.020184904336929E-1  
 2.004500000000000E10    6.502976268529892E-2   1.843536496162415E-1   9.434858709573746E-2  -4.694880917668343E-2   7.977670431137085E-2  -6.921679526567459E-2  -2.518923208117485E-2  -1.059823781251907E-1  
 2.004625000000000E10    5.944872274994850E-2   1.959102898836136E-1   9.104716032743454E-2  -5.321821570396423E-2   7.226492464542389E-2  -7.484798133373261E-2  -3.169387578964233E-2  -1.150187626481056E-1  
 2.004750000000000E10    5.359058827161789E-2   2.068386673927307E-1   8.711373060941696E-2  -5.916399508714676E-2   6.964617222547531E-2  -7.861643284559250E-2  -3.215789422392845E-2  -1.246606707572937E-1  
 2.004875000000000E10    4.732601344585419E-2   2.175694108009338E-1   8.306831121444702E-2  -6.509314477443695E-2   6.261025369167328E-2  -8.445519953966141E-2  -3.963593766093254E-2  -1.255427747964859E-1  
 2.005000000000000E10    3.968553617596626E-2   2.272633463144302E-1   7.848884165287018E-2  -7.028566300868988E-2   5.598246678709984E-2  -8.941772580146790E-2  -2.659423463046551E-2  -1.228720396757126E-1  
 2.005125000000000E10    3.212951868772507E-2   2.369332462549210E-1   7.367837429046631E-2  -7.537925988435745E-2   5.076034739613533E-2  -9.297034889459610E-2  -2.605500258505344E-2  -1.354086548089981E-1  
 2.005250000000000E10    2.368216216564179E-2   2.445111870765686E-1   6.831260025501251E-2  -8.017822355031967E-2   4.735255613923073E-2  -9.589798748493195E-2  -3.078845143318176E-2  -1.319452375173569E-1  
 2.005375000000000E10    1.545266062021256E-2   2.529962062835693E-1   6.270006299018860E-2  -8.467360585927963E-2   3.833476826548576E-2  -9.795338660478592E-2  -3.659661486744881E-2  -1.524291187524796E-1  
 2.005500000000000E10    5.771552212536335E-3   2.590300738811493E-1   5.679777264595032E-2  -8.853860199451447E-2   3.206524252891541E-2  -9.960265457630158E-2  -2.924176119267941E-2  -1.466709822416306E-1  
 2.005625000000000E10   -3.057766705751419E-3   2.641306817531586E-1   5.051935836672783E-2  -9.193033725023270E-2   2.511658705770969E-2  -9.943461418151856E-2  -2.806165814399719E-2  -1.565031409263611E-1  
 2.005750000000000E10   -1.326101459562779E-2   2.699586451053619E-1   4.423409700393677E-2  -9.510886669158936E-2   1.878068037331104E-2  -1.038519367575645E-1  -2.985981851816177E-2  -1.607824414968491E-1  
 2.005875000000000E10   -2.397987432777882E-2   2.729141116142273E-1   3.756472840905190E-2  -9.751806408166885E-2   1.140973810106516E-2  -1.017425507307053E-1  -3.102655336260796E-2  -1.584299355745316E-1  
 2.006000000000000E10   -3.282300010323525E-2   2.751256227493286E-1   3.133172541856766E-2  -9.988362342119217E-2   6.048803217709065E-3  -1.041875407099724E-1  -2.979826182126999E-2  -1.688286066055298E-1  
 2.006125000000000E10   -4.336924850940704E-2   2.775325179100037E-1   2.490093000233173E-2  -1.016498953104019E-1  -7.837408920750022E-4  -1.032411530613899E-1  -2.324471063911915E-2  -1.684633344411850E-1  
 2.006250000000000E10   -5.437825992703438E-2   2.793587148189545E-1   1.869274117052555E-2  -1.032872647047043E-1  -7.221205160021782E-3  -1.020953506231308E-1  -1.658608578145504E-2  -1.613681167364121E-1  
 2.006375000000000E10   -6.434531509876251E-2   2.785554230213165E-1   1.177092175930738E-2  -1.041862815618515E-1  -1.373645197600126E-2  -1.017513424158096E-1  -2.265519276261330E-2  -1.736567169427872E-1  
 2.006500000000000E10   -7.547471672296524E-2   2.778724431991577E-1   5.137467756867409E-3  -1.048931106925011E-1  -2.110546082258225E-2  -1.011465340852737E-1  -2.126828208565712E-2  -1.784896850585938E-1  
 2.006625000000000E10   -8.637662976980209E-2   2.760847210884094E-1  -1.733062206767499E-3  -1.053024977445602E-1  -2.622693218290806E-2  -1.023127064108849E-1  -1.271271891891956E-2  -1.844631284475327E-1  
 2.006750000000000E10   -9.650386124849320E-2   2.735124230384827E-1  -8.615194819867611E-3  -1.047739312052727E-1  -3.326867520809174E-2  -9.772936999797821E-2  -1.047541853040457E-2  -1.759383231401444E-1  
 2.006875000000000E10   -1.075403913855553E-1   2.701961398124695E-1  -1.572626642882824E-2  -1.039576828479767E-1  -4.366652667522430E-2  -9.613911807537079E-2  -1.298201922327280E-2  -1.842399835586548E-1  
 2.007000000000000E10   -1.175784468650818E-1   2.665635347366333E-1  -2.287326939404011E-2  -1.028532385826111E-1  -4.875853657722473E-2  -9.369584918022156E-2  -6.973621784709394E-4  -1.924142688512802E-1  
 2.007125000000000E10   -1.277386993169785E-1   2.604205906391144E-1  -2.951246686279774E-2  -1.010812073945999E-1  -5.381933227181435E-2  -8.990069478750229E-2  -1.873852917924523E-3  -1.907218098640442E-1  
 2.007250000000000E10   -1.377942711114883E-1   2.553786635398865E-1  -3.639852628111839E-2  -9.868808090686798E-2  -6.018779426813126E-2  -8.976604789495468E-2   1.420716755092144E-2  -1.963920742273331E-1  
 2.007375000000000E10   -1.473326981067658E-1   2.488472610712051E-1  -4.300254583358765E-2  -9.614039957523346E-2  -6.449884921312332E-2  -8.096293359994888E-2   1.826349459588528E-2  -1.878197789192200E-1  
 2.007500000000000E10   -1.566234380006790E-1   2.414760887622833E-1  -4.939307272434235E-2  -9.302587062120438E-2  -7.009546458721161E-2  -7.818455249071121E-2   1.795874163508415E-2  -1.925234049558640E-1  
 2.007625000000000E10   -1.650507003068924E-1   2.339152246713638E-1  -5.582312121987343E-2  -8.940219879150391E-2  -7.456552237272263E-2  -7.075695693492889E-2   2.674575708806515E-2  -1.872119009494782E-1  
 2.007750000000000E10   -1.729317158460617E-1   2.254189997911453E-1  -6.146037951111794E-2  -8.516468852758408E-2  -7.945529371500015E-2  -6.592421978712082E-2   2.216991037130356E-2  -1.900891959667206E-1  
 2.007875000000000E10   -1.802278161048889E-1   2.174165397882462E-1  -6.718061864376068E-2  -8.084031939506531E-2  -8.448343724012375E-2  -6.320735812187195E-2   2.809299156069756E-2  -1.967339217662811E-1  
 2.008000000000000E10   -1.869928687810898E-1   2.078392058610916E-1  -7.220268249511719E-2  -7.627418637275696E-2  -8.715775609016419E-2  -5.465096980333328E-2   3.867152705788612E-2  -1.998458951711655E-1  
 2.008125000000000E10   -1.932756006717682E-1   1.978092342615128E-1  -7.686771452426910E-2  -7.146849483251572E-2  -9.033425152301788E-2  -4.994168132543564E-2   4.076933860778809E-2  -1.992777884006500E-1  
 2.008250000000000E10   -1.980821937322617E-1   1.875450909137726E-1  -8.142752200365067E-2  -6.613810360431671E-2  -9.477845579385757E-2  -4.355384409427643E-2   3.879840299487114E-2  -2.005594372749329E-1  
 2.008375000000000E10   -2.024948149919510E-1   1.764523386955261E-1  -8.560585975646973E-2  -6.070821732282639E-2  -9.598538279533386E-2  -3.784128278493881E-2   4.618102312088013E-2  -1.972096860408783E-1  
 2.008500000000000E10   -2.061265408992767E-1   1.651872843503952E-1  -8.925229310989380E-2  -5.533111467957497E-2  -1.003976613283157E-1  -3.076253645122051E-2   4.971129074692726E-2  -1.931400150060654E-1  
 2.008625000000000E10   -2.091381102800369E-1   1.537767052650452E-1  -9.254316985607147E-2  -4.934474453330040E-2  -1.014091521501541E-1  -2.381960675120354E-2   5.100606381893158E-2  -2.005476504564285E-1  
 2.008750000000000E10   -2.118128538131714E-1   1.418931484222412E-1  -9.540580958127976E-2  -4.360216110944748E-2  -1.033902317285538E-1  -1.552896667271853E-2   5.050967261195183E-2  -1.930408328771591E-1  
 2.008875000000000E10   -2.124970108270645E-1   1.296592205762863E-1  -9.777567535638809E-2  -3.739351779222488E-2  -1.031085103750229E-1  -1.041746418923140E-2   5.444154888391495E-2  -1.986604183912277E-1  
 2.009000000000000E10   -2.132650315761566E-1   1.178102344274521E-1  -9.979270398616791E-2  -3.114307299256325E-2  -1.039626896381378E-1  -3.293812740594149E-3   5.604672059416771E-2  -1.919734328985214E-1  
 2.009125000000000E10   -2.132575362920761E-1   1.058332547545433E-1  -1.016407310962677E-1  -2.490980923175812E-2  -1.043503284454346E-1   1.988811884075403E-3   6.401532143354416E-2  -1.883370429277420E-1  
 2.009250000000000E10   -2.128020375967026E-1   9.426894783973694E-2  -1.032242402434349E-1  -1.808191277086735E-2  -1.051020696759224E-1   7.949180901050568E-3   7.401646673679352E-2  -1.847049295902252E-1  
 2.009375000000000E10   -2.102621048688889E-1   8.228657394647598E-2  -1.041206642985344E-1  -1.151117961853743E-2  -1.036577299237251E-1   1.776834763586521E-2   6.977687031030655E-2  -1.877882331609726E-1  
 2.009500000000000E10   -2.080852389335632E-1   7.011432945728302E-2  -1.049881950020790E-1  -4.593324847519398E-3  -1.039705649018288E-1   2.105953730642796E-2   7.347981631755829E-2  -1.815693080425263E-1  
 2.009625000000000E10   -2.042936086654663E-1   5.944703519344330E-2  -1.050607189536095E-1   2.138549229130149E-3  -1.013527214527130E-1   2.982712350785732E-2   7.018364965915680E-2  -1.828677207231522E-1  
 2.009750000000000E10   -2.001433521509171E-1   4.803459346294403E-2  -1.048499345779419E-1   8.904284797608852E-3  -9.635005891323090E-2   3.908281028270721E-2   6.780752539634705E-2  -1.907318383455277E-1  
 2.009875000000000E10   -1.941373050212860E-1   3.782392665743828E-2  -1.041973680257797E-1   1.602315716445446E-2  -9.691952913999558E-2   4.427123814821243E-2   6.972473859786987E-2  -1.683571636676788E-1  
 2.010000000000000E10   -1.881366372108460E-1   2.675173245370388E-2  -1.031130999326706E-1   2.304520085453987E-2  -9.406641870737076E-2   4.954849183559418E-2   7.400488853454590E-2  -1.729266792535782E-1  
 2.010125000000000E10   -1.806929111480713E-1   1.626555249094963E-2  -1.014622002840042E-1   3.002625517547131E-2  -9.092014282941818E-2   5.543427914381027E-2   7.482370734214783E-2  -1.670744568109512E-1  
 2.010250000000000E10   -1.726457029581070E-1   6.509725470095873E-3  -9.931010007858276E-2   3.643787652254105E-2  -8.754976093769074E-2   6.402195245027542E-2   6.523461639881134E-2  -1.694395542144775E-1  
 2.010375000000000E10   -1.632535010576248E-1  -2.583844121545553E-3  -9.669870138168335E-2   4.280455037951469E-2  -7.950832694768906E-2   6.691893935203552E-2   6.882776319980621E-2  -1.571487337350845E-1  
 2.010500000000000E10   -1.538483649492264E-1  -1.150840707123280E-2  -9.366465359926224E-2   4.921844229102135E-2  -7.614706456661224E-2   7.146193087100983E-2   7.190547883510590E-2  -1.524047553539276E-1  
 2.010625000000000E10   -1.433123946189880E-1  -2.126479148864746E-2  -9.027799963951111E-2   5.521899834275246E-2  -7.380042970180512E-2   7.820561528205872E-2   6.621126830577850E-2  -1.574534475803375E-1  
 2.010750000000000E10   -1.318815797567368E-1  -2.951453253626823E-2  -8.679735660552979E-2   6.091786921024323E-2  -6.914921104907990E-2   8.418327569961548E-2   5.296499282121658E-2  -1.480343639850617E-1  
 2.010875000000000E10   -1.199748814105988E-1  -3.675691783428192E-2  -8.250367641448975E-2   6.665301322937012E-2  -6.121607497334480E-2   8.814658224582672E-2   5.519732087850571E-2  -1.424654126167297E-1  
 2.011000000000000E10   -1.075651124119759E-1  -4.398637637495995E-2  -7.799106091260910E-2   7.217551767826080E-2  -5.729784071445465E-2   9.111511707305908E-2   5.469433590769768E-2  -1.343706846237183E-1  
 2.011125000000000E10   -9.489187598228455E-2  -5.133611336350441E-2  -7.285887748003006E-2   7.712534815073013E-2  -5.134915933012962E-2   9.365001320838928E-2   4.796269163489342E-2  -1.340422481298447E-1  
 2.011250000000000E10   -8.195639401674271E-2  -5.669896304607391E-2  -6.792232394218445E-2   8.185371011495590E-2  -4.292881488800049E-2   9.772355854511261E-2   4.400099813938141E-2  -1.234481036663055E-1  
 2.011375000000000E10   -6.831686943769455E-2  -6.253063678741455E-2  -6.230150908231735E-2   8.614104241132736E-2  -3.874384611845017E-2   9.914080798625946E-2   4.755146801471710E-2  -1.198456212878227E-1  
 2.011500000000000E10   -5.430377274751663E-2  -6.680521368980408E-2  -5.638167634606361E-2   9.030199795961380E-2  -3.214673325419426E-2   1.037438511848450E-1   3.803952038288117E-2  -1.198430731892586E-1  
 2.011625000000000E10   -3.947469219565392E-2  -7.033147662878037E-2  -4.998537153005600E-2   9.370920062065125E-2  -2.072853781282902E-2   1.052283495664597E-1   3.240027651190758E-2  -1.159556061029434E-1  
