#  HZ   S   RI   R     50.00 
! Rohde & Schwarz ZVA40 4Ports - Version 3.90 - 1145.1110k42 SN: 100403
! Date: 2023-09-06 05:55:06
! Measurements: S11 S21 S12 S22 
! 
 2.000000000000000E10   -1.695832610130310E-1  -2.444056272506714E-1  -2.315724035724998E-3   2.801101189106703E-3  -1.461172825656831E-3   3.646270139142871E-3   1.577060371637344E-1  -4.766580089926720E-2  
 2.000125000000000E10   -1.654245406389237E-1  -2.429337948560715E-1  -2.282239263877273E-3   2.986238105222583E-3  -1.177793950773776E-3   3.523319493979216E-3   1.476567536592484E-1  -5.040225386619568E-2  
 2.000250000000000E10   -1.604343056678772E-1  -2.389561980962753E-1  -2.219822490587831E-3   3.240986494347453E-3  -8.047837764024735E-4   1.999364932999015E-3   1.498378962278366E-1  -4.171014577150345E-2  
 2.000375000000000E10   -1.561829596757889E-1  -2.350834459066391E-1  -1.866922248154879E-3   3.435977967455983E-3  -1.724727801047266E-3   4.843300674110651E-3   1.467449814081192E-1  -3.899867832660675E-2  
 2.000500000000000E10   -1.518875807523727E-1  -2.298892140388489E-1  -1.584624522365630E-3   3.584774676710367E-3   4.523131647147238E-4   3.313691122457385E-3   1.428725123405457E-1  -4.508916661143303E-2  
 2.000625000000000E10   -1.469393521547318E-1  -2.235575467348099E-1  -1.387751894071698E-3   3.559811739251018E-3  -1.308569568209350E-3   4.688645247370005E-3   1.453480571508408E-1  -3.661276400089264E-2  
 2.000750000000000E10   -1.416932195425034E-1  -2.165389209985733E-1  -1.226876745931804E-3   3.621214069426060E-3   9.626911923987791E-5   4.122338257730007E-3   1.392492353916168E-1  -4.045064747333527E-2  
 2.000875000000000E10   -1.352910250425339E-1  -2.080289721488953E-1  -1.073863590136170E-3   3.715181024745107E-3  -6.165268860058859E-5   4.394431598484516E-3   1.282778233289719E-1  -4.317679256200790E-2  
 2.001000000000000E10   -1.298129558563232E-1  -1.982345134019852E-1  -9.784111753106117E-4   3.848660038784146E-3  -8.355029858648777E-4   2.852560486644507E-3   1.346785575151444E-1  -2.904504537582398E-2  
 2.001125000000000E10   -1.241497099399567E-1  -1.881790906190872E-1  -8.466104045510292E-4   3.916616551578045E-3   1.128460164181888E-3   3.776573343202472E-3   1.185476332902908E-1  -3.841162472963333E-2  
 2.001250000000000E10   -1.186904534697533E-1  -1.770061701536179E-1  -5.016531213186681E-4   4.138180520385504E-3  -9.250214789062738E-4   4.170010332018137E-3   1.145059019327164E-1  -3.783305734395981E-2  
 2.001375000000000E10   -1.123216226696968E-1  -1.641485989093781E-1  -2.925335138570517E-4   4.165750928223133E-3   5.883156554773450E-4   3.990126308053732E-3   1.102675795555115E-1  -3.771837428212166E-2  
 2.001500000000000E10   -1.061091646552086E-1  -1.511335372924805E-1  -1.577610091771931E-4   4.183618817478418E-3   2.025787252932787E-3   4.413058981299400E-3   1.064324229955673E-1  -3.423073142766953E-2  
 2.001625000000000E10   -9.997763484716415E-2  -1.364576220512390E-1   1.712372322799638E-4   4.303639754652977E-3   2.286600938532502E-4   3.391971113160253E-3   1.033310592174530E-1  -4.095463454723358E-2  
 2.001750000000000E10   -9.475956112146378E-2  -1.213263496756554E-1   2.607957285363227E-4   4.407295025885105E-3   1.342448289506137E-3   4.654124844819307E-3   9.440176188945770E-2  -3.630712628364563E-2  
 2.001875000000000E10   -8.887746185064316E-2  -1.053022220730782E-1   4.414786235429347E-4   4.614698234945536E-3   2.923477208241820E-3   4.550374113023281E-3   1.036772206425667E-1  -3.906385600566864E-2  
 2.002000000000000E10   -8.291336148977280E-2  -8.791600912809372E-2   8.182316087186337E-4   4.587919451296330E-3   2.871453296393156E-3   4.200882744044066E-3   8.663722127676010E-2  -3.894761577248573E-2  
 2.002125000000000E10   -7.672005891799927E-2  -6.984501332044601E-2   1.120346132665873E-3   4.441646393388510E-3   2.780841896310449E-3   4.671658854931593E-3   8.419805020093918E-2  -3.783686831593514E-2  
 2.002250000000000E10   -7.077360898256302E-2  -5.174101889133453E-2   1.361572300083935E-3   4.343065433204174E-3   2.585787093266845E-3   3.961598034948111E-3   7.777388393878937E-2  -4.015507549047470E-2  
 2.002375000000000E10   -6.453692913055420E-2  -3.258489444851875E-2   1.591190230101347E-3   4.452473483979702E-3   4.123708698898554E-3   3.335478017106652E-3   7.277970761060715E-2  -5.007880553603172E-2  
 2.002500000000000E10   -5.848076939582825E-2  -1.322419103235006E-2   1.909075770527124E-3   4.568426404148340E-3   3.734311088919640E-3   4.692981485277414E-3   6.855852901935577E-2  -4.826677590608597E-2  
 2.002625000000000E10   -5.265893787145615E-2   5.365466233342886E-3   2.100000390782952E-3   4.721805918961763E-3   4.025956615805626E-3   3.306078491732478E-3   6.027564033865929E-2  -5.130278691649437E-2  
 2.002750000000000E10   -4.712707176804543E-2   2.569335885345936E-2   2.497325884178281E-3   4.885653499513865E-3   3.949477802962065E-3   4.127474967390299E-3   5.603785812854767E-2  -4.583168402314186E-2  
 2.002875000000000E10   -4.173593595623970E-2   4.544879496097565E-2   3.108942415565252E-3   4.625352565199137E-3   4.566452931612730E-3   3.200777340680361E-3   4.892434179782867E-2  -5.486775562167168E-2  
 2.003000000000000E10   -3.651532903313637E-2   6.573774665594101E-2   3.472026903182268E-3   4.449279978871346E-3   4.366013221442699E-3   3.282211022451520E-3   4.027736559510231E-2  -6.392116099596024E-2  
 2.003125000000000E10   -3.089214861392975E-2   8.611685782670975E-2   3.798931138589978E-3   4.087156616151333E-3   4.877493251115084E-3   1.444498542696238E-3   3.511596843600273E-2  -6.453277170658112E-2  
 2.003250000000000E10   -2.550311200320721E-2   1.062956973910332E-1   4.107724409550428E-3   3.682040143758059E-3   5.124307237565517E-3   1.990398392081261E-3   3.478408604860306E-2  -6.612766534090042E-2  
 2.003375000000000E10   -1.969450153410435E-2   1.270133256912231E-1   4.349394701421261E-3   3.502282546833158E-3   5.448356270790100E-3   2.780713140964508E-3   3.032064251601696E-2  -7.395882159471512E-2  
 2.003500000000000E10   -1.544232573360205E-2   1.460634917020798E-1   4.441420547664166E-3   3.336059628054500E-3   4.433737136423588E-3   4.109130240976811E-4   3.086951747536659E-2  -8.870870620012283E-2  
 2.003625000000000E10   -1.087738480418921E-2   1.651895046234131E-1   4.516056738793850E-3   3.075609682127833E-3   5.278704222291708E-3   5.492740892805159E-4   2.010679617524147E-2  -7.732965052127838E-2  
 2.003750000000000E10   -6.245449651032686E-3   1.847368925809860E-1   4.695530049502850E-3   2.612856449559331E-3   5.730604752898216E-3   8.228608639910817E-4   1.421711314469576E-2  -7.901242375373840E-2  
 2.003875000000000E10   -3.062404226511717E-3   2.029941082000732E-1   4.671400412917137E-3   2.420976990833879E-3   5.683389957994223E-3   1.633786829188466E-3   1.709123887121677E-2  -8.666148036718369E-2  
 2.004000000000000E10    1.133497105911374E-3   2.193234115839005E-1   4.791337996721268E-3   2.129850210621953E-3   4.022035747766495E-3   6.041387096047401E-4   1.163107994943857E-2  -9.745718538761139E-2  
 2.004125000000000E10    3.240752965211868E-3   2.368601113557816E-1   4.901802632957697E-3   2.145772567018867E-3   5.176649894565344E-3   9.494428522884846E-4   1.524839922785759E-2  -1.035656780004501E-1  
 2.004250000000000E10    5.904576741158962E-3   2.530123591423035E-1   5.071976687759161E-3   2.088534645736218E-3   4.720713011920452E-3   1.160725252702832E-3   5.990000441670418E-3  -9.853977710008621E-2  
 2.004375000000000E10    8.756097406148911E-3   2.690566480159760E-1   5.136821419000626E-3   1.913853804580867E-3   3.342932090163231E-3   1.028973958455026E-3   2.918069250881672E-3  -1.033072099089623E-1  
 2.004500000000000E10    1.050131395459175E-2   2.831488847732544E-1   5.541375838220120E-3   1.595980371348560E-3   4.764232784509659E-3   7.474893354810774E-4  -3.974990453571081E-3  -1.144842952489853E-1  
 2.004625000000000E10    1.252572704106569E-2   2.972444593906403E-1   5.786562804132700E-3   1.129284733906388E-3   5.895568057894707E-3  -5.091501516290009E-4  -5.403944756835699E-3  -1.166359633207321E-1  
 2.004750000000000E10    1.310106925666332E-2   3.090989291667938E-1   5.852035712450743E-3   8.807946578599513E-4   5.616047885268927E-3   1.293697132496163E-4  -1.333192083984613E-2  -1.327805072069168E-1  
 2.004875000000000E10    1.350315101444721E-2   3.213936984539032E-1   5.930734332650900E-3   5.427129799500108E-4   6.579058244824410E-3  -5.377677152864635E-4  -1.494837924838066E-2  -1.320068389177322E-1  
 2.005000000000000E10    1.377063430845738E-2   3.316571116447449E-1   5.890160333365202E-3   2.315125893801451E-4   4.505718592554331E-3  -2.020599320530891E-3  -1.461303047835827E-2  -1.375247687101364E-1  
 2.005125000000000E10    1.416872628033161E-2   3.417249917984009E-1   5.914389155805111E-3  -3.846763138426468E-5   6.750557571649551E-3  -1.763638341799378E-3  -1.250412221997976E-2  -1.490859985351563E-1  
 2.005250000000000E10    1.429057959467173E-2   3.488974571228027E-1   6.061952095478773E-3  -1.864448568085209E-4   6.710236426442862E-3  -1.623240881599486E-3  -3.588099265471101E-3  -1.509147137403488E-1  
 2.005375000000000E10    1.294002681970596E-2   3.564750552177429E-1   6.271105725318193E-3  -5.338542978279293E-4   4.602888133376837E-3  -1.896337140351534E-3  -3.601834410801530E-3  -1.585119217634201E-1  
 2.005500000000000E10    1.134846266359091E-2   3.615541756153107E-1   6.321954075247049E-3  -1.138108666054905E-3   5.058052483946085E-3  -4.275393672287464E-3  -8.950503543019295E-3  -1.625857502222061E-1  
 2.005625000000000E10    9.929827414453030E-3   3.645851314067841E-1   6.358099170029163E-3  -1.544345868751407E-3   5.215104669332504E-3  -2.730642445385456E-3  -6.951994728296995E-3  -1.648636162281036E-1  
 2.005750000000000E10    8.638157509267330E-3   3.684582114219666E-1   6.283174268901348E-3  -2.005830872803927E-3   4.570770077407360E-3  -3.133992198854685E-3  -1.516918651759625E-2  -1.686369180679321E-1  
 2.005875000000000E10    5.129015073180199E-3   3.694412112236023E-1   6.110409740358591E-3  -2.456888556480408E-3   4.573081620037556E-3  -4.185538273304701E-3  -1.124957017600536E-2  -1.737048029899597E-1  
 2.006000000000000E10    3.276383271440864E-3   3.698157370090485E-1   5.966677330434322E-3  -2.768840175122023E-3   5.672511644661427E-3  -4.279166925698519E-3  -5.505744367837906E-3  -1.844425052404404E-1  
 2.006125000000000E10    5.461133550852537E-4   3.687809407711029E-1   5.750435870140791E-3  -3.172921715304256E-3   5.675557069480419E-3  -3.519846592098475E-3  -1.850011176429689E-3  -1.930963695049286E-1  
 2.006250000000000E10   -1.629858277738094E-3   3.669318556785584E-1   5.695346742868424E-3  -3.373176092281938E-3   3.882774384692311E-3  -4.931082949042320E-3  -1.119450572878122E-2  -2.018751651048660E-1  
 2.006375000000000E10   -5.314148496836424E-3   3.628039062023163E-1   5.614335648715496E-3  -3.747349372133613E-3   4.491567611694336E-3  -6.712617818266153E-3  -1.096618920564652E-2  -1.987035423517227E-1  
 2.006500000000000E10   -9.371203370392323E-3   3.572743237018585E-1   5.284303333610296E-3  -4.027883522212505E-3   3.640208393335342E-3  -5.649511702358723E-3  -7.094979751855135E-3  -1.968608051538467E-1  
 2.006625000000000E10   -1.247061975300312E-2   3.508765995502472E-1   5.244762636721134E-3  -4.294428043067455E-3   3.256741911172867E-3  -5.079492926597595E-3  -3.444865578785539E-3  -2.084756195545197E-1  
 2.006750000000000E10   -1.630069874227047E-2   3.443814814090729E-1   5.062861368060112E-3  -4.541932139545679E-3   3.442425979301333E-3  -6.415454670786858E-3   8.305286988615990E-3  -1.993615031242371E-1  
 2.006875000000000E10   -2.083492837846279E-2   3.348160684108734E-1   4.876067396253347E-3  -5.092421546578407E-3   2.393793081864715E-3  -6.464407779276371E-3   7.524771150201559E-3  -1.976106464862824E-1  
 2.007000000000000E10   -2.477510459721088E-2   3.245806992053986E-1   4.634097684174776E-3  -5.552356597036123E-3   2.666050335392356E-3  -6.255744025111198E-3   5.681100301444531E-4  -2.096212953329086E-1  
 2.007125000000000E10   -2.940362878143787E-2   3.142922222614288E-1   4.252383951097727E-3  -5.781866144388914E-3   2.648237394168973E-3  -5.216097924858332E-3   1.010122522711754E-2  -2.082759737968445E-1  
 2.007250000000000E10   -3.396426141262054E-2   3.026911616325378E-1   3.796603763476014E-3  -6.174434442073107E-3   5.882770637981594E-4  -8.403166197240353E-3   8.577910251915455E-3  -2.197135686874390E-1  
 2.007375000000000E10   -3.910812735557556E-2   2.894457876682282E-1   3.449771553277969E-3  -6.475437898188829E-3   2.971151610836387E-3  -7.266446482390165E-3   1.560701616108418E-2  -2.145453393459320E-1  
 2.007500000000000E10   -4.382017254829407E-2   2.761701345443726E-1   2.930039307102561E-3  -6.608367431908846E-3   5.472578923217952E-4  -8.347785100340843E-3   2.309809811413288E-2  -2.186129242181778E-1  
 2.007625000000000E10   -4.880339279770851E-2   2.607743442058563E-1   2.441659336909652E-3  -6.905311252921820E-3   1.558356161694974E-4  -6.037872750312090E-3   2.233888395130634E-2  -2.188963145017624E-1  
 2.007750000000000E10   -5.253907665610313E-2   2.442984133958817E-1   1.963892020285130E-3  -6.956666707992554E-3  -3.312717308290303E-4  -6.538289133459330E-3   1.112138479948044E-2  -2.170369178056717E-1  
 2.007875000000000E10   -5.668938532471657E-2   2.280614078044891E-1   1.402154797688127E-3  -6.865304429084063E-3   2.812724851537496E-4  -6.377134006470442E-3   3.330862149596214E-2  -2.190956771373749E-1  
 2.008000000000000E10   -6.214412301778793E-2   2.106170803308487E-1   8.234509732574225E-4  -6.962962448596954E-3  -1.501913997344673E-3  -4.937592428177595E-3   2.172484621405602E-2  -2.198938429355621E-1  
 2.008125000000000E10   -6.615184992551804E-2   1.911323666572571E-1   6.579350447282195E-4  -6.867238786071539E-3  -1.606782549060881E-3  -6.344672292470932E-3   3.735577687621117E-2  -2.250061929225922E-1  
 2.008250000000000E10   -7.174129784107208E-2   1.733430773019791E-1   2.859950473066419E-4  -6.644358392804861E-3  -1.621349249035120E-3  -5.927572026848793E-3   3.198163956403732E-2  -2.115319371223450E-1  
 2.008375000000000E10   -7.597378641366959E-2   1.548821032047272E-1  -1.259490527445450E-4  -6.908055394887924E-3  -3.016952425241470E-3  -5.728370975703001E-3   4.046894609928131E-2  -2.164911925792694E-1  
 2.008500000000000E10   -8.087228238582611E-2   1.357786804437637E-1  -2.997613628394902E-4  -6.788657512515783E-3  -6.314808852039278E-4  -7.604166865348816E-3   4.020451381802559E-2  -2.090990096330643E-1  
 2.008625000000000E10   -8.554698526859283E-2   1.164492145180702E-1  -5.486049922183156E-4  -6.716735661029816E-3  -3.416055580601096E-3  -6.304364651441574E-3   3.782153874635696E-2  -2.055167853832245E-1  
 2.008750000000000E10   -9.045826643705368E-2   9.712971001863480E-2  -9.318936499767005E-4  -6.836634129285812E-3  -2.553699770942330E-3  -5.803800188004971E-3   4.162118211388588E-2  -2.120855003595352E-1  
 2.008875000000000E10   -9.473662823438644E-2   7.808411866426468E-2  -1.193769974634051E-3  -6.918197497725487E-3  -3.293273737654090E-3  -5.065794568508863E-3   4.371060803532600E-2  -2.110686302185059E-1  
 2.009000000000000E10   -9.896582365036011E-2   5.908036604523659E-2  -1.628570491448045E-3  -6.951646879315376E-3  -3.412194317206740E-3  -6.295888684689999E-3   4.509182646870613E-2  -1.988003253936768E-1  
 2.009125000000000E10   -1.026912257075310E-1   4.068638756871223E-2  -2.153361681848764E-3  -6.862793117761612E-3  -3.518326906487346E-3  -5.519368220120668E-3   5.180261656641960E-2  -2.047225385904312E-1  
 2.009250000000000E10   -1.062691807746887E-1   2.285907231271267E-2  -2.671165857464075E-3  -6.742321886122227E-3  -5.418982356786728E-3  -5.737708415836096E-3   4.175120964646339E-2  -1.999780386686325E-1  
 2.009375000000000E10   -1.098362058401108E-1   5.311703775078058E-3  -3.243945306167007E-3  -6.586384493857622E-3  -5.369110964238644E-3  -4.692275542765856E-3   5.068084597587585E-2  -1.919858306646347E-1  
 2.009500000000000E10   -1.125726401805878E-1  -1.251451857388020E-2  -3.789131529629231E-3  -6.177079398185015E-3  -6.119545083492994E-3  -4.468536004424095E-3   4.505780711770058E-2  -1.961062103509903E-1  
 2.009625000000000E10   -1.148124337196350E-1  -2.871888689696789E-2  -4.191674292087555E-3  -5.757307168096304E-3  -5.960030481219292E-3  -3.888813778758049E-3   5.362144112586975E-2  -1.952411234378815E-1  
 2.009750000000000E10   -1.168015971779823E-1  -4.448475316166878E-2  -4.442165140062571E-3  -5.326882470399141E-3  -5.946914665400982E-3  -4.013554658740759E-3   5.793842673301697E-2  -1.862722784280777E-1  
 2.009875000000000E10   -1.177231818437576E-1  -5.936976149678230E-2  -4.723080433905125E-3  -4.987044725567102E-3  -6.223163101822138E-3  -3.380989655852318E-3   5.828088521957398E-2  -1.819936782121658E-1  
 2.010000000000000E10   -1.189924180507660E-1  -7.408594340085983E-2  -4.821644164621830E-3  -4.774381406605244E-3  -5.336458794772625E-3  -3.183794906362891E-3   4.738329723477364E-2  -1.706488132476807E-1  
 2.010125000000000E10   -1.191505044698715E-1  -8.745464682579041E-2  -5.115888081490994E-3  -4.319209139794111E-3  -5.525117740035057E-3  -2.300235675647855E-3   5.500149726867676E-2  -1.582425385713577E-1  
 2.010250000000000E10   -1.185239702463150E-1  -1.007900387048721E-1  -5.203882697969675E-3  -4.011579789221287E-3  -6.913590244948864E-3  -2.593124983832240E-3   6.198406592011452E-2  -1.584084182977676E-1  
 2.010375000000000E10   -1.177781149744988E-1  -1.131287738680840E-1  -5.376938264816999E-3  -3.568052779883146E-3  -6.251088343560696E-3  -1.294083194807172E-3   5.455778166651726E-2  -1.522588878870010E-1  
 2.010500000000000E10   -1.159239038825035E-1  -1.240049526095390E-1  -5.543848499655724E-3  -3.123893169686198E-3  -6.664787884801626E-3  -2.202268922701478E-3   5.414450168609619E-2  -1.498553901910782E-1  
 2.010625000000000E10   -1.142312437295914E-1  -1.342997401952744E-1  -5.345589946955442E-3  -2.885332796722651E-3  -3.686837852001190E-3  -6.300476961769164E-4   4.702674597501755E-2  -1.483087092638016E-1  
 2.010750000000000E10   -1.119283437728882E-1  -1.436238139867783E-1  -5.252178292721510E-3  -2.653947798535228E-3  -5.294381640851498E-3  -1.263787038624287E-3   4.865713417530060E-2  -1.484543681144714E-1  
 2.010875000000000E10   -1.104897484183312E-1  -1.521633118391037E-1  -5.381092429161072E-3  -2.692559035494924E-3  -6.019698921591044E-3  -1.980103086680174E-3   4.937479645013809E-2  -1.323626637458801E-1  
 2.011000000000000E10   -1.069275066256523E-1  -1.589958816766739E-1  -5.450060591101646E-3  -2.422429155558348E-3  -6.147425621747971E-3   4.602581320796162E-4   4.106798768043518E-2  -1.262426525354385E-1  
 2.011125000000000E10   -1.032172143459320E-1  -1.643698364496231E-1  -5.745653063058853E-3  -2.155155641958118E-3  -4.838602151721716E-3  -5.376128829084337E-4   4.560531675815582E-2  -1.254122853279114E-1  
 2.011250000000000E10   -9.978721290826798E-2  -1.691143959760666E-1  -6.015213206410408E-3  -1.820049365051091E-3  -5.537541117519140E-3  -5.523098516277969E-4   3.420271351933479E-2  -1.204514428973198E-1  
 2.011375000000000E10   -9.489742666482925E-2  -1.718642711639404E-1  -6.098147481679916E-3  -1.404814422130585E-3  -7.328903302550316E-3   1.562786492286250E-4   3.429743275046349E-2  -1.174569278955460E-1  
 2.011500000000000E10   -8.954853564500809E-2  -1.740199774503708E-1  -6.152796093374491E-3  -1.055741566233337E-3  -5.416532047092915E-3   4.083945823367685E-4   2.371475286781788E-2  -1.116797327995300E-1  
 2.011625000000000E10   -8.411306887865067E-2  -1.747098714113236E-1  -6.091887131333351E-3  -6.007576594129205E-4  -6.258165463805199E-3   8.936730446293950E-4   2.056667767465115E-2  -1.012864038348198E-1  
