#  HZ   S   RI   R     50.00 
! Rohde & Schwarz ZVA40 4Ports - Version 3.90 - 1145.1110k42 SN: 100403
! Date: 2023-09-26 10:28:13
! Measurement: S12 
! 
 2.000000000000000E10   -5.959792440296079E-3   2.567059041686074E-2  
 2.001000000000000E10    7.185642908835698E-3   2.556201899690438E-2  
 2.002000000000000E10    2.021602806240803E-2   1.894617033997590E-2  
 2.003000000000000E10    2.728484248776852E-2   6.412828038729384E-3  
 2.004000000000000E10    2.571016973309152E-2  -7.232043707018311E-3  
 2.005000000000000E10    1.920235673548821E-2  -2.044703073985234E-2  
 2.006000000000000E10    5.782730439977008E-3  -2.601853291307500E-2  
 2.007000000000000E10   -8.287926086330607E-3  -2.638731581463208E-2  
 2.008000000000000E10   -2.069413925711056E-2  -1.816597601712254E-2  
 2.009000000000000E10   -2.726831272733377E-2  -5.048815338811350E-3  
 2.010000000000000E10   -2.598672928216839E-2   8.739851281117098E-3  
 2.011000000000000E10   -1.810205630290059E-2   2.218816973449395E-2  
 2.012000000000000E10   -4.343039617644665E-3   2.723337039064340E-2  
 2.013000000000000E10    9.936682108393557E-3   2.618373701675389E-2  
 2.014000000000000E10    2.233877957427853E-2   1.707297994272954E-2  
 2.015000000000000E10    2.648247245486566E-2   3.915613785137930E-3  
 2.016000000000000E10    2.582437887313916E-2  -1.004507142998923E-2  
 2.017000000000000E10    1.602655122011788E-2  -2.238745144256764E-2  
 2.018000000000000E10    3.336480521595461E-3  -2.755401325564106E-2  
 2.019000000000000E10   -1.249367659205138E-2  -2.508362662457940E-2  
 2.020000000000000E10   -2.393643809187379E-2  -1.507823525701401E-2  
 2.021000000000000E10   -2.706615860050366E-2  -1.366841556702458E-3  
 2.022000000000000E10   -2.533567534075005E-2   1.426446243538199E-2  
 2.023000000000000E10   -1.399556396596186E-2   2.384126733712849E-2  
 2.024000000000000E10    3.382305216357209E-4   2.845076562172425E-2  
 2.025000000000000E10    1.543393607370980E-2   2.531737191481031E-2  
 2.026000000000000E10    2.481362445706750E-2   1.331884201206049E-2  
 2.027000000000000E10    2.893770523167768E-2   2.681404496861046E-4  
 2.028000000000000E10    2.420199559503148E-2  -1.554776426271626E-2  
 2.029000000000000E10    1.386962005855130E-2  -2.445801481167336E-2  
 2.030000000000000E10   -1.085599173729687E-3  -2.898461905935536E-2  
 2.031000000000000E10   -1.687160358498078E-2  -2.472538429881249E-2  
 2.032000000000000E10   -2.727730916090684E-2  -1.213017375869616E-2  
 2.033000000000000E10   -2.980275321239117E-2   3.079490967187119E-3  
 2.034000000000000E10   -2.266042881460056E-2   1.782684096697564E-2  
 2.035000000000000E10   -1.239779117072731E-2   2.670497853974865E-2  
 2.036000000000000E10    4.060050980505526E-3   2.981153133936395E-2  
 2.037000000000000E10    1.790711308614838E-2   2.270553821234094E-2  
 2.038000000000000E10    2.643277937293416E-2   1.112107107981001E-2  
 2.039000000000000E10    2.903190812186242E-2  -4.134012945629937E-3  
 2.040000000000000E10    2.183340101262642E-2  -1.740220936115551E-2  
 2.041000000000000E10    1.024650482181588E-2  -2.542549747129510E-2  
 2.042000000000000E10   -6.060336549213268E-3  -2.822805220997910E-2  
 2.043000000000000E10   -1.799425877230831E-2  -2.097298915871972E-2  
 2.044000000000000E10   -2.563572754800870E-2  -8.621939773424342E-3  
 2.045000000000000E10   -2.711331540083443E-2   5.962261981923372E-3  
 2.046000000000000E10   -1.989462384381802E-2   1.845644643011826E-2  
 2.047000000000000E10   -8.948626949604226E-3   2.613329979190416E-2  
 2.048000000000000E10    7.321949529213907E-3   2.637990040962678E-2  
 2.049000000000000E10    1.883791173480351E-2   1.995763127909409E-2  
 2.050000000000000E10    2.713400825194932E-2   6.920492233889936E-3  
 2.051000000000000E10    2.562261633820123E-2  -7.286303622543318E-3  
 2.052000000000000E10    1.860142323723217E-2  -1.997542696179962E-2  
 2.053000000000000E10    6.489433848582766E-3  -2.731123079793931E-2  
 2.054000000000000E10   -9.069888997543029E-3  -2.498722714580071E-2  
 2.055000000000000E10   -2.009231959037064E-2  -1.786193429091179E-2  
 2.056000000000000E10   -2.692862985240105E-2  -4.110319771060058E-3  
 2.057000000000000E10   -2.476697615806627E-2   9.439328086386893E-3  
 2.058000000000000E10   -1.703890106884651E-2   2.120101040682725E-2  
 2.059000000000000E10   -3.467257409533778E-3   2.696065490726578E-2  
 2.060000000000000E10    1.045094593857855E-2   2.451963163383206E-2  
 2.061000000000000E10    2.070480393276757E-2   1.681260469603600E-2  
 2.062000000000000E10    2.597259086600091E-2   2.806572557840281E-3  
 2.063000000000000E10    2.441377504272637E-2  -8.969093524211123E-3  
 2.064000000000000E10    1.655098821533478E-2  -2.130656222303795E-2  
 2.065000000000000E10    3.294110090530320E-3  -2.574963417599526E-2  
 2.066000000000000E10   -1.052774294846665E-2  -2.456725096050878E-2  
 2.067000000000000E10   -2.236571635662426E-2  -1.525461415888638E-2  
 2.068000000000000E10   -2.606899515103821E-2  -9.209855337842370E-4  
 2.069000000000000E10   -2.325378163022267E-2   1.064472525644068E-2  
 2.070000000000000E10   -1.394040413182688E-2   2.282395314921322E-2  
 2.071000000000000E10   -1.091695243686018E-3   2.624010084740541E-2  
 2.072000000000000E10    1.270380332555794E-2   2.383253042565190E-2  
 2.073000000000000E10    2.215351919531880E-2   1.316569394371516E-2  
 2.074000000000000E10    2.543523623451520E-2  -3.527090755829740E-4  
 2.075000000000000E10    2.225537519578839E-2  -1.267127877248091E-2  
 2.076000000000000E10    1.141160664114039E-2  -2.250515126796777E-2  
 2.077000000000000E10   -9.483749015829303E-4  -2.586781455919354E-2  
 2.078000000000000E10   -1.476119630248644E-2  -2.138178232525792E-2  
 2.079000000000000E10   -2.213241289039406E-2  -1.013744130383618E-2  
 2.080000000000000E10   -2.469560786927361E-2   9.282722759405782E-4  
 2.081000000000000E10   -2.067797725605927E-2   1.356413109643767E-2  
 2.082000000000000E10   -1.049324352617180E-2   2.269222927790116E-2  
 2.083000000000000E10    7.733907933518589E-4   2.534377997804429E-2  
 2.084000000000000E10    1.489276729522036E-2   2.091336111966252E-2  
 2.085000000000000E10    2.161699316375584E-2   1.018560748390997E-2  
 2.086000000000000E10    2.472571696295411E-2  -1.783862101919683E-3  
 2.087000000000000E10    1.944983019499596E-2  -1.456585245618832E-2  
 2.088000000000000E10    9.688090592034054E-3  -2.203345698649014E-2  
 2.089000000000000E10   -2.138175181689404E-3  -2.360723085275689E-2  
 2.090000000000000E10   -1.461129114405518E-2  -1.832098274116265E-2  
 2.091000000000000E10   -2.053529313472539E-2  -9.111335315565378E-3  
 2.092000000000000E10   -2.356488802813710E-2   2.638985018463555E-3  
 2.093000000000000E10   -1.865607400936108E-2   1.360115715599787E-2  
 2.094000000000000E10   -9.675083698336300E-3   2.100436360146833E-2  
 2.095000000000000E10    1.958975547617531E-3   2.214397715978043E-2  
 2.096000000000000E10    1.361565299005511E-2   1.781749795620476E-2  
 2.097000000000000E10    1.934406548314247E-2   8.800651377002223E-3  
 2.098000000000000E10    2.189260142469117E-2  -3.505756758078977E-3  
 2.099000000000000E10    1.662656508445584E-2  -1.377889595741065E-2  
 2.100000000000000E10    7.450674839912283E-3  -2.048621268188336E-2  
 2.101000000000000E10   -4.552941151915847E-3  -2.047359402243622E-2  
 2.102000000000000E10   -1.355969705088801E-2  -1.608051125282288E-2  
 2.103000000000000E10   -1.910857751476201E-2  -6.528277030801508E-3  
 2.104000000000000E10   -2.033097199702828E-2   5.221389286779891E-3  
 2.105000000000000E10   -1.521870347978256E-2   1.362476783038489E-2  
 2.106000000000000E10   -6.563500862464315E-3   1.978397702016606E-2  
 2.107000000000000E10    5.222640792495996E-3   1.973477942774087E-2  
 2.108000000000000E10    1.300950913812703E-2   1.494190624452622E-2  
 2.109000000000000E10    1.925274435161461E-2   6.183143931010791E-3  
 2.110000000000000E10    2.026834432607613E-2  -4.651204865465490E-3  
 2.111000000000000E10    1.524572591587025E-2  -1.346067604705666E-2  
 2.112000000000000E10    5.942937640606119E-3  -2.027029187250855E-2  
 2.113000000000000E10   -4.638260394776985E-3  -1.988031565540349E-2  
 2.114000000000000E10   -1.379345905214505E-2  -1.593476367120112E-2  
 2.115000000000000E10   -1.958719495383179E-2  -5.965188877585822E-3  
 2.116000000000000E10   -2.059918403933824E-2   3.055946269308702E-3  
 2.117000000000000E10   -1.641293561591381E-2   1.420129096021332E-2  
 2.118000000000000E10   -6.074979654859449E-3   2.051696635013318E-2  
 2.119000000000000E10    3.427598780953131E-3   1.971973196276562E-2  
 2.120000000000000E10    1.366945410900599E-2   1.652495933529352E-2  
 2.121000000000000E10    1.949810283350926E-2   6.294251290582096E-3  
 2.122000000000000E10    2.001467999245019E-2  -3.220121100160204E-3  
 2.123000000000000E10    1.600532010580601E-2  -1.397592919032059E-2  
 2.124000000000000E10    6.504201327496293E-3  -1.915076205614750E-2  
 2.125000000000000E10   -3.434478368679882E-3  -1.999090351777150E-2  
 2.126000000000000E10   -1.343681786895304E-2  -1.558935338571236E-2  
 2.127000000000000E10   -1.934823129426213E-2  -7.613154703080637E-3  
 2.128000000000000E10   -2.099280018460480E-2   3.034377132885724E-3  
 2.129000000000000E10   -1.540868552342471E-2   1.411079433535840E-2  
 2.130000000000000E10   -7.717781806099637E-3   1.967968742408311E-2  
 2.131000000000000E10    4.285183016596672E-3   2.098245244317810E-2  
 2.132000000000000E10    1.460796199148125E-2   1.501532902933230E-2  
 2.133000000000000E10    2.018985935897297E-2   6.806805161183045E-3  
 2.134000000000000E10    2.115590997209099E-2  -5.375179749573891E-3  
 2.135000000000000E10    1.451457796804427E-2  -1.455585467401654E-2  
 2.136000000000000E10    7.018588335551054E-3  -2.003600880843045E-2  
 2.137000000000000E10   -6.156362489927455E-3  -2.250637895326024E-2  
 2.138000000000000E10   -1.510184993450836E-2  -1.568536400700574E-2  
 2.139000000000000E10   -2.212021235016861E-2  -6.448760007393773E-3  
 2.140000000000000E10   -2.287527077783280E-2   6.791578681669257E-3  
 2.141000000000000E10   -1.539955471988364E-2   1.648408746150090E-2  
 2.142000000000000E10   -6.842063465300724E-3   2.159137042754849E-2  
 2.143000000000000E10    7.203020062616446E-3   2.241820681154725E-2  
 2.144000000000000E10    1.636010961458313E-2   1.620317218121743E-2  
 2.145000000000000E10    2.283562454609368E-2   5.641542964764358E-3  
 2.146000000000000E10    2.139708607323121E-2  -7.075172790380136E-3  
 2.147000000000000E10    1.557370734699128E-2  -1.746388947140469E-2  
 2.148000000000000E10    4.713101923336840E-3  -2.255416254098328E-2  
 2.149000000000000E10   -8.145892865865862E-3  -2.142536780920228E-2  
 2.150000000000000E10   -1.798105306529957E-2  -1.415281692314842E-2  
 2.151000000000000E10   -2.263773079096104E-2  -3.078304493295880E-3  
 2.152000000000000E10   -2.008393754017807E-2   9.086274856253494E-3  
 2.153000000000000E10   -1.301075776945189E-2   1.695364722498025E-2  
 2.154000000000000E10   -2.604409368051053E-3   2.073843994176697E-2  
 2.155000000000000E10    8.738836806099208E-3   1.925330835866772E-2  
 2.156000000000000E10    1.680096706981263E-2   1.306629088818595E-2  
 2.157000000000000E10    2.228013078875245E-2   1.612844290671454E-3  
 2.158000000000000E10    1.949022942754280E-2  -9.435138339278070E-3  
 2.159000000000000E10    1.191438440317751E-2  -1.881528064782235E-2  
 2.160000000000000E10    6.894929237651976E-4  -2.207422462111394E-2  
 2.161000000000000E10   -1.107275077061161E-2  -1.897553193926876E-2  
 2.162000000000000E10   -1.877242784174126E-2  -1.140513413367777E-2  
 2.163000000000000E10   -2.260072147038476E-2  -7.740984832750929E-5  
 2.164000000000000E10   -1.931462257266739E-2   1.077823763575798E-2  
 2.165000000000000E10   -1.088299747378653E-2   1.975594024540238E-2  
 2.166000000000000E10   -7.674981791967943E-4   2.294705698445191E-2  
 2.167000000000000E10    1.196011619461865E-2   2.010070439346299E-2  
 2.168000000000000E10    2.135816009211369E-2   1.209259928364569E-2  
 2.169000000000000E10    2.377630103703835E-2  -1.135932769132421E-3  
 2.170000000000000E10    2.010775954773583E-2  -1.280020930777872E-2  
 2.171000000000000E10    1.011561574983889E-2  -2.163300064976674E-2  
 2.172000000000000E10   -1.088686155359092E-3  -2.273223595387493E-2  
 2.173000000000000E10   -1.191320175054059E-2  -2.026527961985902E-2  
 2.174000000000000E10   -2.120610726521512E-2  -1.091242711309180E-2  
 2.175000000000000E10   -2.249607896850743E-2   2.206656765331250E-3  
 2.176000000000000E10   -1.918359860870113E-2   1.189842607546996E-2  
 2.177000000000000E10   -1.010151458371430E-2   2.074801101421860E-2  
 2.178000000000000E10    1.655125646039548E-3   2.216217143108315E-2  
 2.179000000000000E10    1.313210690267624E-2   2.010539019130475E-2  
 2.180000000000000E10    2.144377502206082E-2   8.782510022452795E-3  
 2.181000000000000E10    2.194458335969205E-2  -3.826284691925450E-3  
 2.182000000000000E10    1.734485762532204E-2  -1.335746342273375E-2  
 2.183000000000000E10    8.010285176938498E-3  -2.149134704430993E-2  
 2.184000000000000E10   -3.473082317911693E-3  -2.077943547779610E-2  
 2.185000000000000E10   -1.389707835547591E-2  -1.752922086166798E-2  
 2.186000000000000E10   -2.044221282041985E-2  -7.690923084224894E-3  
 2.187000000000000E10   -2.200646341080403E-2   3.835940547082230E-3  
 2.188000000000000E10   -1.644849061376217E-2   1.446616098267373E-2  
 2.189000000000000E10   -6.369433997081034E-3   2.048802895031510E-2  
 2.190000000000000E10    4.765135401623604E-3   2.162393555864098E-2  
 2.191000000000000E10    1.523449758466153E-2   1.572242922746003E-2  
 2.192000000000000E10    2.037851121296349E-2   6.249009143236705E-3  
 2.193000000000000E10    2.185938219497254E-2  -5.002821587357069E-3  
 2.194000000000000E10    1.555301695411051E-2  -1.547750135485014E-2  
 2.195000000000000E10    6.069114317049543E-3  -2.067411524189355E-2  
 2.196000000000000E10   -4.840719222705133E-3  -2.123425312839421E-2  
 2.197000000000000E10   -1.496461517137934E-2  -1.473829323089590E-2  
 2.198000000000000E10   -1.984392797706593E-2  -5.790115729711734E-3  
 2.199000000000000E10   -2.100720578816876E-2   5.630942232694493E-3  
 2.200000000000000E10   -1.449975757079960E-2   1.527840375071215E-2  
 2.201000000000000E10   -5.387318429872648E-3   1.941862013034386E-2  
 2.202000000000000E10    4.790163714264389E-3   1.977899061484578E-2  
 2.203000000000000E10    1.491462448087775E-2   1.439955966080204E-2  
 2.204000000000000E10    1.991404084339851E-2   4.719789904195433E-3  
 2.205000000000000E10    1.944617426997689E-2  -6.418263566280795E-3  
 2.206000000000000E10    1.395181466534039E-2  -1.496490478423500E-2  
 2.207000000000000E10    4.375243765764586E-3  -1.998713089099652E-2  
 2.208000000000000E10   -7.043888258248378E-3  -1.962604575829472E-2  
 2.209000000000000E10   -1.441411034197901E-2  -1.440475905301554E-2  
 2.210000000000000E10   -2.120780704017010E-2  -4.198574727670475E-3  
 2.211000000000000E10   -1.996698436969227E-2   7.066821578710586E-3  
 2.212000000000000E10   -1.425896797116612E-2   1.508230298307305E-2  
 2.213000000000000E10   -3.902482197550408E-3   2.172919333434590E-2  
 2.214000000000000E10    8.452760214484082E-3   1.948571518723305E-2  
 2.215000000000000E10    1.622764376789538E-2   1.399012468901492E-2  
 2.216000000000000E10    2.208456502696805E-2   2.952660418169623E-3  
 2.217000000000000E10    1.929258081577671E-2  -9.226125052771818E-3  
 2.218000000000000E10    1.423002741986279E-2  -1.628100738277012E-2  
 2.219000000000000E10    2.372608208182880E-3  -2.228823506261124E-2  
 2.220000000000000E10   -9.013815486206934E-3  -2.018363984198777E-2  
 2.221000000000000E10   -1.775406525352707E-2  -1.298718011767304E-2  
 2.222000000000000E10   -2.211429948304638E-2  -1.995830735800563E-3  
 2.223000000000000E10   -1.908555363485302E-2   9.023455971900959E-3  
 2.224000000000000E10   -1.231777080597492E-2   1.708296643326706E-2  
 2.225000000000000E10   -1.646127476326421E-3   2.074632677801381E-2  
 2.226000000000000E10    8.505036164080420E-3   1.894326624761925E-2  
 2.227000000000000E10    1.764670167818684E-2   1.245756771348141E-2  
 2.228000000000000E10    1.935045388026520E-2   5.082796633468653E-4  
 2.229000000000000E10    1.819137585341180E-2  -7.941213948136246E-3  
 2.230000000000000E10    1.170867401307690E-2  -1.689389439520359E-2  
 2.231000000000000E10    1.527972864054108E-3  -1.915218681495957E-2  
 2.232000000000000E10   -8.295062576927512E-3  -1.784904119333340E-2  
 2.233000000000000E10   -1.648132639445805E-2  -1.062645688499510E-2  
 2.234000000000000E10   -1.935993749237541E-2  -2.434792349048970E-4  
 2.235000000000000E10   -1.681514774256909E-2   8.954159553980257E-3  
 2.236000000000000E10   -1.035988747056183E-2   1.611987169051701E-2  
 2.237000000000000E10   -7.974582829624846E-4   1.936556645323899E-2  
 2.238000000000000E10    9.423987007301371E-3   1.705208126265282E-2  
 2.239000000000000E10    1.700752162513317E-2   9.646600636611444E-3  
 2.240000000000000E10    1.983460867592019E-2   4.884499009786669E-4  
 2.241000000000000E10    1.728751768801983E-2  -1.057520864585810E-2  
 2.242000000000000E10    1.028313959109469E-2  -1.709628331707185E-2  
 2.243000000000000E10   -1.700294576344338E-4  -1.997077975688599E-2  
 2.244000000000000E10   -1.056697884325138E-2  -1.699641627109082E-2  
 2.245000000000000E10   -1.701036492427960E-2  -9.277048061227798E-3  
 2.246000000000000E10   -2.026216327161565E-2   5.949018842171422E-4  
 2.247000000000000E10   -1.740550165741135E-2   1.134908120958989E-2  
 2.248000000000000E10   -9.474453783512424E-3   1.746377474171929E-2  
 2.249000000000000E10    6.505715814770826E-4   2.151959393624375E-2  
 2.250000000000000E10    1.185093941011670E-2   1.738315110972199E-2  
 2.251000000000000E10    1.795795024181107E-2   9.813271640713999E-3  
 2.252000000000000E10    2.116029601182892E-2  -4.934916201836944E-4  
 2.253000000000000E10    1.765775302822201E-2  -1.230499065331244E-2  
 2.254000000000000E10    8.976924237313368E-3  -1.760803001145500E-2  
 2.255000000000000E10   -1.564838342583373E-3  -2.079324834901142E-2  
 2.256000000000000E10   -1.058951901561176E-2  -1.665030941642186E-2  
 2.257000000000000E10   -1.790042928198433E-2  -9.390008827839852E-3  
 2.258000000000000E10   -1.985365698304597E-2   1.019739173033784E-3  
 2.259000000000000E10   -1.624176918646016E-2   1.105944044170765E-2  
 2.260000000000000E10   -9.844334105067520E-3   1.818203177971005E-2  
 2.261000000000000E10    3.378913474414984E-3   1.967885041622944E-2  
 2.262000000000000E10    1.195939282722636E-2   1.461670767682030E-2  
 2.263000000000000E10    1.927138687769391E-2   6.864200503956301E-3  
 2.264000000000000E10    1.852397029980733E-2  -3.781446011020833E-3  
 2.265000000000000E10    1.385428384195824E-2  -1.192192816805355E-2  
 2.266000000000000E10    5.896897826830426E-3  -1.820837890430058E-2  
 2.267000000000000E10   -4.676432426119296E-3  -1.823148194459950E-2  
 2.268000000000000E10   -1.250445940928782E-2  -1.401815909412900E-2  
 2.269000000000000E10   -1.955258174342137E-2  -5.913277291196929E-3  
 2.270000000000000E10   -1.866042773261658E-2   5.938489967821065E-3  
 2.271000000000000E10   -1.390295549048827E-2   1.389157675980520E-2  
 2.272000000000000E10   -4.774440334392043E-3   1.942595791041199E-2  
 2.273000000000000E10    6.294765709125349E-3   1.987305770080612E-2  
 2.274000000000000E10    1.404525198230649E-2   1.370927318810732E-2  
 2.275000000000000E10    1.955973319402977E-2   4.803047081448022E-3  
 2.276000000000000E10    1.868013274403439E-2  -5.036749886236135E-3  
 2.277000000000000E10    1.388175874893181E-2  -1.444750305480357E-2  
 2.278000000000000E10    4.503822593702803E-3  -1.850391420689301E-2  
