#  HZ   S   RI   R     50.00 
! Rohde & Schwarz ZVA40 4Ports - Version 3.90 - 1145.1110k42 SN: 100403
! Date: 2023-09-26 10:30:34
! Measurement: S12 
! 
 2.000000000000000E10   -6.752728603855372E-3   2.491657643634396E-2  
 2.001000000000000E10    6.551039932264663E-3   2.633906420620900E-2  
 2.002000000000000E10    1.885337405018921E-2   1.961303457131558E-2  
 2.003000000000000E10    2.639536526234075E-2   7.535246147708515E-3  
 2.004000000000000E10    2.594731530450860E-2  -6.842516203472283E-3  
 2.005000000000000E10    2.000617300916043E-2  -1.991532325937863E-2  
 2.006000000000000E10    6.919765193617441E-3  -2.595976450763703E-2  
 2.007000000000000E10   -7.693709674261477E-3  -2.666084881029855E-2  
 2.008000000000000E10   -1.992933252701798E-2  -1.937550401292286E-2  
 2.009000000000000E10   -2.659778705694734E-2  -6.410788533923914E-3  
 2.010000000000000E10   -2.657011283113347E-2   7.784013671246673E-3  
 2.011000000000000E10   -1.908064225840054E-2   2.140879167796574E-2  
 2.012000000000000E10   -5.306750821130991E-3   2.700298520006886E-2  
 2.013000000000000E10    8.418520319087030E-3   2.703089462488938E-2  
 2.014000000000000E10    2.095503074797726E-2   1.834664968742180E-2  
 2.015000000000000E10    2.582094411767216E-2   5.638331117468786E-3  
 2.016000000000000E10    2.645007411226789E-2  -8.609109800061132E-3  
 2.017000000000000E10    1.734320676096230E-2  -2.161787764048501E-2  
 2.018000000000000E10    4.860969421939565E-3  -2.690461070011903E-2  
 2.019000000000000E10   -1.037654400252772E-2  -2.586121048601934E-2  
 2.020000000000000E10   -2.264529464831410E-2  -1.562125386587086E-2  
 2.021000000000000E10   -2.717403579363747E-2  -3.049972164349962E-3  
 2.022000000000000E10   -2.608195473851510E-2   1.248772765427618E-2  
 2.023000000000000E10   -1.541782833465901E-2   2.322219659781381E-2  
 2.024000000000000E10   -1.312039476949704E-3   2.813337690923615E-2  
 2.025000000000000E10    1.444873500612994E-2   2.517543571895295E-2  
 2.026000000000000E10    2.413689216450101E-2   1.408318887118950E-2  
 2.027000000000000E10    2.812130187008954E-2   4.916911354585737E-4  
 2.028000000000000E10    2.445468160491505E-2  -1.442240563070374E-2  
 2.029000000000000E10    1.421175375551177E-2  -2.394174583678781E-2  
 2.030000000000000E10   -6.976908035172822E-4  -2.913354039186841E-2  
 2.031000000000000E10   -1.571335501762019E-2  -2.497918408070699E-2  
 2.032000000000000E10   -2.606727818732434E-2  -1.212661803244668E-2  
 2.033000000000000E10   -2.946341005248128E-2   2.098241860127617E-3  
 2.034000000000000E10   -2.292230322250538E-2   1.735908828136845E-2  
 2.035000000000000E10   -1.293494380540638E-2   2.585614183241349E-2  
 2.036000000000000E10    3.379987598273660E-3   2.924652234707814E-2  
 2.037000000000000E10    1.645435197859212E-2   2.303294100568409E-2  
 2.038000000000000E10    2.561962915139218E-2   1.190481951305504E-2  
 2.039000000000000E10    2.884857567114316E-2  -3.053828648002387E-3  
 2.040000000000000E10    2.257515478834916E-2  -1.683797357964230E-2  
 2.041000000000000E10    1.139643608630991E-2  -2.522993048348733E-2  
 2.042000000000000E10   -3.698112842064787E-3  -2.797207306283418E-2  
 2.043000000000000E10   -1.675124412371255E-2  -2.120974452396413E-2  
 2.044000000000000E10   -2.580283448594400E-2  -9.788761057821659E-3  
 2.045000000000000E10   -2.723633084659959E-2   4.244910133408857E-3  
 2.046000000000000E10   -2.039422711466370E-2   1.707115960313855E-2  
 2.047000000000000E10   -1.041118124275265E-2   2.582206931594373E-2  
 2.048000000000000E10    5.742225845708802E-3   2.720303480085087E-2  
 2.049000000000000E10    1.692771074913464E-2   2.040852296269322E-2  
 2.050000000000000E10    2.586152942470990E-2   7.925483443876459E-3  
 2.051000000000000E10    2.572831390651437E-2  -5.627438618895150E-3  
 2.052000000000000E10    1.909854501763382E-2  -1.820184671294270E-2  
 2.053000000000000E10    7.777335024642756E-3  -2.591389137385617E-2  
 2.054000000000000E10   -7.456500267047407E-3  -2.544695343539696E-2  
 2.055000000000000E10   -1.886769808572007E-2  -1.882346818968868E-2  
 2.056000000000000E10   -2.679667899069462E-2  -5.564997553199008E-3  
 2.057000000000000E10   -2.488696944180985E-2   8.513865243434525E-3  
 2.058000000000000E10   -1.761463768148613E-2   2.016696960360833E-2  
 2.059000000000000E10   -5.026557773769903E-3   2.616714755933018E-2  
 2.060000000000000E10    9.004518599566365E-3   2.416471378169519E-2  
 2.061000000000000E10    1.929281034899388E-2   1.778393869745026E-2  
 2.062000000000000E10    2.500826309507180E-2   3.662586505035831E-3  
 2.063000000000000E10    2.472909324858571E-2  -8.247145936639597E-3  
 2.064000000000000E10    1.738867555505868E-2  -2.106015845037156E-2  
 2.065000000000000E10    5.054306587016296E-3  -2.500357772103997E-2  
 2.066000000000000E10   -9.302174844091796E-3  -2.484237814067746E-2  
 2.067000000000000E10   -2.105660589419518E-2  -1.621484555937386E-2  
 2.068000000000000E10   -2.601387327833730E-2  -1.973160452723432E-3  
 2.069000000000000E10   -2.368780622670174E-2   9.998577493593982E-3  
 2.070000000000000E10   -1.506702515965319E-2   2.228651274876099E-2  
 2.071000000000000E10   -1.934063585240591E-3   2.534358750734387E-2  
 2.072000000000000E10    1.168578623922082E-2   2.442757446563340E-2  
 2.073000000000000E10    2.133621840545311E-2   1.422619414345780E-2  
 2.074000000000000E10    2.530343773884126E-2   9.913284273980619E-4  
 2.075000000000000E10    2.303231375570012E-2  -1.179994254125967E-2  
 2.076000000000000E10    1.300865892281771E-2  -2.193195056553498E-2  
 2.077000000000000E10    5.673862414199204E-4  -2.514763867668477E-2  
 2.078000000000000E10   -1.356176250133458E-2  -2.209472315720940E-2  
 2.079000000000000E10   -2.142006316600247E-2  -1.104574109499302E-2  
 2.080000000000000E10   -2.486016797117310E-2   9.753826264153129E-5  
 2.081000000000000E10   -2.096870938746968E-2   1.267532696586590E-2  
 2.082000000000000E10   -1.169143346250868E-2   2.148668300487633E-2  
 2.083000000000000E10   -7.325406866641285E-4   2.520146721120835E-2  
 2.084000000000000E10    1.427206253098431E-2   2.150668366166993E-2  
 2.085000000000000E10    2.078289862854863E-2   1.145274190476609E-2  
 2.086000000000000E10    2.464855463844815E-2  -3.709773621021094E-4  
 2.087000000000000E10    2.012396859053212E-2  -1.338290381940432E-2  
 2.088000000000000E10    1.046731379320450E-2  -2.151313683998185E-2  
 2.089000000000000E10   -1.644200584632480E-3  -2.352227515229111E-2  
 2.090000000000000E10   -1.333421172385683E-2  -1.892523132456227E-2  
 2.091000000000000E10   -1.957472643065206E-2  -1.061104319825535E-2  
 2.092000000000000E10   -2.315291231838837E-2   6.761051463437858E-4  
 2.093000000000000E10   -1.841888215525342E-2   1.230504444074183E-2  
 2.094000000000000E10   -9.841627084872155E-3   2.023887931112004E-2  
 2.095000000000000E10    1.223260920459149E-3   2.156256385065652E-2  
 2.096000000000000E10    1.255531073592577E-2   1.724768122498990E-2  
 2.097000000000000E10    1.852977406680184E-2   9.790422774371053E-3  
 2.098000000000000E10    2.153722038342477E-2  -2.352269218345833E-3  
 2.099000000000000E10    1.691752066386452E-2  -1.243745933476744E-2  
 2.100000000000000E10    8.816457231812670E-3  -1.932778894534379E-2  
 2.101000000000000E10   -2.522256651074077E-3  -2.052595582348538E-2  
 2.102000000000000E10   -1.238146383241826E-2  -1.571814511973477E-2  
 2.103000000000000E10   -1.824506172138615E-2  -7.611768967829373E-3  
 2.104000000000000E10   -2.019404149272500E-2   3.259311266766859E-3  
 2.105000000000000E10   -1.594360123041344E-2   1.216739187169285E-2  
 2.106000000000000E10   -7.629784627672865E-3   1.906855090649166E-2  
 2.107000000000000E10    3.553648941282464E-3   1.986299973174592E-2  
 2.108000000000000E10    1.194424990166770E-2   1.560771266180287E-2  
 2.109000000000000E10    1.826161518951550E-2   7.749950807260993E-3  
 2.110000000000000E10    1.954429934471875E-2  -2.607681810185457E-3  
 2.111000000000000E10    1.657071180041028E-2  -1.214201855790425E-2  
 2.112000000000000E10    8.148164562579920E-3  -1.948482791279869E-2  
 2.113000000000000E10   -2.723802934046794E-3  -1.968950015694428E-2  
 2.114000000000000E10   -1.197944115864544E-2  -1.683461883754445E-2  
 2.115000000000000E10   -1.888141672126618E-2  -8.281750150953390E-3  
 2.116000000000000E10   -2.086996606208821E-2   9.790184252631844E-4  
 2.117000000000000E10   -1.757857732493630E-2   1.226651929744492E-2  
 2.118000000000000E10   -8.208636044504549E-3   1.969654919061566E-2  
 2.119000000000000E10    1.828109018106985E-3   2.071097221230450E-2  
 2.120000000000000E10    1.218279113214636E-2   1.742925785005837E-2  
 2.121000000000000E10    1.912590735849629E-2   8.319276286225417E-3  
 2.122000000000000E10    2.072422175516205E-2  -1.371540533913637E-3  
 2.123000000000000E10    1.746915138491269E-2  -1.292048933855181E-2  
 2.124000000000000E10    8.297332483377839E-3  -1.894315069370118E-2  
 2.125000000000000E10   -1.345595258757389E-3  -2.119150567235299E-2  
 2.126000000000000E10   -1.204751716892558E-2  -1.753552570609799E-2  
 2.127000000000000E10   -1.910476205480576E-2  -8.938244218968012E-3  
 2.128000000000000E10   -2.134288864427720E-2   1.621959913086701E-3  
 2.129000000000000E10   -1.699133473343545E-2   1.315690579368067E-2  
 2.130000000000000E10   -9.005818545049955E-3   1.904748722202359E-2  
 2.131000000000000E10    3.425621642533757E-3   2.189365860931836E-2  
 2.132000000000000E10    1.301970061870232E-2   1.700424787114659E-2  
 2.133000000000000E10    2.015307450897465E-2   8.303019571918585E-3  
 2.134000000000000E10    2.176775409232198E-2  -3.915657501994586E-3  
 2.135000000000000E10    1.610068307452536E-2  -1.442609822795973E-2  
 2.136000000000000E10    8.452450292142298E-3  -2.033401688267479E-2  
 2.137000000000000E10   -3.956823607849218E-3  -2.295526290098611E-2  
 2.138000000000000E10   -1.502755056964627E-2  -1.721386054982415E-2  
 2.139000000000000E10   -2.204402219082986E-2  -8.241078627016452E-3  
 2.140000000000000E10   -2.288398398102932E-2   5.163032984458353E-3  
 2.141000000000000E10   -1.691851861937943E-2   1.584138581816407E-2  
 2.142000000000000E10   -7.868411016433338E-3   2.145696129405079E-2  
 2.143000000000000E10    5.619529272972585E-3   2.363114157494508E-2  
 2.144000000000000E10    1.530506648553172E-2   1.682379961298066E-2  
 2.145000000000000E10    2.319135671523744E-2   7.252603197252466E-3  
 2.146000000000000E10    2.218619273462296E-2  -5.388263048348238E-3  
 2.147000000000000E10    1.669271366135083E-2  -1.623499638768635E-2  
 2.148000000000000E10    6.603922746001341E-3  -2.191856838693810E-2  
 2.149000000000000E10   -6.482434987125686E-3  -2.264636783344441E-2  
 2.150000000000000E10   -1.662692400566426E-2  -1.556224295061188E-2  
 2.151000000000000E10   -2.251534941149598E-2  -4.467801281483936E-3  
 2.152000000000000E10   -2.146186770602666E-2   6.206420076768638E-3  
 2.153000000000000E10   -1.442932148402720E-2   1.635358949912520E-2  
 2.154000000000000E10   -4.146310569308521E-3   2.111633808817559E-2  
 2.155000000000000E10    7.417281782649996E-3   2.081062401580506E-2  
 2.156000000000000E10    1.525267981717225E-2   1.438774914307766E-2  
 2.157000000000000E10    2.283643102346115E-2   3.929096816292478E-3  
 2.158000000000000E10    2.061656279103718E-2  -7.181687693000224E-3  
 2.159000000000000E10    1.364008033781767E-2  -1.765021915000935E-2  
 2.160000000000000E10    2.951520912631631E-3  -2.288537412807446E-2  
 2.161000000000000E10   -9.226449989272786E-3  -2.065408369140168E-2  
 2.162000000000000E10   -1.760073418492661E-2  -1.389712919740448E-2  
 2.163000000000000E10   -2.354496295519982E-2  -2.148378819779587E-3  
 2.164000000000000E10   -2.067116932668991E-2   9.257017349908449E-3  
 2.165000000000000E10   -1.399766289746266E-2   1.932106278352337E-2  
 2.166000000000000E10   -2.321912006767441E-3   2.339526249896546E-2  
 2.167000000000000E10    1.059877755281458E-2   2.131783558271313E-2  
 2.168000000000000E10    2.026084749079209E-2   1.392332985922509E-2  
 2.169000000000000E10    2.399657136946317E-2   4.459325648477235E-4  
 2.170000000000000E10    2.160449913204213E-2  -1.175199699281006E-2  
 2.171000000000000E10    1.243759548576718E-2  -2.118501463304577E-2  
 2.172000000000000E10    7.444830510854560E-4  -2.290089519160309E-2  
 2.173000000000000E10   -1.149677280298510E-2  -2.156205403176938E-2  
 2.174000000000000E10   -2.122881155004330E-2  -1.291177778356314E-2  
 2.175000000000000E10   -2.420588290507909E-2   1.263613982899130E-4  
 2.176000000000000E10   -2.018751421969738E-2   1.114629132570010E-2  
 2.177000000000000E10   -1.220454744360848E-2   2.119241129177266E-2  
 2.178000000000000E10    7.590895799985291E-4   2.294112839591465E-2  
 2.179000000000000E10    1.205334980831452E-2   2.041498325371037E-2  
 2.180000000000000E10    2.162159921961861E-2   1.114115468728829E-2  
 2.181000000000000E10    2.289110097324448E-2  -2.058609989053822E-3  
 2.182000000000000E10    1.954491810380231E-2  -1.236867519852734E-2  
 2.183000000000000E10    1.037376121948004E-2  -2.076175898833428E-2  
 2.184000000000000E10   -1.637149123288918E-3  -2.242847371021690E-2  
 2.185000000000000E10   -1.259917729638377E-2  -1.886577419792214E-2  
 2.186000000000000E10   -2.080774503800221E-2  -1.011038949874239E-2  
 2.187000000000000E10   -2.315661519649831E-2   2.488217148182107E-3  
 2.188000000000000E10   -1.815442504992237E-2   1.391744549602299E-2  
 2.189000000000000E10   -8.752762911536600E-3   2.073468031232701E-2  
 2.190000000000000E10    2.936501401624180E-3   2.296394812089787E-2  
 2.191000000000000E10    1.445803749433585E-2   1.761637568339024E-2  
 2.192000000000000E10    1.999349331107312E-2   8.745006963603308E-3  
 2.193000000000000E10    2.372241016721249E-2  -3.318963557723261E-3  
 2.194000000000000E10    1.738032572127591E-2  -1.475829571163750E-2  
 2.195000000000000E10    7.010571647665598E-3  -2.097403315959969E-2  
 2.196000000000000E10   -3.223634398160983E-3  -2.241627944680119E-2  
 2.197000000000000E10   -1.495454139994784E-2  -1.722109087376385E-2  
 2.198000000000000E10   -2.046947131609307E-2  -7.448374922819425E-3  
 2.199000000000000E10   -2.228412604822445E-2   3.319804462026811E-3  
 2.200000000000000E10   -1.696375064073678E-2   1.464685730687991E-2  
 2.201000000000000E10   -7.440582547443679E-3   2.037186405829716E-2  
 2.202000000000000E10    3.771027076635171E-3   2.175198511817666E-2  
 2.203000000000000E10    1.471909690077839E-2   1.573259322712488E-2  
 2.204000000000000E10    2.133963925170193E-2   6.338125733388045E-3  
 2.205000000000000E10    2.173326835111294E-2  -5.376697604902889E-3  
 2.206000000000000E10    1.559183577676869E-2  -1.456078502010308E-2  
 2.207000000000000E10    7.228396646612741E-3  -2.127282135333825E-2  
 2.208000000000000E10   -5.783713581377604E-3  -2.088181548329239E-2  
 2.209000000000000E10   -1.474668378423167E-2  -1.534931389444676E-2  
 2.210000000000000E10   -2.147508926448727E-2  -5.662337161472036E-3  
 2.211000000000000E10   -2.086058245831433E-2   5.642770019778826E-3  
 2.212000000000000E10   -1.598469575869332E-2   1.526884289965077E-2  
 2.213000000000000E10   -6.296361182387402E-3   2.246069357004910E-2  
 2.214000000000000E10    7.765187451403239E-3   2.123813034942914E-2  
 2.215000000000000E10    1.673514843201046E-2   1.568042327880097E-2  
 2.216000000000000E10    2.316303973610955E-2   5.127037556253624E-3  
 2.217000000000000E10    2.097382650413075E-2  -7.252233965529300E-3  
 2.218000000000000E10    1.539263961725397E-2  -1.671455465455990E-2  
 2.219000000000000E10    4.247338706378509E-3  -2.273946060960522E-2  
 2.220000000000000E10   -8.727585349646570E-3  -2.143597807656536E-2  
 2.221000000000000E10   -1.750227017651749E-2  -1.553634076775437E-2  
 2.222000000000000E10   -2.253424207542306E-2  -3.364088407333518E-3  
 2.223000000000000E10   -2.131034558933964E-2   8.845607374181273E-3  
 2.224000000000000E10   -1.417210035626316E-2   1.810212847933693E-2  
 2.225000000000000E10   -3.128896761617732E-3   2.220274400377179E-2  
 2.226000000000000E10    8.140129861823655E-3   2.059563415015088E-2  
 2.227000000000000E10    1.835822498306904E-2   1.387273507706089E-2  
 2.228000000000000E10    2.079651162456990E-2   2.524505697701263E-3  
 2.229000000000000E10    1.971206448904400E-2  -7.847496144627002E-3  
 2.230000000000000E10    1.355225324290410E-2  -1.774014539179631E-2  
 2.231000000000000E10    2.812569912124205E-3  -2.007929107085801E-2  
 2.232000000000000E10   -7.286844560050918E-3  -1.962519648286114E-2  
 2.233000000000000E10   -1.717168569546891E-2  -1.166148975408259E-2  
 2.234000000000000E10   -2.015042179010373E-2  -1.722466129483128E-3  
 2.235000000000000E10   -1.847315453594666E-2   7.957503656361676E-3  
 2.236000000000000E10   -1.130085792161618E-2   1.711592061893378E-2  
 2.237000000000000E10   -1.586180453429068E-3   2.030573483468381E-2  
 2.238000000000000E10    9.944883381024075E-3   1.852376002376404E-2  
 2.239000000000000E10    1.735024980419465E-2   1.212701067747164E-2  
 2.240000000000000E10    2.157783660844097E-2   7.251653378212571E-4  
 2.241000000000000E10    1.852506581670781E-2  -1.074044516287546E-2  
 2.242000000000000E10    1.068164521746102E-2  -1.806286325621434E-2  
 2.243000000000000E10    1.667061332946301E-4  -2.230453026736641E-2  
 2.244000000000000E10   -1.165946738162146E-2  -1.851614382241631E-2  
 2.245000000000000E10   -1.835007275000516E-2  -1.017164871958866E-2  
 2.246000000000000E10   -2.215508703708992E-2  -1.963352388751269E-4  
 2.247000000000000E10   -1.896265264892846E-2   1.157604785735817E-2  
 2.248000000000000E10   -1.098674468249255E-2   1.834941847112026E-2  
 2.249000000000000E10   -1.676959141378999E-4   2.252799981992665E-2  
 2.250000000000000E10    1.183940702874823E-2   1.938126162079716E-2  
 2.251000000000000E10    1.897407116516610E-2   1.013873270801373E-2  
 2.252000000000000E10    2.229096604364777E-2   2.203018513525069E-4  
 2.253000000000000E10    1.915539228419762E-2  -1.172912094203263E-2  
 2.254000000000000E10    1.061993392141772E-2  -1.836564990080014E-2  
 2.255000000000000E10   -1.919934331341029E-4  -2.169832954145585E-2  
 2.256000000000000E10   -1.025659469567681E-2  -1.822620180594883E-2  
 2.257000000000000E10   -1.888099837830849E-2  -1.030902397002726E-2  
 2.258000000000000E10   -2.100523576560975E-2   1.384124635921920E-3  
 2.259000000000000E10   -1.775706596287365E-2   1.124473853724251E-2  
 2.260000000000000E10   -1.107959352508574E-2   1.821294538471737E-2  
 2.261000000000000E10    1.988013634104953E-3   2.116057430233460E-2  
 2.262000000000000E10    1.118264715809956E-2   1.753213506993809E-2  
 2.263000000000000E10    1.952170477516576E-2   7.960996818697740E-3  
 2.264000000000000E10    1.914710681405087E-2  -2.844099144352627E-3  
 2.265000000000000E10    1.474672207871237E-2  -1.147531100133934E-2  
 2.266000000000000E10    7.665644091791583E-3  -1.935725845513268E-2  
 2.267000000000000E10   -4.200559003272963E-3  -1.994092071066228E-2  
 2.268000000000000E10   -1.306190968428812E-2  -1.517318745420389E-2  
 2.269000000000000E10   -1.977320423642903E-2  -6.580314870779229E-3  
 2.270000000000000E10   -1.966218156590596E-2   4.824372553349877E-3  
 2.271000000000000E10   -1.494695876054059E-2   1.381287622859211E-2  
 2.272000000000000E10   -6.406116976865341E-3   1.981466789277420E-2  
 2.273000000000000E10    5.414564091372539E-3   2.033315765522461E-2  
 2.274000000000000E10    1.417928175435601E-2   1.475872957795888E-2  
 2.275000000000000E10    2.051675521633988E-2   5.720677928908206E-3  
 2.276000000000000E10    2.039485914026738E-2  -4.352370598151160E-3  
 2.277000000000000E10    1.557408647736302E-2  -1.444532912426796E-2  
 2.278000000000000E10    5.647514343888189E-3  -1.987359081958848E-2  
