#  HZ   S   RI   R     50.00 
! Rohde & Schwarz ZVA40 4Ports - Version 3.90 - 1145.1110k42 SN: 100403
! Date: 2023-09-26 10:32:00
! Measurement: S12 
! 
 2.000000000000000E10   -7.616728902922870E-3   2.514890983060265E-2  
 2.001000000000000E10    6.569917048344375E-3   2.616884137677194E-2  
 2.002000000000000E10    1.864203575947857E-2   2.012389041880894E-2  
 2.003000000000000E10    2.604610244200326E-2   7.502715739819053E-3  
 2.004000000000000E10    2.576014924654866E-2  -6.477656908511164E-3  
 2.005000000000000E10    1.972036793800640E-2  -1.878979179849816E-2  
 2.006000000000000E10    7.248119386768582E-3  -2.568647967447663E-2  
 2.007000000000000E10   -7.062528884150507E-3  -2.618320056972886E-2  
 2.008000000000000E10   -1.930837050018693E-2  -1.955678821768761E-2  
 2.009000000000000E10   -2.627398197402955E-2  -6.719051889608862E-3  
 2.010000000000000E10   -2.651005993902207E-2   7.498583493016246E-3  
 2.011000000000000E10   -1.981060873901081E-2   2.090031493317223E-2  
 2.012000000000000E10   -5.935509763072015E-3   2.685408225265790E-2  
 2.013000000000000E10    8.515736864340784E-3   2.648447100171662E-2  
 2.014000000000000E10    2.053860975614644E-2   1.862746788628483E-2  
 2.015000000000000E10    2.613503135388470E-2   5.824107622143747E-3  
 2.016000000000000E10    2.623993339420987E-2  -8.186414489644529E-3  
 2.017000000000000E10    1.760404958215237E-2  -2.063409201783181E-2  
 2.018000000000000E10    5.346066724239112E-3  -2.699371013835717E-2  
 2.019000000000000E10   -1.007866642271805E-2  -2.590886700785256E-2  
 2.020000000000000E10   -2.252828495082951E-2  -1.637927672476483E-2  
 2.021000000000000E10   -2.705591785124398E-2  -3.398948622214795E-3  
 2.022000000000000E10   -2.565942902539063E-2   1.201337946371031E-2  
 2.023000000000000E10   -1.561539636938000E-2   2.282600035647488E-2  
 2.024000000000000E10   -1.990779819646836E-3   2.722408889937592E-2  
 2.025000000000000E10    1.329103949530268E-2   2.533182071814824E-2  
 2.026000000000000E10    2.342221943300343E-2   1.442392193623448E-2  
 2.027000000000000E10    2.802526719736005E-2   1.342392374022126E-3  
 2.028000000000000E10    2.353922455348398E-2  -1.368962117876959E-2  
 2.029000000000000E10    1.433896175073195E-2  -2.384639050373269E-2  
 2.030000000000000E10   -3.810808326244351E-6  -2.873551125309850E-2  
 2.031000000000000E10   -1.566791493298817E-2  -2.507837759636689E-2  
 2.032000000000000E10   -2.555333023146153E-2  -1.326235442148734E-2  
 2.033000000000000E10   -2.884930158543302E-2   1.247118756270886E-3  
 2.034000000000000E10   -2.376690844660187E-2   1.588524758188439E-2  
 2.035000000000000E10   -1.321390377507305E-2   2.544074768884278E-2  
 2.036000000000000E10    2.045875460202754E-3   2.895374536515809E-2  
 2.037000000000000E10    1.619179995307064E-2   2.311664240995217E-2  
 2.038000000000000E10    2.570164643719769E-2   1.186482160813475E-2  
 2.039000000000000E10    2.847983422896767E-2  -1.903052737628788E-3  
 2.040000000000000E10    2.223417873887158E-2  -1.612381565052558E-2  
 2.041000000000000E10    1.202161411186838E-2  -2.515404264104844E-2  
 2.042000000000000E10   -3.140434799570204E-3  -2.737780993138123E-2  
 2.043000000000000E10   -1.627007120292950E-2  -2.179665170091344E-2  
 2.044000000000000E10   -2.529973260460568E-2  -1.021506484645176E-2  
 2.045000000000000E10   -2.658800222609616E-2   4.387394114460708E-3  
 2.046000000000000E10   -2.072801189803887E-2   1.652010856166268E-2  
 2.047000000000000E10   -1.047457528440142E-2   2.511929596734524E-2  
 2.048000000000000E10    4.428048767561437E-3   2.589835219213486E-2  
 2.049000000000000E10    1.638837916290666E-2   2.014100578511047E-2  
 2.050000000000000E10    2.567922216367817E-2   8.849065171025756E-3  
 2.051000000000000E10    2.583027676320458E-2  -4.314990987178566E-3  
 2.052000000000000E10    1.964270550681306E-2  -1.730069704136372E-2  
 2.053000000000000E10    8.798310212152006E-3  -2.579599905016804E-2  
 2.054000000000000E10   -6.587447645718576E-3  -2.494308109572888E-2  
 2.055000000000000E10   -1.790221257121277E-2  -1.955478264752865E-2  
 2.056000000000000E10   -2.608826943130685E-2  -5.983840088622334E-3  
 2.057000000000000E10   -2.512546503116894E-2   7.093480314396383E-3  
 2.058000000000000E10   -1.880592694179726E-2   1.976507308561898E-2  
 2.059000000000000E10   -5.708144388497592E-3   2.580643510106850E-2  
 2.060000000000000E10    8.290561007042410E-3   2.441355303665353E-2  
 2.061000000000000E10    1.930729745846845E-2   1.799394913806630E-2  
 2.062000000000000E10    2.512222696175481E-2   5.167468478178503E-3  
 2.063000000000000E10    2.379955815487481E-2  -7.057734587328198E-3  
 2.064000000000000E10    1.779126470223141E-2  -1.943775223499585E-2  
 2.065000000000000E10    5.423731795475484E-3  -2.504526575957204E-2  
 2.066000000000000E10   -8.465782221337082E-3  -2.512021462090207E-2  
 2.067000000000000E10   -2.076927334641076E-2  -1.722516317140294E-2  
 2.068000000000000E10   -2.658167020785714E-2  -3.169026040326239E-3  
 2.069000000000000E10   -2.401900221289540E-2   8.665098142205955E-3  
 2.070000000000000E10   -1.598948340539837E-2   2.141611055899143E-2  
 2.071000000000000E10   -3.577392609142066E-3   2.465899418063165E-2  
 2.072000000000000E10    1.025434194544077E-2   2.455001793629742E-2  
 2.073000000000000E10    2.062225012827969E-2   1.463318815592146E-2  
 2.074000000000000E10    2.471889009027863E-2   1.755074051972747E-3  
 2.075000000000000E10    2.305568026533223E-2  -1.089389765633631E-2  
 2.076000000000000E10    1.376409752100420E-2  -2.097697338657094E-2  
 2.077000000000000E10    1.468951451637090E-3  -2.480539014204789E-2  
 2.078000000000000E10   -1.327207508891821E-2  -2.184106174305344E-2  
 2.079000000000000E10   -2.124070934401226E-2  -1.162235768724013E-2  
 2.080000000000000E10   -2.448243117786408E-2  -6.029825099733474E-4  
 2.081000000000000E10   -2.119230718762303E-2   1.154747837540865E-2  
 2.082000000000000E10   -1.286082673005104E-2   2.166236109729100E-2  
 2.083000000000000E10   -1.444173981379226E-3   2.489622012228585E-2  
 2.084000000000000E10    1.335597155265856E-2   2.198629984157658E-2  
 2.085000000000000E10    2.059724313641739E-2   1.235420780190373E-2  
 2.086000000000000E10    2.481465292997456E-2   5.582076036495865E-4  
 2.087000000000000E10    2.075002861493302E-2  -1.249874039498234E-2  
 2.088000000000000E10    1.168454393615961E-2  -2.060000940299511E-2  
 2.089000000000000E10   -2.377054046768547E-4  -2.372169251317120E-2  
 2.090000000000000E10   -1.268918838079310E-2  -1.930100081576348E-2  
 2.091000000000000E10   -1.863356778043366E-2  -1.113226107179928E-2  
 2.092000000000000E10   -2.239094969040585E-2  -2.582946290015281E-4  
 2.093000000000000E10   -1.939758091875362E-2   1.128829184887267E-2  
 2.094000000000000E10   -1.115530284301615E-2   1.929314806746197E-2  
 2.095000000000000E10   -5.989135643660963E-6   2.179311172794629E-2  
 2.096000000000000E10    1.151002423170376E-2   1.825166524230862E-2  
 2.097000000000000E10    1.819798371348667E-2   1.100118478766251E-2  
 2.098000000000000E10    2.116563040150452E-2  -7.604838421833590E-4  
 2.099000000000000E10    1.757734602676678E-2  -1.115766449426842E-2  
 2.100000000000000E10    9.403915172665598E-3  -1.903077953262139E-2  
 2.101000000000000E10   -2.271962135961890E-3  -1.959286755001164E-2  
 2.102000000000000E10   -1.089193302144528E-2  -1.623894811621666E-2  
 2.103000000000000E10   -1.789646057426167E-2  -9.069232558743956E-3  
 2.104000000000000E10   -2.051507531865693E-2   2.043141648712337E-3  
 2.105000000000000E10   -1.653460883883096E-2   1.086189192427922E-2  
 2.106000000000000E10   -1.003224102872515E-2   1.936561216784192E-2  
 2.107000000000000E10    2.662345887592198E-3   2.026327205408097E-2  
 2.108000000000000E10    1.086948767679263E-2   1.684829001096821E-2  
 2.109000000000000E10    1.835156527514935E-2   9.074987212029937E-3  
 2.110000000000000E10    2.034638058309556E-2  -1.625033447286368E-3  
 2.111000000000000E10    1.771768443124009E-2  -1.098348765769291E-2  
 2.112000000000000E10    9.529128266816143E-3  -1.987958976532269E-2  
 2.113000000000000E10   -7.691263793354783E-4  -2.038953813385010E-2  
 2.114000000000000E10   -1.156280747079850E-2  -1.848090052054310E-2  
 2.115000000000000E10   -1.904198499441148E-2  -9.612258914812089E-3  
 2.116000000000000E10   -2.152953706992150E-2   6.143148507780432E-4  
 2.117000000000000E10   -1.917414388398839E-2   1.161519031758023E-2  
 2.118000000000000E10   -9.342183398684026E-3   1.980673308097077E-2  
 2.119000000000000E10    1.014219213436783E-3   2.116410013777829E-2  
 2.120000000000000E10    1.155504332187415E-2   1.910761947929383E-2  
 2.121000000000000E10    1.883922342441178E-2   9.498950994023325E-3  
 2.122000000000000E10    2.255495325251675E-2  -4.077515800402762E-4  
 2.123000000000000E10    1.825491242095662E-2  -1.238602061601639E-2  
 2.124000000000000E10    9.881833644065384E-3  -1.923118946163178E-2  
 2.125000000000000E10   -8.618717639513018E-4  -2.221901674261571E-2  
 2.126000000000000E10   -1.229335343725491E-2  -1.888980461509228E-2  
 2.127000000000000E10   -2.015895325187970E-2  -1.020827013694334E-2  
 2.128000000000000E10   -2.242707627741719E-2   9.855758640924994E-4  
 2.129000000000000E10   -1.845463213326836E-2   1.322807623597622E-2  
 2.130000000000000E10   -9.914357753612045E-3   1.992514982292176E-2  
 2.131000000000000E10    2.769784678098441E-3   2.337419497614002E-2  
 2.132000000000000E10    1.358111230681086E-2   1.791139580613423E-2  
 2.133000000000000E10    2.045652314117814E-2   9.090188317741874E-3  
 2.134000000000000E10    2.215056338087750E-2  -2.789118875790358E-3  
 2.135000000000000E10    1.706481296257401E-2  -1.427744788545513E-2  
 2.136000000000000E10    9.431474786566738E-3  -2.081500700712491E-2  
 2.137000000000000E10   -3.928388065516235E-3  -2.391754467188264E-2  
 2.138000000000000E10   -1.463944335957957E-2  -1.815888589333344E-2  
 2.139000000000000E10   -2.256883883229161E-2  -8.743053762088776E-3  
 2.140000000000000E10   -2.457303070537378E-2   4.640126030489446E-3  
 2.141000000000000E10   -1.784493657774449E-2   1.525949014172173E-2  
 2.142000000000000E10   -8.492840944286349E-3   2.197212473759174E-2  
 2.143000000000000E10    5.096876752587320E-3   2.346028578854180E-2  
 2.144000000000000E10    1.533950493773890E-2   1.794946188377667E-2  
 2.145000000000000E10    2.307326306739044E-2   7.909390150361063E-3  
 2.146000000000000E10    2.388179565163328E-2  -4.791173875895262E-3  
 2.147000000000000E10    1.772323285695935E-2  -1.680456458129693E-2  
 2.148000000000000E10    7.102463373758318E-3  -2.312789353484821E-2  
 2.149000000000000E10   -6.332085342659476E-3  -2.334555602882577E-2  
 2.150000000000000E10   -1.742617368572999E-2  -1.693425017820168E-2  
 2.151000000000000E10   -2.373253439796543E-2  -5.560073230527401E-3  
 2.152000000000000E10   -2.177418859244252E-2   6.224257656658413E-3  
 2.153000000000000E10   -1.527208532553244E-2   1.648529506484890E-2  
 2.154000000000000E10   -5.233296673607828E-3   2.181571364315034E-2  
 2.155000000000000E10    6.852209675297978E-3   2.112962711279012E-2  
 2.156000000000000E10    1.570506325340462E-2   1.551983487686062E-2  
 2.157000000000000E10    2.314784158773900E-2   4.241158976337434E-3  
 2.158000000000000E10    2.111688119173623E-2  -7.840519753738404E-3  
 2.159000000000000E10    1.530987436158753E-2  -1.803617765329743E-2  
 2.160000000000000E10    3.703935908859254E-3  -2.315056448936654E-2  
 2.161000000000000E10   -8.543243343984128E-3  -2.131469487537480E-2  
 2.162000000000000E10   -1.745494997188378E-2  -1.499102875486612E-2  
 2.163000000000000E10   -2.407756636589909E-2  -3.227260314741374E-3  
 2.164000000000000E10   -2.147817100794984E-2   9.027149526544098E-3  
 2.165000000000000E10   -1.456884166433192E-2   1.995670418598175E-2  
 2.166000000000000E10   -2.953549227619887E-3   2.424569750121022E-2  
 2.167000000000000E10    9.882451217803241E-3   2.196224223826314E-2  
 2.168000000000000E10    2.017422235040093E-2   1.471400273706437E-2  
 2.169000000000000E10    2.530459404671765E-2   1.989553424463273E-3  
 2.170000000000000E10    2.290847994873524E-2  -1.085309034605551E-2  
 2.171000000000000E10    1.324318707029009E-2  -2.172444401413632E-2  
 2.172000000000000E10    1.286324539829254E-3  -2.395780815149212E-2  
 2.173000000000000E10   -1.094387437338543E-2  -2.254773897050954E-2  
 2.174000000000000E10   -2.118044468984986E-2  -1.360716406845665E-2  
 2.175000000000000E10   -2.405338152840997E-2  -6.094520394594224E-4  
 2.176000000000000E10   -2.163595000610924E-2   1.096339443914271E-2  
 2.177000000000000E10   -1.331533689056445E-2   2.159938644743634E-2  
 2.178000000000000E10   -8.986394190559984E-4   2.321873677668858E-2  
 2.179000000000000E10    1.209598433762217E-2   2.174830409317399E-2  
 2.180000000000000E10    2.131326541598130E-2   1.171749145081043E-2  
 2.181000000000000E10    2.363924560790540E-2  -1.468953491164238E-3  
 2.182000000000000E10    2.012343775989437E-2  -1.249618407384015E-2  
 2.183000000000000E10    1.105982887012005E-2  -2.146426623740197E-2  
 2.184000000000000E10   -1.115772594771713E-3  -2.367045886405564E-2  
 2.185000000000000E10   -1.296490758556844E-2  -2.009918185652161E-2  
 2.186000000000000E10   -2.075025031539060E-2  -1.026780285149765E-2  
 2.187000000000000E10   -2.373106042203904E-2   2.152384958991528E-3  
 2.188000000000000E10   -1.907075566375828E-2   1.416636278632021E-2  
 2.189000000000000E10   -9.381785752718927E-3   2.139035161692334E-2  
 2.190000000000000E10    1.774729466988802E-3   2.407049290793325E-2  
 2.191000000000000E10    1.396843844456864E-2   1.902190427163887E-2  
 2.192000000000000E10    2.058340806515599E-2   9.351071686057094E-3  
 2.193000000000000E10    2.443479083463002E-2  -2.468120086905480E-3  
 2.194000000000000E10    1.823702814298630E-2  -1.470226609186840E-2  
 2.195000000000000E10    9.508205405683042E-3  -2.106226015591145E-2  
 2.196000000000000E10   -2.463149772548915E-3  -2.348760419156933E-2  
 2.197000000000000E10   -1.509309024559784E-2  -1.846026976900578E-2  
 2.198000000000000E10   -2.072135387522794E-2  -8.865554875976565E-3  
 2.199000000000000E10   -2.350311670370007E-2   3.495584827839137E-3  
 2.200000000000000E10   -1.701069272610855E-2   1.584346272203446E-2  
 2.201000000000000E10   -8.685864358065606E-3   2.152643569794655E-2  
 2.202000000000000E10    3.916977637408376E-3   2.225634000923348E-2  
 2.203000000000000E10    1.518718991753579E-2   1.679226666342736E-2  
 2.204000000000000E10    2.188536169598675E-2   7.913213623654845E-3  
 2.205000000000000E10    2.237562541494752E-2  -4.480258224888087E-3  
 2.206000000000000E10    1.718798692138482E-2  -1.516944992127085E-2  
 2.207000000000000E10    7.910918753962996E-3  -2.186704948781681E-2  
 2.208000000000000E10   -4.813045500114443E-3  -2.247521136313344E-2  
 2.209000000000000E10   -1.482244673337031E-2  -1.684310701924324E-2  
 2.210000000000000E10   -2.277491815978051E-2  -7.177414871641161E-3  
 2.211000000000000E10   -2.253589539772606E-2   5.273916933880808E-3  
 2.212000000000000E10   -1.693223153762246E-2   1.643892276829434E-2  
 2.213000000000000E10   -6.208853756033660E-3   2.309462130799104E-2  
 2.214000000000000E10    6.949406407817365E-3   2.214662978975392E-2  
 2.215000000000000E10    1.643282140005017E-2   1.679526567290021E-2  
 2.216000000000000E10    2.400618952479649E-2   5.652082130286933E-3  
 2.217000000000000E10    2.158113878429318E-2  -7.400813858985426E-3  
 2.218000000000000E10    1.663194061356831E-2  -1.708336709538842E-2  
 2.219000000000000E10    5.313865830274703E-3  -2.434052134920597E-2  
 2.220000000000000E10   -8.149091362337593E-3  -2.188197619036294E-2  
 2.221000000000000E10   -1.850754594200802E-2  -1.547303354651690E-2  
 2.222000000000000E10   -2.399604380094434E-2  -3.956011809563280E-3  
 2.223000000000000E10   -2.174603372258282E-2   8.499330418098930E-3  
 2.224000000000000E10   -1.505845878366232E-2   1.829568364145184E-2  
 2.225000000000000E10   -3.576433969002367E-3   2.324567602398778E-2  
 2.226000000000000E10    7.640861824893954E-3   2.191536559685899E-2  
 2.227000000000000E10    1.826853705703163E-2   1.493407556466961E-2  
 2.228000000000000E10    2.199140478307152E-2   3.064629144498468E-3  
 2.229000000000000E10    2.123734199663258E-2  -7.482700236054422E-3  
 2.230000000000000E10    1.382988683382511E-2  -1.794196911667442E-2  
 2.231000000000000E10    3.214030490821362E-3  -2.109963927159882E-2  
 2.232000000000000E10   -8.814507407538893E-3  -2.110574168002224E-2  
 2.233000000000000E10   -1.756821242807675E-2  -1.233252935570002E-2  
 2.234000000000000E10   -2.109831069870282E-2  -1.928213864045978E-3  
 2.235000000000000E10   -1.956519623447895E-2   8.102418117238525E-3  
 2.236000000000000E10   -1.219889777387858E-2   1.743462348288727E-2  
 2.237000000000000E10   -1.401465440147758E-3   2.055402521228504E-2  
 2.238000000000000E10    9.780201948710923E-3   2.034031096802331E-2  
 2.239000000000000E10    1.859078430613232E-2   1.191543053128624E-2  
 2.240000000000000E10    2.172281696267605E-2   2.010091776938379E-3  
 2.241000000000000E10    1.949946979235459E-2  -1.059242156418610E-2  
 2.242000000000000E10    1.170247013812351E-2  -1.849267206971455E-2  
 2.243000000000000E10    7.133797649286093E-4  -2.236167924189282E-2  
 2.244000000000000E10   -1.157858558199215E-2  -1.917829568184758E-2  
 2.245000000000000E10   -1.893877186429310E-2  -1.032977296818400E-2  
 2.246000000000000E10   -2.251546243061066E-2  -8.928263890322448E-4  
 2.247000000000000E10   -1.987375219338895E-2   1.169416781800938E-2  
 2.248000000000000E10   -1.180552015262604E-2   1.919517637335396E-2  
 2.249000000000000E10    3.614035072748829E-4   2.387043517767811E-2  
 2.250000000000000E10    1.150108095872593E-2   1.933084183487416E-2  
 2.251000000000000E10    1.910949559446621E-2   1.137178393842125E-2  
 2.252000000000000E10    2.421131942328549E-2   8.550868035833987E-4  
 2.253000000000000E10    1.950795833831501E-2  -1.189785872144604E-2  
 2.254000000000000E10    1.123915665663338E-2  -1.902278641518307E-2  
 2.255000000000000E10   -6.333996245874057E-4  -2.221523620940304E-2  
 2.256000000000000E10   -1.056780652345228E-2  -1.843894117376328E-2  
 2.257000000000000E10   -1.839695692221833E-2  -1.094925449550915E-2  
 2.258000000000000E10   -2.211564375131703E-2   5.793323111441285E-4  
 2.259000000000000E10   -1.821771624299431E-2   1.039582188170290E-2  
 2.260000000000000E10   -1.117889603114653E-2   1.871067507404423E-2  
 2.261000000000000E10    1.493121853293777E-3   2.081769551898003E-2  
 2.262000000000000E10    1.156172875354100E-2   1.673314745881176E-2  
 2.263000000000000E10    1.962047675881386E-2   8.624316200879575E-3  
 2.264000000000000E10    1.974540267841816E-2  -2.746299262278319E-3  
 2.265000000000000E10    1.642343988372040E-2  -1.119898360339928E-2  
 2.266000000000000E10    8.354155697519780E-3  -1.978183291032792E-2  
 2.267000000000000E10   -3.473905647478462E-3  -1.997784677868843E-2  
 2.268000000000000E10   -1.218106277900506E-2  -1.645116929304886E-2  
 2.269000000000000E10   -2.001562863133526E-2  -7.533332589271070E-3  
 2.270000000000000E10   -2.066552272613144E-2   4.363799709245683E-3  
 2.271000000000000E10   -1.640313870676327E-2   1.355065397562170E-2  
 2.272000000000000E10   -6.751208881197931E-3   2.047415584290219E-2  
 2.273000000000000E10    4.661544147468091E-3   2.141102691375351E-2  
 2.274000000000000E10    1.405264999532938E-2   1.654724476575470E-2  
 2.275000000000000E10    2.077362834963990E-2   6.453184452149870E-3  
 2.276000000000000E10    2.087355636419487E-2  -4.126112824376346E-3  
 2.277000000000000E10    1.644215492467881E-2  -1.414451873210097E-2  
 2.278000000000000E10    7.149266969650033E-3  -1.988000373928071E-2  
