#  HZ   S   RI   R     50.00 
! Rohde & Schwarz ZVA40 4Ports - Version 3.90 - 1145.1110k42 SN: 100403
! Date: 2023-09-26 10:24:15
! Measurement: S12 
! 
 2.000000000000000E10   -8.126467458865748E-3   2.542477854028890E-2  
 2.001000000000000E10    5.856364755973054E-3   2.730151739264354E-2  
 2.002000000000000E10    1.886976697997005E-2   2.005291839336969E-2  
 2.003000000000000E10    2.706423439635844E-2   7.599722066730555E-3  
 2.004000000000000E10    2.724972340295604E-2  -6.047803136439255E-3  
 2.005000000000000E10    2.052344838991828E-2  -2.013659514291436E-2  
 2.006000000000000E10    7.634868863527256E-3  -2.693971801422901E-2  
 2.007000000000000E10   -7.397931904111518E-3  -2.695890980727747E-2  
 2.008000000000000E10   -2.004051904055863E-2  -2.030782422461498E-2  
 2.009000000000000E10   -2.716628838086865E-2  -6.592783571437333E-3  
 2.010000000000000E10   -2.705480219929679E-2   7.198884826205516E-3  
 2.011000000000000E10   -1.972768644435428E-2   2.088806822073165E-2  
 2.012000000000000E10   -6.131050103049779E-3   2.741811705215239E-2  
 2.013000000000000E10    8.802959661318003E-3   2.715452812322527E-2  
 2.014000000000000E10    2.129241862878131E-2   1.861686231728654E-2  
 2.015000000000000E10    2.693393063209024E-2   5.170283939493491E-3  
 2.016000000000000E10    2.654009763706838E-2  -8.803523321664068E-3  
 2.017000000000000E10    1.797355336327316E-2  -2.095555440214010E-2  
 2.018000000000000E10    5.448406410972181E-3  -2.737096786590750E-2  
 2.019000000000000E10   -1.024907445885862E-2  -2.623586988496570E-2  
 2.020000000000000E10   -2.228768275239862E-2  -1.649757588816778E-2  
 2.021000000000000E10   -2.730016715230842E-2  -3.992610278857994E-3  
 2.022000000000000E10   -2.663054920159916E-2   1.229058608334940E-2  
 2.023000000000000E10   -1.579285376323416E-2   2.316285941924086E-2  
 2.024000000000000E10   -2.415792292567544E-3   2.831659317912852E-2  
 2.025000000000000E10    1.375143238346701E-2   2.578805782263958E-2  
 2.026000000000000E10    2.369953279755862E-2   1.540105632497951E-2  
 2.027000000000000E10    2.896957025728868E-2   1.422301311046006E-3  
 2.028000000000000E10    2.488634257614674E-2  -1.400350132649110E-2  
 2.029000000000000E10    1.565407146255264E-2  -2.317476571340236E-2  
 2.030000000000000E10    8.293800224531916E-4  -2.996848318146540E-2  
 2.031000000000000E10   -1.492519914249737E-2  -2.592116032476227E-2  
 2.032000000000000E10   -2.569547852138462E-2  -1.473661807223053E-2  
 2.033000000000000E10   -3.005919694001947E-2   2.322149443925014E-4  
 2.034000000000000E10   -2.526774589136027E-2   1.558044042771416E-2  
 2.035000000000000E10   -1.467978851742084E-2   2.591124982921257E-2  
 2.036000000000000E10    1.433287643913204E-3   3.019933313102515E-2  
 2.037000000000000E10    1.523593450111870E-2   2.459292679378542E-2  
 2.038000000000000E10    2.551354460104596E-2   1.343257800989936E-2  
 2.039000000000000E10    2.971850672433059E-2  -1.564575048721307E-3  
 2.040000000000000E10    2.421906398954827E-2  -1.575604977400438E-2  
 2.041000000000000E10    1.391650845424197E-2  -2.543970758414565E-2  
 2.042000000000000E10   -2.224116324171425E-3  -2.950989888865171E-2  
 2.043000000000000E10   -1.645614432695208E-2  -2.393237519487139E-2  
 2.044000000000000E10   -2.590985013578906E-2  -1.138401657605273E-2  
 2.045000000000000E10   -2.847874893158061E-2   2.821545505466324E-3  
 2.046000000000000E10   -2.248934564482109E-2   1.699630072013071E-2  
 2.047000000000000E10   -1.178952623886675E-2   2.673789442227112E-2  
 2.048000000000000E10    4.602002196661255E-3   2.875475678016908E-2  
 2.049000000000000E10    1.703539836328279E-2   2.252732718046415E-2  
 2.050000000000000E10    2.721845329258224E-2   1.028791534852084E-2  
 2.051000000000000E10    2.777940145488337E-2  -4.633996295169203E-3  
 2.052000000000000E10    2.141713299746389E-2  -1.810434361131853E-2  
 2.053000000000000E10    9.702935741991384E-3  -2.754829712763818E-2  
 2.054000000000000E10   -6.990026570228299E-3  -2.746803499631028E-2  
 2.055000000000000E10   -1.971898535243012E-2  -2.087670050186901E-2  
 2.056000000000000E10   -2.784393718579482E-2  -6.600970837056103E-3  
 2.057000000000000E10   -2.718675692772026E-2   7.754507250582052E-3  
 2.058000000000000E10   -2.024519313843234E-2   2.130107592176307E-2  
 2.059000000000000E10   -6.100643951996514E-3   2.766690419345206E-2  
 2.060000000000000E10    8.501784849986052E-3   2.667123208666657E-2  
 2.061000000000000E10    2.039347177010266E-2   1.970311087032602E-2  
 2.062000000000000E10    2.743670364916256E-2   5.345803878192331E-3  
 2.063000000000000E10    2.648935877133653E-2  -7.922430974800790E-3  
 2.064000000000000E10    1.936045827234961E-2  -2.136675078588706E-2  
 2.065000000000000E10    5.825799513144007E-3  -2.706070326765437E-2  
 2.066000000000000E10   -9.483320878245658E-3  -2.630652296605581E-2  
 2.067000000000000E10   -2.253266629568668E-2  -1.839157456544840E-2  
 2.068000000000000E10   -2.813648484521994E-2  -2.788422039354866E-3  
 2.069000000000000E10   -2.582240843460625E-2   9.822876135651497E-3  
 2.070000000000000E10   -1.594413947512827E-2   2.336064282689929E-2  
 2.071000000000000E10   -2.978033314762553E-3   2.734228755749130E-2  
 2.072000000000000E10    1.128671523283231E-2   2.601640065365549E-2  
 2.073000000000000E10    2.285437695874998E-2   1.546265141975963E-2  
 2.074000000000000E10    2.697863761376190E-2   1.444995809705987E-3  
 2.075000000000000E10    2.505948044785681E-2  -1.188185602494286E-2  
 2.076000000000000E10    1.388977846084424E-2  -2.317714615645661E-2  
 2.077000000000000E10    1.707724272144776E-3  -2.701442466567301E-2  
 2.078000000000000E10   -1.445494231100007E-2  -2.370757319063097E-2  
 2.079000000000000E10   -2.281647518637357E-2  -1.277494942149126E-2  
 2.080000000000000E10   -2.638464640726003E-2  -1.868376465935875E-4  
 2.081000000000000E10   -2.270770524980662E-2   1.295332211428307E-2  
 2.082000000000000E10   -1.319262201341869E-2   2.313759647642451E-2  
 2.083000000000000E10   -1.121405524739795E-3   2.631157848319470E-2  
 2.084000000000000E10    1.442092381270585E-2   2.353440816082159E-2  
 2.085000000000000E10    2.209240389030417E-2   1.308286700628555E-2  
 2.086000000000000E10    2.690908005795288E-2  -2.719432630096027E-4  
 2.087000000000000E10    2.170034812307247E-2  -1.372057774878512E-2  
 2.088000000000000E10    1.171064840947167E-2  -2.275440127291188E-2  
 2.089000000000000E10   -8.353812868330525E-4  -2.503673899501064E-2  
 2.090000000000000E10   -1.422847319447988E-2  -2.072522738277366E-2  
 2.091000000000000E10   -2.074937483446787E-2  -1.145910029511280E-2  
 2.092000000000000E10   -2.437817813514624E-2   3.625028309129317E-4  
 2.093000000000000E10   -2.064138073954126E-2   1.273675325462094E-2  
 2.094000000000000E10   -1.175628021133702E-2   2.127804792306755E-2  
 2.095000000000000E10    1.205853749121644E-3   2.420639037631557E-2  
 2.096000000000000E10    1.265334308126167E-2   2.014599914967619E-2  
 2.097000000000000E10    2.029347689513466E-2   1.119979214708405E-2  
 2.098000000000000E10    2.412588764124950E-2  -1.387557418972282E-3  
 2.099000000000000E10    1.970182535564829E-2  -1.327232282594715E-2  
 2.100000000000000E10    1.031954201404863E-2  -2.129249145652166E-2  
 2.101000000000000E10   -2.932592467539973E-3  -2.274849031397982E-2  
 2.102000000000000E10   -1.362193077020375E-2  -1.845180304287966E-2  
 2.103000000000000E10   -2.166004041146772E-2  -9.024654608824487E-3  
 2.104000000000000E10   -2.283823102148016E-2   3.708633761744716E-3  
 2.105000000000000E10   -1.831362684786395E-2   1.455100074347774E-2  
 2.106000000000000E10   -8.686032992222965E-3   2.216541898409214E-2  
 2.107000000000000E10    4.760949686794289E-3   2.236713512340473E-2  
 2.108000000000000E10    1.491741098822773E-2   1.716621851610079E-2  
 2.109000000000000E10    2.124096977544784E-2   7.233394479570946E-3  
 2.110000000000000E10    2.242751773962100E-2  -4.401973898208150E-3  
 2.111000000000000E10    1.781437315518590E-2  -1.464926124600025E-2  
 2.112000000000000E10    7.470132564755166E-3  -2.223237655828479E-2  
 2.113000000000000E10   -4.289010471832275E-3  -2.189240525706502E-2  
 2.114000000000000E10   -1.484045654664733E-2  -1.784876718392012E-2  
 2.115000000000000E10   -2.096527747078455E-2  -6.972586915555492E-3  
 2.116000000000000E10   -2.270209561716524E-2   2.877631476120356E-3  
 2.117000000000000E10   -1.815167843868356E-2   1.410299282783697E-2  
 2.118000000000000E10   -7.713694705613582E-3   2.122212923575494E-2  
 2.119000000000000E10    3.162341661605538E-3   2.224569034575094E-2  
 2.120000000000000E10    1.417863113810063E-2   1.865385268349487E-2  
 2.121000000000000E10    2.130032741160580E-2   7.384009141838421E-3  
 2.122000000000000E10    2.293647281553802E-2  -3.283317272123961E-3  
 2.123000000000000E10    1.779251541418473E-2  -1.531477106757113E-2  
 2.124000000000000E10    7.016482873783717E-3  -2.105350872763636E-2  
 2.125000000000000E10   -3.341475460032473E-3  -2.226888123740189E-2  
 2.126000000000000E10   -1.465224886827923E-2  -1.778047320227364E-2  
 2.127000000000000E10   -2.128312167292661E-2  -7.185869539026835E-3  
 2.128000000000000E10   -2.283063577806013E-2   3.908241539713311E-3  
 2.129000000000000E10   -1.741607468047785E-2   1.487760928746302E-2  
 2.130000000000000E10   -8.029394000680515E-3   2.132235179020418E-2  
 2.131000000000000E10    4.758595586293490E-3   2.304060698184772E-2  
 2.132000000000000E10    1.585206699458801E-2   1.642757693629272E-2  
 2.133000000000000E10    2.192188466219687E-2   7.235712034422207E-3  
 2.134000000000000E10    2.244971153010811E-2  -5.089248030885862E-3  
 2.135000000000000E10    1.592550087594397E-2  -1.622498098694972E-2  
 2.136000000000000E10    7.772600355552712E-3  -2.104055211560391E-2  
 2.137000000000000E10   -5.843626144627473E-3  -2.361780611450680E-2  
 2.138000000000000E10   -1.604225474664523E-2  -1.735255817704075E-2  
 2.139000000000000E10   -2.355428852229105E-2  -7.019166406279395E-3  
 2.140000000000000E10   -2.395490667788446E-2   6.590219836027491E-3  
 2.141000000000000E10   -1.700962753251912E-2   1.719075946219874E-2  
 2.142000000000000E10   -7.274502817031757E-3   2.335687906835505E-2  
 2.143000000000000E10    7.052442024567797E-3   2.413215770075178E-2  
 2.144000000000000E10    1.628493324191993E-2   1.696919628524431E-2  
 2.145000000000000E10    2.433849815428544E-2   6.060802686004878E-3  
 2.146000000000000E10    2.376040518208301E-2  -6.884370661678773E-3  
 2.147000000000000E10    1.671939868733535E-2  -1.777525272776650E-2  
 2.148000000000000E10    5.197210953707658E-3  -2.428125495363765E-2  
 2.149000000000000E10   -8.052789929579474E-3  -2.322377603994856E-2  
 2.150000000000000E10   -1.838411819593258E-2  -1.619453334779775E-2  
 2.151000000000000E10   -2.459684223146310E-2  -3.583659499035699E-3  
 2.152000000000000E10   -2.201202116282215E-2   8.758292307502236E-3  
 2.153000000000000E10   -1.425803040745535E-2   1.870915559460788E-2  
 2.154000000000000E10   -2.669766260322096E-3   2.325182529281557E-2  
 2.155000000000000E10    9.424678914366763E-3   2.150369665081565E-2  
 2.156000000000000E10    1.824265868290380E-2   1.465518104361175E-2  
 2.157000000000000E10    2.426466253977929E-2   2.061257913432012E-3  
 2.158000000000000E10    2.140944757730346E-2  -1.010629479059562E-2  
 2.159000000000000E10    1.362215126787471E-2  -1.978961056074001E-2  
 2.160000000000000E10    9.256883728275419E-4  -2.416259585866826E-2  
 2.161000000000000E10   -1.164822672144113E-2  -2.147417073790345E-2  
 2.162000000000000E10   -2.088813504818873E-2  -1.308776449002599E-2  
 2.163000000000000E10   -2.452822656358094E-2   2.900143791970727E-4  
 2.164000000000000E10   -2.069759225860620E-2   1.212404830228731E-2  
 2.165000000000000E10   -1.219582328904017E-2   2.198891645042372E-2  
 2.166000000000000E10    1.391878431525771E-4   2.547562558427512E-2  
 2.167000000000000E10    1.285010198311710E-2   2.224318016587451E-2  
 2.168000000000000E10    2.275392910270229E-2   1.241334333656713E-2  
 2.169000000000000E10    2.604102788766442E-2  -1.540608293503793E-3  
 2.170000000000000E10    2.116724252477136E-2  -1.399285762130219E-2  
 2.171000000000000E10    1.071062372347903E-2  -2.363926208680949E-2  
 2.172000000000000E10   -2.098453326478280E-3  -2.436289245130269E-2  
 2.173000000000000E10   -1.398455817822981E-2  -2.156083659968024E-2  
 2.174000000000000E10   -2.306063918010193E-2  -1.118239871432591E-2  
 2.175000000000000E10   -2.486403762894280E-2   2.485473575568580E-3  
 2.176000000000000E10   -2.022575348655348E-2   1.372653136154398E-2  
 2.177000000000000E10   -1.039852563265422E-2   2.329130190626916E-2  
 2.178000000000000E10    3.170439846848181E-3   2.366548719790074E-2  
 2.179000000000000E10    1.525730505852040E-2   2.053846849659692E-2  
 2.180000000000000E10    2.392486023888679E-2   8.799248948649426E-3  
 2.181000000000000E10    2.367239703735685E-2  -4.982105327955455E-3  
 2.182000000000000E10    1.824170962976741E-2  -1.516508031196082E-2  
 2.183000000000000E10    7.611330492399895E-3  -2.334050425953877E-2  
 2.184000000000000E10   -5.109303683570688E-3  -2.235184513827166E-2  
 2.185000000000000E10   -1.643593101406898E-2  -1.764747245519936E-2  
 2.186000000000000E10   -2.243157842776606E-2  -6.914499985102437E-3  
 2.187000000000000E10   -2.317495409710871E-2   5.751050876790015E-3  
 2.188000000000000E10   -1.624408907435887E-2   1.648926802819383E-2  
 2.189000000000000E10   -5.437018053247525E-3   2.178810470402860E-2  
 2.190000000000000E10    6.122276120212863E-3   2.224714878635515E-2  
 2.191000000000000E10    1.665251144556091E-2   1.642564342552183E-2  
 2.192000000000000E10    2.137236844955370E-2   5.334136644885912E-3  
 2.193000000000000E10    2.259980259555037E-2  -6.564485939481082E-3  
 2.194000000000000E10    1.458281625534344E-2  -1.750924591425636E-2  
 2.195000000000000E10    4.523463468822739E-3  -2.171710628320358E-2  
 2.196000000000000E10   -6.149772507511166E-3  -2.137225976619389E-2  
 2.197000000000000E10   -1.705294971278951E-2  -1.443150720741165E-2  
 2.198000000000000E10   -2.106682542582169E-2  -4.524007787509064E-3  
 2.199000000000000E10   -2.097255131836178E-2   6.521204295363906E-3  
 2.200000000000000E10   -1.393720963003588E-2   1.668881224735812E-2  
 2.201000000000000E10   -4.064827482728179E-3   2.054895186002778E-2  
 2.202000000000000E10    6.785176245060555E-3   2.087194641912199E-2  
 2.203000000000000E10    1.656281530623107E-2   1.309176714759479E-2  
 2.204000000000000E10    2.047159685170590E-2   2.793082443435697E-3  
 2.205000000000000E10    2.008407395013342E-2  -7.811346954660579E-3  
 2.206000000000000E10    1.354148312121618E-2  -1.606763914086096E-2  
 2.207000000000000E10    3.965235006910776E-3  -2.146335108840832E-2  
 2.208000000000000E10   -8.125849828967127E-3  -1.907949417760499E-2  
 2.209000000000000E10   -1.590378822810266E-2  -1.339884883320637E-2  
 2.210000000000000E10   -2.107660984503023E-2  -3.176772990745978E-3  
 2.211000000000000E10   -1.981912703607937E-2   7.979000864982461E-3  
 2.212000000000000E10   -1.333586338448546E-2   1.688175186994331E-2  
 2.213000000000000E10   -2.207893258541377E-3   2.278257151557914E-2  
 2.214000000000000E10    1.004993687980031E-2   1.884726816767006E-2  
 2.215000000000000E10    1.737508912321413E-2   1.286042091790201E-2  
 2.216000000000000E10    2.188013559064564E-2   2.008089743458950E-3  
 2.217000000000000E10    1.875738502820427E-2  -1.015758253722982E-2  
 2.218000000000000E10    1.292552234596671E-2  -1.712235152990622E-2  
 2.219000000000000E10    1.943303267677232E-3  -2.237425387977715E-2  
 2.220000000000000E10   -9.974492605816329E-3  -1.942677301960874E-2  
 2.221000000000000E10   -1.789044173036178E-2  -1.159643468743989E-2  
 2.222000000000000E10   -2.243288426775403E-2  -1.339557077844917E-3  
 2.223000000000000E10   -1.829497531526977E-2   1.008632426179547E-2  
 2.224000000000000E10   -1.120780649048457E-2   1.793362514412209E-2  
 2.225000000000000E10   -7.421576999851116E-4   2.102683135698354E-2  
 2.226000000000000E10    9.585760213554180E-3   1.836082645689717E-2  
 2.227000000000000E10    1.828973255849168E-2   1.072035403740184E-2  
 2.228000000000000E10    1.961342549038473E-2   2.130102845112187E-4  
 2.229000000000000E10    1.749931429533302E-2  -8.996497055686619E-3  
 2.230000000000000E10    1.128323638844381E-2  -1.698329667989487E-2  
 2.231000000000000E10    6.894478061605831E-4  -1.933934049681692E-2  
 2.232000000000000E10   -9.911496092981443E-3  -1.790283420065576E-2  
 2.233000000000000E10   -1.720558466026821E-2  -9.057309509753388E-3  
 2.234000000000000E10   -1.876975772783865E-2   7.493839325787080E-4  
 2.235000000000000E10   -1.600934723719733E-2   8.938483928020387E-3  
 2.236000000000000E10   -9.102916783400019E-3   1.697118825619352E-2  
 2.237000000000000E10    3.416972525402116E-4   1.806524267554037E-2  
 2.238000000000000E10    9.569613523918155E-3   1.731483734993400E-2  
 2.239000000000000E10    1.688267795506563E-2   9.640441802804585E-3  
 2.240000000000000E10    1.910242466209484E-2   2.215927445380846E-4  
 2.241000000000000E10    1.615859974260465E-2  -1.068816527412014E-2  
 2.242000000000000E10    9.297271875714313E-3  -1.723377774735736E-2  
 2.243000000000000E10   -9.269509389225323E-4  -2.037216753745288E-2  
 2.244000000000000E10   -1.202327133363034E-2  -1.685031158550729E-2  
 2.245000000000000E10   -1.712849387630866E-2  -8.465546714739300E-3  
 2.246000000000000E10   -2.128197358678308E-2   1.173000318174630E-3  
 2.247000000000000E10   -1.752059831545602E-2   1.196334220638267E-2  
 2.248000000000000E10   -9.650229991081642E-3   1.816331377861359E-2  
 2.249000000000000E10    1.404080278465970E-3   2.154184528712303E-2  
 2.250000000000000E10    1.202561741426498E-2   1.687816945572998E-2  
 2.251000000000000E10    1.842230238477059E-2   8.967279420678121E-3  
 2.252000000000000E10    2.193590401126992E-2  -7.054822536441306E-4  
 2.253000000000000E10    1.801075648909655E-2  -1.186805972892767E-2  
 2.254000000000000E10    9.831175680061765E-3  -1.846200548166947E-2  
 2.255000000000000E10   -1.558461848620635E-3  -2.072982174322756E-2  
 2.256000000000000E10   -1.053839356882837E-2  -1.663571932499727E-2  
 2.257000000000000E10   -1.898729995207396E-2  -8.529352639797339E-3  
 2.258000000000000E10   -1.972239977603797E-2   1.671508209124437E-3  
 2.259000000000000E10   -1.592984584432655E-2   1.154688627092439E-2  
 2.260000000000000E10   -9.213450754130617E-3   1.878004242510391E-2  
 2.261000000000000E10    3.459332789200711E-3   1.969737654087302E-2  
 2.262000000000000E10    1.217738438673749E-2   1.396392329221517E-2  
 2.263000000000000E10    1.874318383954818E-2   6.641054258962749E-3  
 2.264000000000000E10    1.886405509128079E-2  -5.075063056036786E-3  
 2.265000000000000E10    1.399752959639521E-2  -1.235808221457089E-2  
 2.266000000000000E10    6.105567911879933E-3  -1.845013888734268E-2  
 2.267000000000000E10   -5.660909242891348E-3  -1.924141517036527E-2  
 2.268000000000000E10   -1.345663116414478E-2  -1.368475477445802E-2  
 2.269000000000000E10   -1.976071720962686E-2  -4.688566482512778E-3  
 2.270000000000000E10   -1.901957413537421E-2   6.014821481160500E-3  
 2.271000000000000E10   -1.367678169327110E-2   1.444353402674503E-2  
 2.272000000000000E10   -4.435432173657244E-3   2.013465602232841E-2  
 2.273000000000000E10    6.251689830606160E-3   1.881923859053469E-2  
 2.274000000000000E10    1.514263813198281E-2   1.346510276154030E-2  
 2.275000000000000E10    2.030837465655838E-2   3.588242630514232E-3  
 2.276000000000000E10    1.883178254795523E-2  -5.720738085587443E-3  
 2.277000000000000E10    1.370735569911660E-2  -1.553562417997280E-2  
 2.278000000000000E10    3.785545033181484E-3  -1.921929817543219E-2  
