#  HZ   S   RI   R     50.00 
! Rohde & Schwarz ZVA40 4Ports - Version 3.90 - 1145.1110k42 SN: 100403
! Date: 2023-09-28 11:25:56
! Measurement: S12 
! 
 2.000000000000000E10    3.416403866996298E-3   3.795950816604418E-3  
 2.000200000000000E10    4.150300993115810E-3   3.350084649097709E-3  
 2.000400000000000E10    4.864362671186632E-3   2.528675050393651E-3  
 2.000600000000000E10    5.202229453696201E-3   1.417274546383366E-3  
 2.000800000000000E10    5.239672705828077E-3   3.156269480054446E-4  
 2.001000000000000E10    5.073017081536208E-3  -7.359997685521024E-4  
 2.001200000000000E10    4.831120678923617E-3  -1.709818234457809E-3  
 2.001400000000000E10    4.356152123793327E-3  -2.478527275486564E-3  
 2.001600000000000E10    3.808637895073298E-3  -3.063020629121562E-3  
 2.001800000000000E10    3.391208473033437E-3  -3.577163873995233E-3  
 2.002000000000000E10    2.829673528880497E-3  -3.923049111502930E-3  
 2.002200000000000E10    2.047334113454248E-3  -4.242484940202036E-3  
 2.002400000000000E10    1.398359957760641E-3  -4.389565793470610E-3  
 2.002600000000000E10    7.326101921400832E-4  -4.570601914277293E-3  
 2.002800000000000E10   -1.020563819883651E-4  -4.729121419459337E-3  
 2.003000000000000E10   -1.109920470121379E-3  -4.690803390483458E-3  
 2.003200000000000E10   -1.973944112556015E-3  -4.397906980343417E-3  
 2.003400000000000E10   -2.569621762035381E-3  -3.975232118861903E-3  
 2.003600000000000E10   -3.191589275227383E-3  -3.624528646469117E-3  
 2.003800000000000E10   -3.827033545675699E-3  -3.220781615005931E-3  
 2.004000000000000E10   -4.357489231037596E-3  -2.522201722075022E-3  
 2.004200000000000E10   -4.730722967522767E-3  -1.615192239137838E-3  
 2.004400000000000E10   -4.831235878955363E-3  -6.927826765981047E-4  
 2.004600000000000E10   -4.769863888980176E-3   1.901592647124643E-4  
 2.004800000000000E10   -4.606282561287828E-3   1.074642499911928E-3  
 2.005000000000000E10   -4.376311270632798E-3   1.894099658022674E-3  
 2.005200000000000E10   -3.975500892367992E-3   2.519785826957636E-3  
 2.005400000000000E10   -3.564559041913227E-3   3.037237868528042E-3  
 2.005600000000000E10   -3.146496838349904E-3   3.569666548095379E-3  
 2.005800000000000E10   -2.649913161693232E-3   4.145101618548072E-3  
 2.006000000000000E10   -1.853209519117215E-3   4.661123513025067E-3  
 2.006200000000000E10   -9.133910581854501E-4   4.910547854561934E-3  
 2.006400000000000E10    5.409655563776112E-5   4.972496758629761E-3  
 2.006600000000000E10    1.064302049390716E-3   4.823685715616890E-3  
 2.006800000000000E10    2.095790993303886E-3   4.516763083870693E-3  
 2.007000000000000E10    2.929285595628151E-3   3.969899162600711E-3  
 2.007200000000000E10    3.374954263414666E-3   3.280631812431874E-3  
 2.007400000000000E10    3.652033334672611E-3   2.677964753819231E-3  
 2.007600000000000E10    3.914249780177764E-3   2.171393701377413E-3  
 2.007800000000000E10    4.200959364169461E-3   1.518459812493283E-3  
 2.008000000000000E10    4.355365977885316E-3   7.454459936223327E-4  
 2.008200000000000E10    4.379015781494667E-3  -5.759884809554641E-5  
 2.008400000000000E10    4.254477375241346E-3  -8.259173942568863E-4  
 2.008600000000000E10    4.011960226827812E-3  -1.595922849102593E-3  
 2.008800000000000E10    3.768650319846284E-3  -2.313495341235864E-3  
 2.009000000000000E10    3.412951555279364E-3  -2.865212235786845E-3  
 2.009200000000000E10    3.001379577165921E-3  -3.366481307421304E-3  
 2.009400000000000E10    2.484392624299004E-3  -3.802956388996410E-3  
 2.009600000000000E10    1.881354197048104E-3  -4.107071107772680E-3  
 2.009800000000000E10    1.132576545339741E-3  -4.306682939528329E-3  
 2.010000000000000E10    3.737313259875105E-4  -4.373666382159240E-3  
 2.010200000000000E10   -4.416173382232063E-4  -4.414853514418417E-3  
 2.010400000000000E10   -1.385977141266143E-3  -4.309772826305929E-3  
 2.010600000000000E10   -2.390718707761441E-3  -3.956130956809341E-3  
 2.010800000000000E10   -3.128327842186606E-3  -3.344946844093622E-3  
 2.011000000000000E10   -3.574420259899244E-3  -2.698673849229569E-3  
 2.011200000000000E10   -3.891101609853038E-3  -2.104294320619260E-3  
 2.011400000000000E10   -4.070100377784636E-3  -1.550988877928709E-3  
 2.011600000000000E10   -4.127282831966060E-3  -8.894049113176594E-4  
 2.011800000000000E10   -4.075837907754822E-3  -2.319954009013354E-4  
 2.012000000000000E10   -4.005634456641849E-3   4.238835659726833E-4  
 2.012200000000000E10   -3.901299252611287E-3   1.102703428436727E-3  
 2.012400000000000E10   -3.701210921889178E-3   1.840456363765901E-3  
 2.012600000000000E10   -3.410473299343205E-3   2.531082527694954E-3  
 2.012800000000000E10   -3.043854739866167E-3   3.136881169359272E-3  
 2.013000000000000E10   -2.574871837046078E-3   3.737726150395119E-3  
 2.013200000000000E10   -1.901986841145024E-3   4.251718488612012E-3  
 2.013400000000000E10   -1.060794800323487E-3   4.476536252853703E-3  
 2.013600000000000E10   -1.593862565217021E-4   4.399955479422211E-3  
 2.013800000000000E10    6.024153127592365E-4   4.183156303326122E-3  
 2.014000000000000E10    1.328048476706745E-3   3.894731263110420E-3  
 2.014200000000000E10    1.999193583307806E-3   3.543827820742739E-3  
 2.014400000000000E10    2.642005908789420E-3   3.113571880548521E-3  
 2.014600000000000E10    3.142536834712446E-3   2.645078128508371E-3  
 2.014800000000000E10    3.574994388292647E-3   2.219262065471946E-3  
 2.015000000000000E10    3.908048081683725E-3   1.661061972371594E-3  
 2.015200000000000E10    4.112480201322238E-3   1.033942610647991E-3  
 2.015400000000000E10    4.121298486254162E-3   3.765036032089490E-4  
 2.015600000000000E10    4.055084408407231E-3  -2.974503135859810E-4  
 2.015800000000000E10    3.931710319961196E-3  -1.015071358564788E-3  
 2.016000000000000E10    3.658623146696644E-3  -1.782270773802810E-3  
 2.016200000000000E10    3.257230376165246E-3  -2.580015532903214E-3  
 2.016400000000000E10    2.690599361679298E-3  -3.185715196383648E-3  
 2.016600000000000E10    2.095801690436510E-3  -3.570413449033925E-3  
 2.016800000000000E10    1.516663596524340E-3  -3.869139633408748E-3  
 2.017000000000000E10    8.741031289199303E-4  -4.029613596623837E-3  
 2.017200000000000E10    2.163530889246428E-4  -4.022333936431076E-3  
 2.017400000000000E10   -4.199415202525250E-4  -3.785429684109697E-3  
 2.017600000000000E10   -9.963904354721876E-4  -3.487241582459811E-3  
 2.017800000000000E10   -1.531543148010958E-3  -3.273580578299042E-3  
 2.018000000000000E10   -2.083343556866214E-3  -3.052991119435836E-3  
 2.018200000000000E10   -2.736385714714404E-3  -2.768376530777630E-3  
 2.018400000000000E10   -3.296989869805287E-3  -2.295163521503968E-3  
 2.018600000000000E10   -3.734191524511014E-3  -1.748696030246744E-3  
 2.018800000000000E10   -4.038439653649180E-3  -1.177213277536175E-3  
 2.019000000000000E10   -4.186010890411924E-3  -5.505831021771677E-4  
 2.019200000000000E10   -4.123628303233175E-3   1.702276355922408E-4  
 2.019400000000000E10   -3.837643708158475E-3   8.666884792884031E-4  
 2.019600000000000E10   -3.535140907050378E-3   1.564820091432590E-3  
 2.019800000000000E10   -3.248404218250172E-3   2.243782692399933E-3  
 2.020000000000000E10   -2.801927465102594E-3   2.909547619195422E-3  
 2.020200000000000E10   -2.257323013202681E-3   3.440748251613467E-3  
 2.020400000000000E10   -1.674705773868511E-3   3.865925724727579E-3  
 2.020600000000000E10   -1.005927085961776E-3   4.218399424686168E-3  
 2.020800000000000E10   -3.054584228621609E-4   4.344164542320108E-3  
 2.021000000000000E10    4.528077852448716E-4   4.235310999387296E-3  
 2.021200000000000E10    1.167083539386238E-3   3.853579954441647E-3  
 2.021400000000000E10    1.767024092554803E-3   3.297771386922286E-3  
 2.021600000000000E10    2.326704615828135E-3   2.767825561030937E-3  
 2.021800000000000E10    2.761060359184142E-3   2.252398995240287E-3  
 2.022000000000000E10    3.097071944747443E-3   1.777376177528528E-3  
 2.022200000000000E10    3.349388212045337E-3   1.424610949987442E-3  
 2.022400000000000E10    3.705436048655624E-3   1.034202160258153E-3  
 2.022600000000000E10    4.030369024288272E-3   4.940346204740322E-4  
 2.022800000000000E10    4.131576826708212E-3  -2.070302691153056E-4  
 2.023000000000000E10    3.956821551093641E-3  -9.125258455406000E-4  
 2.023200000000000E10    3.629566298702906E-3  -1.608944237953306E-3  
 2.023400000000000E10    3.062970403105196E-3  -2.282025819676129E-3  
 2.023600000000000E10    2.477467859222364E-3  -2.793132819276774E-3  
 2.023800000000000E10    1.921376511540461E-3  -3.212982416493631E-3  
 2.024000000000000E10    1.387584696739891E-3  -3.572588655890407E-3  
 2.024200000000000E10    8.523366024362535E-4  -3.919198360477785E-3  
 2.024400000000000E10    2.221181568074618E-4  -4.167460645407762E-3  
 2.024600000000000E10   -4.770497454936375E-4  -4.222160908101859E-3  
 2.024800000000000E10   -1.203361362220418E-3  -4.012750511805317E-3  
 2.025000000000000E10   -1.870847040442547E-3  -3.492646630625730E-3  
 2.025200000000000E10   -2.364517862964896E-3  -2.864855191325566E-3  
 2.025400000000000E10   -2.803336820997965E-3  -2.295917297138995E-3  
 2.025600000000000E10   -3.221706679081490E-3  -1.708055536697479E-3  
 2.025800000000000E10   -3.563557780895543E-3  -1.087972769219042E-3  
 2.026000000000000E10   -3.772149501035394E-3  -4.698525630989131E-4  
 2.026200000000000E10   -3.887402881162560E-3   1.142408075288358E-4  
 2.026400000000000E10   -3.879372018076125E-3   6.664127916530015E-4  
 2.026600000000000E10   -3.766086455088208E-3   1.220140301881080E-3  
 2.026800000000000E10   -3.429923283468238E-3   1.713377583418209E-3  
 2.027000000000000E10   -2.923063229395577E-3   2.280225051124648E-3  
 2.027200000000000E10   -2.214170292746904E-3   2.839178767372102E-3  
 2.027400000000000E10   -1.486240543932265E-3   3.163191630404101E-3  
 2.027600000000000E10   -8.234094198187906E-4   3.346745957244422E-3  
 2.027800000000000E10   -2.147899706750164E-4   3.416864859427695E-3  
 2.028000000000000E10    3.555307426487619E-4   3.399883253626768E-3  
 2.028200000000000E10    8.540352048054839E-4   3.312500101342262E-3  
 2.028400000000000E10    1.233059371972899E-3   3.146432470914952E-3  
 2.028600000000000E10    1.464707102099792E-3   2.891241920322142E-3  
 2.028800000000000E10    1.719694104947143E-3   2.573877245822552E-3  
 2.029000000000000E10    2.119482529384119E-3   2.116232825999018E-3  
 2.029200000000000E10    2.537433020087779E-3   1.561775498111054E-3  
 2.029400000000000E10    2.793656754692271E-3   1.041823261692615E-3  
 2.029600000000000E10    2.929534911504676E-3   5.543071984156861E-4  
 2.029800000000000E10    2.955714512572109E-3   1.332883430992214E-4  
 2.030000000000000E10    3.088614173173040E-3  -2.410844852959783E-4  
 2.030200000000000E10    3.244304336307095E-3  -6.220514812250378E-4  
 2.030400000000000E10    3.242318740644321E-3  -1.088750655991388E-3  
 2.030600000000000E10    2.928709422186077E-3  -1.509630056118686E-3  
 2.030800000000000E10    2.421383739829080E-3  -1.926555110205086E-3  
 2.031000000000000E10    1.840062815941714E-3  -2.258997231645511E-3  
 2.031200000000000E10    1.318931195708502E-3  -2.538389727022432E-3  
 2.031400000000000E10    9.334076523696081E-4  -2.763586918660323E-3  
 2.031600000000000E10    5.561133741847281E-4  -2.993216993150368E-3  
 2.031800000000000E10    1.939576559299533E-5  -3.185221008463021E-3  
 2.032000000000000E10   -5.216789658884630E-4  -3.328726810329781E-3  
 2.032200000000000E10   -9.774138730348936E-4  -3.395602475084403E-3  
 2.032400000000000E10   -1.405106288579081E-3  -3.226503662891645E-3  
 2.032600000000000E10   -1.812077614652228E-3  -2.835081081191268E-3  
 2.032800000000000E10   -2.242677109378449E-3  -2.339868728301976E-3  
 2.033000000000000E10   -2.667076133232467E-3  -1.699315228667965E-3  
 2.033200000000000E10   -2.919553912000161E-3  -1.102110363780868E-3  
 2.033400000000000E10   -3.135021372260054E-3  -6.908287682597205E-4  
 2.033600000000000E10   -3.277424642389774E-3  -5.378388435177201E-4  
 2.033800000000000E10   -3.458737999658179E-3   4.159246122699037E-4  
 2.034000000000000E10   -3.522879804469358E-3   1.036519431059811E-3  
 2.034200000000000E10   -3.332131649436357E-3   1.583651357558635E-3  
 2.034400000000000E10   -2.858871441051158E-3   1.919872381223624E-3  
 2.034600000000000E10   -2.233292430246355E-3   2.200585894949248E-3  
 2.034800000000000E10   -1.568320113895843E-3   2.401807569195879E-3  
 2.035000000000000E10   -1.086161643909136E-3   2.501421455720307E-3  
 2.035200000000000E10   -7.925249404868550E-4   2.663319482303551E-3  
 2.035400000000000E10   -5.207686230072628E-4   2.982427333997592E-3  
 2.035600000000000E10   -3.282022732314880E-5   3.287603427001472E-3  
 2.035800000000000E10    5.922368584522822E-4   3.480815233232906E-3  
 2.036000000000000E10    1.207661350018370E-3   3.548857083372662E-3  
 2.036200000000000E10    1.701258385081694E-3   3.388331078835806E-3  
 2.036400000000000E10    2.186633377957558E-3   2.850632219521547E-3  
 2.036600000000000E10    2.572283726956340E-3   2.152937526979726E-3  
 2.036800000000000E10    2.907360055103599E-3   1.460300002801688E-3  
 2.037000000000000E10    3.096688543615991E-3   8.280789160318424E-4  
 2.037200000000000E10    3.203954181452622E-3   2.619660413556308E-4  
 2.037400000000000E10    3.256158671226717E-3  -1.943508828024559E-4  
 2.037600000000000E10    3.308037788356074E-3  -6.571497980336417E-4  
 2.037800000000000E10    3.406136528562004E-3  -1.161204775060900E-3  
 2.038000000000000E10    3.380550422457727E-3  -1.640221222605874E-3  
 2.038200000000000E10    3.044111302059733E-3  -2.016264889944295E-3  
 2.038400000000000E10    2.448913177387042E-3  -2.472652110490183E-3  
 2.038600000000000E10    1.718387164441948E-3  -2.935995023304135E-3  
 2.038800000000000E10    1.005998801863290E-3  -3.233915644064331E-3  
 2.039000000000000E10    3.363425681720826E-4  -3.339232239229760E-3  
 2.039200000000000E10   -2.666940837629032E-4  -3.367179373862338E-3  
 2.039400000000000E10   -8.405300357874847E-4  -3.330560170877439E-3  
 2.039600000000000E10   -1.438280116645893E-3  -3.290432636824651E-3  
 2.039800000000000E10   -1.945923863671808E-3  -3.128243421862035E-3  
 2.040000000000000E10   -2.172397601461776E-3  -2.740825067391096E-3  
 2.040200000000000E10   -2.288647899202602E-3  -2.082531377823615E-3  
 2.040400000000000E10   -2.437578614717703E-3  -1.386168593582095E-3  
 2.040600000000000E10   -2.571880305228499E-3  -8.110987582895383E-4  
 2.040800000000000E10   -2.642196307121752E-3  -4.254274367715502E-4  
 2.041000000000000E10   -2.786046723359502E-3  -3.170766518060918E-5  
 2.041200000000000E10   -2.890839697631306E-3   4.186910605454819E-4  
 2.041400000000000E10   -2.910604732349002E-3   8.592487132907294E-4  
 2.041600000000000E10   -3.032204880856229E-3   1.329010548664837E-3  
 2.041800000000000E10   -3.082176985202371E-3   1.792733435020943E-3  
 2.042000000000000E10   -2.740898993338398E-3   2.060913828059219E-3  
 2.042200000000000E10   -2.066185369373908E-3   2.399511445909023E-3  
 2.042400000000000E10   -1.217619269817155E-3   2.756961111217509E-3  
 2.042600000000000E10   -4.820850678950460E-4   2.856863124758537E-3  
 2.042800000000000E10    6.040230116060005E-5   2.791655914211552E-3  
 2.043000000000000E10    4.531785617681155E-4   2.765094141107217E-3  
 2.043200000000000E10    7.667480389411000E-4   2.742081074800125E-3  
 2.043400000000000E10    1.130489248832185E-3   2.780523968036072E-3  
 2.043600000000000E10    1.618785372175954E-3   2.933143718275169E-3  
 2.043800000000000E10    1.950207193272927E-3   2.938300528342262E-3  
 2.044000000000000E10    2.199098089783124E-3   2.514454031797776E-3  
 2.044200000000000E10    2.565707983247535E-3   1.759175491397055E-3  
 2.044400000000000E10    2.887463847802936E-3   9.425015843064141E-4  
 2.044600000000000E10    2.998875572914371E-3   2.158008786382660E-4  
 2.044800000000000E10    2.975154884528347E-3  -4.761301048621016E-4  
 2.045000000000000E10    2.854292522958311E-3  -1.014021930450417E-3  
 2.045200000000000E10    2.685504775557363E-3  -1.434138635911713E-3  
 2.045400000000000E10    2.545784020447510E-3  -1.891223936578899E-3  
 2.045600000000000E10    2.432993576880230E-3  -2.214989160711190E-3  
 2.045800000000000E10    2.145979244688109E-3  -2.235580715256411E-3  
 2.046000000000000E10    1.563346274753539E-3  -2.242698533488320E-3  
 2.046200000000000E10    8.120255674948246E-4  -2.310295710403310E-3  
 2.046400000000000E10    2.924692543005646E-4  -2.379814627056698E-3  
 2.046600000000000E10   -1.559360588181174E-4  -2.386512958920608E-3  
 2.046800000000000E10   -5.744456770375480E-4  -2.398540206772208E-3  
 2.047000000000000E10   -9.483347169662001E-4  -2.387612002917774E-3  
 2.047200000000000E10   -1.365044032310963E-3  -2.337441113403426E-3  
 2.047400000000000E10   -1.775324459826028E-3  -2.274630339563545E-3  
 2.047600000000000E10   -1.865871494744956E-3  -2.182444364497928E-3  
 2.047800000000000E10   -1.773901018350971E-3  -1.945980947918655E-3  
 2.048000000000000E10   -1.816404635060254E-3  -1.560525354531672E-3  
 2.048200000000000E10   -2.144790105398894E-3  -1.142151152973149E-3  
 2.048400000000000E10   -2.542267565786807E-3  -6.354453506391349E-4  
 2.048600000000000E10   -2.740004570180098E-3   1.236126714234090E-4  
 2.048800000000000E10   -2.701273554895738E-3   8.236195544783647E-4  
 2.049000000000000E10   -2.482736775239356E-3   1.375031398763011E-3  
 2.049200000000000E10   -2.197830051300382E-3   1.858332211173296E-3  
 2.049400000000000E10   -2.048568741112239E-3   2.023851968526314E-3  
 2.049600000000000E10   -1.880902761851523E-3   1.810593458248544E-3  
 2.049800000000000E10   -1.642417477391578E-3   1.751873419329671E-3  
 2.050000000000000E10   -1.229298925968369E-3   1.946361868131541E-3  
 2.050200000000000E10   -7.208898673758833E-4   2.264794363527968E-3  
 2.050400000000000E10   -6.731613094120989E-5   2.336759547277266E-3  
 2.050600000000000E10    4.927313765013034E-4   2.299322939495321E-3  
 2.050800000000000E10    7.758781746057676E-4   2.207426904374074E-3  
 2.051000000000000E10    1.096233451667483E-3   2.140268166422461E-3  
 2.051200000000000E10    1.483471960621686E-3   2.213431923750847E-3  
 2.051400000000000E10    1.603396972032391E-3   2.373074019485891E-3  
 2.051600000000000E10    1.618171303213351E-3   2.236371028517109E-3  
 2.051800000000000E10    1.822366169934181E-3   1.800166906061035E-3  
 2.052000000000000E10    2.203456407849804E-3   1.233716632545845E-3  
 2.052200000000000E10    2.437551931460056E-3   6.502933696580513E-4  
 2.052400000000000E10    2.390763785278703E-3  -3.249104081627614E-5  
 2.052600000000000E10    2.369773680599163E-3  -5.137351097004207E-4  
 2.052800000000000E10    2.372294055566821E-3  -8.081091051129036E-4  
 2.053000000000000E10    2.339802060417935E-3  -1.280972919185334E-3  
 2.053200000000000E10    2.437562176824580E-3  -1.707287901340201E-3  
 2.053400000000000E10    2.470101052801503E-3  -1.769754441833725E-3  
 2.053600000000000E10    2.203478563383604E-3  -1.808108033978172E-3  
 2.053800000000000E10    1.727881920000863E-3  -2.070124373060658E-3  
 2.054000000000000E10    1.223812424196642E-3  -2.552793927868578E-3  
 2.054200000000000E10    4.856090481850454E-4  -2.766436362037777E-3  
 2.054400000000000E10   -3.351697200369712E-4  -2.782053841558163E-3  
 2.054600000000000E10   -9.533832944257335E-4  -2.777906556275481E-3  
 2.054800000000000E10   -1.512421014840929E-3  -2.600541238712352E-3  
 2.055000000000000E10   -2.110558622379712E-3  -2.422229789111993E-3  
 2.055200000000000E10   -2.350970973967461E-3  -2.336591838204215E-3  
 2.055400000000000E10   -2.287735819844696E-3  -1.966508572265072E-3  
 2.055600000000000E10   -2.152871719994176E-3  -1.295738070775968E-3  
