#  HZ   S   RI   R     50.00 
! Rohde & Schwarz ZVA40 4Ports - Version 3.90 - 1145.1110k42 SN: 100403
! Date: 2023-09-28 10:17:59
! Measurement: S12 
! 
 2.000000000000000E10   -4.714819676269339E-3   9.230594580053030E-3  
 2.000200000000000E10   -2.862372304182207E-3   9.884498914524535E-3  
 2.000400000000000E10   -7.649586583903512E-4   1.039051973123838E-2  
 2.000600000000000E10    1.285411911975308E-3   1.061044145361793E-2  
 2.000800000000000E10    3.352608876761391E-3   1.015827802616911E-2  
 2.001000000000000E10    5.360522374632119E-3   9.306830888570015E-3  
 2.001200000000000E10    6.787640897931280E-3   8.313710245411197E-3  
 2.001400000000000E10    8.092880768587975E-3   7.113383879914528E-3  
 2.001600000000000E10    9.169550756673219E-3   5.635946003903432E-3  
 2.001800000000000E10    9.825171955661717E-3   3.831730039932633E-3  
 2.002000000000000E10    1.000910438048628E-2   1.839953373506744E-3  
 2.002200000000000E10    9.840127984357822E-3  -3.345175322548851E-4  
 2.002400000000000E10    9.642450276490151E-3  -2.120885321564789E-3  
 2.002600000000000E10    9.184870401349535E-3  -3.616195692276950E-3  
 2.002800000000000E10    8.501094139485643E-3  -5.150028778889390E-3  
 2.003000000000000E10    7.798676447668069E-3  -6.548267808555729E-3  
 2.003200000000000E10    6.809840275897245E-3  -7.822878905154568E-3  
 2.003400000000000E10    5.537782104063881E-3  -8.990047927457166E-3  
 2.003600000000000E10    3.899212648897706E-3  -9.835787519972329E-3  
 2.003800000000000E10    1.981669183890434E-3  -1.024428198572626E-2  
 2.004000000000000E10   -7.545396448194948E-5  -1.019789807065505E-2  
 2.004200000000000E10   -2.127504056704679E-3  -9.940572799899371E-3  
 2.004400000000000E10   -3.902914820040867E-3  -9.559202483335850E-3  
 2.004600000000000E10   -5.470457062056153E-3  -8.790301040486340E-3  
 2.004800000000000E10   -7.040851356553244E-3  -7.886100835073826E-3  
 2.005000000000000E10   -8.355155137439403E-3  -6.721279183213623E-3  
 2.005200000000000E10   -9.469903474927216E-3  -5.251848565327549E-3  
 2.005400000000000E10   -1.018369578693767E-2  -3.522724117097929E-3  
 2.005600000000000E10   -1.044369503634098E-2  -1.635205841424319E-3  
 2.005800000000000E10   -1.031617295901808E-2   3.333177552004280E-4  
 2.006000000000000E10   -9.857649849970529E-3   2.202798932503582E-3  
 2.006200000000000E10   -9.444641652961638E-3   4.095764363536899E-3  
 2.006400000000000E10   -8.797336134307443E-3   5.828366526996138E-3  
 2.006600000000000E10   -7.671399733990583E-3   7.501043160200883E-3  
 2.006800000000000E10   -6.347605049943542E-3   8.788487749658080E-3  
 2.007000000000000E10   -4.818870209043487E-3   9.797328038208548E-3  
 2.007200000000000E10   -3.023331227682162E-3   1.050068592305391E-2  
 2.007400000000000E10   -1.144838069080829E-3   1.071456168661106E-2  
 2.007600000000000E10    8.706603408170659E-4   1.046254762790489E-2  
 2.007800000000000E10    2.904910889627012E-3   9.901109108346105E-3  
 2.008000000000000E10    4.893274769970232E-3   9.025605313814867E-3  
 2.008200000000000E10    6.599639892102367E-3   7.947706934803098E-3  
 2.008400000000000E10    7.778360955262919E-3   6.509550425519773E-3  
 2.008600000000000E10    8.497278808718339E-3   5.213075182972139E-3  
 2.008800000000000E10    8.945136654657992E-3   4.104886251307819E-3  
 2.009000000000000E10    9.457777512209272E-3   2.986850016977598E-3  
 2.009200000000000E10    1.001687816808093E-2   1.559566458955993E-3  
 2.009400000000000E10    1.017994354111851E-2  -4.004172100009194E-5  
 2.009600000000000E10    9.995311939037927E-3  -1.964261460347211E-3  
 2.009800000000000E10    9.336111480580746E-3  -4.021199735338516E-3  
 2.010000000000000E10    8.352891289256084E-3  -5.955283651428963E-3  
 2.010200000000000E10    7.183198281193601E-3  -7.434269866079653E-3  
 2.010400000000000E10    5.805059223635356E-3  -8.563915602619668E-3  
 2.010600000000000E10    4.508494008681323E-3  -9.247965899004219E-3  
 2.010800000000000E10    3.199026662735947E-3  -9.828812782913270E-3  
 2.011000000000000E10    1.690374807574445E-3  -1.023982714288427E-2  
 2.011200000000000E10    1.559563827118582E-4  -1.045238789870095E-2  
 2.011400000000000E10   -1.563452825019967E-3  -1.031255142403250E-2  
 2.011600000000000E10   -3.451628984314849E-3  -9.852491054990448E-3  
 2.011800000000000E10   -5.511261814939768E-3  -9.009813081274132E-3  
 2.012000000000000E10   -7.433377750009590E-3  -8.070759078440204E-3  
 2.012200000000000E10   -9.154110879410479E-3  -6.614262975661336E-3  
 2.012400000000000E10   -1.047790781955552E-2  -4.902480119260094E-3  
 2.012600000000000E10   -1.113438703618682E-2  -3.004866954573498E-3  
 2.012800000000000E10   -1.135779724138395E-2  -1.088191370915917E-3  
 2.013000000000000E10   -1.126681432720778E-2   8.693252762827163E-4  
 2.013200000000000E10   -1.066130617728572E-2   2.680686102117555E-3  
 2.013400000000000E10   -9.717026074207682E-3   4.402940418425988E-3  
 2.013600000000000E10   -8.540534722592525E-3   6.023522508206492E-3  
 2.013800000000000E10   -7.275473864909603E-3   7.603957291687849E-3  
 2.014000000000000E10   -5.878935595178897E-3   8.958126078786736E-3  
 2.014200000000000E10   -4.265708846502991E-3   1.004897772774532E-2  
 2.014400000000000E10   -2.657253056106231E-3   1.067176826717063E-2  
 2.014600000000000E10   -9.144728320512613E-4   1.088952879341517E-2  
 2.014800000000000E10    8.194570895523625E-4   1.068820675597659E-2  
 2.015000000000000E10    2.357257004612395E-3   1.032426022404694E-2  
 2.015200000000000E10    3.954026817743781E-3   9.584503431104299E-3  
 2.015400000000000E10    5.417690018854111E-3   8.573660851408418E-3  
 2.015600000000000E10    6.866552965151393E-3   7.406697544872274E-3  
 2.015800000000000E10    8.239230251148203E-3   6.236021336993483E-3  
 2.016000000000000E10    9.348869715303817E-3   4.821533454305093E-3  
 2.016200000000000E10    1.037340909301594E-2   3.370128767156526E-3  
 2.016400000000000E10    1.098358960612432E-2   1.676960418869142E-3  
 2.016600000000000E10    1.114046085871085E-2  -1.742839934825848E-4  
 2.016800000000000E10    1.090319223318755E-2  -1.968660677611504E-3  
 2.017000000000000E10    1.035622330066600E-2  -3.685237905906018E-3  
 2.017200000000000E10    9.453429416912223E-3  -5.459186873816954E-3  
 2.017400000000000E10    8.155655525655059E-3  -7.160096330698892E-3  
 2.017600000000000E10    6.624638516175550E-3  -8.739432711516596E-3  
 2.017800000000000E10    4.950946623458622E-3  -9.951237578195524E-3  
 2.018000000000000E10    3.122655823477365E-3  -1.083942685369379E-2  
 2.018200000000000E10    1.415800097936685E-3  -1.137805528999328E-2  
 2.018400000000000E10   -4.672981610696881E-4  -1.151012851705064E-2  
 2.018600000000000E10   -2.338169496547057E-3  -1.125232772674087E-2  
 2.018800000000000E10   -4.083833157413438E-3  -1.054441950097643E-2  
 2.019000000000000E10   -5.705614978922072E-3  -9.467213937373938E-3  
 2.019200000000000E10   -7.153662074207163E-3  -8.178469541258976E-3  
 2.019400000000000E10   -8.566805044344889E-3  -6.624911778308670E-3  
 2.019600000000000E10   -9.838090447870316E-3  -5.021886975482750E-3  
 2.019800000000000E10   -1.075505725613250E-2  -3.101983147415181E-3  
 2.020000000000000E10   -1.140229857542667E-2  -1.133817786224995E-3  
 2.020200000000000E10   -1.145551452812037E-2   7.912538611276217E-4  
 2.020400000000000E10   -1.114732603512986E-2   2.737620125369275E-3  
 2.020600000000000E10   -1.037092774720118E-2   4.566153956973590E-3  
 2.020800000000000E10   -9.053855200687157E-3   6.162797522601259E-3  
 2.021000000000000E10   -7.477463494548292E-3   7.373751921543509E-3  
 2.021200000000000E10   -5.884857218110223E-3   8.304862204252101E-3  
 2.021400000000000E10   -4.351702692488750E-3   9.148971777863195E-3  
 2.021600000000000E10   -2.869543258070124E-3   9.832978448294038E-3  
 2.021800000000000E10   -1.227933998318453E-3   1.037058125240515E-2  
 2.022000000000000E10    3.717793865287008E-4   1.074043613960965E-2  
 2.022200000000000E10    2.160551174756074E-3   1.065373711933007E-2  
 2.022400000000000E10    3.943384234043050E-3   1.019316663434602E-2  
 2.022600000000000E10    5.530878788536081E-3   9.140710750701530E-3  
 2.022800000000000E10    6.762616609869468E-3   7.873957281029409E-3  
 2.023000000000000E10    7.874359132645279E-3   6.506343119748844E-3  
 2.023200000000000E10    8.917781370244087E-3   4.949647826917861E-3  
 2.023400000000000E10    9.878425605811165E-3   3.357802985458525E-3  
 2.023600000000000E10    1.052777539555342E-2   1.552156315794153E-3  
 2.023800000000000E10    1.095679023128992E-2  -3.102199236238894E-4  
 2.024000000000000E10    1.084298115720449E-2  -2.002354699132480E-3  
 2.024200000000000E10    1.042065656555254E-2  -3.882413202970065E-3  
 2.024400000000000E10    9.488001122220702E-3  -5.512957268520626E-3  
 2.024600000000000E10    8.285586963693546E-3  -6.923064577356550E-3  
 2.024800000000000E10    6.808967300100729E-3  -8.137339101425181E-3  
 2.025000000000000E10    5.067830166046141E-3  -9.141043622073467E-3  
 2.025200000000000E10    3.262393221285256E-3  -9.949825632874769E-3  
 2.025400000000000E10    1.507373182630969E-3  -1.056563992861088E-2  
 2.025600000000000E10   -4.258559124946631E-4  -1.099713535863604E-2  
 2.025800000000000E10   -2.258974223763339E-3  -1.116731460923064E-2  
 2.026000000000000E10   -4.312613264320644E-3  -1.056221017436142E-2  
 2.026200000000000E10   -6.088412237489087E-3  -9.533036919642284E-3  
 2.026400000000000E10   -7.436118355380206E-3  -8.058297285705085E-3  
 2.026600000000000E10   -8.457948327059801E-3  -6.452330291941868E-3  
 2.026800000000000E10   -9.239927201349750E-3  -4.685678768194699E-3  
 2.027000000000000E10   -9.794004974662219E-3  -2.888221442061583E-3  
 2.027200000000000E10   -1.031309189324542E-2  -1.109346884888745E-3  
 2.027400000000000E10   -1.055881193472006E-2   7.384408119657981E-4  
 2.027600000000000E10   -1.066114876986377E-2   2.585904457029594E-3  
 2.027800000000000E10   -1.022056991848086E-2   4.231479298357625E-3  
 2.028000000000000E10   -9.355903488522955E-3   6.024296279295977E-3  
 2.028200000000000E10   -8.109779811556698E-3   7.475810572579746E-3  
 2.028400000000000E10   -6.552611125971400E-3   8.695129229798239E-3  
 2.028600000000000E10   -4.663094994186851E-3   9.506919365612454E-3  
 2.028800000000000E10   -2.728685127782537E-3   1.000660272522414E-2  
 2.029000000000000E10   -8.415921762679365E-4   1.025840956141338E-2  
 2.029200000000000E10    9.908878689753823E-4   1.038118742414911E-2  
 2.029400000000000E10    2.877856608907496E-3   1.027007400942626E-2  
 2.029600000000000E10    4.629609991741831E-3   1.005846656645151E-2  
 2.029800000000000E10    6.362702478882739E-3   9.165516661373351E-3  
 2.030000000000000E10    7.833071180123795E-3   7.891218126234376E-3  
 2.030200000000000E10    8.884714042061632E-3   6.195307895372607E-3  
 2.030400000000000E10    9.545935796409602E-3   4.419203317750624E-3  
 2.030600000000000E10    9.904458099684321E-3   2.445119716545889E-3  
 2.030800000000000E10    1.002259946985968E-2   6.193468500702838E-4  
 2.031000000000000E10    1.000529215682575E-2  -1.110167260951024E-3  
 2.031200000000000E10    9.811381885851700E-3  -2.832978382831389E-3  
 2.031400000000000E10    9.546096750246006E-3  -4.610769133884475E-3  
 2.031600000000000E10    8.918848089809087E-3  -6.106337927663043E-3  
 2.031800000000000E10    7.856401377690139E-3  -7.603888621382114E-3  
 2.032000000000000E10    6.482871995180908E-3  -8.722072767926189E-3  
 2.032200000000000E10    4.893359464017792E-3  -9.656770845917984E-3  
 2.032400000000000E10    2.996947065804501E-3  -1.023857102965938E-2  
 2.032600000000000E10    9.822607991553875E-4  -1.057625369908737E-2  
 2.032800000000000E10   -9.868592320068650E-4  -1.066336081129585E-2  
 2.033000000000000E10   -2.908021180459200E-3  -1.045329949178090E-2  
 2.033200000000000E10   -4.796774506185542E-3  -9.960820456454521E-3  
 2.033400000000000E10   -6.565182594987090E-3  -9.326831656446285E-3  
 2.033600000000000E10   -7.398315529789716E-3  -8.760013419768217E-3  
 2.033800000000000E10   -9.475765857772839E-3  -6.487025213530329E-3  
 2.034000000000000E10   -1.031104391866401E-2  -4.696896451854764E-3  
 2.034200000000000E10   -1.090241964312896E-2  -2.757987272503303E-3  
 2.034400000000000E10   -1.111291436100281E-2  -4.958203583694940E-4  
 2.034600000000000E10   -1.094893715631231E-2   1.670970742085873E-3  
 2.034800000000000E10   -1.054534995633593E-2   3.724083469453223E-3  
 2.035000000000000E10   -9.788750694861733E-3   5.597216004288565E-3  
 2.035200000000000E10   -8.790371980697900E-3   7.302613768233015E-3  
 2.035400000000000E10   -7.568591417591862E-3   8.673140873738248E-3  
 2.035600000000000E10   -5.972458923714846E-3   9.916926293443902E-3  
 2.035800000000000E10   -4.231507025352257E-3   1.061272568392089E-2  
 2.036000000000000E10   -2.279440625828235E-3   1.098905372539763E-2  
 2.036200000000000E10   -2.222480150845489E-4   1.093572705660324E-2  
 2.036400000000000E10    1.775691694950707E-3   1.066998595215925E-2  
 2.036600000000000E10    3.696195219569385E-3   1.022029707751263E-2  
 2.036800000000000E10    5.585134309415848E-3   9.562030194524875E-3  
 2.037000000000000E10    7.268254046829385E-3   8.539815665454947E-3  
 2.037200000000000E10    8.712946870335515E-3   7.359825880539878E-3  
 2.037400000000000E10    9.826878799684340E-3   5.866729683497128E-3  
 2.037600000000000E10    1.068065700863970E-2   4.310134676634593E-3  
 2.037800000000000E10    1.114687117147856E-2   2.504667246987825E-3  
 2.038000000000000E10    1.133482612421366E-2   4.896471852517574E-4  
 2.038200000000000E10    1.104094894477818E-2  -1.724126723547193E-3  
 2.038400000000000E10    1.044496258174159E-2  -3.723747394099354E-3  
 2.038600000000000E10    9.728407126181364E-3  -5.568106739557426E-3  
 2.038800000000000E10    8.843829168295568E-3  -7.249281543114121E-3  
 2.039000000000000E10    7.661383025229002E-3  -8.887050678625275E-3  
 2.039200000000000E10    6.160098666758245E-3  -1.022770122420826E-2  
 2.039400000000000E10    4.291392068122198E-3  -1.124546002355043E-2  
 2.039600000000000E10    2.412189178165980E-3  -1.169722499394445E-2  
 2.039800000000000E10    4.107136742734382E-4  -1.184507476779765E-2  
 2.040000000000000E10   -1.761325730684350E-3  -1.164313042626787E-2  
 2.040200000000000E10   -4.015609681172171E-3  -1.101587123500569E-2  
 2.040400000000000E10   -6.001524415450229E-3  -9.987642835328556E-3  
 2.040600000000000E10   -7.711786110959015E-3  -8.811718403912070E-3  
 2.040800000000000E10   -9.177736104335806E-3  -7.480580154864242E-3  
 2.041000000000000E10   -1.051782141426284E-2  -6.062992095679717E-3  
 2.041200000000000E10   -1.147073086948739E-2  -4.193300393073734E-3  
 2.041400000000000E10   -1.208553331033464E-2  -2.229845897675609E-3  
 2.041600000000000E10   -1.216111836285361E-2  -1.988233680279041E-4  
 2.041800000000000E10   -1.194379601177481E-2   1.931311434559196E-3  
 2.042000000000000E10   -1.127235739523274E-2   4.113495615743644E-3  
 2.042200000000000E10   -1.029766559768568E-2   6.215406719972086E-3  
 2.042400000000000E10   -9.020036299867777E-3   8.158178116241361E-3  
 2.042600000000000E10   -7.369989833984606E-3   9.691980375626816E-3  
 2.042800000000000E10   -5.533230451790500E-3   1.089951177281761E-2  
 2.043000000000000E10   -3.723085379591058E-3   1.154015286487482E-2  
 2.043200000000000E10   -1.749145276851880E-3   1.189989765458781E-2  
 2.043400000000000E10    9.405911571449669E-5   1.190198969078202E-2  
 2.043600000000000E10    1.975955697075009E-3   1.161419562950641E-2  
 2.043800000000000E10    3.850876526067181E-3   1.104485581817922E-2  
 2.044000000000000E10    5.760607219874701E-3   1.015553271483523E-2  
 2.044200000000000E10    7.640086060586289E-3   9.115841874717088E-3  
 2.044400000000000E10    9.363461048224504E-3   7.789588381708719E-3  
 2.044600000000000E10    1.067780158625174E-2   5.986582079223496E-3  
 2.044800000000000E10    1.168244556301683E-2   4.220339051305001E-3  
 2.045000000000000E10    1.219188268762686E-2   2.253114418525030E-3  
 2.045200000000000E10    1.250715900616667E-2   1.989292299517107E-4  
 2.045400000000000E10    1.224214349080074E-2  -1.889372632525059E-3  
 2.045600000000000E10    1.167631170665079E-2  -4.039432315462365E-3  
 2.045800000000000E10    1.065091171223421E-2  -6.093161172420982E-3  
 2.046000000000000E10    9.283288803578954E-3  -8.002873892304864E-3  
 2.046200000000000E10    7.665545502609140E-3  -9.735482928352681E-3  
 2.046400000000000E10    5.769209248128989E-3  -1.093220134827169E-2  
 2.046600000000000E10    3.713593794237032E-3  -1.183378474093010E-2  
 2.046800000000000E10    1.864299329738388E-3  -1.222146936255317E-2  
 2.047000000000000E10   -2.107376637887281E-4  -1.233248850489068E-2  
 2.047200000000000E10   -2.108374201003665E-3  -1.207154776186501E-2  
 2.047400000000000E10   -4.056484992791746E-3  -1.138796646734614E-2  
 2.047600000000000E10   -5.960982673136659E-3  -1.041930763618547E-2  
 2.047800000000000E10   -7.660056136726800E-3  -9.018009608509370E-3  
 2.048000000000000E10   -9.229202483785937E-3  -7.478152237406614E-3  
 2.048200000000000E10   -1.052764043866341E-2  -5.837322123780697E-3  
 2.048400000000000E10   -1.142405188974757E-2  -3.891165284273919E-3  
 2.048600000000000E10   -1.207427656266038E-2  -2.053568792719444E-3  
 2.048800000000000E10   -1.217114564811158E-2  -5.571558340159036E-5  
 2.049000000000000E10   -1.206592655222844E-2   1.963394373038377E-3  
 2.049200000000000E10   -1.138693190676369E-2   3.871720042528449E-3  
 2.049400000000000E10   -1.041451337786848E-2   5.761663482990074E-3  
 2.049600000000000E10   -9.088147330157559E-3   7.301332057223759E-3  
 2.049800000000000E10   -7.619273711381630E-3   8.731553160088418E-3  
 2.050000000000000E10   -6.161210388019106E-3   1.016445051666720E-2  
 2.050200000000000E10   -4.362801163648050E-3   1.128769333754094E-2  
 2.050400000000000E10   -2.200106414921408E-3   1.221917398098719E-2  
 2.050600000000000E10   -8.681813249028140E-5   1.243314451161238E-2  
 2.050800000000000E10    2.156182761026039E-3   1.208732165933023E-2  
 2.051000000000000E10    4.007130252810884E-3   1.143869075908174E-2  
 2.051200000000000E10    5.699663196086073E-3   1.039631577963337E-2  
 2.051400000000000E10    7.316416652358509E-3   9.217548965786641E-3  
 2.051600000000000E10    8.697018230655551E-3   7.697736141857422E-3  
 2.051800000000000E10    1.009523888945847E-2   5.975495476246140E-3  
 2.052000000000000E10    1.116940963070262E-2   4.085964677675094E-3  
 2.052200000000000E10    1.168497086537229E-2   1.880452709558252E-3  
 2.052400000000000E10    1.196247691925959E-2  -4.925496732390610E-5  
 2.052600000000000E10    1.168821198944434E-2  -2.013311867450752E-3  
 2.052800000000000E10    1.118296021668715E-2  -3.922146911230008E-3  
 2.053000000000000E10    1.029643635004645E-2  -5.504958483368810E-3  
 2.053200000000000E10    9.198537093098855E-3  -7.141348857196781E-3  
 2.053400000000000E10    7.757718007309299E-3  -8.495382326857939E-3  
 2.053600000000000E10    6.026532179818784E-3  -9.668326005027688E-3  
 2.053800000000000E10    4.299844304663899E-3  -1.079592178880606E-2  
 2.054000000000000E10    2.339716476873762E-3  -1.143620049260646E-2  
 2.054200000000000E10    2.391341048948505E-4  -1.188662869659386E-2  
 2.054400000000000E10   -1.711503549375940E-3  -1.181432049564582E-2  
 2.054600000000000E10   -3.849322112657486E-3  -1.134065060396548E-2  
 2.054800000000000E10   -5.637128139503674E-3  -1.063780479706988E-2  
 2.055000000000000E10   -7.386879353179460E-3  -9.438383446688726E-3  
 2.055200000000000E10   -8.925460431499324E-3  -7.859411478040227E-3  
 2.055400000000000E10   -9.936501703395913E-3  -5.982549053974054E-3  
 2.055600000000000E10   -1.094397759074286E-2  -4.066713179283510E-3  
