#  HZ   S   RI   R     50.00 
! Rohde & Schwarz ZVA40 4Ports - Version 3.90 - 1145.1110k42 SN: 100403
! Date: 2023-09-28 10:42:16
! Measurement: S12 
! 
 2.000000000000000E10    8.922773330607212E-3   3.510987594324150E-3  
 2.000200000000000E10    9.497882021806469E-3   2.620498675601301E-3  
 2.000400000000000E10    9.595993346218242E-3   9.643118089476508E-4  
 2.000600000000000E10    9.461033443705727E-3  -1.101373192086392E-3  
 2.000800000000000E10    9.469271968551105E-3  -3.294383443077323E-3  
 2.001000000000000E10    9.407054829223431E-3  -4.856004935709375E-3  
 2.001200000000000E10    8.623023007465473E-3  -5.901386598838548E-3  
 2.001400000000000E10    6.967370585022940E-3  -7.009597773570500E-3  
 2.001600000000000E10    4.821684780330609E-3  -8.339282569530235E-3  
 2.001800000000000E10    3.001379530222698E-3  -9.669237431545644E-3  
 2.002000000000000E10    1.780556914110408E-3  -1.039762614994606E-2  
 2.002200000000000E10    1.488849153898541E-4  -1.016255524987893E-2  
 2.002400000000000E10   -1.676951262774609E-3  -9.672650355259611E-3  
 2.002600000000000E10   -3.735309166749213E-3  -9.091836045914721E-3  
 2.002800000000000E10   -5.496359537227564E-3  -8.850722911213175E-3  
 2.003000000000000E10   -6.520999411454876E-3  -8.370943360063145E-3  
 2.003200000000000E10   -7.251489900674684E-3  -7.120309572331877E-3  
 2.003400000000000E10   -8.150052426414410E-3  -5.220316976724275E-3  
 2.003600000000000E10   -9.432099132945187E-3  -3.295865640794672E-3  
 2.003800000000000E10   -1.066031565140754E-2  -1.704806754297537E-3  
 2.004000000000000E10   -1.089386906158877E-2  -2.896804940685372E-4  
 2.004200000000000E10   -1.038746267651924E-2   1.553562471377886E-3  
 2.004400000000000E10   -9.538109520174027E-3   3.582274265754387E-3  
 2.004600000000000E10   -8.850903771084093E-3   5.607090076940316E-3  
 2.004800000000000E10   -8.447326187931000E-3   6.993556759838543E-3  
 2.005000000000000E10   -7.625755407532730E-3   7.819583842296855E-3  
 2.005200000000000E10   -5.911391441590514E-3   8.474086708834695E-3  
 2.005400000000000E10   -3.654034222271189E-3   9.224239182857407E-3  
 2.005600000000000E10   -1.683997699261350E-3   1.026071857638971E-2  
 2.005800000000000E10   -3.533222687488671E-4   1.106857468617041E-2  
 2.006000000000000E10    1.129224394507701E-3   1.093693182851618E-2  
 2.006200000000000E10    3.086011650419484E-3   1.024923118609494E-2  
 2.006400000000000E10    5.225441368168128E-3   9.252637268809247E-3  
 2.006600000000000E10    7.207059904282392E-3   8.612570829009601E-3  
 2.006800000000000E10    8.299731244036789E-3   7.877776673732306E-3  
 2.007000000000000E10    8.759259341497034E-3   6.521004576724052E-3  
 2.007200000000000E10    9.070774175360929E-3   4.519790106275221E-3  
 2.007400000000000E10    9.739291184822339E-3   2.284090492204886E-3  
 2.007600000000000E10    1.072466704387808E-2   6.033912028224586E-4  
 2.007800000000000E10    1.119507450928440E-2  -5.175012329831370E-4  
 2.008000000000000E10    1.087640785214661E-2  -2.227855493541361E-3  
 2.008200000000000E10    9.995975505506922E-3  -4.355430441843532E-3  
 2.008400000000000E10    8.980644658061612E-3  -6.586036685616158E-3  
 2.008600000000000E10    8.356830184197247E-3  -8.232507433515644E-3  
 2.008800000000000E10    7.440936977081505E-3  -9.128148547823078E-3  
 2.009000000000000E10    5.776855826686394E-3  -9.665920894498040E-3  
 2.009200000000000E10    3.359402052606556E-3  -1.019937756838856E-2  
 2.009400000000000E10    8.742281214146246E-4  -1.096745566678012E-2  
 2.009600000000000E10   -9.121410500411443E-4  -1.164397942000443E-2  
 2.009800000000000E10   -2.312056257713335E-3  -1.138665455216623E-2  
 2.010000000000000E10   -4.166572713529342E-3  -1.051627814109066E-2  
 2.010200000000000E10   -6.218407224365426E-3  -9.161666199522120E-3  
 2.010400000000000E10   -8.249828987619340E-3  -8.100319383293104E-3  
 2.010600000000000E10   -9.424705608930804E-3  -7.259686497158432E-3  
 2.010800000000000E10   -9.955919837906051E-3  -5.947972826522332E-3  
 2.011000000000000E10   -1.021723904040808E-2  -3.951079915621587E-3  
 2.011200000000000E10   -1.062311199028708E-2  -1.402146762461876E-3  
 2.011400000000000E10   -1.127798333291968E-2   9.384439515841224E-4  
 2.011600000000000E10   -1.153642589295344E-2   2.536058947602144E-3  
 2.011800000000000E10   -1.075515117077381E-2   4.232591144816163E-3  
 2.012000000000000E10   -9.366678700292242E-3   6.212634828128757E-3  
 2.012200000000000E10   -7.540654001646319E-3   8.384979118390434E-3  
 2.012400000000000E10   -6.134173509888827E-3   9.976518234726891E-3  
 2.012600000000000E10   -4.798820318547695E-3   1.037793604388361E-2  
 2.012800000000000E10   -3.103652963909288E-3   1.010325343269347E-2  
 2.013000000000000E10   -9.214403086372075E-4   9.688574075611623E-3  
 2.013200000000000E10    1.367821606258684E-3   9.564192881288689E-3  
 2.013400000000000E10    2.976793173030110E-3   9.682853242519995E-3  
 2.013600000000000E10    3.865526971085658E-3   9.267510955459930E-3  
 2.013800000000000E10    5.036225566903224E-3   8.240557994394861E-3  
 2.014000000000000E10    6.410037031396848E-3   6.851882414450726E-3  
 2.014200000000000E10    8.138829985733623E-3   5.646282935161907E-3  
 2.014400000000000E10    9.288967596159574E-3   4.899337280221932E-3  
 2.014600000000000E10    9.575092177370436E-3   3.885827290411655E-3  
 2.014800000000000E10    9.424672095941647E-3   2.136380653866160E-3  
 2.015000000000000E10    9.293726635606540E-3  -2.685142991897639E-4  
 2.015200000000000E10    9.469490589575519E-3  -2.616708085281840E-3  
 2.015400000000000E10    9.367054350073817E-3  -4.215710295838370E-3  
 2.015600000000000E10    8.217801709837574E-3  -5.276701511606662E-3  
 2.015800000000000E10    6.698895893001114E-3  -6.269760720746145E-3  
 2.016000000000000E10    4.991206759971710E-3  -7.403245822438948E-3  
 2.016200000000000E10    3.946321769681299E-3  -8.631087229493401E-3  
 2.016400000000000E10    3.352790044147012E-3  -9.260651343627812E-3  
 2.016600000000000E10    2.273832633361732E-3  -9.285720505958854E-3  
 2.016800000000000E10    3.527141118067790E-4  -8.953877993811232E-3  
 2.017000000000000E10   -2.036538761949806E-3  -8.789265071497887E-3  
 2.017200000000000E10   -4.081322789982895E-3  -9.002876290373883E-3  
 2.017400000000000E10   -5.439044809427375E-3  -8.724562067506976E-3  
 2.017600000000000E10   -6.899856897740376E-3  -7.351654928496598E-3  
 2.017800000000000E10   -8.214408512822055E-3  -5.213562064977977E-3  
 2.018000000000000E10   -9.406610543572459E-3  -2.809566115925125E-3  
 2.018200000000000E10   -9.979480403338771E-3  -1.290226433111446E-3  
 2.018400000000000E10   -9.585362409762033E-3  -2.382442326130657E-4  
 2.018600000000000E10   -8.574964764233521E-3   9.952479073614829E-4  
 2.018800000000000E10   -7.567165897153679E-3   2.707263369088278E-3  
 2.019000000000000E10   -7.082329561346024E-3   4.592710181143284E-3  
 2.019200000000000E10   -6.889354071708382E-3   5.862776714833222E-3  
 2.019400000000000E10   -5.930425919854807E-3   6.494725826319121E-3  
 2.019600000000000E10   -4.488874720289757E-3   7.214127457415058E-3  
 2.019800000000000E10   -2.666084380592070E-3   8.010768069002925E-3  
 2.020000000000000E10   -1.038884334847249E-3   9.062402841086354E-3  
 2.020200000000000E10    1.561690550599909E-4   9.451271045722935E-3  
 2.020400000000000E10    1.337019357659392E-3   8.898904375940002E-3  
 2.020600000000000E10    2.834546644402964E-3   7.781671380790551E-3  
 2.020800000000000E10    4.600041144857655E-3   6.769419282629686E-3  
 2.021000000000000E10    6.169843375639583E-3   6.256209266527348E-3  
 2.021200000000000E10    6.905406268584612E-3   5.692330998409728E-3  
 2.021400000000000E10    7.425779220039777E-3   4.372391477617153E-3  
 2.021600000000000E10    7.980673479062955E-3   2.717441053983191E-3  
 2.021800000000000E10    8.762813755927549E-3   9.027268781916576E-4  
 2.022000000000000E10    9.510780166978806E-3  -4.492884344063264E-4  
 2.022200000000000E10    9.506363041280183E-3  -1.590324430633037E-3  
 2.022400000000000E10    8.747374940352116E-3  -2.971544652877729E-3  
 2.022600000000000E10    7.547451537794486E-3  -4.842142566306914E-3  
 2.022800000000000E10    6.461054782107388E-3  -6.930509756150730E-3  
 2.023000000000000E10    5.664149897459715E-3  -8.376966546241229E-3  
 2.023200000000000E10    4.399820417077297E-3  -8.890182360344723E-3  
 2.023400000000000E10    2.547689163693892E-3  -9.377912255335824E-3  
 2.023600000000000E10    2.675881008122455E-4  -9.836832277581989E-3  
 2.023800000000000E10   -1.935647926547119E-3  -1.040663160148093E-2  
 2.024000000000000E10   -3.394363937404889E-3  -1.031530689388121E-2  
 2.024200000000000E10   -4.586053787399300E-3  -9.263119134550177E-3  
 2.024400000000000E10   -5.909559165574253E-3  -7.607794831264886E-3  
 2.024600000000000E10   -7.561896259550202E-3  -5.896915168909301E-3  
 2.024800000000000E10   -9.190528991954680E-3  -4.679240434422720E-3  
 2.025000000000000E10   -9.923679186213213E-3  -3.682262466231824E-3  
 2.025200000000000E10   -1.009342422812726E-2  -1.906365165986484E-3  
 2.025400000000000E10   -1.019049301305469E-2   2.851503143076943E-4  
 2.025600000000000E10   -1.027750790179134E-2   2.704064007630351E-3  
 2.025800000000000E10   -1.033743723028618E-2   4.470948312356581E-3  
 2.026000000000000E10   -9.522796743137359E-3   5.619792527254179E-3  
 2.026200000000000E10   -7.882801320836894E-3   6.596179503794130E-3  
 2.026400000000000E10   -5.865679229364307E-3   7.791516859839802E-3  
 2.026600000000000E10   -4.137095861824048E-3   9.216291198230826E-3  
 2.026800000000000E10   -3.107481329013582E-3   1.029338674960660E-2  
 2.027000000000000E10   -1.891447178800417E-3   1.042947122742874E-2  
 2.027200000000000E10    6.660929566139063E-5   1.039386183500600E-2  
 2.027400000000000E10    2.386269660154823E-3   1.013358073765778E-2  
 2.027600000000000E10    4.543069076808177E-3   1.009869639678725E-2  
 2.027800000000000E10    5.849795824142483E-3   9.897250808689591E-3  
 2.028000000000000E10    6.761327305848995E-3   8.869245810940453E-3  
 2.028200000000000E10    7.788246040133234E-3   7.158240633746829E-3  
 2.028400000000000E10    9.237165770365893E-3   5.161965281702815E-3  
 2.028600000000000E10    1.087121528108206E-2   3.474844439094342E-3  
 2.028800000000000E10    1.181342897594407E-2   2.191010910361201E-3  
 2.029000000000000E10    1.172399812674398E-2   1.140215851914647E-4  
 2.029200000000000E10    1.124691319953443E-2  -2.437131895245604E-3  
 2.029400000000000E10    1.044900644064335E-2  -5.120169649366362E-3  
 2.029600000000000E10    9.785338857850979E-3  -7.111134816065210E-3  
 2.029800000000000E10    8.765219066994212E-3  -7.927705164377944E-3  
 2.030000000000000E10    7.180749448026462E-3  -8.381524148346626E-3  
 2.030200000000000E10    5.077545338859766E-3  -9.108254653437849E-3  
 2.030400000000000E10    3.003891721357883E-3  -1.017943221630709E-2  
 2.030600000000000E10    1.624128617011039E-3  -1.120505730605566E-2  
 2.030800000000000E10    4.800542443049514E-4  -1.137426341499472E-2  
 2.031000000000000E10   -1.525058751601294E-3  -1.099482503650158E-2  
 2.031200000000000E10   -3.896656267792020E-3  -1.032929702606493E-2  
 2.031400000000000E10   -6.284236246112245E-3  -9.697824168520816E-3  
 2.031600000000000E10   -7.705147771021542E-3  -9.247520536016695E-3  
 2.031800000000000E10   -8.396854573498550E-3  -8.121271247427639E-3  
 2.032000000000000E10   -9.037139144763486E-3  -6.131673070086165E-3  
 2.032200000000000E10   -9.941227540503545E-3  -3.702345119882359E-3  
 2.032400000000000E10   -1.099986455336446E-2  -1.620336577803222E-3  
 2.032600000000000E10   -1.149420097191306E-2  -3.391532169867111E-4  
 2.032800000000000E10   -1.090537894975483E-2   1.152235815425554E-3  
 2.033000000000000E10   -1.001095506184384E-2   3.093198300812887E-3  
 2.033200000000000E10   -9.040308034571227E-3   5.166584767075514E-3  
 2.033400000000000E10   -8.675919070152685E-3   6.780353215955357E-3  
 2.033600000000000E10   -8.969928717697327E-3   6.835837669068251E-3  
 2.033800000000000E10   -7.020668917426092E-3   8.229921457307238E-3  
 2.034000000000000E10   -4.908204240225996E-3   8.872495067330222E-3  
 2.034200000000000E10   -2.691287263616960E-3   9.865563694515626E-3  
 2.034400000000000E10   -1.081556485421389E-3   1.102490247789423E-2  
 2.034600000000000E10    1.241391007230141E-4   1.127546608853670E-2  
 2.034800000000000E10    1.931749028250456E-3   1.060750184105546E-2  
 2.035000000000000E10    4.084885252038352E-3   9.630969321835955E-3  
 2.035200000000000E10    6.376328351635601E-3   8.717981108982476E-3  
 2.035400000000000E10    7.888543401546235E-3   8.058932471657751E-3  
 2.035600000000000E10    8.407577574692269E-3   7.040216807392181E-3  
 2.035800000000000E10    8.482565357705777E-3   5.412556335550686E-3  
 2.036000000000000E10    8.896195735751183E-3   3.313379146650145E-3  
 2.036200000000000E10    9.807631458896722E-3   1.332854773948600E-3  
 2.036400000000000E10    1.055027388560081E-2   2.715510204976022E-4  
 2.036600000000000E10    1.032916628496900E-2  -7.144796838411946E-4  
 2.036800000000000E10    9.753354405815609E-3  -2.447679061940386E-3  
 2.037000000000000E10    8.907877649685314E-3  -4.662994696235963E-3  
 2.037200000000000E10    8.462685198966964E-3  -6.824797085460082E-3  
 2.037400000000000E10    7.927757060486783E-3  -8.265005157701046E-3  
 2.037600000000000E10    6.579463464959386E-3  -9.003998410190726E-3  
 2.037800000000000E10    4.230293313031847E-3  -9.444838175809388E-3  
 2.038000000000000E10    1.596804942847066E-3  -1.002588568036206E-2  
 2.038200000000000E10   -4.244772368678299E-4  -1.074396687422009E-2  
 2.038400000000000E10   -1.547413571464710E-3  -1.069824469879005E-2  
 2.038600000000000E10   -3.046175794334696E-3  -9.675809464052540E-3  
 2.038800000000000E10   -4.791643115331768E-3  -8.227294110639263E-3  
 2.039000000000000E10   -6.668106732390712E-3  -7.044509731002412E-3  
 2.039200000000000E10   -7.972610288061529E-3  -6.466326117856048E-3  
 2.039400000000000E10   -8.482931230824740E-3  -5.709426538365640E-3  
 2.039600000000000E10   -8.630607359955664E-3  -4.240980825223084E-3  
 2.039800000000000E10   -8.936010876677274E-3  -1.979144114127866E-3  
 2.040000000000000E10   -9.579397058454526E-3   4.370093599018097E-4  
 2.040200000000000E10   -1.003133249008880E-2   2.070138251154008E-3  
 2.040400000000000E10   -9.227476725054355E-3   3.162663000203916E-3  
 2.040600000000000E10   -7.833738055787708E-3   4.461077023884295E-3  
 2.040800000000000E10   -6.334738454526360E-3   5.899826384936930E-3  
 2.041000000000000E10   -5.433705398999643E-3   7.452750804329378E-3  
 2.041200000000000E10   -4.804020033599076E-3   8.347383164759907E-3  
 2.041400000000000E10   -3.798914285945209E-3   8.516623741885311E-3  
 2.041600000000000E10   -2.032402254100328E-3   8.363204053701839E-3  
 2.041800000000000E10    2.705451844115381E-4   8.494344046898635E-3  
 2.042000000000000E10    2.299930707157126E-3   8.956798795596957E-3  
 2.042200000000000E10    3.511413688943976E-3   8.844936932780510E-3  
 2.042400000000000E10    4.650699058228416E-3   7.636135061868893E-3  
 2.042600000000000E10    5.934817173624483E-3   6.032882612194113E-3  
 2.042800000000000E10    7.420771692724948E-3   4.400710860289417E-3  
 2.043000000000000E10    8.450666899935131E-3   3.368090961615781E-3  
 2.043200000000000E10    8.579530217640866E-3   2.517442195308922E-3  
 2.043400000000000E10    8.126619686787314E-3   1.256542421091093E-3  
 2.043600000000000E10    7.647956225485971E-3  -6.691144876694131E-4  
 2.043800000000000E10    7.521708290386569E-3  -2.692971455550420E-3  
 2.044000000000000E10    7.725371255847305E-3  -4.030733662004514E-3  
 2.044200000000000E10    7.124491689248664E-3  -4.770096529285318E-3  
 2.044400000000000E10    5.719398859306977E-3  -5.805623215237562E-3  
 2.044600000000000E10    3.879874252168796E-3  -7.007421027358260E-3  
 2.044800000000000E10    2.496836262538899E-3  -8.288733857925997E-3  
 2.045000000000000E10    1.595666046399571E-3  -8.924772040587066E-3  
 2.045200000000000E10    4.160115386920038E-4  -8.703575507691762E-3  
 2.045400000000000E10   -1.286875089883075E-3  -7.842701797978363E-3  
 2.045600000000000E10   -3.375380237446547E-3  -7.048574818015364E-3  
 2.045800000000000E10   -5.197317153699476E-3  -6.653844582868578E-3  
 2.046000000000000E10   -6.012402590772569E-3  -6.210853348391360E-3  
 2.046200000000000E10   -6.450507453751699E-3  -4.892939196281245E-3  
 2.046400000000000E10   -7.088621864015244E-3  -3.154380429719761E-3  
 2.046600000000000E10   -7.967584609522566E-3  -1.273076597619655E-3  
 2.046800000000000E10   -8.714337668000904E-3  -8.916388237223863E-5  
 2.047000000000000E10   -8.679391720090140E-3   7.364500724444465E-4  
 2.047200000000000E10   -7.902522053507714E-3   1.796943486823692E-3  
 2.047400000000000E10   -6.803037013177920E-3   3.483162326487575E-3  
 2.047600000000000E10   -5.976317679407686E-3   5.394177391014627E-3  
 2.047800000000000E10   -5.522167926520824E-3   6.802190193331587E-3  
 2.048000000000000E10   -4.534076889033503E-3   7.235019475611925E-3  
 2.048200000000000E10   -2.830243300748268E-3   7.525857117953916E-3  
 2.048400000000000E10   -8.983071076749791E-4   7.795867191608633E-3  
 2.048600000000000E10    7.498446738343727E-4   8.414371227133746E-3  
 2.048800000000000E10    1.638718834513419E-3   8.796842928667278E-3  
 2.049000000000000E10    2.425245906876739E-3   8.383563580905735E-3  
 2.049200000000000E10    3.744000634838565E-3   7.142417506911967E-3  
 2.049400000000000E10    5.468187728104955E-3   5.833391794994314E-3  
 2.049600000000000E10    7.012587994676887E-3   5.092794116219457E-3  
 2.049800000000000E10    7.762841911839536E-3   4.667997243232164E-3  
 2.050000000000000E10    8.027399079225121E-3   3.396841018726340E-3  
 2.050200000000000E10    8.380845025321502E-3   1.580950452254585E-3  
 2.050400000000000E10    8.874327775630311E-3  -4.840482225482052E-4  
 2.050600000000000E10    9.540248624779929E-3  -2.034524427281676E-3  
 2.050800000000000E10    9.553363663355028E-3  -3.097811723337517E-3  
 2.051000000000000E10    8.577463940441272E-3  -4.265648716047754E-3  
 2.051200000000000E10    6.930884577079382E-3  -5.869794377412058E-3  
 2.051400000000000E10    5.497653542671160E-3  -7.767510153711637E-3  
 2.051600000000000E10    4.561018180375678E-3  -9.269615404133109E-3  
 2.051800000000000E10    3.440692860565388E-3  -9.586201633408398E-3  
 2.052000000000000E10    1.573907585653654E-3  -9.539441285216062E-3  
 2.052200000000000E10   -5.714091872032142E-4  -9.522651977337419E-3  
 2.052400000000000E10   -2.638425120606015E-3  -9.839756171217455E-3  
 2.052600000000000E10   -4.033742046752652E-3  -9.948215067144842E-3  
 2.052800000000000E10   -4.984654020480393E-3  -9.242322205449670E-3  
 2.053000000000000E10   -6.093086789151638E-3  -7.759978556160473E-3  
 2.053200000000000E10   -7.748203391661646E-3  -5.954210429589772E-3  
 2.053400000000000E10   -9.490312681606876E-3  -4.598952025778778E-3  
 2.053600000000000E10   -1.049851503011302E-2  -3.779881100955192E-3  
 2.053800000000000E10   -1.059042033203439E-2  -2.292132327485505E-3  
 2.054000000000000E10   -1.052768014596651E-2  -4.558676857838356E-5  
 2.054200000000000E10   -1.039057784583076E-2   2.481008386920974E-3  
 2.054400000000000E10   -1.037969949864208E-2   4.435535840123678E-3  
 2.054600000000000E10   -9.994093507287361E-3   5.562878135978715E-3  
 2.054800000000000E10   -8.860204654641239E-3   6.448981240171922E-3  
 2.055000000000000E10   -7.036812310512417E-3   7.633052800226775E-3  
 2.055200000000000E10   -5.255023433484662E-3   9.425438000170641E-3  
 2.055400000000000E10   -4.009611207678778E-3   1.124179866593404E-2  
 2.055600000000000E10   -2.714179316866404E-3   1.188203717697960E-2  
