#  HZ   S   RI   R     50.00 
! Rohde & Schwarz ZVA40 4Ports - Version 3.90 - 1145.1110k42 SN: 100403
! Date: 2023-09-28 10:20:20
! Measurement: S12 
! 
 2.000000000000000E10    7.629941183337377E-2   5.214295108847476E-2  
 2.000200000000000E10    8.398606207173637E-2   3.953552065879244E-2  
 2.000400000000000E10    8.960348278384125E-2   2.489510506450106E-2  
 2.000600000000000E10    9.272064956228897E-2   9.314386293158465E-3  
 2.000800000000000E10    9.308444448607549E-2  -6.455374951137379E-3  
 2.001000000000000E10    9.070971491194479E-2  -2.247679443292122E-2  
 2.001200000000000E10    8.558060531026569E-2  -3.754551707208277E-2  
 2.001400000000000E10    7.792664487446524E-2  -5.156830487814271E-2  
 2.001600000000000E10    6.803065758735526E-2  -6.407538995874273E-2  
 2.001800000000000E10    5.623418867732925E-2  -7.475216271305624E-2  
 2.002000000000000E10    4.251487321048641E-2  -8.334714153330101E-2  
 2.002200000000000E10    2.644548134303491E-2  -8.967587415879197E-2  
 2.002400000000000E10    1.087544831534069E-2  -9.274961193916212E-2  
 2.002600000000000E10   -4.913106549828027E-3  -9.307720220524218E-2  
 2.002800000000000E10   -2.062033943677016E-2  -9.084711299457147E-2  
 2.003000000000000E10   -3.560199197281401E-2  -8.599914747646742E-2  
 2.003200000000000E10   -4.961387887816403E-2  -7.864245687473084E-2  
 2.003400000000000E10   -6.217198921088891E-2  -6.898692325104083E-2  
 2.003600000000000E10   -7.285189649662953E-2  -5.741571626910851E-2  
 2.003800000000000E10   -8.133819874531670E-2  -4.427265845092533E-2  
 2.004000000000000E10   -8.751205186754327E-2  -2.989338409049661E-2  
 2.004200000000000E10   -9.114625243474167E-2  -1.472811019687211E-2  
 2.004400000000000E10   -9.231579445974372E-2   6.472631668899749E-4  
 2.004600000000000E10   -9.090426760472328E-2   1.603926779575166E-2  
 2.004800000000000E10   -8.688207912149804E-2   3.128570955619688E-2  
 2.005000000000000E10   -8.035275856038571E-2   4.549750550363770E-2  
 2.005200000000000E10   -7.160510532464198E-2   5.824064517935138E-2  
 2.005400000000000E10   -6.077509148062257E-2   6.949719720042868E-2  
 2.005600000000000E10   -4.815812121346471E-2   7.873050168139001E-2  
 2.005800000000000E10   -3.417191909018422E-2   8.571392988853903E-2  
 2.006000000000000E10   -1.933843803654666E-2   9.011287675481469E-2  
 2.006200000000000E10   -3.874166091224789E-3   9.210977942414907E-2  
 2.006400000000000E10    1.146706566651259E-2   9.151511775213736E-2  
 2.006600000000000E10    2.683758899315444E-2   8.837045533021842E-2  
 2.006800000000000E10    4.145233492392057E-2   8.257693041949418E-2  
 2.007000000000000E10    5.481952550599471E-2   7.432232007658432E-2  
 2.007200000000000E10    6.646691805118193E-2   6.397727184718474E-2  
 2.007400000000000E10    7.622292094704751E-2   5.202248905129078E-2  
 2.007600000000000E10    8.400130012493851E-2   3.842795264074855E-2  
 2.007800000000000E10    8.934105427607895E-2   2.370557318858415E-2  
 2.008000000000000E10    9.216168028459824E-2   8.309945527126730E-3  
 2.008200000000000E10    9.226687982811037E-2  -7.468308609669657E-3  
 2.008400000000000E10    8.971045655220609E-2  -2.280738749270454E-2  
 2.008600000000000E10    8.445203113384621E-2  -3.762777471390593E-2  
 2.008800000000000E10    7.682617015818608E-2  -5.128938648139014E-2  
 2.009000000000000E10    6.727155084245684E-2  -6.328429977236327E-2  
 2.009200000000000E10    5.579618266757307E-2  -7.378345762254490E-2  
 2.009400000000000E10    4.260455312791672E-2  -8.220954221701741E-2  
 2.009600000000000E10    2.794246448321210E-2  -8.831126981030715E-2  
 2.009800000000000E10    1.296860913338056E-2  -9.174977617739843E-2  
 2.010000000000000E10   -2.777748553199289E-3  -9.273001355044602E-2  
 2.010200000000000E10   -1.854759787822378E-2  -9.098930285734350E-2  
 2.010400000000000E10   -3.361808514656160E-2  -8.657039064186918E-2  
 2.010600000000000E10   -4.775228281207233E-2  -7.965975426933573E-2  
 2.010800000000000E10   -6.057241196005418E-2  -7.047159328461065E-2  
 2.011000000000000E10   -7.172672654804280E-2  -5.906086006525150E-2  
 2.011200000000000E10   -8.051543595466666E-2  -4.611849129137007E-2  
 2.011400000000000E10   -8.705606678635791E-2  -3.192355605969383E-2  
 2.011600000000000E10   -9.122026263463864E-2  -1.678310337479047E-2  
 2.011800000000000E10   -9.282956361377884E-2  -1.113573635712415E-3  
 2.012000000000000E10   -9.169788817017720E-2   1.442799856674608E-2  
 2.012200000000000E10   -8.803888432378053E-2   2.974648960097313E-2  
 2.012400000000000E10   -8.185109920678180E-2   4.409430811439770E-2  
 2.012600000000000E10   -7.318846593920222E-2   5.741542997754835E-2  
 2.012800000000000E10   -6.243132391224264E-2   6.889240300115672E-2  
 2.013000000000000E10   -4.986821152696771E-2   7.839261949472917E-2  
 2.013200000000000E10   -3.609750197686779E-2   8.553667595322731E-2  
 2.013400000000000E10   -2.118888986474587E-2   9.037941516207684E-2  
 2.013600000000000E10   -5.486425828843813E-3   9.268849120280272E-2  
 2.013800000000000E10    9.918151223513977E-3   9.234412895366928E-2  
 2.014000000000000E10    2.538705357674240E-2   8.942865836549922E-2  
 2.014200000000000E10    4.005995205715743E-2   8.406455537345245E-2  
 2.014400000000000E10    5.380955511931861E-2   7.621083885577069E-2  
 2.014600000000000E10    6.600574801414480E-2   6.609653035467056E-2  
 2.014800000000000E10    7.621249855220588E-2   5.400634581762030E-2  
 2.015000000000000E10    8.424164311279413E-2   4.031605363796163E-2  
 2.015200000000000E10    8.990251258454091E-2   2.544960813142542E-2  
 2.015400000000000E10    9.287813423673859E-2   1.005158415938855E-2  
 2.015600000000000E10    9.328708743010239E-2  -5.852027884003117E-3  
 2.015800000000000E10    9.108105194055446E-2  -2.135901127308162E-2  
 2.016000000000000E10    8.629569707556919E-2  -3.657102155993152E-2  
 2.016200000000000E10    7.898361864937406E-2  -5.067597198637124E-2  
 2.016400000000000E10    6.934015689146003E-2  -6.336874520455779E-2  
 2.016600000000000E10    5.754135650337941E-2  -7.427232213677702E-2  
 2.016800000000000E10    4.404193633877904E-2  -8.292534389127737E-2  
 2.017000000000000E10    2.940052433220540E-2  -8.904227164080147E-2  
 2.017200000000000E10    1.399835711974157E-2  -9.269202930974754E-2  
 2.017400000000000E10   -1.725803831914385E-3  -9.377231418065068E-2  
 2.017600000000000E10   -1.781397497757489E-2  -9.215539133097415E-2  
 2.017800000000000E10   -3.314786064890826E-2  -8.785778704260619E-2  
 2.018000000000000E10   -4.738985738918265E-2  -8.106936987196300E-2  
 2.018200000000000E10   -6.052751803064314E-2  -7.183588726379893E-2  
 2.018400000000000E10   -7.186904838281669E-2  -6.063055022634009E-2  
 2.018600000000000E10   -8.123520995700310E-2  -4.745174888006761E-2  
 2.018800000000000E10   -8.801303507767309E-2  -3.286309288482640E-2  
 2.019000000000000E10   -9.218833474300890E-2  -1.742625992634674E-2  
 2.019200000000000E10   -9.368525312295550E-2  -1.636176115479512E-3  
 2.019400000000000E10   -9.257573428846325E-2   1.430147028420713E-2  
 2.019600000000000E10   -8.886495631436757E-2   2.966026749576162E-2  
 2.019800000000000E10   -8.248239250721486E-2   4.444537312942239E-2  
 2.020000000000000E10   -7.389474502987119E-2   5.754480103099399E-2  
 2.020200000000000E10   -6.289364391450480E-2   6.931436587304959E-2  
 2.020400000000000E10   -5.018721055985068E-2   7.885556028448992E-2  
 2.020600000000000E10   -3.622427960884943E-2   8.602523754570279E-2  
 2.020800000000000E10   -2.113964306739501E-2   9.079981141401405E-2  
 2.021000000000000E10   -5.439144727515404E-3   9.288015341584140E-2  
 2.021200000000000E10    1.022304133425701E-2   9.236379774976909E-2  
 2.021400000000000E10    2.549688979661329E-2   8.927119217829262E-2  
 2.021600000000000E10    4.012565052165167E-2   8.371680823681252E-2  
 2.021800000000000E10    5.369564879741622E-2   7.567945838316070E-2  
 2.022000000000000E10    6.561672633918496E-2   6.555331890867708E-2  
 2.022200000000000E10    7.563920895621742E-2   5.355484124863894E-2  
 2.022400000000000E10    8.361538419866918E-2   3.992349140942082E-2  
 2.022600000000000E10    8.902147508253661E-2   2.539435021983411E-2  
 2.022800000000000E10    9.193678883075182E-2   1.006646616212854E-2  
 2.023000000000000E10    9.222702539222974E-2  -5.511609030358342E-3  
 2.023200000000000E10    8.996656984227514E-2  -2.079028786592853E-2  
 2.023400000000000E10    8.527073823254765E-2  -3.539740790728747E-2  
 2.023600000000000E10    7.840039247530925E-2  -4.909736068842575E-2  
 2.023800000000000E10    6.927038658290168E-2  -6.167279854485711E-2  
 2.024000000000000E10    5.802935111724052E-2  -7.263973543239374E-2  
 2.024200000000000E10    4.512652860757235E-2  -8.145040966804895E-2  
 2.024400000000000E10    3.061603312413911E-2  -8.802505194066557E-2  
 2.024600000000000E10    1.534862836437371E-2  -9.195134230574259E-2  
 2.024800000000000E10   -1.916634275105513E-4  -9.326432590614617E-2  
 2.025000000000000E10   -1.593329218155967E-2  -9.195874419307037E-2  
 2.025200000000000E10   -3.114973882209966E-2  -8.826007173576035E-2  
 2.025400000000000E10   -4.565849599906970E-2  -8.194704289774191E-2  
 2.025600000000000E10   -5.914249482777241E-2  -7.308017434207433E-2  
 2.025800000000000E10   -7.080804486281617E-2  -6.226630671700863E-2  
 2.026000000000000E10   -8.059828758812615E-2  -4.936696251614407E-2  
 2.026200000000000E10   -8.796426325866719E-2  -3.493375764418594E-2  
 2.026400000000000E10   -9.267369051345156E-2  -1.940434022400766E-2  
 2.026600000000000E10   -9.467519927298039E-2  -3.243260551213856E-3  
 2.026800000000000E10   -9.393452504297507E-2   1.284454192310190E-2  
 2.027000000000000E10   -9.046305345723166E-2   2.869529350113975E-2  
 2.027200000000000E10   -8.426415148557631E-2   4.383635827562682E-2  
 2.027400000000000E10   -7.552445409719208E-2   5.765352615979053E-2  
 2.027600000000000E10   -6.449831152845535E-2   6.967553012507781E-2  
 2.027800000000000E10   -5.148013807493056E-2   7.958398427665930E-2  
 2.028000000000000E10   -3.715869452675535E-2   8.700966016913274E-2  
 2.028200000000000E10   -2.176429558100326E-2   9.190417945501389E-2  
 2.028400000000000E10   -5.815292066190600E-3   9.410312189105040E-2  
 2.028600000000000E10    1.025875398259520E-2   9.361080864306381E-2  
 2.028800000000000E10    2.595226363567267E-2   9.036616179573634E-2  
 2.029000000000000E10    4.084440316601158E-2   8.454822307600514E-2  
 2.029200000000000E10    5.444619225011950E-2   7.639407606638127E-2  
 2.029400000000000E10    6.668644671419952E-2   6.592841476394326E-2  
 2.029600000000000E10    7.679258921281157E-2   5.359338948197066E-2  
 2.029800000000000E10    8.469184780157429E-2   3.959362413554933E-2  
 2.030000000000000E10    8.991960324677055E-2   2.476480722467474E-2  
 2.030200000000000E10    9.264328410037165E-2   9.270616846234515E-3  
 2.030400000000000E10    9.278682254493331E-2  -6.390903744976712E-3  
 2.030600000000000E10    9.035994147632730E-2  -2.193784612872383E-2  
 2.030800000000000E10    8.539502174443306E-2  -3.667301969295628E-2  
 2.031000000000000E10    7.804543118658483E-2  -5.053294933818110E-2  
 2.031200000000000E10    6.847476938957033E-2  -6.296664968157761E-2  
 2.031400000000000E10    5.679435639654448E-2  -7.379186231929003E-2  
 2.031600000000000E10    4.386304667393466E-2  -8.201327657381199E-2  
 2.031800000000000E10    2.947612686749667E-2  -8.816763612388445E-2  
 2.032000000000000E10    1.420857541108202E-2  -9.177803118099019E-2  
 2.032200000000000E10   -1.365275989015797E-3  -9.286613029312413E-2  
 2.032400000000000E10   -1.695009156243433E-2  -9.132182326751767E-2  
 2.032600000000000E10   -3.216184994997563E-2  -8.719758494979922E-2  
 2.032800000000000E10   -4.637227312845021E-2  -8.050480267211306E-2  
 2.033000000000000E10   -5.925277576367079E-2  -7.155808093803613E-2  
 2.033200000000000E10   -7.057786306439084E-2  -6.049191054027180E-2  
 2.033400000000000E10   -7.984998387705916E-2  -4.781574976407303E-2  
 2.033600000000000E10   -8.338596479148938E-2  -4.162198798542309E-2  
 2.033800000000000E10   -9.139579005288051E-2  -1.793539636402935E-2  
 2.034000000000000E10   -9.305822350255961E-2  -2.317100912782761E-3  
 2.034200000000000E10   -9.213788784845103E-2   1.331363805196080E-2  
 2.034400000000000E10   -8.853017613646556E-2   2.880414010415770E-2  
 2.034600000000000E10   -8.238789245334061E-2   4.332854017515934E-2  
 2.034800000000000E10   -7.388637240893395E-2   5.656369394992067E-2  
 2.035000000000000E10   -6.323753144492610E-2   6.820413862724845E-2  
 2.035200000000000E10   -5.077766171922606E-2   7.780617768286960E-2  
 2.035400000000000E10   -3.696175331148549E-2   8.513463054829211E-2  
 2.035600000000000E10   -2.213500171444407E-2   9.011761747998277E-2  
 2.035800000000000E10   -6.739601143388466E-3   9.259255342830605E-2  
 2.036000000000000E10    8.972443054037996E-3   9.245196284382520E-2  
 2.036200000000000E10    2.443529151426046E-2   8.956734716281620E-2  
 2.036400000000000E10    3.916319181148387E-2   8.415209316820602E-2  
 2.036600000000000E10    5.279575070855459E-2   7.640172746421109E-2  
 2.036800000000000E10    6.485396608152215E-2   6.648995443107988E-2  
 2.037000000000000E10    7.517551333195530E-2   5.453600046153879E-2  
 2.037200000000000E10    8.332455984802643E-2   4.110555086136606E-2  
 2.037400000000000E10    8.909222603837651E-2   2.661936377521940E-2  
 2.037600000000000E10    9.241691209063493E-2   1.126343072907698E-2  
 2.037800000000000E10    9.312385121888786E-2  -4.748600603597888E-3  
 2.038000000000000E10    9.106883064780735E-2  -2.033336287161269E-2  
 2.038200000000000E10    8.628379596479315E-2  -3.548067010622331E-2  
 2.038400000000000E10    7.901958382160812E-2  -4.954121972848889E-2  
 2.038600000000000E10    6.955653399458209E-2  -6.218273905626156E-2  
 2.038800000000000E10    5.801178777220189E-2  -7.306502688951640E-2  
 2.039000000000000E10    4.491831914476564E-2  -8.180516891622652E-2  
 2.039200000000000E10    3.044733190185749E-2  -8.822277233000551E-2  
 2.039400000000000E10    1.498761791876737E-2  -9.209933411882040E-2  
 2.039600000000000E10   -5.584452729755495E-4  -9.331752494972509E-2  
 2.039800000000000E10   -1.636272538654728E-2  -9.184261449341452E-2  
 2.040000000000000E10   -3.162938866972042E-2  -8.770661900737467E-2  
 2.040200000000000E10   -4.582782282149040E-2  -8.111117687085179E-2  
 2.040400000000000E10   -5.872514951077627E-2  -7.211890456726429E-2  
 2.040600000000000E10   -6.998787262087451E-2  -6.111691960120334E-2  
 2.040800000000000E10   -7.913132765794465E-2  -4.861119754174391E-2  
 2.041000000000000E10   -8.622165539360091E-2  -3.467365677774500E-2  
 2.041200000000000E10   -9.087548991706565E-2  -1.972333690138292E-2  
 2.041400000000000E10   -9.301817044250538E-2  -4.350588626422888E-3  
 2.041600000000000E10   -9.264103705735996E-2   1.124351285928421E-2  
 2.041800000000000E10   -8.968936318737819E-2   2.693849709847133E-2  
 2.042000000000000E10   -8.404631477133844E-2   4.171189003604323E-2  
 2.042200000000000E10   -7.575052945907211E-2   5.554517656404148E-2  
 2.042400000000000E10   -6.523770944839744E-2   6.758287192421711E-2  
 2.042600000000000E10   -5.284258332379713E-2   7.762133227492485E-2  
 2.042800000000000E10   -3.891073187196772E-2   8.536693422174965E-2  
 2.043000000000000E10   -2.391281161859353E-2   9.062533496347296E-2  
 2.043200000000000E10   -8.429435843560550E-3   9.337109040395886E-2  
 2.043400000000000E10    7.564593130392885E-3   9.354265970811457E-2  
 2.043600000000000E10    2.309074953983980E-2   9.097814456644815E-2  
 2.043800000000000E10    3.808308094182755E-2   8.577560702711172E-2  
 2.044000000000000E10    5.206798278268453E-2   7.801614116002600E-2  
 2.044200000000000E10    6.437963048525981E-2   6.823794689070484E-2  
 2.044400000000000E10    7.501912098877077E-2   5.641353950976775E-2  
 2.044600000000000E10    8.353351308429360E-2   4.286026275240550E-2  
 2.044800000000000E10    8.961715482917385E-2   2.807805741081154E-2  
 2.045000000000000E10    9.304463630182606E-2   1.239157262378596E-2  
 2.045200000000000E10    9.374961442182429E-2  -3.542307454062676E-3  
 2.045400000000000E10    9.173461590269193E-2  -1.918586769631833E-2  
 2.045600000000000E10    8.717842248832938E-2  -3.438667014525886E-2  
 2.045800000000000E10    8.009815853055216E-2  -4.856280044174750E-2  
 2.046000000000000E10    7.076618435514584E-2  -6.128071423292129E-2  
 2.046200000000000E10    5.933505502984428E-2  -7.234787098353016E-2  
 2.046400000000000E10    4.617840277725067E-2  -8.129718453639923E-2  
 2.046600000000000E10    3.183340160767624E-2  -8.770999053900708E-2  
 2.046800000000000E10    1.662208948358453E-2  -9.180245591719155E-2  
 2.047000000000000E10    9.062398910326486E-4  -9.328216285612054E-2  
 2.047200000000000E10   -1.460573946193130E-2  -9.214806743498570E-2  
 2.047400000000000E10   -2.999415790373803E-2  -8.836135052569480E-2  
 2.047600000000000E10   -4.448555147724227E-2  -8.202559803065744E-2  
 2.047800000000000E10   -5.757684550546103E-2  -7.338886591012334E-2  
 2.048000000000000E10   -6.915179280307769E-2  -6.255990686301385E-2  
 2.048200000000000E10   -7.869368137551651E-2  -4.998499992489194E-2  
 2.048400000000000E10   -8.596866008045995E-2  -3.612850479992477E-2  
 2.048600000000000E10   -9.094434231161683E-2  -2.101200009449362E-2  
 2.048800000000000E10   -9.325435519555345E-2  -5.178723069881214E-3  
 2.049000000000000E10   -9.284145851786635E-2   1.051441944392384E-2  
 2.049200000000000E10   -8.967380256070681E-2   2.624613743120629E-2  
 2.049400000000000E10   -8.394515496579971E-2   4.097919625451725E-2  
 2.049600000000000E10   -7.575556380249796E-2   5.444632090226725E-2  
 2.049800000000000E10   -6.542339663476543E-2   6.646558630855247E-2  
 2.050000000000000E10   -5.326045049524730E-2   7.650164384454583E-2  
 2.050200000000000E10   -3.961447550003096E-2   8.433665444828642E-2  
 2.050400000000000E10   -2.476613898032554E-2   8.977360673472890E-2  
 2.050600000000000E10   -9.198675151818946E-3   9.264680159040810E-2  
 2.050800000000000E10    6.633740786490166E-3   9.273415551607041E-2  
 2.051000000000000E10    2.216262547707734E-2   9.014986038752848E-2  
 2.051200000000000E10    3.696836782728290E-2   8.499379628394065E-2  
 2.051400000000000E10    5.063667379079925E-2   7.746520653966711E-2  
 2.051600000000000E10    6.291633523654364E-2   6.772297258988505E-2  
 2.051800000000000E10    7.332054971190316E-2   5.607725923857464E-2  
 2.052000000000000E10    8.158442470454463E-2   4.285256326393619E-2  
 2.052200000000000E10    8.750283677117017E-2   2.838474687492004E-2  
 2.052400000000000E10    9.084334754472438E-2   1.346861543042936E-2  
 2.052600000000000E10    9.174088548708449E-2  -1.899461519994971E-3  
 2.052800000000000E10    9.009927485278725E-2  -1.729673371169668E-2  
 2.053000000000000E10    8.584952637143967E-2  -3.214255755779528E-2  
 2.053200000000000E10    7.915485551246093E-2  -4.599603568966441E-2  
 2.053400000000000E10    7.034973960555041E-2  -5.847196848366418E-2  
 2.053600000000000E10    5.966784536514681E-2  -6.932796166272523E-2  
 2.053800000000000E10    4.737008938082557E-2  -7.839783654743485E-2  
 2.054000000000000E10    3.354985654424576E-2  -8.536286381165770E-2  
 2.054200000000000E10    1.879175996256336E-2  -8.992398009313929E-2  
 2.054400000000000E10    3.468991801730206E-3  -9.182925424394155E-2  
 2.054600000000000E10   -1.210014944550060E-2  -9.114808031485411E-2  
 2.054800000000000E10   -2.727414663459362E-2  -8.792415409735262E-2  
 2.055000000000000E10   -4.177872235207493E-2  -8.207053930626013E-2  
 2.055200000000000E10   -5.506757163993455E-2  -7.384339241371590E-2  
 2.055400000000000E10   -6.677163289974007E-2  -6.350124107194018E-2  
 2.055600000000000E10   -7.655089745732430E-2  -5.136145192158030E-2  
