#  HZ   S   RI   R     50.00 
! Rohde & Schwarz ZVA40 4Ports - Version 3.90 - 1145.1110k42 SN: 100403
! Date: 2023-09-28 11:15:11
! Measurement: S12 
! 
 2.000000000000000E10    5.565943163483905E-2   5.085653853888629E-2  
 2.000200000000000E10    6.338230381705590E-2   4.169583565063106E-2  
 2.000400000000000E10    6.972519264528652E-2   3.051700639189291E-2  
 2.000600000000000E10    7.409140022363595E-2   1.808619921082048E-2  
 2.000800000000000E10    7.609709308114215E-2   5.386154241472132E-3  
 2.001000000000000E10    7.597294877964245E-2  -7.783498525194253E-3  
 2.001200000000000E10    7.362579240346642E-2  -2.058008470691122E-2  
 2.001400000000000E10    6.899467800346808E-2  -3.299352738371636E-2  
 2.001600000000000E10    6.236859619974289E-2  -4.419665120429879E-2  
 2.001800000000000E10    5.395949801037100E-2  -5.411312888066564E-2  
 2.002000000000000E10    4.385031288615782E-2  -6.250133116897000E-2  
 2.002200000000000E10    3.161705453339640E-2  -6.938309461286174E-2  
 2.002400000000000E10    1.956701213270454E-2  -7.361155176330519E-2  
 2.002600000000000E10    6.892966651691580E-3  -7.577763126547450E-2  
 2.002800000000000E10   -6.066870065521050E-3  -7.580669231260814E-2  
 2.003000000000000E10   -1.869823371087116E-2  -7.355170288192237E-2  
 2.003200000000000E10   -3.081050252025913E-2  -6.918901488728077E-2  
 2.003400000000000E10   -4.194019280646044E-2  -6.292855368080197E-2  
 2.003600000000000E10   -5.194876937901269E-2  -5.504309510622385E-2  
 2.003800000000000E10   -6.048502864534781E-2  -4.557302950088084E-2  
 2.004000000000000E10   -6.739219715150609E-2  -3.467898082094485E-2  
 2.004200000000000E10   -7.229944732302678E-2  -2.262013244798201E-2  
 2.004400000000000E10   -7.502402761405262E-2  -1.006067628655862E-2  
 2.004600000000000E10   -7.550691571039436E-2   2.825826133953983E-3  
 2.004800000000000E10   -7.377661431680500E-2   1.552097354089153E-2  
 2.005000000000000E10   -7.005781940928907E-2   2.758201818373588E-2  
 2.005200000000000E10   -6.442718779936033E-2   3.912334751098853E-2  
 2.005400000000000E10   -5.695632192228660E-2   4.945409176786592E-2  
 2.005600000000000E10   -4.770277815329220E-2   5.844051730908133E-2  
 2.005800000000000E10   -3.723380689680440E-2   6.551687365814857E-2  
 2.006000000000000E10   -2.541795109302986E-2   7.092275229978083E-2  
 2.006200000000000E10   -1.318929389518412E-2   7.412816435680743E-2  
 2.006400000000000E10   -5.506344124049875E-4   7.520656670518280E-2  
 2.006600000000000E10    1.215854380181468E-2   7.409333580533728E-2  
 2.006800000000000E10    2.438159194299415E-2   7.092754201075065E-2  
 2.007000000000000E10    3.602767082536848E-2   6.577407642106703E-2  
 2.007200000000000E10    4.644985409589246E-2   5.889722735123423E-2  
 2.007400000000000E10    5.578885253892534E-2   5.030925187999952E-2  
 2.007600000000000E10    6.354602491014716E-2   4.028621466675735E-2  
 2.007800000000000E10    6.958260035508036E-2   2.884560006818486E-2  
 2.008000000000000E10    7.343058740548544E-2   1.671271984814177E-2  
 2.008200000000000E10    7.514157371482082E-2   4.020445288688479E-3  
 2.008400000000000E10    7.461963218842065E-2  -8.681316238712600E-3  
 2.008600000000000E10    7.196715426291107E-2  -2.109751009636453E-2  
 2.008800000000000E10    6.736334469451069E-2  -3.269249523636516E-2  
 2.009000000000000E10    6.096404520486828E-2  -4.349139568228777E-2  
 2.009200000000000E10    5.291091010239114E-2  -5.311457743439643E-2  
 2.009400000000000E10    4.322604343518094E-2  -6.145075253528942E-2  
 2.009600000000000E10    3.253531926437546E-2  -6.788113749174224E-2  
 2.009800000000000E10    2.055542164289911E-2  -7.257399444589245E-2  
 2.010000000000000E10    7.963674993179534E-3  -7.510548913182490E-2  
 2.010200000000000E10   -4.979144911284746E-3  -7.545287887873280E-2  
 2.010400000000000E10   -1.770030991215104E-2  -7.353273762835032E-2  
 2.010600000000000E10   -2.993379044349535E-2  -6.945022053280270E-2  
 2.010800000000000E10   -4.141773758051454E-2  -6.318120328968346E-2  
 2.011000000000000E10   -5.148012558692701E-2  -5.506543704035678E-2  
 2.011200000000000E10   -5.996293871931147E-2  -4.536999041053596E-2  
 2.011400000000000E10   -6.655918352653589E-2  -3.455702485210533E-2  
 2.011600000000000E10   -7.128313873489031E-2  -2.294755935966890E-2  
 2.011800000000000E10   -7.407215768436715E-2  -1.046347176174439E-2  
 2.012000000000000E10   -7.470337960830822E-2   2.006478301702828E-3  
 2.012200000000000E10   -7.329272225919659E-2   1.439800831780853E-2  
 2.012400000000000E10   -6.986075420346316E-2   2.647083902367699E-2  
 2.012600000000000E10   -6.442513254782617E-2   3.784773142523383E-2  
 2.012800000000000E10   -5.708992454347740E-2   4.826750979334285E-2  
 2.013000000000000E10   -4.825089409844941E-2   5.711834543486463E-2  
 2.013200000000000E10   -3.776904215874096E-2   6.458284665786909E-2  
 2.013400000000000E10   -2.630838145466672E-2   7.000295092935896E-2  
 2.013600000000000E10   -1.394304123173543E-2   7.337969241788593E-2  
 2.013800000000000E10   -1.387328147351898E-3   7.455951064490105E-2  
 2.014000000000000E10    1.117434818671422E-2   7.365931600711295E-2  
 2.014200000000000E10    2.319594662380024E-2   7.077916416177646E-2  
 2.014400000000000E10    3.477217256947153E-2   6.590305963032415E-2  
 2.014600000000000E10    4.534717956323867E-2   5.914460162827105E-2  
 2.014800000000000E10    5.473755604098201E-2   5.069548157772976E-2  
 2.015000000000000E10    6.246066059947138E-2   4.091878770079216E-2  
 2.015200000000000E10    6.865248565321290E-2   2.967422550071014E-2  
 2.015400000000000E10    7.276219648041565E-2   1.772301418213500E-2  
 2.015600000000000E10    7.485228198224456E-2   5.112234321544662E-3  
 2.015800000000000E10    7.476212484894507E-2  -7.661682225641534E-3  
 2.016000000000000E10    7.252882207063856E-2  -2.022991347123546E-2  
 2.016200000000000E10    6.809870578555609E-2  -3.235121819046415E-2  
 2.016400000000000E10    6.162781992923168E-2  -4.343683137374998E-2  
 2.016600000000000E10    5.341741335626132E-2  -5.323985805845345E-2  
 2.016800000000000E10    4.366252866146742E-2  -6.160901517530248E-2  
 2.017000000000000E10    3.258270166446609E-2  -6.822694505349734E-2  
 2.017200000000000E10    2.035358775603343E-2  -7.283748428644932E-2  
 2.017400000000000E10    7.664080141199851E-3  -7.519768097861604E-2  
 2.017600000000000E10   -5.229764253769191E-3  -7.535524168544105E-2  
 2.017800000000000E10   -1.800311185887716E-2  -7.339729160340269E-2  
 2.018000000000000E10   -3.008144890461820E-2  -6.931494851384390E-2  
 2.018200000000000E10   -4.146327422288345E-2  -6.320469850416548E-2  
 2.018400000000000E10   -5.158437119031119E-2  -5.527323206822543E-2  
 2.018600000000000E10   -6.023054431373972E-2  -4.559140922002079E-2  
 2.018800000000000E10   -6.700420848547421E-2  -3.461973182746633E-2  
 2.019000000000000E10   -7.180290270460663E-2  -2.273950092142036E-2  
 2.019200000000000E10   -7.453409281959274E-2  -1.020934814796110E-2  
 2.019400000000000E10   -7.513222807641828E-2   2.636336621516770E-3  
 2.019600000000000E10   -7.357198842037604E-2   1.510887983981690E-2  
 2.019800000000000E10   -6.987091644752948E-2   2.748000648884641E-2  
 2.020000000000000E10   -6.423418034479966E-2   3.872496566222781E-2  
 2.020200000000000E10   -5.668572391671069E-2   4.897014422234375E-2  
 2.020400000000000E10   -4.757752527450639E-2   5.763505268620019E-2  
 2.020600000000000E10   -3.718652349936270E-2   6.469466979779290E-2  
 2.020800000000000E10   -2.580652307235044E-2   6.994666869205551E-2  
 2.021000000000000E10   -1.365227726754871E-2   7.325136863827902E-2  
 2.021200000000000E10   -1.154818584313171E-3   7.441341651645503E-2  
 2.021400000000000E10    1.125401450605070E-2   7.348104368869869E-2  
 2.021600000000000E10    2.322610970411049E-2   7.059370596082625E-2  
 2.021800000000000E10    3.485211806209598E-2   6.574390145688999E-2  
 2.022000000000000E10    4.536184533957176E-2   5.907667727997247E-2  
 2.022200000000000E10    5.462518863254327E-2   5.066581559595779E-2  
 2.022400000000000E10    6.239853525321971E-2   4.071670674244395E-2  
 2.022600000000000E10    6.829634064844839E-2   2.966521144053493E-2  
 2.022800000000000E10    7.226357898136991E-2   1.783318004168878E-2  
 2.023000000000000E10    7.428241931882605E-2   5.530103042814195E-3  
 2.023200000000000E10    7.427599070993390E-2  -6.958635343270351E-3  
 2.023400000000000E10    7.208154864998581E-2  -1.946026746294690E-2  
 2.023600000000000E10    6.793399223069005E-2  -3.110462353691044E-2  
 2.023800000000000E10    6.179543469771124E-2  -4.214007165711019E-2  
 2.024000000000000E10    5.397513117385390E-2  -5.198407827441511E-2  
 2.024200000000000E10    4.466488957232651E-2  -6.035763451925626E-2  
 2.024400000000000E10    3.384643172539804E-2  -6.716264982899635E-2  
 2.024600000000000E10    2.206422327064785E-2  -7.206392530171972E-2  
 2.024800000000000E10    9.542518610535931E-3  -7.487951446586047E-2  
 2.025000000000000E10   -3.428970056542537E-3  -7.543723032391506E-2  
 2.025200000000000E10   -1.595937042523927E-2  -7.375928082096825E-2  
 2.025400000000000E10   -2.812559447235926E-2  -7.005267977014515E-2  
 2.025600000000000E10   -3.957395921059072E-2  -6.442530338973557E-2  
 2.025800000000000E10   -4.983225520763200E-2  -5.709786909262180E-2  
 2.026000000000000E10   -5.896868062177524E-2  -4.796598004596592E-2  
 2.026200000000000E10   -6.638575316816635E-2  -3.740925719656168E-2  
 2.026400000000000E10   -7.199471279387155E-2  -2.558721254960518E-2  
 2.026600000000000E10   -7.543861508397037E-2  -1.293722541708943E-2  
 2.026800000000000E10   -7.665005766685007E-2   8.863613310151832E-5  
 2.027000000000000E10   -7.556545322372812E-2   1.328882004047143E-2  
 2.027200000000000E10   -7.218685562930362E-2   2.612243578419154E-2  
 2.027400000000000E10   -6.661703845280032E-2   3.803197008833781E-2  
 2.027600000000000E10   -5.900479197873769E-2   4.887687413675380E-2  
 2.027800000000000E10   -4.972730906309911E-2   5.809741446841085E-2  
 2.028000000000000E10   -3.904964434903015E-2   6.559015208641625E-2  
 2.028200000000000E10   -2.729596227504696E-2   7.115915819883195E-2  
 2.028400000000000E10   -1.473820796275248E-2   7.468971201985886E-2  
 2.028600000000000E10   -1.742786094359472E-3   7.596953009293048E-2  
 2.028800000000000E10    1.109288714925807E-2   7.504504328459015E-2  
 2.029000000000000E10    2.354850323918862E-2   7.197615348201651E-2  
 2.029200000000000E10    3.549009640268463E-2   6.679519658268777E-2  
 2.029400000000000E10    4.612748973332803E-2   5.976106923780350E-2  
 2.029600000000000E10    5.543041411726224E-2   5.099114222383269E-2  
 2.029800000000000E10    6.313760691993292E-2   4.075157528038317E-2  
 2.030000000000000E10    6.895425132268798E-2   2.965210527434399E-2  
 2.030200000000000E10    7.285206437387144E-2   1.756310608244649E-2  
 2.030400000000000E10    7.469281277656414E-2   4.964141629658705E-3  
 2.030600000000000E10    7.430930462259659E-2  -7.686457760196354E-3  
 2.030800000000000E10    7.180010177767451E-2  -2.001996926953320E-2  
 2.031000000000000E10    6.739708494982138E-2  -3.161081779849921E-2  
 2.031200000000000E10    6.114545692049295E-2  -4.239763483771698E-2  
 2.031400000000000E10    5.312916293120411E-2  -5.206788278396067E-2  
 2.031600000000000E10    4.398034582107605E-2  -5.996775335892036E-2  
 2.031800000000000E10    3.348303248550710E-2  -6.652033165880961E-2  
 2.032000000000000E10    2.182159701683550E-2  -7.130078925676513E-2  
 2.032200000000000E10    9.598494325147609E-3  -7.405621674720243E-2  
 2.032400000000000E10   -3.219074100064536E-3  -7.470197328355642E-2  
 2.032600000000000E10   -1.581758313955952E-2  -7.307315871228937E-2  
 2.032800000000000E10   -2.794685663778139E-2  -6.931912550640540E-2  
 2.033000000000000E10   -3.926105423153026E-2  -6.349363549805656E-2  
 2.033200000000000E10   -4.932169972089841E-2  -5.592167934123628E-2  
 2.033400000000000E10   -5.795309127620869E-2  -4.687858872496287E-2  
 2.033600000000000E10   -6.143428260576674E-2  -4.240112550944400E-2  
 2.033800000000000E10   -7.038195683214810E-2  -2.480982275184477E-2  
 2.034000000000000E10   -7.361124623166994E-2  -1.262031204817452E-2  
 2.034200000000000E10   -7.473947760594103E-2  -2.299880659006927E-5  
 2.034400000000000E10   -7.367672061684404E-2   1.264868390321248E-2  
 2.034600000000000E10   -7.044182509743939E-2   2.491180587227486E-2  
 2.034800000000000E10   -6.527402390096593E-2   3.635054128414069E-2  
 2.035000000000000E10   -5.823916224014100E-2   4.682068210172871E-2  
 2.035200000000000E10   -4.956463993363583E-2   5.597479551604258E-2  
 2.035400000000000E10   -3.959444802598543E-2   6.351989123472737E-2  
 2.035600000000000E10   -2.830740538196403E-2   6.941454671389544E-2  
 2.035800000000000E10   -1.614782424102014E-2   7.329089418806059E-2  
 2.036000000000000E10   -3.611014223384940E-3   7.496150894831305E-2  
 2.036200000000000E10    9.298439334593466E-3   7.445892445290996E-2  
 2.036400000000000E10    2.169029388843378E-2   7.181050523861446E-2  
 2.036600000000000E10    3.337789604899792E-2   6.716897904419839E-2  
 2.036800000000000E10    4.427809577098765E-2   6.047838569583545E-2  
 2.037000000000000E10    5.382767442103859E-2   5.204350554416999E-2  
 2.037200000000000E10    6.171513258812111E-2   4.234358418332251E-2  
 2.037400000000000E10    6.796985242548378E-2   3.134343609844038E-2  
 2.037600000000000E10    7.227478089941464E-2   1.952271128894459E-2  
 2.037800000000000E10    7.456096733483240E-2   6.995166531708575E-3  
 2.038000000000000E10    7.465298880791209E-2  -5.525170730708145E-3  
 2.038200000000000E10    7.260356863268580E-2  -1.808154198615037E-2  
 2.038400000000000E10    6.848372523558613E-2  -3.005732631744100E-2  
 2.038600000000000E10    6.250969966818756E-2  -4.102372793613440E-2  
 2.038800000000000E10    5.474221346987886E-2  -5.095739604355930E-2  
 2.039000000000000E10    4.547246708728523E-2  -5.949725721869681E-2  
 2.039200000000000E10    3.499995984386341E-2  -6.634227495270380E-2  
 2.039400000000000E10    2.314752065229445E-2  -7.148839074968597E-2  
 2.039600000000000E10    1.073787844737788E-2  -7.443577258407190E-2  
 2.039800000000000E10   -1.996474882043372E-3  -7.516703515715117E-2  
 2.040000000000000E10   -1.466574763776588E-2  -7.366353047746554E-2  
 2.040200000000000E10   -2.689950960948548E-2  -7.004898604506138E-2  
 2.040400000000000E10   -3.816500178741927E-2  -6.448899913070674E-2  
 2.040600000000000E10   -4.851430122411127E-2  -5.713457459665904E-2  
 2.040800000000000E10   -5.747491726452272E-2  -4.817798700781348E-2  
 2.041000000000000E10   -6.477255999177739E-2  -3.786921461916756E-2  
 2.041200000000000E10   -7.029299476937714E-2  -2.644427379690693E-2  
 2.041400000000000E10   -7.384026833041149E-2  -1.428222897531034E-2  
 2.041600000000000E10   -7.529170034658300E-2  -1.677730717045774E-3  
 2.041800000000000E10   -7.457885054070254E-2   1.120336834854131E-2  
 2.042000000000000E10   -7.164748245120750E-2   2.365828683880141E-2  
 2.042200000000000E10   -6.658377256298152E-2   3.550257584036265E-2  
 2.042400000000000E10   -5.954916990235108E-2   4.627557286264560E-2  
 2.042600000000000E10   -5.086646394300647E-2   5.558554638139242E-2  
 2.042800000000000E10   -4.074603131112925E-2   6.338484485412491E-2  
 2.043000000000000E10   -2.956097191700528E-2   6.936038985721495E-2  
 2.043200000000000E10   -1.744996852515149E-2   7.349946431259735E-2  
 2.043400000000000E10   -4.592740048400349E-3   7.548760832697052E-2  
 2.043600000000000E10    8.098740729805522E-3   7.523096167391238E-2  
 2.043800000000000E10    2.069181545019553E-2   7.281575615695490E-2  
 2.044000000000000E10    3.293411579354595E-2   6.819176638812168E-2  
 2.044200000000000E10    4.393428484509127E-2   6.170599375812218E-2  
 2.044400000000000E10    5.375153353450390E-2   5.324428770538590E-2  
 2.044600000000000E10    6.198212381932865E-2   4.323216663407173E-2  
 2.044800000000000E10    6.829520661874464E-2   3.222382893999062E-2  
 2.045000000000000E10    7.280532709653889E-2   2.017447693447959E-2  
 2.045200000000000E10    7.519403439919897E-2   7.548267373336416E-3  
 2.045400000000000E10    7.537060601318668E-2  -5.169358217700051E-3  
 2.045600000000000E10    7.334780341985646E-2  -1.788154093418348E-2  
 2.045800000000000E10    6.918120971991484E-2  -3.007800860702925E-2  
 2.046000000000000E10    6.301210570097304E-2  -4.121039049510944E-2  
 2.046200000000000E10    5.507568840568521E-2  -5.122438929562648E-2  
 2.046400000000000E10    4.560943678666781E-2  -5.967797985062696E-2  
 2.046600000000000E10    3.492905864730964E-2  -6.643136519076356E-2  
 2.046800000000000E10    2.318225133210687E-2  -7.136398506809767E-2  
 2.047000000000000E10    1.068118403608727E-2  -7.426062052323677E-2  
 2.047200000000000E10   -1.868812246737638E-3  -7.489075440370735E-2  
 2.047400000000000E10   -1.432346496549770E-2  -7.341447692707802E-2  
 2.047600000000000E10   -2.633259803033333E-2  -6.999774466121299E-2  
 2.047800000000000E10   -3.766914447066459E-2  -6.469051873150392E-2  
 2.048000000000000E10   -4.811923972125000E-2  -5.750153099833798E-2  
 2.048200000000000E10   -5.721306693363265E-2  -4.860450348463619E-2  
 2.048400000000000E10   -6.470018245489959E-2  -3.820166188998704E-2  
 2.048600000000000E10   -7.027028936552095E-2  -2.667445673286062E-2  
 2.048800000000000E10   -7.377485612143798E-2  -1.423027274696454E-2  
 2.049000000000000E10   -7.500705593833204E-2  -1.541318900202393E-3  
 2.049200000000000E10   -7.403818565925002E-2   1.117629784223392E-2  
 2.049400000000000E10   -7.102118961692341E-2   2.328938609048370E-2  
 2.049600000000000E10   -6.608334354640705E-2   3.478368864510581E-2  
 2.049800000000000E10   -5.943359531600525E-2   4.537026866124958E-2  
 2.050000000000000E10   -5.101939821339332E-2   5.480726380670952E-2  
 2.050200000000000E10   -4.097057453464875E-2   6.276177128984753E-2  
 2.050400000000000E10   -2.972600654937577E-2   6.872924044726178E-2  
 2.050600000000000E10   -1.766674777447111E-2   7.272806859988751E-2  
 2.050800000000000E10   -5.085062345156828E-3   7.465943889519619E-2  
 2.051000000000000E10    7.517799950559888E-3   7.443795449606502E-2  
 2.051200000000000E10    2.004286647019603E-2   7.212734307803981E-2  
 2.051400000000000E10    3.196173848516550E-2   6.765462151109063E-2  
 2.051600000000000E10    4.287673598002444E-2   6.127748081243499E-2  
 2.051800000000000E10    5.269752926962365E-2   5.305607467359427E-2  
 2.052000000000000E10    6.093859428876942E-2   4.332079586365602E-2  
 2.052200000000000E10    6.734046714631192E-2   3.235423807526763E-2  
 2.052400000000000E10    7.174253024803226E-2   2.048651285868586E-2  
 2.052600000000000E10    7.406935436542800E-2   8.047236509558183E-3  
 2.052800000000000E10    7.423335569661377E-2  -4.454014793969991E-3  
 2.053000000000000E10    7.235122536464982E-2  -1.694493202550247E-2  
 2.053200000000000E10    6.837885099651415E-2  -2.885520604116915E-2  
 2.053400000000000E10    6.249343549728218E-2  -3.980174468495241E-2  
 2.053600000000000E10    5.487325602540448E-2  -4.970200597141998E-2  
 2.053800000000000E10    4.582195122597442E-2  -5.811577813454777E-2  
 2.054000000000000E10    3.537689320016268E-2  -6.505270775452368E-2  
 2.054200000000000E10    2.396707596475289E-2  -7.002721724942854E-2  
 2.054400000000000E10    1.194839939954256E-2  -7.296476737783116E-2  
 2.054600000000000E10   -4.300011973415573E-4  -7.389897626624484E-2  
 2.054800000000000E10   -1.275282593425978E-2  -7.286590336457888E-2  
 2.055000000000000E10   -2.468051092334028E-2  -6.987675237707088E-2  
 2.055200000000000E10   -3.616318593165846E-2  -6.485097065377951E-2  
 2.055400000000000E10   -4.673263513854892E-2  -5.786270464963752E-2  
 2.055600000000000E10   -5.582437996229566E-2  -4.920898199574687E-2  
