#  HZ   S   RI   R     50.00 
! Rohde & Schwarz ZVA40 4Ports - Version 3.90 - 1145.1110k42 SN: 100403
! Date: 2023-09-28 10:45:12
! Measurement: S12 
! 
 2.000000000000000E10   -9.912455494047304E-2   1.410759030601955E-2  
 2.000200000000000E10   -9.593085487490910E-2   2.983544102277219E-2  
 2.000400000000000E10   -8.957856107214887E-2   4.569193244401647E-2  
 2.000600000000000E10   -8.046765694200964E-2   6.040215754004212E-2  
 2.000800000000000E10   -6.902697326226799E-2   7.311161476696768E-2  
 2.001000000000000E10   -5.534480109264841E-2   8.386808269729668E-2  
 2.001200000000000E10   -4.028509939225779E-2   9.196314432763442E-2  
 2.001400000000000E10   -2.385114026053701E-2   9.741399317352141E-2  
 2.001600000000000E10   -6.854341917489581E-3   9.986238615184817E-2  
 2.001800000000000E10    1.026996996061746E-2   9.939332307033894E-2  
 2.002000000000000E10    2.710328529690090E-2   9.583058948887993E-2  
 2.002200000000000E10    4.394974448177855E-2   8.902120428365368E-2  
 2.002400000000000E10    5.806967515982755E-2   8.027599486042261E-2  
 2.002600000000000E10    7.062869352238782E-2   6.925126200485170E-2  
 2.002800000000000E10    8.125274805087768E-2   5.613368586743565E-2  
 2.003000000000000E10    8.935320776025676E-2   4.164618073828515E-2  
 2.003200000000000E10    9.493822744224942E-2   2.588464333440890E-2  
 2.003400000000000E10    9.771446644367954E-2   9.384693568817309E-3  
 2.003600000000000E10    9.761711395197473E-2  -7.213963725252306E-3  
 2.003800000000000E10    9.484104420258939E-2  -2.326655211799011E-2  
 2.004000000000000E10    8.952167602636063E-2  -3.872003998741806E-2  
 2.004200000000000E10    8.170170410970214E-2  -5.317774578781782E-2  
 2.004400000000000E10    7.161881865944991E-2  -6.602319616015351E-2  
 2.004600000000000E10    5.974795105531964E-2  -7.701588250667533E-2  
 2.004800000000000E10    4.589282470821750E-2  -8.615211894450510E-2  
 2.005000000000000E10    3.077183686914947E-2  -9.269727319167669E-2  
 2.005200000000000E10    1.472691585180317E-2  -9.674246148022037E-2  
 2.005400000000000E10   -1.843252848056576E-3  -9.796748080601764E-2  
 2.005600000000000E10   -1.853685318460618E-2  -9.625349694846352E-2  
 2.005800000000000E10   -3.460852117442324E-2  -9.172670190027801E-2  
 2.006000000000000E10   -4.966935964749164E-2  -8.443144245746033E-2  
 2.006200000000000E10   -6.322923321902314E-2  -7.481753084585037E-2  
 2.006400000000000E10   -7.479509392351835E-2  -6.310826242402752E-2  
 2.006600000000000E10   -8.450247452392534E-2  -4.928539949796375E-2  
 2.006800000000000E10   -9.156418058872948E-2  -3.435953301566790E-2  
 2.007000000000000E10   -9.609327284291890E-2  -1.842185747676882E-2  
 2.007200000000000E10   -9.797114147810482E-2  -1.875408326015563E-3  
 2.007400000000000E10   -9.699579100568273E-2   1.508920869909297E-2  
 2.007600000000000E10   -9.298117513466778E-2   3.143486829206407E-2  
 2.007800000000000E10   -8.616532265226727E-2   4.678377965161881E-2  
 2.008000000000000E10   -7.683524138083778E-2   6.066433950799154E-2  
 2.008200000000000E10   -6.528150043569024E-2   7.288113800463306E-2  
 2.008400000000000E10   -5.210667535527590E-2   8.270696308792047E-2  
 2.008600000000000E10   -3.723987116336038E-2   9.027622189102028E-2  
 2.008800000000000E10   -2.128248897012515E-2   9.509203179870328E-2  
 2.009000000000000E10   -4.881342257316046E-3   9.705680424506785E-2  
 2.009200000000000E10    1.121643665122287E-2   9.632037956981629E-2  
 2.009400000000000E10    2.709511904295872E-2   9.306131449703212E-2  
 2.009600000000000E10    4.241421337290501E-2   8.726986229864661E-2  
 2.009800000000000E10    5.644969939106014E-2   7.901002340370648E-2  
 2.010000000000000E10    6.907021309943105E-2   6.822650400674851E-2  
 2.010200000000000E10    7.944332440999689E-2   5.572220453926523E-2  
 2.010400000000000E10    8.774772652085534E-2   4.145448776719978E-2  
 2.010600000000000E10    9.350843663137373E-2   2.606647750028811E-2  
 2.010800000000000E10    9.657789939623945E-2   9.821726766953681E-3  
 2.011000000000000E10    9.674955643426896E-2  -6.584911316956352E-3  
 2.011200000000000E10    9.416877058995854E-2  -2.272986763447151E-2  
 2.011400000000000E10    8.900012772706739E-2  -3.820738072978210E-2  
 2.011600000000000E10    8.139842976224529E-2  -5.257157960944568E-2  
 2.011800000000000E10    7.146999606611562E-2  -6.549222238050144E-2  
 2.012000000000000E10    5.946698176160815E-2  -7.660936117690984E-2  
 2.012200000000000E10    4.589984657533004E-2  -8.548761404512022E-2  
 2.012400000000000E10    3.101494707273996E-2  -9.205735180320838E-2  
 2.012600000000000E10    1.516653549064262E-2  -9.602013474229448E-2  
 2.012800000000000E10   -1.223891607864573E-3  -9.726707020256391E-2  
 2.013000000000000E10   -1.749890654485966E-2  -9.565540731601296E-2  
 2.013200000000000E10   -3.303543307525980E-2  -9.141923324556467E-2  
 2.013400000000000E10   -4.801436675138068E-2  -8.471272687937004E-2  
 2.013600000000000E10   -6.154947755407306E-2  -7.569483065921433E-2  
 2.013800000000000E10   -7.356093177066675E-2  -6.455959242461773E-2  
 2.014000000000000E10   -8.368429441493873E-2  -5.118322434820920E-2  
 2.014200000000000E10   -9.129818066712905E-2  -3.645061763948127E-2  
 2.014400000000000E10   -9.624836016677146E-2  -2.058274998323649E-2  
 2.014600000000000E10   -9.845124171629183E-2  -3.991190640704924E-3  
 2.014800000000000E10   -9.777608544103644E-2   1.275593153527637E-2  
 2.015000000000000E10   -9.426492078796578E-2   2.918360534639367E-2  
 2.015200000000000E10   -8.817324108100615E-2   4.442349504476534E-2  
 2.015400000000000E10   -7.944608024193471E-2   5.885582364282010E-2  
 2.015600000000000E10   -6.850613264734340E-2   7.150921699989525E-2  
 2.015800000000000E10   -5.555301308547324E-2   8.213750699385024E-2  
 2.016000000000000E10   -4.093181338812759E-2   9.041014081626526E-2  
 2.016200000000000E10   -2.522850644443439E-2   9.610369861750974E-2  
 2.016400000000000E10   -8.625201567829829E-3   9.908239916633223E-2  
 2.016600000000000E10    8.193740449459228E-3   9.917093511663021E-2  
 2.016800000000000E10    2.478655533919708E-2   9.639190393187372E-2  
 2.017000000000000E10    4.064947420093894E-2   9.088198828804661E-2  
 2.017200000000000E10    5.533827379327001E-2   8.276180563440867E-2  
 2.017400000000000E10    6.850948693297752E-2   7.224511142141363E-2  
 2.017600000000000E10    7.976634332767521E-2   5.960646378530608E-2  
 2.017800000000000E10    8.855846086037800E-2   4.565830111359936E-2  
 2.018000000000000E10    9.517385011773008E-2   3.001517024321473E-2  
 2.018200000000000E10    9.894903401523758E-2   1.370560453307099E-2  
 2.018400000000000E10    9.997778752005558E-2  -3.212751651235047E-3  
 2.018600000000000E10    9.808887540473062E-2  -2.010691764962271E-2  
 2.018800000000000E10    9.325793841311966E-2  -3.649033860931803E-2  
 2.019000000000000E10    8.565193497029444E-2  -5.170014200282522E-2  
 2.019200000000000E10    7.567253821272521E-2  -6.534129921669941E-2  
 2.019400000000000E10    6.345265313875226E-2  -7.707701540190007E-2  
 2.019600000000000E10    4.975699293780461E-2  -8.651342051030651E-2  
 2.019800000000000E10    3.473104770921401E-2  -9.358736930013037E-2  
 2.020000000000000E10    1.850898434687428E-2  -9.814610506599442E-2  
 2.020200000000000E10    1.888001967602482E-3  -9.983985028646453E-2  
 2.020400000000000E10   -1.463216406280305E-2  -9.881334216870887E-2  
 2.020600000000000E10   -3.094445977886580E-2  -9.511846146227593E-2  
 2.020800000000000E10   -4.659552734538421E-2  -8.869276205736135E-2  
 2.021000000000000E10   -6.094186505385581E-2  -7.959406224097101E-2  
 2.021200000000000E10   -7.346168500672204E-2  -6.828022831563446E-2  
 2.021400000000000E10   -8.388942359727684E-2  -5.507394737737202E-2  
 2.021600000000000E10   -9.208412505393308E-2  -4.014788657349742E-2  
 2.021800000000000E10   -9.755477868584296E-2  -2.409416761222434E-2  
 2.022000000000000E10   -1.002452838202808E-1  -7.370197041900906E-3  
 2.022200000000000E10   -1.000981165127850E-1   9.664821257608982E-3  
 2.022400000000000E10   -9.714747626295854E-2   2.624255345343702E-2  
 2.022600000000000E10   -9.141037109403041E-2   4.236465268886042E-2  
 2.022800000000000E10   -8.294492636961076E-2   5.724152306529549E-2  
 2.023000000000000E10   -7.211122182890473E-2   7.049507224648782E-2  
 2.023200000000000E10   -5.923343403693582E-2   8.161983423907468E-2  
 2.023400000000000E10   -4.454731079818690E-2   9.058391976381797E-2  
 2.023600000000000E10   -2.858280845290407E-2   9.677002835467786E-2  
 2.023800000000000E10   -1.167789116366758E-2   1.001426815237611E-1  
 2.024000000000000E10    5.226669883529338E-3   1.005281413733436E-1  
 2.024200000000000E10    2.211960244469519E-2   9.809361794590309E-2  
 2.024400000000000E10    3.814910179700777E-2   9.295081279050280E-2  
 2.024600000000000E10    5.332228651281445E-2   8.519522471296104E-2  
 2.024800000000000E10    6.696610462935719E-2   7.485870441651923E-2  
 2.025000000000000E10    7.859285440263115E-2   6.233438029617344E-2  
 2.025200000000000E10    8.778976420837777E-2   4.831327920498432E-2  
 2.025400000000000E10    9.466233651926166E-2   3.266085705629460E-2  
 2.025600000000000E10    9.863506287434015E-2   1.612091288612426E-2  
 2.025800000000000E10    9.975520030206508E-2  -6.852148827878001E-4  
 2.026000000000000E10    9.804702654559203E-2  -1.731220269652006E-2  
 2.026200000000000E10    9.368925409501035E-2  -3.345674920158228E-2  
 2.026400000000000E10    8.669214950535439E-2  -4.870363282671130E-2  
 2.026600000000000E10    7.716747379269810E-2  -6.259323605630765E-2  
 2.026800000000000E10    6.535523714548586E-2  -7.461451762007107E-2  
 2.027000000000000E10    5.187862265204894E-2  -8.436096866616616E-2  
 2.027200000000000E10    3.721047980273501E-2  -9.169064766910764E-2  
 2.027400000000000E10    2.119853398179858E-2  -9.672100160131164E-2  
 2.027600000000000E10    4.587648497333089E-3  -9.889402246478658E-2  
 2.027800000000000E10   -1.203596577263445E-2  -9.816240410307113E-2  
 2.028000000000000E10   -2.838752754081729E-2  -9.462544931867842E-2  
 2.028200000000000E10   -4.381106965521704E-2  -8.840269756539088E-2  
 2.028400000000000E10   -5.794164037872697E-2  -7.973058621741395E-2  
 2.028600000000000E10   -7.047875893574038E-2  -6.879892926139439E-2  
 2.028800000000000E10   -8.103264126566678E-2  -5.594688781049050E-2  
 2.029000000000000E10   -8.923584036132491E-2  -4.154281824679651E-2  
 2.029200000000000E10   -9.490528900379464E-2  -2.605349150890401E-2  
 2.029400000000000E10   -9.796149584136552E-2  -9.770454419291549E-3  
 2.029600000000000E10   -9.832076457797200E-2   7.003445530756141E-3  
 2.029800000000000E10   -9.577260211358696E-2   2.356096371517536E-2  
 2.030000000000000E10   -9.050368618528595E-2   3.935008858486101E-2  
 2.030200000000000E10   -8.248905844350690E-2   5.420876089510806E-2  
 2.030400000000000E10   -7.213106930098349E-2   6.735294593105642E-2  
 2.030600000000000E10   -5.969724975380247E-2   7.856465152767833E-2  
 2.030800000000000E10   -4.543432567723867E-2   8.757283230482843E-2  
 2.031000000000000E10   -3.006585398015673E-2   9.387115819591659E-2  
 2.031200000000000E10   -1.387268705646682E-2   9.754549358382099E-2  
 2.031400000000000E10    2.824498763351280E-3   9.846771645017440E-2  
 2.031600000000000E10    1.884569686233278E-2   9.672683653918621E-2  
 2.031800000000000E10    3.490341442594221E-2   9.229194279044775E-2  
 2.032000000000000E10    5.010704765196597E-2   8.508010714302113E-2  
 2.032200000000000E10    6.376056899125178E-2   7.553829147680713E-2  
 2.032400000000000E10    7.577922757689484E-2   6.363128682344164E-2  
 2.032600000000000E10    8.552946806763917E-2   4.994576699249857E-2  
 2.032800000000000E10    9.292534213407117E-2   3.455506500558421E-2  
 2.033000000000000E10    9.747101916565337E-2   1.813823142109498E-2  
 2.033200000000000E10    9.915865867642876E-2   1.220712478574595E-3  
 2.033400000000000E10    9.791439400392013E-2  -1.569636497288095E-2  
 2.033600000000000E10    9.632013677261669E-2  -2.336419771172931E-2  
 2.033800000000000E10    8.657888809793449E-2  -4.790696942251998E-2  
 2.034000000000000E10    7.721725441413005E-2  -6.201971176137461E-2  
 2.034200000000000E10    6.556634382809493E-2  -7.431143906762154E-2  
 2.034400000000000E10    5.180647931076035E-2  -8.439357184702707E-2  
 2.034600000000000E10    3.653249041881468E-2  -9.187712875534472E-2  
 2.034800000000000E10    2.029357440218182E-2  -9.660769071140898E-2  
 2.035000000000000E10    3.630802693639250E-3  -9.839390855457153E-2  
 2.035200000000000E10   -1.295380765143465E-2  -9.742450406173486E-2  
 2.035400000000000E10   -2.901322649415598E-2  -9.377316362350566E-2  
 2.035600000000000E10   -4.445643938571520E-2  -8.752537933713805E-2  
 2.035800000000000E10   -5.850159138661656E-2  -7.884542271892477E-2  
 2.036000000000000E10   -7.105774358618548E-2  -6.778786863804640E-2  
 2.036200000000000E10   -8.152711385818547E-2  -5.456355072265864E-2  
 2.036400000000000E10   -8.939639859255177E-2  -4.008144105277280E-2  
 2.036600000000000E10   -9.475071654785029E-2  -2.454233833942155E-2  
 2.036800000000000E10   -9.750680980344198E-2  -8.090279128570230E-3  
 2.037000000000000E10   -9.738899351312129E-2   8.436718987915542E-3  
 2.037200000000000E10   -9.460735664845536E-2   2.458519673284534E-2  
 2.037400000000000E10   -8.911413180288447E-2   4.015091548897482E-2  
 2.037600000000000E10   -8.121335912206906E-2   5.449601183383907E-2  
 2.037800000000000E10   -7.095160258848543E-2   6.743829832486097E-2  
 2.038000000000000E10   -5.876588103337467E-2   7.850079108260433E-2  
 2.038200000000000E10   -4.473656175479203E-2   8.747618809405547E-2  
 2.038400000000000E10   -2.938078883804758E-2   9.391963526002382E-2  
 2.038600000000000E10   -1.323160751910825E-2   9.770597419863591E-2  
 2.038800000000000E10    3.599765480434504E-3   9.875966126045577E-2  
 2.039000000000000E10    2.034033857701856E-2   9.688510364421263E-2  
 2.039200000000000E10    3.649867100357926E-2   9.207921358220367E-2  
 2.039400000000000E10    5.176408089064469E-2   8.441986437519145E-2  
 2.039600000000000E10    6.516000796024039E-2   7.446683835103156E-2  
 2.039800000000000E10    7.665331570824951E-2   6.248798530095748E-2  
 2.040000000000000E10    8.609628247621037E-2   4.872803642965044E-2  
 2.040200000000000E10    9.316091930249278E-2   3.353636224092227E-2  
 2.040400000000000E10    9.750789215308600E-2   1.739433600716500E-2  
 2.040600000000000E10    9.914738105745909E-2   5.166149817906465E-4  
 2.040800000000000E10    9.781772682112380E-2  -1.628996962939939E-2  
 2.041000000000000E10    9.372252830548916E-2  -3.251264700212313E-2  
 2.041200000000000E10    8.697648378819432E-2  -4.792685150624286E-2  
 2.041400000000000E10    7.766021748263727E-2  -6.207909331592428E-2  
 2.041600000000000E10    6.610308727624828E-2  -7.422454034599739E-2  
 2.041800000000000E10    5.252189816876861E-2  -8.449793877645537E-2  
 2.042000000000000E10    3.768032231984146E-2  -9.207454341188301E-2  
 2.042200000000000E10    2.166604659318511E-2  -9.709375889274012E-2  
 2.042400000000000E10    4.951377085632419E-3  -9.935673826376457E-2  
 2.042600000000000E10   -1.181405238244110E-2  -9.882513068931456E-2  
 2.042800000000000E10   -2.822394123966306E-2  -9.545015819426432E-2  
 2.043000000000000E10   -4.391851398188169E-2  -8.946062404158538E-2  
 2.043200000000000E10   -5.843803256413499E-2  -8.100599622087940E-2  
 2.043400000000000E10   -7.153380147077665E-2  -6.997457651879123E-2  
 2.043600000000000E10   -8.227210570492177E-2  -5.691209025637344E-2  
 2.043800000000000E10   -9.061824412155649E-2  -4.220614978800816E-2  
 2.044000000000000E10   -9.640340133818340E-2  -2.620525625855004E-2  
 2.044200000000000E10   -9.945059278799648E-2  -9.870437081468109E-3  
 2.044400000000000E10   -9.984340100792832E-2   7.037803833623814E-3  
 2.044600000000000E10   -9.727025761038333E-2   2.393240062762651E-2  
 2.044800000000000E10   -9.179922996883028E-2   4.007540888970238E-2  
 2.045000000000000E10   -8.365586047514399E-2   5.501407876507571E-2  
 2.045200000000000E10   -7.311580587439791E-2   6.842034702515408E-2  
 2.045400000000000E10   -6.062483169688761E-2   7.960260712267164E-2  
 2.045600000000000E10   -4.637719715784301E-2   8.862873941667937E-2  
 2.045800000000000E10   -3.064376342318745E-2   9.519267076131249E-2  
 2.046000000000000E10   -1.421178773954680E-2   9.889363243541664E-2  
 2.046200000000000E10    2.604025261294021E-3   9.970247938230062E-2  
 2.046400000000000E10    1.942310083837466E-2   9.766135975750449E-2  
 2.046600000000000E10    3.527674011494196E-2   9.289322745622232E-2  
 2.046800000000000E10    5.014290312554166E-2   8.566908330389016E-2  
 2.047000000000000E10    6.382473353134964E-2   7.606315343336037E-2  
 2.047200000000000E10    7.547293082624615E-2   6.457364895995645E-2  
 2.047400000000000E10    8.527679237268490E-2   5.114537221432319E-2  
 2.047600000000000E10    9.276628720277240E-2   3.611253318103874E-2  
 2.047800000000000E10    9.752181411615470E-2   2.010113393009373E-2  
 2.048000000000000E10    9.939796121494471E-2   3.450724381181523E-3  
 2.048200000000000E10    9.845497390118563E-2  -1.324977412843991E-2  
 2.048400000000000E10    9.484303736510802E-2  -2.937702912590705E-2  
 2.048600000000000E10    8.865251221558909E-2  -4.485542182240306E-2  
 2.048800000000000E10    7.991558619784984E-2  -5.923023296633176E-2  
 2.049000000000000E10    6.902261704342559E-2  -7.170359576685714E-2  
 2.049200000000000E10    5.591873472677256E-2  -8.235388657588873E-2  
 2.049400000000000E10    4.141483867440328E-2  -9.064447654449928E-2  
 2.049600000000000E10    2.553074396645515E-2  -9.633739682700604E-2  
 2.049800000000000E10    8.862323992720734E-3  -9.917942847919525E-2  
 2.050000000000000E10   -7.981625197225676E-3  -9.907802550032899E-2  
 2.050200000000000E10   -2.432488006142936E-2  -9.614525579656821E-2  
 2.050400000000000E10   -3.991336522823551E-2  -9.064794879099428E-2  
 2.050600000000000E10   -5.442520166414156E-2  -8.264198327553327E-2  
 2.050800000000000E10   -6.741045984289011E-2  -7.246044094788035E-2  
 2.051000000000000E10   -7.854844566287186E-2  -6.028776179926673E-2  
 2.051200000000000E10   -8.758940341928678E-2  -4.635266263287775E-2  
 2.051400000000000E10   -9.418508767601458E-2  -3.097948522813442E-2  
 2.051600000000000E10   -9.809658231449965E-2  -1.462426935209146E-2  
 2.051800000000000E10   -9.909470762294959E-2   2.175439502213164E-3  
 2.052000000000000E10   -9.705063231385780E-2   1.890287174165979E-2  
 2.052200000000000E10   -9.224677473677755E-2   3.484140605344141E-2  
 2.052400000000000E10   -8.508722948249851E-2   4.940706188195965E-2  
 2.052600000000000E10   -7.564243547937433E-2   6.285881753969398E-2  
 2.052800000000000E10   -6.410807141976913E-2   7.453163655751745E-2  
 2.053000000000000E10   -5.073408529220091E-2   8.414143396748552E-2  
 2.053200000000000E10   -3.601508100092232E-2   9.137673745403749E-2  
 2.053400000000000E10   -2.040811676927902E-2   9.609004263009996E-2  
 2.053600000000000E10   -4.202481449574261E-3   9.832802372836855E-2  
 2.053800000000000E10    1.235250918864788E-2   9.787520131702152E-2  
 2.054000000000000E10    2.881749086153769E-2   9.456997003595549E-2  
 2.054200000000000E10    4.449208639133202E-2   8.844341803050283E-2  
 2.054400000000000E10    5.892959619813274E-2   7.953566162962604E-2  
 2.054600000000000E10    7.145121304641952E-2   6.819314833078212E-2  
 2.054800000000000E10    8.164630087624492E-2   5.501655652080966E-2  
 2.055000000000000E10    8.946535898057600E-2   4.049202962496913E-2  
 2.055200000000000E10    9.480932976244866E-2   2.515527368702662E-2  
 2.055400000000000E10    9.781963624411795E-2   8.963526606312515E-3  
 2.055600000000000E10    9.807537006486239E-2  -7.570273171628699E-3  
