#  HZ   S   RI   R     50.00 
! Rohde & Schwarz ZVA40 4Ports - Version 3.90 - 1145.1110k42 SN: 100403
! Date: 2023-09-28 11:22:01
! Measurement: S12 
! 
 2.000000000000000E10    5.290643466652301E-2  -6.459473081649700E-2  
 2.000200000000000E10    4.208774775809795E-2  -7.230122280479057E-2  
 2.000400000000000E10    2.938746052936255E-2  -7.846108772457965E-2  
 2.000600000000000E10    1.553916203628517E-2  -8.248745955790197E-2  
 2.000800000000000E10    1.238237115128955E-3  -8.399006053102676E-2  
 2.001000000000000E10   -1.337539135474609E-2  -8.291257498276486E-2  
 2.001200000000000E10   -2.728359116725579E-2  -7.930723277255801E-2  
 2.001400000000000E10   -4.050376887180894E-2  -7.335405488949073E-2  
 2.001600000000000E10   -5.237781957118946E-2  -6.521501923699716E-2  
 2.001800000000000E10   -6.263020653511729E-2  -5.528859982713831E-2  
 2.002000000000000E10   -7.109139841791115E-2  -4.362717956469751E-2  
 2.002200000000000E10   -7.780145145210686E-2  -2.981662658860574E-2  
 2.002400000000000E10   -8.161881870919521E-2  -1.625139677398798E-2  
 2.002600000000000E10   -8.303253755090514E-2  -2.149194551302290E-3  
 2.002800000000000E10   -8.203178183667723E-2   1.197783924611629E-2  
 2.003000000000000E10   -7.874294957423936E-2   2.550304201297926E-2  
 2.003200000000000E10   -7.328237961508899E-2   3.833439873348503E-2  
 2.003400000000000E10   -6.566642731577702E-2   5.020385277759346E-2  
 2.003600000000000E10   -5.618245205258025E-2   6.060120837639281E-2  
 2.003800000000000E10   -4.513064467509397E-2   6.913364153916479E-2  
 2.004000000000000E10   -3.280483684839477E-2   7.574669291501160E-2  
 2.004200000000000E10   -1.941032474894362E-2   8.022334407787309E-2  
 2.004400000000000E10   -5.451398267497714E-3   8.238803645014968E-2  
 2.004600000000000E10    8.600741619374448E-3   8.201180888009621E-2  
 2.004800000000000E10    2.246075319972547E-2   7.928339343583288E-2  
 2.005000000000000E10    3.541989064934836E-2   7.433714790616566E-2  
 2.005200000000000E10    4.769111460766178E-2   6.725664999322673E-2  
 2.005400000000000E10    5.842745888500463E-2   5.816895663611640E-2  
 2.005600000000000E10    6.753866460282207E-2   4.720908144165972E-2  
 2.005800000000000E10    7.439420902655211E-2   3.503050030456687E-2  
 2.006000000000000E10    7.919602334989410E-2   2.167535909628229E-2  
 2.006200000000000E10    8.163969623052085E-2   8.021699075261278E-3  
 2.006400000000000E10    8.173276974584257E-2  -5.778922690493205E-3  
 2.006600000000000E10    7.946225218626504E-2  -1.970207489869679E-2  
 2.006800000000000E10    7.493542113613272E-2  -3.286406071632918E-2  
 2.007000000000000E10    6.827900001236693E-2  -4.515651232623696E-2  
 2.007200000000000E10    5.962379361310335E-2  -5.607312957827086E-2  
 2.007400000000000E10    4.904203759558022E-2  -6.548607019795696E-2  
 2.007600000000000E10    3.707327355133186E-2  -7.281746129839997E-2  
 2.007800000000000E10    2.398478976493372E-2  -7.794299564208612E-2  
 2.008000000000000E10    1.039762592344542E-2  -8.063904625182970E-2  
 2.008200000000000E10   -3.487370440168657E-3  -8.103396651506321E-2  
 2.008400000000000E10   -1.705628847841495E-2  -7.909919982779010E-2  
 2.008600000000000E10   -3.018878908346665E-2  -7.482713009169724E-2  
 2.008800000000000E10   -4.207453633772480E-2  -6.858298793961209E-2  
 2.009000000000000E10   -5.295426475102964E-2  -6.047045649847431E-2  
 2.009200000000000E10   -6.231906623859046E-2  -5.071114058902380E-2  
 2.009400000000000E10   -7.003326493554600E-2  -3.932661026021435E-2  
 2.009600000000000E10   -7.553448639232738E-2  -2.716555221516334E-2  
 2.009800000000000E10   -7.908236000988811E-2  -1.406997590712680E-2  
 2.010000000000000E10   -8.040128096782682E-2  -4.022647645204600E-4  
 2.010200000000000E10   -7.934448221034439E-2   1.324454389109268E-2  
 2.010400000000000E10   -7.592485892688089E-2   2.649064374694844E-2  
 2.010600000000000E10   -7.038370454598505E-2   3.895367294361049E-2  
 2.010800000000000E10   -6.268627003667485E-2   5.043845192911578E-2  
 2.011000000000000E10   -5.318980646172797E-2   6.034686575254734E-2  
 2.011200000000000E10   -4.209428524481596E-2   6.848117274671203E-2  
 2.011400000000000E10   -2.982887457666666E-2   7.456503954937901E-2  
 2.011600000000000E10   -1.679421740718129E-2   7.850901654732434E-2  
 2.011800000000000E10   -3.084489307178494E-3   8.018764011454072E-2  
 2.012000000000000E10    1.055149240841583E-2   7.953397369726796E-2  
 2.012200000000000E10    2.378812101911641E-2   7.659241198812700E-2  
 2.012400000000000E10    3.654037849048280E-2   7.141990435882711E-2  
 2.012600000000000E10    4.809347587912891E-2   6.413379588451132E-2  
 2.012800000000000E10    5.836276792729012E-2   5.488844042789677E-2  
 2.013000000000000E10    6.668819338475629E-2   4.426436628222982E-2  
 2.013200000000000E10    7.322885462605930E-2   3.217461957342528E-2  
 2.013400000000000E10    7.761118233308936E-2   1.925780346452015E-2  
 2.013600000000000E10    7.973125885640384E-2   5.686188201243661E-3  
 2.013800000000000E10    7.945721372624237E-2  -7.971682451992045E-3  
 2.014000000000000E10    7.681006751598188E-2  -2.146206559465310E-2  
 2.014200000000000E10    7.203512561504726E-2  -3.396119470081001E-2  
 2.014400000000000E10    6.517449904785393E-2  -4.568059823923256E-2  
 2.014600000000000E10    5.641253617585579E-2  -5.601729133415917E-2  
 2.014800000000000E10    4.608678935561023E-2  -6.476924525404793E-2  
 2.015000000000000E10    3.456767521420197E-2  -7.154265644804281E-2  
 2.015200000000000E10    2.175733799638829E-2  -7.641608415434703E-2  
 2.015400000000000E10    8.356990658145991E-3  -7.899582355475032E-2  
 2.015600000000000E10   -5.098711879873804E-3  -7.923590586481377E-2  
 2.015800000000000E10   -1.862685425945077E-2  -7.712139683095862E-2  
 2.016000000000000E10   -3.145925499968287E-2  -7.273230018230650E-2  
 2.016200000000000E10   -4.334410294006021E-2  -6.624940885090044E-2  
 2.016400000000000E10   -5.385074394372545E-2  -5.789294733767039E-2  
 2.016600000000000E10   -6.284369119648814E-2  -4.787616803410306E-2  
 2.016800000000000E10   -7.003515556259517E-2  -3.644195480919911E-2  
 2.017000000000000E10   -7.514848586799022E-2  -2.393897143180914E-2  
 2.017200000000000E10   -7.798942696978492E-2  -1.065859996710927E-2  
 2.017400000000000E10   -7.845037718327216E-2   2.788583092177045E-3  
 2.017600000000000E10   -7.661023211944666E-2   1.591274877396620E-2  
 2.017800000000000E10   -7.263142177721751E-2   2.862176205828951E-2  
 2.018000000000000E10   -6.670473208028122E-2   4.028624847036185E-2  
 2.018200000000000E10   -5.897488378868102E-2   5.085545204532341E-2  
 2.018400000000000E10   -4.956190982147934E-2   6.002061890472031E-2  
 2.018600000000000E10   -3.874786355256178E-2   6.753375142383276E-2  
 2.018800000000000E10   -2.678847949261035E-2   7.312340318682356E-2  
 2.019000000000000E10   -1.393443198334333E-2   7.657249209809022E-2  
 2.019200000000000E10   -7.493243093540816E-4   7.777907979723694E-2  
 2.019400000000000E10    1.257460450556540E-2   7.676162240648510E-2  
 2.019600000000000E10    2.518455739654828E-2   7.359383345067855E-2  
 2.019800000000000E10    3.756060977251928E-2   6.805543046597611E-2  
 2.020000000000000E10    4.851021537067443E-2   6.061732680925862E-2  
 2.020200000000000E10    5.793437274544867E-2   5.140101158561097E-2  
 2.020400000000000E10    6.562397757336823E-2   4.079465225562664E-2  
 2.020600000000000E10    7.148007394777615E-2   2.909125648835779E-2  
 2.020800000000000E10    7.529396115400508E-2   1.654692294602809E-2  
 2.021000000000000E10    7.692042532691171E-2   3.574344565642710E-3  
 2.021200000000000E10    7.638295213842813E-2  -9.467514703180656E-3  
 2.021400000000000E10    7.363290870854675E-2  -2.230174975098876E-2  
 2.021600000000000E10    6.872438136065444E-2  -3.437726606959488E-2  
 2.021800000000000E10    6.173887205703879E-2  -4.557450900351006E-2  
 2.022000000000000E10    5.295980447553427E-2  -5.538883901540657E-2  
 2.022200000000000E10    4.276885266487664E-2  -6.342438445841733E-2  
 2.022400000000000E10    3.124246448213798E-2  -6.963016532949909E-2  
 2.022600000000000E10    1.890794266877769E-2  -7.369546862508648E-2  
 2.022800000000000E10    6.185754424521902E-3  -7.561393460103105E-2  
 2.023000000000000E10   -6.701852524815856E-3  -7.537445062887085E-2  
 2.023200000000000E10   -1.927509377699634E-2  -7.303521220810297E-2  
 2.023400000000000E10   -3.128116754525379E-2  -6.858165584126533E-2  
 2.023600000000000E10   -4.221602137769954E-2  -6.225293232093797E-2  
 2.023800000000000E10   -5.203568776692621E-2  -5.410493263715285E-2  
 2.024000000000000E10   -6.042043555984830E-2  -4.439286943962383E-2  
 2.024200000000000E10   -6.683852270546112E-2  -3.363263113557441E-2  
 2.024400000000000E10   -7.143235966569086E-2  -2.177359783884280E-2  
 2.024600000000000E10   -7.393387022697290E-2  -9.346334835449010E-3  
 2.024800000000000E10   -7.434563753803013E-2   3.196318219368178E-3  
 2.025000000000000E10   -7.261672141710653E-2   1.580265435222645E-2  
 2.025200000000000E10   -6.876467879723675E-2   2.778950637242090E-2  
 2.025400000000000E10   -6.297102684583987E-2   3.880173693064292E-2  
 2.025600000000000E10   -5.534283811687697E-2   4.877700184399410E-2  
 2.025800000000000E10   -4.632363129549919E-2   5.721382683030439E-2  
 2.026000000000000E10   -3.592694204868761E-2   6.409540178961579E-2  
 2.026200000000000E10   -2.472619551327925E-2   6.902916539031281E-2  
 2.026400000000000E10   -1.286852670720894E-2   7.214736239982676E-2  
 2.026600000000000E10   -5.360082209399566E-4   7.328544407181940E-2  
 2.026800000000000E10    1.181233309434565E-2   7.233269307202300E-2  
 2.027000000000000E10    2.380247868844005E-2   6.932366289705352E-2  
 2.027200000000000E10    3.529048078554958E-2   6.428513002624303E-2  
 2.027400000000000E10    4.562117455198245E-2   5.737083036805071E-2  
 2.027600000000000E10    5.471445642227342E-2   4.863587350389373E-2  
 2.027800000000000E10    6.204471440248553E-2   3.850612874275276E-2  
 2.028000000000000E10    6.753411205256331E-2   2.733994790261315E-2  
 2.028200000000000E10    7.097742202166124E-2   1.542304100934294E-2  
 2.028400000000000E10    7.239010624727935E-2   3.155062474287956E-3  
 2.028600000000000E10    7.167503220352331E-2  -9.027508076609549E-3  
 2.028800000000000E10    6.893969014913357E-2  -2.092945252843181E-2  
 2.029000000000000E10    6.433626419970712E-2  -3.211862209192223E-2  
 2.029200000000000E10    5.790022109533169E-2  -4.251009480244203E-2  
 2.029400000000000E10    4.981440147559688E-2  -5.154136921089937E-2  
 2.029600000000000E10    4.034575593488597E-2  -5.907076462563062E-2  
 2.029800000000000E10    2.955558099040900E-2  -6.491347818917366E-2  
 2.030000000000000E10    1.819487514005717E-2  -6.878769092834461E-2  
 2.030200000000000E10    6.444793251117180E-3  -7.066246935304135E-2  
 2.030400000000000E10   -5.652309085583434E-3  -7.057969354455468E-2  
 2.030600000000000E10   -1.736404945990247E-2  -6.845179910080122E-2  
 2.030800000000000E10   -2.855204964301480E-2  -6.436750650315674E-2  
 2.031000000000000E10   -3.884973295586299E-2  -5.845886266751831E-2  
 2.031200000000000E10   -4.801801992046409E-2  -5.092563833810381E-2  
 2.031400000000000E10   -5.566805863164129E-2  -4.193880922369483E-2  
 2.031600000000000E10   -6.146879148748888E-2  -3.226816088980918E-2  
 2.031800000000000E10   -6.576958067301653E-2  -2.164090774278256E-2  
 2.032000000000000E10   -6.836494236027668E-2  -1.025568334019712E-2  
 2.032200000000000E10   -6.902159665436243E-2   1.129017468149761E-3  
 2.032400000000000E10   -6.782552193960739E-2   1.273207649199839E-2  
 2.032600000000000E10   -6.456897792798191E-2   2.396099776211037E-2  
 2.032800000000000E10   -5.950433526148840E-2   3.437737380669253E-2  
 2.033000000000000E10   -5.268280646464738E-2   4.378819476302994E-2  
 2.033200000000000E10   -4.432722061999678E-2   5.190272704208457E-2  
 2.033400000000000E10   -3.498094465056640E-2   5.832555283824334E-2  
 2.033600000000000E10   -3.039676318859943E-2   6.065461458259072E-2  
 2.033800000000000E10   -1.338957618952561E-2   6.616784741547954E-2  
 2.034000000000000E10   -2.200162917019919E-3   6.717589073449262E-2  
 2.034200000000000E10    8.947363159727188E-3   6.637390823627704E-2  
 2.034400000000000E10    1.978186793970271E-2   6.376320693159117E-2  
 2.034600000000000E10    2.991257313869354E-2   5.936899728999809E-2  
 2.034800000000000E10    3.914625092322455E-2   5.342207080448728E-2  
 2.035000000000000E10    4.716032040524530E-2   4.612265508291650E-2  
 2.035200000000000E10    5.393999635150686E-2   3.761501034248269E-2  
 2.035400000000000E10    5.913592631453148E-2   2.831444248589545E-2  
 2.035600000000000E10    6.290763226683395E-2   1.827973165418269E-2  
 2.035800000000000E10    6.507299441986512E-2   7.718249196407389E-3  
 2.036000000000000E10    6.551323045586496E-2  -2.970881246354220E-3  
 2.036200000000000E10    6.417874635241527E-2  -1.371701538670954E-2  
 2.036400000000000E10    6.106441524517943E-2  -2.427072038275803E-2  
 2.036600000000000E10    5.627743558176086E-2  -3.394227265260928E-2  
 2.036800000000000E10    4.990501031292276E-2  -4.282557264654899E-2  
 2.037000000000000E10    4.204262205379915E-2  -5.060452164700703E-2  
 2.037200000000000E10    3.312891254009705E-2  -5.685906816729144E-2  
 2.037400000000000E10    2.320944034652903E-2  -6.152952188563017E-2  
 2.037600000000000E10    1.266140759443593E-2  -6.448855024557273E-2  
 2.037800000000000E10    1.806169305591277E-3  -6.568844601990707E-2  
 2.038000000000000E10   -9.025572624700714E-3  -6.513954892833075E-2  
 2.038200000000000E10   -1.970781858625572E-2  -6.281408656213205E-2  
 2.038400000000000E10   -2.990128315180906E-2  -5.871868250913902E-2  
 2.038600000000000E10   -3.926167910726820E-2  -5.298077976288124E-2  
 2.038800000000000E10   -4.753698338629210E-2  -4.577221504589352E-2  
 2.039000000000000E10   -5.456319769541007E-2  -3.731262936570671E-2  
 2.039200000000000E10   -6.008223247290494E-2  -2.771687262751073E-2  
 2.039400000000000E10   -6.389857214035859E-2  -1.726555360451929E-2  
 2.039600000000000E10   -6.590759566427554E-2  -6.429485098451871E-3  
 2.039800000000000E10   -6.612374952308738E-2   4.608019159501374E-3  
 2.040000000000000E10   -6.446852623499273E-2   1.548549659829378E-2  
 2.040200000000000E10   -6.104288289183041E-2   2.610642937279670E-2  
 2.040400000000000E10   -5.586550023777247E-2   3.586107026287703E-2  
 2.040600000000000E10   -4.916583478655749E-2   4.472030011465794E-2  
 2.040800000000000E10   -4.100012152599709E-2   5.234722694074794E-2  
 2.041000000000000E10   -3.174180957172766E-2   5.847284939687367E-2  
 2.041200000000000E10   -2.162608740237630E-2   6.290239866771567E-2  
 2.041400000000000E10   -1.084587189322530E-2   6.567897800680059E-2  
 2.041600000000000E10    1.232416379513953E-4   6.662572597580897E-2  
 2.041800000000000E10    1.123110552909059E-2   6.579611461799408E-2  
 2.042000000000000E10    2.197754178897673E-2   6.312045175463843E-2  
 2.042200000000000E10    3.218143382299297E-2   5.870491746409218E-2  
 2.042400000000000E10    4.158687868745181E-2   5.256125135789466E-2  
 2.042600000000000E10    4.977305924201848E-2   4.496279898184138E-2  
 2.042800000000000E10    5.661317265785040E-2   3.612491428557518E-2  
 2.043000000000000E10    6.189202463025387E-2   2.627426789435128E-2  
 2.043200000000000E10    6.552342451440948E-2   1.570144229756190E-2  
 2.043400000000000E10    6.733732934034274E-2   4.562011617310451E-3  
 2.043600000000000E10    6.729028451118435E-2  -6.563941154138032E-3  
 2.043800000000000E10    6.544751624212036E-2  -1.753357198522223E-2  
 2.044000000000000E10    6.183022503577192E-2  -2.832972930489131E-2  
 2.044200000000000E10    5.651691268719609E-2  -3.830832817832577E-2  
 2.044400000000000E10    4.952317795037219E-2  -4.738439951180920E-2  
 2.044600000000000E10    4.093140413327542E-2  -5.517190373383488E-2  
 2.044800000000000E10    3.124491086417136E-2  -6.140941783994361E-2  
 2.045000000000000E10    2.068428929504759E-2  -6.597171495573143E-2  
 2.045200000000000E10    9.276322453046219E-3  -6.880075591042031E-2  
 2.045400000000000E10   -2.437462008327327E-3  -6.959225287208529E-2  
 2.045600000000000E10   -1.409071854626032E-2  -6.841382866294392E-2  
 2.045800000000000E10   -2.555547446842117E-2  -6.515173636652878E-2  
 2.046000000000000E10   -3.620198725129795E-2  -6.003808079431302E-2  
 2.046200000000000E10   -4.583015385957756E-2  -5.323517204430760E-2  
 2.046400000000000E10   -5.430060093989143E-2  -4.475188533233938E-2  
 2.046600000000000E10   -6.114405730125885E-2  -3.503371736356248E-2  
 2.046800000000000E10   -6.628205347249075E-2  -2.436074258965659E-2  
 2.047000000000000E10   -6.962838418384604E-2  -1.275721460760808E-2  
 2.047200000000000E10   -7.089360178894591E-2  -9.362405380072394E-4  
 2.047400000000000E10   -7.010059135861320E-2   1.099569469213865E-2  
 2.047600000000000E10   -6.734516859932990E-2   2.264263674067100E-2  
 2.047800000000000E10   -6.272020712672854E-2   3.364080261132438E-2  
 2.048000000000000E10   -5.631391052272798E-2   4.377718884839738E-2  
 2.048200000000000E10   -4.830668299644471E-2   5.269401068908078E-2  
 2.048400000000000E10   -3.893262896045421E-2   6.024019872946414E-2  
 2.048600000000000E10   -2.830059594167097E-2   6.616074501784933E-2  
 2.048800000000000E10   -1.663477413653351E-2   7.025647880020577E-2  
 2.049000000000000E10   -4.546897623478924E-3   7.225211917602847E-2  
 2.049200000000000E10    7.907906912716256E-3   7.206409217426647E-2  
 2.049400000000000E10    1.996693284122665E-2   6.978487115140640E-2  
 2.049600000000000E10    3.149814592507629E-2   6.544947656690850E-2  
 2.049800000000000E10    4.204187558363966E-2   5.929584404600452E-2  
 2.050000000000000E10    5.151111701194945E-2   5.150300476042680E-2  
 2.050200000000000E10    5.964491758457495E-2   4.220611929050083E-2  
 2.050400000000000E10    6.613570063382662E-2   3.161710622870715E-2  
 2.050600000000000E10    7.078536249492279E-2   1.998581715959146E-2  
 2.050800000000000E10    7.324817897358374E-2   7.580980009949020E-3  
 2.051000000000000E10    7.349208631612518E-2  -5.012077426108794E-3  
 2.051200000000000E10    7.160522928577066E-2  -1.734197276367748E-2  
 2.051400000000000E10    6.770627989829460E-2  -2.926554864632565E-2  
 2.051600000000000E10    6.189719951117229E-2  -4.023557597955391E-2  
 2.051800000000000E10    5.442104896887383E-2  -5.010929898490722E-2  
 2.052000000000000E10    4.533116566148734E-2  -5.878042310826177E-2  
 2.052200000000000E10    3.476562414890655E-2  -6.583466821756660E-2  
 2.052400000000000E10    2.319003460724071E-2  -7.095195384862932E-2  
 2.052600000000000E10    1.076404599947420E-2  -7.399086418757905E-2  
 2.052800000000000E10   -1.905677490096183E-3  -7.484490061093034E-2  
 2.053000000000000E10   -1.458748261062664E-2  -7.356776032460058E-2  
 2.053200000000000E10   -2.693149490251336E-2  -7.014134172773916E-2  
 2.053400000000000E10   -3.841939211856290E-2  -6.467721768601734E-2  
 2.053600000000000E10   -4.887958505093807E-2  -5.732647124773695E-2  
 2.053800000000000E10   -5.801338439084287E-2  -4.831591550076980E-2  
 2.054000000000000E10   -6.551757766617941E-2  -3.796592692623343E-2  
 2.054200000000000E10   -7.126816140259472E-2  -2.640968817294825E-2  
 2.054400000000000E10   -7.491182537657595E-2  -1.393934383284518E-2  
 2.054600000000000E10   -7.632252448917763E-2  -9.707114660106164E-4  
 2.054800000000000E10   -7.554681811508016E-2   1.208587390960171E-2  
 2.055000000000000E10   -7.251656255647421E-2   2.486373809037277E-2  
 2.055200000000000E10   -6.740812652487263E-2   3.682911658001425E-2  
 2.055400000000000E10   -6.029411113737652E-2   4.794035378939319E-2  
 2.055600000000000E10   -5.137498388156379E-2   5.768320582424834E-2  
