#  HZ   S   RI   R     50.00 
! Rohde & Schwarz ZVA40 4Ports - Version 3.90 - 1145.1110k42 SN: 100403
! Date: 2023-09-28 10:28:24
! Measurement: S12 
! 
 2.000000000000000E10    4.021611647019965E-2  -8.564315419389559E-2  
 2.000200000000000E10    2.616539874414506E-2  -9.117072750294966E-2  
 2.000400000000000E10    1.044797350998917E-2  -9.430646158874821E-2  
 2.000600000000000E10   -5.769729374412560E-3  -9.473825466740045E-2  
 2.000800000000000E10   -2.162673273197851E-2  -9.242543264499001E-2  
 2.001000000000000E10   -3.727210818152600E-2  -8.742330663740069E-2  
 2.001200000000000E10   -5.163147340397650E-2  -7.975407906025400E-2  
 2.001400000000000E10   -6.445729805077383E-2  -6.968908701668317E-2  
 2.001600000000000E10   -7.533793411768533E-2  -5.753762045781413E-2  
 2.001800000000000E10   -8.391979098871147E-2  -4.391981731688221E-2  
 2.002000000000000E10   -9.008011914252545E-2  -2.887344923772621E-2  
 2.002200000000000E10   -9.373834120444771E-2  -1.196526148066592E-2  
 2.002400000000000E10   -9.436007328674041E-2   4.031539290816179E-3  
 2.002600000000000E10   -9.223210211533428E-2   1.987815571561178E-2  
 2.002800000000000E10   -8.744015346379602E-2   3.528058080835713E-2  
 2.003000000000000E10   -8.009792511231084E-2   4.944130274263854E-2  
 2.003200000000000E10   -7.050502404547113E-2   6.215611798165928E-2  
 2.003400000000000E10   -5.878585876900480E-2   7.310515091558278E-2  
 2.003600000000000E10   -4.555893901445782E-2   8.183709249337237E-2  
 2.003800000000000E10   -3.121826216947171E-2   8.815704375734079E-2  
 2.004000000000000E10   -1.591219968371946E-2   9.211402735771074E-2  
 2.004200000000000E10   -8.309129266607224E-5   9.338696973136861E-2  
 2.004400000000000E10    1.564566821576464E-2   9.205300958274204E-2  
 2.004600000000000E10    3.078562288477836E-2   8.810501678531227E-2  
 2.004800000000000E10    4.540506159821517E-2   8.152372882762637E-2  
 2.005000000000000E10    5.847773626401302E-2   7.269860633515927E-2  
 2.005200000000000E10    6.991024786398337E-2   6.181761521815965E-2  
 2.005400000000000E10    7.935822683442860E-2   4.911924300870810E-2  
 2.005600000000000E10    8.656194244097364E-2   3.496019918739763E-2  
 2.005800000000000E10    9.130344961599590E-2   1.972814256203573E-2  
 2.006000000000000E10    9.321274224356267E-2   3.984962266491363E-3  
 2.006200000000000E10    9.243453193766518E-2  -1.196260713297282E-2  
 2.006400000000000E10    8.901712168633609E-2  -2.721570984573074E-2  
 2.006600000000000E10    8.302510486642127E-2  -4.197486966995243E-2  
 2.006800000000000E10    7.473694990145230E-2  -5.532427426397890E-2  
 2.007000000000000E10    6.431401274923823E-2  -6.712123367812209E-2  
 2.007200000000000E10    5.198881584305514E-2  -7.699858365146173E-2  
 2.007400000000000E10    3.820927195473942E-2  -8.469458976372990E-2  
 2.007600000000000E10    2.335553309923113E-2  -8.985186563964202E-2  
 2.007800000000000E10    7.917761641562059E-3  -9.250048755719727E-2  
 2.008000000000000E10   -7.754143859496697E-3  -9.260283390297880E-2  
 2.008200000000000E10   -2.355472364329529E-2  -8.999971034030742E-2  
 2.008400000000000E10   -3.831684777325491E-2  -8.481155170259005E-2  
 2.008600000000000E10   -5.224503384671131E-2  -7.694103043621613E-2  
 2.008800000000000E10   -6.453453066173939E-2  -6.682645307652915E-2  
 2.009000000000000E10   -7.481097342172109E-2  -5.496961253342733E-2  
 2.009200000000000E10   -8.302827666295543E-2  -4.164160515821387E-2  
 2.009400000000000E10   -8.887410948228736E-2  -2.697456731782123E-2  
 2.009600000000000E10   -9.219410268635563E-2  -1.127403048084064E-2  
 2.009800000000000E10   -9.274107341113351E-2   4.217270819927076E-3  
 2.010000000000000E10   -9.072496695981028E-2   1.991686176911609E-2  
 2.010200000000000E10   -8.609598328677437E-2   3.498257431071755E-2  
 2.010400000000000E10   -7.892350128174785E-2   4.922666391434906E-2  
 2.010600000000000E10   -6.939116083394040E-2   6.195394576742042E-2  
 2.010800000000000E10   -5.786138667430674E-2   7.280652166156335E-2  
 2.011000000000000E10   -4.451522835934089E-2   8.163734773984076E-2  
 2.011200000000000E10   -2.995238629440080E-2   8.795521534899475E-2  
 2.011400000000000E10   -1.456080059090466E-2   9.165011245235162E-2  
 2.011600000000000E10    1.235193635987130E-3   9.266015258524252E-2  
 2.011800000000000E10    1.686035573477971E-2   9.106374797597927E-2  
 2.012000000000000E10    3.206337504768338E-2   8.689867724146730E-2  
 2.012200000000000E10    4.631198571229990E-2   8.018300014733058E-2  
 2.012400000000000E10    5.912789822844376E-2   7.124981574738032E-2  
 2.012600000000000E10    7.047970506519660E-2   6.010301804840672E-2  
 2.012800000000000E10    7.958180825889145E-2   4.725212015289939E-2  
 2.013000000000000E10    8.640176018940654E-2   3.288551733489778E-2  
 2.013200000000000E10    9.053497251117702E-2   1.791391098733759E-2  
 2.013400000000000E10    9.220049338391514E-2   2.258672988965160E-3  
 2.013600000000000E10    9.113655786998982E-2  -1.346386727370537E-2  
 2.013800000000000E10    8.755246895214339E-2  -2.847362686566938E-2  
 2.014000000000000E10    8.147425840595102E-2  -4.291982948079783E-2  
 2.014200000000000E10    7.325947049821423E-2  -5.606183117883076E-2  
 2.014400000000000E10    6.279736090670460E-2  -6.774304853745160E-2  
 2.014600000000000E10    5.027428519120610E-2  -7.761759972363985E-2  
 2.014800000000000E10    3.632605372716249E-2  -8.504929299427655E-2  
 2.015000000000000E10    2.117840934951532E-2  -8.997503867289501E-2  
 2.015200000000000E10    5.643989217458571E-3  -9.214651370832230E-2  
 2.015400000000000E10   -1.016377208759436E-2  -9.165635860304533E-2  
 2.015600000000000E10   -2.565579735484937E-2  -8.851046456025094E-2  
 2.015800000000000E10   -4.002207481663674E-2  -8.292002294589028E-2  
 2.016000000000000E10   -5.359201565474199E-2  -7.491985557934247E-2  
 2.016200000000000E10   -6.558666672944261E-2  -6.476430481892441E-2  
 2.016400000000000E10   -7.563757972469759E-2  -5.275770728426428E-2  
 2.016600000000000E10   -8.350364804519228E-2  -3.919133444699047E-2  
 2.016800000000000E10   -8.896978390411847E-2  -2.434335034670887E-2  
 2.017000000000000E10   -9.173709022666009E-2  -8.687537618109000E-3  
 2.017200000000000E10   -9.176939105505154E-2   7.056748787581738E-3  
 2.017400000000000E10   -8.911841693359597E-2   2.232824893529090E-2  
 2.017600000000000E10   -8.393739766455435E-2   3.730015501853885E-2  
 2.017800000000000E10   -7.656241055994945E-2   5.077526305535731E-2  
 2.018000000000000E10   -6.685799867465889E-2   6.307958367961589E-2  
 2.018200000000000E10   -5.518599461701831E-2   7.356375623090308E-2  
 2.018400000000000E10   -4.198589056646238E-2   8.186692034676449E-2  
 2.018600000000000E10   -2.740376587420201E-2   8.784430435546524E-2  
 2.018800000000000E10   -1.200195641406814E-2   9.124872083814263E-2  
 2.019000000000000E10    3.800219012059921E-3   9.189448304262758E-2  
 2.019200000000000E10    1.931803005554022E-2   8.973937097208012E-2  
 2.019400000000000E10    3.407497398991723E-2   8.513783682778389E-2  
 2.019600000000000E10    4.804116033571423E-2   7.828694193387902E-2  
 2.019800000000000E10    6.081545285160227E-2   6.903329530490196E-2  
 2.020000000000000E10    7.163627816958744E-2   5.785773504853420E-2  
 2.020200000000000E10    8.057883657185352E-2   4.474464394574225E-2  
 2.020400000000000E10    8.700739157687103E-2   3.044679318811390E-2  
 2.020600000000000E10    9.099937543997477E-2   1.506990378966984E-2  
 2.020800000000000E10    9.230438985662212E-2  -7.036570472246526E-4  
 2.021000000000000E10    9.087462636269261E-2  -1.650793140481847E-2  
 2.021200000000000E10    8.672266558584134E-2  -3.182639719541072E-2  
 2.021400000000000E10    7.996379365965779E-2  -4.630249485552163E-2  
 2.021600000000000E10    7.077475026895656E-2  -5.940086283980180E-2  
 2.021800000000000E10    5.931633587271584E-2  -7.068301502355734E-2  
 2.022000000000000E10    4.636086129351997E-2  -7.950827811937813E-2  
 2.022200000000000E10    3.189088581888386E-2  -8.614150262312612E-2  
 2.022400000000000E10    1.675007572499888E-2  -9.016953063840603E-2  
 2.022600000000000E10    1.183394916380310E-3  -9.157779223670723E-2  
 2.022800000000000E10   -1.451125559727545E-2  -9.028893072270333E-2  
 2.023000000000000E10   -2.965902740093489E-2  -8.634843175580383E-2  
 2.023200000000000E10   -4.373232991537453E-2  -7.985813944081324E-2  
 2.023400000000000E10   -5.664839268412823E-2  -7.099570720700457E-2  
 2.023600000000000E10   -6.762176816137513E-2  -6.042686532417286E-2  
 2.023800000000000E10   -7.680798821809520E-2  -4.804436287767507E-2  
 2.024000000000000E10   -8.371390090750068E-2  -3.430744751974443E-2  
 2.024200000000000E10   -8.819394445715170E-2  -1.951748684628937E-2  
 2.024400000000000E10   -9.002640488142226E-2  -4.147959425268962E-3  
 2.024600000000000E10   -8.921073059736094E-2   1.090191198421213E-2  
 2.024800000000000E10   -8.590727027100423E-2   2.570065762057484E-2  
 2.025000000000000E10   -8.017677902306253E-2   3.981744796597897E-2  
 2.025200000000000E10   -7.242591090256961E-2   5.246209205582346E-2  
 2.025400000000000E10   -6.252030092983060E-2   6.382830692416848E-2  
 2.025600000000000E10   -5.077659817381174E-2   7.338825703766486E-2  
 2.025800000000000E10   -3.801213143633669E-2   8.069655477587288E-2  
 2.026000000000000E10   -2.402621112706724E-2   8.599452898856412E-2  
 2.026200000000000E10   -9.317042997424592E-3   8.893316118935712E-2  
 2.026400000000000E10    5.852646305780476E-3   8.942772997686585E-2  
 2.026600000000000E10    2.080627424740010E-2   8.729520909855754E-2  
 2.026800000000000E10    3.523660250193965E-2   8.272336648545942E-2  
 2.027000000000000E10    4.888428522315821E-2   7.572925541541783E-2  
 2.027200000000000E10    6.127643434058566E-2   6.646279695534232E-2  
 2.027400000000000E10    7.180010974149798E-2   5.525592414318066E-2  
 2.027600000000000E10    8.043482564402955E-2   4.204247292124183E-2  
 2.027800000000000E10    8.648513486134851E-2   2.767452126841947E-2  
 2.028000000000000E10    8.997685385773606E-2   1.244559548860520E-2  
 2.028200000000000E10    9.077151096997294E-2  -3.202308135458529E-3  
 2.028400000000000E10    8.883621815164504E-2  -1.871689860611777E-2  
 2.028600000000000E10    8.429093674368075E-2  -3.356252275609828E-2  
 2.028800000000000E10    7.730818208115305E-2  -4.749762412399677E-2  
 2.029000000000000E10    6.801947027631076E-2  -5.992615243920326E-2  
 2.029200000000000E10    5.672415062275650E-2  -7.074932927633032E-2  
 2.029400000000000E10    4.386855136225157E-2  -7.936327405448418E-2  
 2.029600000000000E10    2.962146747208345E-2  -8.569967087451166E-2  
 2.029800000000000E10    1.429451318785245E-2  -8.944061021150895E-2  
 2.030000000000000E10   -1.144444928719578E-3  -9.045265194516730E-2  
 2.030200000000000E10   -1.659138550921220E-2  -8.874722464155002E-2  
 2.030400000000000E10   -3.153836107169087E-2  -8.441887020054845E-2  
 2.030600000000000E10   -4.525209873194001E-2  -7.771997155197413E-2  
 2.030800000000000E10   -5.775609181169294E-2  -6.878836941755093E-2  
 2.031000000000000E10   -6.857993382464120E-2  -5.781396774253650E-2  
 2.031200000000000E10   -7.727628724978586E-2  -4.522071926286901E-2  
 2.031400000000000E10   -8.371534552484766E-2  -3.126273913409194E-2  
 2.031600000000000E10   -8.753873834556145E-2  -1.704820610727805E-2  
 2.031800000000000E10   -8.906606038911118E-2  -2.082149343234037E-3  
 2.032000000000000E10   -8.796809131761929E-2   1.329569938837095E-2  
 2.032200000000000E10   -8.428754036682007E-2   2.801317461698026E-2  
 2.032400000000000E10   -7.808619229904565E-2   4.187986120465798E-2  
 2.032600000000000E10   -6.963370666600569E-2   5.441081700989921E-2  
 2.032800000000000E10   -5.928800275481821E-2   6.525711930869213E-2  
 2.033000000000000E10   -4.712444910897792E-2   7.424770507482485E-2  
 2.033200000000000E10   -3.366163323387283E-2   8.091719368923998E-2  
 2.033400000000000E10   -1.967461978185697E-2   8.512539463299887E-2  
 2.033600000000000E10   -1.310957879417986E-2   8.627174892902122E-2  
 2.033800000000000E10    1.004360999789191E-2   8.649601503583601E-2  
 2.034000000000000E10    2.440340710551293E-2   8.347991669457516E-2  
 2.034200000000000E10    3.827466554847008E-2   7.800040649196116E-2  
 2.034400000000000E10    5.081120266112130E-2   7.028101634468689E-2  
 2.034600000000000E10    6.178877782185425E-2   6.056059104344690E-2  
 2.034800000000000E10    7.098063428727301E-2   4.911861812537542E-2  
 2.035000000000000E10    7.805746931190724E-2   3.641410227137260E-2  
 2.035200000000000E10    8.291302461739039E-2   2.269211453483360E-2  
 2.035400000000000E10    8.533624624937089E-2   8.421574045611049E-3  
 2.035600000000000E10    8.537837946888260E-2  -5.895299994721400E-3  
 2.035800000000000E10    8.314463197397629E-2  -2.003658138179960E-2  
 2.036000000000000E10    7.869338121102218E-2  -3.360964919949144E-2  
 2.036200000000000E10    7.196514388435724E-2  -4.649760759562543E-2  
 2.036400000000000E10    6.304272869017494E-2  -5.815156694589269E-2  
 2.036600000000000E10    5.243279279146697E-2  -6.791293742305979E-2  
 2.036800000000000E10    4.019760136046692E-2  -7.581031674889478E-2  
 2.037000000000000E10    2.645602432239400E-2  -8.162519848539609E-2  
 2.037200000000000E10    1.225908573496197E-2  -8.490920123499246E-2  
 2.037400000000000E10   -2.387648321398980E-3  -8.564176022785380E-2  
 2.037600000000000E10   -1.706751106845462E-2  -8.379761127762901E-2  
 2.037800000000000E10   -3.101965357232329E-2  -7.939070042900118E-2  
 2.038000000000000E10   -4.375940733014105E-2  -7.291642603747991E-2  
 2.038200000000000E10   -5.542420811948512E-2  -6.428135040056741E-2  
 2.038400000000000E10   -6.540152461649423E-2  -5.383588733263316E-2  
 2.038600000000000E10   -7.338319159410159E-2  -4.190886563281307E-2  
 2.038800000000000E10   -7.933932480457226E-2  -2.875622427478522E-2  
 2.039000000000000E10   -8.286082436778844E-2  -1.492771471087413E-2  
 2.039200000000000E10   -8.396554158869263E-2  -5.823449759190585E-4  
 2.039400000000000E10   -8.258590900474938E-2   1.358387910397599E-2  
 2.039600000000000E10   -7.895165433372745E-2   2.721223442005714E-2  
 2.039800000000000E10   -7.300676115893232E-2   4.010729349554207E-2  
 2.040000000000000E10   -6.502509474949655E-2   5.164916068447992E-2  
 2.040200000000000E10   -5.519489641082499E-2   6.169571686746726E-2  
 2.040400000000000E10   -4.367962688217469E-2   6.990675076517532E-2  
 2.040600000000000E10   -3.124282200152311E-2   7.588958525911421E-2  
 2.040800000000000E10   -1.792083598119935E-2   7.971344976180370E-2  
 2.041000000000000E10   -4.389727998759876E-3   8.122928244379402E-2  
 2.041200000000000E10    9.003355885685849E-3   8.062880252129918E-2  
 2.041400000000000E10    2.218436734892910E-2   7.790666283341327E-2  
 2.041600000000000E10    3.480931445679905E-2   7.310075270230529E-2  
 2.041800000000000E10    4.641301740818845E-2   6.633427715750298E-2  
 2.042000000000000E10    5.690807109277636E-2   5.772634052538488E-2  
 2.042200000000000E10    6.582359001188086E-2   4.733304953316070E-2  
 2.042400000000000E10    7.280684829852946E-2   3.564198604282741E-2  
 2.042600000000000E10    7.781960284683284E-2   2.282360377457229E-2  
 2.042800000000000E10    8.062098394644635E-2   9.270658307890353E-3  
 2.043000000000000E10    8.100238281470554E-2  -4.510282972033685E-3  
 2.043200000000000E10    7.900045440604046E-2  -1.828750908815394E-2  
 2.043400000000000E10    7.466227813600521E-2  -3.157072355464932E-2  
 2.043600000000000E10    6.812293063473522E-2  -4.362280250768325E-2  
 2.043800000000000E10    5.949070766948228E-2  -5.445798616174040E-2  
 2.044000000000000E10    4.912555195125831E-2  -6.357372103864899E-2  
 2.044200000000000E10    3.764285727550312E-2  -7.068850840329036E-2  
 2.044400000000000E10    2.512094285230291E-2  -7.580122096025987E-2  
 2.044600000000000E10    1.193267227694304E-2  -7.881246821043823E-2  
 2.044800000000000E10   -1.637263950859949E-3  -7.952728688221775E-2  
 2.045000000000000E10   -1.512783926402579E-2  -7.788053522080371E-2  
 2.045200000000000E10   -2.797225578106807E-2  -7.396975054111277E-2  
 2.045400000000000E10   -4.004019851708464E-2  -6.785204185684216E-2  
 2.045600000000000E10   -5.063528853436376E-2  -5.985635539752158E-2  
 2.045800000000000E10   -5.966373793040781E-2  -5.028104016776221E-2  
 2.046000000000000E10   -6.693601267108443E-2  -3.937666642729003E-2  
 2.046200000000000E10   -7.232252792601228E-2  -2.756717784533425E-2  
 2.046400000000000E10   -7.571153284203309E-2  -1.505923456128328E-2  
 2.046600000000000E10   -7.694059881696203E-2  -2.012672845173262E-3  
 2.046800000000000E10   -7.592656982688167E-2   1.092340357941183E-2  
 2.047000000000000E10   -7.272392755745935E-2   2.342593602626806E-2  
 2.047200000000000E10   -6.751375700512874E-2   3.514632217952079E-2  
 2.047400000000000E10   -6.043603309477357E-2   4.568860263123701E-2  
 2.047600000000000E10   -5.189138358196840E-2   5.480673142988429E-2  
 2.047800000000000E10   -4.194576180560987E-2   6.252699613348593E-2  
 2.048000000000000E10   -3.092820863686841E-2   6.847465261745059E-2  
 2.048200000000000E10   -1.912811110937904E-2   7.243162908255435E-2  
 2.048400000000000E10   -6.697889927406360E-3   7.449758003465785E-2  
 2.048600000000000E10    5.704355660844138E-3   7.447092921739429E-2  
 2.048800000000000E10    1.808904630016994E-2   7.238210449152796E-2  
 2.049000000000000E10    2.989302637600693E-2   6.829142067733773E-2  
 2.049200000000000E10    4.085001600849001E-2   6.220809060604976E-2  
 2.049400000000000E10    5.052107631019302E-2   5.443426994886491E-2  
 2.049600000000000E10    5.880890490354450E-2   4.511916555734159E-2  
 2.049800000000000E10    6.537774963325127E-2   3.463934822471618E-2  
 2.050000000000000E10    7.009024819283385E-2   2.314526042283742E-2  
 2.050200000000000E10    7.282042301979662E-2   1.103577321860963E-2  
 2.050400000000000E10    7.345695796619070E-2  -1.150439395839676E-3  
 2.050600000000000E10    7.210707189511922E-2  -1.327495173840386E-2  
 2.050800000000000E10    6.884919368107255E-2  -2.508793648585783E-2  
 2.051000000000000E10    6.365483215092245E-2  -3.619057425503953E-2  
 2.051200000000000E10    5.661409988833573E-2  -4.627408924464446E-2  
 2.051400000000000E10    4.796531091218545E-2  -5.497618000389437E-2  
 2.051600000000000E10    3.806729927626482E-2  -6.206908338792029E-2  
 2.051800000000000E10    2.715089211879841E-2  -6.737660636433329E-2  
 2.052000000000000E10    1.550394897025774E-2  -7.082355239516636E-2  
 2.052200000000000E10    3.443013055801566E-3  -7.226839379253643E-2  
 2.052400000000000E10   -8.495263787543761E-3  -7.169587499206705E-2  
 2.052600000000000E10   -2.013222780187477E-2  -6.916320420166092E-2  
 2.052800000000000E10   -3.123595955915212E-2  -6.479982324203862E-2  
 2.053000000000000E10   -4.146271975293566E-2  -5.865088551922379E-2  
 2.053200000000000E10   -5.050150695787918E-2  -5.097976995708044E-2  
 2.053400000000000E10   -5.820060909412921E-2  -4.191204538526365E-2  
 2.053600000000000E10   -6.427020053080912E-2  -3.173186719116264E-2  
 2.053800000000000E10   -6.859279632597129E-2  -2.077792482967770E-2  
 2.054000000000000E10   -7.114549913922323E-2  -9.114238816279711E-3  
 2.054200000000000E10   -7.176109008869192E-2   2.708920326698251E-3  
 2.054400000000000E10   -7.040806247915721E-2   1.456780972602070E-2  
 2.054600000000000E10   -6.705382993871688E-2   2.615603597182975E-2  
 2.054800000000000E10   -6.185332328396825E-2   3.691762403014811E-2  
 2.055000000000000E10   -5.489663607372518E-2   4.672841790380114E-2  
 2.055200000000000E10   -4.635746535972714E-2   5.529046320274904E-2  
 2.055400000000000E10   -3.658076167853845E-2   6.223985359208200E-2  
 2.055600000000000E10   -2.571930808914600E-2   6.750628009748153E-2  
