#  HZ   S   RI   R     50.00 
! Rohde & Schwarz ZVA40 4Ports - Version 3.90 - 1145.1110k42 SN: 100403
! Date: 2023-09-28 10:30:23
! Measurement: S12 
! 
 2.000000000000000E10    7.450951773519664E-2  -5.818426117374208E-2  
 2.000200000000000E10    6.450136230451589E-2  -6.946052075543455E-2  
 2.000400000000000E10    5.191368429561229E-2  -7.937870324840028E-2  
 2.000600000000000E10    3.774668744993702E-2  -8.708961690548728E-2  
 2.000800000000000E10    2.246082740275053E-2  -9.233918416198302E-2  
 2.001000000000000E10    6.199057233872221E-3  -9.492730654921235E-2  
 2.001200000000000E10   -1.016223685283711E-2  -9.455215199750236E-2  
 2.001400000000000E10   -2.611596933249563E-2  -9.134932221854211E-2  
 2.001600000000000E10   -4.134408833022494E-2  -8.541436795500057E-2  
 2.001800000000000E10   -5.514998500816651E-2  -7.715391214042157E-2  
 2.002000000000000E10   -6.753054836579164E-2  -6.649583754088206E-2  
 2.002200000000000E10   -7.845057972599834E-2  -5.298577011512862E-2  
 2.002400000000000E10   -8.615993889288746E-2  -3.901189632392013E-2  
 2.002600000000000E10   -9.140223767571008E-2  -2.380509784026966E-2  
 2.002800000000000E10   -9.402858019694242E-2  -8.002402079658480E-3  
 2.003000000000000E10   -9.389577059992497E-2   7.977166487568226E-3  
 2.003200000000000E10   -9.108418312692417E-2   2.362823960507886E-2  
 2.003400000000000E10   -8.556403275092164E-2   3.870401530100572E-2  
 2.003600000000000E10   -7.773612354034926E-2   5.249124143396341E-2  
 2.003800000000000E10   -6.786109138261876E-2   6.459409581045066E-2  
 2.004000000000000E10   -5.591679459463581E-2   7.507397575963408E-2  
 2.004200000000000E10   -4.252648430016795E-2   8.335746358613166E-2  
 2.004400000000000E10   -2.790173446445136E-2   8.936997438637198E-2  
 2.004600000000000E10   -1.263342024054670E-2   9.281287508817256E-2  
 2.004800000000000E10    3.445126023261704E-3   9.367635396177186E-2  
 2.005000000000000E10    1.922596268974722E-2   9.174711513669713E-2  
 2.005200000000000E10    3.440636204542393E-2   8.724513245809690E-2  
 2.005400000000000E10    4.873158494747140E-2   8.019734959304128E-2  
 2.005600000000000E10    6.161791755211814E-2   7.085196939864082E-2  
 2.005800000000000E10    7.281939075610183E-2   5.936657614031232E-2  
 2.006000000000000E10    8.178817580361664E-2   4.615756718355114E-2  
 2.006200000000000E10    8.843781508177741E-2   3.160393911094478E-2  
 2.006400000000000E10    9.242455784884134E-2   1.630069696507701E-2  
 2.006600000000000E10    9.385015661608639E-2   3.622995427678956E-4  
 2.006800000000000E10    9.256307584959186E-2  -1.553080363490918E-2  
 2.007000000000000E10    8.861847779326471E-2  -3.092794003028005E-2  
 2.007200000000000E10    8.210326027075228E-2  -4.548849785038298E-2  
 2.007400000000000E10    7.324338836928461E-2  -5.881469248497835E-2  
 2.007600000000000E10    6.226410332680401E-2  -7.032656044357369E-2  
 2.007800000000000E10    4.945032941385172E-2  -7.984868851977188E-2  
 2.008000000000000E10    3.538277623078616E-2  -8.710907491815850E-2  
 2.008200000000000E10    1.983515964602305E-2  -9.200763327251001E-2  
 2.008400000000000E10    4.134975077456583E-3  -9.404986574174343E-2  
 2.008600000000000E10   -1.203335829077934E-2  -9.325738428932229E-2  
 2.008800000000000E10   -2.772071926007219E-2  -8.968411330888036E-2  
 2.009000000000000E10   -4.237949382296401E-2  -8.365321472964485E-2  
 2.009200000000000E10   -5.585680163904569E-2  -7.528424082117975E-2  
 2.009400000000000E10   -6.768554597413738E-2  -6.475990179020560E-2  
 2.009600000000000E10   -7.776729219613152E-2  -5.217890597482512E-2  
 2.009800000000000E10   -8.531145392334325E-2  -3.849984887262500E-2  
 2.010000000000000E10   -9.060773812518416E-2  -2.355908499933861E-2  
 2.010200000000000E10   -9.329686385101066E-2  -7.896240009117346E-3  
 2.010400000000000E10   -9.336394041012554E-2   8.079213046114909E-3  
 2.010600000000000E10   -9.058745237426372E-2   2.379573260400116E-2  
 2.010800000000000E10   -8.524244739236456E-2   3.872025624902989E-2  
 2.011000000000000E10   -7.741716788131378E-2   5.259401607955461E-2  
 2.011200000000000E10   -6.730712115606553E-2   6.496629385037207E-2  
 2.011400000000000E10   -5.539078067528594E-2   7.524965828139238E-2  
 2.011600000000000E10   -4.187720076900235E-2   8.350071128703192E-2  
 2.011800000000000E10   -2.726950167149536E-2   8.938878750919477E-2  
 2.012000000000000E10   -1.177233015253576E-2   9.278981558774672E-2  
 2.012200000000000E10    4.099272455262925E-3   9.353468474006944E-2  
 2.012400000000000E10    1.971140471376391E-2   9.161126195110930E-2  
 2.012600000000000E10    3.515700233931179E-2   8.702496798953048E-2  
 2.012800000000000E10    4.936256787438308E-2   7.978399915004061E-2  
 2.013000000000000E10    6.224488922141791E-2   7.019895666589801E-2  
 2.013200000000000E10    7.310705602979332E-2   5.873530739175530E-2  
 2.013400000000000E10    8.205463338602566E-2   4.551019489159718E-2  
 2.013600000000000E10    8.860721724513708E-2   3.082251851645436E-2  
 2.013800000000000E10    9.260002283164548E-2   1.557622043307088E-2  
 2.014000000000000E10    9.402891559937636E-2  -3.878562219345860E-4  
 2.014200000000000E10    9.286359932230286E-2  -1.631939628456393E-2  
 2.014400000000000E10    8.890720464617141E-2  -3.185751980542789E-2  
 2.014600000000000E10    8.219726189770482E-2  -4.681299737327716E-2  
 2.014800000000000E10    7.293710645307416E-2  -6.018931192784549E-2  
 2.015000000000000E10    6.146298222559419E-2  -7.173453662676940E-2  
 2.015200000000000E10    4.839045404010503E-2  -8.099086240387073E-2  
 2.015400000000000E10    3.381144444126642E-2  -8.804253934021829E-2  
 2.015600000000000E10    1.815099604089546E-2  -9.245599661731344E-2  
 2.015800000000000E10    2.399686646130595E-3  -9.407183597596691E-2  
 2.016000000000000E10   -1.363434294201595E-2  -9.305692526958817E-2  
 2.016200000000000E10   -2.933006236679162E-2  -8.936350810686808E-2  
 2.016400000000000E10   -4.398202327256340E-2  -8.308089266804244E-2  
 2.016600000000000E10   -5.742956293506968E-2  -7.437522080106337E-2  
 2.016800000000000E10   -6.924001847402879E-2  -6.337286619849945E-2  
 2.017000000000000E10   -7.884632840041632E-2  -5.053898646409215E-2  
 2.017200000000000E10   -8.607661204363648E-2  -3.630758993153874E-2  
 2.017400000000000E10   -9.071121603582133E-2  -2.141095844745543E-2  
 2.017600000000000E10   -9.300032198839341E-2  -5.618976953341366E-3  
 2.017800000000000E10   -9.263787921522751E-2   9.908702262208625E-3  
 2.018000000000000E10   -8.964522455082551E-2   2.543095873694700E-2  
 2.018200000000000E10   -8.407839928639145E-2   4.023727893600977E-2  
 2.018400000000000E10   -7.617574078184135E-2   5.381428959577163E-2  
 2.018600000000000E10   -6.594998692648947E-2   6.596474084434723E-2  
 2.018800000000000E10   -5.371108119909702E-2   7.627420693798345E-2  
 2.019000000000000E10   -4.001668366618980E-2   8.412027687258139E-2  
 2.019200000000000E10   -2.517569581472813E-2   8.955858010961866E-2  
 2.019400000000000E10   -9.887388774342892E-3   9.247562129187159E-2  
 2.019600000000000E10    5.695159155341042E-3   9.305119343765708E-2  
 2.019800000000000E10    2.153032091983279E-2   9.097588994917097E-2  
 2.020000000000000E10    3.661881012791733E-2   8.626014208318367E-2  
 2.020200000000000E10    5.089510981929497E-2   7.883856184731554E-2  
 2.020400000000000E10    6.353117970517483E-2   6.921710960283163E-2  
 2.020600000000000E10    7.452585279829067E-2   5.748966819732877E-2  
 2.020800000000000E10    8.345105457564846E-2   4.391018425319514E-2  
 2.021000000000000E10    8.983543645026246E-2   2.910873344885378E-2  
 2.021200000000000E10    9.355691440399598E-2   1.336036346027031E-2  
 2.021400000000000E10    9.461301122199171E-2  -2.958057009319357E-3  
 2.021600000000000E10    9.279556777044673E-2  -1.914449002382544E-2  
 2.021800000000000E10    8.806438031071469E-2  -3.491008461541147E-2  
 2.022000000000000E10    8.076947898596040E-2  -4.926496176661670E-2  
 2.022200000000000E10    7.110217876855036E-2  -6.235296518574696E-2  
 2.022400000000000E10    5.941578929083290E-2  -7.358641314217060E-2  
 2.022600000000000E10    4.598801729952599E-2  -8.264400717844626E-2  
 2.022800000000000E10    3.102250088256997E-2  -8.927892788950345E-2  
 2.023000000000000E10    1.520906124614569E-2  -9.315665335563060E-2  
 2.023200000000000E10   -7.231431098301824E-4  -9.416568223075875E-2  
 2.023400000000000E10   -1.683642202794242E-2  -9.250291184460488E-2  
 2.023600000000000E10   -3.211858835060127E-2  -8.833675771197350E-2  
 2.023800000000000E10   -4.667498780080306E-2  -8.162673836665693E-2  
 2.024000000000000E10   -5.984874603164068E-2  -7.250325237265347E-2  
 2.024200000000000E10   -7.130893710416732E-2  -6.112069637926638E-2  
 2.024400000000000E10   -8.060979535285522E-2  -4.790391952632381E-2  
 2.024600000000000E10   -8.733570382362116E-2  -3.348241257422848E-2  
 2.024800000000000E10   -9.153470160851111E-2  -1.826498543889428E-2  
 2.025000000000000E10   -9.317112087691867E-2  -2.380935939521967E-3  
 2.025200000000000E10   -9.220712342397690E-2   1.308812063884137E-2  
 2.025400000000000E10   -8.860417396007662E-2   2.847307765745875E-2  
 2.025600000000000E10   -8.236478501317274E-2   4.306177673636132E-2  
 2.025800000000000E10   -7.413380057629318E-2   5.602102443727851E-2  
 2.026000000000000E10   -6.373595744422728E-2   6.768038207746710E-2  
 2.026200000000000E10   -5.150344204151318E-2   7.754839278606596E-2  
 2.026400000000000E10   -3.768372895812780E-2   8.525065396786988E-2  
 2.026600000000000E10   -2.276327057831693E-2   9.045373862946271E-2  
 2.026800000000000E10   -7.317186590250143E-3   9.313050885075210E-2  
 2.027000000000000E10    8.538769165570824E-3   9.321226624299965E-2  
 2.027200000000000E10    2.438506395711467E-2   9.061233381058080E-2  
 2.027400000000000E10    3.947609394177853E-2   8.531768731505851E-2  
 2.027600000000000E10    5.360469038480027E-2   7.737627507791567E-2  
 2.027800000000000E10    6.603442591246050E-2   6.712012078519046E-2  
 2.028000000000000E10    7.653962597031253E-2   5.495070779478918E-2  
 2.028200000000000E10    8.483880787550466E-2   4.098708101382650E-2  
 2.028400000000000E10    9.056904916678879E-2   2.584448508858535E-2  
 2.028600000000000E10    9.357843701417801E-2   1.017166896071477E-2  
 2.028800000000000E10    9.395410528719214E-2  -5.895012984653940E-3  
 2.029000000000000E10    9.164497693253003E-2  -2.162363059576505E-2  
 2.029200000000000E10    8.674581080383650E-2  -3.696025542982055E-2  
 2.029400000000000E10    7.930455991279412E-2  -5.124455170525667E-2  
 2.029600000000000E10    6.945138084944673E-2  -6.410311248680986E-2  
 2.029800000000000E10    5.740117170526460E-2  -7.508805255101222E-2  
 2.030000000000000E10    4.382862848563182E-2  -8.376561792700575E-2  
 2.030200000000000E10    2.887455950414878E-2  -8.994526772092459E-2  
 2.030400000000000E10    1.296546649488014E-2  -9.353012088756807E-2  
 2.030600000000000E10   -2.923938208974417E-3  -9.433903880208762E-2  
 2.030800000000000E10   -1.895221870306152E-2  -9.251655710832352E-2  
 2.031000000000000E10   -3.446505655552858E-2  -8.793908771652140E-2  
 2.031200000000000E10   -4.888126527282020E-2  -8.084264634148793E-2  
 2.031400000000000E10   -6.205850871660129E-2  -7.124489160727597E-2  
 2.031600000000000E10   -7.300124971512698E-2  -5.992346895466812E-2  
 2.031800000000000E10   -8.198926298134229E-2  -4.681440404779183E-2  
 2.032000000000000E10   -8.877188115828541E-2  -3.200625109447210E-2  
 2.032200000000000E10   -9.285227512322679E-2  -1.639893003732691E-2  
 2.032400000000000E10   -9.425159581621433E-2  -3.451755813972206E-4  
 2.032600000000000E10   -9.285891028532409E-2   1.567444778904131E-2  
 2.032800000000000E10   -8.875877662340832E-2   3.124040368471660E-2  
 2.033000000000000E10   -8.200488610189072E-2   4.586960492974641E-2  
 2.033200000000000E10   -7.283381566674950E-2   5.909591518625547E-2  
 2.033400000000000E10   -6.184806497763696E-2   7.035260814568829E-2  
 2.033600000000000E10   -5.623746526812336E-2   7.498318318022136E-2  
 2.033800000000000E10   -3.445248522841500E-2   8.708621836424617E-2  
 2.034000000000000E10   -1.928836957486875E-2   9.164013717363445E-2  
 2.034200000000000E10   -3.259347969914485E-3   9.357483562823360E-2  
 2.034400000000000E10    1.272483601266720E-2   9.268214775475035E-2  
 2.034600000000000E10    2.816293982611413E-2   8.900284644565526E-2  
 2.034800000000000E10    4.278437635789247E-2   8.279585700757736E-2  
 2.035000000000000E10    5.600225194296325E-2   7.430131805173004E-2  
 2.035200000000000E10    6.763813601185961E-2   6.369187448105415E-2  
 2.035400000000000E10    7.723631466979961E-2   5.134088767098208E-2  
 2.035600000000000E10    8.463635708700593E-2   3.776167963269588E-2  
 2.035800000000000E10    8.979559498091497E-2   2.312383001222628E-2  
 2.036000000000000E10    9.257121724207949E-2   7.776528913124186E-3  
 2.036200000000000E10    9.268046373414492E-2  -7.998557365214242E-3  
 2.036400000000000E10    9.009291660083740E-2  -2.370376981515850E-2  
 2.036600000000000E10    8.495037274714029E-2  -3.853528156622987E-2  
 2.036800000000000E10    7.732442911599831E-2  -5.242509840511474E-2  
 2.037000000000000E10    6.721635992277418E-2  -6.502337508472580E-2  
 2.037200000000000E10    5.531289383806833E-2  -7.547804597717105E-2  
 2.037400000000000E10    4.171347212850892E-2  -8.383370360908893E-2  
 2.037600000000000E10    2.669178185123666E-2  -8.978813207732991E-2  
 2.037800000000000E10    1.099982098516409E-2  -9.296665003959781E-2  
 2.038000000000000E10   -4.826996390570746E-3  -9.346759154054740E-2  
 2.038200000000000E10   -2.071164754958079E-2  -9.126833096370683E-2  
 2.038400000000000E10   -3.584302227724803E-2  -8.643742165528170E-2  
 2.038600000000000E10   -4.997280062692263E-2  -7.905946596580382E-2  
 2.038800000000000E10   -6.285488385533199E-2  -6.935918128669366E-2  
 2.039000000000000E10   -7.361611012564953E-2  -5.775393245829352E-2  
 2.039200000000000E10   -8.235085610882109E-2  -4.427811656663530E-2  
 2.039400000000000E10   -8.861006792209286E-2  -2.952464031150423E-2  
 2.039600000000000E10   -9.226775382843125E-2  -1.421092144184390E-2  
 2.039800000000000E10   -9.326808582337245E-2   1.652898494512884E-3  
 2.040000000000000E10   -9.158716232011531E-2   1.746616171295357E-2  
 2.040200000000000E10   -8.724365262436409E-2   3.270861898456616E-2  
 2.040400000000000E10   -8.021128060682126E-2   4.704089603192899E-2  
 2.040600000000000E10   -7.093412069741589E-2   5.971128130718326E-2  
 2.040800000000000E10   -5.967545990462157E-2   7.071756832811907E-2  
 2.041000000000000E10   -4.694301946423576E-2   7.958430102211932E-2  
 2.041200000000000E10   -3.306856016925922E-2   8.624738594350018E-2  
 2.041400000000000E10   -1.814891579463041E-2   9.065951382585949E-2  
 2.041600000000000E10   -2.758396405614121E-3   9.257825366813881E-2  
 2.041800000000000E10    1.281894535010609E-2   9.191141121514641E-2  
 2.042000000000000E10    2.829326345342507E-2   8.864329406928984E-2  
 2.042200000000000E10    4.306310578008887E-2   8.260472102632466E-2  
 2.042400000000000E10    5.639685046384052E-2   7.419302850819359E-2  
 2.042600000000000E10    6.832219422741351E-2   6.356565194331307E-2  
 2.042800000000000E10    7.824700201778939E-2   5.102876368414168E-2  
 2.043000000000000E10    8.581747012456073E-2   3.702257451222514E-2  
 2.043200000000000E10    9.096681208411815E-2   2.184524111029253E-2  
 2.043400000000000E10    9.348122119520944E-2   5.816611816922665E-3  
 2.043600000000000E10    9.308484038582773E-2  -1.009804052734871E-2  
 2.043800000000000E10    8.988380442819306E-2  -2.586089361121213E-2  
 2.044000000000000E10    8.403583048709375E-2  -4.074658346153956E-2  
 2.044200000000000E10    7.592248622070824E-2  -5.430469081677069E-2  
 2.044400000000000E10    6.558936611190785E-2  -6.639916455382786E-2  
 2.044600000000000E10    5.335474120484065E-2  -7.664236552425013E-2  
 2.044800000000000E10    3.945321101246470E-2  -8.468824077298237E-2  
 2.045000000000000E10    2.427786996139792E-2  -9.020760322000192E-2  
 2.045200000000000E10    8.561583445846923E-3  -9.294941296891687E-2  
 2.045400000000000E10   -7.533183770919201E-3  -9.292068680753017E-2  
 2.045600000000000E10   -2.324247014575067E-2  -9.010591077593080E-2  
 2.045800000000000E10   -3.809941426370328E-2  -8.465830653390473E-2  
 2.046000000000000E10   -5.183246894517520E-2  -7.683262223832257E-2  
 2.046200000000000E10   -6.395959618329697E-2  -6.693343272175473E-2  
 2.046400000000000E10   -7.434948825938706E-2  -5.508297188009826E-2  
 2.046600000000000E10   -8.259420168407752E-2  -4.148855243689169E-2  
 2.046800000000000E10   -8.835947857634414E-2  -2.679710829036379E-2  
 2.047000000000000E10   -9.150124315352495E-2  -1.129857382646370E-2  
 2.047200000000000E10   -9.196189966025245E-2   4.372185904066600E-3  
 2.047400000000000E10   -8.974602868567490E-2   1.973520763195135E-2  
 2.047600000000000E10   -8.502951623642541E-2   3.452065188919884E-2  
 2.047800000000000E10   -7.789381655239823E-2   4.843646858762753E-2  
 2.048000000000000E10   -6.864936427477286E-2   6.082079842331613E-2  
 2.048200000000000E10   -5.736026384995273E-2   7.151021421302858E-2  
 2.048400000000000E10   -4.434080237051871E-2   8.028041617122268E-2  
 2.048600000000000E10   -3.019185710871768E-2   8.661421518989432E-2  
 2.048800000000000E10   -1.488314711533869E-2   9.054341204894301E-2  
 2.049000000000000E10    8.326215246291565E-4   9.181380636620296E-2  
 2.049200000000000E10    1.649184403124623E-2   9.022524982530092E-2  
 2.049400000000000E10    3.146776915159075E-2   8.602383196378943E-2  
 2.049600000000000E10    4.566520223611725E-2   7.933143653528910E-2  
 2.049800000000000E10    5.839864080676863E-2   7.039094394607831E-2  
 2.050000000000000E10    6.946003330286860E-2   5.936137403443532E-2  
 2.050200000000000E10    7.853214586549365E-2   4.656057565899807E-2  
 2.050400000000000E10    8.517859186394297E-2   3.257964058242270E-2  
 2.050600000000000E10    8.939566630136098E-2   1.769892825603231E-2  
 2.050800000000000E10    9.112244869828445E-2   2.165815411584578E-3  
 2.051000000000000E10    9.014439900283186E-2  -1.335948090470951E-2  
 2.051200000000000E10    8.642634648254245E-2  -2.855916550242860E-2  
 2.051400000000000E10    8.015146654062587E-2  -4.284326563863863E-2  
 2.051600000000000E10    7.164807352951735E-2  -5.569324588742576E-2  
 2.051800000000000E10    6.106078135989869E-2  -6.695037801780952E-2  
 2.052000000000000E10    4.880588147403434E-2  -7.627310425556466E-2  
 2.052200000000000E10    3.505826047019431E-2  -8.335013836385496E-2  
 2.052400000000000E10    2.045896665779223E-2  -8.798007401416957E-2  
 2.052600000000000E10    5.312419380958217E-3  -9.013279628057391E-2  
 2.052800000000000E10   -9.931350264503862E-3  -8.969786076460701E-2  
 2.053000000000000E10   -2.499695754353259E-2  -8.668698907095915E-2  
 2.053200000000000E10   -3.932950447164646E-2  -8.117730126504258E-2  
 2.053400000000000E10   -5.245605678646723E-2  -7.340528357186901E-2  
 2.053600000000000E10   -6.415568056893781E-2  -6.343469024470000E-2  
 2.053800000000000E10   -7.402285380804333E-2  -5.170905458124932E-2  
 2.054000000000000E10   -8.182302014826723E-2  -3.845756785808560E-2  
 2.054200000000000E10   -8.732063894761066E-2  -2.408488333284432E-2  
 2.054400000000000E10   -9.027855409558887E-2  -8.787654023681660E-3  
 2.054600000000000E10   -9.048762806481192E-2   6.911675559903336E-3  
 2.054800000000000E10   -8.806843143866217E-2   2.223111576247466E-2  
 2.055000000000000E10   -8.300126618526425E-2   3.700705035612695E-2  
 2.055200000000000E10   -7.539994084619668E-2   5.074607310187442E-2  
 2.055400000000000E10   -6.552215655393150E-2   6.292446614468272E-2  
 2.055600000000000E10   -5.367736927210157E-2   7.319484922314350E-2  
