#  HZ   S   RI   R     50.00 
! Rohde & Schwarz ZVA40 4Ports - Version 3.90 - 1145.1110k42 SN: 100403
! Date: 2023-09-28 10:36:13
! Measurement: S12 
! 
 2.000000000000000E10   -2.087802286661781E-2   9.701842793309662E-2  
 2.000200000000000E10   -5.270344883161365E-3   9.940432057227007E-2  
 2.000400000000000E10    1.156153507454605E-2   9.895789296552371E-2  
 2.000600000000000E10    2.824281665461783E-2   9.568557543858772E-2  
 2.000800000000000E10    4.402677284664652E-2   8.960731500925108E-2  
 2.001000000000000E10    5.893515844968222E-2   8.077843506227016E-2  
 2.001200000000000E10    7.186319490653333E-2   6.966966118990157E-2  
 2.001400000000000E10    8.292252929437802E-2   5.627582864510798E-2  
 2.001600000000000E10    9.137452804726223E-2   4.123876221206329E-2  
 2.001800000000000E10    9.715896819754823E-2   2.490211102647998E-2  
 2.002000000000000E10    9.993996119614382E-2   7.717386698987029E-3  
 2.002200000000000E10    9.949743302498333E-2  -1.083757359189158E-2  
 2.002400000000000E10    9.616686380509713E-2  -2.743126747682084E-2  
 2.002600000000000E10    9.008528701709320E-2  -4.331878350278939E-2  
 2.002800000000000E10    8.136301136699814E-2  -5.807632058408424E-2  
 2.003000000000000E10    7.036913887435217E-2  -7.098356118784480E-2  
 2.003200000000000E10    5.719821208588911E-2  -8.193333215534453E-2  
 2.003400000000000E10    4.236501561339208E-2  -9.039254454133530E-2  
 2.003600000000000E10    2.622500996027349E-2  -9.628284021632377E-2  
 2.003800000000000E10    9.587423897582922E-3  -9.922321583947559E-2  
 2.004000000000000E10   -7.462322582361586E-3  -9.934025865742963E-2  
 2.004200000000000E10   -2.427971350806452E-2  -9.651350438308147E-2  
 2.004400000000000E10   -4.025501109800107E-2  -9.092428671203139E-2  
 2.004600000000000E10   -5.487841837450452E-2  -8.281271132912152E-2  
 2.004800000000000E10   -6.814770589523525E-2  -7.229095545347973E-2  
 2.005000000000000E10   -7.943264612766118E-2  -5.975262826385987E-2  
 2.005200000000000E10   -8.855126873694638E-2  -4.554135583389195E-2  
 2.005400000000000E10   -9.519567628962967E-2  -2.992069800059992E-2  
 2.005600000000000E10   -9.901698639730847E-2  -1.307515262622532E-2  
 2.005800000000000E10   -9.976692236280477E-2   4.027089730213819E-3  
 2.006000000000000E10   -9.746172398734565E-2   2.109606851830868E-2  
 2.006200000000000E10   -9.241307954236244E-2   3.719493071683098E-2  
 2.006400000000000E10   -8.473267325914032E-2   5.215730056285003E-2  
 2.006600000000000E10   -7.451604831351257E-2   6.586686481076735E-2  
 2.006800000000000E10   -6.227869388618784E-2   7.739148379080295E-2  
 2.007000000000000E10   -4.828967704861011E-2   8.670200160401495E-2  
 2.007200000000000E10   -3.314872403349818E-2   9.356031249058205E-2  
 2.007400000000000E10   -1.669087789302443E-2   9.793092086831712E-2  
 2.007600000000000E10    5.197689918728411E-5   9.934034783172779E-2  
 2.007800000000000E10    1.679701815036615E-2   9.787242805472372E-2  
 2.008000000000000E10    3.305741738909129E-2   9.361736056456371E-2  
 2.008200000000000E10    4.852239397195617E-2   8.663648254795281E-2  
 2.008400000000000E10    6.227228451183252E-2   7.733115015991836E-2  
 2.008600000000000E10    7.441219864386173E-2   6.576520292892669E-2  
 2.008800000000000E10    8.449390024998064E-2   5.217009355981092E-2  
 2.009000000000000E10    9.206429980135658E-2   3.710258059469479E-2  
 2.009200000000000E10    9.686790307428489E-2   2.122088051785049E-2  
 2.009400000000000E10    9.905528726245200E-2   4.731337686933728E-3  
 2.009600000000000E10    9.854599365803628E-2  -1.193141711553385E-2  
 2.009800000000000E10    9.532318508624124E-2  -2.825845035296179E-2  
 2.010000000000000E10    8.929869030832723E-2  -4.407279274841790E-2  
 2.010200000000000E10    8.073942617847971E-2  -5.836598906479237E-2  
 2.010400000000000E10    6.985591732747962E-2  -7.129987594719417E-2  
 2.010600000000000E10    5.705465326834007E-2  -8.217282099749779E-2  
 2.010800000000000E10    4.232800613641669E-2  -9.097280568097532E-2  
 2.011000000000000E10    2.634303053062898E-2  -9.691822551740101E-2  
 2.011200000000000E10    9.482941564509587E-3  -1.000356247142031E-1  
 2.011400000000000E10   -7.662960973931697E-3  -1.002642796206649E-1  
 2.011600000000000E10   -2.450781296092962E-2  -9.763878324641154E-2  
 2.011800000000000E10   -4.079875954578222E-2  -9.212197411941853E-2  
 2.012000000000000E10   -5.591683764321756E-2  -8.386735189897561E-2  
 2.012200000000000E10   -6.934150050239246E-2  -7.318635964145201E-2  
 2.012400000000000E10   -8.074652926580948E-2  -6.037883074750473E-2  
 2.012600000000000E10   -8.978391922356127E-2  -4.585416082482502E-2  
 2.012800000000000E10   -9.627246127529601E-2  -2.985064303775140E-2  
 2.013000000000000E10   -9.984254885260693E-2  -1.310199632088459E-2  
 2.013200000000000E10   -1.004444798808094E-1   3.877369183628395E-3  
 2.013400000000000E10   -9.824076674676843E-2   2.086010826952999E-2  
 2.013600000000000E10   -9.329178039168189E-2   3.702154404273542E-2  
 2.013800000000000E10   -8.581262894915931E-2   5.212024513457117E-2  
 2.014000000000000E10   -7.577965490969316E-2   6.592612148204884E-2  
 2.014200000000000E10   -6.368880033607612E-2   7.788665147672091E-2  
 2.014400000000000E10   -4.972007611381969E-2   8.753600244401552E-2  
 2.014600000000000E10   -3.415097522610733E-2   9.473984390731899E-2  
 2.014800000000000E10   -1.745860560275937E-2   9.909385223881084E-2  
 2.015000000000000E10   -3.805289754483942E-4   1.005104336402514E-1  
 2.015200000000000E10    1.636812883588543E-2   9.903118923826565E-2  
 2.015400000000000E10    3.293048722345242E-2   9.472162417407430E-2  
 2.015600000000000E10    4.830413047014769E-2   8.779167841928966E-2  
 2.015800000000000E10    6.237947591488580E-2   7.833781118051685E-2  
 2.016000000000000E10    7.458338174941137E-2   6.674610572933040E-2  
 2.016200000000000E10    8.463407683199689E-2   5.336503118096669E-2  
 2.016400000000000E10    9.248176007134523E-2   3.852531581124832E-2  
 2.016600000000000E10    9.780563271126540E-2   2.256003827456960E-2  
 2.016800000000000E10    1.004054402978359E-1   5.690604800263436E-3  
 2.017000000000000E10    1.000309474653327E-1  -1.138533656183424E-2  
 2.017200000000000E10    9.674175769493409E-2  -2.818525308285826E-2  
 2.017400000000000E10    9.057313270306525E-2  -4.424943518548472E-2  
 2.017600000000000E10    8.178180684439548E-2  -5.908219134171508E-2  
 2.017800000000000E10    7.074645240854784E-2  -7.203153308821214E-2  
 2.018000000000000E10    5.739748891465790E-2  -8.309692668454304E-2  
 2.018200000000000E10    4.251511115900970E-2  -9.157490917657357E-2  
 2.018400000000000E10    2.630133764138947E-2  -9.745534606134483E-2  
 2.018600000000000E10    9.468719967644076E-3  -1.004439350419779E-1  
 2.018800000000000E10   -7.743747661794559E-3  -1.005216687463475E-1  
 2.019000000000000E10   -2.457095370047766E-2  -9.766655281196451E-2  
 2.019200000000000E10   -4.069776140665306E-2  -9.211111056208904E-2  
 2.019400000000000E10   -5.583325891610057E-2  -8.380985338516622E-2  
 2.019600000000000E10   -6.920533608862541E-2  -7.320130205760672E-2  
 2.019800000000000E10   -8.053039965619949E-2  -6.042101335813650E-2  
 2.020000000000000E10   -8.960773652582627E-2  -4.579955748627608E-2  
 2.020200000000000E10   -9.598019619116557E-2  -2.993235236774484E-2  
 2.020400000000000E10   -9.956496663418216E-2  -1.335045354879808E-2  
 2.020600000000000E10   -1.003396557433769E-1   3.599938073837013E-3  
 2.020800000000000E10   -9.826573881103209E-2   2.062430428639281E-2  
 2.021000000000000E10   -9.327458087507257E-2   3.705491214481117E-2  
 2.021200000000000E10   -8.563221423496217E-2   5.225094325693984E-2  
 2.021400000000000E10   -7.547825330799567E-2   6.598341864003453E-2  
 2.021600000000000E10   -6.304769796713150E-2   7.784272746803878E-2  
 2.021800000000000E10   -4.884135859214012E-2   8.729173561464158E-2  
 2.022000000000000E10   -3.322766600643072E-2   9.411830663217713E-2  
 2.022200000000000E10   -1.674229282031009E-2   9.817849917712329E-2  
 2.022400000000000E10   -4.123740337369072E-5   9.944501584840067E-2  
 2.022600000000000E10    1.674382170773729E-2   9.790727764397836E-2  
 2.022800000000000E10    3.300239502550622E-2   9.352650779816084E-2  
 2.023000000000000E10    4.832342759382423E-2   8.648285223216067E-2  
 2.023200000000000E10    6.203718927455898E-2   7.706075506572989E-2  
 2.023400000000000E10    7.418986152339022E-2   6.542829957918790E-2  
 2.023600000000000E10    8.415725263852825E-2   5.190794579893557E-2  
 2.023800000000000E10    9.164041937216186E-2   3.679504155820952E-2  
 2.024000000000000E10    9.632277644952533E-2   2.075884271869909E-2  
 2.024200000000000E10    9.826258807671859E-2   4.164399396945223E-3  
 2.024400000000000E10    9.739773912290736E-2  -1.221667829057871E-2  
 2.024600000000000E10    9.389293360155274E-2  -2.844348842701035E-2  
 2.024800000000000E10    8.773542850678187E-2  -4.378295257005208E-2  
 2.025000000000000E10    7.916127725246830E-2  -5.792675138932506E-2  
 2.025200000000000E10    6.850376375852693E-2  -7.034425801557176E-2  
 2.025400000000000E10    5.569997764088569E-2  -8.102828329456949E-2  
 2.025600000000000E10    4.114929985264908E-2  -8.936923929438907E-2  
 2.025800000000000E10    2.550004893721542E-2  -9.515616928590431E-2  
 2.026000000000000E10    9.109768725936189E-3  -9.809812563674721E-2  
 2.026200000000000E10   -7.627301802652887E-3  -9.835185228947549E-2  
 2.026400000000000E10   -2.413112978863882E-2  -9.581807258634373E-2  
 2.026600000000000E10   -4.014757890110104E-2  -9.047866285687090E-2  
 2.026800000000000E10   -5.512071199225953E-2  -8.234700607090943E-2  
 2.027000000000000E10   -6.834754766794639E-2  -7.189588633554611E-2  
 2.027200000000000E10   -7.961052693963491E-2  -5.946172282823221E-2  
 2.027400000000000E10   -8.887315301972848E-2  -4.504187587799979E-2  
 2.027600000000000E10   -9.545464551313160E-2  -2.923573597985663E-2  
 2.027800000000000E10   -9.925990980431747E-2  -1.246181602186922E-2  
 2.028000000000000E10   -1.000256907642085E-1   4.825112782566986E-3  
 2.028200000000000E10   -9.783799024956640E-2   2.200194242581157E-2  
 2.028400000000000E10   -9.263607592307155E-2   3.858228140161600E-2  
 2.028600000000000E10   -8.465428294902871E-2   5.399656506017523E-2  
 2.028800000000000E10   -7.404792151213255E-2   6.783363555726898E-2  
 2.029000000000000E10   -6.116593207642681E-2   7.962852311483293E-2  
 2.029200000000000E10   -4.665428519616893E-2   8.878928596407565E-2  
 2.029400000000000E10   -3.075792166453967E-2   9.540060290322928E-2  
 2.029600000000000E10   -1.389849905072447E-2   9.925542947062431E-2  
 2.029800000000000E10    3.299447936912704E-3   1.002004982402649E-1  
 2.030000000000000E10    2.039864385973806E-2   9.817444987306266E-2  
 2.030200000000000E10    3.694897462801427E-2   9.312749544268699E-2  
 2.030400000000000E10    5.224562285101094E-2   8.535037167868338E-2  
 2.030600000000000E10    6.603276394270394E-2   7.518306375458336E-2  
 2.030800000000000E10    7.798338827457951E-2   6.277393751663632E-2  
 2.031000000000000E10    8.762645303741734E-2   4.844465611884875E-2  
 2.031200000000000E10    9.451240363917501E-2   3.264460069361738E-2  
 2.031400000000000E10    9.855582491117310E-2   1.594208076742751E-2  
 2.031600000000000E10    9.959834211567510E-2  -6.292001815748665E-4  
 2.031800000000000E10    9.797183201154808E-2  -1.752705400276457E-2  
 2.032000000000000E10    9.340105360617787E-2  -3.391227026025913E-2  
 2.032200000000000E10    8.617358184579581E-2  -4.911914091516195E-2  
 2.032400000000000E10    7.653991450825184E-2  -6.288979257294650E-2  
 2.032600000000000E10    6.478366722814152E-2  -7.486076629156385E-2  
 2.032800000000000E10    5.104869930667437E-2  -8.479187520046974E-2  
 2.033000000000000E10    3.594750887370891E-2  -9.208586739203044E-2  
 2.033200000000000E10    1.988290727092970E-2  -9.673300311106889E-2  
 2.033400000000000E10    3.425206098636039E-3  -9.874950565559121E-2  
 2.033600000000000E10   -4.105921158142394E-3  -9.887413918471349E-2  
 2.033800000000000E10   -3.005476787319302E-2  -9.426751583572365E-2  
 2.034000000000000E10   -4.563001450903531E-2  -8.796204308482539E-2  
 2.034200000000000E10   -5.994863908465169E-2  -7.914422835634413E-2  
 2.034400000000000E10   -7.268509800908961E-2  -6.777842890332239E-2  
 2.034600000000000E10   -8.317918434488528E-2  -5.437512439556946E-2  
 2.034800000000000E10   -9.117064861731417E-2  -3.929363419374281E-2  
 2.035000000000000E10   -9.635444757963581E-2  -2.324069865092346E-2  
 2.035200000000000E10   -9.869945739482523E-2  -6.734576394422532E-3  
 2.035400000000000E10   -9.836190485169370E-2   9.836521944146477E-3  
 2.035600000000000E10   -9.540664589138173E-2   2.621513225809950E-2  
 2.035800000000000E10   -8.985441324107180E-2   4.175319397830950E-2  
 2.036000000000000E10   -8.169951846329401E-2   5.647843739890637E-2  
 2.036200000000000E10   -7.095219301053755E-2   6.975412727354662E-2  
 2.036400000000000E10   -5.834323354472337E-2   8.079939178154552E-2  
 2.036600000000000E10   -4.395514426257337E-2   8.967559478257048E-2  
 2.036800000000000E10   -2.801352413521829E-2   9.605348393628657E-2  
 2.037000000000000E10   -1.110868073394425E-2   9.950310593936934E-2  
 2.037200000000000E10    5.990486223296431E-3   9.994809292817689E-2  
 2.037400000000000E10    2.294372870507338E-2   9.736194885914778E-2  
 2.037600000000000E10    3.901231386721731E-2   9.199032827238463E-2  
 2.037800000000000E10    5.401448185563162E-2   8.397247737516496E-2  
 2.038000000000000E10    6.724850568824418E-2   7.377590939351354E-2  
 2.038200000000000E10    7.878930115679481E-2   6.132526295320634E-2  
 2.038400000000000E10    8.805468347615100E-2   4.724219965335468E-2  
 2.038600000000000E10    9.486686137303421E-2   3.189615976908823E-2  
 2.038800000000000E10    9.914396070444197E-2   1.534799891534821E-2  
 2.039000000000000E10    1.005543716223208E-1  -1.669706825178013E-3  
 2.039200000000000E10    9.893301985711864E-2  -1.882979557134284E-2  
 2.039400000000000E10    9.423995105281477E-2  -3.571554441004676E-2  
 2.039600000000000E10    8.677126040146611E-2  -5.111863566092685E-2  
 2.039800000000000E10    7.678035388848496E-2  -6.502052199612622E-2  
 2.040000000000000E10    6.459783600910235E-2  -7.702475300089921E-2  
 2.040200000000000E10    5.064687516360678E-2  -8.675843047808325E-2  
 2.040400000000000E10    3.519970793435692E-2  -9.394717224895038E-2  
 2.040600000000000E10    1.868401519185413E-2  -9.855083346214968E-2  
 2.040800000000000E10    1.854687200970666E-3  -1.002110051035560E-1  
 2.041000000000000E10   -1.505026342481800E-2  -9.902382348784526E-2  
 2.041200000000000E10   -3.147426040036832E-2  -9.504480816306678E-2  
 2.041400000000000E10   -4.701705513508686E-2  -8.845378901769646E-2  
 2.041600000000000E10   -6.122856798018356E-2  -7.933861755282454E-2  
 2.041800000000000E10   -7.396344140677469E-2  -6.775929072845655E-2  
 2.042000000000000E10   -8.423563720762109E-2  -5.441513589964658E-2  
 2.042200000000000E10   -9.211679861093611E-2  -3.939835125776856E-2  
 2.042400000000000E10   -9.739370416180426E-2  -2.335950295774920E-2  
 2.042600000000000E10   -9.999334152931325E-2  -6.591571996361309E-3  
 2.042800000000000E10   -9.973326028511265E-2   1.034642092927559E-2  
 2.043000000000000E10   -9.666861596877706E-2   2.697365051551330E-2  
 2.043200000000000E10   -9.093455625081759E-2   4.299519871611683E-2  
 2.043400000000000E10   -8.237762762885223E-2   5.806400770069989E-2  
 2.043600000000000E10   -7.144415503825707E-2   7.118035498530512E-2  
 2.043800000000000E10   -5.819762566288121E-2   8.229387914820101E-2  
 2.044000000000000E10   -4.316462060334814E-2   9.097794102301929E-2  
 2.044200000000000E10   -2.735054825585698E-2   9.682083734191282E-2  
 2.044400000000000E10   -1.051080654167206E-2   1.001094891994197E-1  
 2.044600000000000E10    6.782052531982827E-3   1.004490051348831E-1  
 2.044800000000000E10    2.381314963128712E-2   9.770477253430587E-2  
 2.045000000000000E10    4.009746608554417E-2   9.200031940973968E-2  
 2.045200000000000E10    5.501262160452860E-2   8.372086925804087E-2  
 2.045400000000000E10    6.813672998465439E-2   7.324834324213958E-2  
 2.045600000000000E10    7.948299062512171E-2   6.066421531167934E-2  
 2.045800000000000E10    8.860654779207933E-2   4.629828313671525E-2  
 2.046000000000000E10    9.509379037973589E-2   3.058940744773734E-2  
 2.046200000000000E10    9.879699581138660E-2   1.388379651029513E-2  
 2.046400000000000E10    9.955403695507911E-2  -3.195607026290045E-3  
 2.046600000000000E10    9.733396860893100E-2  -1.993706945701052E-2  
 2.046800000000000E10    9.238585323503123E-2  -3.608892687305655E-2  
 2.047000000000000E10    8.473197753018504E-2  -5.126562655620875E-2  
 2.047200000000000E10    7.476950156858070E-2  -6.459336052625461E-2  
 2.047400000000000E10    6.260840378641250E-2  -7.619504799427301E-2  
 2.047600000000000E10    4.875736401357170E-2  -8.550487404778180E-2  
 2.047800000000000E10    3.360199090612275E-2  -9.235463145180992E-2  
 2.048000000000000E10    1.741776819922384E-2  -9.647438560735949E-2  
 2.048200000000000E10    8.786354199241658E-4  -9.781596985162008E-2  
 2.048400000000000E10   -1.560075417405833E-2  -9.638619294982513E-2  
 2.048600000000000E10   -3.162896730537322E-2  -9.216609211472744E-2  
 2.048800000000000E10   -4.675109331785809E-2  -8.535412793225178E-2  
 2.049000000000000E10   -6.029693625524042E-2  -7.622877664115967E-2  
 2.049200000000000E10   -7.224101327614174E-2  -6.479499880669554E-2  
 2.049400000000000E10   -8.206801601614154E-2  -5.172153905033562E-2  
 2.049600000000000E10   -8.965936186905185E-2  -3.699046379827534E-2  
 2.049800000000000E10   -9.451529680917961E-2  -2.112536920788885E-2  
 2.050000000000000E10   -9.650763321869982E-2  -4.639053618964305E-3  
 2.050200000000000E10   -9.556918472743574E-2   1.174472279047153E-2  
 2.050400000000000E10   -9.198678814710136E-2   2.753756325804552E-2  
 2.050600000000000E10   -8.592514705749009E-2   4.252307157721320E-2  
 2.050800000000000E10   -7.746150365782588E-2   5.643132934708765E-2  
 2.051000000000000E10   -6.683818496887739E-2   6.865537970161441E-2  
 2.051200000000000E10   -5.421769658178378E-2   7.898905726151920E-2  
 2.051400000000000E10   -3.991755008140821E-2   8.704104200332330E-2  
 2.051600000000000E10   -2.457219337828038E-2   9.246152117196066E-2  
 2.051800000000000E10   -8.436661799882740E-3   9.525220171665630E-2  
 2.052000000000000E10    8.017307563875677E-3   9.516149900117901E-2  
 2.052200000000000E10    2.415069291958096E-2   9.217354105074330E-2  
 2.052400000000000E10    3.926838716597194E-2   8.661396749512337E-2  
 2.052600000000000E10    5.331955926000440E-2   7.857282926461771E-2  
 2.052800000000000E10    6.574663080778630E-2   6.836314969308982E-2  
 2.053000000000000E10    7.640806758058460E-2   5.609205058143717E-2  
 2.053200000000000E10    8.474753929842163E-2   4.223561566122738E-2  
 2.053400000000000E10    9.054495734186524E-2   2.732792335636174E-2  
 2.053600000000000E10    9.389484451378101E-2   1.151534971196106E-2  
 2.053800000000000E10    9.452771117768830E-2  -4.586297886705695E-3  
 2.054000000000000E10    9.241713197559373E-2  -2.070418431024778E-2  
 2.054200000000000E10    8.758915769404613E-2  -3.631735241326409E-2  
 2.054400000000000E10    7.999851808132866E-2  -5.092615423274144E-2  
 2.054600000000000E10    6.986354456729928E-2  -6.396047914893638E-2  
 2.054800000000000E10    5.753756480791113E-2  -7.483626969039919E-2  
 2.055000000000000E10    4.366607018707558E-2  -8.325392749643090E-2  
 2.055200000000000E10    2.889435610855577E-2  -8.908261649119938E-2  
 2.055400000000000E10    1.327848007163458E-2  -9.251214906604337E-2  
 2.055600000000000E10   -2.523999531202303E-3  -9.331329607193788E-2  
