#  HZ   S   RI   R     50.00 
! Rohde & Schwarz ZVA40 4Ports - Version 3.90 - 1145.1110k42 SN: 100403
! Date: 2023-09-28 11:19:18
! Measurement: S12 
! 
 2.000000000000000E10    7.641291350167989E-2  -2.558586754527766E-2  
 2.000200000000000E10    7.166752978304414E-2  -3.753340604467487E-2  
 2.000400000000000E10    6.454166371431311E-2  -4.915288579349286E-2  
 2.000600000000000E10    5.524273670728226E-2  -5.969229643253581E-2  
 2.000800000000000E10    4.419985090367024E-2  -6.833258479423560E-2  
 2.001000000000000E10    3.165620554494577E-2  -7.501554152978415E-2  
 2.001200000000000E10    1.841815363147659E-2  -7.925941355505686E-2  
 2.001400000000000E10    4.487447740953473E-3  -8.120575127917866E-2  
 2.001600000000000E10   -9.457021357975918E-3  -8.063599752078324E-2  
 2.001800000000000E10   -2.308979151931828E-2  -7.773271116109856E-2  
 2.002000000000000E10   -3.601958850425813E-2  -7.250310342497549E-2  
 2.002200000000000E10   -4.863390302285318E-2  -6.463644622554426E-2  
 2.002400000000000E10   -5.867671389417022E-2  -5.554370997231960E-2  
 2.002600000000000E10   -6.711735603613044E-2  -4.474304065166958E-2  
 2.002800000000000E10   -7.366113069908159E-2  -3.264465730277521E-2  
 2.003000000000000E10   -7.803042568300811E-2  -1.980545156791437E-2  
 2.003200000000000E10   -8.018245093173981E-2  -6.387630249554197E-3  
 2.003400000000000E10   -8.000540817069357E-2   7.272435721639737E-3  
 2.003600000000000E10   -7.756218403429310E-2   2.068937659322255E-2  
 2.003800000000000E10   -7.300039825477322E-2   3.338535317393565E-2  
 2.004000000000000E10   -6.636150204989386E-2   4.522680612734972E-2  
 2.004200000000000E10   -5.772510716137795E-2   5.581336562001734E-2  
 2.004400000000000E10   -4.747055665962144E-2   6.476044229445815E-2  
 2.004600000000000E10   -3.582662286508410E-2   7.184586460944642E-2  
 2.004800000000000E10   -2.312141386880896E-2   7.687004494559463E-2  
 2.005000000000000E10   -9.927453287852188E-3   7.970055082726753E-2  
 2.005200000000000E10    3.838863679960278E-3   8.036050247789647E-2  
 2.005400000000000E10    1.736970678460381E-2   7.858677954953733E-2  
 2.005600000000000E10    3.056243001458961E-2   7.443991096200844E-2  
 2.005800000000000E10    4.260179058081637E-2   6.816188741445532E-2  
 2.006000000000000E10    5.366736416985505E-2   5.984266267290828E-2  
 2.006200000000000E10    6.292219519159847E-2   5.005368832454873E-2  
 2.006400000000000E10    7.043257835151291E-2   3.880295444866230E-2  
 2.006600000000000E10    7.605406923550456E-2   2.621548344897178E-2  
 2.006800000000000E10    7.950944984981238E-2   1.297876851606943E-2  
 2.007000000000000E10    8.068781395577421E-2  -7.279901929627096E-4  
 2.007200000000000E10    7.945420147694088E-2  -1.440335088533163E-2  
 2.007400000000000E10    7.579128856845765E-2  -2.790966407224158E-2  
 2.007600000000000E10    6.988988865557118E-2  -4.044429413538179E-2  
 2.007800000000000E10    6.182328513447209E-2  -5.184268992293613E-2  
 2.008000000000000E10    5.205243315739894E-2  -6.145764271965103E-2  
 2.008200000000000E10    4.077411343137095E-2  -6.931441292022561E-2  
 2.008400000000000E10    2.841570858037575E-2  -7.508467927993653E-2  
 2.008600000000000E10    1.524248763112106E-2  -7.865353946029700E-2  
 2.008800000000000E10    1.933474613642189E-3  -7.996678346434087E-2  
 2.009000000000000E10   -1.153373943579181E-2  -7.911559706275266E-2  
 2.009200000000000E10   -2.466989322515701E-2  -7.603859044869626E-2  
 2.009400000000000E10   -3.728936636169461E-2  -7.068619878194922E-2  
 2.009600000000000E10   -4.848437847575863E-2  -6.350458359907241E-2  
 2.009800000000000E10   -5.860133868191092E-2  -5.444375825667290E-2  
 2.010000000000000E10   -6.705736617998714E-2  -4.371920531477933E-2  
 2.010200000000000E10   -7.349975300602785E-2  -3.174292984229134E-2  
 2.010400000000000E10   -7.781707582652775E-2  -1.884414580839351E-2  
 2.010600000000000E10   -7.991985089992514E-2  -5.418049242395643E-3  
 2.010800000000000E10   -7.972838601975894E-2   8.326500395761705E-3  
 2.011000000000000E10   -7.713996586990642E-2   2.173995249804759E-2  
 2.011200000000000E10   -7.221254108889204E-2   3.447935123133141E-2  
 2.011400000000000E10   -6.527743847727668E-2   4.609843832427839E-2  
 2.011600000000000E10   -5.658287569251259E-2   5.638915549852630E-2  
 2.011800000000000E10   -4.612285446316538E-2   6.524135832268815E-2  
 2.012000000000000E10   -3.459246908699215E-2   7.206160890430811E-2  
 2.012200000000000E10   -2.208987437127640E-2   7.685455090081275E-2  
 2.012400000000000E10   -8.729249928174046E-3   7.959090737539656E-2  
 2.012600000000000E10    4.823861491374207E-3   8.004386789082178E-2  
 2.012800000000000E10    1.845349923648815E-2   7.819492678304191E-2  
 2.013000000000000E10    3.130164244822299E-2   7.407367526881492E-2  
 2.013200000000000E10    4.360796650532098E-2   6.768809241413359E-2  
 2.013400000000000E10    5.454095119634050E-2   5.931611504323731E-2  
 2.013600000000000E10    6.397947529661976E-2   4.902511501911690E-2  
 2.013800000000000E10    7.136080227421096E-2   3.738741230577194E-2  
 2.014000000000000E10    7.660369423108865E-2   2.467134070514138E-2  
 2.014200000000000E10    7.962498037409853E-2   1.155493100936211E-2  
 2.014400000000000E10    8.052518812661662E-2  -2.126563610388942E-3  
 2.014600000000000E10    7.908209599456054E-2  -1.578669669516764E-2  
 2.014800000000000E10    7.532030469828138E-2  -2.904174240218773E-2  
 2.015000000000000E10    6.943805949970820E-2  -4.128652689477509E-2  
 2.015200000000000E10    6.134222200413926E-2  -5.267785431296597E-2  
 2.015400000000000E10    5.144320452921821E-2  -6.238559029297815E-2  
 2.015600000000000E10    4.012335924415816E-2  -7.021751667610580E-2  
 2.015800000000000E10    2.752465500199802E-2  -7.606263053536239E-2  
 2.016000000000000E10    1.421022524933057E-2  -7.962987122035503E-2  
 2.016200000000000E10    3.541567905404508E-4  -8.086969522242618E-2  
 2.016400000000000E10   -1.335601025051706E-2  -7.974386599356319E-2  
 2.016600000000000E10   -2.671806616677250E-2  -7.629382408367567E-2  
 2.016800000000000E10   -3.933661677161966E-2  -7.063491797701342E-2  
 2.017000000000000E10   -5.076101828341501E-2  -6.283391090554699E-2  
 2.017200000000000E10   -6.067968693643004E-2  -5.309001061450879E-2  
 2.017400000000000E10   -6.870241452452368E-2  -4.195348065392668E-2  
 2.017600000000000E10   -7.463829741441723E-2  -2.970714477768101E-2  
 2.017800000000000E10   -7.853423496296677E-2  -1.657264329761900E-2  
 2.018000000000000E10   -8.008953064059818E-2  -3.181308884374437E-3  
 2.018200000000000E10   -7.940599158100661E-2   1.036706190829256E-2  
 2.018400000000000E10   -7.655472331458105E-2   2.350926672329258E-2  
 2.018600000000000E10   -7.150535281163251E-2   3.609940362780260E-2  
 2.018800000000000E10   -6.439962522927420E-2   4.763726100437686E-2  
 2.019000000000000E10   -5.540291775521919E-2   5.779186808667169E-2  
 2.019200000000000E10   -4.482178419831724E-2   6.633739059110674E-2  
 2.019400000000000E10   -3.286088117624022E-2   7.305042262877939E-2  
 2.019600000000000E10   -2.036354154039270E-2   7.756100783762665E-2  
 2.019800000000000E10   -6.662691005484746E-3   7.997351684011411E-2  
 2.020000000000000E10    6.886496065010832E-3   7.993050896645337E-2  
 2.020200000000000E10    2.030374061074645E-2   7.754221104287343E-2  
 2.020400000000000E10    3.299275422333475E-2   7.301166236279981E-2  
 2.020600000000000E10    4.478642782114967E-2   6.647739700157390E-2  
 2.020800000000000E10    5.540154386542891E-2   5.804536509305547E-2  
 2.021000000000000E10    6.455769319000200E-2   4.795624252119920E-2  
 2.021200000000000E10    7.185467655838429E-2   3.632487998517762E-2  
 2.021400000000000E10    7.707433537333777E-2   2.358559155631297E-2  
 2.021600000000000E10    8.001748489924770E-2   1.029210271693237E-2  
 2.021800000000000E10    8.068762144264755E-2  -3.557622224233178E-3  
 2.022000000000000E10    7.898252310617707E-2  -1.728161288348195E-2  
 2.022200000000000E10    7.494692893239080E-2  -3.048590335244793E-2  
 2.022400000000000E10    6.863299645790735E-2  -4.289804622773057E-2  
 2.022600000000000E10    6.032868755999585E-2  -5.391049916552448E-2  
 2.022800000000000E10    5.029494706286110E-2  -6.331159227099141E-2  
 2.023000000000000E10    3.877255841845433E-2  -7.094265278963396E-2  
 2.023200000000000E10    2.623671558316036E-2  -7.658019707403935E-2  
 2.023400000000000E10    1.279824347870194E-2  -7.999364648248597E-2  
 2.023600000000000E10   -8.566163001904349E-4  -8.105445516517640E-2  
 2.023800000000000E10   -1.473495099590746E-2  -7.974772100479534E-2  
 2.024000000000000E10   -2.820423616494327E-2  -7.604317739937469E-2  
 2.024200000000000E10   -4.062464618806246E-2  -7.021764926982005E-2  
 2.024400000000000E10   -5.206451562992295E-2  -6.221947306389542E-2  
 2.024600000000000E10   -6.190913021587197E-2  -5.241862328578781E-2  
 2.024800000000000E10   -6.990312088708985E-2  -4.111140730742730E-2  
 2.025000000000000E10   -7.586436257556212E-2  -2.837516367337319E-2  
 2.025200000000000E10   -7.946403615605693E-2  -1.507845918704186E-2  
 2.025400000000000E10   -8.071902597515589E-2  -1.519739172058024E-3  
 2.025600000000000E10   -7.971410490293394E-2   1.222269060012183E-2  
 2.025800000000000E10   -7.649595937304174E-2   2.535471692376037E-2  
 2.026000000000000E10   -7.104958576320891E-2   3.798241225888066E-2  
 2.026200000000000E10   -6.370534682468469E-2   4.934077522327043E-2  
 2.026400000000000E10   -5.453055018610058E-2   5.943377513569036E-2  
 2.026600000000000E10   -4.368989694545447E-2   6.787411224254686E-2  
 2.026800000000000E10   -3.159046904328353E-2   7.435733577316632E-2  
 2.027000000000000E10   -1.851534142932584E-2   7.873878642115012E-2  
 2.027200000000000E10   -4.734241590531734E-3   8.082665382683769E-2  
 2.027400000000000E10    9.001210081589292E-3   8.043481820242149E-2  
 2.027600000000000E10    2.264236810005050E-2   7.764141130739860E-2  
 2.027800000000000E10    3.542733566304739E-2   7.254983283122411E-2  
 2.028000000000000E10    4.721063963839825E-2   6.544663221910696E-2  
 2.028200000000000E10    5.753410318408476E-2   5.645376073785911E-2  
 2.028400000000000E10    6.623950995803854E-2   4.587746602080373E-2  
 2.028600000000000E10    7.297794374072733E-2   3.401688431415950E-2  
 2.028800000000000E10    7.768179570757328E-2   2.119748156847324E-2  
 2.029000000000000E10    8.018810026671730E-2   7.803735835643229E-3  
 2.029200000000000E10    8.044018878976826E-2  -5.986684461102490E-3  
 2.029400000000000E10    7.830169235075277E-2  -1.946735788488480E-2  
 2.029600000000000E10    7.387621378236213E-2  -3.246772042451221E-2  
 2.029800000000000E10    6.719522616200882E-2  -4.471341104416536E-2  
 2.030000000000000E10    5.870898062694561E-2  -5.539951127319812E-2  
 2.030200000000000E10    4.849705567531952E-2  -6.450261436545308E-2  
 2.030400000000000E10    3.678875743892720E-2  -7.189628139843211E-2  
 2.030600000000000E10    2.410269932583071E-2  -7.704899061106625E-2  
 2.030800000000000E10    1.065800431691876E-2  -8.000035933040893E-2  
 2.031000000000000E10   -3.025186962976759E-3  -8.067014842652584E-2  
 2.031200000000000E10   -1.668064352310409E-2  -7.900576857473451E-2  
 2.031400000000000E10   -2.987925807614241E-2  -7.498188597081906E-2  
 2.031600000000000E10   -4.172218307185526E-2  -6.906445709379021E-2  
 2.031800000000000E10   -5.278846072446960E-2  -6.115736467523295E-2  
 2.032000000000000E10   -6.254011873141191E-2  -5.129107089458618E-2  
 2.032200000000000E10   -7.040878823931858E-2  -4.017288627398893E-2  
 2.032400000000000E10   -7.644924736858506E-2  -2.747229722472583E-2  
 2.032600000000000E10   -8.004838207401022E-2  -1.392149740539364E-2  
 2.032800000000000E10   -8.128408146652380E-2   3.295748610747558E-5  
 2.033000000000000E10   -7.997840941019035E-2   1.402695127788046E-2  
 2.033200000000000E10   -7.621315479874846E-2   2.752565612795149E-2  
 2.033400000000000E10   -7.032131112136197E-2   3.993888704635763E-2  
 2.033600000000000E10   -6.691015139137328E-2   4.535959505294938E-2  
 2.033800000000000E10   -5.243213055746576E-2   6.130511788291554E-2  
 2.034000000000000E10   -4.122379385168399E-2   6.922024980586891E-2  
 2.034200000000000E10   -2.881416447734679E-2   7.509060110024984E-2  
 2.034400000000000E10   -1.553231765537362E-2   7.878945827287465E-2  
 2.034600000000000E10   -1.916534971302062E-3   8.003513901448155E-2  
 2.034800000000000E10    1.161259696248984E-2   7.902399324690963E-2  
 2.035000000000000E10    2.469358314770297E-2   7.578282224085030E-2  
 2.035200000000000E10    3.705995069412690E-2   7.040080115502222E-2  
 2.035400000000000E10    4.813642833652688E-2   6.316227835906449E-2  
 2.035600000000000E10    5.805210457706238E-2   5.415928352798183E-2  
 2.035800000000000E10    6.638460508984619E-2   4.362559820337664E-2  
 2.036000000000000E10    7.277626375211452E-2   3.198840814551813E-2  
 2.036200000000000E10    7.716600980804367E-2   1.919349985179813E-2  
 2.036400000000000E10    7.938068472182422E-2   5.816583763898860E-3  
 2.036600000000000E10    7.925717946243244E-2  -7.521987115476754E-3  
 2.036800000000000E10    7.689539737460065E-2  -2.088632984072870E-2  
 2.037000000000000E10    7.222773032868761E-2  -3.372444264115659E-2  
 2.037200000000000E10    6.557144365544712E-2  -4.538437646341237E-2  
 2.037400000000000E10    5.693238436824590E-2  -5.583642196846030E-2  
 2.037600000000000E10    4.675522356100235E-2  -6.460529505988201E-2  
 2.037800000000000E10    3.516932415328894E-2  -7.167884864238862E-2  
 2.038000000000000E10    2.266185758547727E-2  -7.671845701224375E-2  
 2.038200000000000E10    9.328657534169036E-3  -7.952845287634380E-2  
 2.038400000000000E10   -4.391889991434078E-3  -8.000716887716397E-2  
 2.038600000000000E10   -1.788788912676466E-2  -7.815096819014028E-2  
 2.038800000000000E10   -3.089372526060117E-2  -7.404495308975120E-2  
 2.039000000000000E10   -4.307922082310156E-2  -6.785720832336721E-2  
 2.039200000000000E10   -5.402239342454387E-2  -5.961395318667219E-2  
 2.039400000000000E10   -6.353259579121004E-2  -4.944072031874508E-2  
 2.039600000000000E10   -7.107492620477149E-2  -3.795057374851983E-2  
 2.039800000000000E10   -7.650356377824313E-2  -2.535729470898886E-2  
 2.040000000000000E10   -7.964011375337493E-2  -1.193826626519098E-2  
 2.040200000000000E10   -8.047655775274787E-2   1.865364226600659E-3  
 2.040400000000000E10   -7.889221308835615E-2   1.544109422897371E-2  
 2.040600000000000E10   -7.507149222277715E-2   2.869932666957579E-2  
 2.040800000000000E10   -6.903194419276836E-2   4.113357941703085E-2  
 2.041000000000000E10   -6.106926176741648E-2   5.222412376504002E-2  
 2.041200000000000E10   -5.120588289792829E-2   6.175000399919139E-2  
 2.041400000000000E10   -3.991398417465368E-2   6.956651258404947E-2  
 2.041600000000000E10   -2.762757623671905E-2   7.529452232520706E-2  
 2.041800000000000E10   -1.434284390226491E-2   7.894443022200690E-2  
 2.042000000000000E10   -7.569647093703831E-4   8.015965764365335E-2  
 2.042200000000000E10    1.293065449805762E-2   7.901940017392188E-2  
 2.042400000000000E10    2.619118276394545E-2   7.552385175362328E-2  
 2.042600000000000E10    3.852796529192090E-2   6.986947366056509E-2  
 2.042800000000000E10    4.969162253178880E-2   6.225697608185608E-2  
 2.043000000000000E10    5.942340031836839E-2   5.289817440734469E-2  
 2.043200000000000E10    6.745613910532700E-2   4.211545312366764E-2  
 2.043400000000000E10    7.360373374714671E-2   3.002552047042068E-2  
 2.043600000000000E10    7.752882411234896E-2   1.729731183600466E-2  
 2.043800000000000E10    7.932865045801489E-2   4.132255715434652E-3  
 2.044000000000000E10    7.893424964767377E-2  -9.460021663228541E-3  
 2.044200000000000E10    7.626906421942435E-2  -2.263640999728016E-2  
 2.044400000000000E10    7.133520665874830E-2  -3.532329273678342E-2  
 2.044600000000000E10    6.426067188032250E-2  -4.699308134447875E-2  
 2.044800000000000E10    5.539093204143291E-2  -5.716972399840775E-2  
 2.045000000000000E10    4.495978632307075E-2  -6.576289673094314E-2  
 2.045200000000000E10    3.304780804883827E-2  -7.258428398978077E-2  
 2.045400000000000E10    2.025413835550560E-2  -7.718034596909770E-2  
 2.045600000000000E10    6.905048229688298E-3  -7.949068649884175E-2  
 2.045800000000000E10   -6.837551964926306E-3  -7.947963577169687E-2  
 2.046000000000000E10   -2.023154068428495E-2  -7.707536286142554E-2  
 2.046200000000000E10   -3.299846008648595E-2  -7.244822746076171E-2  
 2.046400000000000E10   -4.488813203591683E-2  -6.564651106470965E-2  
 2.046600000000000E10   -5.534591770262339E-2  -5.702268890548981E-2  
 2.046800000000000E10   -6.418436713412787E-2  -4.682688822357914E-2  
 2.047000000000000E10   -7.131391260396765E-2  -3.504468773280313E-2  
 2.047200000000000E10   -7.611276671173448E-2  -2.246925355620280E-2  
 2.047400000000000E10   -7.869923598488637E-2  -9.200322474287415E-3  
 2.047600000000000E10   -7.901359078007020E-2   4.260066747679312E-3  
 2.047800000000000E10   -7.712676740124201E-2   1.750622284986877E-2  
 2.048000000000000E10   -7.300724731095304E-2   3.035914641164781E-2  
 2.048200000000000E10   -6.680085047645473E-2   4.228793090565032E-2  
 2.048400000000000E10   -5.872972174829662E-2   5.299914098451169E-2  
 2.048600000000000E10   -4.884248032507237E-2   6.228425772418943E-2  
 2.048800000000000E10   -3.735673786693377E-2   6.982670066232855E-2  
 2.049000000000000E10   -2.489607751308337E-2   7.514111572216767E-2  
 2.049200000000000E10   -1.154429712247853E-2   7.823764942372555E-2  
 2.049400000000000E10    1.866248104233136E-3   7.887920456497778E-2  
 2.049600000000000E10    1.518995671142247E-2   7.723545264179350E-2  
 2.049800000000000E10    2.793153052171341E-2   7.347886193155184E-2  
 2.050000000000000E10    3.992068364141851E-2   6.767339937621189E-2  
 2.050200000000000E10    5.096221007432579E-2   5.988598614237839E-2  
 2.050400000000000E10    6.041862654795687E-2   5.035183401597121E-2  
 2.050600000000000E10    6.810505218390067E-2   3.927021950252364E-2  
 2.050800000000000E10    7.373340666525255E-2   2.697371455599933E-2  
 2.051000000000000E10    7.711213262515551E-2   1.396711120566334E-2  
 2.051200000000000E10    7.819792137775347E-2   7.219677164126949E-4  
 2.051400000000000E10    7.706947379096758E-2  -1.262661478261381E-2  
 2.051600000000000E10    7.374038389918861E-2  -2.536410862388109E-2  
 2.051800000000000E10    6.838596609378882E-2  -3.741276569476182E-2  
 2.052000000000000E10    6.106989383160001E-2  -4.855424739032676E-2  
 2.052200000000000E10    5.187193294676567E-2  -5.825752963100042E-2  
 2.052400000000000E10    4.118697013484103E-2  -6.622212355122037E-2  
 2.052600000000000E10    2.924173203506502E-2  -7.220279688577834E-2  
 2.052800000000000E10    1.661454427517632E-2  -7.602674152319199E-2  
 2.053000000000000E10    3.360212059669352E-3  -7.765039212606924E-2  
 2.053200000000000E10   -9.888928684701372E-3  -7.704147439172643E-2  
 2.053400000000000E10   -2.267395768271512E-2  -7.420139590946762E-2  
 2.053600000000000E10   -3.491847104946651E-2  -6.925236329152744E-2  
 2.053800000000000E10   -4.615621324004616E-2  -6.232860727399905E-2  
 2.054000000000000E10   -5.606736408234461E-2  -5.370257009820727E-2  
 2.054200000000000E10   -6.455565717868961E-2  -4.342588278328249E-2  
 2.054400000000000E10   -7.104339878032384E-2  -3.175762147131517E-2  
 2.054600000000000E10   -7.542304620055765E-2  -1.913590550057234E-2  
 2.054800000000000E10   -7.764193244102388E-2  -5.993044568614355E-3  
 2.055000000000000E10   -7.752716116408631E-2   7.368780261504826E-3  
 2.055200000000000E10   -7.519214470485079E-2   2.046818149628017E-2  
 2.055400000000000E10   -7.064591351628465E-2   3.307437424098971E-2  
 2.055600000000000E10   -6.399993579997364E-2   4.471670502497238E-2  
