#  HZ   S   RI   R     50.00 
! Rohde & Schwarz ZVA40 4Ports - Version 3.90 - 1145.1110k42 SN: 100403
! Date: 2023-09-28 10:38:32
! Measurement: S12 
! 
 2.000000000000000E10    4.065583921515166E-2   9.131872444706306E-2  
 2.000200000000000E10    5.494244485161332E-2   8.401389814455212E-2  
 2.000400000000000E10    6.848883123450505E-2   7.365445144061869E-2  
 2.000600000000000E10    8.024061299270857E-2   6.094694657194324E-2  
 2.000800000000000E10    8.956673059219286E-2   4.658679213923447E-2  
 2.001000000000000E10    9.649495627218538E-2   3.037511486523158E-2  
 2.001200000000000E10    1.003951541929089E-1   1.349921436635580E-2  
 2.001400000000000E10    1.013768638775600E-1  -4.094955212918647E-3  
 2.001600000000000E10    9.922977001155611E-2  -2.151562021742905E-2  
 2.001800000000000E10    9.411599218121623E-2  -3.836884459673347E-2  
 2.002000000000000E10    8.600536737407086E-2  -5.410507930078159E-2  
 2.002200000000000E10    7.443042458438844E-2  -6.900303030325510E-2  
 2.002400000000000E10    6.159833111006254E-2  -8.054107951278899E-2  
 2.002600000000000E10    4.697151907907996E-2  -8.979764713682731E-2  
 2.002800000000000E10    3.085152555952082E-2  -9.652184108336388E-2  
 2.003000000000000E10    1.401949088940138E-2  -1.002872086448147E-1  
 2.003200000000000E10   -3.343591566977085E-3  -1.010772952270748E-1  
 2.003400000000000E10   -2.055652315021522E-2  -9.885393010468510E-2  
 2.003600000000000E10   -3.713428579318830E-2  -9.377446315848963E-2  
 2.003800000000000E10   -5.230556763619638E-2  -8.596774422866421E-2  
 2.004000000000000E10   -6.600606283722832E-2  -7.570384506659833E-2  
 2.004200000000000E10   -7.778375080495868E-2  -6.322275617295066E-2  
 2.004400000000000E10   -8.717026834308490E-2  -4.909263440292641E-2  
 2.004600000000000E10   -9.391966925408193E-2  -3.376321890236450E-2  
 2.004800000000000E10   -9.818649329727296E-2  -1.745713731951881E-2  
 2.005000000000000E10   -9.970404993494202E-2  -7.495483055045063E-4  
 2.005200000000000E10   -9.854093455722626E-2   1.597083586512483E-2  
 2.005400000000000E10   -9.459145026423436E-2   3.236406313941797E-2  
 2.005600000000000E10   -8.776627532682346E-2   4.806894358398657E-2  
 2.005800000000000E10   -7.834592077627506E-2   6.229975736424951E-2  
 2.006000000000000E10   -6.648524954580345E-2   7.468306150528198E-2  
 2.006200000000000E10   -5.294293176731006E-2   8.468926398914933E-2  
 2.006400000000000E10   -3.800976983121322E-2   9.227911763881708E-2  
 2.006600000000000E10   -2.168995868437458E-2   9.737105720008912E-2  
 2.006800000000000E10   -5.114446410947961E-3   9.955721393198895E-2  
 2.007000000000000E10    1.169989320845677E-2   9.897933692190739E-2  
 2.007200000000000E10    2.802596376439880E-2   9.561965795578109E-2  
 2.007400000000000E10    4.387837037360166E-2   8.962145661280094E-2  
 2.007600000000000E10    5.831264280128876E-2   8.104376376325094E-2  
 2.007800000000000E10    7.119002972190949E-2   7.017383725868445E-2  
 2.008000000000000E10    8.210144309681763E-2   5.724253228759677E-2  
 2.008200000000000E10    9.076451381175762E-2   4.243142758082800E-2  
 2.008400000000000E10    9.664235195065511E-2   2.671774590982368E-2  
 2.008600000000000E10    9.987995251550143E-2   9.985279317129746E-3  
 2.008800000000000E10    1.002257220505988E-1  -7.154754373793719E-3  
 2.009000000000000E10    9.759955379562417E-2  -2.417083566091779E-2  
 2.009200000000000E10    9.209666246073044E-2  -4.026688364690732E-2  
 2.009400000000000E10    8.393634167569412E-2  -5.524227098761041E-2  
 2.009600000000000E10    7.339126803511893E-2  -6.867649164752254E-2  
 2.009800000000000E10    6.088059449306965E-2  -8.010363324572301E-2  
 2.010000000000000E10    4.636124866506008E-2  -8.940417635170272E-2  
 2.010200000000000E10    3.067391965690369E-2  -9.591696465315780E-2  
 2.010400000000000E10    1.389221943237808E-2  -9.978144553687920E-2  
 2.010600000000000E10   -3.175625276228611E-3  -1.007840736678519E-1  
 2.010800000000000E10   -2.039500682390250E-2  -9.891158861770137E-2  
 2.011000000000000E10   -3.694841931552466E-2  -9.395235348457219E-2  
 2.011200000000000E10   -5.239476982182992E-2  -8.615085474606191E-2  
 2.011400000000000E10   -6.624741983157678E-2  -7.581846443629148E-2  
 2.011600000000000E10   -7.804492169784387E-2  -6.347408676420155E-2  
 2.011800000000000E10   -8.758067238642044E-2  -4.920765337587334E-2  
 2.012000000000000E10   -9.456763128556678E-2  -3.352455044992140E-2  
 2.012200000000000E10   -9.873530951627453E-2  -1.704602645024880E-2  
 2.012400000000000E10   -1.000803625038416E-1  -9.233065061376973E-5  
 2.012600000000000E10   -9.848688335316605E-2   1.679404217895168E-2  
 2.012800000000000E10   -9.404092522325806E-2   3.316209668068340E-2  
 2.013000000000000E10   -8.691937676078868E-2   4.850134955064901E-2  
 2.013200000000000E10   -7.736041453702910E-2   6.220134911012069E-2  
 2.013400000000000E10   -6.554950007834630E-2   7.426346662227101E-2  
 2.013600000000000E10   -5.213047136161871E-2   8.396931353341164E-2  
 2.013800000000000E10   -3.743926496250462E-2   9.134539102352829E-2  
 2.014000000000000E10   -2.158492608815330E-2   9.634527343404384E-2  
 2.014200000000000E10   -5.201665469761818E-3   9.872212245656357E-2  
 2.014400000000000E10    1.139403221248049E-2   9.828327725842090E-2  
 2.014600000000000E10    2.787191355488920E-2   9.500097593174064E-2  
 2.014800000000000E10    4.355045085600758E-2   8.892241644659586E-2  
 2.015000000000000E10    5.798407454533550E-2   8.025937220809883E-2  
 2.015200000000000E10    7.049130237254528E-2   6.936693796118583E-2  
 2.015400000000000E10    8.123395290812613E-2   5.629582933513468E-2  
 2.015600000000000E10    8.948948966755918E-2   4.183409914854747E-2  
 2.015800000000000E10    9.522916037992593E-2   2.617883631298910E-2  
 2.016000000000000E10    9.826677765830381E-2   9.756732344183935E-3  
 2.016200000000000E10    9.851785967406190E-2  -6.842696951859001E-3  
 2.016400000000000E10    9.605632032383030E-2  -2.332270428655625E-2  
 2.016600000000000E10    9.093008390849637E-2  -3.921325975772576E-2  
 2.016800000000000E10    8.307503459651557E-2  -5.418412389978707E-2  
 2.017000000000000E10    7.268713620067129E-2  -6.763368253408678E-2  
 2.017200000000000E10    6.006774230086856E-2  -7.904421287957542E-2  
 2.017400000000000E10    4.556256243029415E-2  -8.811684826027851E-2  
 2.017600000000000E10    2.974391166026073E-2  -9.457737061363727E-2  
 2.017800000000000E10    1.334032426659648E-2  -9.807566262673659E-2  
 2.018000000000000E10   -3.719676634691191E-3  -9.871758828919022E-2  
 2.018200000000000E10   -2.020449707518848E-2  -9.645185659228830E-2  
 2.018400000000000E10   -3.624012119299198E-2  -9.150349383616548E-2  
 2.018600000000000E10   -5.109188681717682E-2  -8.387657339838302E-2  
 2.018800000000000E10   -6.444602331436206E-2  -7.392075263207336E-2  
 2.019000000000000E10   -7.587487850071843E-2  -6.191428595180207E-2  
 2.019200000000000E10   -8.520533634681328E-2  -4.820803988281249E-2  
 2.019400000000000E10   -9.211763924501359E-2  -3.291159435205616E-2  
 2.019600000000000E10   -9.628071426058953E-2  -1.683184168048997E-2  
 2.019800000000000E10   -9.758652878216127E-2  -3.159982939898928E-4  
 2.020000000000000E10   -9.607658863443297E-2   1.632673002001734E-2  
 2.020200000000000E10   -9.174218834318129E-2   3.227903166121320E-2  
 2.020400000000000E10   -8.484928284013470E-2   4.711816596227605E-2  
 2.020600000000000E10   -7.561271300266068E-2   6.065050216530194E-2  
 2.020800000000000E10   -6.424006889462644E-2   7.250672012515873E-2  
 2.021000000000000E10   -5.092434242160059E-2   8.232347908108721E-2  
 2.021200000000000E10   -3.626877773273800E-2   8.965701111567355E-2  
 2.021400000000000E10   -2.057062496790570E-2   9.440936579382359E-2  
 2.021600000000000E10   -4.181506408629542E-3   9.645638101107532E-2  
 2.021800000000000E10    1.217449375580139E-2   9.565653431333596E-2  
 2.022000000000000E10    2.817104477809148E-2   9.205808353256040E-2  
 2.022200000000000E10    4.336486926895584E-2   8.576310922887213E-2  
 2.022400000000000E10    5.702462605666231E-2   7.718468654892569E-2  
 2.022600000000000E10    6.914220735716466E-2   6.636869570189982E-2  
 2.022800000000000E10    7.929475045160188E-2   5.373589259135175E-2  
 2.023000000000000E10    8.717165887553482E-2   3.952016636932469E-2  
 2.023200000000000E10    9.253555681885932E-2   2.442696636459223E-2  
 2.023400000000000E10    9.543368044111555E-2   8.436796484506334E-3  
 2.023600000000000E10    9.561486926873145E-2  -7.807282886911862E-3  
 2.023800000000000E10    9.297349538152308E-2  -2.406215420510664E-2  
 2.024000000000000E10    8.756311087817939E-2  -3.943042648643463E-2  
 2.024200000000000E10    7.947606998450835E-2  -5.383110315484883E-2  
 2.024400000000000E10    6.912552761094454E-2  -6.640068665449231E-2  
 2.024600000000000E10    5.689413485970467E-2  -7.709661924550565E-2  
 2.024800000000000E10    4.306086024399246E-2  -8.558816589398294E-2  
 2.025000000000000E10    2.796833687815023E-2  -9.173716472935371E-2  
 2.025200000000000E10    1.222451871886131E-2  -9.529633157812528E-2  
 2.025400000000000E10   -4.219826747250917E-3  -9.609313084195195E-2  
 2.025600000000000E10   -2.055559732580166E-2  -9.408848305422474E-2  
 2.025800000000000E10   -3.627525111772816E-2  -8.943012295099997E-2  
 2.026000000000000E10   -5.103668428807860E-2  -8.208095361954444E-2  
 2.026200000000000E10   -6.442263932587292E-2  -7.226238658888995E-2  
 2.026400000000000E10   -7.596458877948795E-2  -6.026440251171981E-2  
 2.026600000000000E10   -8.535830870665156E-2  -4.639740480411390E-2  
 2.026800000000000E10   -9.218262600836800E-2  -3.090760543211640E-2  
 2.027000000000000E10   -9.612224416154512E-2  -1.461690331025243E-2  
 2.027200000000000E10   -9.719333353094461E-2   2.002626808818585E-3  
 2.027400000000000E10   -9.537471566770636E-2   1.880656187146380E-2  
 2.027600000000000E10   -9.073109935446724E-2   3.486747489629802E-2  
 2.027800000000000E10   -8.343316028884101E-2   4.989390010486760E-2  
 2.028000000000000E10   -7.354248941716535E-2   6.351933134542612E-2  
 2.028200000000000E10   -6.149417431506545E-2   7.517033240495538E-2  
 2.028400000000000E10   -4.762878283267628E-2   8.460242817139266E-2  
 2.028600000000000E10   -3.230404899990789E-2   9.149929829250073E-2  
 2.028800000000000E10   -1.599151734257448E-2   9.560185769514069E-2  
 2.029000000000000E10    7.633376260068282E-4   9.676584312425057E-2  
 2.029200000000000E10    1.722865866250663E-2   9.496851343466249E-2  
 2.029400000000000E10    3.312569436319089E-2   9.040167227808774E-2  
 2.029600000000000E10    4.804908309857564E-2   8.319800264389657E-2  
 2.029800000000000E10    6.140098983386940E-2   7.371003217194580E-2  
 2.030000000000000E10    7.287137571893471E-2   6.221457159414656E-2  
 2.030200000000000E10    8.232014584908209E-2   4.872734407732089E-2  
 2.030400000000000E10    8.919600156284499E-2   3.397965613742027E-2  
 2.030600000000000E10    9.349751520516851E-2   1.839433056480409E-2  
 2.030800000000000E10    9.525350445812018E-2   2.217335061167505E-3  
 2.031000000000000E10    9.422132573270270E-2  -1.398046661880791E-2  
 2.031200000000000E10    9.038438134835117E-2  -2.978037311188683E-2  
 2.031400000000000E10    8.383148752202844E-2  -4.472237588302221E-2  
 2.031600000000000E10    7.512883143807839E-2  -5.783900869463021E-2  
 2.031800000000000E10    6.421121930671042E-2  -6.961658463561124E-2  
 2.032000000000000E10    5.133322394431977E-2  -7.941891564061021E-2  
 2.032200000000000E10    3.714104709092152E-2  -8.678312122960939E-2  
 2.032400000000000E10    2.183346976410132E-2  -9.168036511055577E-2  
 2.032600000000000E10    6.095013287320338E-3  -9.391744801796084E-2  
 2.032800000000000E10   -1.000010761057959E-2  -9.348198208751761E-2  
 2.033000000000000E10   -2.560910338551226E-2  -9.022401458267003E-2  
 2.033200000000000E10   -4.030763774492739E-2  -8.446285892102678E-2  
 2.033400000000000E10   -5.379669768767259E-2  -7.652703716868042E-2  
 2.033600000000000E10   -5.954660207177925E-2  -7.230329517179476E-2  
 2.033800000000000E10   -7.637969894102711E-2  -5.401075808104622E-2  
 2.034000000000000E10   -8.445657341680604E-2  -4.040701621429915E-2  
 2.034200000000000E10   -9.017083515264603E-2  -2.564862165487239E-2  
 2.034400000000000E10   -9.335424209856619E-2  -9.864688802687380E-3  
 2.034600000000000E10   -9.361903653735437E-2   6.277297094514226E-3  
 2.034800000000000E10   -9.100792252870120E-2   2.218490740751081E-2  
 2.035000000000000E10   -8.565014048118694E-2   3.725404123842992E-2  
 2.035200000000000E10   -7.789793333973476E-2   5.110165732484641E-2  
 2.035400000000000E10   -6.804771958174835E-2   6.327218154020425E-2  
 2.035600000000000E10   -5.625992960816939E-2   7.370611669456556E-2  
 2.035800000000000E10   -4.313157009863645E-2   8.188719701027611E-2  
 2.036000000000000E10   -2.873639772057218E-2   8.794822276786449E-2  
 2.036200000000000E10   -1.335612060156712E-2   9.144966628293352E-2  
 2.036400000000000E10    2.099127543598138E-3   9.233868856295117E-2  
 2.036600000000000E10    1.748496314187724E-2   9.063272906235187E-2  
 2.036800000000000E10    3.269911921387139E-2   8.628579459081044E-2  
 2.037000000000000E10    4.679752708195458E-2   7.936058997330835E-2  
 2.037200000000000E10    5.943359886616294E-2   7.024427013977071E-2  
 2.037400000000000E10    7.031964910472859E-2   5.898552968569582E-2  
 2.037600000000000E10    7.899557124890774E-2   4.621763267966587E-2  
 2.037800000000000E10    8.542900262269233E-2   3.213897749746364E-2  
 2.038000000000000E10    8.942502972099001E-2   1.741090351735610E-2  
 2.038200000000000E10    9.084022742149854E-2   2.125725337962412E-3  
 2.038400000000000E10    8.974618256706804E-2  -1.301243054267420E-2  
 2.038600000000000E10    8.623171999796596E-2  -2.765696084400076E-2  
 2.038800000000000E10    8.038365155627696E-2  -4.169479294270297E-2  
 2.039000000000000E10    7.234483978336848E-2  -5.459950801004005E-2  
 2.039200000000000E10    6.214642760050539E-2  -6.601013154303032E-2  
 2.039400000000000E10    4.988239875805881E-2  -7.566011654078285E-2  
 2.039600000000000E10    3.633876054287274E-2  -8.286204238182529E-2  
 2.039800000000000E10    2.185934332977487E-2  -8.756970077823895E-2  
 2.040000000000000E10    6.776065377937515E-3  -8.977682936967932E-2  
 2.040200000000000E10   -8.385558321666500E-3  -8.939012088034198E-2  
 2.040400000000000E10   -2.316697766445820E-2  -8.647851627049510E-2  
 2.040600000000000E10   -3.732757828817410E-2  -8.113976540599180E-2  
 2.040800000000000E10   -5.025866451517504E-2  -7.355660636730857E-2  
 2.041000000000000E10   -6.164959126014467E-2  -6.401034652622539E-2  
 2.041200000000000E10   -7.137956200473673E-2  -5.268840732768311E-2  
 2.041400000000000E10   -7.906933062490307E-2  -3.997309128226714E-2  
 2.041600000000000E10   -8.451984734578139E-2  -2.619679789989493E-2  
 2.041800000000000E10   -8.764756958404754E-2  -1.147837052259238E-2  
 2.042000000000000E10   -8.817181326481935E-2   3.223455661892998E-3  
 2.042200000000000E10   -8.620604572399904E-2   1.790325736734054E-2  
 2.042400000000000E10   -8.181984053489089E-2   3.204253506840760E-2  
 2.042600000000000E10   -7.516998971769902E-2   4.528573768409355E-2  
 2.042800000000000E10   -6.634593878217887E-2   5.717879261466765E-2  
 2.043000000000000E10   -5.567115238681396E-2   6.735949241666239E-2  
 2.043200000000000E10   -4.359036352264253E-2   7.564267542612152E-2  
 2.043400000000000E10   -3.006725646752259E-2   8.184886835851760E-2  
 2.043600000000000E10   -1.586005269572515E-2   8.555674956143088E-2  
 2.043800000000000E10   -1.188671559138252E-3   8.674068725166739E-2  
 2.044000000000000E10    1.358328105687257E-2   8.532410747310562E-2  
 2.044200000000000E10    2.745796800600752E-2   8.157115883685005E-2  
 2.044400000000000E10    4.063023713752397E-2   7.558937844728723E-2  
 2.044600000000000E10    5.267892688221084E-2   6.742733930206768E-2  
 2.044800000000000E10    6.306697965367122E-2   5.734872061230157E-2  
 2.045000000000000E10    7.151614422032440E-2   4.562174819601930E-2  
 2.045200000000000E10    7.782500550723964E-2   3.280295120747220E-2  
 2.045400000000000E10    8.174538214515226E-2   1.941725064437237E-2  
 2.045600000000000E10    8.353209768417370E-2   5.604392285300683E-3  
 2.045800000000000E10    8.304731731587149E-2  -8.422123618433024E-3  
 2.046000000000000E10    8.026834754540738E-2  -2.207731083336190E-2  
 2.046200000000000E10    7.520696598681334E-2  -3.511517161792725E-2  
 2.046400000000000E10    6.793291060736088E-2  -4.721750625067654E-2  
 2.046600000000000E10    5.881144953196774E-2  -5.764035093589736E-2  
 2.046800000000000E10    4.814473917633769E-2  -6.640076006315385E-2  
 2.047000000000000E10    3.603192072827951E-2  -7.326915280064017E-2  
 2.047200000000000E10    2.331382808792513E-2  -7.781855227614845E-2  
 2.047400000000000E10    1.003119393124036E-2  -8.022835360781724E-2  
 2.047600000000000E10   -3.357159556050672E-3  -8.046461062488147E-2  
 2.047800000000000E10   -1.654253899035399E-2  -7.857446890891455E-2  
 2.048000000000000E10   -2.927836617177247E-2  -7.446507491613019E-2  
 2.048200000000000E10   -4.111852734172575E-2  -6.832391661023538E-2  
 2.048400000000000E10   -5.171666981712914E-2  -6.041142321220513E-2  
 2.048600000000000E10   -6.093514692638372E-2  -5.078285081768178E-2  
 2.048800000000000E10   -6.841039175250463E-2  -3.976148157902445E-2  
 2.049000000000000E10   -7.383399481907381E-2  -2.784021461218196E-2  
 2.049200000000000E10   -7.720874547572276E-2  -1.500649303226041E-2  
 2.049400000000000E10   -7.841139798825950E-2  -2.019813120528434E-3  
 2.049600000000000E10   -7.746581519215057E-2   1.100934308401505E-2  
 2.049800000000000E10   -7.432744846075082E-2   2.377760648448610E-2  
 2.050000000000000E10   -6.903483516999821E-2   3.575881025397442E-2  
 2.050200000000000E10   -6.184595768786139E-2   4.650978948395547E-2  
 2.050400000000000E10   -5.312723631127513E-2   5.584349116930414E-2  
 2.050600000000000E10   -4.308428947612564E-2   6.361663110628117E-2  
 2.050800000000000E10   -3.190906637801361E-2   6.973806493465407E-2  
 2.051000000000000E10   -2.001232505277450E-2   7.392064816185059E-2  
 2.051200000000000E10   -7.497180831117652E-3   7.621326473247236E-2  
 2.051400000000000E10    5.289647668399820E-3   7.632119207623769E-2  
 2.051600000000000E10    1.784951076830884E-2   7.428838800288629E-2  
 2.051800000000000E10    2.994785646461948E-2   7.025281676850063E-2  
 2.052000000000000E10    4.127365581137898E-2   6.417691841235926E-2  
 2.052200000000000E10    5.141812302102579E-2   5.623333481302872E-2  
 2.052400000000000E10    5.983468359028125E-2   4.684608140770915E-2  
 2.052600000000000E10    6.666045650814824E-2   3.615837724645338E-2  
 2.052800000000000E10    7.157154855500152E-2   2.463490216967492E-2  
 2.053000000000000E10    7.461695827082479E-2   1.245362769020990E-2  
 2.053200000000000E10    7.559073956103257E-2  -8.172445054948377E-5  
 2.053400000000000E10    7.448052190638668E-2  -1.250566495628989E-2  
 2.053600000000000E10    7.142132892424501E-2  -2.462967973433643E-2  
 2.053800000000000E10    6.642792434186859E-2  -3.610076881364766E-2  
 2.054000000000000E10    5.963204450413615E-2  -4.671905425037614E-2  
 2.054200000000000E10    5.122157665754181E-2  -5.613723566341616E-2  
 2.054400000000000E10    4.116679306657205E-2  -6.410921061480489E-2  
 2.054600000000000E10    2.976553177447433E-2  -7.025359116362887E-2  
 2.054800000000000E10    1.739109869354574E-2  -7.428956031294613E-2  
 2.055000000000000E10    4.566927640720644E-3  -7.600616475397379E-2  
 2.055200000000000E10   -8.038568853044721E-3  -7.552517337877693E-2  
 2.055400000000000E10   -2.049436640829817E-2  -7.308990500213228E-2  
 2.055600000000000E10   -3.226665246956680E-2  -6.868339107950874E-2  
