#  HZ   S   RI   R     50.00 
! Rohde & Schwarz ZVA40 4Ports - Version 3.90 - 1145.1110k42 SN: 100403
! Date: 2023-10-04 07:03:20
! Measurement: S12 
! 
 2.200000000000000E10    1.152350640040822E-3   2.834950228134403E-4  
 2.202000000000000E10    2.079479367239401E-3   2.239525765617145E-4  
 2.204000000000000E10    9.720435673443717E-5  -1.476048753829673E-3  
 2.206000000000000E10   -1.416273473296315E-3  -3.158018153044395E-4  
 2.208000000000000E10    6.352584387059324E-5   2.457854221574962E-3  
 2.210000000000000E10    2.418879535980523E-3   1.777721627149731E-3  
 2.212000000000000E10    2.804864663630724E-3  -7.814876807969995E-4  
 2.214000000000000E10   -1.343312314929790E-4  -2.249744982691482E-3  
 2.216000000000000E10   -2.827624761266634E-3   1.155296413344331E-4  
 2.218000000000000E10   -8.793241431703791E-4   2.089846791932359E-3  
 2.220000000000000E10    8.783665398368612E-4   2.202922449214384E-3  
 2.222000000000000E10    1.952064252691343E-3  -1.444937646738254E-3  
 2.224000000000000E10    3.150559386995155E-4  -3.469508286798373E-3  
 2.226000000000000E10   -1.050571401719935E-3  -2.343438973184675E-3  
 2.228000000000000E10   -8.557524706702679E-4   3.934389169444330E-4  
 2.230000000000000E10    6.482144162873738E-4   2.067545632598922E-3  
 2.232000000000000E10    3.011683147633448E-3   1.668963595875539E-3  
 2.234000000000000E10    1.359748523100279E-3  -7.129740188247524E-4  
 2.236000000000000E10   -4.842955531785265E-4  -9.755069331731647E-4  
 2.238000000000000E10   -2.334631775738671E-3  -2.647893215907970E-4  
 2.240000000000000E10   -1.614535547560081E-3   8.011777317733504E-4  
 2.242000000000000E10   -1.132994311774382E-4   4.443553698365577E-4  
 2.244000000000000E10    5.449417076306418E-4  -3.107310112682171E-4  
 2.246000000000000E10    3.187839138263371E-5  -1.226420208695345E-3  
 2.248000000000000E10    6.621414067922160E-4  -1.297707465710118E-3  
 2.250000000000000E10    4.937754019920249E-4  -3.353800238983240E-4  
 2.252000000000000E10   -1.005463006436003E-4  -4.558991786325350E-4  
 2.254000000000000E10    3.892754757544026E-4   8.637636201456189E-4  
 2.256000000000000E10    5.454451165860519E-4   1.083296636352316E-3  
 2.258000000000000E10    1.171140858787112E-3   6.705063860863447E-4  
 2.260000000000000E10    2.354376374569256E-4   2.063700285361847E-4  
 2.262000000000000E10   -3.772969757847022E-4  -1.216196833411232E-3  
 2.264000000000000E10   -1.186219538794830E-3  -7.298478813027032E-4  
 2.266000000000000E10   -7.077519985614345E-4  -6.615752063225955E-4  
 2.268000000000000E10   -1.004460350486625E-4   5.348060876713134E-4  
 2.270000000000000E10    1.795643940567970E-3  -9.216869220836088E-4  
 2.272000000000000E10    9.685249970061705E-4  -1.628492755116895E-3  
 2.274000000000000E10    1.063297986547696E-4  -2.040144026977941E-3  
 2.276000000000000E10   -1.205092921736650E-3  -2.785408578347415E-4  
 2.278000000000000E10   -5.400549853220582E-4   1.336008499492891E-4  
 2.280000000000000E10    2.094634874083567E-4   1.043400159687735E-3  
 2.282000000000000E10    2.310142224359879E-5   1.158217011834495E-3  
 2.284000000000000E10    8.376557670999318E-4  -1.108468204620294E-3  
 2.286000000000000E10   -1.150429452536628E-3  -1.163737149909139E-3  
 2.288000000000000E10   -2.992521360283718E-3  -9.856846299953759E-4  
 2.290000000000000E10   -1.988487114431337E-3   8.782736040302552E-4  
 2.292000000000000E10   -2.315912079211557E-4   1.481907398556359E-3  
 2.294000000000000E10    1.307270969846286E-3  -4.391352013044525E-4  
 2.296000000000000E10    1.145546120824292E-3  -1.774426404153928E-3  
 2.298000000000000E10   -2.259055145259481E-4  -1.470233779400587E-3  
 2.300000000000000E10   -2.543651615269482E-3   6.842590209998889E-6  
 2.302000000000000E10   -8.143260492943227E-4   2.520970418117940E-3  
 2.304000000000000E10    7.819449601811357E-4   2.660858561284840E-3  
 2.306000000000000E10    1.741564628900960E-3   4.448641120688990E-4  
 2.308000000000000E10    5.278020980767906E-4  -1.410326658515260E-3  
 2.310000000000000E10   -2.099863340845332E-3  -8.756257011555135E-4  
 2.312000000000000E10   -2.660290541825816E-3   1.144371024565771E-3  
 2.314000000000000E10    1.927807861648034E-4   1.946331918588840E-3  
 2.316000000000000E10    1.219838348333724E-3   1.241481149918400E-3  
 2.318000000000000E10    8.523818687535822E-4  -1.683890324784443E-3  
 2.320000000000000E10   -1.311328196607065E-4  -1.151725184172392E-3  
 2.322000000000000E10   -5.456731523736380E-4  -3.185802488587797E-4  
 2.324000000000000E10   -5.473867786349729E-4   1.042231786414050E-3  
 2.326000000000000E10    6.296865249169059E-4   1.294640169362538E-3  
 2.328000000000000E10    1.372338214423508E-3   1.061853996361606E-3  
 2.330000000000000E10    9.653958477429114E-4   3.157910396112129E-4  
 2.332000000000000E10    2.704066190517551E-5   1.825193612603471E-4  
 2.334000000000000E10   -5.818711770189111E-6   2.009817035286687E-4  
 2.336000000000000E10   -6.381456114468165E-5  -5.135948304086924E-4  
 2.338000000000000E10   -3.315492540423293E-4   5.295898085933004E-5  
 2.340000000000000E10   -4.954751966579352E-4   4.909826348011848E-4  
 2.342000000000000E10    1.439965388271958E-3   6.036373015376739E-4  
 2.344000000000000E10    2.407865162240341E-3  -9.981556722777896E-4  
 2.346000000000000E10    1.149554067524150E-3  -1.578447569045238E-3  
 2.348000000000000E10   -1.070807367796078E-3  -1.800861151423305E-3  
 2.350000000000000E10   -5.984704621369019E-4   5.661214891006239E-4  
 2.352000000000000E10    2.289579570060596E-4   2.372275950619951E-3  
 2.354000000000000E10    2.294767153216526E-3   2.137957835657289E-4  
 2.356000000000000E10    1.853280453360640E-3  -1.391739759128541E-3  
 2.358000000000000E10   -1.546250481624156E-3  -2.573858597315848E-3  
 2.360000000000000E10   -2.927737310528755E-3  -9.250457951566204E-4  
 2.362000000000000E10   -1.934685686137527E-3   2.435722271911800E-3  
 2.364000000000000E10    1.218527948367409E-3   1.295716429012828E-3  
 2.366000000000000E10    2.553001861087978E-3  -1.444289417122491E-3  
 2.368000000000000E10    3.706198367581237E-4  -3.258471289882436E-3  
 2.370000000000000E10   -1.648405566811562E-3  -1.576130947796628E-3  
 2.372000000000000E10   -2.368514164118096E-3   1.816825504647568E-3  
 2.374000000000000E10    7.132537721190602E-4   2.378905483055860E-3  
 2.376000000000000E10    2.202492236392573E-3   8.434803894488141E-4  
 2.378000000000000E10    6.558924869750626E-4  -1.452139476896264E-3  
 2.380000000000000E10   -1.180003542685881E-3  -1.563227022415958E-3  
 2.382000000000000E10   -2.451609732815996E-3  -3.047856989724096E-4  
 2.384000000000000E10   -1.155938371084631E-3   9.600181074347347E-4  
 2.386000000000000E10    6.032412711647339E-4   7.250464550452307E-4  
 2.388000000000000E10    9.695199405541644E-4  -7.683704170631245E-4  
 2.390000000000000E10    1.415585520589957E-4  -8.800333744147793E-4  
 2.392000000000000E10   -3.534904790285509E-4  -3.567913408915047E-4  
 2.394000000000000E10   -4.824626521440223E-4   7.507618429372087E-4  
 2.396000000000000E10    1.862474509835010E-4  -4.750487751152832E-4  
 2.398000000000000E10   -3.267844767833594E-4   3.607917424233165E-4  
 2.400000000000000E10   -1.463661101297475E-3   3.570733533706516E-4  
 2.402000000000000E10    2.457161899656057E-4   7.289316345122643E-4  
 2.404000000000000E10    8.583345625083894E-4  -7.734668633929687E-5  
 2.406000000000000E10    1.370129375573015E-4  -1.809693771065213E-3  
 2.408000000000000E10   -1.433002544217743E-3  -8.889750679372810E-4  
 2.410000000000000E10   -6.029162541381083E-4   9.420481146662496E-4  
 2.412000000000000E10    7.994539964784053E-5   2.570662443758920E-3  
 2.414000000000000E10    8.801591829978861E-4   7.702378861722536E-4  
 2.416000000000000E10    1.257483017980121E-3  -2.987207953992765E-4  
 2.418000000000000E10   -1.409681950462982E-3  -1.631801977055147E-3  
 2.420000000000000E10   -2.416846458800137E-3  -3.844228122034110E-4  
 2.422000000000000E10   -2.415619877865538E-3   1.924351177876815E-3  
 2.424000000000000E10    1.543121383292601E-3   2.699694974580780E-3  
 2.426000000000000E10    3.197941405232996E-3  -8.603469041190692E-6  
 2.428000000000000E10    1.261601355508901E-3  -3.057416412048042E-3  
 2.430000000000000E10   -2.017621154664084E-3  -1.260175296920352E-3  
 2.432000000000000E10   -2.449419815093279E-3   1.960225956281647E-3  
 2.434000000000000E10    1.807289634598419E-3   2.822761802235618E-3  
 2.436000000000000E10    2.172672946471721E-3   3.540617399266921E-4  
 2.438000000000000E10    1.452964017516933E-3  -1.343794458080083E-3  
 2.440000000000000E10    2.588641982583795E-4  -1.839724485762417E-3  
 2.442000000000000E10   -1.854882939369418E-3  -3.115381296083797E-4  
 2.444000000000000E10   -9.136432636296377E-4   1.092949401936494E-3  
 2.446000000000000E10    1.345177355688065E-3   1.667705990257673E-3  
 2.448000000000000E10    2.256040839711204E-3  -8.648770176478138E-6  
 2.450000000000000E10    7.531701921834610E-4  -2.242269954876974E-3  
 2.452000000000000E10   -1.599027833435684E-3  -4.674082156270742E-4  
 2.454000000000000E10   -3.265455270593520E-4   1.166766465757974E-3  
 2.456000000000000E10    9.488523719483055E-4   5.920672192587517E-4  
 2.458000000000000E10    6.289671364356764E-4  -8.341258580912836E-4  
 2.460000000000000E10   -7.962450981722213E-4  -1.509587737018592E-4  
 2.462000000000000E10    1.979676490009297E-4   4.739508440252394E-4  
 2.464000000000000E10    9.363917342852801E-4   2.307386712345760E-4  
 2.466000000000000E10    7.897541127022123E-5  -9.589742912794463E-4  
 2.468000000000000E10   -1.837466588767711E-4  -3.481736384856049E-4  
 2.470000000000000E10   -1.039768802002072E-3  -2.248460496048210E-4  
 2.472000000000000E10   -7.254475276567973E-4   2.674676252354402E-4  
 2.474000000000000E10    9.133254820881120E-6   7.838739911676385E-4  
 2.476000000000000E10    2.005278918659315E-3   1.392567337461514E-4  
 2.478000000000000E10    9.683724128990434E-4  -2.006036374950782E-3  
 2.480000000000000E10   -1.504763145931065E-3  -1.905880126287229E-3  
 2.482000000000000E10   -2.506872842786834E-3   2.052141295280308E-3  
 2.484000000000000E10    6.687691784463823E-4   3.203256695996970E-3  
 2.486000000000000E10    2.459176175761968E-3   3.345808872836642E-4  
 2.488000000000000E10    4.627006564987823E-4  -2.424530801363289E-3  
 2.490000000000000E10   -2.368057233979926E-3  -1.486723980633542E-3  
 2.492000000000000E10   -2.892435411922634E-3   2.984055390697904E-4  
 2.494000000000000E10   -3.171849457430653E-4   1.815664247260429E-3  
 2.496000000000000E10    1.577750124852173E-3   5.149425996933132E-4  
 2.498000000000000E10    2.354993106564507E-3  -9.584105137037113E-4  
 2.500000000000000E10    7.422004928230308E-4  -2.108060958562419E-3  
 2.502000000000000E10   -1.851027642260306E-3  -1.178487291326746E-3  
 2.504000000000000E10   -1.552624657051638E-3   2.435799222439528E-3  
 2.506000000000000E10    1.090110541554168E-3   2.865032001864165E-3  
 2.508000000000000E10    1.612800639122725E-3  -1.975099803530611E-4  
 2.510000000000000E10   -3.173859659000300E-4  -2.503915224224329E-3  
 2.512000000000000E10   -2.624889195431024E-3  -7.882828504079953E-4  
 2.514000000000000E10   -1.034555956721306E-3   5.836112832184881E-4  
 2.516000000000000E10    9.259859943995252E-4  -1.007541231956566E-5  
 2.518000000000000E10    9.072670072782785E-4  -1.025897130602971E-3  
 2.520000000000000E10    7.343627203226788E-5  -5.612227541860193E-4  
 2.522000000000000E10    1.684594135440420E-4  -4.359406466392102E-5  
 2.524000000000000E10    3.337083035148680E-4   4.611038166331127E-4  
 2.526000000000000E10   -4.204694268992171E-4   1.034856304613641E-4  
 2.528000000000000E10    3.915270644938573E-4  -1.583341545483563E-4  
 2.530000000000000E10   -9.566064400132746E-4  -7.494881137972698E-4  
 2.532000000000000E10   -1.729435898596421E-3  -4.269925775588490E-4  
 2.534000000000000E10   -3.986422743764706E-4   1.590660976944491E-3  
 2.536000000000000E10    1.594634260982275E-3  -6.668015612376621E-5  
 2.538000000000000E10    1.153016783064231E-3  -1.899999740999192E-3  
 2.540000000000000E10   -1.727091963402927E-3  -2.026769041549414E-3  
 2.542000000000000E10   -2.352961339056492E-3   1.103688875446096E-3  
 2.544000000000000E10   -3.322833217680454E-4   2.143751131370664E-3  
 2.546000000000000E10    2.177607093472034E-3   9.437753033125773E-4  
 2.548000000000000E10    1.072981831384823E-3  -1.441917702322826E-3  
 2.550000000000000E10   -1.249931025085971E-3  -1.986704766750336E-3  
 2.552000000000000E10   -1.905419689137489E-3  -5.207701951803756E-5  
 2.554000000000000E10   -5.261626429273747E-4   2.009535732213408E-3  
 2.556000000000000E10    1.257442490896210E-3   1.827048545237631E-3  
 2.558000000000000E10    2.219362417235971E-3  -3.080140595557168E-4  
 2.560000000000000E10    2.935988013632596E-4  -1.432987250154838E-3  
 2.562000000000000E10   -2.240954665467143E-3  -8.696369332028553E-4  
 2.564000000000000E10   -1.941986265592277E-3   2.478761831298471E-3  
 2.566000000000000E10    4.481932846829295E-4   2.185288700275123E-3  
 2.568000000000000E10    1.536084106191993E-3  -4.631523843272589E-4  
 2.570000000000000E10    2.562590452725999E-4  -1.874022826086730E-3  
 2.572000000000000E10   -1.156610058387741E-3  -5.295746232150123E-4  
 2.574000000000000E10   -3.258649530835100E-5   1.344490097835660E-3  
 2.576000000000000E10    1.620077877305448E-3   1.015096000628546E-3  
 2.578000000000000E10    1.447496528271586E-3   1.081141905160621E-3  
 2.580000000000000E10    7.249924237839878E-4   7.862238853704184E-4  
 2.582000000000000E10   -6.113897252362222E-4   6.911890523042530E-4  
 2.584000000000000E10    1.409739379596431E-4   8.075757359620184E-4  
 2.586000000000000E10    2.770517894532532E-4   1.318656286457554E-3  
 2.588000000000000E10    9.975197463063523E-4  -1.246793544851244E-4  
 2.590000000000000E10    2.364038955420256E-4  -8.802247029962018E-4  
 2.592000000000000E10   -9.075005073100328E-4  -1.649502410145942E-4  
 2.594000000000000E10    9.620522178011015E-4   1.408641925081611E-3  
 2.596000000000000E10    2.609832270536572E-3   1.316781290370273E-4  
 2.598000000000000E10    1.977410516701639E-3  -1.043697411660105E-3  
 2.600000000000000E10   -3.863642705255188E-4  -1.840078504756093E-3  
 2.602000000000000E10   -8.470939501421526E-4   9.501142631052062E-4  
 2.604000000000000E10    8.942943713918794E-5   2.131313958670944E-3  
 2.606000000000000E10    1.689993427135050E-3   4.419413598952815E-4  
 2.608000000000000E10    1.547398045659065E-3  -1.196985889691860E-3  
 2.610000000000000E10   -2.810675505315885E-4  -2.332234755158424E-3  
 2.612000000000000E10   -1.791881863027811E-3  -1.032039726851508E-3  
 2.614000000000000E10   -1.244663551915437E-3   6.163375655887649E-4  
 2.616000000000000E10    7.862146740080789E-4   1.975431776372716E-3  
 2.618000000000000E10    2.193860767874867E-3  -6.541005568578839E-4  
 2.620000000000000E10    7.009677647147328E-4  -2.558166452217847E-3  
 2.622000000000000E10   -2.631356182973832E-3  -1.838812982896343E-3  
 2.624000000000000E10   -2.229547651950270E-3   5.288195825414732E-4  
 2.626000000000000E10    5.516349046956748E-4   1.568049599882215E-3  
 2.628000000000000E10    1.021297735860571E-3  -2.356872937525623E-4  
 2.630000000000000E10   -3.256403360865079E-4  -1.421989029040560E-3  
 2.632000000000000E10   -7.826182700227946E-4  -4.456182577996515E-4  
 2.634000000000000E10   -1.828692678827792E-3   4.589233940350823E-4  
 2.636000000000000E10   -6.999763427302241E-4   4.258117041899823E-4  
 2.638000000000000E10   -4.312213422963396E-4   8.920324617065489E-4  
 2.640000000000000E10   -1.892731597763486E-4  -1.544740443932824E-4  
 2.642000000000000E10   -1.026628946419805E-3  -9.145506191998720E-5  
 2.644000000000000E10   -1.541116216685623E-3   1.636606284591835E-4  
 2.646000000000000E10   -7.144652190618217E-4   8.722114434931427E-4  
 2.648000000000000E10    1.258330885320902E-4   3.723991030710749E-4  
 2.650000000000000E10   -2.571318145783152E-4  -3.919139999197796E-4  
 2.652000000000000E10   -1.678510423516855E-3   7.986653326952364E-5  
 2.654000000000000E10    2.801551381708123E-4   1.508055778685957E-3  
 2.656000000000000E10    1.527998218080029E-3   1.014166191453114E-3  
 2.658000000000000E10    1.024104101816192E-3  -4.966110791428946E-4  
 2.660000000000000E10   -4.781827738042921E-4  -4.947350898873992E-4  
 2.662000000000000E10   -1.180440420284867E-3   6.086741341277957E-4  
 2.664000000000000E10   -3.439523279666901E-4   1.869797997642309E-3  
 2.666000000000000E10    1.491740607889369E-3   6.763052806491032E-4  
 2.668000000000000E10    1.700824825093150E-3   3.060288436245173E-4  
 2.670000000000000E10    3.213956515537575E-4  -1.405325310770422E-3  
 2.672000000000000E10   -1.109781645936891E-3  -1.242168247699738E-3  
 2.674000000000000E10   -1.165606547147036E-3   5.280830082483590E-4  
 2.676000000000000E10    1.302185177337378E-3   1.684794639004394E-3  
 2.678000000000000E10    2.294864854775369E-3   3.197817096634026E-5  
 2.680000000000000E10    2.012835757341236E-3  -1.940083486260846E-3  
 2.682000000000000E10   -7.869558467064053E-4  -1.137963263317943E-3  
 2.684000000000000E10   -1.209545443998650E-3   7.291607762454078E-4  
 2.686000000000000E10    8.290766854770482E-4   1.673885708441958E-3  
 2.688000000000000E10    1.157762773800641E-3   1.116968371206895E-3  
 2.690000000000000E10    5.121610156493262E-4  -8.117949619190767E-4  
 2.692000000000000E10    2.652903131092899E-4  -1.522567588835955E-3  
 2.694000000000000E10   -1.580901385750622E-3  -8.067805756581947E-4  
 2.696000000000000E10   -8.222367032431066E-4   1.124901500588749E-4  
 2.698000000000000E10    6.804849836044014E-4   8.968127658590674E-4  
 2.700000000000000E10    7.376259163720533E-4  -5.341002251952887E-4  
 2.702000000000000E10    4.212667845422402E-4  -1.098017557524145E-3  
 2.704000000000000E10   -7.530810544267297E-4   1.065457072400022E-4  
 2.706000000000000E10   -3.287180879851803E-4   9.789460164029151E-4  
 2.708000000000000E10    1.754842814989388E-4   6.482801018137252E-5  
 2.710000000000000E10    1.988090552913491E-4  -6.561376903846394E-5  
 2.712000000000000E10   -1.602733973413706E-3   4.422428537509404E-4  
 2.714000000000000E10   -3.779139733524062E-4   2.910531839006580E-4  
 2.716000000000000E10    8.388537244172767E-4   9.961556643247604E-4  
 2.718000000000000E10    5.412729806266725E-4  -3.299211966805160E-4  
 2.720000000000000E10   -4.164627243881114E-4  -6.974846182856709E-4  
 2.722000000000000E10   -1.230956957442686E-3  -2.398600481683388E-4  
 2.724000000000000E10   -5.135329556651413E-4   1.506629370851442E-3  
 2.726000000000000E10    5.949246697127819E-4   1.279182615689933E-3  
 2.728000000000000E10    1.837995048845187E-3  -1.783431662261137E-5  
 2.730000000000000E10    4.969032015651465E-4  -1.561393466545269E-3  
 2.732000000000000E10   -9.293776965932921E-4  -1.543271238915622E-3  
 2.734000000000000E10   -8.139001001836732E-4   1.351626415271312E-3  
 2.736000000000000E10    1.106793090002611E-3   1.853967318311334E-3  
 2.738000000000000E10    2.441033953800798E-3   3.132805286440998E-4  
 2.740000000000000E10    1.337136491201818E-3  -4.157629882683978E-4  
 2.742000000000000E10   -1.102554757380858E-3  -1.068080862751231E-3  
 2.744000000000000E10   -1.556007598992437E-3  -2.554197271820158E-4  
 2.746000000000000E10   -3.714016929734498E-4   9.072027751244605E-4  
 2.748000000000000E10    9.370855696033686E-4   2.663310115167406E-4  
 2.750000000000000E10    9.275696356780827E-4  -1.643398427404463E-3  
 2.752000000000000E10   -7.081185231072595E-5  -2.350581169594079E-3  
 2.754000000000000E10   -2.541757567087188E-4  -7.854818977648392E-4  
 2.756000000000000E10   -1.038693119426171E-5   5.102856594021432E-4  
