#  HZ   S   RI   R     50.00 
! Rohde & Schwarz ZVA40 4Ports - Version 3.90 - 1145.1110k42 SN: 100403
! Date: 2023-10-04 07:02:55
! Measurement: S12 
! 
 2.200000000000000E10    1.241630299773533E-3   7.743347741779871E-4  
 2.202000000000000E10    2.014980855165049E-3   5.298099258652655E-4  
 2.204000000000000E10    6.275467421801295E-4  -8.396420853387099E-4  
 2.206000000000000E10   -7.438654574798420E-5  -8.267365301435348E-4  
 2.208000000000000E10   -2.085313526549726E-4   1.512661132437643E-3  
 2.210000000000000E10    8.714484320080373E-4   1.142653753049672E-3  
 2.212000000000000E10    8.712429043953307E-4   4.736264963867143E-4  
 2.214000000000000E10    3.022946384589886E-4   3.308869690954452E-4  
 2.216000000000000E10    6.983072569255455E-5  -4.898587712887093E-5  
 2.218000000000000E10    2.609013517940184E-4  -5.681855166983496E-5  
 2.220000000000000E10   -1.800600693968590E-4  -8.825459699437488E-4  
 2.222000000000000E10   -7.079996539687272E-4  -1.377576649247203E-3  
 2.224000000000000E10   -9.555943506711628E-5  -6.780240801163018E-4  
 2.226000000000000E10    1.428353774826974E-3   8.786456126586018E-5  
 2.228000000000000E10    1.970607925613876E-3   2.133038469764870E-4  
 2.230000000000000E10    1.460789761040360E-3  -1.262608522665687E-3  
 2.232000000000000E10   -4.609278421412455E-4  -2.358666997679393E-4  
 2.234000000000000E10   -1.305746991420165E-3   6.213593733264133E-4  
 2.236000000000000E10   -8.716721094970126E-4   1.361117938358802E-3  
 2.238000000000000E10   -4.085725140612340E-5   1.137726954766549E-3  
 2.240000000000000E10    1.085527670511510E-3  -1.133596968429629E-3  
 2.242000000000000E10   -2.314571829629131E-4  -1.866051825345494E-3  
 2.244000000000000E10   -1.682762653217651E-3  -1.999640211579390E-3  
 2.246000000000000E10   -1.291946246055886E-3   1.531301168142818E-4  
 2.248000000000000E10    5.026214785175398E-4   1.311845742748119E-3  
 2.250000000000000E10    2.445956357405521E-3   8.398867976211477E-4  
 2.252000000000000E10    1.180572886369191E-3  -1.285366895899642E-3  
 2.254000000000000E10    4.689709730882896E-4  -1.118952000979334E-3  
 2.256000000000000E10   -1.625455603061710E-3   4.852595338888932E-5  
 2.258000000000000E10   -1.011936015856918E-3   9.083408003789373E-4  
 2.260000000000000E10   -8.908063718990888E-4   1.895727582450490E-3  
 2.262000000000000E10    9.426815340702888E-4   3.500033528780477E-6  
 2.264000000000000E10    1.021420386678074E-3  -1.609497296158224E-3  
 2.266000000000000E10    1.062622707195260E-4  -2.517577318940312E-3  
 2.268000000000000E10   -1.547023697639816E-3  -1.285028432903346E-3  
 2.270000000000000E10   -6.781996562494896E-4   2.339820384804625E-4  
 2.272000000000000E10    1.160726933449041E-3   9.468222378927749E-4  
 2.274000000000000E10    1.258587843040004E-3   7.752595338388346E-4  
 2.276000000000000E10    1.746477442793548E-3  -1.276625043828972E-3  
 2.278000000000000E10   -1.063165356754325E-3  -1.067562690877821E-3  
 2.280000000000000E10   -1.684753813606221E-3  -4.504288835960324E-5  
 2.282000000000000E10   -2.429882253636606E-3   5.278959033603314E-4  
 2.284000000000000E10   -3.505657368805260E-4   5.253019335214049E-4  
 2.286000000000000E10    5.728488322347403E-4  -2.309610517841065E-4  
 2.288000000000000E10   -1.346574754279573E-3  -1.621932402485982E-3  
 2.290000000000000E10   -8.398321624554228E-4  -1.155215133621823E-3  
 2.292000000000000E10   -1.343158321105875E-3  -2.053872740361840E-4  
 2.294000000000000E10   -2.934001877292758E-4   7.442838364113413E-5  
 2.296000000000000E10    7.162709443946369E-4   5.527272223844193E-4  
 2.298000000000000E10    1.197984747705050E-4   7.680157505092211E-4  
 2.300000000000000E10   -2.004514071813901E-4   8.626524031569716E-4  
 2.302000000000000E10   -2.914509586844361E-4   3.125021958112484E-4  
 2.304000000000000E10   -3.901212949131150E-4   3.712610839556874E-5  
 2.306000000000000E10   -2.082182691083290E-3   5.248929755907739E-5  
 2.308000000000000E10   -1.284142825170420E-3   9.710704143799376E-4  
 2.310000000000000E10    1.979390381166013E-4   1.793261777493171E-3  
 2.312000000000000E10    1.455601377529092E-3   2.007006753501628E-5  
 2.314000000000000E10    1.416665189026389E-3  -1.568165636854246E-3  
 2.316000000000000E10   -1.288522085815202E-3  -1.939151065016631E-3  
 2.318000000000000E10   -2.235291627584957E-3   6.711707828799263E-4  
 2.320000000000000E10   -1.925795249917428E-4   2.947261571534909E-3  
 2.322000000000000E10    2.286945848027244E-3   2.443814315483905E-3  
 2.324000000000000E10    2.344970649573952E-3  -7.803329353919253E-4  
 2.326000000000000E10   -2.932030929514440E-4  -2.154841218725778E-3  
 2.328000000000000E10   -2.900126943131909E-3  -2.195898332502111E-4  
 2.330000000000000E10   -2.212554580182768E-3   2.120079720043577E-3  
 2.332000000000000E10    1.814428876969032E-3   2.303278335602954E-3  
 2.334000000000000E10    2.869584641302936E-3  -2.695120474527357E-4  
 2.336000000000000E10    2.052622701739892E-3  -3.181579202646390E-3  
 2.338000000000000E10   -1.390259152685758E-3  -1.942767674336210E-3  
 2.340000000000000E10   -1.639019334106706E-3   1.270035223569721E-3  
 2.342000000000000E10    6.949328708287794E-4   2.352000898099504E-3  
 2.344000000000000E10    2.689113811356947E-3   6.193650006025564E-4  
 2.346000000000000E10    1.384428600431420E-3  -1.096029453037772E-3  
 2.348000000000000E10   -9.290286325267516E-4  -2.032151132880244E-3  
 2.350000000000000E10   -7.062580916681327E-4  -3.813730181718711E-4  
 2.352000000000000E10   -9.572380622557830E-4   1.224624000315089E-3  
 2.354000000000000E10    7.363126569543965E-4  -5.575574978138320E-4  
 2.356000000000000E10    3.967961347370874E-4  -5.479160681716166E-4  
 2.358000000000000E10   -1.058144283888396E-3  -1.104431881685741E-3  
 2.360000000000000E10   -6.682302318949951E-5   1.888758806671831E-4  
 2.362000000000000E10    6.544082111759053E-5  -3.926225326722488E-4  
 2.364000000000000E10    5.082625393697526E-4  -1.148475035734009E-3  
 2.366000000000000E10   -9.728828081279062E-4  -6.262576134759001E-4  
 2.368000000000000E10   -1.356087152089458E-3   5.843260732945055E-4  
 2.370000000000000E10    2.521571295801550E-4   2.110231114784256E-3  
 2.372000000000000E10    1.644743722863495E-3   2.490157730790088E-4  
 2.374000000000000E10    6.245185504667461E-4  -1.577076182002202E-3  
 2.376000000000000E10   -1.765297231031582E-3  -1.682021807937417E-3  
 2.378000000000000E10   -3.155536964186467E-3   7.101923729351256E-4  
 2.380000000000000E10   -9.235433390131220E-4   2.386660096817650E-3  
 2.382000000000000E10    2.349927337490954E-3   8.672153635416180E-4  
 2.384000000000000E10    2.102617610944435E-3  -2.332697156816721E-3  
 2.386000000000000E10   -1.188236325106118E-3  -3.011955675901845E-3  
 2.388000000000000E10   -2.949685003841296E-3   1.796538090275135E-4  
 2.390000000000000E10   -1.289034997171257E-3   2.972928210510872E-3  
 2.392000000000000E10    1.684104310697876E-3   2.289000549353659E-3  
 2.394000000000000E10    1.819066215830389E-3  -3.568929350876715E-4  
 2.396000000000000E10   -1.448158568564395E-4  -2.471542800776660E-3  
 2.398000000000000E10   -2.493866501026787E-3  -1.803014252800494E-3  
 2.400000000000000E10   -3.145710361422971E-3   1.112436730181798E-3  
 2.402000000000000E10    6.341946354950778E-4   2.092522845487110E-3  
 2.404000000000000E10    2.444863115670160E-3  -4.374617892608512E-4  
 2.406000000000000E10    1.159508545242716E-3  -2.434532041661441E-3  
 2.408000000000000E10   -1.353275969449896E-3  -1.426269169314764E-3  
 2.410000000000000E10   -8.534158187103458E-4   1.116531129810028E-3  
 2.412000000000000E10   -2.482514419170911E-4   1.859742566011846E-3  
 2.414000000000000E10   -2.352270921619493E-4   2.638612349983305E-4  
 2.416000000000000E10   -4.188346938462928E-4   4.774782064487226E-4  
 2.418000000000000E10   -1.151113348896615E-3   6.968544334995386E-5  
 2.420000000000000E10   -8.710155780136120E-4  -3.660570655483753E-4  
 2.422000000000000E10   -7.387003752228338E-4  -2.667212193045998E-4  
 2.424000000000000E10    5.910589879931649E-5   3.396941829123534E-4  
 2.426000000000000E10    1.790782898751786E-4  -7.164419957916834E-5  
 2.428000000000000E10    3.589442653151309E-5  -1.342046161880717E-4  
 2.430000000000000E10   -6.407051353107818E-5   1.832718131481670E-3  
 2.432000000000000E10    1.936087006470189E-3   1.553993759443983E-3  
 2.434000000000000E10    1.453591416066047E-3  -3.297197308711475E-4  
 2.436000000000000E10   -1.272530513233505E-3  -1.093722334189806E-3  
 2.438000000000000E10   -2.352247844100930E-3   1.075210857379716E-3  
 2.440000000000000E10   -4.243433759256732E-4   2.516212014597841E-3  
 2.442000000000000E10    2.432691413559951E-3   8.796735346550122E-5  
 2.444000000000000E10    1.511659560492262E-3  -2.080802092677914E-3  
 2.446000000000000E10    4.259302977516200E-5  -1.906829354993533E-3  
 2.448000000000000E10   -1.044872427883092E-3  -4.021342156192986E-4  
 2.450000000000000E10   -5.611783435597317E-4   1.411019569786731E-3  
 2.452000000000000E10    1.144412504800130E-3   2.501972907339223E-3  
 2.454000000000000E10    2.876009122701362E-3   7.766780145175289E-4  
 2.456000000000000E10    1.885363206383772E-3  -1.812681701267138E-3  
 2.458000000000000E10   -2.307688890141435E-3  -2.860915948986076E-3  
 2.460000000000000E10   -3.241153113776818E-3   1.191958646813873E-3  
 2.462000000000000E10   -9.462899294021554E-5   2.661626058397815E-3  
 2.464000000000000E10    3.142119807307608E-3  -1.169422484963434E-4  
 2.466000000000000E10    1.358291403448675E-3  -2.252749749459326E-3  
 2.468000000000000E10   -9.202124092553277E-4  -2.006322814850137E-3  
 2.470000000000000E10   -1.083517388906330E-3  -3.435171965975314E-4  
 2.472000000000000E10   -4.331300860940246E-4   7.098332316672895E-4  
 2.474000000000000E10    4.292060493753525E-4   1.257862415513955E-3  
 2.476000000000000E10    1.691420744464267E-3   9.751887318998342E-5  
 2.478000000000000E10    3.746441652765498E-4  -9.829633127083071E-4  
 2.480000000000000E10   -1.780812999641057E-3  -8.823562857287470E-4  
 2.482000000000000E10   -1.646690601774026E-3   1.346851975540631E-3  
 2.484000000000000E10   -4.652129467785926E-5   1.169506402220577E-3  
 2.486000000000000E10    5.889057065360248E-4  -1.322289048403036E-3  
 2.488000000000000E10   -1.642230490688235E-3  -1.010256004519761E-3  
 2.490000000000000E10   -1.422506051312666E-3   5.809887279610848E-4  
 2.492000000000000E10    8.160074903571513E-4   5.701236405002419E-4  
 2.494000000000000E10    1.554765236505773E-3  -1.257868352695368E-3  
 2.496000000000000E10    2.860819654415536E-5  -8.805391262285411E-4  
 2.498000000000000E10   -6.960090759093873E-4   4.392722385091474E-4  
 2.500000000000000E10   -1.322693879046710E-4   1.938000743393786E-3  
 2.502000000000000E10    9.332227964478079E-4   1.931380240421277E-3  
 2.504000000000000E10    1.134529418777674E-3   2.638634978211485E-4  
 2.506000000000000E10    1.134784943133127E-4  -5.864368358743377E-4  
 2.508000000000000E10   -2.121589379385114E-3  -1.766949528246187E-3  
 2.510000000000000E10   -2.339250437216833E-3   2.800166439556051E-4  
 2.512000000000000E10    2.805350068229018E-4   2.158232266083360E-3  
 2.514000000000000E10    2.761915675364435E-3  -2.536653719289461E-4  
 2.516000000000000E10    2.533901599235833E-3  -2.758034679573029E-3  
 2.518000000000000E10   -9.474776816205122E-4  -2.470088191330433E-3  
 2.520000000000000E10   -1.992131466977298E-3   1.112410536734387E-3  
 2.522000000000000E10    6.495371490018442E-4   2.640186052303761E-3  
 2.524000000000000E10    2.529384510125965E-3   1.473919226555154E-3  
 2.526000000000000E10    5.160622968105599E-4  -1.209979716804810E-3  
 2.528000000000000E10   -9.976296641980298E-4  -2.196195768192411E-3  
 2.530000000000000E10   -2.300612337421626E-3  -7.343419420067221E-4  
 2.532000000000000E10   -1.280152981053107E-3  -4.319336449043476E-5  
 2.534000000000000E10    5.620006995741278E-4   6.844285162515007E-4  
 2.536000000000000E10    2.302278095157817E-3  -1.060953334672377E-3  
 2.538000000000000E10    7.625908474437892E-4  -2.329368522623554E-3  
 2.540000000000000E10   -1.274019159609452E-3  -1.302154632867314E-3  
 2.542000000000000E10   -5.700932015315630E-4   1.218304314534180E-3  
 2.544000000000000E10    4.365873683127575E-4   9.007696498883888E-4  
 2.546000000000000E10    1.152619268395938E-3  -1.550010729260976E-4  
 2.548000000000000E10   -1.534690018161200E-3  -5.541140199056827E-4  
 2.550000000000000E10   -1.588739120052196E-3  -5.030467364122160E-4  
 2.552000000000000E10    4.286247421987355E-4   7.937829432194121E-4  
 2.554000000000000E10    7.913446024758741E-4  -6.172848370624706E-4  
 2.556000000000000E10   -2.931206472567283E-4  -1.240330631844699E-3  
 2.558000000000000E10   -9.240967920050025E-4   1.927021889969183E-5  
 2.560000000000000E10   -9.142333656200208E-4   1.554245638544671E-3  
 2.562000000000000E10    2.959402881970163E-4   1.312850799877197E-3  
 2.564000000000000E10    9.581400445313193E-4   3.629488637670875E-4  
 2.566000000000000E10   -2.510690119379433E-4  -8.632600365672261E-4  
 2.568000000000000E10   -1.602716642082669E-3  -1.287840481381863E-3  
 2.570000000000000E10   -2.068847301416099E-3   8.971051283879206E-4  
 2.572000000000000E10    2.459818297211314E-4   2.475236280588433E-3  
 2.574000000000000E10    2.757099835434929E-3   7.833241761545651E-4  
 2.576000000000000E10    2.393557224422693E-3  -1.227905362611637E-3  
 2.578000000000000E10   -1.470496790716425E-3  -1.117056483053602E-3  
 2.580000000000000E10   -2.252609556308016E-3   1.725884751067497E-3  
 2.582000000000000E10    1.365409634672687E-4   2.917600388173014E-3  
 2.584000000000000E10    2.040815219515935E-3   1.340022237855010E-3  
 2.586000000000000E10    1.066723008989357E-3  -6.088681911933236E-4  
 2.588000000000000E10   -2.356990098633105E-4  -1.600962961674668E-3  
 2.590000000000000E10   -1.221740618348122E-3   7.825767443137011E-5  
 2.592000000000000E10   -3.935473614546936E-4   8.321660643559881E-4  
 2.594000000000000E10    1.506712142145261E-3   1.824379854951985E-3  
 2.596000000000000E10    2.592891367385164E-3  -1.200299375341274E-4  
 2.598000000000000E10    1.366162003250793E-3  -1.168166883871891E-3  
 2.600000000000000E10   -7.614320056745783E-4  -4.083430030732416E-5  
 2.602000000000000E10   -3.741191312656156E-5   1.107639400288463E-3  
 2.604000000000000E10    9.307123327744193E-4   1.372469501802698E-3  
 2.606000000000000E10    1.054676409694366E-3  -7.013334907242097E-4  
 2.608000000000000E10   -3.226530789106619E-4  -8.803121818345971E-4  
 2.610000000000000E10   -1.033454254866228E-4  -5.068695372756338E-5  
 2.612000000000000E10    4.481420255615376E-4  -3.152760314151237E-5  
 2.614000000000000E10    1.013764434901532E-3  -1.175925426650792E-3  
 2.616000000000000E10    1.310526986344485E-4  -3.263281687395647E-4  
 2.618000000000000E10   -7.646630328963511E-4  -8.160188808687963E-4  
 2.620000000000000E10   -2.359942554903682E-4   2.942002029158175E-4  
 2.622000000000000E10   -6.900814551045187E-4   1.683583122940036E-4  
 2.624000000000000E10    1.240141224116087E-3  -9.897597465169383E-5  
 2.626000000000000E10    5.245431166258641E-4  -1.235669027664699E-3  
 2.628000000000000E10   -1.475795521400869E-3  -2.199008187744767E-3  
 2.630000000000000E10   -2.583534165751189E-3   5.571357647227160E-6  
 2.632000000000000E10   -3.065465316467453E-4   1.810057787224650E-3  
 2.634000000000000E10    1.459532111766748E-3   5.078551075712312E-4  
 2.636000000000000E10    3.947038931073621E-4  -2.144145109923556E-3  
 2.638000000000000E10   -1.502781975432299E-3  -1.637266163015738E-3  
 2.640000000000000E10   -2.092012466164306E-3   9.477077855990501E-5  
 2.642000000000000E10   -1.241389545612037E-3   1.704755239188671E-3  
 2.644000000000000E10    1.074620899998990E-5   8.829196667647921E-4  
 2.646000000000000E10    8.002816539374180E-4  -7.313353580684634E-5  
 2.648000000000000E10   -3.981027257395908E-4  -1.214527335832827E-3  
 2.650000000000000E10   -1.541577395983040E-3  -9.476229315623641E-4  
 2.652000000000000E10   -2.198266243794933E-3   7.791470197844319E-4  
 2.654000000000000E10    5.603245008387603E-4   1.821611047489569E-3  
 2.656000000000000E10    1.277964256587438E-3   1.340246948529966E-3  
 2.658000000000000E10    4.619360443030018E-4  -1.289465493755415E-3  
 2.660000000000000E10   -9.053746107383631E-4  -1.600842830384863E-5  
 2.662000000000000E10   -1.096090185455978E-3   7.815854114596732E-4  
 2.664000000000000E10    4.180514151812531E-4   8.056135848164558E-4  
 2.666000000000000E10    5.994468156131916E-4   3.309339481347706E-4  
 2.668000000000000E10    1.079442968148214E-4   3.198753838660196E-4  
 2.670000000000000E10    7.578323675261345E-5   1.297324502047559E-6  
 2.672000000000000E10    8.673595657455735E-4   1.452349806640996E-4  
 2.674000000000000E10    4.579250671667978E-4  -3.895049521815963E-4  
 2.676000000000000E10    5.458661689772271E-4  -2.182973039452918E-4  
 2.678000000000000E10    4.132669746468309E-4   7.747060590190813E-5  
 2.680000000000000E10    4.743327299365774E-4   2.525726595195010E-4  
 2.682000000000000E10    4.544804614852183E-4   1.154048033640720E-3  
 2.684000000000000E10    1.450472336728126E-3   4.226378514431417E-4  
 2.686000000000000E10    1.022452255710959E-3  -6.947646616026759E-4  
 2.688000000000000E10   -1.138813691795804E-3  -9.044373364304192E-4  
 2.690000000000000E10   -1.424062967998907E-3   4.176209331490099E-4  
 2.692000000000000E10    3.123295791738201E-4   8.309391560032964E-4  
 2.694000000000000E10    1.642464092583396E-3   2.768397280306090E-4  
 2.696000000000000E10    5.811525916215032E-4  -1.360068432404660E-3  
 2.698000000000000E10   -2.013097955568810E-4  -1.414274491253309E-3  
 2.700000000000000E10   -8.662527689011768E-4   2.311134448973462E-5  
 2.702000000000000E10   -3.553789283614606E-4   1.070881247869693E-3  
 2.704000000000000E10    8.301799389300868E-4   1.321712523349561E-3  
 2.706000000000000E10    1.079842812032439E-3   1.435186704838998E-4  
 2.708000000000000E10   -2.212469780715765E-5  -1.115084960474633E-3  
 2.710000000000000E10   -1.262928650248796E-3  -7.658133908989839E-4  
 2.712000000000000E10   -1.832326437579468E-3   6.224132157512941E-4  
 2.714000000000000E10    5.938092044743826E-5   3.745497051568236E-4  
 2.716000000000000E10    1.478980411775410E-3   2.982538644573651E-4  
 2.718000000000000E10    6.083679327275604E-4  -8.174222675734200E-4  
 2.720000000000000E10   -3.458432038314641E-4  -6.520210590679199E-4  
 2.722000000000000E10   -1.475228655181127E-4   4.200537659926340E-4  
 2.724000000000000E10   -2.445686259306967E-4   1.221558180986904E-3  
 2.726000000000000E10   -3.237238088331651E-4   4.113723771297373E-4  
 2.728000000000000E10    6.764451245544478E-4   1.471033574489411E-4  
 2.730000000000000E10   -4.407117580740305E-5  -2.058762092929101E-4  
 2.732000000000000E10    1.795934122128529E-4  -5.026515063946135E-4  
 2.734000000000000E10    4.871003584412392E-4  -1.619424192540464E-4  
 2.736000000000000E10    1.811905949580250E-4  -2.991894580191001E-4  
 2.738000000000000E10    3.281533754488919E-4   8.939546387409791E-4  
 2.740000000000000E10    3.876994232996367E-4   6.441043879021891E-4  
 2.742000000000000E10    5.651113824569620E-4   5.141774745425209E-4  
 2.744000000000000E10    9.222580265486613E-4  -3.904217774106655E-4  
 2.746000000000000E10    1.169505985672004E-4  -4.789854137925431E-4  
 2.748000000000000E10   -9.561738188494928E-4  -4.958576137141790E-4  
 2.750000000000000E10   -3.067884681513533E-4  -1.501544938946609E-4  
 2.752000000000000E10    4.496432920859661E-4  -3.302120858279523E-4  
 2.754000000000000E10    1.345879922155291E-3  -2.067303887542948E-5  
 2.756000000000000E10    6.957372897886671E-4  -1.062276700395159E-3  
