#  HZ   S   RI   R     50.00 
! Rohde & Schwarz ZVA40 4Ports - Version 3.90 - 1145.1110k42 SN: 100403
! Date: 2023-10-04 07:02:24
! Measurement: S12 
! 
 2.200000000000000E10   -6.115961082286958E-5   3.562085348676192E-4  
 2.202000000000000E10    9.883120437734760E-4   1.627263700356707E-4  
 2.204000000000000E10   -1.593759952811524E-4  -5.624205477943178E-4  
 2.206000000000000E10   -5.168185125512537E-4  -1.296070631724433E-4  
 2.208000000000000E10    5.900519536226057E-4   1.409371958288830E-3  
 2.210000000000000E10    3.664690211735433E-4   6.822496834502090E-4  
 2.212000000000000E10   -1.769709360814886E-4   3.372951887286035E-4  
 2.214000000000000E10    9.653218512539752E-4   3.696961812238442E-4  
 2.216000000000000E10    3.144944221276091E-4  -7.587191328184417E-5  
 2.218000000000000E10    2.420340242679231E-4  -1.890441621071659E-3  
 2.220000000000000E10    5.701153952486493E-5  -6.789381550333928E-4  
 2.222000000000000E10   -1.457929865864571E-4   6.745499595126603E-4  
 2.224000000000000E10    2.124403428751975E-3   1.703438747426844E-4  
 2.226000000000000E10    1.442159213183913E-3  -6.936140889592934E-4  
 2.228000000000000E10    4.031019616377307E-4  -8.872607140801847E-4  
 2.230000000000000E10   -3.987284144386649E-4  -6.435735303966794E-4  
 2.232000000000000E10   -7.798132537573110E-4  -2.857088857126655E-4  
 2.234000000000000E10   -7.938772760098800E-4   1.162285625468940E-3  
 2.236000000000000E10    2.863798354155733E-4   4.988521432096604E-4  
 2.238000000000000E10    1.550383509311359E-3  -9.693511856312398E-4  
 2.240000000000000E10   -7.168648699007463E-4  -2.296184917213395E-3  
 2.242000000000000E10   -1.783276878995821E-3  -1.888729901111219E-3  
 2.244000000000000E10   -7.455055711034220E-4   9.047366365848575E-4  
 2.246000000000000E10    5.634465196635574E-4   1.080392015865073E-3  
 2.248000000000000E10    1.512247348728124E-3   4.890701202384662E-4  
 2.250000000000000E10    7.850282381696161E-4  -7.434969393216306E-5  
 2.252000000000000E10    1.430819711458753E-4  -5.564758903346956E-4  
 2.254000000000000E10   -1.505408581579104E-3  -9.419890302524436E-4  
 2.256000000000000E10   -2.197123234509490E-3   9.752797450346407E-4  
 2.258000000000000E10   -7.833222916815430E-4   1.682159527263138E-3  
 2.260000000000000E10    1.623102878511418E-3  -1.349791036773240E-4  
 2.262000000000000E10    1.031198495184071E-3  -1.530683199234773E-3  
 2.264000000000000E10   -5.154658865649253E-4  -2.179312796215527E-3  
 2.266000000000000E10   -3.292740184406284E-4  -4.603594261425315E-4  
 2.268000000000000E10   -3.117542673862772E-4   8.591316291131079E-4  
 2.270000000000000E10    1.509069676103536E-3   8.691498223925009E-4  
 2.272000000000000E10    9.059993790287990E-4   8.355284116987605E-4  
 2.274000000000000E10    7.722484733676538E-4  -3.442438119236613E-4  
 2.276000000000000E10   -7.337918286793865E-4  -9.103327429329511E-4  
 2.278000000000000E10   -2.660540470969863E-3   2.546220272847677E-5  
 2.280000000000000E10   -8.116396020341199E-4   1.309171224420425E-3  
 2.282000000000000E10    8.035681057663169E-4   1.385764444421511E-4  
 2.284000000000000E10    5.673179330187850E-4  -1.499990343290847E-3  
 2.286000000000000E10   -2.004799534915946E-4  -1.719443869660609E-3  
 2.288000000000000E10    6.104360618337523E-4   2.018847899307730E-4  
 2.290000000000000E10    5.971064674668014E-4  -4.655381453630980E-4  
 2.292000000000000E10    1.419831214661826E-4  -7.382691037491895E-4  
 2.294000000000000E10   -6.211434047145303E-4   2.213551750173792E-3  
 2.296000000000000E10   -1.461576857764158E-4   1.282628152694088E-3  
 2.298000000000000E10    4.501449711824535E-4   2.833318922057515E-4  
 2.300000000000000E10   -9.493835677858442E-4  -1.136523409513757E-3  
 2.302000000000000E10   -1.605927616765257E-3  -1.236019408679567E-3  
 2.304000000000000E10   -2.129439802956767E-3  -8.279018584289588E-4  
 2.306000000000000E10   -1.404104346875101E-3   1.516743213869631E-4  
 2.308000000000000E10    1.565126032801345E-3   1.230432812008075E-3  
 2.310000000000000E10    3.143298963550478E-3  -9.701963790575974E-4  
 2.312000000000000E10    9.728978911880404E-4  -2.385919724474661E-3  
 2.314000000000000E10   -1.902447686006781E-3  -9.419580965186469E-4  
 2.316000000000000E10   -1.815066578274127E-3   3.509941219817847E-3  
 2.318000000000000E10    7.155262283049524E-4   3.891824017046019E-3  
 2.320000000000000E10    1.817034921259619E-3   7.773568431730382E-4  
 2.322000000000000E10   -3.745860176422866E-4  -1.264610684302170E-3  
 2.324000000000000E10   -3.183259424986318E-3  -1.945472002262250E-3  
 2.326000000000000E10   -2.929118782049045E-3  -1.765669890119170E-5  
 2.328000000000000E10   -1.291665612370707E-3   1.675547027844004E-3  
 2.330000000000000E10    2.358281592023559E-3   1.448832890673657E-4  
 2.332000000000000E10    3.508924535708502E-3  -1.786819018889219E-3  
 2.334000000000000E10    1.218209763464984E-3  -1.399524648149964E-3  
 2.336000000000000E10   -1.303639743127860E-3   2.644773976498982E-4  
 2.338000000000000E10    2.425031416350976E-4   3.014222907950170E-3  
 2.340000000000000E10    1.295348476560321E-3   3.055893481359817E-3  
 2.342000000000000E10    3.271217874498689E-4   4.522169660958753E-5  
 2.344000000000000E10   -5.709399738407228E-4  -4.911721352982568E-4  
 2.346000000000000E10   -1.368871693557594E-3   8.855661417328520E-5  
 2.348000000000000E10   -9.700134032755159E-4  -6.238184141693637E-4  
 2.350000000000000E10    5.242313600319903E-4  -1.347420198726468E-3  
 2.352000000000000E10    7.291786241694354E-4  -9.943803088390268E-4  
 2.354000000000000E10    8.379184691875707E-5  -9.843903862929437E-4  
 2.356000000000000E10    1.278661613469012E-3  -7.335288100875914E-4  
 2.358000000000000E10    1.723295295960270E-3   7.300931792997289E-4  
 2.360000000000000E10    1.117068903113250E-3  -6.544933385157492E-4  
 2.362000000000000E10    2.691701956791803E-4  -7.377990441455040E-4  
 2.364000000000000E10   -2.165157769923098E-3   7.821076360414736E-4  
 2.366000000000000E10   -1.361844646453392E-3   1.997802726691589E-3  
 2.368000000000000E10    1.243889397301246E-3   9.789410905796103E-4  
 2.370000000000000E10    1.218986973981373E-3  -2.544690898503177E-3  
 2.372000000000000E10   -1.207571986014955E-3  -3.338465117849410E-3  
 2.374000000000000E10   -2.529417353798635E-3  -8.634907680971082E-4  
 2.376000000000000E10   -8.898741216398776E-4   2.037588361417875E-3  
 2.378000000000000E10    1.831536043027882E-3   1.290857020649128E-3  
 2.380000000000000E10    3.067177152843215E-3  -1.176705387479160E-3  
 2.382000000000000E10    3.816383305093041E-4  -2.226619879365899E-3  
 2.384000000000000E10   -2.727656989009120E-3  -1.482925115851685E-3  
 2.386000000000000E10   -2.567194984294474E-3   1.687867399596144E-3  
 2.388000000000000E10   -2.405076338618528E-4   3.203860876965337E-3  
 2.390000000000000E10    1.875106703664642E-3   7.411403603327926E-4  
 2.392000000000000E10    9.391634484927636E-4  -3.319959170767106E-3  
 2.394000000000000E10   -2.468341393978335E-3  -2.265643473947421E-3  
 2.396000000000000E10   -2.376036485657096E-3  -3.159927291562781E-4  
 2.398000000000000E10    9.628479929233436E-4   8.567197000957094E-4  
 2.400000000000000E10    1.293522509513423E-3   2.382203820161521E-4  
 2.402000000000000E10    1.256520728929900E-3  -1.265713282919023E-3  
 2.404000000000000E10    6.862631598778535E-4  -8.476060575048905E-4  
 2.406000000000000E10   -7.342118624364957E-4   1.453662330277439E-4  
 2.408000000000000E10   -1.218030614836607E-3   7.406002296193037E-4  
 2.410000000000000E10    2.251551659355755E-4   9.023873608384747E-4  
 2.412000000000000E10    8.332067841365642E-5   3.395519506739220E-4  
 2.414000000000000E10   -1.689033284492325E-3  -9.084985722438432E-4  
 2.416000000000000E10   -8.019938031793572E-4   2.545779334468534E-4  
 2.418000000000000E10    3.216333898308221E-4   2.086420263367472E-4  
 2.420000000000000E10    4.632653271983145E-4  -2.113493756041862E-3  
 2.422000000000000E10   -7.709872552368324E-4  -1.161267944553401E-3  
 2.424000000000000E10   -9.975421780836768E-4   1.560748532938305E-3  
 2.426000000000000E10    1.276425151445437E-3   2.001235203351826E-3  
 2.428000000000000E10    1.912274572532624E-3   4.918083095617476E-5  
 2.430000000000000E10   -2.202730902354233E-4  -1.359969101031311E-4  
 2.432000000000000E10   -1.866204132966232E-3  -3.223509145300341E-5  
 2.434000000000000E10   -1.949115598108620E-3   8.641007407277357E-4  
 2.436000000000000E10   -1.833388618251775E-3   1.976127990928944E-3  
 2.438000000000000E10    1.733523158691241E-4   1.350458056549542E-3  
 2.440000000000000E10    2.624346379889175E-3  -6.562186244991608E-4  
 2.442000000000000E10    7.995034575287718E-4  -2.903906119172461E-3  
 2.444000000000000E10   -1.633824744203594E-3  -1.043347328959499E-3  
 2.446000000000000E10   -8.941371488617733E-4   2.601654443424195E-3  
 2.448000000000000E10    1.831976645917166E-3   3.469130184384994E-3  
 2.450000000000000E10    2.938981095212512E-3   6.954892523935996E-4  
 2.452000000000000E10    8.808029888314195E-4  -1.230354122526478E-3  
 2.454000000000000E10   -1.354222818918061E-3  -2.858848602045327E-4  
 2.456000000000000E10   -1.432173019566108E-3   3.364966614753939E-4  
 2.458000000000000E10   -3.825137338253626E-5   3.565788811101811E-4  
 2.460000000000000E10    1.106744282878935E-3   4.106935721210903E-4  
 2.462000000000000E10    2.309192350367084E-3  -7.849236790207215E-4  
 2.464000000000000E10    1.704811606032308E-3  -2.473284243023954E-3  
 2.466000000000000E10   -1.865457361418521E-4  -1.539256038086023E-3  
 2.468000000000000E10   -5.494997240020894E-4   1.259576034499332E-3  
 2.470000000000000E10    1.392916856275406E-3   1.395037761540152E-3  
 2.472000000000000E10    1.599578194145579E-3  -6.173993278935086E-4  
 2.474000000000000E10   -8.100763625407126E-4  -9.063770266948268E-4  
 2.476000000000000E10   -1.188624213682488E-3   3.460903121776937E-5  
 2.478000000000000E10   -1.370498248434160E-4  -4.275209012121195E-4  
 2.480000000000000E10   -5.006619576306548E-4  -1.367830285744276E-3  
 2.482000000000000E10   -1.162687367468607E-3  -1.297599759709556E-3  
 2.484000000000000E10   -1.431098216926330E-4  -2.249302797281416E-4  
 2.486000000000000E10    4.436043109308230E-4  -6.426571926567704E-4  
 2.488000000000000E10    1.034336542943493E-3  -1.014555193250999E-3  
 2.490000000000000E10    3.315127214591485E-4  -9.266528081752767E-5  
 2.492000000000000E10    2.197899721068097E-4  -6.037006787664723E-4  
 2.494000000000000E10   -1.124913600506261E-3  -3.958928646170534E-4  
 2.496000000000000E10   -1.947523742273916E-3   1.840714263380505E-3  
 2.498000000000000E10    8.058308625891186E-5   1.575600173964631E-3  
 2.500000000000000E10    1.300597396038938E-3  -4.704400926129893E-4  
 2.502000000000000E10   -5.441489192890003E-4  -2.222482886281796E-3  
 2.504000000000000E10   -3.074745298363268E-3  -1.002179589704610E-3  
 2.506000000000000E10   -1.432598015526310E-3   9.534485870972276E-4  
 2.508000000000000E10    6.246842676773667E-4   1.472254502004944E-3  
 2.510000000000000E10    1.786862645531073E-3  -2.133373891410884E-5  
 2.512000000000000E10    1.511912952992134E-3  -8.221127500291914E-4  
 2.514000000000000E10   -5.766999165643938E-4  -7.753571189823560E-4  
 2.516000000000000E10   -1.308986116782762E-3   6.946879075258039E-4  
 2.518000000000000E10   -6.804586955695413E-4   2.546852803789079E-3  
 2.520000000000000E10    1.098035238101147E-3   2.263315924210474E-3  
 2.522000000000000E10    1.777248689904809E-3  -3.557811251084786E-4  
 2.524000000000000E10    1.310434327024268E-4  -2.100472367601469E-3  
 2.526000000000000E10   -2.007904695346952E-3  -6.123959246906452E-4  
 2.528000000000000E10   -6.174525260576047E-4   3.453338031249587E-4  
 2.530000000000000E10    1.809263616451062E-3   7.381893301499076E-4  
 2.532000000000000E10    2.017479244386777E-3  -9.212501827278175E-4  
 2.534000000000000E10    1.269291024073027E-3  -7.464753725798801E-4  
 2.536000000000000E10    6.201954747666605E-4  -1.312216454607551E-5  
 2.538000000000000E10    7.964597025420517E-4   3.495477540127467E-4  
 2.540000000000000E10    4.346036512288265E-4   2.327931688341778E-4  
 2.542000000000000E10    7.737731993984198E-5   4.613529404196015E-5  
 2.544000000000000E10   -5.268425084068440E-4   4.067512418259867E-5  
 2.546000000000000E10   -6.438277778215706E-4  -1.029338352964260E-3  
 2.548000000000000E10   -4.230922149872640E-5  -4.474015368032269E-4  
 2.550000000000000E10    2.060304723272566E-4  -1.218876990606077E-3  
 2.552000000000000E10    4.413045535329729E-4  -1.951300728251226E-3  
 2.554000000000000E10   -1.460647936255555E-4  -1.319920876994729E-3  
 2.556000000000000E10   -3.786243687500246E-4   9.094622873817571E-4  
 2.558000000000000E10    6.145823208498769E-4   7.454254737240262E-4  
 2.560000000000000E10    1.474004689953290E-3   1.200660690301447E-4  
 2.562000000000000E10   -2.982294572575484E-4  -1.036463290802203E-3  
 2.564000000000000E10   -2.165099431294948E-3  -3.281172612332739E-4  
 2.566000000000000E10   -2.120213088346645E-3   1.794712530681863E-3  
 2.568000000000000E10    2.535641760914587E-4   1.317824309808202E-3  
 2.570000000000000E10    3.210664108337369E-4   1.819511908252025E-5  
 2.572000000000000E10    3.072728327424557E-5  -1.377637556288391E-3  
 2.574000000000000E10   -1.415586360963062E-3  -8.817513589747250E-4  
 2.576000000000000E10   -1.819875891669653E-3   6.267548669711687E-4  
 2.578000000000000E10   -1.030951016218751E-4   1.724443529383279E-3  
 2.580000000000000E10    1.073498235200532E-3   1.523933751741424E-3  
 2.582000000000000E10    1.216600096086040E-3   1.015246825772920E-4  
 2.584000000000000E10   -1.010253472486511E-3  -9.707311401143670E-4  
 2.586000000000000E10   -1.513179566245526E-3   7.534242613473907E-4  
 2.588000000000000E10   -1.492101728217676E-3   1.910662627778947E-3  
 2.590000000000000E10    8.828879435895942E-4   1.182883148430847E-3  
 2.592000000000000E10    1.218054516357370E-3   3.008367093570996E-4  
 2.594000000000000E10    1.289079355046852E-4  -2.582786601124099E-4  
 2.596000000000000E10    1.764780699886615E-5   3.747364789887797E-4  
 2.598000000000000E10   -2.589670530142030E-4   5.541249520319980E-4  
 2.600000000000000E10    2.350468621443724E-4   8.728089087526314E-4  
 2.602000000000000E10    1.162412845587824E-4   1.345144351034833E-4  
 2.604000000000000E10    1.130752461904194E-4   2.974981834995560E-4  
 2.606000000000000E10    2.711958368308842E-4   6.907647730258759E-6  
 2.608000000000000E10    6.016523839207366E-4   3.009233569173375E-4  
 2.610000000000000E10    6.593060024897568E-4  -1.968905999092385E-4  
 2.612000000000000E10    5.998296837788075E-4  -6.247935452847742E-4  
 2.614000000000000E10   -3.884289690176956E-4  -4.404427170356939E-5  
 2.616000000000000E10   -1.886539794213604E-4   7.932522858027369E-4  
 2.618000000000000E10    1.010528096230701E-3   1.082458067685366E-3  
 2.620000000000000E10    1.581138669280335E-3  -1.114480081014335E-3  
 2.622000000000000E10   -2.786397976706212E-5  -1.522784514236264E-3  
 2.624000000000000E10   -1.922444120282307E-3  -9.167990647256374E-4  
 2.626000000000000E10   -4.322331114963163E-4   4.730092041427270E-4  
 2.628000000000000E10    7.204419889603742E-4   5.819420475745574E-4  
 2.630000000000000E10    1.090396865038201E-3  -1.456327241612598E-3  
 2.632000000000000E10    8.031139586819336E-4  -1.461021383875050E-3  
 2.634000000000000E10   -8.502914279233664E-4  -1.134260644903407E-3  
 2.636000000000000E10   -1.355878484901041E-3  -3.195491990481969E-4  
 2.638000000000000E10   -3.326182604723726E-5   1.248223634320311E-3  
 2.640000000000000E10    6.070075032766908E-4   3.813438488577958E-4  
 2.642000000000000E10    1.006822087219916E-3  -1.287194842007011E-3  
 2.644000000000000E10   -7.610219763591886E-4  -1.619733200641349E-3  
 2.646000000000000E10   -1.348468314972706E-3  -7.577839860459790E-4  
 2.648000000000000E10   -4.672960749303456E-4   5.235594580881298E-4  
 2.650000000000000E10    4.724341051769443E-4   4.855964943999425E-4  
 2.652000000000000E10    1.193652678921353E-4  -6.179207193781622E-4  
 2.654000000000000E10   -4.318636638345197E-4  -7.337198840104975E-4  
 2.656000000000000E10   -1.062781587961581E-4  -5.583487291005440E-4  
 2.658000000000000E10   -2.032329684880097E-4  -1.144097914220765E-4  
 2.660000000000000E10   -9.163746217382141E-4  -1.349740487057716E-4  
 2.662000000000000E10    1.949564011738403E-4   3.463718676357530E-4  
 2.664000000000000E10   -1.924967864397331E-5   1.472428659326397E-3  
 2.666000000000000E10   -1.615626861166675E-4   2.217353880951123E-5  
 2.668000000000000E10    2.751421743596438E-4   3.729333997171125E-5  
 2.670000000000000E10   -1.514652121841209E-4   1.028416209010175E-4  
 2.672000000000000E10   -5.455595019157045E-4   1.741106348163157E-4  
 2.674000000000000E10   -9.365911391796544E-4   3.326493169879541E-4  
 2.676000000000000E10    4.889645897492301E-4   1.062702664057724E-3  
 2.678000000000000E10    1.449439499992877E-3   7.120949012460187E-4  
 2.680000000000000E10    1.480225953855552E-3  -9.845855165622197E-4  
 2.682000000000000E10   -7.896870229160413E-4  -4.579891901812516E-4  
 2.684000000000000E10   -8.388187707168981E-4   8.200142037821934E-4  
 2.686000000000000E10    6.173517322167754E-4   1.669143035542220E-3  
 2.688000000000000E10    1.462494590668939E-3   2.676957701623906E-4  
 2.690000000000000E10    1.277740724617615E-3  -4.864395377808251E-4  
 2.692000000000000E10    2.369107751292177E-4  -6.227697449503467E-4  
 2.694000000000000E10   -4.329420480644330E-4   1.334095386482659E-4  
 2.696000000000000E10   -7.148507065721788E-4   4.026780334243085E-4  
 2.698000000000000E10    1.101625690353103E-3   1.056903827702627E-3  
 2.700000000000000E10    9.354282956337556E-4   5.297862080624327E-4  
 2.702000000000000E10    3.080203914578306E-4  -1.041087438352406E-3  
 2.704000000000000E10   -1.708848967609811E-4  -4.786432436958421E-4  
 2.706000000000000E10   -7.366321660811082E-4   4.061138206452597E-4  
 2.708000000000000E10   -2.237769695057068E-4   2.572107769083232E-4  
 2.710000000000000E10    4.710170433099847E-4  -4.632643913282664E-5  
 2.712000000000000E10    3.836298237729352E-4   2.943524887086824E-4  
 2.714000000000000E10   -1.648622514949238E-6  -3.612863292801194E-4  
 2.716000000000000E10    4.262794500391465E-4  -1.848677602538373E-4  
 2.718000000000000E10   -3.477352474874351E-4  -3.000431061082054E-4  
 2.720000000000000E10   -6.164160295156762E-4   4.230084705341142E-4  
 2.722000000000000E10   -6.714165792800486E-4   1.216907723573968E-3  
 2.724000000000000E10   -1.442443153791828E-4   6.858308115624823E-4  
 2.726000000000000E10    1.712594385026023E-4  -4.171195068920497E-4  
 2.728000000000000E10    3.641489311121404E-4  -9.596077361493371E-4  
 2.730000000000000E10   -3.950189311581198E-4  -6.293209080467932E-4  
 2.732000000000000E10   -7.793252516421489E-4  -5.126212527102325E-4  
 2.734000000000000E10    1.696336930763209E-4   1.279262578464113E-3  
 2.736000000000000E10    8.414577387156896E-4   1.282062454265542E-3  
 2.738000000000000E10    1.225949032232165E-3  -3.395503845240455E-4  
 2.740000000000000E10    2.953670045826584E-4  -7.122086826711893E-4  
 2.742000000000000E10   -8.094145741779357E-4   7.681721181143075E-4  
 2.744000000000000E10   -1.104127775761299E-3   1.137967657996342E-3  
 2.746000000000000E10    3.087638287979644E-4   9.705244665383361E-4  
 2.748000000000000E10    4.526664670265745E-4   9.113757732848171E-5  
 2.750000000000000E10    6.102522602304816E-4  -7.837421217118390E-4  
 2.752000000000000E10   -3.336832378408872E-4  -4.484962992137298E-4  
 2.754000000000000E10   -4.242323302605655E-4  -3.741377913684119E-4  
 2.756000000000000E10    1.375912152070669E-4   1.098625478334725E-3  
