#  HZ   S   RI   R     50.00 
! Rohde & Schwarz ZVA40 4Ports - Version 3.90 - 1145.1110k42 SN: 100403
! Date: 2023-10-04 07:01:59
! Measurement: S12 
! 
 2.200000000000000E10    1.069122899934882E-4   1.930442653247155E-3  
 2.202000000000000E10    2.263168396893889E-3   6.513052358059213E-5  
 2.204000000000000E10    8.991476133815013E-4  -5.245051142992452E-4  
 2.206000000000000E10   -8.832862513372675E-4  -6.271891179494560E-4  
 2.208000000000000E10    5.670243490385474E-5   3.569061227608472E-4  
 2.210000000000000E10   -7.434478684444912E-4   1.180758394184522E-3  
 2.212000000000000E10    2.226236119895475E-4   8.427567445323803E-4  
 2.214000000000000E10    1.394077684381045E-3   1.888943243102403E-4  
 2.216000000000000E10    1.208420741022565E-3  -1.572717752424069E-3  
 2.218000000000000E10   -1.506366079411237E-4  -2.243930735858157E-3  
 2.220000000000000E10   -1.058151028701104E-3   3.851741212201887E-6  
 2.222000000000000E10    7.747653507976793E-4   2.016225742409006E-3  
 2.224000000000000E10    2.184579003369436E-3  -1.826320331019815E-4  
 2.226000000000000E10    1.809005203540437E-3  -1.562245655804873E-3  
 2.228000000000000E10   -3.359564725542441E-4  -9.737827058415860E-4  
 2.230000000000000E10   -7.914502057246864E-4  -4.556562562356703E-4  
 2.232000000000000E10   -6.060619271011092E-4   8.159069766406901E-4  
 2.234000000000000E10   -8.783152807154693E-4   6.596419771085493E-4  
 2.236000000000000E10    9.546260480419733E-4   5.836269383507897E-5  
 2.238000000000000E10    9.133187995757908E-4  -1.459214880014770E-3  
 2.240000000000000E10   -1.063561256160028E-3  -2.873070421628654E-3  
 2.242000000000000E10   -1.489653674070723E-3  -5.345560275600292E-4  
 2.244000000000000E10    1.565333577673300E-4   1.346950273727998E-3  
 2.246000000000000E10    9.403603180544451E-4   3.606258724175859E-4  
 2.248000000000000E10    7.485463502234779E-4  -5.782784355687909E-4  
 2.250000000000000E10    3.142883360851556E-4   5.702560374629684E-4  
 2.252000000000000E10   -5.994251041556709E-4  -1.067808570951456E-4  
 2.254000000000000E10   -9.630490822019056E-4  -6.027816052665003E-4  
 2.256000000000000E10   -1.686520699877292E-3   4.662759492930491E-4  
 2.258000000000000E10   -3.612371729104780E-4   4.104454783373512E-4  
 2.260000000000000E10    1.223078914335929E-3   8.356908210771508E-6  
 2.262000000000000E10    4.215445478621405E-4  -1.175912722828798E-3  
 2.264000000000000E10    4.142462023537519E-5  -5.302032805047929E-4  
 2.266000000000000E10    5.193966353544965E-4   4.453379624465015E-4  
 2.268000000000000E10    7.311065710382536E-4   4.136370225751307E-4  
 2.270000000000000E10   -8.116625540424138E-4   5.508987305802293E-4  
 2.272000000000000E10   -1.888694641820621E-4   2.086303109535947E-3  
 2.274000000000000E10    6.386832683347166E-4   1.643680458073504E-3  
 2.276000000000000E10    3.422226291149855E-4  -1.466598449042067E-3  
 2.278000000000000E10   -1.452538723242469E-3  -1.587568098329939E-3  
 2.280000000000000E10   -1.928087061969563E-3  -7.345083849941148E-5  
 2.282000000000000E10   -3.315898757136893E-4   7.441849375027232E-4  
 2.284000000000000E10    1.950113510247320E-3  -1.782531562639633E-4  
 2.286000000000000E10    1.848088140832260E-3  -3.040323681489099E-4  
 2.288000000000000E10    1.083597031538375E-3  -8.441720055998303E-4  
 2.290000000000000E10   -6.309628661256284E-4  -8.419530640821904E-4  
 2.292000000000000E10   -2.686758787604049E-3   1.531220943434164E-3  
 2.294000000000000E10   -3.613123990362510E-4   2.950725931441411E-3  
 2.296000000000000E10    2.340094448300079E-3   1.014751091133803E-3  
 2.298000000000000E10    1.015260058920831E-3  -3.327171347336844E-3  
 2.300000000000000E10   -2.857986604794860E-3  -3.165188827551901E-3  
 2.302000000000000E10   -2.682264370378107E-3   1.159667417596211E-4  
 2.304000000000000E10    5.222890504228417E-4   7.919560375739820E-4  
 2.306000000000000E10    2.181074261898175E-3  -2.405409013590543E-4  
 2.308000000000000E10    2.305326983332634E-3  -1.694620703347027E-3  
 2.310000000000000E10    1.320838084211573E-3  -9.106679717660882E-4  
 2.312000000000000E10   -9.923409234033898E-4   6.192024466145085E-5  
 2.314000000000000E10   -1.244408224010840E-3   1.883290256955661E-3  
 2.316000000000000E10   -3.772882919292897E-4   2.842278016032651E-3  
 2.318000000000000E10    1.750832889229059E-4   2.201415300078224E-4  
 2.320000000000000E10   -1.178111182525754E-3  -1.535447838250548E-3  
 2.322000000000000E10   -2.290889096911997E-3  -1.124345813877881E-3  
 2.324000000000000E10   -1.175229233922437E-3  -1.189238664665027E-4  
 2.326000000000000E10    3.898519025824498E-4  -1.297926282859407E-3  
 2.328000000000000E10    7.913868321338669E-4  -1.509685404016636E-3  
 2.330000000000000E10    2.343828091397882E-4   1.924557927850401E-4  
 2.332000000000000E10    1.515956770163029E-3   1.298389222938567E-3  
 2.334000000000000E10    1.840203069150448E-3   9.894240210996941E-4  
 2.336000000000000E10   -1.322557605476504E-5   4.646614761441015E-4  
 2.338000000000000E10   -1.325253557297401E-3   7.297584234038368E-4  
 2.340000000000000E10   -2.267169504193589E-3   1.834568232879974E-3  
 2.342000000000000E10   -1.597550479345955E-3   1.648132660193369E-3  
 2.344000000000000E10    4.180894393357448E-4  -5.965384252704098E-5  
 2.346000000000000E10    1.250000466825441E-3  -1.086278905859217E-3  
 2.348000000000000E10   -5.220178572926670E-4  -3.290330467280000E-3  
 2.350000000000000E10   -1.057018598658033E-3  -1.740974126732908E-3  
 2.352000000000000E10   -4.905285168206319E-4   2.559682237915695E-3  
 2.354000000000000E10    3.309905267087743E-3   1.866674865595996E-3  
 2.356000000000000E10    3.482325933873653E-3  -3.715622224262916E-4  
 2.358000000000000E10    1.736525409796741E-4  -2.125287544913590E-3  
 2.360000000000000E10   -2.207612269558013E-3   3.260685116401874E-4  
 2.362000000000000E10   -2.259578090161085E-3   2.155378897441551E-3  
 2.364000000000000E10    4.050019051646814E-4   2.156646223738790E-3  
 2.366000000000000E10    1.204695887281559E-3   2.982302214604715E-5  
 2.368000000000000E10    1.080491303582676E-3  -2.936268661869690E-3  
 2.370000000000000E10   -8.769006963120773E-4  -2.595710044261068E-3  
 2.372000000000000E10   -1.863837213022634E-3  -3.232819253753405E-4  
 2.374000000000000E10    6.343414788716473E-4   2.126834820955992E-3  
 2.376000000000000E10    2.602571941679344E-3   1.244776198291220E-3  
 2.378000000000000E10    1.406868963385932E-3  -9.587832755642012E-4  
 2.380000000000000E10   -5.092977517051622E-4  -7.881004203227349E-4  
 2.382000000000000E10   -1.373932187561877E-3   4.925619359710254E-4  
 2.384000000000000E10   -6.083129846956581E-4   2.619772312755231E-4  
 2.386000000000000E10    1.406117135047680E-4   9.150159348791931E-5  
 2.388000000000000E10   -8.462168466394360E-6  -3.555603325366974E-4  
 2.390000000000000E10    3.372404098627158E-4  -4.966907144989818E-4  
 2.392000000000000E10    5.368190613808110E-4  -7.880142729845829E-4  
 2.394000000000000E10    2.191046187363099E-4  -8.089940965874121E-4  
 2.396000000000000E10   -8.377094036404742E-5  -4.508214806264732E-4  
 2.398000000000000E10   -2.202712385042105E-4  -5.362659940146841E-4  
 2.400000000000000E10   -8.217280119424686E-4   5.130683566676453E-4  
 2.402000000000000E10    6.134076556918444E-5   1.500932601629756E-3  
 2.404000000000000E10    1.572151610162109E-3  -9.506211699772393E-5  
 2.406000000000000E10    2.278020212997944E-5  -1.960083071026020E-3  
 2.408000000000000E10   -2.071115217404440E-3  -1.686507341219112E-3  
 2.410000000000000E10   -1.308179809711874E-3   9.315891802543774E-4  
 2.412000000000000E10    5.315565940691158E-4   1.749039904098027E-3  
 2.414000000000000E10    1.520251942565665E-3   1.501319147791946E-4  
 2.416000000000000E10    1.198184603708796E-3  -1.378553381073289E-3  
 2.418000000000000E10   -4.203689240966924E-4  -1.314878900302574E-3  
 2.420000000000000E10   -1.886814367026091E-3   1.047647983796196E-4  
 2.422000000000000E10   -1.229507208336145E-3   1.440265055862255E-3  
 2.424000000000000E10    6.255196276470088E-4   2.742924785707146E-3  
 2.426000000000000E10    2.278647851198912E-3  -4.491912259254605E-4  
 2.428000000000000E10    4.289903408789542E-4  -2.602334425318986E-3  
 2.430000000000000E10   -3.228220040909946E-3  -1.004063597065397E-3  
 2.432000000000000E10   -2.219588524894789E-3   1.469014765461907E-3  
 2.434000000000000E10    8.983939114841633E-4   1.830593566410244E-3  
 2.436000000000000E10    1.234668103279546E-3  -9.977545414585620E-5  
 2.438000000000000E10    5.200021769269370E-4  -9.163546565105207E-4  
 2.440000000000000E10   -3.713818114192691E-5  -3.441265616856981E-4  
 2.442000000000000E10   -1.152691344032064E-3   2.039620139839826E-4  
 2.444000000000000E10   -9.433978411834687E-4   9.194585727527738E-4  
 2.446000000000000E10    1.369305446132785E-4   2.224694384494796E-3  
 2.448000000000000E10    7.755482001812197E-4   6.507129728561267E-4  
 2.450000000000000E10    2.027210102824029E-4  -7.554933690698817E-4  
 2.452000000000000E10   -1.088845747290179E-3   1.446098885935498E-4  
 2.454000000000000E10   -3.656725675682537E-4   6.926453206688166E-4  
 2.456000000000000E10    7.082742813508958E-4  -1.917349818114644E-5  
 2.458000000000000E10    2.135565464413958E-4  -7.335664922720753E-4  
 2.460000000000000E10    1.820317411329597E-4   7.143256079871208E-4  
 2.462000000000000E10    1.419188949512318E-3   1.100178211345337E-3  
 2.464000000000000E10    1.716924758511595E-3  -1.291933649554267E-4  
 2.466000000000000E10    2.241972088086186E-4  -1.060505979694426E-3  
 2.468000000000000E10   -8.710991605767049E-4   6.615019738092087E-4  
 2.470000000000000E10   -3.512950206641108E-4   1.097022686735727E-3  
 2.472000000000000E10    5.349858765839599E-4   4.774277040269226E-4  
 2.474000000000000E10    6.489748484455049E-4  -1.155493082478643E-4  
 2.476000000000000E10    8.488862877129577E-4  -1.234060007845983E-3  
 2.478000000000000E10    5.061921401647851E-4  -1.936683838721365E-3  
 2.480000000000000E10   -1.359843547106721E-3  -8.527485042577609E-4  
 2.482000000000000E10   -3.003309684572741E-4   1.250777684617788E-3  
 2.484000000000000E10    1.896557980217040E-3   1.195800097775646E-3  
 2.486000000000000E10    2.300879888935015E-3  -1.111081903218292E-3  
 2.488000000000000E10   -3.849898166663479E-4  -2.108785003656521E-3  
 2.490000000000000E10   -1.921549468534067E-3  -2.505295014998410E-4  
 2.492000000000000E10   -1.302792719798163E-3   9.858696867013350E-4  
 2.494000000000000E10   -1.894713136607606E-5   8.321359564433806E-4  
 2.496000000000000E10    5.654898404827691E-5  -2.781723924272228E-4  
 2.498000000000000E10    1.180100298370235E-4  -1.263354570255615E-3  
 2.500000000000000E10   -1.879025676316815E-4  -1.903105789097026E-3  
 2.502000000000000E10   -1.619061207748018E-3  -6.388680631062016E-4  
 2.504000000000000E10   -9.229609640897252E-4   8.261762995971367E-4  
 2.506000000000000E10    1.213725074194372E-3   1.126857532653958E-3  
 2.508000000000000E10    9.492135141044855E-4   1.874970039352775E-4  
 2.510000000000000E10   -4.641543018806260E-4  -6.362228814396076E-4  
 2.512000000000000E10   -8.254584026872180E-4   4.784875200130045E-4  
 2.514000000000000E10   -8.580694920965470E-4   8.407149580307305E-4  
 2.516000000000000E10   -8.155290124705061E-4   2.408908621873707E-4  
 2.518000000000000E10   -1.290418967982987E-4   9.276968994527124E-4  
 2.520000000000000E10    2.441817241560784E-5   6.607409886782989E-4  
 2.522000000000000E10    9.623759397072718E-4  -1.887074595288141E-4  
 2.524000000000000E10    6.829330959590152E-5  -1.965595220099203E-4  
 2.526000000000000E10    1.463673324906267E-4  -1.123423371609533E-4  
 2.528000000000000E10    3.854893075185828E-4   7.189616953837685E-4  
 2.530000000000000E10    7.350122687057592E-4   1.065309013938531E-3  
 2.532000000000000E10    7.975895132403821E-4   1.386396412272006E-3  
 2.534000000000000E10    1.284417245187797E-3   9.598046381142922E-4  
 2.536000000000000E10    1.090344827389345E-3   3.419530694372952E-4  
 2.538000000000000E10   -6.051249438314699E-4  -5.368742567952722E-4  
 2.540000000000000E10   -7.933391825645231E-4  -1.269749300263356E-4  
 2.542000000000000E10   -4.901891006738879E-4   9.644139499869198E-4  
 2.544000000000000E10    4.634353899746202E-4  -5.686179210897535E-4  
 2.546000000000000E10    1.417269959347323E-3  -1.393797516357154E-3  
 2.548000000000000E10    6.154587754281238E-4  -1.728763119899668E-3  
 2.550000000000000E10   -4.481390715227462E-4  -1.151507836766541E-3  
 2.552000000000000E10    3.303384874016047E-4  -1.470871166020515E-4  
 2.554000000000000E10    1.042538147885352E-3   1.172311924165115E-3  
 2.556000000000000E10    1.499005637015216E-3   4.525167241808958E-4  
 2.558000000000000E10    1.093973885872401E-3  -4.500196664594114E-4  
 2.560000000000000E10   -8.941907799453475E-4  -4.240654270688538E-4  
 2.562000000000000E10   -1.820434699766338E-3   5.078543617855758E-4  
 2.564000000000000E10   -1.001326083496679E-3   1.536075709736906E-3  
 2.566000000000000E10    2.170125517295674E-4   7.485847090720199E-4  
 2.568000000000000E10    1.397156838720548E-4  -1.301858486840501E-3  
 2.570000000000000E10   -3.678113898786251E-4  -1.628870115382597E-3  
 2.572000000000000E10   -1.306341757299379E-3  -5.199688166612759E-4  
 2.574000000000000E10   -7.574720148113556E-4   7.349754232564010E-4  
 2.576000000000000E10    6.781690462958068E-4   9.784983194549568E-4  
 2.578000000000000E10    6.933901895536110E-4   7.471102362615056E-4  
 2.580000000000000E10   -1.367921749988454E-4   4.202517520752735E-4  
 2.582000000000000E10   -9.308136868639849E-4   3.039710063603707E-4  
 2.584000000000000E10   -7.114093823474832E-4   9.423847222933546E-4  
 2.586000000000000E10   -1.057091401889920E-3   4.340276464063209E-4  
 2.588000000000000E10   -8.003134935279377E-4   3.811245551332831E-4  
 2.590000000000000E10   -3.619151902967133E-4   8.542638461221941E-4  
 2.592000000000000E10    3.878984971379396E-4  -1.529602294070287E-5  
 2.594000000000000E10    2.302188913745340E-4  -2.779514034045860E-4  
 2.596000000000000E10    2.340056158800508E-5  -1.582680833962513E-4  
 2.598000000000000E10   -4.688707012974192E-4  -1.150196249000146E-5  
 2.600000000000000E10   -6.576831447091536E-5   1.423824969606358E-4  
 2.602000000000000E10   -1.285829339394695E-4   1.347635188722052E-3  
 2.604000000000000E10    8.206565253203735E-4   9.357881790492684E-4  
 2.606000000000000E10    1.110718556446955E-3   4.460178661247483E-5  
 2.608000000000000E10   -2.842034919012804E-4  -1.022205280605704E-3  
 2.610000000000000E10   -1.388307064189576E-3   9.820578543440206E-5  
 2.612000000000000E10   -9.958452792488970E-4   1.229438741574995E-3  
 2.614000000000000E10    1.514304778538644E-3   7.103513707988896E-4  
 2.616000000000000E10    7.765307673253119E-4  -4.397825396154076E-4  
 2.618000000000000E10    1.546205312479287E-4  -1.713725374429487E-3  
 2.620000000000000E10   -4.051160176459234E-4  -4.026915303256828E-4  
 2.622000000000000E10   -1.083709532395005E-3  -3.190805036865640E-4  
 2.624000000000000E10    2.236507734778570E-4   4.139202792430297E-4  
 2.626000000000000E10    8.611743105575442E-4   6.272923637880012E-4  
 2.628000000000000E10    1.349366881186143E-3  -6.055863559595309E-4  
 2.630000000000000E10   -1.061290586221730E-4  -1.071751074050553E-3  
 2.632000000000000E10   -6.854326784377918E-4  -1.754014647303848E-4  
 2.634000000000000E10   -5.957924950052984E-4   4.796886132680811E-4  
 2.636000000000000E10    6.581086563528515E-4   2.490515253157355E-4  
 2.638000000000000E10   -2.387603908573510E-4  -1.870253599918215E-4  
 2.640000000000000E10   -8.911209215511917E-5  -5.469916504807770E-4  
 2.642000000000000E10    1.316265042987652E-4  -4.090566071681678E-4  
 2.644000000000000E10   -6.402687267836882E-5  -7.044499943731353E-4  
 2.646000000000000E10   -3.629865859693382E-4  -1.362462626275374E-4  
 2.648000000000000E10   -3.057106623600703E-4   3.021461925527547E-4  
 2.650000000000000E10    4.576120954880025E-4   7.049493069644086E-4  
 2.652000000000000E10    1.392356189171551E-4  -1.667939504841343E-4  
 2.654000000000000E10    4.313307290431112E-4  -1.317511021625251E-3  
 2.656000000000000E10   -7.328020160457527E-6  -3.069294834858738E-4  
 2.658000000000000E10   -8.862760441843420E-4  -1.279066236747894E-4  
 2.660000000000000E10   -4.691775684477761E-4   1.021161006065086E-3  
 2.662000000000000E10    5.468736635521054E-4   1.286994491238147E-3  
 2.664000000000000E10    9.300634555984289E-4   2.270301847602241E-4  
 2.666000000000000E10    8.405588960158639E-5  -1.199002726934850E-3  
 2.668000000000000E10   -1.125454960856587E-3  -2.881280306610279E-4  
 2.670000000000000E10   -1.122474030125886E-3   9.295652562286705E-4  
 2.672000000000000E10    4.953736206516624E-4   1.080606336472556E-3  
 2.674000000000000E10    1.211084250826389E-3   3.260451121605001E-4  
 2.676000000000000E10    7.102167874109000E-4  -3.177423204760999E-4  
 2.678000000000000E10   -3.718224397744052E-4  -1.112136797019048E-4  
 2.680000000000000E10   -2.568198351582396E-5   2.477979833201971E-4  
 2.682000000000000E10   -2.238918496004771E-4   1.238781464053318E-3  
 2.684000000000000E10    3.101978800259531E-4   9.540072496747598E-4  
 2.686000000000000E10    1.333477935986593E-3   4.900635103695095E-4  
 2.688000000000000E10    3.171251155436039E-4  -1.213443701999495E-4  
 2.690000000000000E10   -1.321486051892862E-4   7.557001552527254E-6  
 2.692000000000000E10   -8.597728992754128E-5   4.145621801399102E-6  
 2.694000000000000E10    2.210807979281526E-4  -2.132891168002971E-4  
 2.696000000000000E10   -1.548654836369678E-6   5.350180435925722E-4  
 2.698000000000000E10    6.239476642804220E-4   5.772044823970646E-4  
 2.700000000000000E10    7.599590608151630E-4   5.004052945878357E-4  
 2.702000000000000E10    6.253451138036326E-4  -4.257443579263054E-4  
 2.704000000000000E10   -7.672001374885440E-4  -1.400360124534927E-4  
 2.706000000000000E10   -1.070620695827529E-3   3.877494600601494E-4  
 2.708000000000000E10   -1.870289233920630E-4   9.607797983335331E-4  
 2.710000000000000E10    6.730096210958436E-4   4.784491829923354E-4  
 2.712000000000000E10    8.716476586414501E-4  -5.889352323720232E-4  
 2.714000000000000E10   -3.057421999983490E-4  -1.249028136953712E-3  
 2.716000000000000E10   -6.661657389486209E-4  -6.141293415566906E-4  
 2.718000000000000E10   -8.293366408906877E-4   1.142522000009194E-3  
 2.720000000000000E10   -1.055972552421736E-4   1.133751036832109E-3  
 2.722000000000000E10    1.007997867418453E-3   1.718135645205621E-4  
 2.724000000000000E10    1.157922888523899E-4  -6.687354616587982E-4  
 2.726000000000000E10   -1.169823284726590E-3  -1.162499655038118E-3  
 2.728000000000000E10   -1.177674857899547E-3   1.409957949363161E-4  
 2.730000000000000E10   -5.032443878008053E-4   7.368138903984800E-4  
 2.732000000000000E10    3.878820134559646E-4  -2.510520607756916E-4  
 2.734000000000000E10    4.164057245361619E-4  -5.436441279016435E-4  
 2.736000000000000E10    6.925319030415267E-5  -1.045952696586028E-3  
 2.738000000000000E10   -1.385453913371748E-5   2.931415801867843E-4  
 2.740000000000000E10   -7.430801197187975E-4   9.624889353290200E-4  
 2.742000000000000E10   -1.228265937243123E-4   6.944032938918099E-4  
 2.744000000000000E10   -1.929589016071986E-4   4.929264250677079E-4  
 2.746000000000000E10   -1.595467547303997E-4   2.112695365212858E-4  
 2.748000000000000E10   -6.448899948736653E-4   1.333958534814883E-4  
 2.750000000000000E10   -2.149958345398773E-4  -1.320680785283912E-4  
 2.752000000000000E10    1.203605552291265E-5  -4.527426281129010E-4  
 2.754000000000000E10   -2.242368173028808E-4   1.990656855923589E-4  
 2.756000000000000E10   -6.326336915662978E-5   6.536854343721643E-4  
