#  HZ   S   RI   R     50.00 
! Rohde & Schwarz ZVA40 4Ports - Version 3.90 - 1145.1110k42 SN: 100403
! Date: 2023-10-04 07:01:33
! Measurement: S12 
! 
 2.200000000000000E10    3.260700395912863E-4   3.574153615772957E-4  
 2.202000000000000E10    4.614957379089901E-4  -6.625391142733861E-4  
 2.204000000000000E10   -2.102700396790169E-3  -9.516377690488298E-5  
 2.206000000000000E10   -1.295749912969768E-3   2.789736900012940E-3  
 2.208000000000000E10    2.839622888131999E-3   2.013106219237670E-3  
 2.210000000000000E10    2.284001806401648E-3  -1.069944693881553E-3  
 2.212000000000000E10   -1.309912033320870E-3  -2.156955466489308E-3  
 2.214000000000000E10   -1.640295689867344E-3   7.634793291799724E-4  
 2.216000000000000E10    5.415542977971199E-5   2.261727335280739E-3  
 2.218000000000000E10    1.807584863854572E-3   4.157327766733943E-4  
 2.220000000000000E10    1.901126408483833E-3  -2.050364737442578E-4  
 2.222000000000000E10    1.463186505134217E-3  -9.602163445379119E-4  
 2.224000000000000E10    8.304163457069080E-4  -8.947091992013156E-4  
 2.226000000000000E10   -1.929282652781694E-4   5.312866887834389E-4  
 2.228000000000000E10   -3.939224097848637E-4   2.131400688085705E-3  
 2.230000000000000E10    1.964064605999738E-3   1.564660735311918E-3  
 2.232000000000000E10    2.372323811869137E-3  -1.472851676226128E-3  
 2.234000000000000E10   -1.146092807175592E-3  -1.875866415502969E-3  
 2.236000000000000E10   -1.017980597680435E-3  -1.074851968496660E-5  
 2.238000000000000E10    8.738058531889692E-4   5.157487012183992E-4  
 2.240000000000000E10    1.191495786770247E-3  -1.513242874352727E-3  
 2.242000000000000E10   -3.224059328204021E-4  -9.649276398704387E-4  
 2.244000000000000E10    5.719982691516634E-4  -5.426168263511499E-5  
 2.246000000000000E10    1.510562142357230E-3  -6.416003961930983E-4  
 2.248000000000000E10    4.716469720733585E-4  -1.681510308117140E-3  
 2.250000000000000E10   -9.524682063783985E-4  -3.613860707218919E-5  
 2.252000000000000E10   -4.951261507812887E-4   2.236699501736439E-4  
 2.254000000000000E10    5.313780420692638E-4  -8.845778647810221E-4  
 2.256000000000000E10   -1.170069226645865E-3  -5.597062227025162E-4  
 2.258000000000000E10   -2.402424734100350E-4   1.412761157553177E-4  
 2.260000000000000E10    8.485928738082293E-4  -1.246110863576178E-3  
 2.262000000000000E10   -1.435199257684872E-3  -2.316503785550594E-3  
 2.264000000000000E10   -2.392258509644307E-3   2.280850640090648E-4  
 2.266000000000000E10   -5.783674441772746E-5   2.089256391627714E-3  
 2.268000000000000E10    1.787358225556091E-3   4.704757029685425E-4  
 2.270000000000000E10   -2.960931942652678E-4  -2.707964318688028E-3  
 2.272000000000000E10   -1.731235453917179E-3  -6.496193345810752E-4  
 2.274000000000000E10   -2.561037763371132E-3   1.047896599629894E-3  
 2.276000000000000E10   -1.003350727842189E-3   8.226022655435372E-4  
 2.278000000000000E10   -3.843327504000627E-4   1.469166665629018E-3  
 2.280000000000000E10    1.069679732609075E-3   5.718898428312969E-4  
 2.282000000000000E10    1.239991928741802E-3  -5.945145421719644E-4  
 2.284000000000000E10   -1.816391071770340E-3  -2.131213681423105E-3  
 2.286000000000000E10   -2.871142976800911E-3   1.843452053435613E-3  
 2.288000000000000E10   -1.724119310893002E-4   3.543940983945504E-3  
 2.290000000000000E10    1.992717610846739E-3   8.507058373652399E-4  
 2.292000000000000E10    5.907386330363806E-4  -1.377954278723337E-3  
 2.294000000000000E10   -1.251336485438515E-3  -5.989859273540787E-4  
 2.296000000000000E10   -1.416186009009834E-3   1.237470416526776E-3  
 2.298000000000000E10    1.338076845058822E-4   1.174573430034798E-3  
 2.300000000000000E10    1.491830385020876E-4   1.085361065634061E-3  
 2.302000000000000E10    1.685289578745142E-3   4.670552407333162E-4  
 2.304000000000000E10    1.287897102884017E-3  -4.849235010624398E-4  
 2.306000000000000E10   -5.512354255188257E-4  -1.496334938565269E-3  
 2.308000000000000E10   -7.493703560612630E-4   1.020536161377095E-3  
 2.310000000000000E10    1.063988849637099E-3   1.965234929230064E-3  
 2.312000000000000E10    1.659941641264595E-3   1.007065857265843E-4  
 2.314000000000000E10    1.418850833942997E-4  -1.171861855254974E-3  
 2.316000000000000E10    2.766855304798810E-4   5.019936470489483E-4  
 2.318000000000000E10    4.950234215357341E-4   3.107947095486452E-4  
 2.320000000000000E10    6.899471700307913E-4  -1.488157780840993E-3  
 2.322000000000000E10   -4.628761580534047E-4  -6.590874254470691E-4  
 2.324000000000000E10   -1.446272895009315E-4   4.962081620760728E-4  
 2.326000000000000E10    1.204304193379358E-3   2.017186170633067E-4  
 2.328000000000000E10    9.018309538078029E-4  -6.081065257603768E-4  
 2.330000000000000E10   -1.268574669666123E-5  -1.717563231068198E-3  
 2.332000000000000E10   -3.228354489692720E-4  -8.001469468581490E-4  
 2.334000000000000E10   -7.349916922976263E-4  -2.565548265920370E-4  
 2.336000000000000E10   -8.236138346546795E-4   5.046272162871901E-4  
 2.338000000000000E10    9.565449145156890E-4   1.186948727990966E-3  
 2.340000000000000E10    1.791443508409429E-3  -1.212671653775033E-3  
 2.342000000000000E10   -9.471890225540847E-4  -2.848604883183725E-3  
 2.344000000000000E10   -3.415243380004540E-3  -1.298895513173193E-3  
 2.346000000000000E10   -9.440271169296466E-4   2.101742225931957E-3  
 2.348000000000000E10    1.359716901788488E-3   1.136938655690756E-3  
 2.350000000000000E10    1.838469303038437E-3  -1.796095493773464E-3  
 2.352000000000000E10   -5.210817216720898E-4  -1.280933924135752E-3  
 2.354000000000000E10   -1.873290784715209E-3  -1.120928100135643E-3  
 2.356000000000000E10   -2.188297919929028E-3   7.751145021757111E-4  
 2.358000000000000E10   -6.967174413148314E-4   2.187022299040109E-3  
 2.360000000000000E10    1.528445405710954E-3   5.126482865307480E-4  
 2.362000000000000E10    1.526240514067467E-3  -1.858070194430184E-3  
 2.364000000000000E10   -1.293420697038528E-3  -1.880294854345266E-3  
 2.366000000000000E10   -2.649044676218182E-3   6.748079686076380E-4  
 2.368000000000000E10   -1.998295192606747E-5   1.909349062771071E-3  
 2.370000000000000E10    1.687283060164191E-3   8.566778196836822E-4  
 2.372000000000000E10    5.594118738372345E-4  -3.924135889974423E-4  
 2.374000000000000E10   -5.809943431813736E-4  -2.986735180456890E-4  
 2.376000000000000E10   -2.611241397971753E-4   3.564392518455861E-4  
 2.378000000000000E10   -4.096729571756441E-4   7.185961803770624E-4  
 2.380000000000000E10   -2.904257162299473E-4   5.749694537371397E-5  
 2.382000000000000E10    6.312460791377816E-4   4.961346803611377E-4  
 2.384000000000000E10    2.247324628115166E-4  -1.441222298126377E-4  
 2.386000000000000E10    3.323456203361275E-4   5.376759207820214E-5  
 2.388000000000000E10    5.009634460293455E-4   4.211291234241799E-4  
 2.390000000000000E10    2.820153476932319E-4  -1.022036740323529E-4  
 2.392000000000000E10   -4.581938901537797E-4  -4.712550016847672E-4  
 2.394000000000000E10   -6.476015259977430E-4   1.351350416371133E-3  
 2.396000000000000E10    5.870000386494212E-4   8.146384352585301E-4  
 2.398000000000000E10    1.757936355716083E-3  -4.350280341895996E-4  
 2.400000000000000E10    4.673131898016436E-4  -1.609942279173993E-3  
 2.402000000000000E10   -1.471496158046648E-3  -9.129337086051237E-4  
 2.404000000000000E10   -7.890625056461431E-4   1.024699966365006E-3  
 2.406000000000000E10    1.285032485611737E-3   1.655173175095115E-3  
 2.408000000000000E10    1.781132712494582E-3   1.157605183834676E-4  
 2.410000000000000E10    1.015936970361508E-3  -1.424361260433216E-3  
 2.412000000000000E10   -6.650962823187001E-4  -1.138265215558931E-3  
 2.414000000000000E10   -2.375444732024334E-3  -3.511763661663281E-4  
 2.416000000000000E10   -8.400124534091447E-4   1.886974598164670E-3  
 2.418000000000000E10    1.437804428860545E-3   1.690778568445239E-3  
 2.420000000000000E10    1.951868864125572E-3  -1.347048681054730E-3  
 2.422000000000000E10   -1.478811245760880E-4  -2.901412750361487E-3  
 2.424000000000000E10   -1.191075920360163E-3  -4.818872275791364E-4  
 2.426000000000000E10   -9.393164291395806E-4   1.556063769385219E-3  
 2.428000000000000E10    1.230231908266433E-3   1.009614996291930E-3  
 2.430000000000000E10    1.208370376843959E-3   5.975667299935594E-4  
 2.432000000000000E10    1.701013147794583E-4  -7.285446845344268E-4  
 2.434000000000000E10   -5.611048218270298E-4  -7.432876009261236E-4  
 2.436000000000000E10   -1.810701134672854E-3  -2.468024540576153E-4  
 2.438000000000000E10   -1.681437875959091E-3   5.615111804218032E-4  
 2.440000000000000E10    1.079680142765938E-4   1.398837748638471E-4  
 2.442000000000000E10    8.064973881118931E-4  -7.587696236441843E-4  
 2.444000000000000E10   -5.103274397697533E-4  -1.653846229601186E-3  
 2.446000000000000E10   -5.199172392167384E-5  -3.070299899263773E-4  
 2.448000000000000E10    5.743834408349358E-4   4.137861196795711E-4  
 2.450000000000000E10   -2.859249434550293E-4  -2.961033696919913E-4  
 2.452000000000000E10   -1.158122497145087E-3   1.118359032261651E-3  
 2.454000000000000E10   -2.252968188258819E-4   1.654278596106451E-3  
 2.456000000000000E10    7.150967867346481E-4   4.142777070228476E-4  
 2.458000000000000E10   -5.572713416768238E-4  -1.632564264582470E-3  
 2.460000000000000E10   -1.296082999033388E-3  -7.862602724344470E-4  
 2.462000000000000E10   -1.164657638582867E-3   5.535010277526453E-4  
 2.464000000000000E10    2.190190389228519E-4   6.113450726843439E-4  
 2.466000000000000E10    7.737741871096660E-4   1.990176542676636E-4  
 2.468000000000000E10    1.194332158775069E-3   1.296128748435876E-4  
 2.470000000000000E10    9.925395461323205E-4  -1.116674902732484E-3  
 2.472000000000000E10   -7.292637674254365E-4  -6.543740382767282E-4  
 2.474000000000000E10   -1.420416963810567E-3   1.215095740917604E-3  
 2.476000000000000E10    1.601993358235632E-4   2.319417893886566E-3  
 2.478000000000000E10    1.284558180486783E-3   5.197330392547883E-4  
 2.480000000000000E10    1.560950090606639E-4  -1.379975838062819E-3  
 2.482000000000000E10   -1.041677511238959E-3  -1.378313616442028E-3  
 2.484000000000000E10   -8.819800314086024E-4   2.724007317738142E-4  
 2.486000000000000E10   -3.534640691214008E-4   9.352001643492258E-5  
 2.488000000000000E10    6.296276551438496E-4  -2.905578730860725E-4  
 2.490000000000000E10    9.633126537664793E-4   7.852152748455410E-5  
 2.492000000000000E10    8.418729776167311E-4  -1.134117657784373E-3  
 2.494000000000000E10    3.658104651549365E-4  -1.095850100682583E-3  
 2.496000000000000E10   -7.908695806690957E-4   6.519297244267364E-5  
 2.498000000000000E10   -5.018619267502800E-4   1.001111028017476E-3  
 2.500000000000000E10    4.854057224292774E-4   6.735131610184908E-4  
 2.502000000000000E10    4.607184509950457E-4  -4.463525401661173E-4  
 2.504000000000000E10   -5.825698899570853E-4  -1.066214841557667E-3  
 2.506000000000000E10   -2.155557558580767E-4  -1.282590266782790E-3  
 2.508000000000000E10   -9.291284586652182E-4  -7.636299924342893E-4  
 2.510000000000000E10   -7.903031291789375E-4  -5.023059347877279E-4  
 2.512000000000000E10    6.884232352604158E-4   5.569916174863465E-4  
 2.514000000000000E10    1.315703921136446E-3  -1.334202361249481E-4  
 2.516000000000000E10    3.713506202984718E-5  -1.210711998282932E-3  
 2.518000000000000E10   -8.072580894804560E-4  -4.830465513805393E-4  
 2.520000000000000E10   -1.143066561780870E-3   1.542863683425821E-3  
 2.522000000000000E10   -2.286149865540210E-4   7.359898590948433E-4  
 2.524000000000000E10    2.315619567525573E-4   7.658272297703661E-4  
 2.526000000000000E10   -8.104919688776135E-4   5.487031501161255E-6  
 2.528000000000000E10   -6.733160116709769E-4  -7.243627842399292E-4  
 2.530000000000000E10   -1.339208465651609E-3   8.199507084327706E-5  
 2.532000000000000E10   -1.170939853182063E-3   2.353793861402664E-4  
 2.534000000000000E10    1.031221620451106E-5   1.015178881061729E-3  
 2.536000000000000E10    7.548213325208053E-4   4.909826056973543E-4  
 2.538000000000000E10    5.130521785758901E-4   4.176325201115105E-4  
 2.540000000000000E10    6.914136429259088E-5   1.557622308610007E-4  
 2.542000000000000E10    4.803958436241373E-4   1.058185924193822E-3  
 2.544000000000000E10   -9.601285200915299E-4   4.985068517271429E-4  
 2.546000000000000E10   -2.571260010881815E-4   9.686416160548106E-4  
 2.548000000000000E10    2.609371294965968E-4   1.416533734300174E-3  
 2.550000000000000E10    9.200525528285652E-4   4.536866763373837E-4  
 2.552000000000000E10    6.629193740081973E-4  -8.061442204052582E-4  
 2.554000000000000E10    2.264516342620482E-5  -1.006874052109197E-3  
 2.556000000000000E10   -8.662993423058651E-4   2.440426869725343E-4  
 2.558000000000000E10    1.007171504170401E-4   7.038373441901058E-4  
 2.560000000000000E10    1.489333182689734E-3   3.286189821665175E-4  
 2.562000000000000E10    1.495787757448852E-3  -5.374784814193845E-4  
 2.564000000000000E10   -2.954284596512480E-6  -1.177399826701731E-3  
 2.566000000000000E10   -9.626079990994185E-4  -8.451068570138887E-4  
 2.568000000000000E10   -1.015031004499178E-3   4.582830697472673E-4  
 2.570000000000000E10    1.964831917575793E-4   9.719710942590609E-4  
 2.572000000000000E10    1.163377848570235E-3  -4.707177358795889E-4  
 2.574000000000000E10    4.871079145232216E-4  -1.466506844735704E-3  
 2.576000000000000E10   -1.762433646945283E-3  -1.117132575018331E-3  
 2.578000000000000E10   -1.490330818342045E-3  -1.305131427216111E-4  
 2.580000000000000E10   -2.406396633887198E-4   4.725834260170814E-4  
 2.582000000000000E10   -6.780057947253226E-5  -2.614152763271704E-4  
 2.584000000000000E10   -1.499653035352822E-4  -9.042194651556201E-4  
 2.586000000000000E10   -8.192824025172740E-4  -7.999542503966950E-4  
 2.588000000000000E10   -1.296727292356081E-3  -5.175789992790669E-4  
 2.590000000000000E10   -1.305130746914074E-3   1.843493591877632E-4  
 2.592000000000000E10   -2.093808125209762E-4   1.516257607363514E-4  
 2.594000000000000E10   -2.282696386828320E-4  -5.513351993613469E-6  
 2.596000000000000E10   -1.840447293943726E-4  -4.995265335310251E-4  
 2.598000000000000E10   -5.620812808047049E-4   5.571203473664355E-4  
 2.600000000000000E10   -5.085501907160506E-4   6.817790290369885E-5  
 2.602000000000000E10   -2.041008392552612E-4  -4.380680386617541E-5  
 2.604000000000000E10   -1.681363617535681E-3   4.689991546911188E-4  
 2.606000000000000E10   -3.566506711649708E-4   9.914150359691121E-4  
 2.608000000000000E10    3.984021859650966E-4   6.110512040322647E-4  
 2.610000000000000E10    9.660400755819865E-4  -7.385446806438267E-4  
 2.612000000000000E10   -4.028249095426872E-4  -3.597774048103020E-4  
 2.614000000000000E10   -2.591017910162918E-4  -6.606444230783382E-5  
 2.616000000000000E10    1.625530039746082E-4   9.456540792598389E-4  
 2.618000000000000E10    1.589047724337434E-4   6.322361878119409E-4  
 2.620000000000000E10    1.571282104123384E-3   6.602927387575619E-4  
 2.622000000000000E10    7.877059251768515E-4  -2.241079582745442E-4  
 2.624000000000000E10   -1.517367127235048E-4  -1.308045830228366E-3  
 2.626000000000000E10   -1.440032472601160E-3   8.339224950759672E-5  
 2.628000000000000E10   -2.786617442325223E-4   9.839609992923215E-4  
 2.630000000000000E10    6.890180666232482E-4   1.246355377588770E-4  
 2.632000000000000E10    1.440208478015848E-3  -9.450568104512058E-4  
 2.634000000000000E10   -5.818652971356642E-5  -1.156114682089537E-3  
 2.636000000000000E10    2.071453964163084E-4  -9.701615781523287E-4  
 2.638000000000000E10   -2.869593299692497E-4   6.445034814532846E-4  
 2.640000000000000E10   -4.706048057414591E-4   5.199201332288794E-4  
 2.642000000000000E10    6.982750783208758E-4   7.944311655592173E-4  
 2.644000000000000E10    4.561668611131609E-4  -1.970274770428659E-4  
 2.646000000000000E10   -1.899012931971811E-4  -1.034623288433068E-3  
 2.648000000000000E10   -1.021464515361004E-3  -5.408980723586865E-4  
 2.650000000000000E10   -4.446565108082723E-4   2.917185338446870E-4  
 2.652000000000000E10   -7.291901511052856E-5   1.028891361784190E-3  
 2.654000000000000E10    5.887195147806779E-4  -5.916985151088738E-5  
 2.656000000000000E10    7.909916967037134E-4  -1.077507313311799E-4  
 2.658000000000000E10   -1.360681599180680E-4  -3.178144834237173E-4  
 2.660000000000000E10   -8.513789289281704E-4   1.011966787700658E-4  
 2.662000000000000E10   -4.533795327006374E-4   1.037303387420252E-3  
 2.664000000000000E10   -8.581931888329564E-5   1.446513502742164E-3  
 2.666000000000000E10    3.262116564428652E-5   2.878388040699065E-4  
 2.668000000000000E10    2.374933956161840E-5  -1.525440302430070E-4  
 2.670000000000000E10   -5.388528952607885E-4  -5.479111641761847E-4  
 2.672000000000000E10   -9.375319932587445E-4   7.572651156806387E-6  
 2.674000000000000E10   -6.645596440648660E-4   4.186000239769783E-5  
 2.676000000000000E10    2.105117437167792E-4   1.023894976242445E-3  
 2.678000000000000E10    2.651358427101513E-4   6.541386755998246E-4  
 2.680000000000000E10    6.653264281339943E-4   8.324682903548819E-5  
 2.682000000000000E10   -5.282731872284785E-4   1.939643025252735E-4  
 2.684000000000000E10   -7.872373535064980E-4   4.300378896004986E-4  
 2.686000000000000E10   -6.687865170533769E-4   6.840878195362166E-4  
 2.688000000000000E10   -2.635160002206760E-5   5.672588304150850E-4  
 2.690000000000000E10    2.010142834478756E-4   4.876911443716381E-4  
 2.692000000000000E10    7.064037126838230E-4  -3.222827181161847E-4  
 2.694000000000000E10    3.768463466258254E-4  -4.163792145845946E-4  
 2.696000000000000E10   -4.402464328450151E-4  -2.454597015457694E-4  
 2.698000000000000E10    4.188523053016979E-5   5.783528467873111E-4  
 2.700000000000000E10   -1.061492275766796E-4   1.339432812528685E-3  
 2.702000000000000E10    1.389271099469625E-3   4.111919515707996E-4  
 2.704000000000000E10    9.501135136815719E-4  -4.040239509777166E-4  
 2.706000000000000E10   -4.974292914994294E-5  -8.174317117664032E-4  
 2.708000000000000E10   -1.026362035190687E-3  -2.592125911178300E-4  
 2.710000000000000E10    6.363155398503295E-5   3.452537494013086E-4  
 2.712000000000000E10    5.274380455375649E-4   9.300022284151055E-4  
 2.714000000000000E10    1.176930774818175E-3  -4.801112809218466E-4  
 2.716000000000000E10    7.989697696757503E-4  -1.357089553494006E-3  
 2.718000000000000E10   -3.731030410563108E-4  -1.569258747622371E-3  
 2.720000000000000E10   -1.067836492438801E-3   4.267015071945934E-5  
 2.722000000000000E10   -1.370114847532022E-5   1.000241551082581E-3  
 2.724000000000000E10    1.193942356621847E-3   7.095930926936944E-5  
 2.726000000000000E10    6.690369191346690E-4  -1.518118631793186E-3  
 2.728000000000000E10   -1.766578880051384E-4  -1.759526669047773E-3  
 2.730000000000000E10   -6.958836893318221E-4  -5.253667222859804E-4  
 2.732000000000000E10   -5.603519020951353E-4  -3.383618059160654E-4  
 2.734000000000000E10    6.380505656125024E-4   6.551505939569324E-4  
 2.736000000000000E10    1.764980715961428E-4  -3.693982689583208E-4  
 2.738000000000000E10    3.672570419439580E-4  -1.228904933668673E-3  
 2.740000000000000E10   -8.754920199862681E-4  -2.012425757129677E-4  
 2.742000000000000E10   -5.485564033733681E-4  -1.241592377709821E-5  
 2.744000000000000E10   -2.619588558445685E-4  -2.946757304016501E-4  
 2.746000000000000E10   -3.439624742895830E-5  -5.464966307044961E-4  
 2.748000000000000E10   -2.530962083255872E-4  -7.611262481077574E-5  
 2.750000000000000E10    3.574563811525877E-5   7.447297593898838E-5  
 2.752000000000000E10    2.441018368699588E-4  -3.457200980960806E-5  
 2.754000000000000E10    4.443723162239621E-5  -1.550982160551939E-4  
 2.756000000000000E10   -7.611038963659667E-4  -1.004794321488589E-4  
