#  HZ   S   RI   R     50.00 
! Rohde & Schwarz ZVA40 4Ports - Version 3.90 - 1145.1110k42 SN: 100403
! Date: 2023-10-04 07:01:06
! Measurement: S12 
! 
 2.200000000000000E10   -2.012516109971330E-3   1.074420515578822E-4  
 2.202000000000000E10   -6.735178176313639E-4   9.918314462993294E-4  
 2.204000000000000E10   -2.170522566302680E-4   9.872347291093320E-4  
 2.206000000000000E10    4.573282476485474E-4   9.808645518205594E-4  
 2.208000000000000E10    8.290347468573600E-4  -1.901646292026271E-4  
 2.210000000000000E10   -5.575308810534807E-5  -4.372049097582931E-4  
 2.212000000000000E10   -1.349706610199064E-3   1.859500534919789E-4  
 2.214000000000000E10   -1.628762111067772E-4   1.451413729228079E-3  
 2.216000000000000E10    1.356777698674705E-3   1.084497896954417E-3  
 2.218000000000000E10    5.957196735835169E-4  -1.059930538758636E-3  
 2.220000000000000E10   -3.304913916508667E-4   9.774270329216961E-4  
 2.222000000000000E10    4.481984688027296E-4   2.393057598965243E-3  
 2.224000000000000E10    1.838259478972759E-3   5.606531849480234E-4  
 2.226000000000000E10    5.057749913248699E-4  -1.044231248670258E-3  
 2.228000000000000E10   -1.869382358563598E-3   1.112898156861775E-3  
 2.230000000000000E10   -1.983550209843088E-4   2.287900948431343E-3  
 2.232000000000000E10    2.135057977284305E-3   1.139739579230081E-3  
 2.234000000000000E10    1.133424055296928E-3  -8.573420673201326E-4  
 2.236000000000000E10    2.023315500991885E-4  -1.567182946018875E-3  
 2.238000000000000E10    5.321676981111523E-4  -3.548352397046983E-4  
 2.240000000000000E10   -7.599900516197522E-5  -7.298879609152209E-5  
 2.242000000000000E10    1.006129423331004E-3   8.024841517908499E-4  
 2.244000000000000E10    2.945148284197785E-3   1.376698281092104E-3  
 2.246000000000000E10    2.760818577371538E-3  -1.937193665071391E-3  
 2.248000000000000E10   -3.345599016029155E-4  -2.715732000069693E-3  
 2.250000000000000E10   -2.067964058369398E-3   1.022266565996688E-3  
 2.252000000000000E10   -3.763417407753877E-5   1.952858227014076E-3  
 2.254000000000000E10    2.489449238055386E-3  -4.607297723850934E-4  
 2.256000000000000E10    1.090218029276002E-4  -2.309754476300441E-3  
 2.258000000000000E10   -7.268338449648581E-4  -2.464024379150942E-3  
 2.260000000000000E10   -5.057613743701950E-4  -1.430341515515465E-3  
 2.262000000000000E10   -3.547926025930792E-4  -9.196956307278015E-4  
 2.264000000000000E10   -2.783461945909949E-5   2.364300589761115E-4  
 2.266000000000000E10    1.618342823348939E-3   1.750052779243561E-4  
 2.268000000000000E10    1.498831654316746E-3  -1.731647687847726E-3  
 2.270000000000000E10   -1.670896213909145E-3  -2.461755182594061E-3  
 2.272000000000000E10   -2.257150335935876E-3   5.877382318431046E-4  
 2.274000000000000E10   -1.154806690465193E-3   1.541894598631188E-3  
 2.276000000000000E10   -4.150107015448157E-4  -4.666002914746059E-4  
 2.278000000000000E10   -1.326783742115367E-3  -8.652508222439792E-4  
 2.280000000000000E10   -1.390645280480385E-3  -4.757483147841413E-4  
 2.282000000000000E10   -4.743776407849509E-4  -7.056170070427470E-4  
 2.284000000000000E10   -6.906847775098868E-4  -1.653791434364393E-3  
 2.286000000000000E10   -1.270000218937639E-3   7.043941877782345E-4  
 2.288000000000000E10   -6.908847390150186E-4   1.260250115592498E-3  
 2.290000000000000E10    1.033207197906449E-3   1.250007779162843E-3  
 2.292000000000000E10   -4.498334510572022E-4   5.537898287002463E-4  
 2.294000000000000E10   -1.089386940293480E-3   9.217047590937000E-4  
 2.296000000000000E10   -1.321496019954793E-3   9.775659418664873E-4  
 2.298000000000000E10   -1.018814829876646E-3  -1.076467567600048E-4  
 2.300000000000000E10   -1.844343954871874E-3   1.249583336175419E-3  
 2.302000000000000E10    2.463951113895746E-4   1.239556033397093E-3  
 2.304000000000000E10    2.090355497784913E-3   6.368524009303656E-5  
 2.306000000000000E10    8.055876023718156E-4  -1.858148447354324E-3  
 2.308000000000000E10   -4.839911998715252E-4  -7.591012727061752E-4  
 2.310000000000000E10   -3.729771160578821E-4   1.916605862788856E-3  
 2.312000000000000E10    2.416171919321641E-3   2.313789707841352E-3  
 2.314000000000000E10    2.106317086145282E-3   1.027456470183097E-3  
 2.316000000000000E10    1.030807630741037E-3  -1.675583544056281E-4  
 2.318000000000000E10   -1.630771143936727E-4   3.449449159234064E-4  
 2.320000000000000E10   -1.297844122746028E-3  -6.364286418829579E-4  
 2.322000000000000E10   -1.292684028157964E-3   1.213654897583183E-3  
 2.324000000000000E10    1.118929263611790E-3   1.224779254698660E-3  
 2.326000000000000E10    2.402717727818526E-3  -1.534472678031307E-3  
 2.328000000000000E10    1.255357085028663E-3  -3.833317459793761E-3  
 2.330000000000000E10   -6.185968632053118E-4  -1.500701866461895E-3  
 2.332000000000000E10   -8.998101793622482E-5   1.337727604550310E-3  
 2.334000000000000E10    2.334230739506893E-3   1.488009278546087E-3  
 2.336000000000000E10    1.993835408939049E-3   9.355554129797383E-5  
 2.338000000000000E10    8.048959971347358E-4  -7.863185383030213E-4  
 2.340000000000000E10   -3.351564591866918E-4  -6.959304737392813E-4  
 2.342000000000000E10   -1.938864872499835E-3  -8.828313111735042E-4  
 2.344000000000000E10   -1.074151528882794E-3   1.373880459141219E-4  
 2.346000000000000E10    5.627379255201959E-5   4.100101741641993E-4  
 2.348000000000000E10    1.157719168986660E-3  -1.961690417374484E-3  
 2.350000000000000E10    4.478435494092992E-4  -2.809982121107169E-3  
 2.352000000000000E10   -7.263070292538032E-4  -9.734290360938758E-4  
 2.354000000000000E10    2.165334526580409E-4  -8.439905968771200E-5  
 2.356000000000000E10    3.937627261620946E-4  -3.117806718364591E-4  
 2.358000000000000E10    1.331878256678465E-4  -1.524407125543803E-4  
 2.360000000000000E10    8.834194773044146E-5   9.512015967629850E-4  
 2.362000000000000E10    8.742628688196419E-5  -3.589321750041563E-4  
 2.364000000000000E10   -2.712442292249762E-4  -3.299977033748291E-4  
 2.366000000000000E10   -1.865006088337395E-3  -5.788018279417884E-4  
 2.368000000000000E10   -8.706205917405896E-4  -2.895751676987857E-4  
 2.370000000000000E10   -2.441285860186326E-4   3.760993968171533E-4  
 2.372000000000000E10    7.283461709448602E-4  -4.220567124946228E-5  
 2.374000000000000E10    6.791883679397870E-4  -1.416262471138907E-4  
 2.376000000000000E10    4.095933254575357E-4  -1.057706511346623E-3  
 2.378000000000000E10   -1.213566887599882E-3  -3.700322235999920E-5  
 2.380000000000000E10   -1.276018097996712E-3   1.587399012350943E-3  
 2.382000000000000E10    3.972116314798768E-5   2.281019624206238E-3  
 2.384000000000000E10    1.233151946507860E-3   1.032870898143301E-4  
 2.386000000000000E10    5.944872864347417E-4  -1.559286320116371E-3  
 2.388000000000000E10   -1.882983378891368E-3  -1.061625502188690E-3  
 2.390000000000000E10   -1.321284551522695E-3   2.897105950978585E-4  
 2.392000000000000E10   -1.891692645585863E-4   1.861936361819971E-3  
 2.394000000000000E10    2.008945564739406E-3   1.077251326933038E-3  
 2.396000000000000E10    1.386532814649399E-3  -9.389687038492411E-4  
 2.398000000000000E10    2.378208337177057E-4  -1.839937292970717E-3  
 2.400000000000000E10   -1.446739399398211E-3   3.899051553162281E-4  
 2.402000000000000E10   -8.856713357090484E-4   1.416833576513454E-3  
 2.404000000000000E10    8.965165834524669E-4   1.768095455190633E-3  
 2.406000000000000E10    9.018683122121729E-4  -2.737838458415354E-4  
 2.408000000000000E10   -4.256504269051220E-5  -1.296701368119102E-3  
 2.410000000000000E10   -6.448595559049863E-4  -8.704124229552690E-4  
 2.412000000000000E10   -6.715554955007974E-4   1.885860010588658E-4  
 2.414000000000000E10   -1.931223896463052E-4   7.722826449025888E-4  
 2.416000000000000E10    8.652730830362998E-4   2.887636492232559E-4  
 2.418000000000000E10    1.087042292056140E-3   5.248635789030232E-4  
 2.420000000000000E10    5.801235638500657E-4  -3.161269705742598E-4  
 2.422000000000000E10    2.921244704339188E-4  -3.517435761750676E-4  
 2.424000000000000E10   -7.448411452060100E-4   3.338042006362230E-4  
 2.426000000000000E10   -4.829182998946635E-4   8.818322530714795E-4  
 2.428000000000000E10   -1.867549854068784E-4   7.884588630986400E-4  
 2.430000000000000E10    2.224591880803928E-4   8.343466361111496E-4  
 2.432000000000000E10    5.626557394862175E-4  -1.764633398124715E-4  
 2.434000000000000E10    2.082971495838137E-4  -1.185623892524745E-3  
 2.436000000000000E10   -1.438774757843930E-3  -8.194895126507618E-4  
 2.438000000000000E10   -9.281892780563794E-4   1.043196054524742E-3  
 2.440000000000000E10    5.542443395825103E-4   1.184763510536868E-3  
 2.442000000000000E10    1.571573004184756E-3   5.039170673626359E-5  
 2.444000000000000E10    2.923230658780085E-4  -1.042496522131842E-3  
 2.446000000000000E10   -6.413418632291723E-4  -7.085409997671377E-4  
 2.448000000000000E10   -1.426090901077259E-3   3.961721195082646E-4  
 2.450000000000000E10   -2.175682038796367E-5   5.023179692216218E-4  
 2.452000000000000E10    2.503522773622535E-4   3.849210843327455E-4  
 2.454000000000000E10    9.165209485217929E-4  -3.912760766979773E-4  
 2.456000000000000E10    9.225460635207128E-4  -1.808090200938750E-3  
 2.458000000000000E10   -8.064838984864764E-4  -1.653441067901440E-3  
 2.460000000000000E10   -7.708740558882710E-4   2.285564714838984E-4  
 2.462000000000000E10    6.002686495776288E-4   1.123882182582747E-3  
 2.464000000000000E10    1.361540955258533E-3   9.385654857396730E-5  
 2.466000000000000E10    4.830200796277495E-4  -4.265038041921798E-4  
 2.468000000000000E10   -1.987748319152161E-4  -5.746064853155986E-4  
 2.470000000000000E10   -5.860593591933139E-4  -2.616691635921598E-4  
 2.472000000000000E10   -8.592861813667696E-4  -2.826026411639759E-4  
 2.474000000000000E10   -1.269708700419869E-3   8.957456338976044E-4  
 2.476000000000000E10    4.578117277560523E-4   3.342150757816853E-4  
 2.478000000000000E10    1.180733903311193E-3  -1.277313509490341E-3  
 2.480000000000000E10   -8.483933663683274E-5  -1.489453687099740E-3  
 2.482000000000000E10   -8.198076211556327E-4  -8.926400041673333E-4  
 2.484000000000000E10   -1.057138738360663E-4   4.778727907250868E-4  
 2.486000000000000E10    2.659626898093848E-4   9.478004139964469E-4  
 2.488000000000000E10    7.161962930695154E-4   3.623134980443865E-4  
 2.490000000000000E10    8.045922877499834E-4   3.207257450412726E-4  
 2.492000000000000E10   -5.042006850999314E-4  -1.102394089684822E-3  
 2.494000000000000E10   -1.305029523791745E-3  -5.433246296888683E-4  
 2.496000000000000E10   -1.452711549063679E-3   9.765046415850520E-4  
 2.498000000000000E10    4.728492149297381E-4   8.530869163223542E-4  
 2.500000000000000E10    1.258920186955947E-3  -6.291455356404185E-4  
 2.502000000000000E10    5.614294314000290E-4  -1.608148973900825E-3  
 2.504000000000000E10   -8.042102672334295E-4  -1.213949035445694E-3  
 2.506000000000000E10    4.832998251913523E-5   3.137222506666149E-5  
 2.508000000000000E10    6.592581557924859E-4   1.132509802118875E-3  
 2.510000000000000E10    5.113283950777259E-4   4.855700228745263E-5  
 2.512000000000000E10    8.669183189340401E-4   2.745509882515762E-4  
 2.514000000000000E10   -2.947572374978336E-4  -1.405704606440850E-4  
 2.516000000000000E10   -5.654069791489746E-4  -1.410175473210984E-4  
 2.518000000000000E10   -1.182074425742030E-3   1.983951297006570E-4  
 2.520000000000000E10    5.285505358187947E-5   3.878244988300139E-4  
 2.522000000000000E10   -4.044246452394873E-4   4.552169502858305E-5  
 2.524000000000000E10   -9.235688617081905E-5  -6.923748369445093E-4  
 2.526000000000000E10   -4.522571143752430E-4  -2.669847972356365E-4  
 2.528000000000000E10    1.295953297812957E-4  -7.731563418929000E-4  
 2.530000000000000E10   -5.310428587108618E-4  -4.290738979761954E-4  
 2.532000000000000E10   -1.363409486657474E-3   2.579214942670660E-4  
 2.534000000000000E10   -1.278669401472143E-4   1.461300969822332E-3  
 2.536000000000000E10    9.427262484678067E-4   1.171558600617573E-3  
 2.538000000000000E10    5.517878089449368E-4  -5.449891323223710E-4  
 2.540000000000000E10   -1.531746100226883E-3  -2.779091137199430E-4  
 2.542000000000000E10   -1.795300937374122E-3   6.022247071086895E-4  
 2.544000000000000E10   -1.125905466324184E-3   1.427684881491587E-3  
 2.546000000000000E10    2.490831184331910E-4   8.611499761173036E-4  
 2.548000000000000E10    1.063370575138833E-3   6.880599939904641E-4  
 2.550000000000000E10    3.157623359584250E-4  -1.180670376925264E-3  
 2.552000000000000E10   -8.392272247874644E-4  -5.908573511987925E-4  
 2.554000000000000E10   -1.458319173252676E-3   1.237230877450202E-3  
 2.556000000000000E10    8.933433491620235E-4   2.205503667937592E-3  
 2.558000000000000E10    1.989472177228890E-3   3.503595726215281E-4  
 2.560000000000000E10    8.153417220455594E-4  -4.817703684238950E-4  
 2.562000000000000E10   -9.556334480294026E-4  -5.294021029840224E-4  
 2.564000000000000E10   -4.502938008954516E-4   8.134646304824855E-4  
 2.566000000000000E10    1.215680404129671E-4   1.008769671898335E-3  
 2.568000000000000E10    7.441748930432368E-4  -1.639874662942020E-4  
 2.570000000000000E10    8.746385647100397E-4  -5.847227657795884E-4  
 2.572000000000000E10    2.950107136712177E-4  -9.232262636942323E-4  
 2.574000000000000E10    1.069826989805733E-4  -8.100578561425209E-4  
 2.576000000000000E10    4.772844476974569E-4  -8.083336615527514E-5  
 2.578000000000000E10    4.437958668859210E-4  -1.632365065233898E-4  
 2.580000000000000E10    2.969781235151459E-4  -4.876937709923368E-4  
 2.582000000000000E10   -3.031273317901650E-4  -4.924718432448572E-4  
 2.584000000000000E10   -3.789421934925485E-4  -2.900717681768583E-4  
 2.586000000000000E10    1.234577339346288E-4  -8.179565156751778E-4  
 2.588000000000000E10   -6.826070639363024E-4  -1.328679274593014E-3  
 2.590000000000000E10   -5.075850258435821E-4  -1.057071880495641E-3  
 2.592000000000000E10   -7.600892458867747E-4  -1.709160396785592E-4  
 2.594000000000000E10    4.546838426904287E-4   1.323499072896084E-4  
 2.596000000000000E10    7.356387759500649E-4  -6.705307496304158E-4  
 2.598000000000000E10   -1.002138133117114E-4  -1.459243532735854E-3  
 2.600000000000000E10   -1.536694930109661E-3  -4.177439986960962E-4  
 2.602000000000000E10   -1.425250273314305E-3   3.844549373752670E-4  
 2.604000000000000E10   -5.843476683367044E-4   1.074879663065076E-3  
 2.606000000000000E10    2.750400490185712E-4  -7.447996176779270E-5  
 2.608000000000000E10    3.383441380719887E-4  -1.021089192363434E-3  
 2.610000000000000E10   -1.263486796233337E-3  -1.666970238147769E-3  
 2.612000000000000E10   -1.697697291092482E-3  -2.905573728639865E-4  
 2.614000000000000E10   -4.096565353393089E-4   1.618027170479763E-3  
 2.616000000000000E10    1.119517997722141E-3   1.395005412632600E-3  
 2.618000000000000E10    1.556560680910479E-3  -4.414597406139365E-4  
 2.620000000000000E10   -2.784827811410651E-4  -4.316881659178762E-4  
 2.622000000000000E10   -1.307133905356750E-3   3.095011470577447E-4  
 2.624000000000000E10   -6.367063324432820E-4   1.027306141622830E-3  
 2.626000000000000E10    2.048492460744456E-4   1.179066464828793E-3  
 2.628000000000000E10    6.861020774522331E-4   2.037130780081498E-4  
 2.630000000000000E10    5.673239684256259E-4  -7.216824160423130E-4  
 2.632000000000000E10   -1.152236336565693E-4  -9.314333838119637E-4  
 2.634000000000000E10   -2.537206219130894E-4   2.108495846186997E-4  
 2.636000000000000E10    6.083750195102766E-4   4.268052671250189E-4  
 2.638000000000000E10    1.204998268804047E-3   6.229196078493260E-4  
 2.640000000000000E10    4.379817528388230E-4  -1.621688606974203E-4  
 2.642000000000000E10    1.071969886652369E-4   2.046304953182698E-4  
 2.644000000000000E10    1.687606172708911E-4   1.497185076004826E-4  
 2.646000000000000E10   -6.926822015884682E-5   2.454133446008200E-4  
 2.648000000000000E10   -3.135883598588407E-4  -5.338650298654102E-4  
 2.650000000000000E10   -3.094447965850122E-4   3.230658076063264E-4  
 2.652000000000000E10   -2.899524770327844E-4  -6.517426345453714E-5  
 2.654000000000000E10    1.367277131066658E-3  -2.297527789778542E-4  
 2.656000000000000E10   -7.556262153229909E-5  -8.511970736435615E-4  
 2.658000000000000E10   -1.793445844668895E-4  -8.250340906670317E-4  
 2.660000000000000E10   -9.271152230212465E-4   9.160064291791059E-4  
 2.662000000000000E10   -5.599117139354348E-4   7.716148538747802E-4  
 2.664000000000000E10    3.730751595867332E-4   8.744623773964122E-4  
 2.666000000000000E10   -6.397446043138189E-5  -4.580278400680982E-4  
 2.668000000000000E10   -4.492651569307782E-4  -5.489611357916147E-4  
 2.670000000000000E10   -1.988937889109366E-3  -6.962787811062299E-4  
 2.672000000000000E10   -1.139971878728829E-3   4.496815236052498E-4  
 2.674000000000000E10   -3.007652230735403E-4   1.098745749914087E-3  
 2.676000000000000E10    9.040125296451151E-4  -4.262490574546973E-5  
 2.678000000000000E10    1.840137410908938E-4  -4.917346122965682E-4  
 2.680000000000000E10   -4.201862466288731E-4  -8.698527744854800E-4  
 2.682000000000000E10   -1.249184177140705E-3   9.359579198644497E-4  
 2.684000000000000E10   -5.907679733354598E-4   4.812537808902562E-4  
 2.686000000000000E10    4.459310694073793E-4   1.571709857671522E-3  
 2.688000000000000E10    4.198114802420605E-4   1.990596902032848E-4  
 2.690000000000000E10    1.388754535582848E-4  -7.226509624160826E-4  
 2.692000000000000E10   -9.515027704765089E-4  -6.753253910574131E-4  
 2.694000000000000E10   -9.207410839735530E-4   4.591848373820540E-4  
 2.696000000000000E10   -1.885961755760945E-4   1.059464499121532E-3  
 2.698000000000000E10    1.021339630824514E-3   3.840991957986262E-4  
 2.700000000000000E10    8.544881711713970E-4   1.537202961117146E-4  
 2.702000000000000E10    8.760314415212633E-6  -6.582467030966654E-4  
 2.704000000000000E10   -1.542532691019005E-4   1.803791601560079E-4  
 2.706000000000000E10   -3.492739378998522E-4   8.605297334725037E-4  
 2.708000000000000E10    3.898590875905938E-4   9.826150635490194E-4  
 2.710000000000000E10    8.584645402152091E-4   2.211480368714547E-4  
 2.712000000000000E10    5.038937961217016E-4  -3.244069157517515E-4  
 2.714000000000000E10    6.791349278501002E-5  -9.364825018565171E-4  
 2.716000000000000E10    1.582574350322830E-4  -2.882806365960278E-4  
 2.718000000000000E10   -8.631678156234557E-5  -8.225885540014133E-5  
 2.720000000000000E10    6.346096633933485E-4  -1.174435710709076E-4  
 2.722000000000000E10    1.211716982652433E-3  -3.390857236809097E-4  
 2.724000000000000E10    1.016791749862023E-3  -7.834311400074512E-4  
 2.726000000000000E10   -1.859008251869909E-5  -6.255546759348363E-4  
 2.728000000000000E10    4.603864399541635E-4  -2.305922753293999E-4  
 2.730000000000000E10   -3.671340300570591E-5  -4.991649911971763E-4  
 2.732000000000000E10   -1.246498941327445E-4  -5.388636709540151E-4  
 2.734000000000000E10    3.834865092358086E-4  -1.821275654378951E-5  
 2.736000000000000E10    8.557217515772209E-4  -4.255406493030023E-4  
 2.738000000000000E10    4.882279536104761E-4  -7.503792585339397E-4  
 2.740000000000000E10   -4.050115712743718E-4  -1.070408063242212E-3  
 2.742000000000000E10   -4.219100628688466E-4  -1.211682842949813E-6  
 2.744000000000000E10   -9.066964867088245E-5   2.196279510826571E-4  
 2.746000000000000E10    8.954863951657899E-4   1.019806368276477E-4  
 2.748000000000000E10    3.228862151445355E-4  -4.488857302931137E-5  
 2.750000000000000E10    1.125180888266186E-4  -1.368154480587691E-3  
 2.752000000000000E10   -1.107896809116937E-3  -3.633199703472201E-4  
 2.754000000000000E10   -1.281321368878707E-3   2.054731351108785E-5  
 2.756000000000000E10    3.659242029243615E-4   1.391328769386746E-3  
