#  HZ   S   RI   R     50.00 
! Rohde & Schwarz ZVA40 4Ports - Version 3.90 - 1145.1110k42 SN: 100403
! Date: 2023-10-04 07:00:39
! Measurement: S12 
! 
 2.200000000000000E10    9.039537544595078E-4   2.589344194348087E-5  
 2.202000000000000E10    1.388832417433150E-3  -1.205663254950196E-3  
 2.204000000000000E10   -2.058528974885121E-3  -1.711201024590991E-3  
 2.206000000000000E10   -2.187385340221226E-3   1.480300372350030E-3  
 2.208000000000000E10    4.814432468265295E-4   2.345636137761176E-3  
 2.210000000000000E10    2.143099292879924E-3   3.944684522139141E-5  
 2.212000000000000E10   -2.190901959693292E-4  -1.829522472689860E-3  
 2.214000000000000E10   -2.415248804027215E-3  -7.145007039071061E-4  
 2.216000000000000E10   -1.589466060977429E-3   2.279415872180834E-3  
 2.218000000000000E10    1.361479771730956E-4   1.673854872933589E-3  
 2.220000000000000E10    7.658603208255954E-4   1.094237886718474E-3  
 2.222000000000000E10    4.686697102442849E-4   2.893441669584718E-4  
 2.224000000000000E10    1.465710902266437E-4  -1.612777632544749E-3  
 2.226000000000000E10   -2.182864322094247E-3   6.236706042272999E-5  
 2.228000000000000E10   -1.029522871249355E-3   2.848788601113483E-3  
 2.230000000000000E10    1.628992540645413E-3   2.783267555059865E-3  
 2.232000000000000E10    2.755252004135400E-3  -1.042651259922423E-3  
 2.234000000000000E10   -6.470867519965395E-4  -7.513010350521654E-4  
 2.236000000000000E10   -1.569865606143139E-3   6.775591646146495E-4  
 2.238000000000000E10    7.850486217648722E-4   2.020581159740686E-3  
 2.240000000000000E10    1.209616864798591E-3   4.331167510827072E-4  
 2.242000000000000E10    8.420455415034667E-4  -3.873907144225086E-5  
 2.244000000000000E10    8.085520603344776E-4   8.907737355912104E-4  
 2.246000000000000E10    1.379775596433319E-3  -3.569460147900827E-5  
 2.248000000000000E10    5.676280829902680E-5  -1.400539058522554E-4  
 2.250000000000000E10    8.082264730546740E-5   7.972460516612046E-4  
 2.252000000000000E10    1.136283215600997E-3   9.672626183601096E-4  
 2.254000000000000E10    9.514687553746626E-4  -9.474730904912576E-4  
 2.256000000000000E10    7.046713944873773E-4  -6.549876104600116E-5  
 2.258000000000000E10    1.800279931103432E-4  -1.874913505162112E-5  
 2.260000000000000E10    2.203904790803790E-3  -7.832710325601511E-4  
 2.262000000000000E10    2.057558958767913E-7  -1.425394453690387E-3  
 2.264000000000000E10   -7.593484842800535E-4  -2.936867858807091E-4  
 2.266000000000000E10    9.076006463146769E-4   1.444616471417248E-3  
 2.268000000000000E10    2.544788556406274E-3  -3.930889615730848E-4  
 2.270000000000000E10    1.405692682965309E-5  -2.150357759092003E-3  
 2.272000000000000E10   -1.586617261637002E-3  -1.838005569879897E-3  
 2.274000000000000E10   -1.427208713721484E-3   2.244805546069983E-4  
 2.276000000000000E10   -8.510108818882145E-4  -4.595756763592362E-5  
 2.278000000000000E10    1.352482395304833E-4  -6.300183013081551E-4  
 2.280000000000000E10    1.086744727217592E-3  -8.842087554512546E-4  
 2.282000000000000E10    1.670309153269045E-3  -1.601152078364976E-3  
 2.284000000000000E10   -1.771546667441726E-3  -2.314189245225862E-3  
 2.286000000000000E10   -2.032471355050802E-3   5.049639694334474E-4  
 2.288000000000000E10   -6.762374687241390E-4   2.600434585474432E-3  
 2.290000000000000E10    7.837191078579053E-4  -6.665384989901213E-5  
 2.292000000000000E10   -5.749499832745642E-4  -1.431552649592049E-3  
 2.294000000000000E10   -2.059896709397435E-3  -1.141771514085122E-3  
 2.296000000000000E10   -2.332663541892543E-3  -2.558657724875957E-4  
 2.298000000000000E10   -9.011810107040219E-4   3.375521555426531E-4  
 2.300000000000000E10   -3.404781054996420E-4   4.245605705364142E-4  
 2.302000000000000E10    9.892898524412885E-4   2.621729800011963E-5  
 2.304000000000000E10    8.246258148574270E-4  -6.281440219026990E-4  
 2.306000000000000E10   -7.292238806257956E-4  -1.098950306186453E-3  
 2.308000000000000E10   -1.453605087590404E-3   1.277399220271036E-3  
 2.310000000000000E10   -2.210107795690419E-4   2.709597029024735E-3  
 2.312000000000000E10    9.298137374571525E-4   1.678111380897462E-3  
 2.314000000000000E10   -9.613286465537385E-6  -2.928565686488582E-5  
 2.316000000000000E10   -9.130088365054689E-4   3.444773210503627E-4  
 2.318000000000000E10   -1.241552905412391E-3   2.131840356014436E-4  
 2.320000000000000E10   -7.444483562721871E-4   2.777634517769911E-5  
 2.322000000000000E10   -1.611619809409604E-4   8.820828224997968E-4  
 2.324000000000000E10    1.160043539130129E-3   5.126777359691914E-4  
 2.326000000000000E10    2.318854705663398E-3   4.405147637953633E-5  
 2.328000000000000E10    1.269987376872450E-3  -3.475140038062818E-4  
 2.330000000000000E10   -2.007368366321316E-4   9.989923273678869E-4  
 2.332000000000000E10    2.120875778928166E-4   1.582658864208497E-3  
 2.334000000000000E10    8.714805371710099E-4   1.867070182925090E-3  
 2.336000000000000E10   -8.945947138272459E-5   7.125152915250510E-4  
 2.338000000000000E10    4.436468734638766E-4   1.984987111427472E-4  
 2.340000000000000E10    3.362438365002163E-4  -1.160803527454846E-3  
 2.342000000000000E10   -6.465651822509244E-4  -1.709798583760858E-3  
 2.344000000000000E10   -9.004978564917110E-4  -7.394773128908128E-4  
 2.346000000000000E10    1.316802517976612E-3  -6.893324189150007E-5  
 2.348000000000000E10    1.736382793751545E-3  -1.018622652395607E-4  
 2.350000000000000E10    2.289049560204148E-3  -1.529722969280556E-3  
 2.352000000000000E10    1.348298814264126E-3  -4.041924366902094E-4  
 2.354000000000000E10   -6.555799191119149E-4  -4.231113601349534E-5  
 2.356000000000000E10   -2.593245662865229E-4   6.684081527055241E-4  
 2.358000000000000E10   -6.108237585067400E-6   1.673945909715258E-3  
 2.360000000000000E10    6.574288563570008E-4   5.251477414276451E-4  
 2.362000000000000E10    1.621734545551590E-4  -2.213500294601545E-3  
 2.364000000000000E10   -1.148927694885060E-3  -2.605975954793394E-3  
 2.366000000000000E10   -1.718501414870843E-3  -4.680170241044834E-5  
 2.368000000000000E10   -3.519812271406408E-4   2.482893123669783E-4  
 2.370000000000000E10    2.097913849866018E-3   4.219139009364881E-4  
 2.372000000000000E10    1.239291028468870E-3  -9.718574146972969E-4  
 2.374000000000000E10   -3.042523911744866E-5  -1.075937921996228E-3  
 2.376000000000000E10   -1.384155737468973E-3  -8.971861370810075E-5  
 2.378000000000000E10   -1.636341025005095E-3   1.665903284447268E-3  
 2.380000000000000E10   -7.969109283294529E-4   1.388192977174185E-3  
 2.382000000000000E10    6.306058348855004E-4   6.816477107349783E-4  
 2.384000000000000E10   -7.126283380785026E-4  -1.141499931691214E-3  
 2.386000000000000E10   -8.282435592263937E-4  -1.485841494286433E-3  
 2.388000000000000E10   -9.270975133404136E-4  -1.239132943737786E-4  
 2.390000000000000E10   -7.474094236386009E-4   8.546104872948490E-4  
 2.392000000000000E10    1.216183853102848E-3   2.724230471358169E-4  
 2.394000000000000E10    1.206585890031420E-3   5.465344765980262E-4  
 2.396000000000000E10    3.434276150073856E-4  -2.094335659421631E-4  
 2.398000000000000E10   -4.787225734617095E-4  -4.223309988446999E-4  
 2.400000000000000E10   -1.001029537292197E-3   7.101013397914358E-4  
 2.402000000000000E10   -1.254701099242084E-3   1.047354424372315E-3  
 2.404000000000000E10    1.780806924216449E-4   3.729910931724589E-4  
 2.406000000000000E10    4.594968959281687E-4   5.317117711456376E-5  
 2.408000000000000E10    1.368862649542280E-4  -8.242563635576516E-4  
 2.410000000000000E10    4.040681851620320E-4  -1.017541173496284E-3  
 2.412000000000000E10   -4.449540647328831E-4  -7.378319378403830E-5  
 2.414000000000000E10   -7.862308339099400E-4   6.632351942243986E-4  
 2.416000000000000E10    9.953312983270735E-4   1.291116190259345E-3  
 2.418000000000000E10    1.368339449982159E-3   6.172679150040494E-5  
 2.420000000000000E10    6.202126387506723E-4  -1.422641857061535E-3  
 2.422000000000000E10   -1.090853751520626E-3  -1.052766165230423E-3  
 2.424000000000000E10   -1.232901355251670E-3   3.518645025906153E-4  
 2.426000000000000E10   -5.451635806821287E-4   9.940298914443702E-4  
 2.428000000000000E10    8.666468374940450E-5  -3.602145116019528E-4  
 2.430000000000000E10    5.947676108917221E-4  -2.678925613963656E-5  
 2.432000000000000E10    1.435976682842011E-4  -1.299598210607655E-3  
 2.434000000000000E10   -1.059194837580435E-3  -1.228130509844050E-3  
 2.436000000000000E10   -1.569601139635779E-3   6.931270909262821E-4  
 2.438000000000000E10   -6.887789058964700E-4   1.376444502966479E-3  
 2.440000000000000E10    6.517939691548236E-4   6.018728672643192E-4  
 2.442000000000000E10    1.463779385630915E-4  -7.409808895317838E-4  
 2.444000000000000E10   -6.251380691537634E-4  -5.605239166470710E-4  
 2.446000000000000E10   -6.377647223416716E-4  -2.768995072983671E-4  
 2.448000000000000E10   -7.616380462422967E-4   7.887928659329191E-4  
 2.450000000000000E10   -6.167660967548727E-5   6.187803082866594E-4  
 2.452000000000000E10    1.079106936231256E-3   1.227567758178338E-3  
 2.454000000000000E10    8.304653456434608E-4   2.152450338144263E-5  
 2.456000000000000E10    4.503861055127345E-4  -1.001417957013473E-3  
 2.458000000000000E10   -1.027154052280821E-3  -6.026808550814167E-4  
 2.460000000000000E10   -7.169456730480306E-4   8.318618856719695E-4  
 2.462000000000000E10    7.331772430916317E-4   1.019424074911512E-3  
 2.464000000000000E10    2.033833239693195E-3   2.437179671233025E-5  
 2.466000000000000E10    9.402404393767938E-4  -8.355388781637885E-4  
 2.468000000000000E10   -3.911701896868181E-4  -1.098382068448700E-3  
 2.470000000000000E10   -4.945636464981362E-4   2.125542887370102E-4  
 2.472000000000000E10   -1.841948378569214E-4   5.509706024895422E-4  
 2.474000000000000E10    7.617550581926480E-4   7.009352048044093E-4  
 2.476000000000000E10    1.523975253803656E-3  -3.847421903628856E-4  
 2.478000000000000E10    1.048281570547260E-3  -1.319259565207176E-3  
 2.480000000000000E10   -9.265954213333316E-4  -7.838380843168125E-4  
 2.482000000000000E10   -7.725505056441762E-4   1.856815470091533E-4  
 2.484000000000000E10    6.597184910788201E-4   6.496297210105695E-4  
 2.486000000000000E10    9.925469348672777E-4  -2.330951883777743E-4  
 2.488000000000000E10    2.774502991087502E-4  -1.255324998055585E-3  
 2.490000000000000E10   -1.614341927052010E-4  -4.932872980134562E-4  
 2.492000000000000E10   -4.122475256735925E-4  -4.068872949574143E-4  
 2.494000000000000E10    6.191531588228827E-5  -7.274253875948489E-4  
 2.496000000000000E10   -3.802796236413997E-4   9.491857963439543E-5  
 2.498000000000000E10    2.830735738825752E-4  -3.047435602638871E-4  
 2.500000000000000E10    9.126055301749148E-4  -2.994292408402544E-4  
 2.502000000000000E10    4.181837684882339E-4  -7.560263402410783E-4  
 2.504000000000000E10   -4.995817580493167E-4  -2.561170840635896E-4  
 2.506000000000000E10   -4.550371668301523E-4  -2.269151664222591E-4  
 2.508000000000000E10   -5.557711119763553E-4   8.319321932503954E-4  
 2.510000000000000E10   -3.245679108658806E-4   5.885308491997421E-4  
 2.512000000000000E10    9.485824266448617E-4  -3.696973226396949E-5  
 2.514000000000000E10    6.201154756126925E-4  -6.700877274852246E-4  
 2.516000000000000E10   -1.008375402307138E-3  -1.571405504364520E-3  
 2.518000000000000E10   -1.563613273901865E-3   2.264104332425632E-4  
 2.520000000000000E10   -5.470404139487073E-4   1.276957453228533E-3  
 2.522000000000000E10    7.948112615849823E-4   7.509813876822591E-4  
 2.524000000000000E10    1.111975172534585E-3  -1.137889950769022E-3  
 2.526000000000000E10   -1.088609307771549E-3  -1.251278998097405E-3  
 2.528000000000000E10   -2.190969244111329E-3  -7.773066317895427E-4  
 2.530000000000000E10   -1.156850805273280E-3   1.437404309399426E-3  
 2.532000000000000E10   -1.376225736748893E-4   1.052905252436176E-3  
 2.534000000000000E10    1.095412211725488E-3  -4.059212078573182E-4  
 2.536000000000000E10    2.621858366183005E-4  -1.471826166380197E-3  
 2.538000000000000E10   -1.681271678535268E-3  -1.312468259129673E-3  
 2.540000000000000E10   -1.607494748895988E-3   5.526688764803112E-4  
 2.542000000000000E10    9.724341180117335E-5   1.452443597372621E-3  
 2.544000000000000E10    6.052780954632908E-4   6.274032057262957E-4  
 2.546000000000000E10   -9.146825505013112E-5  -1.271004875889048E-3  
 2.548000000000000E10   -1.597950438736007E-3  -2.352571245864965E-4  
 2.550000000000000E10   -1.569405547343195E-3   6.474584952229634E-4  
 2.552000000000000E10    2.519085683161393E-4   2.701748308027163E-4  
 2.554000000000000E10   -2.927891400759108E-4   4.856705163547304E-5  
 2.556000000000000E10   -8.668278132972773E-5   1.373229315504432E-4  
 2.558000000000000E10   -1.669084085733630E-4   3.484570843284018E-4  
 2.560000000000000E10   -1.245747721156931E-5   1.332567389908945E-4  
 2.562000000000000E10   -1.106074851122685E-4   6.186535611050203E-4  
 2.564000000000000E10    2.944312291219831E-4   2.272379715577699E-4  
 2.566000000000000E10   -1.712430384941399E-4   3.804998050327413E-4  
 2.568000000000000E10   -3.673903120215982E-4   8.198223222279921E-4  
 2.570000000000000E10    7.451542333001271E-4   1.129457348724827E-3  
 2.572000000000000E10    1.293387438636273E-3  -2.874444762710482E-4  
 2.574000000000000E10    6.144266371848062E-4  -1.322341413469985E-3  
 2.576000000000000E10   -1.032122760079801E-3   1.730595940898638E-4  
 2.578000000000000E10   -6.597352039534599E-4   1.077287510270253E-3  
 2.580000000000000E10    1.636130356928334E-3   1.090216421289370E-3  
 2.582000000000000E10    1.445464731659740E-3  -6.991013506194577E-4  
 2.584000000000000E10    3.289961023256183E-4  -1.875720568932593E-3  
 2.586000000000000E10   -9.647512342780829E-4  -1.062200492015109E-3  
 2.588000000000000E10   -3.931594110326842E-4   1.472735311836004E-4  
 2.590000000000000E10    6.689931906294078E-4   1.087237149477005E-3  
 2.592000000000000E10    2.526305266655982E-3  -4.509017671807669E-4  
 2.594000000000000E10    1.396845211274922E-3  -1.733596494887024E-3  
 2.596000000000000E10   -4.747433995362371E-4  -2.075734082609415E-3  
 2.598000000000000E10   -1.114597747800872E-3   1.968543874681927E-4  
 2.600000000000000E10   -2.121343968610745E-4   9.340915712527931E-4  
 2.602000000000000E10    1.691021112492308E-3   1.632686653465498E-4  
 2.604000000000000E10    4.279836648493074E-4  -1.472209958592430E-3  
 2.606000000000000E10   -9.827847825363278E-4  -2.088948094751686E-3  
 2.608000000000000E10   -1.071780250640586E-3  -7.071620348142460E-4  
 2.610000000000000E10   -4.391675029182807E-4  -1.732570081003360E-5  
 2.612000000000000E10    1.736558806442190E-4   4.191390598862199E-5  
 2.614000000000000E10    5.788514681626111E-4  -8.993288502097130E-4  
 2.616000000000000E10    8.311132114613429E-5   8.789092134975363E-5  
 2.618000000000000E10   -1.176419085823000E-3  -4.671075075748377E-4  
 2.620000000000000E10   -9.962418880604673E-5   7.475015736417845E-4  
 2.622000000000000E10   -4.268764751031995E-4   6.870179786346853E-4  
 2.624000000000000E10   -1.447656595701119E-4  -2.399372824584134E-4  
 2.626000000000000E10   -7.735833642072976E-4   1.784560590749607E-4  
 2.628000000000000E10   -4.520986549323425E-4   8.807798440102488E-4  
 2.630000000000000E10    6.286416755756363E-4   3.921740353689529E-4  
 2.632000000000000E10    7.619073439855129E-4  -3.535286596161313E-4  
 2.634000000000000E10   -7.259802659973502E-4  -7.807003203197382E-5  
 2.636000000000000E10   -9.717709035612643E-4   7.029521802905947E-4  
 2.638000000000000E10    2.160194708267227E-4   1.926815923070535E-3  
 2.640000000000000E10    5.703675560653210E-4   5.039528623456135E-4  
 2.642000000000000E10    8.387824782403186E-4  -6.096306315157563E-4  
 2.644000000000000E10   -1.022984040901065E-3  -7.874925358919427E-4  
 2.646000000000000E10   -1.195251184981316E-3   2.559386157372501E-4  
 2.648000000000000E10   -3.096878135693260E-4   1.325596647802740E-3  
 2.650000000000000E10    1.607395359314978E-3   5.116204920341261E-4  
 2.652000000000000E10    1.403827860485762E-3  -5.944482199993217E-5  
 2.654000000000000E10    5.533654530154308E-5  -1.730188902001828E-3  
 2.656000000000000E10   -9.465184994041920E-4  -2.602745080366731E-4  
 2.658000000000000E10   -1.270700799068436E-3   1.244822575245053E-3  
 2.660000000000000E10    5.091707425890490E-4   1.218634541146457E-3  
 2.662000000000000E10    1.330270839389414E-3  -4.278720734873787E-4  
 2.664000000000000E10   -1.232810645888094E-4  -1.333103020442650E-3  
 2.666000000000000E10   -1.515741983894259E-3  -1.216680830111727E-3  
 2.668000000000000E10   -9.571356786182150E-4   2.647013898240402E-4  
 2.670000000000000E10   -1.892786094686016E-4   4.134829505346716E-4  
 2.672000000000000E10    6.080302118789405E-4   3.939133512176340E-5  
 2.674000000000000E10    3.178408296662383E-4  -7.447714742738754E-4  
 2.676000000000000E10   -1.534060938865878E-4  -7.740271976217628E-4  
 2.678000000000000E10   -7.835370051907376E-4  -1.060179693013197E-4  
 2.680000000000000E10   -5.906993028474972E-4   6.240107632038416E-5  
 2.682000000000000E10   -3.036301932297647E-4   8.782703662291169E-4  
 2.684000000000000E10   -2.439133459120058E-4  -4.954217147314921E-4  
 2.686000000000000E10    1.042450639943127E-4  -9.598562701285118E-5  
 2.688000000000000E10   -9.195615275530145E-4  -7.432171260006726E-4  
 2.690000000000000E10    9.892759408103302E-5  -4.549251170828939E-4  
 2.692000000000000E10   -4.539393485174514E-4  -2.248869677714538E-4  
 2.694000000000000E10   -1.317968526564073E-4   3.261979363742285E-4  
 2.696000000000000E10   -5.701377767763916E-5   3.860225770040415E-4  
 2.698000000000000E10    9.717343637021259E-4   6.972765986574814E-4  
 2.700000000000000E10    2.907935559051111E-4   2.103767583321314E-4  
 2.702000000000000E10   -2.444332039885921E-5  -3.306926664663479E-4  
 2.704000000000000E10   -7.375963614322245E-4   9.255394688807428E-4  
 2.706000000000000E10   -7.132094760891050E-4   1.083856070181355E-3  
 2.708000000000000E10    7.345006015384570E-4   9.007967164507136E-4  
 2.710000000000000E10    8.200813463190571E-4  -7.202774868346751E-4  
 2.712000000000000E10    4.919717830489390E-4  -7.222849380923435E-4  
 2.714000000000000E10   -3.452439705142751E-4  -2.665597821760457E-4  
 2.716000000000000E10    1.379961395286955E-4   3.466293346718885E-4  
 2.718000000000000E10    7.045946113066748E-4   9.245771361747757E-4  
 2.720000000000000E10    1.834954047808424E-3   8.307583775604144E-4  
 2.722000000000000E10    1.243781705852598E-3   2.504565418348648E-4  
 2.724000000000000E10    4.685616440838203E-4  -6.912498356541619E-4  
 2.726000000000000E10   -7.178291270975024E-4   2.093378352583386E-4  
 2.728000000000000E10   -7.722196551185334E-5   4.699569108197466E-4  
 2.730000000000000E10    9.626853861846030E-4   4.473027511266992E-4  
 2.732000000000000E10    1.126874121837318E-3  -1.037425041431561E-3  
 2.734000000000000E10    1.208689936902374E-3  -2.503527721273713E-4  
 2.736000000000000E10    2.437509210722055E-4  -1.047026409651153E-3  
 2.738000000000000E10    8.728159718884854E-5  -2.787605262710713E-4  
 2.740000000000000E10    2.169828112528194E-4   6.527235236717388E-4  
 2.742000000000000E10    1.091381214791909E-3   1.074498111847788E-3  
 2.744000000000000E10    3.984280483564362E-4  -3.144722131764866E-5  
 2.746000000000000E10   -2.514906082069501E-4  -1.221422135131434E-3  
 2.748000000000000E10   -8.997017575893551E-4  -5.010940003558062E-4  
 2.750000000000000E10   -8.958586549852043E-4  -8.857042848831043E-5  
 2.752000000000000E10    7.057161747070495E-5   1.879662477222155E-5  
 2.754000000000000E10    2.888242852350231E-4  -3.602884171414189E-4  
 2.756000000000000E10    5.786793335573748E-4  -4.479411727515981E-4  
