#  HZ   S   RI   R     50.00 
! Rohde & Schwarz ZVA40 4Ports - Version 3.90 - 1145.1110k42 SN: 100403
! Date: 2023-10-04 06:59:08
! Measurement: S12 
! 
 2.200000000000000E10    3.117298656434286E-4  -1.182889631309081E-3  
 2.202000000000000E10   -6.938553196960129E-4  -1.343115145573393E-3  
 2.204000000000000E10   -1.013570079521742E-3   3.176037589582847E-4  
 2.206000000000000E10    4.507497328631871E-5   4.654429048969178E-4  
 2.208000000000000E10    1.969773016753607E-3  -1.075520715403400E-4  
 2.210000000000000E10    1.478749368288845E-4  -1.801063524908386E-3  
 2.212000000000000E10   -1.177762256702408E-3  -1.195568154798821E-3  
 2.214000000000000E10   -1.021853582642507E-3   8.149080749717541E-4  
 2.216000000000000E10    1.926388558786130E-4   1.989457687159302E-4  
 2.218000000000000E10   -5.085259090265026E-5  -7.073893502820283E-4  
 2.220000000000000E10   -1.501877595728729E-3  -1.035752517054789E-3  
 2.222000000000000E10   -8.795744579401799E-4   7.802671752870083E-4  
 2.224000000000000E10    2.222871898993617E-4   2.471816628712986E-4  
 2.226000000000000E10    2.291010655426362E-4  -1.311618718318641E-3  
 2.228000000000000E10   -1.530461959191598E-3  -3.669840116344858E-4  
 2.230000000000000E10   -1.627222904062364E-3   4.695534444181249E-4  
 2.232000000000000E10   -7.932668522698805E-4   1.476420125982259E-3  
 2.234000000000000E10   -2.852122015610803E-4   5.123830997035839E-4  
 2.236000000000000E10    4.312164255679818E-4   4.046312216132719E-5  
 2.238000000000000E10    1.019314131553983E-4  -1.150000709458254E-3  
 2.240000000000000E10   -1.997918094275519E-3  -3.974307419412071E-4  
 2.242000000000000E10   -1.964822615263984E-3   1.944797884789296E-3  
 2.244000000000000E10    1.438505605619866E-3   2.334585631615482E-3  
 2.246000000000000E10    1.794764000806026E-3  -1.756315596139757E-4  
 2.248000000000000E10   -1.635071412238176E-4  -1.652051585551817E-3  
 2.250000000000000E10   -1.942007875186391E-3   2.407126357866218E-4  
 2.252000000000000E10   -1.100322249840247E-3   1.937075467139948E-3  
 2.254000000000000E10    1.161826468887739E-3   1.737467646307778E-3  
 2.256000000000000E10    8.725266015972011E-4   3.029024310308159E-4  
 2.258000000000000E10    7.926964426587801E-4  -9.284159677918069E-4  
 2.260000000000000E10    2.212988101746305E-5  -9.475506158196367E-4  
 2.262000000000000E10   -6.076662175473757E-4   7.360933304880746E-4  
 2.264000000000000E10    1.755316710614352E-4   1.534453069325537E-3  
 2.266000000000000E10    2.138932992238551E-3   1.166454814665485E-3  
 2.268000000000000E10    1.668381490162574E-3  -1.810283374652499E-4  
 2.270000000000000E10    7.023414673312800E-5  -1.281802316952962E-3  
 2.272000000000000E10   -6.528046505991370E-4  -4.468475108296843E-4  
 2.274000000000000E10    3.533808308020525E-5   6.911814998602495E-4  
 2.276000000000000E10    4.782346259162296E-4  -2.455691992508946E-4  
 2.278000000000000E10    4.284790029487340E-4  -3.682967435452156E-4  
 2.280000000000000E10    1.255980321730021E-3  -6.583284302905668E-4  
 2.282000000000000E10    8.948782378865872E-4  -7.018594078544993E-4  
 2.284000000000000E10    6.415207917598309E-5  -1.538374868687242E-3  
 2.286000000000000E10   -5.205857414694037E-4  -7.613078795998263E-5  
 2.288000000000000E10   -5.420219858933706E-4   2.109791153088736E-4  
 2.290000000000000E10    8.675108074385207E-4  -6.293030992310378E-5  
 2.292000000000000E10    7.075062967487611E-4  -6.393612384272274E-4  
 2.294000000000000E10    1.419076347701775E-4  -1.076556960470043E-3  
 2.296000000000000E10   -5.542570761463139E-4  -1.002754834189545E-3  
 2.298000000000000E10   -7.122838178474922E-4  -5.212758078414481E-4  
 2.300000000000000E10   -4.113390532438643E-4   6.225230717973318E-4  
 2.302000000000000E10    5.085150041850284E-4   6.677668789052405E-4  
 2.304000000000000E10    9.155479965556879E-4  -4.398627625050722E-4  
 2.306000000000000E10   -5.924270080868155E-4  -1.905130935483612E-3  
 2.308000000000000E10   -1.271602362976410E-3  -9.775319522304926E-4  
 2.310000000000000E10   -1.829120687034447E-3   8.773212430241983E-4  
 2.312000000000000E10    1.703722782622208E-4   1.998403176912689E-4  
 2.314000000000000E10    7.683939693379216E-4  -9.149637037353386E-5  
 2.316000000000000E10    1.183029417006765E-4  -9.030715846165549E-4  
 2.318000000000000E10   -5.060997827968095E-4  -1.038027941831388E-3  
 2.320000000000000E10   -6.970801769057289E-4  -1.552987678223872E-4  
 2.322000000000000E10   -1.267618063138798E-3   1.719146042887587E-3  
 2.324000000000000E10    6.380867162079085E-4   2.070780035865028E-3  
 2.326000000000000E10    8.700414764462039E-4   8.970569324446842E-4  
 2.328000000000000E10   -4.695791903941426E-4  -4.957880573783768E-4  
 2.330000000000000E10   -1.148967960034497E-3  -6.113439048931468E-4  
 2.332000000000000E10   -1.549049811728764E-3   5.528639449039474E-4  
 2.334000000000000E10   -9.489418443990871E-4   1.083342631318374E-3  
 2.336000000000000E10    7.313787464227062E-4   7.524586180807091E-4  
 2.338000000000000E10    1.205708365887404E-3  -3.155792364850640E-4  
 2.340000000000000E10    1.113476784667000E-3  -7.632125925738365E-4  
 2.342000000000000E10   -7.937774062156677E-4  -4.263988066668389E-4  
 2.344000000000000E10   -4.821973598154727E-4   1.461394334910438E-3  
 2.346000000000000E10    9.448182754567824E-4   2.201429262640886E-3  
 2.348000000000000E10    1.356796528853010E-3   9.503666224190965E-4  
 2.350000000000000E10    9.052951027115341E-4   1.200627548314515E-4  
 2.352000000000000E10   -2.644507537752361E-5  -7.750156582915224E-4  
 2.354000000000000E10   -1.379670175083447E-3   1.540205239507486E-4  
 2.356000000000000E10   -1.034979446558282E-3   1.029441911668982E-3  
 2.358000000000000E10    7.739669090369716E-4   6.139315300970338E-4  
 2.360000000000000E10    1.222887411131524E-3  -6.332005796139129E-4  
 2.362000000000000E10    8.498478455294389E-4  -1.824335799028631E-3  
 2.364000000000000E10    2.043933545792243E-4  -5.507965979631990E-4  
 2.366000000000000E10   -6.569667550593294E-5  -9.154307190328836E-5  
 2.368000000000000E10    5.390285696194042E-4   6.262263304961380E-4  
 2.370000000000000E10    8.110691996989772E-4   5.379422036639880E-4  
 2.372000000000000E10    1.194235926959664E-3   5.023650937800994E-4  
 2.374000000000000E10   -2.603990765237541E-5  -7.518117126892321E-4  
 2.376000000000000E10   -6.583065078302752E-4  -4.651717335946159E-4  
 2.378000000000000E10   -1.270708424272016E-3  -1.811075221667124E-4  
 2.380000000000000E10   -3.907772406819277E-4   4.981446800229605E-4  
 2.382000000000000E10    5.849151675647590E-4   5.568648812186439E-4  
 2.384000000000000E10    3.407156782486709E-4  -1.067760851583444E-3  
 2.386000000000000E10    6.707217035000213E-4  -1.147993883932941E-3  
 2.388000000000000E10   -1.929589175233559E-4  -7.869795226724818E-4  
 2.390000000000000E10   -5.196357451495715E-4  -1.608051425137091E-4  
 2.392000000000000E10    3.205467095312997E-5   9.287602006224915E-4  
 2.394000000000000E10    1.256880816072226E-3   1.019578568957513E-3  
 2.396000000000000E10    4.293368983780965E-4  -4.495008488447638E-4  
 2.398000000000000E10   -3.109361059614457E-4  -1.682775451627094E-3  
 2.400000000000000E10   -1.871981214208063E-3  -1.015512780213612E-4  
 2.402000000000000E10   -1.365569049085025E-3   2.228992088930681E-4  
 2.404000000000000E10    6.228565689525567E-4   9.441161055292469E-4  
 2.406000000000000E10    5.777851802122314E-4   1.039138223859482E-4  
 2.408000000000000E10    2.196853565692436E-4  -1.220007914525922E-3  
 2.410000000000000E10   -1.985470371437259E-4  -7.278532357304357E-4  
 2.412000000000000E10   -1.046515826601535E-3  -3.454812303971266E-5  
 2.414000000000000E10   -1.362728777166922E-3   1.149375348177273E-3  
 2.416000000000000E10    9.803022767300718E-4   1.181403138616588E-3  
 2.418000000000000E10    1.859395735664293E-3   5.618133764073718E-4  
 2.420000000000000E10    1.670360243224422E-4  -1.584052006364800E-3  
 2.422000000000000E10   -5.565416613535490E-4  -1.046183511789423E-3  
 2.424000000000000E10   -1.177474390715361E-3   6.344254215946421E-4  
 2.426000000000000E10    2.634880838741083E-4   3.722807050507981E-4  
 2.428000000000000E10    8.700794387550559E-4   2.065034905172070E-4  
 2.430000000000000E10    1.005061276373453E-3  -1.724880848996691E-4  
 2.432000000000000E10    3.610818366723834E-4  -1.302958233281970E-3  
 2.434000000000000E10   -4.886951101070736E-4  -1.097865861083847E-3  
 2.436000000000000E10   -1.644530369958375E-3   1.644683252379764E-4  
 2.438000000000000E10   -8.110595194921189E-5   9.844329106272198E-4  
 2.440000000000000E10    1.345130578556564E-3  -1.035078439599602E-4  
 2.442000000000000E10    6.890439799462911E-4  -1.416327904735226E-3  
 2.444000000000000E10   -6.673743118881248E-4  -1.068823177774902E-3  
 2.446000000000000E10   -4.980197063559899E-4   2.900282524933573E-4  
 2.448000000000000E10   -2.630257667988190E-4   1.081932132365182E-4  
 2.450000000000000E10   -4.876669489561891E-5   2.548353586462326E-4  
 2.452000000000000E10    3.231716364098247E-4   5.903081437281799E-4  
 2.454000000000000E10    5.573337402893230E-4  -3.519183264870662E-4  
 2.456000000000000E10   -1.991311692108866E-4  -1.158221515652258E-3  
 2.458000000000000E10   -1.369304125546478E-3  -4.375177894644367E-6  
 2.460000000000000E10   -3.730594617081806E-4   7.961705341585912E-4  
 2.462000000000000E10    8.422574610449374E-4   9.507555223535746E-4  
 2.464000000000000E10    6.321789005596656E-4   3.253879422118189E-4  
 2.466000000000000E10   -2.579820720711723E-4  -2.791059023365961E-5  
 2.468000000000000E10    3.049327533517499E-4   2.541564881539671E-4  
 2.470000000000000E10   -1.068777855834924E-3  -2.356737077207072E-4  
 2.472000000000000E10   -6.567706805071794E-4   5.682154460373567E-5  
 2.474000000000000E10   -1.888967481136206E-4   1.313450120505877E-3  
 2.476000000000000E10    9.016681142384186E-4   4.695040934166173E-4  
 2.478000000000000E10    9.651095824665390E-4  -4.018305317003978E-4  
 2.480000000000000E10   -1.579444449362200E-4  -9.350991604151204E-4  
 2.482000000000000E10   -3.752871980395867E-4   3.100640105913044E-5  
 2.484000000000000E10   -2.446923861043615E-5   8.496140580973588E-4  
 2.486000000000000E10    1.117890446039382E-3   1.095421757781878E-3  
 2.488000000000000E10    1.120229426305741E-3   1.137312347054831E-4  
 2.490000000000000E10    7.984011463122442E-4  -4.461984881345416E-4  
 2.492000000000000E10   -3.844236289296532E-4  -5.847556203661952E-4  
 2.494000000000000E10   -8.985705426312052E-4  -2.291927557962481E-4  
 2.496000000000000E10   -1.013102419165080E-4   1.467389556637500E-3  
 2.498000000000000E10    1.347333345620427E-3   6.613595069211442E-4  
 2.500000000000000E10    1.990891207242385E-3  -6.508097976620775E-4  
 2.502000000000000E10    8.802019920040038E-5  -1.524242055893410E-3  
 2.504000000000000E10   -1.195376891701017E-3  -2.957202250399860E-4  
 2.506000000000000E10   -6.130339752417058E-4   6.830311103840359E-4  
 2.508000000000000E10    1.177742065920029E-3   1.356373562884983E-3  
 2.510000000000000E10    7.358160910371225E-4  -4.081580609636148E-4  
 2.512000000000000E10    6.969931491767056E-4  -1.003853583824821E-3  
 2.514000000000000E10   -6.852847036498133E-4  -4.112580318178516E-4  
 2.516000000000000E10   -9.348761850560550E-4  -4.427014173415955E-4  
 2.518000000000000E10   -1.024999837682117E-4   1.203553423692938E-3  
 2.520000000000000E10    1.079015819414053E-3   3.474966961221071E-4  
 2.522000000000000E10    7.622156190336682E-4  -1.190114642668050E-3  
 2.524000000000000E10   -6.626251961279195E-4  -8.244316377385985E-4  
 2.526000000000000E10   -9.120810063905083E-4  -3.804084790317575E-4  
 2.528000000000000E10   -4.313316058812688E-5  -7.013340041339689E-5  
 2.530000000000000E10    5.400947156886105E-4  -6.590786069864407E-4  
 2.532000000000000E10   -5.183810426387936E-4  -5.054998728155624E-4  
 2.534000000000000E10    3.700799479702255E-4  -5.541243772313464E-4  
 2.536000000000000E10    8.360385654668789E-4   4.086328499397496E-5  
 2.538000000000000E10    1.186749097996653E-4  -8.938925675465725E-4  
 2.540000000000000E10   -1.089037166366325E-4  -9.439178320462816E-4  
 2.542000000000000E10   -9.363718672830146E-4   3.061786437683622E-4  
 2.544000000000000E10   -1.171437630546279E-3   1.222891150973737E-4  
 2.546000000000000E10    1.840283130150056E-4  -1.251443791261409E-4  
 2.548000000000000E10    2.118797874572920E-4  -9.224049026670400E-4  
 2.550000000000000E10   -4.396191470732447E-4  -1.850284745160025E-3  
 2.552000000000000E10   -1.465331362851430E-3  -1.118921383749694E-3  
 2.554000000000000E10   -1.014098532323260E-3   5.833031500515062E-4  
 2.556000000000000E10    3.777810670726467E-4   1.150486685219221E-3  
 2.558000000000000E10    1.884017139673233E-3  -4.363677198853111E-4  
 2.560000000000000E10   -1.320847891292942E-4  -1.334260865405668E-3  
 2.562000000000000E10   -2.162309538107365E-3  -6.385736669471953E-4  
 2.564000000000000E10   -1.229362103913445E-3   2.039920291281305E-3  
 2.566000000000000E10    1.177353706225404E-4   1.767190566170029E-3  
 2.568000000000000E10    9.001655234897044E-4   5.870230961591005E-4  
 2.570000000000000E10    3.007329751198995E-4  -1.163961351267062E-3  
 2.572000000000000E10   -8.723482023924589E-4  -5.183240245969500E-4  
 2.574000000000000E10   -1.430342745152302E-3   6.303179143287707E-4  
 2.576000000000000E10   -3.597278902134349E-5   1.751981450070161E-3  
 2.578000000000000E10    1.535462055471726E-3   1.088444012566470E-3  
 2.580000000000000E10    1.216172233398538E-3  -5.457050283439457E-4  
 2.582000000000000E10   -3.763196982617956E-4  -5.836542768520303E-4  
 2.584000000000000E10   -1.040774310240522E-3   2.557398811404710E-4  
 2.586000000000000E10    5.657386718667112E-4   1.410373501130380E-3  
 2.588000000000000E10    1.260334422113374E-3   1.054852815514096E-4  
 2.590000000000000E10    1.452722062822431E-3  -3.449111081863521E-4  
 2.592000000000000E10    6.782691270927899E-4  -2.081700058624847E-4  
 2.594000000000000E10    7.840208963898476E-4   8.281402042484842E-4  
 2.596000000000000E10    9.626061364542693E-4   3.623345164669445E-4  
 2.598000000000000E10    1.382994836603757E-3   5.501758590753525E-5  
 2.600000000000000E10   -2.492800394975347E-4  -4.625750420927943E-5  
 2.602000000000000E10    1.648853422011598E-4   5.918144830729943E-5  
 2.604000000000000E10    5.180704119993607E-4   8.123215484374668E-4  
 2.606000000000000E10    8.362801672774367E-4  -6.808382240706123E-4  
 2.608000000000000E10    1.235579889907967E-3  -1.058707552147098E-3  
 2.610000000000000E10   -2.589575287856860E-4  -1.096184991183691E-3  
 2.612000000000000E10   -4.024108366138535E-4  -4.043553008159506E-5  
 2.614000000000000E10    5.304087862896267E-4   1.150677671830636E-3  
 2.616000000000000E10    1.489597314503044E-3   7.023529433354270E-4  
 2.618000000000000E10    8.011351274035405E-4  -1.260152530448977E-3  
 2.620000000000000E10   -7.010472145339008E-4  -1.468384492909536E-3  
 2.622000000000000E10   -2.549086813814938E-3   5.235220414760988E-4  
 2.624000000000000E10   -4.260815821908182E-4   1.041145067574689E-3  
 2.626000000000000E10    1.050436214427464E-3   3.606012596719666E-4  
 2.628000000000000E10    9.617471114324872E-4  -1.421373395714909E-3  
 2.630000000000000E10   -1.105987277696841E-3  -1.697241525107529E-3  
 2.632000000000000E10   -1.345347176538780E-3  -4.929159695166163E-4  
 2.634000000000000E10   -9.456654843233991E-4   1.597392074472737E-3  
 2.636000000000000E10    6.835136373410933E-4   5.451716297102394E-4  
 2.638000000000000E10    1.604792545549572E-3   3.226572898711311E-4  
 2.640000000000000E10   -6.933363765710965E-4  -1.098817308957223E-3  
 2.642000000000000E10   -1.126515533542261E-3  -5.199201987124980E-4  
 2.644000000000000E10   -1.277996751014143E-3   1.507317312643863E-3  
 2.646000000000000E10   -9.235792867912096E-5   1.275929957046174E-3  
 2.648000000000000E10    6.251273734960705E-4  -1.507008309999947E-4  
 2.650000000000000E10    6.120732410863639E-5  -5.428443328128196E-4  
 2.652000000000000E10   -1.058191082847770E-3  -8.722484153622645E-6  
 2.654000000000000E10   -2.913340558734490E-4  -3.995037568529369E-4  
 2.656000000000000E10    3.129097894998267E-4   6.903288085595705E-4  
 2.658000000000000E10    2.945404194178991E-4  -3.686769305204507E-4  
 2.660000000000000E10    3.517668083077297E-4   1.696803019513027E-5  
 2.662000000000000E10   -3.608220913520199E-5  -7.815016294898669E-5  
 2.664000000000000E10    7.887119209044613E-4   3.243820792704355E-4  
 2.666000000000000E10   -1.189758022519527E-4  -3.883314493577927E-4  
 2.668000000000000E10    1.591143245605053E-4  -3.985785479017068E-4  
 2.670000000000000E10   -1.273759233299643E-3   4.250109886925202E-4  
 2.672000000000000E10    1.460808989577345E-4   3.941703090504234E-5  
 2.674000000000000E10    6.748754531145096E-4   1.363967476208927E-4  
 2.676000000000000E10    7.056659742374905E-4  -1.098884997190908E-3  
 2.678000000000000E10   -4.829532554140315E-4  -1.304645687923767E-3  
 2.680000000000000E10   -7.644030702067539E-4  -7.874400907894597E-4  
 2.682000000000000E10   -5.221054816502146E-4   1.128716117818840E-3  
 2.684000000000000E10    7.526834961026907E-4   5.427302603493445E-4  
 2.686000000000000E10    2.149506763089448E-3  -5.235314965830185E-4  
 2.688000000000000E10   -5.205198613111861E-4  -1.531482950667851E-3  
 2.690000000000000E10   -1.214423755300231E-3  -3.124392897007056E-4  
 2.692000000000000E10   -1.082034606952220E-3   1.359331712592393E-3  
 2.694000000000000E10    9.882055892376229E-4   6.523400807054713E-4  
 2.696000000000000E10    6.595192899112590E-4  -1.932646391651360E-4  
 2.698000000000000E10    7.156319188652560E-4  -1.382076283334754E-3  
 2.700000000000000E10   -1.086325311916880E-3  -1.879190840554657E-4  
 2.702000000000000E10   -9.971403487725183E-4   4.694947458006027E-5  
 2.704000000000000E10    9.783813493413618E-5   1.384264440275729E-3  
 2.706000000000000E10    6.121439873822965E-4   3.919084010703955E-4  
 2.708000000000000E10    1.164363595307805E-3  -3.238990138925146E-4  
 2.710000000000000E10   -3.615456735133193E-4  -7.292104346561246E-4  
 2.712000000000000E10   -7.311420631594956E-4   3.579855983844027E-4  
 2.714000000000000E10   -4.336722195148468E-4   9.106108482228592E-4  
 2.716000000000000E10    7.397974477498792E-4   6.676456396235153E-4  
 2.718000000000000E10   -3.795310622081161E-4   5.968443438177928E-4  
 2.720000000000000E10   -1.390044917570776E-5   3.647006888058968E-4  
 2.722000000000000E10    3.006425049534300E-4   3.936171779059805E-4  
 2.724000000000000E10   -2.446161488478538E-5  -4.675976742873900E-4  
 2.726000000000000E10   -4.184576064290013E-4   4.113240393053275E-4  
 2.728000000000000E10   -1.389002045470988E-4   8.993614101200365E-4  
 2.730000000000000E10    1.021551695885137E-3   8.669849339639768E-4  
 2.732000000000000E10    5.033143352193292E-4  -2.561170986155048E-4  
 2.734000000000000E10    2.946564454759937E-4  -2.899545506807044E-4  
 2.736000000000000E10   -4.130224406253547E-4   3.058434231206775E-4  
 2.738000000000000E10    2.308167331648292E-4   6.239821741473861E-4  
 2.740000000000000E10   -1.521195335953962E-4   9.132150953519158E-4  
 2.742000000000000E10    6.789471954107285E-4   8.223115873988718E-4  
 2.744000000000000E10    5.496844751178287E-4  -4.940029175486416E-4  
 2.746000000000000E10    1.245194810053363E-4  -9.557636876706965E-4  
 2.748000000000000E10   -8.486357110086829E-4  -9.343488045487902E-6  
 2.750000000000000E10    2.657794593687868E-4   5.404548428487033E-4  
 2.752000000000000E10    8.930773910833523E-4  -4.755407098855358E-5  
 2.754000000000000E10    7.159665910876356E-4  -2.068315370706841E-4  
 2.756000000000000E10    2.588848019513534E-4   4.391721722640796E-5  
