#  HZ   S   RI   R     50.00 
! Rohde & Schwarz ZVA40 4Ports - Version 3.90 - 1145.1110k42 SN: 100403
! Date: 2023-10-04 06:58:32
! Measurement: S12 
! 
 2.200000000000000E10    1.214361567690503E-3   1.425108261173591E-3  
 2.202000000000000E10    1.721426055155462E-3  -9.770780725375516E-4  
 2.204000000000000E10   -5.555701955017867E-5  -9.767066094354959E-4  
 2.206000000000000E10   -1.315310244535795E-3   3.871821718348656E-4  
 2.208000000000000E10    4.291456889404799E-4   1.800823210942326E-3  
 2.210000000000000E10    9.599538425391074E-4   1.141987400842481E-3  
 2.212000000000000E10    1.390741319482913E-3  -5.584531090789824E-4  
 2.214000000000000E10   -2.161126246846834E-5  -1.191568338981597E-3  
 2.216000000000000E10   -1.331756706349552E-3  -9.862272909231251E-4  
 2.218000000000000E10   -9.978135167330038E-4   8.008068798517343E-4  
 2.220000000000000E10    5.240902119112434E-4   1.728087638184661E-3  
 2.222000000000000E10    2.219301539298613E-3  -1.475595166766652E-5  
 2.224000000000000E10    1.050203012709972E-3  -2.527096978155896E-3  
 2.226000000000000E10   -1.581583986990154E-3  -1.257154948689276E-3  
 2.228000000000000E10   -1.791730563127203E-3   1.588777126016794E-3  
 2.230000000000000E10    6.115829037298681E-4   1.339259746600874E-3  
 2.232000000000000E10    1.537370997539256E-3  -5.019161962991348E-4  
 2.234000000000000E10   -4.369805246824399E-4  -2.013518860621844E-3  
 2.236000000000000E10   -1.169337410829030E-3  -9.499665993644157E-4  
 2.238000000000000E10   -1.329760176304262E-3   6.429406384995673E-4  
 2.240000000000000E10    2.882941998905153E-6  -3.657119787021657E-4  
 2.242000000000000E10    3.713930509547936E-4   1.871247518465680E-4  
 2.244000000000000E10    7.534940359619213E-4  -1.651271504670149E-4  
 2.246000000000000E10    1.235863194324338E-4  -1.064500960637815E-3  
 2.248000000000000E10   -7.704619365540566E-4   2.747956577309196E-5  
 2.250000000000000E10   -7.550936661573360E-4   8.373500495508779E-4  
 2.252000000000000E10   -1.237500086972432E-4   6.740328226442216E-4  
 2.254000000000000E10   -5.626189249596791E-4  -6.066943933547009E-4  
 2.256000000000000E10   -1.043883390593692E-3   4.250971903729806E-5  
 2.258000000000000E10    4.194428228174729E-4   2.796451271933620E-4  
 2.260000000000000E10    7.123565865185810E-4  -4.969903848177637E-4  
 2.262000000000000E10   -2.241642810076883E-4  -1.056847548170481E-3  
 2.264000000000000E10   -7.899540560174501E-4   8.173318219633075E-4  
 2.266000000000000E10    2.779994191257629E-4   1.487379660829902E-3  
 2.268000000000000E10    1.096499621780822E-3   6.130167321316549E-4  
 2.270000000000000E10    5.476699479913805E-4  -5.557918739214074E-4  
 2.272000000000000E10   -4.669380386985722E-4  -3.336571098770946E-4  
 2.274000000000000E10   -1.502118204371072E-3  -2.019581705781093E-4  
 2.276000000000000E10   -5.286853811412584E-4   1.110363446059637E-3  
 2.278000000000000E10    2.443985463287390E-4   1.232585967954947E-3  
 2.280000000000000E10    1.734651388687780E-3  -5.498960445038392E-4  
 2.282000000000000E10    1.991555953281932E-3  -6.116437598393532E-4  
 2.284000000000000E10   -1.156956685008481E-3  -1.473406860895921E-3  
 2.286000000000000E10   -7.443439590133494E-4   1.298528939514654E-3  
 2.288000000000000E10    7.050784442981239E-4   2.129302207322326E-3  
 2.290000000000000E10    1.471860705350991E-3   2.636759237475417E-4  
 2.292000000000000E10    4.162842369623832E-4  -2.548021116126620E-4  
 2.294000000000000E10   -5.928766495344462E-5  -5.138347605679883E-4  
 2.296000000000000E10   -1.089566172595369E-3  -2.192523675148550E-4  
 2.298000000000000E10   -5.014717007725267E-4   5.957180546829477E-4  
 2.300000000000000E10    1.614711407427194E-5   1.140820513683138E-3  
 2.302000000000000E10    1.207884175528307E-3  -7.341708515014034E-4  
 2.304000000000000E10    5.035856311224052E-4  -9.364710513182217E-4  
 2.306000000000000E10   -4.121239553569467E-4  -1.307421938690823E-3  
 2.308000000000000E10   -4.502614137891214E-4  -2.030439059126366E-4  
 2.310000000000000E10    5.901478361920454E-4   7.625562338944292E-4  
 2.312000000000000E10    8.169435968738981E-4   5.757162562076701E-4  
 2.314000000000000E10    1.018535434923251E-3   4.362785539342440E-4  
 2.316000000000000E10    6.800226346967975E-4  -2.854655940609518E-4  
 2.318000000000000E10   -5.788032212876715E-4  -4.543346685750294E-4  
 2.320000000000000E10   -1.173529417428654E-3  -1.509406281456904E-4  
 2.322000000000000E10   -9.341002587461844E-4   1.513067953055725E-3  
 2.324000000000000E10    2.751371878275677E-4   5.078846825199435E-4  
 2.326000000000000E10    1.323013399087358E-3  -1.166644949989859E-3  
 2.328000000000000E10    1.446639014375251E-4  -1.749530227243668E-3  
 2.330000000000000E10   -8.800981941021746E-4  -9.143366987700574E-4  
 2.332000000000000E10   -2.233996074210154E-4   1.753621395437222E-4  
 2.334000000000000E10    4.927961899738875E-4   9.440493668080308E-4  
 2.336000000000000E10    1.199939360958524E-3   4.789487902598921E-4  
 2.338000000000000E10    1.303893423028057E-3   1.780176648935594E-5  
 2.340000000000000E10   -6.837050605099648E-4  -8.452284309896641E-4  
 2.342000000000000E10   -1.559576834551990E-3   3.535071937221801E-4  
 2.344000000000000E10   -8.206400652852608E-4   1.378733202727744E-3  
 2.346000000000000E10    3.027459924851428E-4   4.563284492178354E-4  
 2.348000000000000E10    1.886059189928346E-4  -7.316207429539645E-4  
 2.350000000000000E10    1.531228979274601E-4  -1.196424385852879E-3  
 2.352000000000000E10    9.483184203418205E-5  -5.713269092666451E-4  
 2.354000000000000E10   -1.623636289878050E-4  -3.234795285607106E-4  
 2.356000000000000E10   -1.096113817311561E-4   4.860010994889308E-4  
 2.358000000000000E10    4.250424053680035E-4   1.276473638426978E-3  
 2.360000000000000E10    1.335224085778464E-3   9.249030932778624E-5  
 2.362000000000000E10   -1.332917183844984E-4  -4.649355378205655E-4  
 2.364000000000000E10   -1.182586103823269E-3  -6.233257827261696E-4  
 2.366000000000000E10   -8.993962892418494E-4   8.454957442154409E-4  
 2.368000000000000E10   -6.172793164296309E-4   4.043274475407088E-5  
 2.370000000000000E10   -4.852954094758388E-5   5.166027567611309E-4  
 2.372000000000000E10    6.017634605086641E-4   2.242377545371710E-4  
 2.374000000000000E10    1.765552460710751E-4  -1.235360949067399E-3  
 2.376000000000000E10   -5.728676842409186E-4  -6.080280290916562E-4  
 2.378000000000000E10   -1.574458754475927E-3   1.243536138645141E-3  
 2.380000000000000E10   -2.940650401797029E-4   1.843575042585144E-3  
 2.382000000000000E10    9.930484593496658E-4   6.565258536284091E-4  
 2.384000000000000E10    9.070690848602681E-4  -5.846478634339292E-4  
 2.386000000000000E10   -1.081152640836081E-3  -7.313581354537746E-4  
 2.388000000000000E10   -1.061049671989167E-3   3.275466651757597E-4  
 2.390000000000000E10   -4.375013186290744E-4   1.201054223201936E-3  
 2.392000000000000E10    3.725930482687545E-4   1.385162067890633E-3  
 2.394000000000000E10    1.340340062597534E-3   8.896873841877095E-4  
 2.396000000000000E10    5.940042437941884E-4  -7.532721483585192E-4  
 2.398000000000000E10   -1.118882326409221E-3  -1.230621248396346E-3  
 2.400000000000000E10   -1.291414668230573E-3   1.048055297360406E-3  
 2.402000000000000E10    5.105649252072908E-4   1.566420301969629E-3  
 2.404000000000000E10    1.587058766745031E-3   2.781213149773976E-4  
 2.406000000000000E10    1.075825843145140E-3  -9.062407007149886E-4  
 2.408000000000000E10    5.320380378179834E-4  -7.622260181960883E-4  
 2.410000000000000E10   -4.003506387562084E-5  -4.357425459602382E-4  
 2.412000000000000E10   -2.649402756560448E-4   5.975099629722536E-4  
 2.414000000000000E10    1.797895261006488E-4   1.042972246068530E-3  
 2.416000000000000E10    1.374437018967001E-3   5.853265338373603E-4  
 2.418000000000000E10    8.688871148478938E-4  -7.102197014319245E-4  
 2.420000000000000E10   -5.447486964840209E-4  -1.177293132059276E-3  
 2.422000000000000E10   -1.281082906643860E-3  -4.502438141571474E-4  
 2.424000000000000E10    2.565557815614739E-4   3.960540552725433E-4  
 2.426000000000000E10    9.484984711889410E-4   5.886823021228338E-5  
 2.428000000000000E10    5.288283955451334E-4  -2.446760354359867E-4  
 2.430000000000000E10    5.913491859246278E-4   5.611333870092494E-5  
 2.432000000000000E10    4.748553892568452E-4  -4.828037326660706E-4  
 2.434000000000000E10   -2.869228012514213E-5  -1.079969302736572E-3  
 2.436000000000000E10   -7.087648045853712E-4   4.022313587483950E-4  
 2.438000000000000E10    4.384655439935159E-4   8.458753909508232E-4  
 2.440000000000000E10    1.433933401131071E-3  -2.522605150261370E-4  
 2.442000000000000E10    6.414223771571415E-4  -1.162762033345643E-3  
 2.444000000000000E10   -4.788088472196250E-4  -1.043198533807299E-3  
 2.446000000000000E10   -2.704378758267012E-5  -1.258585521100031E-4  
 2.448000000000000E10   -6.111713383205597E-5   5.561044326896081E-4  
 2.450000000000000E10    1.597874704657443E-4   3.706260577018838E-4  
 2.452000000000000E10    7.534406104241498E-4   5.560729805438314E-4  
 2.454000000000000E10    6.564973409695085E-4  -6.569414290424902E-4  
 2.456000000000000E10   -8.772777291596867E-4  -1.339668808213901E-3  
 2.458000000000000E10   -2.093029463139828E-3  -2.029257266258355E-4  
 2.460000000000000E10   -7.610990451212274E-4   1.699745385849383E-3  
 2.462000000000000E10    1.018592793116113E-3   7.203536588349380E-4  
 2.464000000000000E10    1.140029300586321E-3  -9.045492115546949E-4  
 2.466000000000000E10   -7.647492038813653E-4  -1.013965225865832E-3  
 2.468000000000000E10   -1.116178355005104E-3  -3.233163488403079E-4  
 2.470000000000000E10   -8.551560404157499E-4   9.666863570600981E-4  
 2.472000000000000E10   -4.344841545389500E-4   1.032357726217015E-3  
 2.474000000000000E10    7.361265470535727E-4   5.402861988841323E-4  
 2.476000000000000E10    4.827873381145764E-4  -8.866115840646671E-4  
 2.478000000000000E10   -8.085959489108063E-4  -1.167800397524843E-3  
 2.480000000000000E10   -1.533492635644507E-3   8.056558053795015E-4  
 2.482000000000000E10   -6.395617056114133E-4   1.447513634047937E-3  
 2.484000000000000E10    1.057161945936969E-3   1.044898199324962E-3  
 2.486000000000000E10    4.800344668183243E-4  -1.374738857293778E-4  
 2.488000000000000E10   -2.051835222118825E-4  -4.198070319034741E-4  
 2.490000000000000E10   -7.641856391273905E-4  -1.387129981544888E-5  
 2.492000000000000E10   -9.617988289392088E-4   6.446195693570189E-4  
 2.494000000000000E10    4.454463032743661E-4   1.020150713884505E-3  
 2.496000000000000E10    6.850734589534113E-4   2.320038422567450E-4  
 2.498000000000000E10    5.931513824180001E-4  -2.967780969242995E-5  
 2.500000000000000E10    4.099330972451298E-5  -4.350532608441426E-4  
 2.502000000000000E10   -2.757840402409784E-4   2.880826391447044E-4  
 2.504000000000000E10   -2.976530367959640E-4   8.092610896710539E-4  
 2.506000000000000E10    1.658850592320960E-4   6.760008127457695E-4  
 2.508000000000000E10    4.777353906320059E-4   7.921911419543903E-4  
 2.510000000000000E10   -2.207693087257212E-4  -8.182441501958238E-5  
 2.512000000000000E10    3.146440367345349E-4  -4.148612260905793E-4  
 2.514000000000000E10    2.083033666622214E-5   2.409648288903554E-6  
 2.516000000000000E10   -2.394472203377518E-4  -3.318107728773612E-4  
 2.518000000000000E10   -4.100896728687076E-5   4.858629054069752E-4  
 2.520000000000000E10    6.305295228230534E-4   1.077361837815261E-3  
 2.522000000000000E10    1.015217829262838E-3  -3.509305324769230E-4  
 2.524000000000000E10    1.095155996154062E-3  -1.187406884127995E-3  
 2.526000000000000E10   -1.067567187419627E-3  -7.464481604984030E-4  
 2.528000000000000E10   -4.453938900041976E-4   9.436825007469452E-5  
 2.530000000000000E10    4.568680478769238E-4   8.603363603469916E-4  
 2.532000000000000E10    1.013068864267552E-3   5.187924880374339E-4  
 2.534000000000000E10    1.559779873787193E-3  -1.096564545150613E-3  
 2.536000000000000E10    1.823782013161690E-4  -1.634034062590217E-3  
 2.538000000000000E10   -1.303093231399544E-3  -3.146033895973233E-4  
 2.540000000000000E10   -7.286216550710378E-4   6.135694202384912E-4  
 2.542000000000000E10    1.228012286446756E-3   9.874324223346775E-4  
 2.544000000000000E10    1.172049851447810E-3  -8.109154059638968E-4  
 2.546000000000000E10    3.855835711874533E-4  -2.163201264920645E-3  
 2.548000000000000E10   -9.959633753169328E-4  -6.239206304599065E-4  
 2.550000000000000E10   -7.195275156846037E-4   6.445831095334142E-4  
 2.552000000000000E10    1.122578640206484E-3   6.795199496991700E-4  
 2.554000000000000E10    1.456618585507385E-3  -9.305272806159337E-5  
 2.556000000000000E10    4.317835764595657E-4  -9.210977968905354E-4  
 2.558000000000000E10   -7.569740791950608E-4  -1.079420915630180E-3  
 2.560000000000000E10   -8.777847779128933E-4   8.468861815345008E-4  
 2.562000000000000E10   -6.880404725961853E-4   8.609740634710761E-4  
 2.564000000000000E10    6.881175686430652E-4   2.511441189199104E-4  
 2.566000000000000E10   -3.531568336256896E-4  -6.768718958483078E-4  
 2.568000000000000E10   -7.114547788660275E-4  -9.976347500924021E-4  
 2.570000000000000E10   -5.431739209598163E-4   5.931477160459053E-5  
 2.572000000000000E10    4.140156943321927E-4   1.430920970051375E-4  
 2.574000000000000E10    4.779088403665810E-4   4.818296400799227E-5  
 2.576000000000000E10    3.868252385075266E-6   2.236099403489789E-4  
 2.578000000000000E10   -1.904514238049160E-4   1.361856684525264E-3  
 2.580000000000000E10    1.052887000696501E-4   8.766916143940762E-4  
 2.582000000000000E10    3.836494151983061E-4   5.318247622199124E-5  
 2.584000000000000E10   -8.556440061511239E-4  -2.920981510214915E-4  
 2.586000000000000E10   -1.171100448118523E-3   2.581469088909216E-4  
 2.588000000000000E10   -4.639707303795149E-4   1.288821713387733E-3  
 2.590000000000000E10    1.119943797675660E-3   1.076821725291666E-3  
 2.592000000000000E10    1.147282455349341E-3  -6.330635858375899E-5  
 2.594000000000000E10    3.635438852143125E-4  -1.318711641943082E-3  
 2.596000000000000E10   -1.190103823319078E-3   4.721255845652195E-4  
 2.598000000000000E10   -8.588588261773111E-4   1.543407568533439E-3  
 2.600000000000000E10    8.612695346528199E-4   1.924402968143113E-3  
 2.602000000000000E10    1.544913957332028E-3  -8.807620616835266E-6  
 2.604000000000000E10    1.814582060433168E-4  -9.685621880635154E-4  
 2.606000000000000E10   -1.429433643352240E-3  -7.583503993373597E-4  
 2.608000000000000E10   -1.224907024152344E-3   9.699325419205707E-4  
 2.610000000000000E10    6.353998815029627E-4   1.768404232279863E-3  
 2.612000000000000E10    1.712431872874731E-3   1.426825613179972E-4  
 2.614000000000000E10    6.813447344029555E-4  -1.344987376796780E-3  
 2.616000000000000E10   -1.402889687597053E-3  -9.729217726999195E-4  
 2.618000000000000E10   -1.974860868358519E-3   4.789996146428166E-4  
 2.620000000000000E10    1.605695470061619E-4   8.109822374535725E-4  
 2.622000000000000E10    7.582576035929378E-4   3.742953058463172E-4  
 2.624000000000000E10    3.112530703219818E-4  -1.225810308824293E-3  
 2.626000000000000E10   -2.219802026957041E-4  -2.272005986014847E-4  
 2.628000000000000E10   -1.066752618498867E-3   1.244248591660835E-4  
 2.630000000000000E10   -2.588771940281731E-4   7.462090270564659E-4  
 2.632000000000000E10    3.198590993633843E-4   7.835547785361996E-4  
 2.634000000000000E10   -8.507229892984469E-5   1.537803696010087E-4  
 2.636000000000000E10   -5.304832593537867E-4  -2.075515490105317E-4  
 2.638000000000000E10   -7.107199362508254E-4   6.570869991264772E-4  
 2.640000000000000E10   -2.914283545578655E-4   3.873848675084446E-5  
 2.642000000000000E10    1.501594401815964E-4  -8.210813812183915E-4  
 2.644000000000000E10   -7.420157817250583E-4  -4.316989343351452E-4  
 2.646000000000000E10   -1.160173210337234E-4   2.488094387445017E-4  
 2.648000000000000E10    6.501682182715740E-4   5.991439920762787E-4  
 2.650000000000000E10    1.833964357501827E-3  -2.368900704823318E-4  
 2.652000000000000E10    3.561162429832621E-4  -4.739987471111817E-4  
 2.654000000000000E10   -5.543517736441572E-4  -5.671830149367452E-4  
 2.656000000000000E10   -6.479893709183671E-4   1.460022598621436E-3  
 2.658000000000000E10    7.525533828811604E-5   1.441949061700143E-3  
 2.660000000000000E10    1.583330827997997E-3  -1.028758342727087E-4  
 2.662000000000000E10    3.977450578531716E-4  -1.624597862246446E-3  
 2.664000000000000E10   -9.140816073340830E-4  -1.353815874608699E-3  
 2.666000000000000E10   -1.522488790214993E-3   3.095456740993541E-4  
 2.668000000000000E10    7.740241962892469E-4   9.725614072522149E-4  
 2.670000000000000E10    1.659389279666357E-3   2.817778222379275E-4  
 2.672000000000000E10    1.829964974604081E-3  -1.929704871145077E-3  
 2.674000000000000E10   -7.068015220283996E-4  -6.883506757731084E-4  
 2.676000000000000E10   -1.032848515023943E-3   1.040462484525051E-5  
 2.678000000000000E10    1.561437520649633E-4   1.719216190394945E-3  
 2.680000000000000E10    1.052742634783499E-3   1.662951935941237E-4  
 2.682000000000000E10    6.204932396940421E-4  -8.031165889406111E-4  
 2.684000000000000E10   -6.798087488277815E-4  -1.046459583449177E-3  
 2.686000000000000E10   -5.870015229447745E-4  -3.198023659933824E-4  
 2.688000000000000E10   -1.030010243994184E-3   8.285090234494419E-5  
 2.690000000000000E10    8.541107054043096E-4  -2.236257250842755E-4  
 2.692000000000000E10    9.909287982736714E-4   2.653742030815920E-4  
 2.694000000000000E10    3.378210692517314E-5  -1.206192653626204E-3  
 2.696000000000000E10   -1.497861967436620E-5   2.041120001194940E-5  
 2.698000000000000E10   -1.974897286345367E-4   7.015723822405562E-4  
 2.700000000000000E10   -3.774491215153830E-4   1.177982317130955E-4  
 2.702000000000000E10   -4.854018952755723E-4  -4.198211024686316E-5  
 2.704000000000000E10   -5.942593488725834E-4   9.615677809051704E-4  
 2.706000000000000E10   -3.477698046481237E-4   5.017518924432807E-4  
 2.708000000000000E10    3.439244446781231E-4  -3.056917848880403E-4  
 2.710000000000000E10   -5.972137369099073E-4  -1.139236206654459E-3  
 2.712000000000000E10   -4.891636854154058E-4   1.712750336082536E-4  
 2.714000000000000E10   -3.752904449356720E-4   1.238342119904701E-3  
 2.716000000000000E10    5.921751617279369E-4   8.026705181691796E-4  
 2.718000000000000E10    8.680263781570830E-4  -8.657013177071349E-5  
 2.720000000000000E10   -1.636060824239394E-4  -5.247834342299029E-4  
 2.722000000000000E10   -1.471307507017627E-3   6.182924807944801E-4  
 2.724000000000000E10   -8.426617641816847E-4   8.818043315841351E-4  
 2.726000000000000E10   -2.960368610729347E-4   1.023946089844685E-3  
 2.728000000000000E10    1.628116187930573E-4   2.740114359767176E-4  
 2.730000000000000E10    3.707990690600127E-4  -8.785133541096002E-4  
 2.732000000000000E10   -5.901248769077938E-4  -1.313532578933518E-3  
 2.734000000000000E10   -1.120800050557591E-3   3.757391932595056E-4  
 2.736000000000000E10   -7.456097932845296E-5   1.520764424640220E-3  
 2.738000000000000E10    1.239437850017566E-3   5.978588342259172E-4  
 2.740000000000000E10    4.661050643335329E-4  -2.483076277712826E-4  
 2.742000000000000E10   -2.645560371092870E-4  -1.847825851655216E-4  
 2.744000000000000E10   -8.047159826674033E-4   1.260196753719356E-3  
 2.746000000000000E10    7.398778325296007E-5   2.826959989761235E-4  
 2.748000000000000E10   -4.317783295846311E-4   5.048408493166789E-4  
 2.750000000000000E10    2.377711089138757E-4   2.394742614342249E-5  
 2.752000000000000E10    6.213034321262967E-4   4.886371561951819E-5  
 2.754000000000000E10   -1.332770852968679E-4  -4.897529797744937E-4  
 2.756000000000000E10   -4.877618830505526E-4  -1.272106483156676E-4  
