#  HZ   S   RI   R     50.00 
! Rohde & Schwarz ZVA40 4Ports - Version 3.90 - 1145.1110k42 SN: 100403
! Date: 2023-10-04 06:57:59
! Measurement: S12 
! 
 2.200000000000000E10   -3.757377962756436E-4  -1.270562905119732E-3  
 2.202000000000000E10   -1.953384024091065E-3  -2.217451619799249E-4  
 2.204000000000000E10   -2.289358264533803E-3   1.419890933902934E-3  
 2.206000000000000E10    5.757840408477932E-4   2.194495551520959E-3  
 2.208000000000000E10    2.467125363182277E-3  -6.874677346786484E-4  
 2.210000000000000E10   -7.397082517854869E-4  -1.830928638810292E-3  
 2.212000000000000E10   -2.216398221207783E-3  -4.628421675079153E-5  
 2.214000000000000E10   -5.581302139034960E-5   2.372053859289736E-3  
 2.216000000000000E10    1.380702247843146E-3   8.741260608076118E-4  
 2.218000000000000E10    2.896596779464744E-4  -7.992625687620603E-4  
 2.220000000000000E10   -5.179867948754691E-4  -4.634473225451075E-5  
 2.222000000000000E10   -3.388935874681920E-5  -1.346699191344669E-4  
 2.224000000000000E10    1.436589257082233E-4  -4.582963119901251E-4  
 2.226000000000000E10    2.170050920540234E-4   4.176857946731616E-4  
 2.228000000000000E10    9.385541488882154E-5   1.697413736110320E-4  
 2.230000000000000E10    1.022062220727094E-3  -8.749751941650175E-4  
 2.232000000000000E10   -2.585769907454960E-4   1.448560146855016E-5  
 2.234000000000000E10   -2.626948753459146E-4   1.938853010869934E-4  
 2.236000000000000E10    9.431451398995705E-4  -7.995775522431359E-4  
 2.238000000000000E10   -1.125914059230126E-5  -7.497761980630457E-4  
 2.240000000000000E10   -1.558357515023090E-3  -1.415661172359251E-4  
 2.242000000000000E10    5.389050129451789E-4   1.194976342958398E-3  
 2.244000000000000E10    1.585874735610560E-3   5.141461519997392E-5  
 2.246000000000000E10    1.678123080637306E-4  -1.845611273893155E-3  
 2.248000000000000E10   -1.197686549858190E-3  -8.249502061516978E-4  
 2.250000000000000E10   -1.673907871008851E-3   9.875813702819869E-4  
 2.252000000000000E10    1.397422847730923E-4   4.486233374336734E-4  
 2.254000000000000E10    1.045678378432058E-3   2.337840342079289E-4  
 2.256000000000000E10    6.190653948578984E-4  -1.110180266550742E-3  
 2.258000000000000E10   -6.078993828850798E-4  -1.587273407494649E-3  
 2.260000000000000E10   -1.282676937989891E-3  -1.218761826748960E-4  
 2.262000000000000E10   -7.812391049810685E-4   1.550784436403774E-3  
 2.264000000000000E10    1.348645251709968E-3   1.583059012773447E-3  
 2.266000000000000E10    1.492880575824529E-3  -3.749393908947241E-4  
 2.268000000000000E10   -6.327975188469281E-5  -2.199376205680892E-3  
 2.270000000000000E10   -1.959374465513974E-3  -2.619229544507107E-4  
 2.272000000000000E10   -1.078630157280713E-3   1.255332521395758E-3  
 2.274000000000000E10    6.914815894560888E-4   6.379233382176608E-4  
 2.276000000000000E10    1.028645463520661E-3  -2.167691382055637E-4  
 2.278000000000000E10    6.306179943749157E-5  -8.079550898401067E-4  
 2.280000000000000E10    6.368298818415497E-5  -1.996026549022645E-4  
 2.282000000000000E10   -5.636881032842211E-4  -4.798291556653567E-4  
 2.284000000000000E10   -4.860792905674316E-4   2.217970977653749E-4  
 2.286000000000000E10    6.717786664012238E-5   1.293756577069871E-3  
 2.288000000000000E10    2.509462010493735E-4   7.146314510464435E-5  
 2.290000000000000E10   -1.534418588562403E-4  -1.306036967434920E-3  
 2.292000000000000E10   -6.523010451928712E-4  -3.156454222335015E-4  
 2.294000000000000E10   -3.265416562499013E-4  -1.954002274473510E-5  
 2.296000000000000E10   -2.125412429450080E-4   1.399383813804889E-4  
 2.298000000000000E10   -2.842084868461825E-4   5.332001410351950E-5  
 2.300000000000000E10    4.933641321258619E-4   9.548547968734056E-4  
 2.302000000000000E10    9.279506048187614E-4  -9.288140499847941E-4  
 2.304000000000000E10   -3.027430975635070E-4  -1.358556633931585E-3  
 2.306000000000000E10   -2.163582772482187E-3   2.168918745155679E-4  
 2.308000000000000E10    9.922711069521029E-5   1.537388059659861E-3  
 2.310000000000000E10    8.402383682550862E-4   1.047103047312703E-3  
 2.312000000000000E10    8.116718599922024E-4  -9.325310966232792E-4  
 2.314000000000000E10   -1.323709911957849E-4  -7.955626060720533E-4  
 2.316000000000000E10   -1.047961050062440E-3  -1.650666999921668E-4  
 2.318000000000000E10   -7.126910932129249E-4   6.091792674851604E-4  
 2.320000000000000E10   -1.227232532983180E-4   1.130506541812792E-3  
 2.322000000000000E10    1.130647418904118E-3   5.239020101726055E-4  
 2.324000000000000E10    7.697587061556988E-4  -8.845638876664452E-4  
 2.326000000000000E10   -6.035512124071829E-4  -1.086423260858282E-3  
 2.328000000000000E10   -1.748953232890926E-3   5.685425785486586E-4  
 2.330000000000000E10    2.275484675919870E-4   6.019134743837640E-4  
 2.332000000000000E10    1.220654667122290E-3   5.714429935324006E-4  
 2.334000000000000E10    6.201565556693822E-4  -4.056814614159521E-4  
 2.336000000000000E10    5.358233429433312E-4   1.333150394202676E-4  
 2.338000000000000E10    2.029500192293199E-4  -4.454550253285561E-4  
 2.340000000000000E10   -5.639020964736119E-4   4.686029860749841E-4  
 2.342000000000000E10   -8.401559753110632E-4   9.869405184872448E-4  
 2.344000000000000E10    1.062795148754958E-3   7.133177787181921E-4  
 2.346000000000000E10    1.010996129480191E-3  -9.146367074208683E-5  
 2.348000000000000E10    3.143236244795844E-4  -1.647983473958448E-3  
 2.350000000000000E10   -1.328327266492124E-4  -5.465306749101728E-4  
 2.352000000000000E10   -3.871222252200823E-4   4.375000426080078E-4  
 2.354000000000000E10    7.453869184246287E-4   2.915475342888385E-4  
 2.356000000000000E10    6.892337405588478E-4   2.472347568982514E-4  
 2.358000000000000E10    1.120765358791687E-3  -3.305557402200066E-4  
 2.360000000000000E10    3.221093174943235E-4  -1.610785213415511E-3  
 2.362000000000000E10   -8.862085887813009E-4  -1.633379375562072E-3  
 2.364000000000000E10   -1.272192646865733E-3   6.055991470930167E-4  
 2.366000000000000E10    4.135650160606019E-4   9.567897723172791E-4  
 2.368000000000000E10    1.392147532897070E-3  -6.470577136497013E-4  
 2.370000000000000E10    4.201002884656191E-4  -2.110168512444943E-3  
 2.372000000000000E10   -1.244952931301668E-3  -1.480181643273681E-3  
 2.374000000000000E10   -1.365309813991189E-3   5.578084746957757E-4  
 2.376000000000000E10   -2.598363680590410E-4   2.183586802857462E-4  
 2.378000000000000E10    2.901742846006528E-4   4.207857964502182E-4  
 2.380000000000000E10    7.224327200674452E-4  -5.104634365125094E-4  
 2.382000000000000E10   -3.800930717261508E-4  -1.679298817180097E-3  
 2.384000000000000E10   -2.244295290438458E-3  -1.348171077552252E-3  
 2.386000000000000E10   -1.816323958337307E-3   9.408134355908260E-4  
 2.388000000000000E10   -1.312661206611665E-4   1.140021166065708E-3  
 2.390000000000000E10    8.566570977563970E-4  -3.294439229648560E-4  
 2.392000000000000E10   -9.298221921199001E-4  -7.808126829331741E-4  
 2.394000000000000E10   -1.134299818659201E-3  -1.925251808643225E-5  
 2.396000000000000E10   -8.192547029466368E-4   5.273947681416757E-4  
 2.398000000000000E10   -7.845557920518331E-4   3.491178104013670E-4  
 2.400000000000000E10   -1.017519257402455E-4   9.440132635063492E-4  
 2.402000000000000E10    4.579801134241279E-4   7.517883714172058E-4  
 2.404000000000000E10    1.240016252268106E-3   1.501123024354456E-4  
 2.406000000000000E10   -3.056086879951181E-4   1.319929197052261E-4  
 2.408000000000000E10   -7.187426017480902E-4   9.282205501222052E-4  
 2.410000000000000E10    4.714333699666895E-4   1.161549953394570E-3  
 2.412000000000000E10    2.054048554782639E-4   4.170956926827785E-4  
 2.414000000000000E10   -2.269258784508565E-4   3.166719652654138E-4  
 2.416000000000000E10    7.564584884676151E-4  -6.641840286647494E-5  
 2.418000000000000E10    5.046677943028044E-4  -5.177649945835583E-4  
 2.420000000000000E10   -9.253720636479557E-4  -8.719891629880294E-4  
 2.422000000000000E10   -1.012964276014827E-4   9.218618652084842E-4  
 2.424000000000000E10    1.423113339114934E-3   1.538011085358448E-3  
 2.426000000000000E10    1.764812303008512E-3  -4.755806985485833E-4  
 2.428000000000000E10    6.022849847795442E-4  -1.083312847185880E-3  
 2.430000000000000E10   -1.155941950855777E-3   1.562186189403292E-4  
 2.432000000000000E10   -2.386237028986216E-4   1.034542285196949E-3  
 2.434000000000000E10    4.680849087890238E-4   1.167419453850016E-3  
 2.436000000000000E10    1.004575737169944E-3   2.030808871040790E-4  
 2.438000000000000E10    8.311625497299247E-4  -6.604755908483639E-4  
 2.440000000000000E10    3.095678694080561E-4  -1.877535629319027E-3  
 2.442000000000000E10   -1.037312482367270E-3  -7.846582666388713E-4  
 2.444000000000000E10   -5.396237975219265E-4   1.378466578898951E-3  
 2.446000000000000E10    1.638630710658617E-3   1.603997356141917E-3  
 2.448000000000000E10    1.799167468561791E-3  -3.841998914140277E-4  
 2.450000000000000E10    1.328935011315480E-4  -1.549030552268960E-3  
 2.452000000000000E10   -1.166920672403649E-3  -4.800784654435120E-5  
 2.454000000000000E10   -1.095300438464619E-3   2.379053858021507E-4  
 2.456000000000000E10    3.551829877324053E-5   1.897739834930690E-4  
 2.458000000000000E10    5.021716642659158E-4  -1.671805116529868E-4  
 2.460000000000000E10    1.012601118418388E-3  -6.531046819873154E-4  
 2.462000000000000E10    4.098299032193609E-4  -1.406715615303256E-3  
 2.464000000000000E10   -5.986150499666110E-4  -7.387786754406989E-4  
 2.466000000000000E10   -4.506580517045222E-4   4.664462903747335E-4  
 2.468000000000000E10    5.565545143326744E-4   1.152772936620750E-3  
 2.470000000000000E10    8.659919549245387E-4  -2.514550833438989E-4  
 2.472000000000000E10   -9.178879827231867E-5  -1.029109393130057E-3  
 2.474000000000000E10   -1.046293204126414E-3  -4.455033304111566E-4  
 2.476000000000000E10   -1.092670165235177E-3  -1.563964769957238E-5  
 2.478000000000000E10   -9.107235164265148E-4  -6.531505277962424E-4  
 2.480000000000000E10   -1.502788636571495E-4  -2.076389473586460E-4  
 2.482000000000000E10   -1.752755824782071E-4  -7.874574657762423E-5  
 2.484000000000000E10    4.644564942282159E-4  -5.568015185417607E-4  
 2.486000000000000E10   -2.153682980861049E-4  -8.509426697855815E-4  
 2.488000000000000E10   -9.519131417619065E-4  -3.168395996908657E-4  
 2.490000000000000E10   -5.568831475102343E-4   6.767739396309480E-4  
 2.492000000000000E10   -1.568267343827756E-4   6.338129096548073E-4  
 2.494000000000000E10    3.484581648081075E-4   1.544635179016041E-4  
 2.496000000000000E10   -6.134631121312850E-5  -2.821301241056062E-4  
 2.498000000000000E10    4.050210418427014E-5  -7.301890873350203E-4  
 2.500000000000000E10   -1.306525053223595E-3  -5.104839583509602E-4  
 2.502000000000000E10   -8.266907898359932E-4   5.067507299827412E-4  
 2.504000000000000E10    4.957226701662876E-4   1.104104274418205E-3  
 2.506000000000000E10    1.060659706126899E-3  -3.866394763463177E-4  
 2.508000000000000E10    1.569030355312862E-4  -8.926189620979130E-4  
 2.510000000000000E10   -1.063589006662369E-3  -6.490302039310336E-4  
 2.512000000000000E10   -1.027239719405770E-3   9.609547269064933E-4  
 2.514000000000000E10   -3.816102034761570E-4   1.357483677566052E-3  
 2.516000000000000E10    8.522213465766981E-4   5.542297731153667E-4  
 2.518000000000000E10    5.843044928042218E-4  -2.126662657246925E-4  
 2.520000000000000E10   -1.827631876949454E-5  -9.035757102537900E-4  
 2.522000000000000E10   -1.257791707757860E-3   1.464119090854865E-5  
 2.524000000000000E10   -1.239795838046121E-4   1.080749905668199E-3  
 2.526000000000000E10    6.628829723922536E-4   1.401362736942247E-3  
 2.528000000000000E10    1.335394277703017E-3  -1.122028133977437E-4  
 2.530000000000000E10    9.171549318125472E-4  -4.254257801221684E-4  
 2.532000000000000E10   -4.721117074950598E-4  -3.067387551709544E-4  
 2.534000000000000E10   -2.123364174622111E-4   6.827097677160054E-4  
 2.536000000000000E10    4.320449297665618E-4   1.220004982315004E-3  
 2.538000000000000E10    1.377778302412480E-3   3.337860398460180E-4  
 2.540000000000000E10    7.177548395702615E-4  -5.269724497338757E-4  
 2.542000000000000E10    3.216875993530266E-4  -5.980454880045727E-4  
 2.544000000000000E10   -6.540407921420410E-4  -1.656092317716684E-4  
 2.546000000000000E10    2.468149650667328E-4   1.984557929972652E-4  
 2.548000000000000E10    8.916834340197966E-4   8.042658155318350E-4  
 2.550000000000000E10    8.088202012004331E-4  -3.356516681378707E-4  
 2.552000000000000E10    7.298170239664614E-4  -3.420491557335481E-4  
 2.554000000000000E10   -6.689082511002198E-6   3.542108679539524E-4  
 2.556000000000000E10    1.119999942602590E-4  -1.688413176452741E-4  
 2.558000000000000E10   -2.292112803843338E-4   2.178579575229378E-5  
 2.560000000000000E10    1.299796440434875E-5   2.929035472334363E-4  
 2.562000000000000E10   -2.334582713956479E-4   3.647578269010410E-4  
 2.564000000000000E10    5.752089055022225E-4  -4.517391425906681E-4  
 2.566000000000000E10    4.082431260030717E-4  -6.232208252185956E-4  
 2.568000000000000E10   -5.788150883745402E-4  -8.711998671060428E-4  
 2.570000000000000E10   -6.141337216831744E-4  -3.282292297512868E-5  
 2.572000000000000E10    3.807790053542703E-4   7.798179576639086E-4  
 2.574000000000000E10    3.426689436309971E-4   4.565444978652522E-4  
 2.576000000000000E10    8.664987253723666E-4  -4.831354526686482E-4  
 2.578000000000000E10   -3.075415952480398E-4  -7.884283404564485E-4  
 2.580000000000000E10   -1.747463713400066E-3  -3.481334279058501E-4  
 2.582000000000000E10   -9.056492854142562E-4   8.898234955267981E-4  
 2.584000000000000E10    1.948220378835686E-4   1.289573381654918E-3  
 2.586000000000000E10    1.122277491958812E-3  -9.382834687130526E-4  
 2.588000000000000E10   -5.012819633520849E-5  -1.102259499020875E-3  
 2.590000000000000E10   -1.359672780381516E-3  -6.528377562062815E-4  
 2.592000000000000E10   -1.213081442983821E-3   8.819367649266496E-4  
 2.594000000000000E10    2.418908188701607E-4   1.578593801241368E-3  
 2.596000000000000E10    8.732647693250328E-4   1.187850775750121E-4  
 2.598000000000000E10    2.444414312776644E-4  -1.003602505079471E-3  
 2.600000000000000E10   -9.509226365480572E-4  -6.798621179768816E-4  
 2.602000000000000E10   -1.224703271873295E-3   1.897194233606570E-4  
 2.604000000000000E10   -5.149851494934410E-4   1.296284142881632E-3  
 2.606000000000000E10    7.702431321376935E-4   4.082274535903707E-4  
 2.608000000000000E10    4.006739327451214E-4  -6.076028221286833E-4  
 2.610000000000000E10   -4.140960809309036E-4  -1.188596710562706E-3  
 2.612000000000000E10   -7.426261436194181E-4   6.121409678598866E-4  
 2.614000000000000E10   -3.036353373317979E-4   1.618498463358264E-4  
 2.616000000000000E10    6.170413253130391E-4  -7.394033036689507E-5  
 2.618000000000000E10    3.146671133436030E-6  -3.747970622498542E-4  
 2.620000000000000E10   -2.372143826505635E-4  -4.542471724562347E-4  
 2.622000000000000E10   -1.873842847999185E-4   1.540446901344694E-4  
 2.624000000000000E10    6.007143883834942E-5  -4.361128012533300E-4  
 2.626000000000000E10   -3.890655425493605E-4  -5.141586807440035E-4  
 2.628000000000000E10   -5.832446186104789E-4  -4.090534494025633E-4  
 2.630000000000000E10   -6.021192384650931E-4   1.157837104983628E-4  
 2.632000000000000E10    1.665710515226238E-4   3.931721676053712E-5  
 2.634000000000000E10    7.826239598216489E-4  -5.888923078600783E-5  
 2.636000000000000E10    7.446100607921835E-5  -1.568341685924679E-3  
 2.638000000000000E10   -1.129460928495973E-3  -4.294893078622408E-4  
 2.640000000000000E10   -1.651293365284801E-3   1.314133376581594E-3  
 2.642000000000000E10    1.127161405747756E-3   1.215064345160499E-3  
 2.644000000000000E10    1.025871461024508E-3   3.410867066122592E-4  
 2.646000000000000E10   -8.214902663894463E-5  -1.065838354406878E-3  
 2.648000000000000E10   -1.403942529577762E-3  -9.551808761898428E-5  
 2.650000000000000E10   -1.278212439501658E-3   9.947219805326313E-4  
 2.652000000000000E10   -9.031058471009601E-5   1.948863093275577E-3  
 2.654000000000000E10    1.167882641311735E-3   6.761651093256660E-5  
 2.656000000000000E10    1.113547390559688E-3  -1.481646497268230E-3  
 2.658000000000000E10   -7.973386818775907E-4  -9.722953836899251E-4  
 2.660000000000000E10   -8.491705084452406E-4   1.188089809147641E-3  
 2.662000000000000E10    4.451576824067161E-4   2.134010544978082E-3  
 2.664000000000000E10    1.519539306173101E-3   1.010937456157990E-3  
 2.666000000000000E10    8.434862538706511E-4  -2.573694728198461E-4  
 2.668000000000000E10   -4.023533838335425E-4  -2.185327903134748E-4  
 2.670000000000000E10   -8.956794481491670E-4   9.038452990353108E-4  
 2.672000000000000E10    9.858021940090112E-5   4.719985081464984E-4  
 2.674000000000000E10    7.513164018746465E-4   6.744678976247087E-4  
 2.676000000000000E10    6.401032587746158E-4  -7.523767417296767E-4  
 2.678000000000000E10    4.598393716150895E-4   5.024304073231178E-5  
 2.680000000000000E10    3.112279227934778E-4  -1.364836225548061E-5  
 2.682000000000000E10    2.315598612767644E-4   5.198382859816775E-4  
 2.684000000000000E10    5.005529892514460E-4   1.250410496140830E-4  
 2.686000000000000E10    5.478744860738516E-4   5.998691194690764E-4  
 2.688000000000000E10   -2.214935011579655E-4   7.849256653571501E-4  
 2.690000000000000E10    8.817444904707372E-4   1.935845320986118E-4  
 2.692000000000000E10    2.372479575569741E-4  -5.923584285483230E-5  
 2.694000000000000E10   -3.525822976371273E-4  -1.039045484503731E-3  
 2.696000000000000E10   -8.641857566544786E-4  -4.218703106744215E-4  
 2.698000000000000E10   -4.337512436904945E-4   5.479759347508661E-4  
 2.700000000000000E10    1.481253566453233E-3   9.733550541568548E-4  
 2.702000000000000E10    1.166018395451829E-3  -1.220619888044894E-3  
 2.704000000000000E10   -1.893276021291968E-4  -1.084604533389211E-3  
 2.706000000000000E10   -1.477437908761203E-3  -1.253250520676374E-4  
 2.708000000000000E10   -9.364996003569104E-5   9.457018459215760E-4  
 2.710000000000000E10    3.557475938578136E-4   1.231130852829665E-3  
 2.712000000000000E10    5.835347110405564E-4  -5.601800658041611E-4  
 2.714000000000000E10   -1.971644305740483E-4  -1.058383408235386E-3  
 2.716000000000000E10   -1.525186875369400E-3  -6.430122593883425E-4  
 2.718000000000000E10   -1.616090856259689E-3   5.472782795550302E-4  
 2.720000000000000E10   -4.845500370720401E-5   5.932541971560568E-4  
 2.722000000000000E10    5.086424498585984E-4  -2.369217036175542E-4  
 2.724000000000000E10    4.370319365989417E-4  -1.672787067946047E-3  
 2.726000000000000E10   -1.030428713420406E-3  -6.439127901103348E-4  
 2.728000000000000E10   -5.959510162938386E-4   2.637870638864115E-4  
 2.730000000000000E10    2.332303824914561E-5   9.188882686430588E-4  
 2.732000000000000E10    1.532628120912705E-4   1.243051410710905E-4  
 2.734000000000000E10   -2.948732617369387E-5  -3.933178304578178E-4  
 2.736000000000000E10   -7.952412852318957E-4   2.659571473486722E-4  
 2.738000000000000E10   -7.190843316493556E-4   1.542208774480969E-4  
 2.740000000000000E10   -2.982252372021321E-4   2.296914317412302E-4  
 2.742000000000000E10   -8.949790499173105E-4  -4.904041904296719E-5  
 2.744000000000000E10   -5.556650066864677E-4   3.188080227118917E-4  
 2.746000000000000E10    1.488986417825799E-4  -2.853454097930808E-4  
 2.748000000000000E10   -2.241063557448797E-4  -2.497385526112339E-5  
 2.750000000000000E10   -1.041777604768868E-4  -9.256956254830584E-4  
 2.752000000000000E10   -4.926914552925155E-4  -6.007748697811621E-5  
 2.754000000000000E10   -3.262702157371678E-4   2.205570053774864E-4  
 2.756000000000000E10   -8.947229252953548E-5   1.261380879441276E-3  
