#  HZ   S   RI   R     50.00 
! Rohde & Schwarz ZVA40 4Ports - Version 3.90 - 1145.1110k42 SN: 100403
! Date: 2023-10-04 06:57:34
! Measurement: S12 
! 
 2.200000000000000E10    6.223056007002015E-4  -1.353627848743599E-5  
 2.202000000000000E10    1.115230305003934E-3  -1.170098570582923E-3  
 2.204000000000000E10   -7.361479583778419E-4  -1.472829928388819E-3  
 2.206000000000000E10   -1.797201452973241E-4   4.575145685521420E-4  
 2.208000000000000E10    1.028176273393910E-3  -2.055405511782737E-4  
 2.210000000000000E10    3.992285601270851E-4  -1.017717506329063E-3  
 2.212000000000000E10   -8.293917562696151E-4  -4.878236813965486E-4  
 2.214000000000000E10   -1.816565310264195E-5   2.240717662971292E-5  
 2.216000000000000E10   -6.652460688201245E-4  -1.099540299946966E-4  
 2.218000000000000E10    1.191079232967240E-4  -5.462213193823118E-4  
 2.220000000000000E10    5.062701638962608E-4   9.840716957114637E-4  
 2.222000000000000E10    1.254151145985816E-3  -1.177917096356396E-3  
 2.224000000000000E10    6.277461625359138E-5  -1.543788821436465E-3  
 2.226000000000000E10   -2.326535235624760E-3   3.171258322254289E-4  
 2.228000000000000E10    4.150955774093745E-4   2.668304819962941E-3  
 2.230000000000000E10    2.298810461070389E-3   2.180130159104010E-4  
 2.232000000000000E10    4.613402961695101E-4  -2.485119664925151E-3  
 2.234000000000000E10   -2.595967220258899E-3  -5.527820267161587E-4  
 2.236000000000000E10   -9.769143871380948E-4   9.943210825440474E-4  
 2.238000000000000E10    7.945300021674484E-4   1.278659416129813E-3  
 2.240000000000000E10    2.900798663176829E-4  -5.381649862101767E-4  
 2.242000000000000E10    1.453954442695249E-3  -6.204798737599049E-4  
 2.244000000000000E10   -2.675231626199093E-4  -9.475141305301804E-4  
 2.246000000000000E10   -1.276592483918648E-3  -1.023586330120452E-3  
 2.248000000000000E10   -1.308630380663090E-3   1.365654759865720E-3  
 2.250000000000000E10    1.126467250287533E-3   1.422276647645049E-3  
 2.252000000000000E10    1.285868704144377E-3  -8.679925304022618E-4  
 2.254000000000000E10   -7.721714609942865E-4  -1.864363992353901E-3  
 2.256000000000000E10   -1.763863670930732E-3   5.656624452967662E-4  
 2.258000000000000E10    9.930633405019762E-5   5.484063731273636E-4  
 2.260000000000000E10    7.819589118298609E-4  -1.171319579498231E-4  
 2.262000000000000E10   -2.048140840997803E-4   5.038111669364298E-5  
 2.264000000000000E10    2.356105405851849E-4   5.861053032276686E-4  
 2.266000000000000E10    6.761104486940894E-4   3.554343293217244E-4  
 2.268000000000000E10   -1.878953316918341E-4  -6.296444807958324E-4  
 2.270000000000000E10   -9.028006061271299E-4   5.292417481541634E-4  
 2.272000000000000E10   -2.931695817096625E-4   1.049982260155957E-3  
 2.274000000000000E10   -9.868682127489592E-5   7.000116602284834E-4  
 2.276000000000000E10    4.141502740822034E-4   2.786610957628000E-4  
 2.278000000000000E10    3.110593879682710E-4   2.233180066468776E-4  
 2.280000000000000E10    3.209098040315439E-4  -9.943594268406741E-4  
 2.282000000000000E10   -4.046942008528731E-5  -3.053337513847509E-4  
 2.284000000000000E10   -8.070232725003734E-4   8.328858930326533E-4  
 2.286000000000000E10    1.819583798351232E-3   1.216517019202001E-3  
 2.288000000000000E10    2.227064847829752E-3  -5.693583170796046E-5  
 2.290000000000000E10    1.013726407563809E-4  -1.809375797165558E-3  
 2.292000000000000E10   -1.285949641896877E-3   2.925486351159634E-4  
 2.294000000000000E10   -6.987835658947006E-4   1.463773151044734E-3  
 2.296000000000000E10    1.022280077449977E-3   2.806774477903673E-5  
 2.298000000000000E10    1.080141395505052E-3  -6.771299777028617E-4  
 2.300000000000000E10    2.289744661538862E-4  -1.733066972519737E-3  
 2.302000000000000E10    9.993389630835736E-5  -1.650643651373684E-3  
 2.304000000000000E10   -6.694752191833686E-4  -5.198284761718242E-4  
 2.306000000000000E10   -4.744611978821922E-4   3.858670261251973E-4  
 2.308000000000000E10    1.651565347856376E-3   5.259464087430388E-4  
 2.310000000000000E10    1.852959270763677E-3  -1.313433916948270E-3  
 2.312000000000000E10   -2.634880029290798E-4  -1.278807743801735E-3  
 2.314000000000000E10   -1.511935741291381E-3   1.061328866853728E-4  
 2.316000000000000E10   -4.495200499832208E-5   1.018121609376976E-3  
 2.318000000000000E10   -5.569745444518048E-4   1.202163502966869E-4  
 2.320000000000000E10   -4.691861558967503E-4  -7.485674614144955E-4  
 2.322000000000000E10   -1.186485727657782E-4  -3.976802363467868E-4  
 2.324000000000000E10    4.102598654753820E-5  -1.707213210465852E-3  
 2.326000000000000E10   -8.607684285379946E-4  -1.739977378747426E-3  
 2.328000000000000E10   -8.627749048173428E-4   6.208719569258392E-4  
 2.330000000000000E10    7.196667575044558E-4   9.731238533277065E-4  
 2.332000000000000E10    1.404470989655238E-3   2.525909021642292E-4  
 2.334000000000000E10   -1.774462743924232E-4  -3.146674225718016E-4  
 2.336000000000000E10   -1.337773028353695E-3   2.492724133844604E-4  
 2.338000000000000E10   -9.689349280961324E-4   7.153073347581085E-4  
 2.340000000000000E10   -1.237608834344428E-3   1.298303119256161E-3  
 2.342000000000000E10   -5.850433844898362E-4   1.434385696484242E-3  
 2.344000000000000E10    8.074690740613733E-4   1.918609250424197E-4  
 2.346000000000000E10    7.700072710576933E-4  -1.505609499872662E-3  
 2.348000000000000E10   -1.737621299980674E-3  -7.469387564924546E-4  
 2.350000000000000E10   -9.201938482874539E-4   1.178013269964140E-3  
 2.352000000000000E10    1.091811762307771E-3   1.948338613146916E-3  
 2.354000000000000E10    1.800880520022474E-3   1.067728811676716E-4  
 2.356000000000000E10    8.914741629268974E-4  -4.408177846926265E-4  
 2.358000000000000E10   -2.445371901558247E-4  -2.059084249594889E-5  
 2.360000000000000E10   -5.014806374674663E-4   1.067533972673118E-3  
 2.362000000000000E10    3.290085296612233E-4   7.347400460275821E-4  
 2.364000000000000E10    9.694508044049144E-4   1.162175147328526E-3  
 2.366000000000000E10    1.191280040075071E-3  -3.141204215353355E-4  
 2.368000000000000E10    9.891353547573090E-4  -9.039093201863580E-4  
 2.370000000000000E10   -1.081488080671988E-4  -4.704217208200134E-4  
 2.372000000000000E10    9.246721219824394E-5   6.475948612205684E-4  
 2.374000000000000E10    8.725943262106739E-4   5.033155794080813E-4  
 2.376000000000000E10    1.942714443430305E-3  -3.342058844282292E-4  
 2.378000000000000E10    4.067911140737124E-4  -1.878671901067719E-4  
 2.380000000000000E10    4.851874364248943E-4  -8.282504713861272E-4  
 2.382000000000000E10    1.136126942583360E-3  -8.402904568356462E-4  
 2.384000000000000E10   -7.042037759674713E-4  -1.091706522856839E-3  
 2.386000000000000E10   -2.118297197739594E-4  -2.848390977305826E-6  
 2.388000000000000E10    6.191686916281469E-4   2.551529050833779E-4  
 2.390000000000000E10    1.447900925995782E-3  -1.086623349692673E-3  
 2.392000000000000E10   -6.483366232714616E-4  -1.972051191842184E-3  
 2.394000000000000E10   -1.258869699086063E-3  -8.558379122405313E-4  
 2.396000000000000E10   -7.144474002416246E-4   3.677779350255150E-4  
 2.398000000000000E10   -4.673930175158603E-5  -6.318536688922904E-4  
 2.400000000000000E10   -3.749382540263468E-5   2.911038573074620E-4  
 2.402000000000000E10   -1.881546368167619E-4  -1.278327283216640E-3  
 2.404000000000000E10   -8.176076953532174E-4  -1.589451378094964E-3  
 2.406000000000000E10   -2.266347641125321E-3  -1.135813290602528E-4  
 2.408000000000000E10   -7.135135383578017E-4   1.501757389632985E-3  
 2.410000000000000E10    1.087705255486071E-3   1.567369385156781E-3  
 2.412000000000000E10    8.539727859897539E-4  -1.011540916806553E-3  
 2.414000000000000E10   -1.030978623020928E-3  -9.692800304037519E-4  
 2.416000000000000E10   -2.224265102995560E-3   3.795930751948617E-4  
 2.418000000000000E10   -5.291668858262710E-4   1.432775403372943E-3  
 2.420000000000000E10   -2.582898650871357E-4   1.102746769902296E-3  
 2.422000000000000E10    7.635698639205657E-4   4.576011851895601E-4  
 2.424000000000000E10    5.765609967056662E-4  -2.150492782675428E-4  
 2.426000000000000E10   -5.516240635188296E-4  -7.617535666213371E-4  
 2.428000000000000E10   -1.460529732867144E-3   6.796364323236048E-4  
 2.430000000000000E10   -3.415096507524140E-4   2.142852696124464E-3  
 2.432000000000000E10    1.363449511700310E-3   1.219956699060276E-3  
 2.434000000000000E10    8.910756441764534E-4  -1.570153945067432E-4  
 2.436000000000000E10   -5.379535068641417E-4  -6.158280029922025E-5  
 2.438000000000000E10   -5.611297965515405E-4   3.953971900045872E-4  
 2.440000000000000E10   -1.042016897372378E-4   6.758339513908140E-4  
 2.442000000000000E10   -3.775749100896064E-4   1.029505132464692E-3  
 2.444000000000000E10    3.246036867494695E-4   8.224684870583587E-5  
 2.446000000000000E10    1.062254508724436E-3   3.514144482323900E-4  
 2.448000000000000E10    3.834666640614159E-4  -3.634754102677107E-4  
 2.450000000000000E10   -9.712488599689095E-5  -7.208018942037597E-4  
 2.452000000000000E10    1.813983808460762E-4   6.371991330524907E-4  
 2.454000000000000E10    4.841557638428640E-4   1.093256214517169E-3  
 2.456000000000000E10    9.298463264713064E-4   3.941817776649259E-4  
 2.458000000000000E10    8.315030063386075E-4   3.242835991841275E-4  
 2.460000000000000E10    7.260447910084622E-5   2.489843645889778E-4  
 2.462000000000000E10   -9.714110944969434E-6  -9.276618511648849E-4  
 2.464000000000000E10   -3.452139499131590E-4   2.343566739000380E-4  
 2.466000000000000E10   -3.841200596070848E-4   4.487802762014326E-4  
 2.468000000000000E10    1.668912955210544E-3   2.623356940603117E-4  
 2.470000000000000E10    1.537257470772602E-3  -7.877390453359112E-4  
 2.472000000000000E10    2.354585576540558E-4  -1.673481034231372E-3  
 2.474000000000000E10   -5.785290777566843E-4  -4.315685655456036E-4  
 2.476000000000000E10    2.952374852611683E-4   1.027818245347589E-3  
 2.478000000000000E10    1.100962414056994E-3   1.052820400218479E-3  
 2.480000000000000E10    1.505881169578061E-3  -5.084949189040344E-4  
 2.482000000000000E10    1.712790326564573E-4  -9.588054672349244E-4  
 2.484000000000000E10   -8.348947958438657E-4  -1.280802738619968E-3  
 2.486000000000000E10   -8.138311750371940E-4  -4.233230663430732E-5  
 2.488000000000000E10    4.819225762275892E-5   4.192624764982611E-4  
 2.490000000000000E10    1.135298283770680E-3  -1.367055647278903E-4  
 2.492000000000000E10    1.088285862351768E-3  -1.322420750511810E-3  
 2.494000000000000E10    3.083132160099922E-4  -1.714336773147807E-3  
 2.496000000000000E10   -1.339508948149160E-3  -3.780024962907191E-4  
 2.498000000000000E10    2.612066036817851E-4   7.448968826793134E-4  
 2.500000000000000E10    7.167433141148649E-4   8.128661866066977E-4  
 2.502000000000000E10    5.167063936823979E-4  -7.614208370796405E-4  
 2.504000000000000E10   -3.266209896537475E-4  -5.547509499592707E-4  
 2.506000000000000E10   -6.056052297935821E-4  -8.361828877241351E-4  
 2.508000000000000E10   -1.019444127450697E-3  -4.015895046904916E-5  
 2.510000000000000E10   -8.366776528418995E-4   2.731749409576878E-4  
 2.512000000000000E10    6.242342278710567E-4   2.543169084674446E-4  
 2.514000000000000E10    2.179192779294681E-4  -7.301153455046006E-4  
 2.516000000000000E10   -2.530178571760189E-4  -9.184138689306565E-4  
 2.518000000000000E10   -8.331043427460827E-4   5.132063852215651E-4  
 2.520000000000000E10   -6.279123699641787E-4   2.372258240939118E-4  
 2.522000000000000E10   -4.138115764362738E-4   5.876538998563774E-4  
 2.524000000000000E10   -2.313580316695152E-4   6.089511516620405E-4  
 2.526000000000000E10   -2.251625319331652E-4   3.465823647275101E-4  
 2.528000000000000E10   -4.820505782845430E-4  -8.860696543706581E-4  
 2.530000000000000E10   -1.227198503329419E-3  -8.396009116040659E-5  
 2.532000000000000E10   -1.421724344254471E-3   9.872345835901797E-4  
 2.534000000000000E10   -4.327747433308105E-5   9.043844984262250E-4  
 2.536000000000000E10    9.213211978931213E-5   6.999896140769124E-4  
 2.538000000000000E10   -6.663358180958312E-5  -4.295287192235264E-5  
 2.540000000000000E10   -3.787430068769027E-4  -1.031636775223888E-4  
 2.542000000000000E10   -8.637896680738777E-4   4.889565352641512E-4  
 2.544000000000000E10   -7.650434054085054E-4   9.942857359419577E-4  
 2.546000000000000E10    1.721303997328505E-4   1.471354233217426E-3  
 2.548000000000000E10    5.799743121315260E-4   1.182806227006950E-3  
 2.550000000000000E10    1.505957770859823E-4  -1.432518877209077E-5  
 2.552000000000000E10   -5.020829703425989E-4  -1.791281665646238E-4  
 2.554000000000000E10   -7.752976889605634E-4   8.640411033411510E-4  
 2.556000000000000E10   -6.981503465794958E-4   9.763707348611206E-4  
 2.558000000000000E10    7.805091809132136E-4   3.501512819639174E-4  
 2.560000000000000E10    8.745074665057473E-4   2.096692624036223E-4  
 2.562000000000000E10    2.015518439293373E-4  -4.753884240926709E-4  
 2.564000000000000E10    9.321127708972199E-5  -5.639512164634652E-4  
 2.566000000000000E10   -4.851022895309143E-4   8.365925241378136E-4  
 2.568000000000000E10    9.844990290730493E-5   1.070801998139359E-3  
 2.570000000000000E10    1.712567885988392E-3   5.166574701434001E-4  
 2.572000000000000E10    1.085667521692812E-3  -7.820515020284802E-4  
 2.574000000000000E10   -5.468603631015867E-4  -1.066022625309415E-3  
 2.576000000000000E10   -6.266181007958949E-4   4.839791035919916E-4  
 2.578000000000000E10   -2.956044579605077E-5   9.815697630983777E-4  
 2.580000000000000E10    9.568664245307446E-4   7.921667292976053E-5  
 2.582000000000000E10    6.752138797310181E-4  -6.632290169363841E-4  
 2.584000000000000E10    3.188377340848092E-4  -1.008755396469496E-3  
 2.586000000000000E10   -8.726840242161416E-4  -4.296537845220882E-4  
 2.588000000000000E10   -1.833203987189336E-4  -6.772102130980784E-5  
 2.590000000000000E10    3.472339403742808E-5   7.670644044992514E-4  
 2.592000000000000E10    5.660939350491390E-4  -7.959094291436486E-4  
 2.594000000000000E10    6.410479618352838E-4  -1.279960095416755E-3  
 2.596000000000000E10   -1.178600025014021E-3  -5.731183264288120E-4  
 2.598000000000000E10   -2.529625344322994E-4  -5.190352530917153E-4  
 2.600000000000000E10    2.804054256557720E-4   8.944785679432243E-5  
 2.602000000000000E10   -1.635255894143484E-4  -4.621469815901946E-4  
 2.604000000000000E10   -1.186204127634483E-5   5.674078465744969E-5  
 2.606000000000000E10    1.099134260584833E-4  -2.634026677696966E-4  
 2.608000000000000E10    1.790979076758958E-4  -1.257751810044283E-4  
 2.610000000000000E10   -2.623484579089563E-4  -1.101089335861616E-3  
 2.612000000000000E10   -8.240778770414181E-4   9.981660559787997E-5  
 2.614000000000000E10   -1.642149090912426E-4   4.599853709805757E-4  
 2.616000000000000E10    6.297784348134883E-4   4.727163177449256E-4  
 2.618000000000000E10    6.351443444145843E-4  -5.540802012546919E-4  
 2.620000000000000E10    6.221424046088941E-4  -9.634190937504172E-4  
 2.622000000000000E10   -7.966640405356884E-4  -5.406480995588936E-4  
 2.624000000000000E10   -2.249869612569455E-4   1.778644800651819E-4  
 2.626000000000000E10   -3.936271150450921E-5   1.517953831353225E-3  
 2.628000000000000E10    1.763706168276258E-3  -1.446223154744075E-4  
 2.630000000000000E10    9.660993528086692E-4  -9.736265637911856E-4  
 2.632000000000000E10   -1.013612680253573E-3  -1.590562344063073E-3  
 2.634000000000000E10   -1.056801673257724E-3   4.426644227351062E-4  
 2.636000000000000E10   -1.749156417645281E-4   8.489518295391463E-4  
 2.638000000000000E10    1.782881852705032E-3  -4.874526348430663E-4  
 2.640000000000000E10    1.430969223292777E-5  -1.283566074562259E-3  
 2.642000000000000E10   -4.174506138951983E-4  -1.514012168627232E-3  
 2.644000000000000E10   -9.923381076077931E-4   4.109950452857447E-5  
 2.646000000000000E10   -7.695381063967943E-4   8.275956929537642E-6  
 2.648000000000000E10    5.774053133791313E-4   3.512563125696033E-4  
 2.650000000000000E10    9.673947206465527E-4  -4.649129004974384E-4  
 2.652000000000000E10   -4.093502320756670E-4  -1.239205914316699E-3  
 2.654000000000000E10   -9.637542898417451E-4  -6.403770894394256E-4  
 2.656000000000000E10   -7.816789002390578E-4   1.417832565493882E-3  
 2.658000000000000E10   -3.299902018625289E-4   1.541571664347430E-4  
 2.660000000000000E10   -2.511300644982839E-4  -1.975612831301987E-4  
 2.662000000000000E10   -6.543789859279059E-4  -2.764346700132592E-4  
 2.664000000000000E10   -5.695750223821960E-4   2.467690683261026E-4  
 2.666000000000000E10   -4.745310434373096E-4   3.331387849137002E-5  
 2.668000000000000E10   -6.670208167633973E-4  -1.333710042672465E-4  
 2.670000000000000E10   -9.725726267788559E-4   8.197186543839052E-4  
 2.672000000000000E10   -2.040574836428277E-4   7.078041307977401E-4  
 2.674000000000000E10   -4.709496261057211E-5   9.768307136255316E-4  
 2.676000000000000E10    9.761580486156163E-5  -4.548913711914793E-4  
 2.678000000000000E10   -5.027700608479790E-4  -6.154186337425927E-6  
 2.680000000000000E10   -1.521882586530410E-3   2.524054834793787E-4  
 2.682000000000000E10   -5.366647819755599E-4   1.405446484568529E-3  
 2.684000000000000E10    2.287508614244871E-4   9.380922056152485E-4  
 2.686000000000000E10    8.198241703212261E-4   8.892268306226470E-5  
 2.688000000000000E10   -3.053973414353095E-4  -1.525455692899413E-3  
 2.690000000000000E10   -6.184299709275365E-4  -2.947639768535737E-4  
 2.692000000000000E10   -1.113713951781392E-3   1.515065639978275E-3  
 2.694000000000000E10    1.029316219501197E-3   1.226862048497424E-3  
 2.696000000000000E10    1.253316106158309E-3   1.698733522061957E-4  
 2.698000000000000E10    5.928291329837521E-5  -9.481573579250835E-4  
 2.700000000000000E10   -1.453279721317813E-3  -1.207788336614613E-4  
 2.702000000000000E10   -6.693418399663642E-4   8.096655947156251E-4  
 2.704000000000000E10    4.055402205267455E-4   1.341835421044380E-3  
 2.706000000000000E10    6.258944413275458E-4  -5.974360319669358E-4  
 2.708000000000000E10    8.835392654873431E-4  -8.884026829036884E-4  
 2.710000000000000E10   -5.366062650864478E-4  -1.069611782440916E-3  
 2.712000000000000E10   -1.261179986613570E-4  -2.015055506490171E-4  
 2.714000000000000E10    1.164319082818111E-4   9.243708555004560E-4  
 2.716000000000000E10    1.306989623117261E-3  -6.171480490593240E-4  
 2.718000000000000E10    3.244849740440259E-4  -4.833594430238009E-4  
 2.720000000000000E10    2.504616131773219E-4  -4.984219776815735E-4  
 2.722000000000000E10   -3.492529140203260E-4   1.318624806003754E-4  
 2.724000000000000E10    1.518990047770785E-4  -8.281483969767578E-4  
 2.726000000000000E10   -2.022833414230263E-4  -7.428783192153787E-5  
 2.728000000000000E10   -6.913980614626780E-4  -6.235868204385042E-4  
 2.730000000000000E10    7.603459816891700E-4  -2.276713203173131E-4  
 2.732000000000000E10    5.916908557992429E-4  -5.079137772554532E-4  
 2.734000000000000E10    3.519072888593655E-4  -1.002942532068119E-3  
 2.736000000000000E10   -3.551726549630985E-4  -4.588529554894194E-4  
 2.738000000000000E10   -5.526542045117822E-4  -1.501536507930723E-4  
 2.740000000000000E10    7.149256998673081E-4   8.506554440828040E-4  
 2.742000000000000E10    8.874099075910635E-4   1.866290476755239E-4  
 2.744000000000000E10    7.777531718602404E-4  -8.738818287383765E-4  
 2.746000000000000E10   -6.551132246386260E-4  -1.482183928601444E-3  
 2.748000000000000E10   -8.891163961379789E-4   4.842737398575991E-4  
 2.750000000000000E10   -1.402702964696800E-4   4.076466611877549E-4  
 2.752000000000000E10    1.205755062983371E-3   1.391530895489268E-4  
 2.754000000000000E10    6.845304378657602E-4  -9.646791804698296E-4  
 2.756000000000000E10   -5.731774144805968E-4  -1.756089302944019E-3  
