#  HZ   S   RI   R     50.00 
! Rohde & Schwarz ZVA40 4Ports - Version 3.90 - 1145.1110k42 SN: 100403
! Date: 2023-10-04 06:57:03
! Measurement: S12 
! 
 2.200000000000000E10    7.521155175709282E-4  -1.039355758621241E-3  
 2.202000000000000E10   -1.272646870347671E-3   4.616382652784523E-4  
 2.204000000000000E10   -8.630328593426384E-4   2.049326871201629E-3  
 2.206000000000000E10    1.912841249577468E-3   1.754871798766544E-3  
 2.208000000000000E10    2.781613984552678E-3  -1.228763658218668E-3  
 2.210000000000000E10   -9.929435236699646E-4  -2.419478882075055E-3  
 2.212000000000000E10   -1.742017149808817E-3   5.693522139154084E-4  
 2.214000000000000E10    5.055954616182135E-4   1.963924256415339E-3  
 2.216000000000000E10    2.268925971293356E-3   7.568110203237666E-5  
 2.218000000000000E10    9.654875284468290E-4  -1.392746869896655E-3  
 2.220000000000000E10   -6.576344467248418E-4  -1.272493932447105E-5  
 2.222000000000000E10   -3.657771253529063E-4  -1.530032757202093E-5  
 2.224000000000000E10    2.923814570294780E-4   5.336371718840383E-4  
 2.226000000000000E10    3.807626276284282E-4   5.844143524882384E-4  
 2.228000000000000E10    1.953629054014527E-4   1.912864047426410E-4  
 2.230000000000000E10    7.375828445219668E-4  -3.653934049907548E-4  
 2.232000000000000E10   -1.181454915339941E-4  -6.473456774074293E-4  
 2.234000000000000E10   -1.055007154718624E-3   4.338052685852745E-4  
 2.236000000000000E10    9.362415939904167E-4   2.485698698819761E-4  
 2.238000000000000E10    1.089850855350960E-3  -1.819595888719050E-4  
 2.240000000000000E10   -8.443120887022815E-4  -1.124796284784679E-3  
 2.242000000000000E10    2.063200487896211E-4   1.137247827500687E-3  
 2.244000000000000E10    1.540153600217309E-3  -2.938609914053814E-4  
 2.246000000000000E10    4.620344789145747E-4  -2.331934538233327E-3  
 2.248000000000000E10   -1.296784803344053E-3  -1.292520288416199E-4  
 2.250000000000000E10   -3.543217412698141E-4   1.127237555920146E-3  
 2.252000000000000E10    1.775867567630485E-3   2.649777871397419E-4  
 2.254000000000000E10    7.752330739094759E-4  -1.296650811127620E-3  
 2.256000000000000E10   -7.568962591903983E-4  -5.270183219181490E-4  
 2.258000000000000E10   -8.925821339289541E-4  -5.566368681684253E-4  
 2.260000000000000E10   -7.663398118893383E-4   8.408738149228157E-4  
 2.262000000000000E10   -8.604891563663841E-4   7.165777524278383E-4  
 2.264000000000000E10    9.246416311725625E-4   6.407798546206323E-4  
 2.266000000000000E10    8.301625503008836E-4  -1.609403252587072E-3  
 2.268000000000000E10   -1.620909308257978E-3  -2.254018800158519E-3  
 2.270000000000000E10   -2.170515210309532E-3   9.385999537698808E-4  
 2.272000000000000E10   -5.871635210041859E-5   1.435995769497822E-3  
 2.274000000000000E10    1.533427412141464E-3   5.018898964408436E-4  
 2.276000000000000E10   -1.338959453391908E-4  -9.044657645063126E-4  
 2.278000000000000E10   -9.293284574596328E-4   6.649568098104908E-5  
 2.280000000000000E10   -9.861727949100896E-4   1.093218965252163E-3  
 2.282000000000000E10   -1.446496817152365E-3   5.655312515955302E-4  
 2.284000000000000E10   -3.730532544068410E-4   1.000394101538404E-3  
 2.286000000000000E10    2.507209842406155E-4   1.118860071073868E-3  
 2.288000000000000E10    2.550702661210380E-4   1.031998822327296E-4  
 2.290000000000000E10   -1.004177384857030E-3  -7.719837949480279E-4  
 2.292000000000000E10   -1.088110555429012E-3   6.690701829938917E-4  
 2.294000000000000E10    7.799257919032243E-4   1.524360126495594E-3  
 2.296000000000000E10    1.550812879941077E-3  -7.247732989412725E-5  
 2.298000000000000E10    9.610958786652191E-4  -2.298540157426032E-4  
 2.300000000000000E10    8.917735549403005E-4   1.259063246834558E-3  
 2.302000000000000E10    1.259875698451651E-3   5.118444870788608E-5  
 2.304000000000000E10   -1.209035933698033E-4   1.318927391480429E-4  
 2.306000000000000E10   -2.871120232157409E-4   9.208022574966890E-4  
 2.308000000000000E10    1.127488705606083E-3   1.471764773668838E-3  
 2.310000000000000E10    1.838774904172169E-3  -3.560391178325517E-4  
 2.312000000000000E10    4.368148966023000E-4  -1.561842702358263E-3  
 2.314000000000000E10   -3.838103116322600E-4  -3.243711976210761E-4  
 2.316000000000000E10   -3.399908982828492E-4   4.109780397811846E-4  
 2.318000000000000E10    9.125765145654441E-4  -2.695815774131916E-4  
 2.320000000000000E10    1.353613364699413E-3  -4.925539460600703E-4  
 2.322000000000000E10    1.200960095957271E-3  -8.922169527068036E-4  
 2.324000000000000E10    1.133432560891379E-3  -1.537044474389404E-3  
 2.326000000000000E10   -7.477465414922335E-4  -1.258126853826980E-4  
 2.328000000000000E10   -1.312289256020449E-3   1.050299943017308E-3  
 2.330000000000000E10    1.046807288730633E-3   1.219825815496733E-3  
 2.332000000000000E10    1.162974338512868E-3  -1.397596121023526E-3  
 2.334000000000000E10   -1.323407677773503E-3  -1.570985579746775E-3  
 2.336000000000000E10   -1.806680074878386E-3  -5.700875740330957E-4  
 2.338000000000000E10   -4.373546348688251E-4   6.890824643051019E-4  
 2.340000000000000E10   -1.423128960311715E-4   4.238189626448730E-5  
 2.342000000000000E10    4.902996477085253E-5  -2.986024423989875E-4  
 2.344000000000000E10    1.778307992026385E-4  -2.316410412959158E-4  
 2.346000000000000E10    2.209541946740501E-4  -8.294685585497064E-4  
 2.348000000000000E10   -1.403177424435853E-3  -5.137379075677018E-4  
 2.350000000000000E10   -7.772044436933356E-4   7.888925119914347E-4  
 2.352000000000000E10    4.623743952834047E-4   1.463780736230547E-3  
 2.354000000000000E10    2.681932237464935E-4  -1.637187970118248E-4  
 2.356000000000000E10   -3.122677571809618E-4  -2.041142452071654E-4  
 2.358000000000000E10   -1.211586873978376E-3   2.385565185250016E-4  
 2.360000000000000E10   -5.331918582669459E-4   1.440500777789566E-4  
 2.362000000000000E10   -9.210787229676498E-4   7.857217824494001E-4  
 2.364000000000000E10    2.699697706276538E-5   1.253582136996556E-3  
 2.366000000000000E10    1.001958900815225E-3   1.506232427345822E-3  
 2.368000000000000E10    7.360913205047837E-4  -1.118260090152035E-3  
 2.370000000000000E10   -1.472784035286168E-3  -3.040890442207456E-4  
 2.372000000000000E10   -1.168687704193872E-3   1.561606772156665E-3  
 2.374000000000000E10    4.976466116204392E-4   1.918364952871343E-3  
 2.376000000000000E10    1.805732626962708E-3   3.874111644108780E-4  
 2.378000000000000E10    1.131306282331934E-3  -2.117642575285572E-4  
 2.380000000000000E10    1.722593788144877E-4  -2.093555413011927E-4  
 2.382000000000000E10   -3.711657600433682E-4   4.840648789468105E-4  
 2.384000000000000E10    1.406773777716808E-4   1.155354508227902E-3  
 2.386000000000000E10    6.970195681788027E-4   1.341081500868313E-3  
 2.388000000000000E10    1.576155074872077E-3  -8.294654350038400E-6  
 2.390000000000000E10    8.373524342459859E-4  -1.811142647056840E-3  
 2.392000000000000E10   -8.367308146262076E-4  -4.684688228735467E-4  
 2.394000000000000E10   -3.740642150660278E-4   1.604142778433015E-4  
 2.396000000000000E10    1.260556942725088E-3   8.622418463346548E-4  
 2.398000000000000E10    2.102678976370953E-3  -8.722568782104645E-4  
 2.400000000000000E10    7.883440557634458E-4  -1.812522721593268E-3  
 2.402000000000000E10    2.666572145244572E-4  -1.089758650778094E-3  
 2.404000000000000E10    2.667895469130599E-4  -7.180884549597977E-4  
 2.406000000000000E10   -6.804212176803048E-5  -1.100703229894862E-4  
 2.408000000000000E10    1.787220066944428E-4   1.603957744009676E-4  
 2.410000000000000E10    6.220907907845685E-4  -7.389502407022519E-4  
 2.412000000000000E10    1.064058651536470E-4  -1.495990531111602E-3  
 2.414000000000000E10   -1.279639967833646E-3  -1.687116968241753E-3  
 2.416000000000000E10   -7.066087528073695E-4  -4.162526374784648E-4  
 2.418000000000000E10   -4.846046249440406E-4  -3.260570683778497E-4  
 2.420000000000000E10   -3.848908818326891E-6  -6.763874898751965E-4  
 2.422000000000000E10    1.431502535638174E-4   2.856988830899354E-4  
 2.424000000000000E10    3.964730615280132E-5  -9.032143098011147E-4  
 2.426000000000000E10   -4.726611550722737E-4  -9.354706471640384E-4  
 2.428000000000000E10   -1.911455758090597E-3  -2.636072431414505E-4  
 2.430000000000000E10   -1.491724084189627E-3   9.392441679665353E-4  
 2.432000000000000E10   -6.346314955862908E-5   1.252307349204784E-3  
 2.434000000000000E10    5.108622262923745E-4  -6.067564700060757E-4  
 2.436000000000000E10   -1.360938123980304E-3  -1.122777517593931E-3  
 2.438000000000000E10   -1.529973244032590E-3  -2.594739771666355E-4  
 2.440000000000000E10   -1.612567513802787E-3   3.600390227802564E-4  
 2.442000000000000E10   -5.194448158363230E-4   1.107453699660255E-3  
 2.444000000000000E10    5.685798323611380E-4   9.351746302854735E-4  
 2.446000000000000E10    9.426230717508588E-4  -4.156992035859730E-4  
 2.448000000000000E10   -1.051593128067907E-3  -7.038911389827263E-4  
 2.450000000000000E10   -1.661941452766769E-3   5.871491812285967E-4  
 2.452000000000000E10   -7.703147148276912E-4   2.362097606237512E-3  
 2.454000000000000E10    5.561496545851696E-4   1.399457811203320E-3  
 2.456000000000000E10    1.350940157863079E-3  -4.636244866560446E-4  
 2.458000000000000E10   -7.555027332273312E-4  -8.592828544351505E-4  
 2.460000000000000E10   -7.558430788776605E-4   1.082541734831466E-4  
 2.462000000000000E10   -2.840250863300753E-4   8.331774060934549E-4  
 2.464000000000000E10    7.478000843548216E-4   8.741520887269871E-4  
 2.466000000000000E10    8.769732066866709E-4   7.317283088923432E-4  
 2.468000000000000E10    1.145286638347898E-3  -3.398280596229597E-4  
 2.470000000000000E10   -1.379096065647900E-4  -8.357788935597910E-6  
 2.472000000000000E10   -8.607476465840591E-4   4.889132242169580E-4  
 2.474000000000000E10    1.259328282685601E-4   1.461464948079083E-3  
 2.476000000000000E10    5.570606717810733E-4   9.117110548686469E-4  
 2.478000000000000E10    4.990752750018146E-4  -3.848950573228649E-4  
 2.480000000000000E10    5.475030366142164E-4  -5.670150094374549E-4  
 2.482000000000000E10    7.871189450270322E-5   1.188843555155472E-5  
 2.484000000000000E10    1.650458852964221E-4  -2.843647280315054E-4  
 2.486000000000000E10    7.144629980757600E-4   5.251709690128337E-4  
 2.488000000000000E10    7.389292968582595E-4   5.332741748134140E-4  
 2.490000000000000E10    1.240093210071791E-3   2.133374605364224E-4  
 2.492000000000000E10    8.485191028739791E-4  -3.628390959420358E-4  
 2.494000000000000E10   -2.616000375610383E-5  -5.600762815447524E-4  
 2.496000000000000E10   -6.426724230550462E-4   1.419601799170778E-4  
 2.498000000000000E10   -1.477694591756062E-5   4.443700154297403E-4  
 2.500000000000000E10    8.206351940316381E-4   6.001975634717383E-4  
 2.502000000000000E10    9.885671770462068E-4  -1.111033696361119E-3  
 2.504000000000000E10    3.449600872045266E-4  -9.342088742414489E-4  
 2.506000000000000E10   -4.200734329060651E-4  -9.431889138795668E-4  
 2.508000000000000E10    1.893561858423709E-6   3.761806528927991E-4  
 2.510000000000000E10    2.616833876345481E-4   1.036688456224510E-3  
 2.512000000000000E10    1.549371379951481E-3   1.464765914533928E-4  
 2.514000000000000E10    6.432802201743471E-4  -9.830031358433189E-4  
 2.516000000000000E10   -8.199093445000472E-4  -1.200501636049012E-3  
 2.518000000000000E10   -1.182610241812654E-3  -3.688476990646450E-4  
 2.520000000000000E10   -3.089588135480881E-4   3.925595337932464E-4  
 2.522000000000000E10    6.684363579552155E-4   1.733291269374604E-4  
 2.524000000000000E10    2.736896267379052E-4  -1.495636370236753E-3  
 2.526000000000000E10   -8.540483986507752E-5  -1.292736498726299E-3  
 2.528000000000000E10   -6.085215682105627E-4  -1.315189529123018E-3  
 2.530000000000000E10   -8.357288406841690E-4  -1.289925803575898E-4  
 2.532000000000000E10   -5.172711298655486E-4   3.983197202614974E-4  
 2.534000000000000E10    4.951019764121156E-4   6.529440952363075E-6  
 2.536000000000000E10    1.242890475623426E-4  -9.078197763301432E-4  
 2.538000000000000E10   -6.419695546355797E-4  -9.808216709643602E-4  
 2.540000000000000E10   -1.416356266418006E-3  -4.711897890956607E-4  
 2.542000000000000E10   -7.928827180876397E-4   2.488628206265275E-4  
 2.544000000000000E10   -9.422467628610320E-4   1.953663140739081E-4  
 2.546000000000000E10   -2.202366799792799E-4  -4.140905593885691E-4  
 2.548000000000000E10    1.630043698241934E-6  -2.425587608740898E-4  
 2.550000000000000E10   -7.245462002174463E-4  -1.596802667336306E-3  
 2.552000000000000E10   -1.237309334101155E-3  -1.103375388993300E-4  
 2.554000000000000E10   -1.008421011647442E-3   5.335005625966005E-4  
 2.556000000000000E10    4.992740841771592E-4   7.351536150963511E-4  
 2.558000000000000E10    8.976114149845671E-4  -5.588481071754359E-4  
 2.560000000000000E10   -4.723978936453932E-4  -2.810376336128684E-4  
 2.562000000000000E10   -9.413927964487812E-4   2.311181697223219E-4  
 2.564000000000000E10   -2.288894984303624E-4   9.265336484531872E-4  
 2.566000000000000E10   -1.725052245546976E-4   1.073147188435542E-3  
 2.568000000000000E10    1.077451640867366E-4   4.595987502398202E-4  
 2.570000000000000E10    1.624703213565226E-4   2.423755740892375E-4  
 2.572000000000000E10   -2.769530656223651E-4  -4.420497643877752E-4  
 2.574000000000000E10   -9.950893199857092E-4   1.141007158480534E-4  
 2.576000000000000E10   -1.618332698853919E-4   6.625505866395542E-4  
 2.578000000000000E10    8.350257394340588E-4   1.018870743791922E-3  
 2.580000000000000E10    3.768779197343974E-4  -5.128073116793530E-4  
 2.582000000000000E10    1.986210895665863E-4   1.769866230461048E-4  
 2.584000000000000E10   -3.800542135650176E-4   1.367721879432793E-4  
 2.586000000000000E10    2.274980447509734E-4  -2.187680297538464E-5  
 2.588000000000000E10   -3.033105149370385E-4   5.217778118549177E-5  
 2.590000000000000E10    4.301316721466719E-4   4.971851440132014E-4  
 2.592000000000000E10    1.407782223395770E-3   4.381710759844282E-4  
 2.594000000000000E10    1.206835953780683E-3  -1.027531152431038E-3  
 2.596000000000000E10   -2.135590178795610E-4  -6.858421093056677E-4  
 2.598000000000000E10   -1.507692672930716E-4   3.198844769940479E-4  
 2.600000000000000E10    7.399538553727325E-4   9.339271637145430E-4  
 2.602000000000000E10    1.162438100436702E-3   4.005552418675507E-4  
 2.604000000000000E10    9.777777013368905E-4  -3.805868363997433E-4  
 2.606000000000000E10    3.281498202341027E-4  -1.068182456947397E-3  
 2.608000000000000E10   -3.326674504933180E-4  -6.202959957590792E-4  
 2.610000000000000E10   -4.166956668996136E-4   5.676935207077349E-5  
 2.612000000000000E10    9.190260734612821E-4   1.062405925040366E-3  
 2.614000000000000E10    1.182462270662654E-3  -2.927520613411616E-4  
 2.616000000000000E10    1.295977992413100E-3  -1.126064711570507E-3  
 2.618000000000000E10   -7.208989190985449E-4  -3.502137869872968E-4  
 2.620000000000000E10   -4.155965061727329E-4   5.400643967732322E-4  
 2.622000000000000E10   -3.568820093278191E-4   1.658585140830837E-3  
 2.624000000000000E10    8.325949784193654E-4   2.659394294823869E-4  
 2.626000000000000E10    3.828645940302522E-4  -3.103953440586338E-4  
 2.628000000000000E10   -7.597932562930509E-4  -1.048371756041888E-3  
 2.630000000000000E10   -1.485758143644489E-4   8.251082044807845E-5  
 2.632000000000000E10    2.271095108881127E-4  -2.019176336034434E-4  
 2.634000000000000E10    2.164525649277493E-4   3.014264912053477E-4  
 2.636000000000000E10    1.087066895706812E-3  -2.429023834338295E-4  
 2.638000000000000E10    9.669450773799326E-4   1.201974205287115E-4  
 2.640000000000000E10    1.113847233682463E-4  -3.781358327614726E-4  
 2.642000000000000E10    1.897340293908201E-4   2.107414329657331E-4  
 2.644000000000000E10   -6.114685511420248E-4   9.486771796218818E-4  
 2.646000000000000E10    1.588455534147215E-4   2.238340584881371E-6  
 2.648000000000000E10   -1.414650923834415E-4   3.931270784960361E-4  
 2.650000000000000E10    3.733918292709859E-4  -6.605669932469027E-4  
 2.652000000000000E10    1.012745456137054E-4  -5.701315249098116E-4  
 2.654000000000000E10   -5.494815304700751E-4  -2.224785544967745E-3  
 2.656000000000000E10   -4.276847066648770E-4   2.570736810412200E-4  
 2.658000000000000E10   -1.603193468326936E-4   2.554118873376865E-4  
 2.660000000000000E10    1.909589027491165E-3  -2.310741047040210E-5  
 2.662000000000000E10    2.391547532170080E-4  -1.332665444351733E-3  
 2.664000000000000E10   -6.916341280884808E-4  -8.136844589898828E-4  
 2.666000000000000E10   -1.658017405134160E-3   2.985043347507599E-4  
 2.668000000000000E10   -6.439270091505023E-4   6.445724266086472E-4  
 2.670000000000000E10    1.096523783417069E-5   2.655483758644550E-4  
 2.672000000000000E10    4.804320460607414E-4  -1.599161321792053E-3  
 2.674000000000000E10   -8.813437489152420E-4  -1.276255847187713E-3  
 2.676000000000000E10   -1.555756425659638E-3  -1.221001242811326E-3  
 2.678000000000000E10   -1.897113302007369E-4   6.325776021185448E-4  
 2.680000000000000E10    3.197745490979287E-4   4.179984025540762E-4  
 2.682000000000000E10    1.048673693730962E-3  -3.669025072667864E-4  
 2.684000000000000E10   -2.320709277228161E-4  -1.000306547211949E-3  
 2.686000000000000E10   -9.862620445346693E-4  -1.904320733956411E-4  
 2.688000000000000E10   -1.463633761886740E-3   6.766090027667815E-4  
 2.690000000000000E10    3.016219025084865E-4   3.664365758595523E-4  
 2.692000000000000E10   -3.968773871747544E-4   1.512138301222876E-4  
 2.694000000000000E10   -2.624613834996126E-4  -1.066440148861148E-3  
 2.696000000000000E10   -2.008378889968299E-4  -7.841478634418309E-5  
 2.698000000000000E10   -2.406062549198396E-4  -5.318035819072975E-4  
 2.700000000000000E10    2.444586730234732E-4   2.392055703239748E-4  
 2.702000000000000E10    3.504424159928021E-5   3.521458866089233E-4  
 2.704000000000000E10    6.843440460215788E-4   1.133009023760678E-3  
 2.706000000000000E10    8.169259799615247E-4   2.126841854988015E-4  
 2.708000000000000E10    4.521148939602426E-4   1.082808294086135E-4  
 2.710000000000000E10   -6.636567723035114E-4  -1.998015074533566E-5  
 2.712000000000000E10   -4.761908667205717E-4  -1.871799017862941E-4  
 2.714000000000000E10   -6.857904168100504E-5   1.033637294312939E-3  
 2.716000000000000E10    3.567593475963804E-4   5.408168817666592E-4  
 2.718000000000000E10    1.028189948556246E-3  -6.045363370503765E-4  
 2.720000000000000E10    3.211279449715221E-4  -1.189939437608700E-3  
 2.722000000000000E10   -9.065083304449217E-4  -3.431359318710747E-4  
 2.724000000000000E10   -3.232535573260975E-4   8.520229293935699E-4  
 2.726000000000000E10    1.328366812231252E-3   1.654889380006352E-3  
 2.728000000000000E10    1.337366280495189E-3  -4.511378992901882E-4  
 2.730000000000000E10    1.241267809746205E-4  -8.490520485793240E-4  
 2.732000000000000E10   -1.297898626944516E-3  -7.858251010475215E-4  
 2.734000000000000E10   -4.538836928986711E-4   1.306389691308141E-3  
 2.736000000000000E10    3.388895811440307E-4   7.950109993544174E-4  
 2.738000000000000E10    1.497416844358668E-3  -1.515100416327186E-4  
 2.740000000000000E10    2.121673001056479E-4  -8.119311532936990E-4  
 2.742000000000000E10   -4.071915136591997E-4  -4.009057802250027E-4  
 2.744000000000000E10   -4.740903750644065E-4   7.598698266519932E-4  
 2.746000000000000E10    2.355202268518042E-4   7.774825953674736E-4  
 2.748000000000000E10    9.039858596224804E-4   5.527157009055372E-4  
 2.750000000000000E10    1.839236224441265E-4  -6.569395955011714E-4  
 2.752000000000000E10    1.644390226829273E-4  -2.369326207372069E-4  
 2.754000000000000E10   -1.964872026292142E-4   3.981441286668996E-4  
 2.756000000000000E10    8.909734442568151E-4   6.371847684931709E-4  
