#  HZ   S   RI   R     50.00 
! Rohde & Schwarz ZVA40 4Ports - Version 3.90 - 1145.1110k42 SN: 100403
! Date: 2023-10-04 06:56:35
! Measurement: S12 
! 
 2.200000000000000E10    5.259220961306710E-4   9.715782289276831E-4  
 2.202000000000000E10    2.216923548985506E-4  -5.664634518325329E-4  
 2.204000000000000E10   -1.514912670245394E-3  -2.948670753539773E-4  
 2.206000000000000E10    3.051163239433663E-4   1.355517044430599E-3  
 2.208000000000000E10    1.009023631922901E-3   1.761912290021428E-4  
 2.210000000000000E10   -2.654458694451023E-4  -2.368202694924548E-4  
 2.212000000000000E10   -3.277922969573410E-4   7.878983306000009E-4  
 2.214000000000000E10    2.092878848998225E-4   8.878799817466643E-4  
 2.216000000000000E10   -5.186950038478244E-4  -2.415480394120095E-4  
 2.218000000000000E10   -8.884810631570872E-4   2.618162043290795E-4  
 2.220000000000000E10    3.333440527057974E-4   9.017991833388805E-4  
 2.222000000000000E10    8.535199776815716E-4  -1.109537312004250E-3  
 2.224000000000000E10   -8.692696137586609E-4  -1.008302529953653E-3  
 2.226000000000000E10   -1.362992341455538E-3   1.110860612243414E-3  
 2.228000000000000E10    6.616188693442382E-4   2.220939175458625E-3  
 2.230000000000000E10    2.145907521480694E-3  -1.911623253363359E-4  
 2.232000000000000E10   -7.274462004716042E-4  -1.928735349792987E-3  
 2.234000000000000E10   -1.979367356398143E-3   4.781821871802094E-5  
 2.236000000000000E10   -8.778932024142705E-4   1.824250393838156E-3  
 2.238000000000000E10    7.137872635212261E-4   1.178058300865814E-3  
 2.240000000000000E10    1.169142247817945E-3  -7.598976553708781E-4  
 2.242000000000000E10    4.162635086686350E-4  -1.239262943272479E-3  
 2.244000000000000E10   -9.880932228156780E-5  -7.108494573913049E-4  
 2.246000000000000E10   -6.588582909898832E-4   5.695210929843597E-4  
 2.248000000000000E10    4.783438926097006E-4   1.299627212574706E-3  
 2.250000000000000E10    1.509467831056099E-3   1.983312096854206E-3  
 2.252000000000000E10    1.603272205102257E-3  -3.861169807350962E-4  
 2.254000000000000E10   -8.480118558509275E-4  -9.737317741382867E-4  
 2.256000000000000E10   -2.158797971787863E-3   4.059903221786954E-4  
 2.258000000000000E10    6.168251957205939E-5   1.113614587666234E-3  
 2.260000000000000E10    1.508444889623206E-3  -3.947356162825599E-4  
 2.262000000000000E10    2.612193818549713E-4  -1.477522695495281E-3  
 2.264000000000000E10    7.238949547172524E-4  -6.373285214067437E-4  
 2.266000000000000E10    1.097196411137702E-3  -6.056876009097323E-4  
 2.268000000000000E10    3.596379974624142E-4  -6.241055016289465E-4  
 2.270000000000000E10   -2.694545628401102E-6  -6.615334746129520E-5  
 2.272000000000000E10    3.185855257470394E-4   9.018179334816523E-4  
 2.274000000000000E10    6.060719715605956E-4  -2.230492291346309E-4  
 2.276000000000000E10   -2.871212946047308E-4  -8.914456702768803E-4  
 2.278000000000000E10   -1.619415525055956E-3  -5.968513087282190E-4  
 2.280000000000000E10   -4.094439136679284E-4  -1.548788764921483E-3  
 2.282000000000000E10    1.962565188478038E-4  -8.099685001070611E-4  
 2.284000000000000E10   -8.215922898671124E-4  -3.297693729109597E-4  
 2.286000000000000E10    1.336322013230529E-3  -1.021513141949981E-4  
 2.288000000000000E10    7.523901913373265E-4  -6.285109338932671E-4  
 2.290000000000000E10   -5.751254175265785E-4  -1.010308584227460E-3  
 2.292000000000000E10   -1.863236619101372E-3   1.467426933231764E-3  
 2.294000000000000E10   -6.252503007999621E-4   2.111489113303833E-3  
 2.296000000000000E10    7.034772424958646E-4   9.231378171534743E-4  
 2.298000000000000E10   -3.752508728211979E-4  -1.225419619004242E-3  
 2.300000000000000E10   -1.767267182003707E-3  -1.686037176114041E-4  
 2.302000000000000E10   -1.796476819436066E-3  -2.244309907837305E-4  
 2.304000000000000E10   -4.259216348145856E-4   9.103861630137544E-4  
 2.306000000000000E10   -1.683730829427077E-5   9.053645335370675E-4  
 2.308000000000000E10    2.204960022936575E-3   7.873135814406851E-5  
 2.310000000000000E10    1.028586164466105E-3  -4.918238773825578E-4  
 2.312000000000000E10   -1.176848149043508E-3  -6.093261629303015E-5  
 2.314000000000000E10   -5.596383834927110E-4   2.419960233964957E-3  
 2.316000000000000E10    8.245346471085213E-4   1.629609185329173E-3  
 2.318000000000000E10    1.399223416228779E-3   1.745948277402931E-4  
 2.320000000000000E10    4.955711256116047E-5  -4.040848616568837E-4  
 2.322000000000000E10   -1.969616432688781E-4   3.438105935060776E-5  
 2.324000000000000E10   -9.283491672249511E-4  -6.972807256033775E-5  
 2.326000000000000E10    2.530293395466288E-4   1.691912120804773E-4  
 2.328000000000000E10    7.039071533654351E-6   6.120179277786519E-4  
 2.330000000000000E10    1.402111774950754E-3  -2.781058256005053E-4  
 2.332000000000000E10    8.961745515989605E-4  -6.142805577837862E-4  
 2.334000000000000E10   -4.610987052728888E-4  -1.047764941176865E-3  
 2.336000000000000E10   -8.916323313314933E-4   6.989325411268510E-4  
 2.338000000000000E10   -1.280737533306819E-4   7.557203971373383E-4  
 2.340000000000000E10    7.597885924042203E-4   1.864731721070712E-4  
 2.342000000000000E10    8.739137581414980E-5  -3.848369324259693E-4  
 2.344000000000000E10   -3.668730528261222E-5  -7.757179591862951E-4  
 2.346000000000000E10   -4.635203877114691E-4  -1.068662153556943E-3  
 2.348000000000000E10   -1.236811462149490E-3   1.445021948711656E-4  
 2.350000000000000E10   -5.698200075130444E-4   1.057682617101818E-3  
 2.352000000000000E10    1.082359725842252E-3   3.051577878068201E-4  
 2.354000000000000E10    7.408662786474451E-4  -1.219212033902295E-3  
 2.356000000000000E10   -1.105425966670737E-3  -1.363614035653882E-3  
 2.358000000000000E10   -1.254730188520625E-3   4.536902306426782E-4  
 2.360000000000000E10    1.024509401759133E-7   9.600366174709052E-4  
 2.362000000000000E10    7.472558718291111E-4   7.480689891963266E-4  
 2.364000000000000E10    4.939523860230111E-4  -2.596274771349272E-4  
 2.366000000000000E10   -1.492392302679946E-4  -1.643890045670560E-4  
 2.368000000000000E10   -4.271075667929836E-4  -5.941200215602294E-4  
 2.370000000000000E10   -8.916348306229338E-4   9.181900313706137E-4  
 2.372000000000000E10   -1.009255811368348E-5   1.274704176466912E-3  
 2.374000000000000E10    1.242254482349381E-3   6.297358268056996E-4  
 2.376000000000000E10    5.838135730300564E-4  -7.368807928287424E-4  
 2.378000000000000E10   -6.817801913712174E-4   2.198137008235790E-4  
 2.380000000000000E10   -9.234565368387848E-4   3.072711515414994E-4  
 2.382000000000000E10   -2.778103862510761E-6   6.405354433809407E-4  
 2.384000000000000E10    1.552639769215602E-4   4.906299509457313E-4  
 2.386000000000000E10    6.579540204256773E-4   1.146300855907612E-4  
 2.388000000000000E10    1.165360037703067E-3  -8.462297319056233E-5  
 2.390000000000000E10   -8.076479338114950E-5  -3.163624587614322E-4  
 2.392000000000000E10   -5.133407685207203E-4   1.087117285351269E-3  
 2.394000000000000E10    1.697253337624716E-4   1.080875634215772E-3  
 2.396000000000000E10    7.098632413544692E-4   1.387188123771921E-3  
 2.398000000000000E10    8.289586476166733E-4   2.576470487838378E-4  
 2.400000000000000E10    8.605547263869084E-4  -2.514153457013890E-4  
 2.402000000000000E10   -7.450251650880091E-4  -2.944250372820534E-4  
 2.404000000000000E10   -3.395624225959182E-4   6.163625812405371E-5  
 2.406000000000000E10    1.500709086030838E-4   5.235473581706174E-4  
 2.408000000000000E10    1.846349943662062E-3   5.167775452719070E-4  
 2.410000000000000E10    1.607703394256532E-3  -5.666762663167901E-4  
 2.412000000000000E10    7.244949447340332E-4  -1.525300001958385E-3  
 2.414000000000000E10   -6.985194850130938E-4   4.344943954492919E-4  
 2.416000000000000E10   -1.082524199773616E-4   1.161120715551078E-3  
 2.418000000000000E10    1.154760102508590E-3   1.256888368516229E-3  
 2.420000000000000E10    1.353376850602217E-3  -3.772291092900559E-4  
 2.422000000000000E10   -6.596394223379321E-5  -1.615225788555108E-3  
 2.424000000000000E10   -7.933829692774452E-4  -1.197743797092699E-3  
 2.426000000000000E10   -2.956034204544267E-4   1.268480464204913E-4  
 2.428000000000000E10    6.908619980094954E-4   6.546542790601961E-4  
 2.430000000000000E10    1.688876887783408E-3  -4.365808490547352E-4  
 2.432000000000000E10    1.118249514547642E-3  -1.485318774939515E-3  
 2.434000000000000E10   -2.621011944938800E-4  -1.097139553166926E-3  
 2.436000000000000E10   -1.219028563355096E-3   1.068167443918355E-4  
 2.438000000000000E10    2.262728230562061E-5   4.297647719795350E-4  
 2.440000000000000E10    2.184457289331476E-4   6.809046026319265E-4  
 2.442000000000000E10    1.020794024952920E-5  -9.354890207760036E-4  
 2.444000000000000E10   -8.788298800936900E-4  -1.072812083293684E-3  
 2.446000000000000E10   -3.193399497831706E-4  -1.264309234102257E-3  
 2.448000000000000E10   -5.755799793405458E-4   1.227804543759703E-4  
 2.450000000000000E10   -1.588172090123408E-4  -6.033633690094575E-4  
 2.452000000000000E10    6.311184406513348E-4   3.105463038082235E-4  
 2.454000000000000E10    1.917551635415293E-4   2.111339636030607E-4  
 2.456000000000000E10    1.156508496933384E-4  -4.098329191037919E-4  
 2.458000000000000E10   -7.971919985720888E-4  -1.006864067676361E-5  
 2.460000000000000E10   -1.300455565797165E-3   1.671245572651969E-4  
 2.462000000000000E10   -6.258372595766559E-4   6.386681488947943E-4  
 2.464000000000000E10   -5.883133053430356E-5   3.981799927714746E-4  
 2.466000000000000E10    1.707542251097038E-4  -5.184852270758711E-4  
 2.468000000000000E10   -1.076555599865969E-5  -1.316424109973013E-3  
 2.470000000000000E10   -1.011755484796595E-3  -4.529433535935823E-4  
 2.472000000000000E10   -1.443253204342909E-3   3.451427837717347E-4  
 2.474000000000000E10    1.931341750349702E-5   1.336205037659966E-3  
 2.476000000000000E10    9.810362244024873E-4   1.114796556066722E-3  
 2.478000000000000E10    5.351241270545870E-4  -5.372985178837553E-4  
 2.480000000000000E10   -1.500963349826634E-3  -4.705867577285972E-4  
 2.482000000000000E10   -1.905615776195191E-3   1.234873663634062E-3  
 2.484000000000000E10   -8.211057938751765E-4   1.368194876704365E-3  
 2.486000000000000E10    5.216096396907233E-4   1.029565653880127E-3  
 2.488000000000000E10    2.855460406863131E-4  -4.888932526228018E-4  
 2.490000000000000E10   -2.505077536625322E-4  -8.501716074533761E-4  
 2.492000000000000E10   -1.175924175186083E-3  -2.653365063451929E-4  
 2.494000000000000E10   -3.590442684071604E-4   1.138739084126428E-3  
 2.496000000000000E10    7.165620627347380E-4   1.513410607003607E-3  
 2.498000000000000E10    1.398097330820747E-3   6.483905162895098E-4  
 2.500000000000000E10    3.986732626799494E-4  -2.496440010872902E-4  
 2.502000000000000E10   -6.367127352859825E-4   1.927405846799957E-4  
 2.504000000000000E10   -6.580755871254951E-4   1.037644018651918E-3  
 2.506000000000000E10   -2.547273743402911E-4   9.643069715821184E-4  
 2.508000000000000E10    5.982052607578225E-4   8.788927807472646E-4  
 2.510000000000000E10    1.287573422814603E-4  -1.075560103345197E-4  
 2.512000000000000E10    6.246207631193101E-4  -1.378478646074655E-4  
 2.514000000000000E10   -2.903872655224404E-5  -4.167431980022229E-4  
 2.516000000000000E10    3.690132798510604E-4   4.436039598658681E-4  
 2.518000000000000E10    2.768894300970715E-4   1.163712790003046E-3  
 2.520000000000000E10    1.127792434999719E-3   5.504164437297732E-4  
 2.522000000000000E10    1.044505799654871E-3   4.052001240779646E-4  
 2.524000000000000E10    6.756926377420314E-4  -3.652087725640740E-4  
 2.526000000000000E10    1.076643539477118E-5   1.225750784215052E-4  
 2.528000000000000E10   -2.096303596772486E-4  -4.884735562882270E-5  
 2.530000000000000E10    4.991982932551764E-4   8.104367880150676E-4  
 2.532000000000000E10    9.761385299498215E-4   1.829719967645360E-4  
 2.534000000000000E10    1.701264496659860E-3  -8.629069052403793E-4  
 2.536000000000000E10    2.050886450888356E-4  -1.269798303837888E-3  
 2.538000000000000E10   -5.105211312184110E-4  -4.804146810784005E-4  
 2.540000000000000E10    1.208213307108963E-4   7.530207512900233E-4  
 2.542000000000000E10    1.447447182727046E-3   9.674330431153067E-5  
 2.544000000000000E10    1.350771912257187E-3  -1.142068038461730E-3  
 2.546000000000000E10    1.679527013038751E-4  -1.513715353212319E-3  
 2.548000000000000E10   -1.335409888270078E-4  -7.509168608521577E-5  
 2.550000000000000E10   -1.882370961538982E-4  -6.772792112315074E-4  
 2.552000000000000E10    9.734538689372130E-4  -1.278049503525836E-4  
 2.554000000000000E10    8.299913461087272E-4  -4.094016439921688E-4  
 2.556000000000000E10    1.132791410782374E-3  -1.449151139240712E-3  
 2.558000000000000E10   -4.428535576153081E-4  -1.493193252827041E-3  
 2.560000000000000E10   -7.665241064387374E-4  -1.091870904019743E-4  
 2.562000000000000E10   -3.153075704176445E-4   1.788567369658267E-4  
 2.564000000000000E10    7.844568608561531E-4  -6.344442658701155E-5  
 2.566000000000000E10   -9.999243866332108E-5  -9.108712183660828E-4  
 2.568000000000000E10   -7.269750276464038E-4  -1.143792876973748E-3  
 2.570000000000000E10   -2.113159862346947E-4  -4.628026326827239E-4  
 2.572000000000000E10   -7.987646313267760E-4  -3.553546848706901E-4  
 2.574000000000000E10   -6.023897585691884E-4  -1.359075454274716E-4  
 2.576000000000000E10   -1.364185245620320E-4   6.479247167590074E-4  
 2.578000000000000E10    5.276645315461792E-4   3.977948035753798E-4  
 2.580000000000000E10   -7.102608142304234E-4  -9.547848603688180E-4  
 2.582000000000000E10   -1.379299632390030E-3  -5.647273719660007E-4  
 2.584000000000000E10   -1.761141713359393E-3   7.034249210846610E-4  
 2.586000000000000E10   -1.004106961772777E-4   9.002257138490677E-4  
 2.588000000000000E10    5.208811417105608E-4   3.943587216781452E-4  
 2.590000000000000E10   -1.152339173131622E-4  -2.082265746139456E-5  
 2.592000000000000E10   -6.482249737018719E-4  -6.614640597035759E-6  
 2.594000000000000E10   -2.899106675613439E-4   7.295775722013786E-4  
 2.596000000000000E10   -1.148025650763884E-3   1.136867882451043E-3  
 2.598000000000000E10    3.032226450159214E-4   1.302009433857165E-3  
 2.600000000000000E10    7.039972842903808E-4   1.255858049262315E-3  
 2.602000000000000E10   -2.170221137021144E-5  -1.117775391321629E-3  
 2.604000000000000E10   -1.102963200537488E-3   4.211688974464778E-4  
 2.606000000000000E10   -9.031758236233145E-4   1.131325276219286E-3  
 2.608000000000000E10    9.965866483980790E-4   1.274633512366563E-3  
 2.610000000000000E10    9.252539020963013E-4   3.147553470626008E-4  
 2.612000000000000E10    6.134295108495280E-4   4.306119649299944E-6  
 2.614000000000000E10   -3.590920787246432E-4   2.532597445679130E-4  
 2.616000000000000E10   -4.228824582241941E-5   3.237373493902851E-4  
 2.618000000000000E10   -4.186703517916612E-4   6.877176856505685E-4  
 2.620000000000000E10    9.960449824575335E-5   1.556236656341525E-4  
 2.622000000000000E10    1.085768482880667E-3   3.515936514304485E-4  
 2.624000000000000E10    5.116826287121512E-4  -6.346457448671572E-4  
 2.626000000000000E10    1.120490378525574E-4  -4.020888582090265E-5  
 2.628000000000000E10    6.167607830320776E-5  -4.350117305875756E-4  
 2.630000000000000E10    6.261284988795524E-5   9.177646206808277E-4  
 2.632000000000000E10    1.937451797857648E-4   3.680043555505108E-4  
 2.634000000000000E10    3.919888840755448E-4   6.074689154047519E-4  
 2.636000000000000E10   -1.319124212386669E-4  -6.358947066473775E-4  
 2.638000000000000E10   -1.573761519466643E-4  -2.149153424397809E-4  
 2.640000000000000E10   -1.360289723379538E-3  -5.752129186475941E-5  
 2.642000000000000E10   -4.268714656063821E-4   2.175842615770307E-5  
 2.644000000000000E10    5.238770609139465E-4   8.943508510128595E-4  
 2.646000000000000E10    1.528230524854735E-3  -1.042859774315730E-3  
 2.648000000000000E10    6.856405743747018E-4  -9.320725512225181E-4  
 2.650000000000000E10   -6.362859785440378E-4  -5.696225634892471E-4  
 2.652000000000000E10    4.040575768158305E-4   1.367320553981699E-3  
 2.654000000000000E10    4.298277381167281E-4   1.088668825104833E-3  
 2.656000000000000E10    1.400135704898275E-3   1.698487831163220E-4  
 2.658000000000000E10   -5.392285565903876E-4  -8.595848630648106E-4  
 2.660000000000000E10   -2.373686438659206E-4  -4.587506882671733E-4  
 2.662000000000000E10   -7.319949509110302E-4   5.543737711377617E-5  
 2.664000000000000E10    5.351008894649567E-5   2.727698229136877E-4  
 2.666000000000000E10    9.272925162804313E-4  -3.891109736287035E-5  
 2.668000000000000E10    1.614414970390499E-3  -8.949466136982665E-4  
 2.670000000000000E10    5.412573264038656E-4  -8.996493197628297E-4  
 2.672000000000000E10    4.051041400998656E-5  -3.385151758266147E-4  
 2.674000000000000E10    1.074139781849226E-4   5.719917462556623E-4  
 2.676000000000000E10    7.413007115246728E-4  -2.122219484590460E-4  
 2.678000000000000E10    8.236280918936245E-4   9.963471075025154E-5  
 2.680000000000000E10   -1.445762641196779E-4  -7.724963870714419E-4  
 2.682000000000000E10    3.614881643443368E-4  -9.391374187543988E-4  
 2.684000000000000E10   -1.020354471279461E-4  -4.967226486769505E-4  
 2.686000000000000E10   -4.097269174963003E-5  -5.822174862259999E-4  
 2.688000000000000E10   -1.926294953591423E-4   1.907019361624407E-5  
 2.690000000000000E10    1.493984091212042E-3  -9.813548012971296E-5  
 2.692000000000000E10    8.817936177365482E-4  -7.170350581873208E-4  
 2.694000000000000E10   -2.948738328996114E-4  -1.670084326178767E-3  
 2.696000000000000E10   -5.450772951007821E-4   5.860152232344262E-4  
 2.698000000000000E10   -2.086911918013357E-4   6.428123961086385E-4  
 2.700000000000000E10    5.205875277169980E-4   5.643344629788771E-4  
 2.702000000000000E10    1.591962536622305E-4  -4.916396028420422E-4  
 2.704000000000000E10   -1.893087155622197E-4  -5.171025622985326E-4  
 2.706000000000000E10   -1.316269990638830E-3  -1.306290287175216E-3  
 2.708000000000000E10   -6.403977167792618E-4   2.964457780763041E-4  
 2.710000000000000E10   -4.111514026590157E-4   1.002551856799983E-3  
 2.712000000000000E10    1.285909078433178E-3   2.365523123444291E-4  
 2.714000000000000E10    2.145180842489936E-4  -1.088913690182380E-3  
 2.716000000000000E10   -1.229922097991221E-3  -1.111599907744676E-3  
 2.718000000000000E10   -1.399760149070062E-3   1.293975059525110E-3  
 2.720000000000000E10   -3.146362723782659E-4   8.187842249753885E-4  
 2.722000000000000E10    4.235884589434136E-4   2.836031162587460E-4  
 2.724000000000000E10   -5.632259999401867E-4  -6.941312531125732E-4  
 2.726000000000000E10   -4.641228115360718E-4  -1.261935158254346E-4  
 2.728000000000000E10   -8.816690024104901E-4  -2.126476992998505E-4  
 2.730000000000000E10    3.022356650035363E-4   3.459876279521268E-4  
 2.732000000000000E10   -1.312981003138702E-4   5.674629646819085E-4  
 2.734000000000000E10    9.910758526530117E-4   2.997259434778243E-4  
 2.736000000000000E10   -9.729274916026043E-5   4.291244840715081E-4  
 2.738000000000000E10   -1.549717235320713E-4   2.984527382068336E-4  
 2.740000000000000E10   -2.643316183821298E-4   7.034391310298815E-4  
 2.742000000000000E10   -3.383432740520220E-4   2.176285051973537E-4  
 2.744000000000000E10   -3.013606219610665E-4   1.038344080370734E-4  
 2.746000000000000E10    1.332167207692692E-4   2.588972656667465E-4  
 2.748000000000000E10    5.698107197531499E-4   2.001982993533602E-4  
 2.750000000000000E10    4.317183702369221E-4  -6.313043559202924E-4  
 2.752000000000000E10   -3.201243234798312E-4  -3.576809285732452E-4  
 2.754000000000000E10   -8.521872077835724E-4   5.174311445443891E-4  
 2.756000000000000E10    3.334386638016440E-4   1.119235341320746E-3  
