#  HZ   S   RI   R     50.00 
! Rohde & Schwarz ZVA40 4Ports - Version 3.90 - 1145.1110k42 SN: 100403
! Date: 2023-10-04 06:56:09
! Measurement: S12 
! 
 2.200000000000000E10   -5.912813976465259E-4  -5.297699266293421E-5  
 2.202000000000000E10   -6.989215125940973E-4   1.008297233056510E-3  
 2.204000000000000E10   -1.157445974968141E-3   6.695663796563167E-4  
 2.206000000000000E10    9.854702493612422E-4   8.513379998476012E-4  
 2.208000000000000E10    5.461716342836098E-5  -1.832053170801373E-3  
 2.210000000000000E10   -1.617959962459281E-3  -1.970831472135615E-3  
 2.212000000000000E10   -2.475424662407022E-3   1.353219788143178E-3  
 2.214000000000000E10    1.636365683225449E-3   1.688320866378490E-3  
 2.216000000000000E10    2.348770452954341E-3  -9.472185884078499E-4  
 2.218000000000000E10   -2.587852973192639E-4  -2.041788880887907E-3  
 2.220000000000000E10   -1.852193399827229E-3   9.792881628527539E-4  
 2.222000000000000E10   -1.546227097151132E-4   1.167185437225271E-3  
 2.224000000000000E10    1.013164466712624E-3   8.921153203118593E-4  
 2.226000000000000E10   -5.729538170271553E-4   3.767474288451922E-5  
 2.228000000000000E10    2.150975115000620E-4  -4.851423918807996E-4  
 2.230000000000000E10   -3.483187001620536E-4  -1.092760488972999E-3  
 2.232000000000000E10   -8.298754582938273E-4  -6.252963303268189E-4  
 2.234000000000000E10   -5.867252639291110E-4   7.130413414415671E-4  
 2.236000000000000E10    1.399659762682859E-3  -3.316195961815538E-4  
 2.238000000000000E10    9.994307947636116E-4  -4.710229432021151E-4  
 2.240000000000000E10   -9.088132464967202E-4  -1.083715680579189E-3  
 2.242000000000000E10    3.737592678589863E-4   1.397753483615816E-3  
 2.244000000000000E10    4.690917535299377E-5  -5.769796280219453E-5  
 2.246000000000000E10    1.558120227400650E-4  -5.539079174923245E-4  
 2.248000000000000E10   -1.978424756089225E-3   1.004883068162599E-3  
 2.250000000000000E10   -2.978539459945750E-4   7.017652369540883E-4  
 2.252000000000000E10    2.896767673519207E-4  -3.898276481777430E-4  
 2.254000000000000E10    8.404394588978903E-5  -1.312072141445242E-3  
 2.256000000000000E10   -1.109860306314658E-3  -3.482968440948753E-4  
 2.258000000000000E10   -5.208338043303229E-4   4.881889435637277E-4  
 2.260000000000000E10    8.992322600533953E-4   1.246344843821134E-3  
 2.262000000000000E10    4.510025373747340E-4   7.105020140443230E-4  
 2.264000000000000E10    8.555365566280671E-4  -6.003258687314883E-5  
 2.266000000000000E10   -5.979028192086844E-4  -1.166320853371872E-4  
 2.268000000000000E10   -8.937223174143583E-4   4.252746357451542E-4  
 2.270000000000000E10   -7.943937343952712E-4   1.803342864150181E-3  
 2.272000000000000E10    1.385611285513733E-3   9.574896776030073E-4  
 2.274000000000000E10    1.507203171058791E-3  -4.935682982250000E-4  
 2.276000000000000E10   -3.306905559838924E-4  -1.886871898022946E-3  
 2.278000000000000E10   -9.441915026400238E-4   9.708680881885812E-4  
 2.280000000000000E10    5.403797167673474E-4   1.506509452156024E-3  
 2.282000000000000E10    1.038044523738790E-3   2.019355179072591E-3  
 2.284000000000000E10    9.263243537134258E-4  -2.878951245293138E-4  
 2.286000000000000E10    3.906850879502599E-4  -7.851582940929802E-4  
 2.288000000000000E10   -1.386135470966110E-3   1.496530021540821E-4  
 2.290000000000000E10   -8.309178811032325E-4  -3.230874582982324E-5  
 2.292000000000000E10    2.012885420299426E-4   2.394346038272488E-4  
 2.294000000000000E10    1.140117219620151E-3  -1.753837495925836E-4  
 2.296000000000000E10    6.809398146288004E-4  -1.862159839220112E-3  
 2.298000000000000E10   -5.745700382249197E-4  -9.587076929165050E-4  
 2.300000000000000E10   -3.318481890346448E-4   6.966831415411434E-5  
 2.302000000000000E10    3.470818837740808E-4   3.060954786633374E-4  
 2.304000000000000E10    3.335331393827801E-4   2.828553851941251E-4  
 2.306000000000000E10   -1.531727862129628E-4   1.385730544711805E-5  
 2.308000000000000E10   -9.210659311520431E-5   1.734029115141311E-4  
 2.310000000000000E10   -9.508375551376957E-4  -7.787546564941295E-5  
 2.312000000000000E10   -1.165235273219878E-3  -3.843713457172271E-4  
 2.314000000000000E10   -8.450468230876140E-4   1.075265719919116E-3  
 2.316000000000000E10    2.998733234562678E-4   9.550693775963737E-4  
 2.318000000000000E10    3.834649842247018E-4  -6.039703184796963E-4  
 2.320000000000000E10    1.331633905010676E-4  -6.612654633499915E-4  
 2.322000000000000E10   -8.890115750546102E-4   1.816817763256040E-5  
 2.324000000000000E10   -4.466778200367116E-4   4.949370995745994E-4  
 2.326000000000000E10   -3.420500434003770E-6   9.828437960095471E-4  
 2.328000000000000E10    1.677413420111407E-4   5.430092987808166E-4  
 2.330000000000000E10    1.363640942145139E-3  -7.626471033290727E-4  
 2.332000000000000E10   -2.655948846950196E-4  -1.137734700023430E-3  
 2.334000000000000E10   -1.191723458759952E-3  -1.105081182686263E-4  
 2.336000000000000E10   -3.613249059526424E-4   1.181035378976958E-3  
 2.338000000000000E10    1.333088850515196E-3   8.544530428480357E-4  
 2.340000000000000E10    8.636340826342348E-4  -6.386004952219082E-4  
 2.342000000000000E10    4.833433547446475E-5  -1.266532919544261E-3  
 2.344000000000000E10   -1.347868306766031E-3  -4.195720985080698E-4  
 2.346000000000000E10   -7.226775160233956E-4  -1.636319257158903E-4  
 2.348000000000000E10    4.150035574639333E-4   1.215144820889691E-4  
 2.350000000000000E10    6.415143980120774E-4  -2.687111737031955E-5  
 2.352000000000000E10    2.338427580070857E-4  -1.036757774272701E-3  
 2.354000000000000E10   -1.583571252012916E-4  -1.258873253391357E-3  
 2.356000000000000E10   -1.382374040986178E-3   4.601326691044960E-4  
 2.358000000000000E10   -6.742141849827021E-4   9.217657006956870E-4  
 2.360000000000000E10    5.365948272810783E-4   3.475983276075567E-4  
 2.362000000000000E10    2.380083446951176E-5  -5.603588688245509E-4  
 2.364000000000000E10   -6.231109564396320E-4  -8.881050998752471E-4  
 2.366000000000000E10   -8.931602205848321E-4  -2.069694041892944E-4  
 2.368000000000000E10   -9.411171067768009E-4  -4.653510377465864E-4  
 2.370000000000000E10   -9.908806612202170E-5   5.883179655938875E-4  
 2.372000000000000E10    5.904044319322566E-4   6.820637827331666E-4  
 2.374000000000000E10    9.395695851708297E-4  -1.101166683383781E-4  
 2.376000000000000E10    9.268530152439780E-5  -9.952915534086060E-4  
 2.378000000000000E10   -1.212191789818462E-3   5.010981058148900E-4  
 2.380000000000000E10   -1.230179452250013E-3   8.676127399667166E-4  
 2.382000000000000E10   -6.467045187719123E-5   1.256398511031875E-3  
 2.384000000000000E10    1.693834851721476E-4   3.534021749374006E-5  
 2.386000000000000E10    6.303569762167172E-5  -9.216937633027555E-4  
 2.388000000000000E10   -1.294150319154142E-3  -1.166459383966867E-3  
 2.390000000000000E10   -1.376730593619868E-3  -2.414655350548856E-4  
 2.392000000000000E10   -4.715576906164642E-4   9.919160911522340E-4  
 2.394000000000000E10    1.254690036148531E-3   5.820070055051474E-4  
 2.396000000000000E10    1.115132898121374E-3  -8.838369976729155E-4  
 2.398000000000000E10   -4.323030461819144E-4  -1.422469635144807E-3  
 2.400000000000000E10   -7.882161316956626E-4   5.865380771865603E-4  
 2.402000000000000E10   -8.328424573846860E-4   1.200912040076219E-3  
 2.404000000000000E10    4.275250093996874E-4   7.649046401638771E-4  
 2.406000000000000E10    5.453056371607090E-5   1.527672432075633E-4  
 2.408000000000000E10   -3.883229140910771E-5  -7.266459033417050E-4  
 2.410000000000000E10   -1.430816195352236E-3   3.091988764936104E-5  
 2.412000000000000E10   -1.013187946227845E-3  -3.057853582504322E-4  
 2.414000000000000E10    7.951558848162676E-5   1.037447262206115E-3  
 2.416000000000000E10    5.762144373875344E-4   1.848536785473698E-4  
 2.418000000000000E10    4.659473306674045E-4  -3.245178140787175E-4  
 2.420000000000000E10   -1.734261049932684E-4  -4.012033905382850E-4  
 2.422000000000000E10    2.437363058760411E-5   6.678414883936057E-4  
 2.424000000000000E10   -3.173717686877353E-4   8.678225858602673E-4  
 2.426000000000000E10   -4.376333818072453E-4   1.025025676426594E-3  
 2.428000000000000E10    2.947254197351867E-4   1.148110590293072E-3  
 2.430000000000000E10    7.851766622479772E-4   7.290312061059012E-5  
 2.432000000000000E10    5.272388864341338E-5  -7.613996276631951E-4  
 2.434000000000000E10   -7.125060637918068E-4  -3.131629628114752E-4  
 2.436000000000000E10   -9.238740312866867E-5   9.401880779478233E-4  
 2.438000000000000E10    8.117556244542357E-4   2.566399284660292E-4  
 2.440000000000000E10    1.563884306960972E-3   6.281812034103496E-5  
 2.442000000000000E10    1.061584323906573E-3  -3.374593425178318E-4  
 2.444000000000000E10    3.182250211466453E-4  -3.694923025250319E-4  
 2.446000000000000E10   -4.601495384122245E-4   3.159088341817551E-4  
 2.448000000000000E10   -4.647767136702896E-4   1.557860134198563E-3  
 2.450000000000000E10    1.209461464895867E-3   1.295285564992810E-3  
 2.452000000000000E10    1.436521473806351E-3  -7.189039915829198E-4  
 2.454000000000000E10    6.549230280938900E-5  -2.183717064326629E-3  
 2.456000000000000E10   -1.024191882606829E-3  -1.043989090248942E-3  
 2.458000000000000E10   -3.192082340319757E-4   5.965605414530728E-4  
 2.460000000000000E10    1.494345913670259E-3   4.411791423990508E-4  
 2.462000000000000E10    1.843383673985954E-3  -6.700391750200652E-4  
 2.464000000000000E10    1.055881893989863E-3  -9.203012523357756E-4  
 2.466000000000000E10   -7.497081714973319E-4  -8.624941274320008E-4  
 2.468000000000000E10   -7.184177666204050E-4   3.271537880209507E-4  
 2.470000000000000E10   -2.267036402372469E-4   1.170565410575364E-3  
 2.472000000000000E10    6.364563196257222E-4   1.662465538174729E-4  
 2.474000000000000E10    5.706605661544018E-4  -1.085195399355143E-3  
 2.476000000000000E10   -8.314066089951666E-4  -1.660995960264700E-3  
 2.478000000000000E10   -9.622507295716787E-4  -7.871680518292124E-4  
 2.480000000000000E10   -2.800555066642119E-4   1.334523099103535E-4  
 2.482000000000000E10    4.640288207156118E-4  -1.237598339685064E-4  
 2.484000000000000E10    3.403776481718523E-4  -7.488077972084284E-4  
 2.486000000000000E10    3.759380279007019E-4  -5.528686706384178E-4  
 2.488000000000000E10   -4.135430472160806E-4  -7.531371156801470E-4  
 2.490000000000000E10   -6.667296056548366E-4  -9.384016584590427E-5  
 2.492000000000000E10   -8.088220638455823E-4   3.647749681476853E-4  
 2.494000000000000E10   -6.362304011418019E-4   8.064389862738608E-5  
 2.496000000000000E10   -6.131838272267487E-4  -3.766241297853412E-4  
 2.498000000000000E10    1.159434946202964E-4  -7.700055830355268E-4  
 2.500000000000000E10   -7.473462574125733E-4  -1.281625565752620E-3  
 2.502000000000000E10   -1.080503814591793E-3  -5.306690054567298E-4  
 2.504000000000000E10   -5.054680223111063E-4   4.668753535952419E-4  
 2.506000000000000E10    4.564715291053290E-4   3.007780924235703E-4  
 2.508000000000000E10    1.280209420656320E-3   2.943953004432842E-4  
 2.510000000000000E10   -7.891876739449799E-4  -6.290941273618955E-4  
 2.512000000000000E10   -7.501077088818420E-4   2.418793183096568E-4  
 2.514000000000000E10   -1.542336620332208E-3   1.267446910787839E-3  
 2.516000000000000E10   -2.882386415876681E-4   1.184765911602881E-3  
 2.518000000000000E10    5.005038001399953E-4   3.228709538234398E-4  
 2.520000000000000E10    1.804128614821821E-4  -1.188092806842178E-3  
 2.522000000000000E10   -9.444298084417824E-4  -1.126663126342464E-3  
 2.524000000000000E10   -1.591577551153023E-3   1.416790619259700E-4  
 2.526000000000000E10    1.190975294775853E-4   1.682275338680483E-3  
 2.528000000000000E10    1.184724613267463E-3   4.619527571776416E-4  
 2.530000000000000E10    1.017705566482619E-3   1.109751856347430E-4  
 2.532000000000000E10   -8.670983952470124E-4   2.209312378909090E-4  
 2.534000000000000E10   -4.177355840511154E-4   8.429755253018811E-4  
 2.536000000000000E10   -5.170389686099952E-4   1.334333232080098E-3  
 2.538000000000000E10   -7.623409783263924E-5   1.040413968439680E-3  
 2.540000000000000E10    5.196702331886627E-4   3.914675539817836E-5  
 2.542000000000000E10    3.180362291459460E-4  -3.430454444242059E-4  
 2.544000000000000E10   -2.837500605892274E-4  -6.328823146759532E-4  
 2.546000000000000E10    2.450972237966198E-5  -4.481341807149875E-5  
 2.548000000000000E10    8.609973629063461E-4   7.532365525548812E-4  
 2.550000000000000E10    6.704301813442726E-4   4.906304275209550E-4  
 2.552000000000000E10    1.190736853459384E-3   7.616184666403569E-4  
 2.554000000000000E10    1.004043933789944E-4   4.515176933637122E-4  
 2.556000000000000E10    3.473128081168397E-4   2.237167909697746E-4  
 2.558000000000000E10   -1.020201671053655E-3   4.084808479092317E-4  
 2.560000000000000E10   -7.200576692412142E-4   8.989838242996484E-4  
 2.562000000000000E10    2.518837445677491E-4   8.032208825170528E-4  
 2.564000000000000E10    1.656506407016423E-3  -4.718047912319889E-4  
 2.566000000000000E10    4.001321321993601E-4  -1.102188660297543E-3  
 2.568000000000000E10   -2.821875386871398E-4  -5.327715552994050E-4  
 2.570000000000000E10    4.712684622063534E-4   1.007376358757028E-3  
 2.572000000000000E10    7.952971027407330E-4   1.043049225700088E-3  
 2.574000000000000E10    1.492625167884398E-3  -6.164494473637205E-5  
 2.576000000000000E10    4.021358181489632E-4  -3.459578329056967E-4  
 2.578000000000000E10   -4.247447523084702E-4  -8.669375783938449E-4  
 2.580000000000000E10   -8.327393043146003E-4  -2.410236271543909E-5  
 2.582000000000000E10   -2.295387585036224E-4   4.828175697184634E-4  
 2.584000000000000E10    9.478404244873673E-4  -2.282162295159651E-4  
 2.586000000000000E10    1.094047831429634E-3  -1.247886939381715E-3  
 2.588000000000000E10   -4.205989516776754E-4  -1.455811056075618E-3  
 2.590000000000000E10   -7.590137465740554E-4  -2.496064234946971E-4  
 2.592000000000000E10    2.992783720401349E-5   6.477565912064165E-4  
 2.594000000000000E10    8.425441628787667E-4   9.145645890384913E-5  
 2.596000000000000E10    3.092469960392918E-4  -4.251569025655044E-4  
 2.598000000000000E10   -2.203535887019825E-4  -8.255966058641207E-4  
 2.600000000000000E10   -9.249071954400279E-4  -2.598420778667787E-4  
 2.602000000000000E10   -7.183389534475282E-4  -4.233670297253411E-4  
 2.604000000000000E10   -2.126993867932470E-4  -8.522751659256755E-5  
 2.606000000000000E10   -4.932190986437490E-4  -2.771923882392002E-4  
 2.608000000000000E10    2.775109587673796E-4  -4.602123817676329E-5  
 2.610000000000000E10    1.216540495079244E-4  -4.550701305561233E-4  
 2.612000000000000E10   -7.541065715486184E-4  -8.701830520294607E-4  
 2.614000000000000E10   -9.382663301948924E-4  -1.312658605456818E-5  
 2.616000000000000E10   -5.119332166714230E-5   8.772951405262575E-4  
 2.618000000000000E10   -2.462312904754072E-4   2.367884235354723E-4  
 2.620000000000000E10    3.778901300393045E-4  -1.899844119179761E-4  
 2.622000000000000E10   -9.156872056337306E-5  -8.654348766867770E-5  
 2.624000000000000E10   -6.983284365560394E-4  -7.068448649079073E-4  
 2.626000000000000E10   -9.569657195243053E-4   5.677474036929198E-4  
 2.628000000000000E10   -5.254655770841055E-4   4.380101836432004E-4  
 2.630000000000000E10    1.396217470755801E-3   6.863535163574852E-4  
 2.632000000000000E10    6.660339859081432E-4  -1.322822950896807E-3  
 2.634000000000000E10   -2.153714267478790E-4  -9.397361791343428E-4  
 2.636000000000000E10   -1.110983321268577E-3   3.395351959625259E-4  
 2.638000000000000E10    1.792782595657627E-4   1.143431727541611E-3  
 2.640000000000000E10    2.450096999382367E-4   7.378520240308717E-4  
 2.642000000000000E10    9.299580888182391E-4  -5.134871244081296E-4  
 2.644000000000000E10   -5.403993818617892E-4  -1.551438754177070E-4  
 2.646000000000000E10   -1.003006367682247E-3  -5.708139688067604E-4  
 2.648000000000000E10   -4.323353787185624E-4   3.515108419378521E-4  
 2.650000000000000E10   -2.513698391339858E-4   6.042653585609514E-4  
 2.652000000000000E10    5.176809536351357E-4  -8.032862183426914E-5  
 2.654000000000000E10    7.135092346288730E-4  -7.088857419148553E-4  
 2.656000000000000E10    3.966241828834427E-5  -1.327606923950953E-4  
 2.658000000000000E10   -1.239918768987991E-3   1.866036827777862E-4  
 2.660000000000000E10    4.429374416758947E-5   1.549597553093918E-3  
 2.662000000000000E10   -3.363006690051407E-4   1.096019936085213E-3  
 2.664000000000000E10    1.482832412875723E-4   2.577505010776804E-4  
 2.666000000000000E10   -7.537472993135452E-4   3.892510012519779E-4  
 2.668000000000000E10   -7.366677564277779E-4  -1.462084192098700E-4  
 2.670000000000000E10   -7.903914738562889E-4   1.774865340848919E-4  
 2.672000000000000E10   -2.215687345596962E-4   7.827551307855174E-4  
 2.674000000000000E10    4.078896399732912E-4   1.306613441556692E-3  
 2.676000000000000E10    1.246765117684845E-3   4.487554747356626E-5  
 2.678000000000000E10    4.525102376646828E-4   1.561758117532008E-4  
 2.680000000000000E10   -1.109202057705261E-3   3.194364689989016E-4  
 2.682000000000000E10   -4.177532755420543E-4   1.871912783826701E-3  
 2.684000000000000E10    3.277988398622256E-4   1.693474587227684E-3  
 2.686000000000000E10    5.921565207245294E-4   4.540100489975885E-4  
 2.688000000000000E10   -2.743967088463251E-4  -2.343084915992222E-4  
 2.690000000000000E10    2.708720103328233E-4  -6.191758257045876E-4  
 2.692000000000000E10   -1.425722120984574E-4   3.375440592208179E-4  
 2.694000000000000E10    5.381402515922673E-4   4.998306430934463E-4  
 2.696000000000000E10    1.214482785144355E-3   1.508226087025832E-3  
 2.698000000000000E10    1.181360872578807E-3  -7.915425248938846E-5  
 2.700000000000000E10    5.878591837245040E-4  -5.201548577815629E-5  
 2.702000000000000E10   -7.026317216514144E-4  -4.742788805742748E-4  
 2.704000000000000E10    2.703782604385197E-5   1.252999900316354E-3  
 2.706000000000000E10    3.031503838428762E-4   5.527159737539478E-4  
 2.708000000000000E10    8.155370160238817E-4  -7.981169510458130E-4  
 2.710000000000000E10   -9.303025581175461E-5  -1.214559299114626E-3  
 2.712000000000000E10    2.674747429409763E-4  -4.466627324291039E-4  
 2.714000000000000E10   -1.415142296536942E-4  -4.421462035679724E-4  
 2.716000000000000E10    2.856590699593653E-4  -5.506214620254468E-4  
 2.718000000000000E10    2.261740928588552E-4   2.923943411587970E-4  
 2.720000000000000E10    7.850360525480937E-4  -1.029275699693244E-4  
 2.722000000000000E10    4.594909551087767E-4  -7.924065102997702E-4  
 2.724000000000000E10   -5.688812670996413E-4  -1.213298666698393E-3  
 2.726000000000000E10   -5.971198770566844E-4   2.930043865490006E-4  
 2.728000000000000E10   -6.232030209503137E-4  -3.520034915709402E-4  
 2.730000000000000E10    6.994372342887800E-4  -4.099492725799792E-4  
 2.732000000000000E10   -3.837140229734359E-4  -7.003305909165647E-4  
 2.734000000000000E10    6.843889896117616E-4  -6.119870377006009E-4  
 2.736000000000000E10   -7.549809561169241E-4  -7.097947272995953E-4  
 2.738000000000000E10   -1.040818402543664E-3  -3.473793331068009E-4  
 2.740000000000000E10   -4.344199678598670E-4   1.433005520084407E-3  
 2.742000000000000E10    8.726508131076116E-4   1.344788825008436E-4  
 2.744000000000000E10    3.828662684099982E-4  -7.895656235632487E-4  
 2.746000000000000E10   -1.195048527733889E-3  -1.016120135318488E-3  
 2.748000000000000E10   -1.588979386724532E-3   6.119989193393849E-4  
 2.750000000000000E10   -2.507454100850737E-4   5.528869260160718E-4  
 2.752000000000000E10    6.975085270823911E-4   5.568578690144932E-4  
 2.754000000000000E10    1.306883700635808E-4  -7.196046681201551E-4  
 2.756000000000000E10   -2.909189606725704E-4  -5.020441494707484E-4  
