#  HZ   S   RI   R     50.00 
! Rohde & Schwarz ZVA40 4Ports - Version 3.90 - 1145.1110k42 SN: 100403
! Date: 2023-10-04 06:55:42
! Measurement: S12 
! 
 2.200000000000000E10    4.210384950056323E-4  -6.224140224730945E-5  
 2.202000000000000E10    6.180109994602390E-4  -1.479613645642530E-3  
 2.204000000000000E10   -3.750454998225905E-4  -9.767593983269762E-4  
 2.206000000000000E10   -3.438874489347654E-5  -4.137152209295891E-4  
 2.208000000000000E10    3.762282030947972E-4  -1.195224285766017E-6  
 2.210000000000000E10    5.710016353077663E-5  -8.687765766808298E-4  
 2.212000000000000E10   -3.470187257335056E-4   3.195567041984759E-4  
 2.214000000000000E10   -4.048146047352930E-4   2.431670163787203E-4  
 2.216000000000000E10   -5.814788764837431E-4  -5.403302793638432E-5  
 2.218000000000000E10   -6.467632147177937E-5  -3.444632930040825E-4  
 2.220000000000000E10    2.237401048432730E-5  -9.611077530280454E-5  
 2.222000000000000E10   -1.863969221176376E-4  -5.290386470733210E-4  
 2.224000000000000E10   -3.107938464381732E-4  -9.920130059981602E-5  
 2.226000000000000E10   -4.422593647177564E-4   1.116334664402530E-3  
 2.228000000000000E10    1.351615697785746E-3   8.309049153467640E-4  
 2.230000000000000E10    1.159696985268965E-3  -3.062719833906158E-4  
 2.232000000000000E10   -8.413630930590443E-4  -1.652544851822313E-3  
 2.234000000000000E10   -1.828484491852578E-3   7.739190914435312E-4  
 2.236000000000000E10    1.810849144021631E-4   1.954166451469064E-3  
 2.238000000000000E10    1.743339453241788E-3   4.554781808110420E-4  
 2.240000000000000E10    8.613335812697187E-4  -1.707800591248088E-3  
 2.242000000000000E10   -7.012870046310127E-4  -8.154094757628627E-4  
 2.244000000000000E10   -9.419647831236944E-4   3.183095723215956E-4  
 2.246000000000000E10    1.062109257645716E-4   7.312267043744214E-4  
 2.248000000000000E10    7.687562938372139E-4   9.125373617280275E-4  
 2.250000000000000E10    1.320288014539983E-3  -8.546114913769998E-4  
 2.252000000000000E10   -2.431084012641804E-4  -1.368911594909150E-3  
 2.254000000000000E10   -1.502130624430720E-3  -8.002719805517700E-4  
 2.256000000000000E10   -1.214999945659656E-3   9.689432336017489E-4  
 2.258000000000000E10    1.293225825065747E-3   5.799050277346396E-4  
 2.260000000000000E10    1.315075765887741E-3  -9.522547770757228E-4  
 2.262000000000000E10   -2.879296516766772E-4  -1.606277706741821E-3  
 2.264000000000000E10   -4.819621062779333E-4  -4.788647083842079E-5  
 2.266000000000000E10   -1.155312720584334E-4   4.207720276099281E-4  
 2.268000000000000E10    3.338017195346765E-4   3.255231649745838E-4  
 2.270000000000000E10    1.443952223780798E-4   5.291437737469096E-4  
 2.272000000000000E10   -9.236566938852775E-5  -6.805357406847179E-4  
 2.274000000000000E10   -6.225743745744694E-4   9.446095350540418E-5  
 2.276000000000000E10   -9.030879882629961E-4   1.654880091135347E-4  
 2.278000000000000E10   -7.603918202221394E-4   3.961947416541989E-5  
 2.280000000000000E10   -2.901768402807647E-4  -1.917622107612260E-4  
 2.282000000000000E10   -5.495489422173705E-4   4.897815088042989E-4  
 2.284000000000000E10    3.549401699274313E-4   2.521773376429337E-5  
 2.286000000000000E10    7.002028723945841E-4  -1.762080385105946E-4  
 2.288000000000000E10    1.972213749468210E-5  -3.521862763591344E-4  
 2.290000000000000E10   -2.645225999913237E-4   1.939953544933815E-4  
 2.292000000000000E10   -6.007909614709206E-4   1.611293570022099E-3  
 2.294000000000000E10    1.058115216437727E-3   9.239288483513519E-4  
 2.296000000000000E10    1.013978839182528E-3  -6.409767302102409E-4  
 2.298000000000000E10   -1.988750016153063E-4  -1.432866323739290E-3  
 2.300000000000000E10   -1.163266853836831E-3  -2.654655022524821E-4  
 2.302000000000000E10   -1.349573740299093E-4   5.229334292380372E-4  
 2.304000000000000E10    1.363200753985439E-3   8.418526122113690E-4  
 2.306000000000000E10    1.164757442893460E-3  -6.970149843255058E-4  
 2.308000000000000E10    8.740459888940677E-4  -1.332650848780759E-3  
 2.310000000000000E10   -6.815822889620904E-4  -3.461146679910598E-4  
 2.312000000000000E10   -8.361049331142567E-4   5.175183941901196E-4  
 2.314000000000000E10    1.026334774678617E-4   1.441541418898851E-3  
 2.316000000000000E10    1.401724162860774E-3  -1.359883781333338E-4  
 2.318000000000000E10   -1.293789799774459E-4  -2.009128831559792E-3  
 2.320000000000000E10   -1.201009647047613E-3  -1.161649546702392E-3  
 2.322000000000000E10   -1.467812842747662E-3   2.454772592841437E-4  
 2.324000000000000E10    6.438021700887475E-4   1.689940245341859E-4  
 2.326000000000000E10    1.113459493353730E-3   1.003421898531087E-4  
 2.328000000000000E10    4.640027746063424E-4  -5.420738598331809E-4  
 2.330000000000000E10    2.233131044704351E-5  -5.059265768068144E-4  
 2.332000000000000E10   -7.143734219425824E-4   6.131650752649875E-5  
 2.334000000000000E10   -6.787389829696622E-4   6.792250642320141E-4  
 2.336000000000000E10   -2.414727453015075E-5   8.609666401753202E-4  
 2.338000000000000E10    5.271930094750132E-4  -1.428444080602276E-4  
 2.340000000000000E10   -2.014586848417821E-4  -9.252106538042426E-4  
 2.342000000000000E10   -3.550054925653967E-4  -1.038097805576399E-3  
 2.344000000000000E10   -6.016277984599583E-5   3.804769839916844E-4  
 2.346000000000000E10    2.881070959119825E-4  -1.579420582231705E-5  
 2.348000000000000E10    5.011320135963615E-4   6.692464667139575E-4  
 2.350000000000000E10    9.480061744397972E-4   2.541445503538853E-4  
 2.352000000000000E10    4.364547130535357E-4  -2.190083549749033E-4  
 2.354000000000000E10   -1.113496437028516E-3  -8.195370028261095E-4  
 2.356000000000000E10   -8.994159725261852E-4   3.621227042458486E-4  
 2.358000000000000E10   -2.841572313627694E-4   6.342838096315973E-4  
 2.360000000000000E10    1.315446388616692E-3   1.717723393994675E-4  
 2.362000000000000E10    7.489950276067248E-4  -1.017001330183120E-3  
 2.364000000000000E10    1.647702811169438E-4  -1.070750346116256E-3  
 2.366000000000000E10   -8.349318813998252E-4   3.881726188410539E-4  
 2.368000000000000E10    2.192295260670107E-4   1.400747765728738E-3  
 2.370000000000000E10    4.111241687496658E-4   1.121233384765219E-3  
 2.372000000000000E10    4.408417044032831E-4   9.382862413076509E-5  
 2.374000000000000E10   -1.317191490670666E-4  -1.205380569444969E-3  
 2.376000000000000E10   -1.363841685815714E-3  -5.814745818497613E-4  
 2.378000000000000E10   -8.281368609459605E-4   1.851484430517303E-4  
 2.380000000000000E10    1.289859774260549E-4  -4.721691720988019E-5  
 2.382000000000000E10    1.456175385101233E-3  -1.953454204794980E-4  
 2.384000000000000E10    1.180922903586179E-3  -7.998201836016960E-4  
 2.386000000000000E10    7.604664824611973E-4  -8.658576771267690E-4  
 2.388000000000000E10   -1.560304694976367E-4   5.068651153123938E-4  
 2.390000000000000E10   -2.425637933356484E-4   1.144189431215636E-3  
 2.392000000000000E10    4.186920323263621E-4   1.202627296152059E-3  
 2.394000000000000E10    4.854387880186550E-4   1.010176497402426E-4  
 2.396000000000000E10   -1.465279360672867E-4  -9.443908929824829E-4  
 2.398000000000000E10   -6.787065503885970E-4  -1.221983751747757E-3  
 2.400000000000000E10   -8.412031129410025E-4  -8.079393464868190E-4  
 2.402000000000000E10    3.184555389452726E-4  -4.547152748273220E-4  
 2.404000000000000E10    1.498446748882998E-3  -4.351711413619341E-4  
 2.406000000000000E10    1.297853130381554E-3  -8.655892852402758E-4  
 2.408000000000000E10    9.382041171193123E-4  -9.880508368951269E-4  
 2.410000000000000E10   -3.998659431090346E-4  -2.799542417051271E-4  
 2.412000000000000E10   -5.703356891899603E-4   9.888956192298792E-4  
 2.414000000000000E10   -1.830896028423013E-4   1.159617346274899E-3  
 2.416000000000000E10    5.827354543725960E-4  -2.698493062780472E-5  
 2.418000000000000E10   -3.687133612402249E-4  -1.248714193934575E-3  
 2.420000000000000E10   -9.791527918423526E-4  -1.652166363783181E-3  
 2.422000000000000E10   -1.322082389378920E-3   1.146124661772774E-4  
 2.424000000000000E10   -2.520904399716528E-5  -1.282309631278622E-4  
 2.426000000000000E10    1.324129472777713E-3   1.386112917316495E-4  
 2.428000000000000E10    1.022508240566822E-3  -6.618642546527553E-4  
 2.430000000000000E10   -8.456909421283854E-5  -7.508352282457054E-4  
 2.432000000000000E10   -1.664982046349905E-3  -1.560713196795405E-4  
 2.434000000000000E10   -1.133134974224959E-3   1.394964674545918E-3  
 2.436000000000000E10   -3.011959015566390E-4   1.605239856871776E-3  
 2.438000000000000E10    3.930676757590845E-4   3.252214773965534E-4  
 2.440000000000000E10   -8.521779709553812E-4  -1.482710584241431E-3  
 2.442000000000000E10   -1.774868178472389E-3  -6.445738290494774E-4  
 2.444000000000000E10   -6.634673336520791E-4   7.613001325808000E-4  
 2.446000000000000E10    1.032174200190639E-4   3.728021292772610E-4  
 2.448000000000000E10    4.137554224143969E-4   2.783077416097513E-4  
 2.450000000000000E10    1.087079239368904E-3   3.660863612822141E-4  
 2.452000000000000E10    4.539171059150249E-4   3.759539922612021E-4  
 2.454000000000000E10   -7.490222560591064E-4   5.125067164044594E-4  
 2.456000000000000E10   -5.171106167836115E-4   1.544110789836850E-3  
 2.458000000000000E10   -3.297906241641613E-4   1.456402824260294E-3  
 2.460000000000000E10    4.943179010297172E-4   6.467969033110421E-4  
 2.462000000000000E10   -6.543530844282941E-5  -1.077341348718619E-4  
 2.464000000000000E10    1.575022198352372E-5  -4.063542637595674E-4  
 2.466000000000000E10   -1.753862343321089E-4  -1.612149208085612E-5  
 2.468000000000000E10    2.014964193222113E-4   3.252857095503714E-5  
 2.470000000000000E10    3.828301669273060E-4   1.063180439814460E-3  
 2.472000000000000E10    1.682990994595457E-3   7.383181873592548E-4  
 2.474000000000000E10    1.348656958725769E-3  -1.313179070621118E-4  
 2.476000000000000E10   -2.437020757497521E-4  -1.465368914068677E-4  
 2.478000000000000E10   -1.151380565715954E-3   6.793480424676091E-4  
 2.480000000000000E10   -1.213692412420642E-4   1.068714911525603E-3  
 2.482000000000000E10    7.601238976349123E-4   3.411204361327691E-4  
 2.484000000000000E10    1.012698747217655E-3  -1.125841117755044E-3  
 2.486000000000000E10    2.790949110931251E-4  -1.579953059263062E-3  
 2.488000000000000E10   -5.891213222639635E-4  -7.439993169100490E-4  
 2.490000000000000E10    2.120109977568063E-4   6.538033394463128E-4  
 2.492000000000000E10    1.103477283322718E-3   8.755335038586054E-4  
 2.494000000000000E10    1.857366289186757E-3  -3.287122835899936E-4  
 2.496000000000000E10    1.831967024372716E-4  -8.294264189316891E-4  
 2.498000000000000E10   -7.418999957735650E-4  -6.541632392327301E-4  
 2.500000000000000E10   -1.136455917730928E-3   6.279145345615689E-4  
 2.502000000000000E10    1.521502715604584E-4   5.829303445352707E-4  
 2.504000000000000E10    7.879944496380631E-4  -2.067612804239616E-4  
 2.506000000000000E10    1.626823641345254E-4  -1.645060103328433E-3  
 2.508000000000000E10   -2.085290079776314E-4  -1.133721856604097E-3  
 2.510000000000000E10   -8.181589873856865E-4  -2.255680865346221E-4  
 2.512000000000000E10    5.933098309469642E-4   5.056318732385989E-4  
 2.514000000000000E10    5.737774754379643E-4   3.274671771578142E-4  
 2.516000000000000E10    3.235625399611308E-4  -6.840384185125004E-5  
 2.518000000000000E10   -7.114046275091823E-5  -9.232411684934050E-6  
 2.520000000000000E10   -3.199280308763264E-4  -3.769783552343142E-4  
 2.522000000000000E10   -7.365958044829313E-4  -6.619789496653539E-5  
 2.524000000000000E10   -4.068281359650428E-4   1.975223412955529E-4  
 2.526000000000000E10   -2.415317067061551E-4   1.132868349031924E-4  
 2.528000000000000E10   -8.240440592999221E-5  -3.972246013290715E-4  
 2.530000000000000E10    5.168518637219677E-4  -4.140914170420729E-4  
 2.532000000000000E10   -9.062227836693637E-4  -1.186705689178780E-3  
 2.534000000000000E10   -4.659066944441292E-4  -3.396824940864462E-4  
 2.536000000000000E10   -2.847896412276896E-4   6.750303509761579E-4  
 2.538000000000000E10    7.919075178506319E-4   4.920446735923179E-4  
 2.540000000000000E10    9.585004954715259E-4  -1.939631129062036E-4  
 2.542000000000000E10    2.955803172532967E-5  -7.833700219634920E-4  
 2.544000000000000E10   -1.507657572801691E-3  -1.813444077924942E-4  
 2.546000000000000E10   -9.498175495536998E-4   1.113676713430323E-3  
 2.548000000000000E10    4.426175019034417E-5   1.109952609112952E-3  
 2.550000000000000E10    5.293592766975053E-4  -6.094478121667635E-4  
 2.552000000000000E10   -3.446769678703276E-4  -1.232252001500456E-3  
 2.554000000000000E10   -1.449237432098016E-3  -7.275312927959021E-4  
 2.556000000000000E10   -6.817470639362000E-4   1.036701028169773E-4  
 2.558000000000000E10    3.579899803298758E-4   6.406234679161571E-4  
 2.560000000000000E10    1.097858425055165E-3  -1.889725117507624E-4  
 2.562000000000000E10    3.900315368809970E-4  -7.091241604939569E-4  
 2.564000000000000E10   -6.287239448283799E-4  -1.296427603847405E-4  
 2.566000000000000E10   -1.448541857826058E-3   9.067859427887015E-4  
 2.568000000000000E10   -2.259966076962883E-4   1.325140503467992E-3  
 2.570000000000000E10   -4.469118880479073E-5   4.855349343415583E-4  
 2.572000000000000E10   -1.824821238187724E-4  -7.889817534305621E-4  
 2.574000000000000E10   -1.017080514429836E-3  -6.966834553168155E-4  
 2.576000000000000E10   -7.286707004823256E-4  -3.180254634571611E-4  
 2.578000000000000E10   -3.104581035984211E-5   4.044766933475330E-5  
 2.580000000000000E10    2.716068825066031E-4   1.265662901914766E-4  
 2.582000000000000E10    3.428624040680006E-4   6.229862701729871E-4  
 2.584000000000000E10    3.502991203276906E-4   5.189732692088001E-4  
 2.586000000000000E10    4.432256173458882E-4   5.690788257197710E-4  
 2.588000000000000E10   -9.507728682365269E-4   4.513941057666671E-4  
 2.590000000000000E10   -5.647134694299894E-4   5.928233204031130E-4  
 2.592000000000000E10   -2.874231395253446E-4   1.182646308734547E-3  
 2.594000000000000E10    2.460049681758392E-4  -1.400389373884536E-4  
 2.596000000000000E10    8.998879129649140E-4  -5.889306630706415E-4  
 2.598000000000000E10    3.702039366544341E-4  -9.233130112988874E-4  
 2.600000000000000E10   -1.009509562663880E-4  -2.370324741605145E-4  
 2.602000000000000E10    3.445162892603548E-4   7.178032865340356E-4  
 2.604000000000000E10    1.130298427597154E-3   1.433493023796473E-3  
 2.606000000000000E10    1.065185184415896E-3   1.922645060403738E-4  
 2.608000000000000E10    4.590958560584113E-4  -5.506836605491117E-4  
 2.610000000000000E10   -1.251842171768658E-3  -9.714587895359728E-5  
 2.612000000000000E10   -7.865585175750312E-4   5.743268884543795E-4  
 2.614000000000000E10    3.165428097418044E-8   5.766349622717826E-4  
 2.616000000000000E10    1.009100415103603E-3  -1.148172907505796E-5  
 2.618000000000000E10    9.506571805104613E-4  -1.460913401388098E-3  
 2.620000000000000E10    4.049930721521378E-4  -9.163472968793940E-4  
 2.622000000000000E10   -6.752361914550420E-4   4.681657828768948E-4  
 2.624000000000000E10    2.504989336600261E-4   1.150060459622182E-3  
 2.626000000000000E10    1.129389718698803E-3   1.094731596822385E-3  
 2.628000000000000E10    3.575280616132659E-4  -4.231681250530528E-4  
 2.630000000000000E10   -2.810491187119624E-4  -4.027827435493236E-4  
 2.632000000000000E10   -5.804624051961582E-4   3.623684511921965E-5  
 2.634000000000000E10   -3.897723427144229E-4  -3.350620659148262E-6  
 2.636000000000000E10    2.595418127384619E-4  -2.255042836623034E-4  
 2.638000000000000E10    1.091867263312452E-3   6.481430568783253E-5  
 2.640000000000000E10    4.142043617321178E-4  -5.242129045655020E-4  
 2.642000000000000E10    6.840834248578176E-4  -7.499330713471863E-4  
 2.644000000000000E10   -5.228555892244913E-4   2.599773670226568E-4  
 2.646000000000000E10    3.923927124560578E-4   4.716077983175637E-4  
 2.648000000000000E10    5.685785145033151E-4   5.318171606631950E-4  
 2.650000000000000E10    4.042233385916916E-4  -1.152371510215744E-4  
 2.652000000000000E10   -2.314116027264390E-4  -1.992907573367120E-4  
 2.654000000000000E10   -4.313887311582221E-4  -1.224976527737454E-3  
 2.656000000000000E10   -6.856697436887771E-4  -4.662337159970775E-4  
 2.658000000000000E10   -6.675221447949298E-4  -3.087247960138484E-4  
 2.660000000000000E10    9.195751117658801E-4   7.993249073479092E-5  
 2.662000000000000E10    1.018017799651716E-3  -7.307813648367301E-4  
 2.664000000000000E10    6.101360559114255E-4  -1.441449086996727E-3  
 2.666000000000000E10   -9.703670220915228E-4  -5.705726798623800E-4  
 2.668000000000000E10   -5.539661651710048E-4   6.615742458961904E-4  
 2.670000000000000E10    4.397657767185592E-5   7.476320097339340E-4  
 2.672000000000000E10    3.407378062547650E-4  -6.693635077681392E-4  
 2.674000000000000E10   -6.526490760734305E-4  -5.890986649319530E-4  
 2.676000000000000E10   -8.436151183559559E-4  -1.326426034211181E-3  
 2.678000000000000E10   -1.015902445942629E-3  -3.077036926697474E-4  
 2.680000000000000E10   -7.848221794120036E-4  -3.678527646115981E-4  
 2.682000000000000E10    4.916971083730459E-4   3.310995198262390E-4  
 2.684000000000000E10    6.509898012154736E-4  -8.086011876002885E-4  
 2.686000000000000E10    6.114133102528285E-4  -8.905971408239566E-4  
 2.688000000000000E10   -1.571772590978071E-3  -1.495032756793080E-5  
 2.690000000000000E10   -5.012226683902554E-4   1.083842391381040E-3  
 2.692000000000000E10   -2.161246275136364E-4   1.124226037063636E-3  
 2.694000000000000E10   -3.857159754261375E-4  -5.100411508465186E-4  
 2.696000000000000E10   -7.361472162301652E-4   1.722229262668407E-5  
 2.698000000000000E10   -4.979394725523889E-4  -8.160706420312636E-4  
 2.700000000000000E10   -6.944729320821352E-4  -3.915167108061723E-4  
 2.702000000000000E10   -7.924851161078550E-4  -2.310076166622821E-4  
 2.704000000000000E10    9.056698618223891E-4   9.595792726031505E-4  
 2.706000000000000E10    1.456861587939784E-3   1.629002053959994E-4  
 2.708000000000000E10    1.298449875321239E-3  -2.388858865742805E-4  
 2.710000000000000E10   -9.715528358356096E-4   3.455494697846007E-4  
 2.712000000000000E10   -4.862705973209813E-4   1.253992071724497E-3  
 2.714000000000000E10   -3.150550246573403E-4   1.695848040981218E-3  
 2.716000000000000E10    3.808548890447128E-4   2.814109921018826E-4  
 2.718000000000000E10   -4.017942974314792E-4  -4.241632705088705E-4  
 2.720000000000000E10   -2.160481817554683E-4  -1.063859905116260E-3  
 2.722000000000000E10   -1.246847107267968E-4  -2.377828004682669E-4  
 2.724000000000000E10   -3.373269955773139E-4  -1.011448384815594E-4  
 2.726000000000000E10    1.692058445769362E-3   1.094048900995404E-3  
 2.728000000000000E10    1.468603921239264E-3   4.071610092069022E-4  
 2.730000000000000E10    8.401071827393025E-4  -7.377651927527040E-4  
 2.732000000000000E10   -1.114779151976109E-3   2.361425677008811E-4  
 2.734000000000000E10   -6.232843952602707E-4   1.380926303681918E-3  
 2.736000000000000E10    3.321442382002715E-4   1.014592016872484E-3  
 2.738000000000000E10    7.489600902772509E-4  -4.544059811451007E-4  
 2.740000000000000E10   -1.859058102127165E-4  -5.891075161343906E-4  
 2.742000000000000E10   -8.958229864219902E-5  -7.278030388988555E-4  
 2.744000000000000E10    2.078714114759350E-4   7.364746124949306E-6  
 2.746000000000000E10    2.605159461381845E-4  -1.337937874268391E-4  
 2.748000000000000E10    7.332434033742175E-4   6.570313635165803E-4  
 2.750000000000000E10    4.826148760912474E-4  -4.698011434811633E-5  
 2.752000000000000E10    3.170236395817483E-4  -5.710911646019667E-4  
 2.754000000000000E10   -5.285792685754132E-4  -3.141666693409206E-4  
 2.756000000000000E10    1.960016434168210E-4   1.707541998712259E-4  
