#  HZ   S   RI   R     50.00 
! Rohde & Schwarz ZVA40 4Ports - Version 3.90 - 1145.1110k42 SN: 100403
! Date: 2023-10-04 06:55:14
! Measurement: S12 
! 
 2.200000000000000E10    1.155458929133602E-3   6.631585310969967E-4  
 2.202000000000000E10    2.395371948296088E-4   1.405017545039300E-3  
 2.204000000000000E10    1.472633979574312E-3   7.821695980965160E-4  
 2.206000000000000E10    1.841025768953841E-3  -2.212787290503115E-4  
 2.208000000000000E10   -1.242934422407416E-4  -1.903550597489812E-3  
 2.210000000000000E10   -1.539975273772143E-3  -4.079927148268325E-4  
 2.212000000000000E10    2.727815840444237E-4   1.619758790184278E-3  
 2.214000000000000E10    2.793389008729719E-3  -1.094855897463276E-4  
 2.216000000000000E10    1.362545262963977E-3  -2.100701029121410E-3  
 2.218000000000000E10   -7.040823220449965E-4  -1.100454384868499E-3  
 2.220000000000000E10   -9.037516720127314E-4   8.498397328366991E-4  
 2.222000000000000E10    5.365426586649846E-4   8.160603720170911E-4  
 2.224000000000000E10    6.727701402269304E-4   2.456564361636993E-4  
 2.226000000000000E10   -2.834101462667604E-5  -4.098522385902470E-4  
 2.228000000000000E10   -4.750433672597865E-4  -1.744075998431072E-3  
 2.230000000000000E10   -1.152244294644333E-3  -6.688643516099546E-4  
 2.232000000000000E10   -1.101552086765878E-3   6.696952950733248E-4  
 2.234000000000000E10    7.457185711245984E-4  -6.125612844698480E-5  
 2.236000000000000E10    8.526100500603207E-4  -7.688045516260900E-4  
 2.238000000000000E10   -8.361494546988979E-4  -6.023922487656819E-4  
 2.240000000000000E10   -1.197621066239663E-3   6.092857656767592E-4  
 2.242000000000000E10   -1.358054926186014E-4   6.605616035813000E-4  
 2.244000000000000E10   -2.723634315771051E-4   8.893990739355928E-5  
 2.246000000000000E10   -7.419917565130163E-4  -1.389178205499775E-4  
 2.248000000000000E10   -5.450197895697784E-4   4.959798752679490E-4  
 2.250000000000000E10   -6.152993864816381E-5   3.755753823497798E-6  
 2.252000000000000E10    4.637058755179169E-4   1.323547821812099E-4  
 2.254000000000000E10   -5.206630123666400E-5  -5.524119242181769E-4  
 2.256000000000000E10   -6.294151644397061E-4   9.535815916024149E-4  
 2.258000000000000E10   -2.174700437080901E-4   9.296499229094479E-4  
 2.260000000000000E10    7.356289497693069E-4   1.417889652657323E-3  
 2.262000000000000E10    2.119622022291878E-4  -5.047845638728177E-5  
 2.264000000000000E10   -3.624835662776604E-4  -9.997486267820932E-4  
 2.266000000000000E10   -1.551836656290107E-3  -7.853773604438175E-5  
 2.268000000000000E10   -7.309665015782230E-4   8.222851138270926E-4  
 2.270000000000000E10    1.115438113629352E-3   5.502978219737997E-4  
 2.272000000000000E10    1.629088037589099E-3  -4.467554435905186E-4  
 2.274000000000000E10    5.298197975207586E-4  -1.408548843755852E-3  
 2.276000000000000E10   -1.170778064988554E-3  -3.705034050653921E-4  
 2.278000000000000E10   -6.697380449622870E-4   2.333215888938867E-3  
 2.280000000000000E10    9.965859717340209E-4   8.348273477167822E-4  
 2.282000000000000E10    9.877825395960826E-4   3.174676276103128E-4  
 2.284000000000000E10   -8.364395980606787E-4  -1.178508660814259E-3  
 2.286000000000000E10   -1.205785229103640E-3  -3.999925957032247E-4  
 2.288000000000000E10   -1.900190793094225E-3   7.084057797328569E-4  
 2.290000000000000E10    8.194790934794582E-4   3.420436005399097E-4  
 2.292000000000000E10    1.506819382484537E-3   3.220674843760207E-4  
 2.294000000000000E10    9.972807238227688E-4  -1.612310144992080E-3  
 2.296000000000000E10   -4.528122899500886E-4  -1.903172487232041E-4  
 2.298000000000000E10   -2.919517428381369E-4   1.383366667141672E-3  
 2.300000000000000E10    4.214123873680364E-4   2.078849647659808E-3  
 2.302000000000000E10    7.891213972470723E-4   3.950668242396205E-4  
 2.304000000000000E10    2.121110810548998E-4   2.901819279941265E-4  
 2.306000000000000E10   -9.174083461402915E-4   7.371600588612637E-5  
 2.308000000000000E10   -3.668946209245405E-5   3.623358088589157E-4  
 2.310000000000000E10   -2.176642574340804E-4   1.549261810396274E-4  
 2.312000000000000E10    4.597216538968496E-4  -2.060969491139986E-4  
 2.314000000000000E10    9.297449869336560E-4   6.874452774354722E-4  
 2.316000000000000E10    1.424998314178083E-3  -7.487355105695315E-4  
 2.318000000000000E10    8.412962561124004E-4  -5.886234212084673E-4  
 2.320000000000000E10    4.629615141311660E-4  -4.046258945891168E-4  
 2.322000000000000E10    2.374369996687165E-4   1.148600975284353E-3  
 2.324000000000000E10    3.035847767023370E-4   5.064444485469721E-4  
 2.326000000000000E10    8.184682374121621E-4   8.325135640916415E-4  
 2.328000000000000E10   -9.969102302420652E-5  -1.083564635337098E-3  
 2.330000000000000E10   -2.518806550142472E-4  -1.627358789846767E-3  
 2.332000000000000E10   -1.047769452270586E-3  -7.975029329827521E-4  
 2.334000000000000E10   -4.446272432687692E-4   4.368461441117688E-5  
 2.336000000000000E10    9.112226398428902E-4   2.227393524663057E-4  
 2.338000000000000E10    1.293411063670646E-3  -1.354820538836066E-3  
 2.340000000000000E10   -1.417969178874046E-4  -1.772115545463748E-3  
 2.342000000000000E10   -1.075356180081144E-3  -8.108384281513281E-5  
 2.344000000000000E10   -6.411620452126954E-4   1.316881687671412E-3  
 2.346000000000000E10    2.525558259094396E-4   4.989852168364450E-4  
 2.348000000000000E10    7.576422758575063E-4  -2.954796241283475E-5  
 2.350000000000000E10   -5.574575734499376E-4  -8.159011522366200E-4  
 2.352000000000000E10   -1.356436405330896E-3  -8.726534979359713E-4  
 2.354000000000000E10   -1.185588494990952E-3   9.061457171810616E-5  
 2.356000000000000E10   -2.049618551609456E-4   6.295805287663825E-4  
 2.358000000000000E10    7.300027282326482E-4   2.058450452295801E-4  
 2.360000000000000E10    8.722397506062407E-4  -9.345019570901059E-4  
 2.362000000000000E10   -6.001946931064595E-4  -5.865009115950670E-4  
 2.364000000000000E10   -1.067730168870185E-3   5.378850146371406E-4  
 2.366000000000000E10   -7.045632919471245E-4   1.179615668661427E-3  
 2.368000000000000E10    2.765160252238275E-4   1.824062605919607E-4  
 2.370000000000000E10    2.564080314186867E-4  -3.863557094518910E-5  
 2.372000000000000E10    1.139467030952801E-6  -4.125262476009084E-4  
 2.374000000000000E10   -7.114077016012743E-4  -9.354137655464001E-4  
 2.376000000000000E10   -4.973480681655929E-4   4.552182836050633E-4  
 2.378000000000000E10   -1.090441209612436E-4   1.297085909754969E-3  
 2.380000000000000E10    7.425194598909002E-4   6.428600827348419E-4  
 2.382000000000000E10    7.766471753711812E-4  -3.145456648780964E-4  
 2.384000000000000E10   -7.491388460039161E-4  -5.357841073418967E-4  
 2.386000000000000E10   -5.386573138821404E-4   1.784278128980077E-4  
 2.388000000000000E10   -7.867449348850641E-4   5.927995516685769E-4  
 2.390000000000000E10    3.283342357462971E-4   3.622535559770768E-4  
 2.392000000000000E10    9.190035088977311E-4   8.177928793884348E-5  
 2.394000000000000E10    7.725649120402522E-4  -5.153102301846957E-4  
 2.396000000000000E10   -1.628193695069058E-4  -8.052717130340170E-4  
 2.398000000000000E10   -4.733946843771264E-4   6.296382525761146E-4  
 2.400000000000000E10    5.275869862089166E-4   2.135765855200589E-3  
 2.402000000000000E10    9.821624735195655E-4   3.112282738584327E-4  
 2.404000000000000E10    4.482898398237012E-4   1.211059811794257E-4  
 2.406000000000000E10   -8.623290013929363E-4  -4.426266987138661E-4  
 2.408000000000000E10   -5.984212875773665E-4  -1.211409105508210E-4  
 2.410000000000000E10   -4.786272456840379E-4   4.879805965174455E-4  
 2.412000000000000E10    8.088914146355819E-4   4.275462197256275E-4  
 2.414000000000000E10    1.388151940773241E-3  -2.586322079878300E-4  
 2.416000000000000E10    1.123515736253467E-3  -9.791528609639499E-4  
 2.418000000000000E10   -4.043776280013844E-4   8.757510499890486E-6  
 2.420000000000000E10   -8.305271985591389E-4   1.052389845426660E-3  
 2.422000000000000E10    7.907957369752694E-4   1.821217403630726E-3  
 2.424000000000000E10    4.220510927552823E-4   4.410964902490377E-4  
 2.426000000000000E10    1.325482626270969E-4  -8.867446631484199E-4  
 2.428000000000000E10   -5.385671556723537E-5  -5.507622408913449E-4  
 2.430000000000000E10   -1.534994516987354E-4  -8.448441221844405E-4  
 2.432000000000000E10   -1.144193383879610E-4  -8.452639194729272E-4  
 2.434000000000000E10    8.449465676676482E-4   6.649291535723023E-4  
 2.436000000000000E10    1.611129489901941E-3  -3.141750476061134E-4  
 2.438000000000000E10    1.066614924638998E-3  -8.301958587253466E-4  
 2.440000000000000E10   -3.641435851022834E-4  -8.263083109341096E-4  
 2.442000000000000E10   -8.484240752295591E-4   2.470888684911188E-4  
 2.444000000000000E10   -6.643590313615277E-4   6.814216685597785E-4  
 2.446000000000000E10    4.036560640088283E-4   2.633640970088891E-4  
 2.448000000000000E10    1.259569817193551E-4  -6.066272071620915E-4  
 2.450000000000000E10   -1.326713463640772E-4  -1.556590221298393E-3  
 2.452000000000000E10   -8.077614984358661E-4  -1.260203316633124E-3  
 2.454000000000000E10   -7.647523780178744E-4  -7.378101217909716E-4  
 2.456000000000000E10    1.911230647237971E-4   6.704217885271646E-4  
 2.458000000000000E10    1.295741822104901E-3   5.122084658069070E-4  
 2.460000000000000E10    1.081449663615786E-3  -1.258417258213740E-3  
 2.462000000000000E10   -1.155621837824583E-3  -9.294006231357344E-4  
 2.464000000000000E10   -1.569266809383407E-3   5.013738191337325E-4  
 2.466000000000000E10   -7.329472973651718E-4   1.122903544455767E-3  
 2.468000000000000E10    3.990638415416470E-4  -1.010750993675202E-4  
 2.470000000000000E10   -2.782313713396434E-4  -1.016385140246712E-3  
 2.472000000000000E10   -6.581698035006411E-4  -1.304288234678097E-3  
 2.474000000000000E10   -1.380673471430782E-3  -6.597603169211652E-4  
 2.476000000000000E10   -6.329644966172054E-4  -1.503899966337485E-4  
 2.478000000000000E10    7.506470246880781E-4   7.755387086945120E-4  
 2.480000000000000E10    1.023412274662405E-3  -4.640731185645564E-4  
 2.482000000000000E10    3.909804599970812E-4  -4.713119069492677E-4  
 2.484000000000000E10   -5.104488445795141E-4  -3.539962490322068E-4  
 2.486000000000000E10   -9.236418700311333E-4   1.338137954007834E-3  
 2.488000000000000E10   -6.117582342994865E-4   1.407384064805228E-3  
 2.490000000000000E10   -1.560170476295753E-4   1.781800583557924E-4  
 2.492000000000000E10   -4.249872854416026E-4  -7.351982594627771E-5  
 2.494000000000000E10    4.515966384133208E-5  -5.539810372283682E-4  
 2.496000000000000E10   -5.400260815804359E-4  -3.326067071611760E-4  
 2.498000000000000E10   -3.787181212828727E-4  -1.878437687992118E-4  
 2.500000000000000E10    6.501939560621395E-5   8.420858539466281E-4  
 2.502000000000000E10    6.197188849910162E-4   7.286364343599416E-4  
 2.504000000000000E10    1.041219053149689E-3   2.845623421308119E-4  
 2.506000000000000E10    6.266941963986028E-4  -1.894989782158518E-4  
 2.508000000000000E10   -1.310984676820226E-3   5.702441740140785E-4  
 2.510000000000000E10   -1.476978388382122E-3   1.273958267120179E-3  
 2.512000000000000E10    3.139894524792908E-4   1.322770644037519E-3  
 2.514000000000000E10    1.607835797585722E-4  -1.180846275019576E-4  
 2.516000000000000E10    5.740760025219061E-4  -1.358429690299090E-3  
 2.518000000000000E10   -1.138637007898069E-4  -7.562219761894085E-4  
 2.520000000000000E10   -7.375814893748611E-4   2.846042588089404E-5  
 2.522000000000000E10    5.975117746856995E-4   1.294662004511338E-3  
 2.524000000000000E10    1.834232491091825E-3   1.377767555823084E-3  
 2.526000000000000E10    1.307734622969292E-3  -3.909438164555468E-4  
 2.528000000000000E10   -1.031737135690491E-4  -7.518142847402487E-4  
 2.530000000000000E10   -1.360443537123501E-3   9.974822241929360E-4  
 2.532000000000000E10   -1.271253472623357E-4   1.126997674873564E-3  
 2.534000000000000E10    1.042247036821209E-3   7.027371502772439E-4  
 2.536000000000000E10    7.234972508740611E-4  -7.706184078415390E-4  
 2.538000000000000E10    3.068081005039858E-4  -1.150621043052524E-3  
 2.540000000000000E10   -2.812409347825451E-4  -5.048018447268987E-4  
 2.542000000000000E10    2.861659613699885E-4   3.608988336054608E-4  
 2.544000000000000E10    6.729287124471739E-4   5.622294484055601E-4  
 2.546000000000000E10    1.713373610982671E-3   9.204668378970382E-5  
 2.548000000000000E10    6.177248366157073E-5  -8.351808355655521E-5  
 2.550000000000000E10   -3.847579846478766E-4  -2.458703966112807E-4  
 2.552000000000000E10   -2.977985104735126E-4   3.432490593695547E-4  
 2.554000000000000E10   -4.585947647228750E-5   1.807487260521157E-4  
 2.556000000000000E10    3.718385287356796E-4  -1.067994867298694E-4  
 2.558000000000000E10    4.284079877834301E-4  -3.482611537037883E-4  
 2.560000000000000E10    6.628498304053210E-4  -3.727445327967871E-4  
 2.562000000000000E10    3.612329701354611E-4  -8.738749238546006E-4  
 2.564000000000000E10    2.227761888207169E-4  -2.158583556592930E-4  
 2.566000000000000E10   -3.756478545255959E-4   3.099989608017495E-4  
 2.568000000000000E10    9.544115127937403E-4   4.452564662642544E-4  
 2.570000000000000E10    9.283733525080606E-4  -3.267310394221568E-4  
 2.572000000000000E10    4.994638602511259E-4  -1.090848236344755E-3  
 2.574000000000000E10   -5.009870819776552E-4  -7.233553405967541E-4  
 2.576000000000000E10   -6.838977569714189E-4   7.750984434551356E-5  
 2.578000000000000E10    3.328196562506491E-4   7.027727733657230E-4  
 2.580000000000000E10    4.530261157924542E-4  -3.126239889752469E-4  
 2.582000000000000E10    4.094949617865495E-4  -8.965659653767943E-4  
 2.584000000000000E10   -1.248198619578034E-3  -1.325078534136992E-3  
 2.586000000000000E10   -1.358732974040322E-3  -1.509018929937156E-4  
 2.588000000000000E10   -7.765692607790697E-4   9.177476931654383E-4  
 2.590000000000000E10    8.217519825848285E-4   4.196853587927762E-4  
 2.592000000000000E10    9.987952289520763E-4  -1.039062182826456E-3  
 2.594000000000000E10   -4.883066176262219E-4  -1.273175454116426E-3  
 2.596000000000000E10   -1.208257024700288E-3   7.196546503109857E-4  
 2.598000000000000E10   -2.367428678553551E-4   1.470584058552049E-3  
 2.600000000000000E10    8.153950250289199E-5   7.397980007226579E-4  
 2.602000000000000E10    6.111215916462243E-4   2.893379750901204E-5  
 2.604000000000000E10   -8.549017002223991E-4  -1.203590336444904E-4  
 2.606000000000000E10   -9.294494921050500E-4  -5.302566933096387E-4  
 2.608000000000000E10   -3.674149320431752E-4   7.847170127206482E-4  
 2.610000000000000E10   -5.193053111725021E-4   3.897891419910593E-4  
 2.612000000000000E10    8.411333910771646E-4   2.145990249573515E-4  
 2.614000000000000E10    1.864443102022051E-4   1.833369469750323E-5  
 2.616000000000000E10    8.363661703469916E-5   2.169577479662621E-4  
 2.618000000000000E10   -7.808317277522292E-4   1.418467322764627E-4  
 2.620000000000000E10   -4.324479596107267E-5   3.792146835621679E-4  
 2.622000000000000E10   -2.405131820069073E-4   4.646096767828567E-4  
 2.624000000000000E10   -1.414824237144785E-4   1.045500566760893E-4  
 2.626000000000000E10    2.490285096428124E-4  -6.835108297309489E-5  
 2.628000000000000E10    1.523400896985550E-6  -9.216277976520360E-4  
 2.630000000000000E10   -5.961412771284813E-4  -3.637519057519967E-4  
 2.632000000000000E10   -8.809891733108088E-4   4.819184214284178E-4  
 2.634000000000000E10    6.387371331584291E-5   1.280429831240326E-3  
 2.636000000000000E10    5.214766406425042E-4   4.811408280147589E-5  
 2.638000000000000E10    1.446930045858608E-4  -2.685219005797990E-4  
 2.640000000000000E10   -1.407613199262414E-3  -2.744918947428232E-4  
 2.642000000000000E10   -5.523844174604164E-4   4.052851054439088E-4  
 2.644000000000000E10   -1.124646682001185E-3   8.504877914674580E-4  
 2.646000000000000E10    8.633177058072761E-4   7.748411408101674E-4  
 2.648000000000000E10    9.398722213518340E-4  -2.915210961873527E-4  
 2.650000000000000E10    1.501666638432653E-4  -1.108391763409600E-3  
 2.652000000000000E10   -8.992170260171406E-4   4.208242844470078E-4  
 2.654000000000000E10   -1.268584428544273E-4   1.530878391349688E-3  
 2.656000000000000E10    8.905320864869282E-4   1.533941511297599E-3  
 2.658000000000000E10    3.220663420506753E-4  -1.603229902684689E-4  
 2.660000000000000E10    7.192882549134083E-5  -2.314174889761489E-4  
 2.662000000000000E10   -1.108344295062125E-3   1.529708797534113E-4  
 2.664000000000000E10    2.666097880137386E-4   3.100904323218856E-4  
 2.666000000000000E10   -1.977023357540020E-4   5.225451677688398E-4  
 2.668000000000000E10    1.631022008950822E-3   3.106577423750423E-4  
 2.670000000000000E10    1.277660980122164E-3   7.862109782763582E-5  
 2.672000000000000E10    4.162304994679289E-4  -8.678951126057655E-4  
 2.674000000000000E10   -5.626402271445841E-4   8.978201440186240E-4  
 2.676000000000000E10    5.074722662357090E-5   7.676376408198848E-4  
 2.678000000000000E10    1.190090129966848E-3   1.236809897818603E-3  
 2.680000000000000E10    1.186537247122033E-4  -7.121018497855403E-4  
 2.682000000000000E10    9.138691384578124E-4  -6.553579150931910E-4  
 2.684000000000000E10   -4.460652307898272E-4  -4.294867103453726E-4  
 2.686000000000000E10   -9.735893854667665E-5  -2.704592698137276E-4  
 2.688000000000000E10    7.967498549987795E-5  -1.142697482237054E-4  
 2.690000000000000E10    1.407311210641637E-3  -9.240869394488982E-5  
 2.692000000000000E10    1.344800111837685E-3  -3.542028971423861E-4  
 2.694000000000000E10    5.214157645241357E-4  -1.514712901553139E-3  
 2.696000000000000E10   -3.180711864843033E-4   2.111577141477028E-4  
 2.698000000000000E10   -6.587020870938432E-4   9.393685322720558E-4  
 2.700000000000000E10    8.583537637605332E-4   7.777929713483900E-4  
 2.702000000000000E10    2.430385520710843E-4  -6.095675198594108E-4  
 2.704000000000000E10    1.038691279973136E-4  -5.093322361062747E-4  
 2.706000000000000E10   -1.037064190313686E-3  -6.004266833770089E-4  
 2.708000000000000E10    1.971556685020914E-4  -4.694403178291395E-4  
 2.710000000000000E10   -4.986459571227897E-4   5.032205517636612E-4  
 2.712000000000000E10    7.614845671923831E-4   1.125630490150797E-5  
 2.714000000000000E10    5.268540262477472E-4  -6.638317936449312E-4  
 2.716000000000000E10   -1.213297673530178E-5  -1.167763082776219E-3  
 2.718000000000000E10   -1.110912024159916E-3   2.027199534495594E-4  
 2.720000000000000E10   -4.436465387698263E-4   7.074280729284510E-4  
 2.722000000000000E10    4.032191209262237E-4   3.459756298980210E-4  
 2.724000000000000E10   -9.294846677221358E-6  -4.455679663806222E-4  
 2.726000000000000E10   -6.181211465445813E-4  -5.572795926127583E-4  
 2.728000000000000E10   -6.431693254853599E-4  -8.410976079176180E-4  
 2.730000000000000E10   -4.981947859050706E-4  -5.389011348597705E-4  
 2.732000000000000E10   -6.570915793417953E-4  -1.896566745926975E-4  
 2.734000000000000E10    4.818997367692646E-4   3.258848737459630E-4  
 2.736000000000000E10    2.335905483050738E-4   5.723909066546185E-5  
 2.738000000000000E10   -1.360228188787005E-4  -9.316549403592944E-4  
 2.740000000000000E10   -1.276982366107404E-3   3.285664897703100E-4  
 2.742000000000000E10   -7.986094278749079E-4   3.782486928685103E-4  
 2.744000000000000E10   -3.914299559255596E-4   6.262207243707962E-4  
 2.746000000000000E10   -3.842440601147246E-4  -4.683908518927638E-4  
 2.748000000000000E10    1.542155537208600E-4  -4.149823507759720E-5  
 2.750000000000000E10   -7.256967946887016E-4  -5.174911493668333E-4  
 2.752000000000000E10   -2.927660534624010E-4  -9.723718267196091E-5  
 2.754000000000000E10   -7.114654436009005E-4   8.577420230722055E-4  
 2.756000000000000E10    5.933394495514222E-4   8.355181125807576E-4  
