#  HZ   S   RI   R     50.00 
! Rohde & Schwarz ZVA40 4Ports - Version 3.90 - 1145.1110k42 SN: 100403
! Date: 2023-10-04 06:54:42
! Measurement: S12 
! 
 2.200000000000000E10    6.891604025440756E-4  -3.972051927121356E-4  
 2.202000000000000E10   -8.564766249037348E-4  -1.607813523150981E-3  
 2.204000000000000E10   -1.852305176726077E-3  -6.097311816120055E-4  
 2.206000000000000E10   -1.111937272071373E-3   1.460675041016657E-3  
 2.208000000000000E10   -4.018082072434481E-4   8.322161884279922E-4  
 2.210000000000000E10   -3.067863835894968E-4  -2.226195515504514E-4  
 2.212000000000000E10   -1.209763278893661E-3   6.165556515043136E-4  
 2.214000000000000E10   -1.014048968499992E-3   6.154229376988951E-4  
 2.216000000000000E10   -5.772430195065681E-4   7.484959951398196E-5  
 2.218000000000000E10   -8.252829138655216E-4   8.744208607822657E-4  
 2.220000000000000E10   -7.610454958921764E-4   5.828383182233665E-4  
 2.222000000000000E10    3.915417128155241E-4  -1.662488539295737E-4  
 2.224000000000000E10   -8.564938752897433E-5   2.147450104530435E-4  
 2.226000000000000E10   -1.050410808147717E-4   7.961460632941453E-4  
 2.228000000000000E10    7.700831665715668E-4   5.644018747261725E-4  
 2.230000000000000E10    7.805427630955819E-4  -4.517876441241242E-4  
 2.232000000000000E10   -9.143764327745885E-4   5.011649773223326E-4  
 2.234000000000000E10   -2.634013071656227E-4   1.603377575520426E-3  
 2.236000000000000E10    2.038857870502397E-3   1.097795247915201E-3  
 2.238000000000000E10    6.497806898551062E-4  -1.169176946859807E-3  
 2.240000000000000E10   -6.556020525749773E-4  -1.263924903469160E-3  
 2.242000000000000E10   -6.284630471782293E-4   1.426112175977323E-3  
 2.244000000000000E10    1.072663973900490E-3   8.815916662570089E-4  
 2.246000000000000E10    2.084588501020335E-3  -2.491416853445116E-4  
 2.248000000000000E10    4.710777720902115E-4  -7.210358526208438E-4  
 2.250000000000000E10   -2.509526384528726E-4  -9.856739343376830E-4  
 2.252000000000000E10   -6.511650572065264E-4  -9.963433330995031E-5  
 2.254000000000000E10   -3.429244807193754E-4   5.696934385923669E-4  
 2.256000000000000E10    1.749099370499607E-3   6.119717145338655E-4  
 2.258000000000000E10    1.942491129739210E-3  -1.865528014604934E-3  
 2.260000000000000E10   -6.025362870332174E-5  -2.183305012295023E-3  
 2.262000000000000E10   -1.157926035375567E-3   1.962746523531678E-6  
 2.264000000000000E10    4.183965766060283E-4   1.783744344720617E-3  
 2.266000000000000E10    2.199569760705344E-3  -4.958353929396253E-5  
 2.268000000000000E10    5.827197128382977E-4  -1.294065848924220E-3  
 2.270000000000000E10   -1.232878901646473E-3  -1.017250564473216E-3  
 2.272000000000000E10   -6.174168993311469E-4  -2.908493588620331E-4  
 2.274000000000000E10   -4.168204377492657E-4  -7.229299143318713E-5  
 2.276000000000000E10    5.251349120953819E-4  -6.577295207534917E-4  
 2.278000000000000E10    8.013671322260052E-4  -6.739226228091866E-4  
 2.280000000000000E10    6.836561333329883E-4  -1.580877200467512E-3  
 2.282000000000000E10    1.572049432070344E-4  -3.755610105145024E-4  
 2.284000000000000E10   -1.419531481019476E-4   4.426326950124349E-4  
 2.286000000000000E10    5.256200020085089E-4   3.350812039570883E-4  
 2.288000000000000E10   -3.337523721711477E-4  -9.445737759961048E-5  
 2.290000000000000E10   -4.387131320982007E-4  -3.990225395682501E-4  
 2.292000000000000E10   -7.196141887106933E-4  -7.821937197149964E-5  
 2.294000000000000E10   -3.166441256325925E-4  -1.293754394282587E-3  
 2.296000000000000E10   -4.510627240961185E-4  -1.262359932297841E-3  
 2.298000000000000E10   -1.252116155228578E-3  -1.168941835203441E-3  
 2.300000000000000E10    3.457782067926019E-4   4.776658242917620E-4  
 2.302000000000000E10    1.296002905291971E-3  -2.315474712304422E-4  
 2.304000000000000E10    3.979910161433509E-7  -1.381929367198609E-3  
 2.306000000000000E10   -1.337185392912943E-3  -4.529054986051051E-4  
 2.308000000000000E10   -1.165827801742125E-3   8.281512418761849E-4  
 2.310000000000000E10   -9.484283509664238E-4   7.042386314424221E-4  
 2.312000000000000E10    4.989775807189290E-4  -2.878812274502707E-4  
 2.314000000000000E10   -4.952067847625585E-4  -7.333137400564738E-4  
 2.316000000000000E10   -1.223404309712350E-3  -1.533933624159545E-3  
 2.318000000000000E10   -1.583935547387227E-3   2.936004239018075E-4  
 2.320000000000000E10   -9.136347143794410E-4   8.244808268500492E-4  
 2.322000000000000E10    9.803592911339365E-4   1.186636713100597E-3  
 2.324000000000000E10    1.224940846441314E-3  -4.015680788143072E-4  
 2.326000000000000E10   -8.139847959682811E-4  -5.629740808217321E-4  
 2.328000000000000E10   -1.897472255222965E-3   9.047216990438756E-4  
 2.330000000000000E10   -2.303187234247162E-4   1.977774962142576E-3  
 2.332000000000000E10    6.491325584647711E-4   1.055213819199707E-3  
 2.334000000000000E10    3.059859582208446E-4  -2.403365983809636E-4  
 2.336000000000000E10   -1.116660965863048E-4  -3.513089268381009E-4  
 2.338000000000000E10   -8.302783644467127E-4   1.852954892456182E-4  
 2.340000000000000E10   -4.953951975039672E-4   4.803001393156592E-4  
 2.342000000000000E10    6.292188554652967E-4   1.369687168335076E-3  
 2.344000000000000E10    1.191716284665745E-3   7.107705787348095E-4  
 2.346000000000000E10    4.867245879722759E-4  -6.887876988912467E-4  
 2.348000000000000E10   -2.116972791554872E-5  -1.473559286750970E-4  
 2.350000000000000E10   -6.865942032163730E-4   4.432962414284702E-4  
 2.352000000000000E10    1.965378713748578E-4   8.968235815700609E-4  
 2.354000000000000E10    7.494168676203117E-4   7.785180823702831E-4  
 2.356000000000000E10    7.219199724204373E-4   1.768928464116470E-4  
 2.358000000000000E10   -3.149481563013978E-5   1.459071518183919E-4  
 2.360000000000000E10    3.326832393213408E-5  -1.184277216452756E-4  
 2.362000000000000E10   -7.382188487099484E-4  -6.966169826227997E-5  
 2.364000000000000E10    1.530913260694433E-4   4.973255199729465E-4  
 2.366000000000000E10    6.799046095693484E-4   4.408770582813304E-4  
 2.368000000000000E10    1.382399859721772E-3  -5.864879331056727E-4  
 2.370000000000000E10    1.511189066150109E-4  -1.013199384033214E-3  
 2.372000000000000E10   -8.434717801719671E-5  -3.570285789464833E-4  
 2.374000000000000E10   -3.128590569758671E-4   8.255759639723692E-4  
 2.376000000000000E10    1.075461495929631E-3   9.344818827230483E-4  
 2.378000000000000E10    1.115524704800919E-3  -3.314180471534201E-4  
 2.380000000000000E10    1.402924957574214E-4  -8.660635066917166E-4  
 2.382000000000000E10   -6.987100405240199E-4  -4.330225647208863E-4  
 2.384000000000000E10   -9.323539779870771E-4   3.699288827192504E-4  
 2.386000000000000E10   -1.829619181421549E-4   5.767944785475265E-4  
 2.388000000000000E10    1.026441845169757E-3  -3.730608641490107E-4  
 2.390000000000000E10    4.882103712589014E-4  -1.629402424441651E-3  
 2.392000000000000E10   -2.458487288095057E-4  -1.290364656597376E-3  
 2.394000000000000E10   -9.039523065439425E-4  -6.085782697482500E-4  
 2.396000000000000E10   -4.154323977445529E-5   4.071219482284505E-4  
 2.398000000000000E10    7.313789974432439E-4   5.344555720512290E-4  
 2.400000000000000E10    4.835573199670762E-4  -6.771029038645793E-4  
 2.402000000000000E10   -2.427933702620067E-5  -1.358717512630392E-3  
 2.404000000000000E10   -9.459750144742429E-4   1.923606441778247E-4  
 2.406000000000000E10   -1.435734928236343E-3  -9.182324038192746E-5  
 2.408000000000000E10    1.217003602960176E-4   1.011305710562738E-3  
 2.410000000000000E10   -3.612964583226130E-4  -3.253848058193398E-4  
 2.412000000000000E10   -4.778483344125561E-6  -1.426527298463043E-3  
 2.414000000000000E10   -1.061875740560936E-3  -1.075835243682377E-3  
 2.416000000000000E10   -4.572846519295126E-4  -2.379531861151918E-4  
 2.418000000000000E10   -1.084993682525237E-4   9.995252366934437E-5  
 2.420000000000000E10    4.922434236505069E-4   5.122907750774175E-4  
 2.422000000000000E10    6.863323578727432E-4   4.938320435030619E-4  
 2.424000000000000E10   -9.916706221702043E-5  -5.156219394848449E-4  
 2.426000000000000E10   -9.327180305263028E-4  -2.581990020189551E-4  
 2.428000000000000E10   -1.715712598524988E-3   8.111819042824209E-4  
 2.430000000000000E10   -4.950627517246176E-4   1.573884481331334E-3  
 2.432000000000000E10    9.075944035430439E-5   2.279744012412266E-4  
 2.434000000000000E10   -4.301049411878921E-4  -8.679531856614631E-4  
 2.436000000000000E10   -1.114078957471065E-3  -7.140537672967184E-4  
 2.438000000000000E10   -7.015481933194678E-4  -2.607482533676375E-4  
 2.440000000000000E10   -2.156712635041913E-4   5.085972811684769E-4  
 2.442000000000000E10    7.054401357891038E-4   1.017988106468692E-3  
 2.444000000000000E10    1.157891667389777E-3   1.111234105337644E-3  
 2.446000000000000E10    4.240027010382619E-4  -4.821109587282990E-4  
 2.448000000000000E10   -1.178608297777828E-3   2.859692253878166E-4  
 2.450000000000000E10   -1.461021412978880E-3   1.522852391644847E-3  
 2.452000000000000E10    1.657469688325364E-4   1.660961279412732E-3  
 2.454000000000000E10    5.009959168091882E-4  -1.492332050929690E-4  
 2.456000000000000E10    2.711483989514818E-5  -1.156590093160048E-3  
 2.458000000000000E10   -1.802419019441004E-4  -1.465802426992013E-4  
 2.460000000000000E10    2.276231916766847E-4   2.287665408857720E-4  
 2.462000000000000E10    3.879143532685703E-4   7.573709226562642E-4  
 2.464000000000000E10    1.402328052790836E-3   1.098132161132526E-3  
 2.466000000000000E10    1.640177521039732E-3   1.019694904243806E-3  
 2.468000000000000E10    6.020943583280314E-4  -3.576346340850023E-5  
 2.470000000000000E10   -7.704964882577770E-4  -4.936375262332149E-5  
 2.472000000000000E10   -5.547858399950201E-4   7.645401747140568E-4  
 2.474000000000000E10    1.611437573956209E-4   7.734450919087976E-4  
 2.476000000000000E10    1.014652916637715E-3  -5.691633341484703E-4  
 2.478000000000000E10    1.039692837366602E-3  -1.078594606951810E-3  
 2.480000000000000E10    2.708722768147709E-4  -9.804091387195513E-4  
 2.482000000000000E10    4.159125492151361E-4  -3.914604876626981E-4  
 2.484000000000000E10    3.161221138725523E-4   3.175384033511364E-4  
 2.486000000000000E10    5.107455872348510E-4   4.647234181902604E-4  
 2.488000000000000E10    1.386877709592227E-3   5.881283395865466E-4  
 2.490000000000000E10    4.599943367793458E-4  -8.843842842907179E-4  
 2.492000000000000E10   -1.079695241060108E-3  -8.147725638991687E-4  
 2.494000000000000E10   -1.261511592019815E-3   8.453937971353298E-5  
 2.496000000000000E10   -1.506268854427617E-4   2.386320147707011E-4  
 2.498000000000000E10    1.115218947234098E-3  -6.890296172059607E-4  
 2.500000000000000E10    7.425818293995690E-4  -1.599292278115172E-3  
 2.502000000000000E10    6.604434122436942E-5  -1.575371097715106E-3  
 2.504000000000000E10   -4.733344467240386E-4  -5.313172041496728E-4  
 2.506000000000000E10    1.248704938916490E-4   4.892163306067232E-4  
 2.508000000000000E10    6.799923867220059E-4   7.004653452895582E-4  
 2.510000000000000E10    1.127278228523210E-3  -1.910560085889301E-4  
 2.512000000000000E10   -1.806143936846638E-4  -7.183921843534336E-4  
 2.514000000000000E10   -1.677376232692041E-3  -7.903185760369524E-4  
 2.516000000000000E10   -1.281282820855267E-3   6.465972037403844E-4  
 2.518000000000000E10    1.102717641288109E-4   6.185040401760489E-4  
 2.520000000000000E10    5.062585696578026E-4  -9.051151937455870E-4  
 2.522000000000000E10    1.501623255535378E-4  -1.802078593755141E-3  
 2.524000000000000E10   -6.204447345226072E-4  -4.624227876774967E-4  
 2.526000000000000E10   -7.046399114187807E-4  -4.042194223075057E-5  
 2.528000000000000E10    7.496979014831595E-4   9.501712702331133E-4  
 2.530000000000000E10    4.568634358292911E-5   5.325354504748248E-4  
 2.532000000000000E10    1.445967782274238E-4   6.241062692424748E-6  
 2.534000000000000E10   -5.392967250372749E-5   1.851975921454141E-4  
 2.536000000000000E10   -1.488970490754582E-3  -4.156132199568674E-4  
 2.538000000000000E10   -9.492660610703751E-4   2.123663725797087E-4  
 2.540000000000000E10   -6.304206035565585E-4   5.650751481880434E-4  
 2.542000000000000E10   -2.138023173756665E-4  -2.323350345250219E-4  
 2.544000000000000E10    9.501086219643184E-5  -9.302703329012729E-4  
 2.546000000000000E10    5.054985267634038E-4  -5.432930338429287E-4  
 2.548000000000000E10    1.235054924109136E-4  -4.118314100196585E-4  
 2.550000000000000E10   -6.855802485006279E-5   2.952178328996524E-4  
 2.552000000000000E10    4.062523419179343E-5   1.516174947028048E-3  
 2.554000000000000E10    7.371580504695885E-4   7.920238058432005E-4  
 2.556000000000000E10    4.908258815703448E-4  -3.760539148061071E-4  
 2.558000000000000E10   -1.299543597269803E-3  -5.670093742082827E-4  
 2.560000000000000E10   -1.802370767109096E-3   7.324463585973717E-4  
 2.562000000000000E10   -3.003503043146338E-4   7.159564047469758E-4  
 2.564000000000000E10    1.050672275596298E-3   7.880148905314854E-5  
 2.566000000000000E10    1.535191313450923E-4  -1.482125895563513E-3  
 2.568000000000000E10   -1.333789643922501E-4  -5.002934121876024E-4  
 2.570000000000000E10   -8.164677637978457E-4   2.946161766885780E-4  
 2.572000000000000E10   -8.461012123461842E-5   1.068619989382569E-3  
 2.574000000000000E10    5.503179272636771E-4   1.002656965283677E-3  
 2.576000000000000E10    5.737665778724477E-4  -7.245578672154807E-5  
 2.578000000000000E10   -6.280478191911243E-4  -7.353723995038308E-4  
 2.580000000000000E10   -1.326106110354886E-3  -4.962940947734751E-4  
 2.582000000000000E10   -6.412747679860331E-4   9.851685026660562E-4  
 2.584000000000000E10    7.963433745317161E-4   1.242774087586440E-4  
 2.586000000000000E10    9.317023213952780E-4  -6.947118235984817E-4  
 2.588000000000000E10    3.434216196183115E-4  -8.534847220289521E-4  
 2.590000000000000E10    1.827997693908401E-4   2.486746561771724E-4  
 2.592000000000000E10    1.579366180521902E-4   6.407096007023938E-4  
 2.594000000000000E10    4.602502667694353E-4   7.183957714005373E-4  
 2.596000000000000E10   -5.543685448117230E-5   2.768437261693180E-4  
 2.598000000000000E10    2.376786633249139E-4   2.521325222915039E-4  
 2.600000000000000E10   -3.288801440248790E-5  -6.572923011844978E-4  
 2.602000000000000E10   -6.778336610295810E-4  -7.248084511957131E-4  
 2.604000000000000E10   -4.996947245672345E-4  -3.367601857462432E-4  
 2.606000000000000E10    5.809593567391858E-4  -1.020280709553845E-4  
 2.608000000000000E10    1.025329394906294E-3   1.147241168837354E-4  
 2.610000000000000E10    5.942696589045227E-4  -5.989611381664872E-4  
 2.612000000000000E10    6.848694392829202E-4   6.500120571217849E-5  
 2.614000000000000E10    1.836097308114404E-4  -1.540764606033918E-4  
 2.616000000000000E10   -6.430028079194017E-4   6.725989078404382E-4  
 2.618000000000000E10   -3.345673540025018E-4   8.655803976580501E-4  
 2.620000000000000E10    7.800135572324507E-4   5.165973889234010E-4  
 2.622000000000000E10    1.496828135714168E-4  -1.279585718293674E-3  
 2.624000000000000E10   -4.595055543177296E-4  -1.120976361562498E-3  
 2.626000000000000E10   -1.175933692138642E-3  -1.376591817461303E-4  
 2.628000000000000E10    1.244855957338586E-3   4.951063092448749E-4  
 2.630000000000000E10    1.208288827911019E-3   5.536049457077752E-5  
 2.632000000000000E10    1.161301006504800E-3  -7.318396455957554E-4  
 2.634000000000000E10    3.366937271493953E-4  -2.103443403029814E-4  
 2.636000000000000E10   -6.301546673057601E-4  -2.211728860856965E-4  
 2.638000000000000E10   -5.301439705363009E-4   1.319784772931598E-3  
 2.640000000000000E10    3.180634521413595E-4   2.568567360867746E-4  
 2.642000000000000E10    1.211478491313756E-3   3.617380425566807E-4  
 2.644000000000000E10   -3.458100800344255E-4  -1.602414355147630E-3  
 2.646000000000000E10   -1.034976003211341E-4  -8.439086814178154E-4  
 2.648000000000000E10   -8.685492430231534E-4   5.827588247484528E-4  
 2.650000000000000E10    5.684673596988432E-4   2.163688257041940E-4  
 2.652000000000000E10    1.186775232781656E-3  -2.101216535947970E-4  
 2.654000000000000E10    5.626317797577940E-4  -7.732729281997308E-4  
 2.656000000000000E10   -1.121082268582541E-4   1.824536921049003E-4  
 2.658000000000000E10   -4.366901557659730E-4  -3.033179054909851E-4  
 2.660000000000000E10   -1.702759630006767E-4   8.687950685271062E-4  
 2.662000000000000E10   -5.152885714778677E-4   3.402622060093563E-4  
 2.664000000000000E10    5.484490247908980E-4  -2.768137310340535E-4  
 2.666000000000000E10   -5.237973819021136E-4  -1.125109032727778E-3  
 2.668000000000000E10   -5.573125963564962E-4  -1.400702240061946E-3  
 2.670000000000000E10   -7.241622297442518E-4   1.550489250803366E-4  
 2.672000000000000E10    7.153967162594199E-4   1.912079042085679E-4  
 2.674000000000000E10    7.633517889189534E-4  -1.638983458178700E-4  
 2.676000000000000E10    6.386634559021331E-4  -6.494955523521639E-4  
 2.678000000000000E10   -4.218878275423776E-4   2.091312853735872E-4  
 2.680000000000000E10   -8.538220426999033E-4  -4.672647301049437E-4  
 2.682000000000000E10   -6.679528887616471E-4   7.461169516318478E-4  
 2.684000000000000E10   -5.731065393774770E-4   9.455660474486649E-4  
 2.686000000000000E10    3.976593179686461E-4  -2.881149157474283E-4  
 2.688000000000000E10   -1.469495837227441E-4  -1.254324743058533E-3  
 2.690000000000000E10   -8.098599137156270E-4  -7.999955269042403E-4  
 2.692000000000000E10   -8.372422526008450E-4   2.253528800792992E-4  
 2.694000000000000E10    7.942171432659961E-4   5.518741018022411E-4  
 2.696000000000000E10    6.592553108930588E-4   4.152006658841856E-4  
 2.698000000000000E10    4.469444102142006E-4  -7.781809108564630E-4  
 2.700000000000000E10   -2.135649847332388E-4   2.147328473256494E-4  
 2.702000000000000E10   -1.039216425851919E-3   4.492181918180904E-5  
 2.704000000000000E10   -5.618888317258097E-4   1.083813323930372E-3  
 2.706000000000000E10   -3.721452558238525E-4   9.947324906534050E-5  
 2.708000000000000E10    8.294241997646168E-4  -1.482641264374252E-4  
 2.710000000000000E10   -1.499549216532614E-4  -1.281096716411412E-3  
 2.712000000000000E10   -4.109435940335970E-4  -4.405117688293103E-4  
 2.714000000000000E10   -7.522377782152034E-4   5.285159495542757E-4  
 2.716000000000000E10    6.325370995909907E-4   5.814784235553816E-4  
 2.718000000000000E10    5.671133621945046E-4   7.407564626191743E-4  
 2.720000000000000E10   -8.971769602794666E-6  -1.307583570451243E-4  
 2.722000000000000E10   -1.331408575424575E-4   2.224371273769066E-4  
 2.724000000000000E10   -7.400387476081960E-4   2.429364303679904E-4  
 2.726000000000000E10   -6.583101858268492E-4   6.086926077841781E-4  
 2.728000000000000E10    1.907793157442939E-4   5.310295309755020E-4  
 2.730000000000000E10    7.896450333646499E-4   1.144521065725712E-4  
 2.732000000000000E10    7.728297077846946E-7  -9.068600265891291E-4  
 2.734000000000000E10   -1.629616508580511E-4  -6.744291313225403E-4  
 2.736000000000000E10   -6.884177855681628E-4   6.258472130866721E-4  
 2.738000000000000E10    7.734160026302561E-4   7.299469798454084E-4  
 2.740000000000000E10    5.368582096707542E-4   5.692447302863002E-4  
 2.742000000000000E10    3.434527461649850E-4  -2.081820375678944E-4  
 2.744000000000000E10   -3.110394095529045E-5  -4.155838723818306E-6  
 2.746000000000000E10   -8.430845555267297E-4   4.983471399100381E-6  
 2.748000000000000E10   -5.487473463290371E-4   8.712567141628824E-4  
 2.750000000000000E10    7.182777771959081E-4   5.620069423457608E-4  
 2.752000000000000E10    1.226734180818312E-3  -1.875652278613416E-4  
 2.754000000000000E10   -9.796597169042798E-6  -7.126030177460052E-4  
 2.756000000000000E10   -4.384178882901324E-4  -1.536804411443882E-4  
