#  HZ   S   RI   R     50.00 
! Rohde & Schwarz ZVA40 4Ports - Version 3.90 - 1145.1110k42 SN: 100403
! Date: 2023-10-04 06:54:15
! Measurement: S12 
! 
 2.200000000000000E10    5.240625887381611E-4   3.040560320641816E-4  
 2.202000000000000E10    2.070793543680338E-4  -5.737785022574826E-4  
 2.204000000000000E10    5.628117714877590E-4  -4.962946659361478E-4  
 2.206000000000000E10    1.111300116463099E-3  -1.154568184574600E-3  
 2.208000000000000E10   -3.690320718305884E-4  -2.460096307913773E-3  
 2.210000000000000E10   -1.418272964656353E-3  -1.065767999534728E-3  
 2.212000000000000E10   -3.686468426167266E-4   9.022315934998915E-4  
 2.214000000000000E10    1.856400907854550E-3  -4.063780270371353E-4  
 2.216000000000000E10    1.010070180200273E-3  -2.383149054367095E-3  
 2.218000000000000E10   -1.600024239451159E-3  -1.929240512254182E-3  
 2.220000000000000E10   -1.807807791919913E-3   5.832818878843682E-4  
 2.222000000000000E10    7.667604713788023E-4   6.024130925652571E-4  
 2.224000000000000E10    6.345116089505609E-4   9.456159887122340E-5  
 2.226000000000000E10   -6.814011685492005E-4  -1.654570522077847E-3  
 2.228000000000000E10   -4.347065805632155E-4  -4.028154944535345E-4  
 2.230000000000000E10   -1.376557440380566E-3   4.526943484961521E-4  
 2.232000000000000E10   -9.588723260094412E-4   4.008686073575518E-5  
 2.234000000000000E10    1.047777961957763E-4   5.567651860474143E-4  
 2.236000000000000E10    3.832421189144952E-4  -1.831691843108274E-4  
 2.238000000000000E10   -6.214321729203221E-4  -1.245410003321013E-3  
 2.240000000000000E10   -1.527142121631187E-3   2.961802219942911E-4  
 2.242000000000000E10    4.073699074069737E-5   1.401056688337121E-3  
 2.244000000000000E10    3.329689370730193E-4   4.627227099263109E-4  
 2.246000000000000E10   -1.221059324052476E-4  -2.556158974584832E-4  
 2.248000000000000E10   -1.355698885163292E-3   4.412737034726888E-4  
 2.250000000000000E10   -4.026148474167712E-5   9.731086902320385E-4  
 2.252000000000000E10    6.103130235715071E-4   3.641567009253777E-4  
 2.254000000000000E10   -4.637800988120944E-4  -1.791316599337733E-4  
 2.256000000000000E10   -1.283259742194787E-3   9.411058235855307E-4  
 2.258000000000000E10    6.992246817389969E-4   1.561724733619485E-3  
 2.260000000000000E10    1.055615990480874E-3   6.942879408597946E-4  
 2.262000000000000E10   -2.353607305849437E-5  -6.376205492415465E-4  
 2.264000000000000E10   -2.153538225684315E-4   4.020842825411819E-4  
 2.266000000000000E10   -4.947507768520154E-4   4.839563880523201E-4  
 2.268000000000000E10    3.060202670894796E-4   6.504854427475948E-4  
 2.270000000000000E10    8.385652072320227E-4   1.051989893312566E-3  
 2.272000000000000E10    1.265477039851248E-3  -4.796492285095155E-4  
 2.274000000000000E10    5.068844548077323E-4  -1.114961851271801E-3  
 2.276000000000000E10   -1.479312770243269E-3   6.502367141365539E-4  
 2.278000000000000E10   -2.156525833925116E-4   2.108166285324842E-3  
 2.280000000000000E10    1.871285261586309E-3   1.575970636622515E-3  
 2.282000000000000E10    1.592637469002511E-3  -3.561554740372230E-4  
 2.284000000000000E10   -1.127313007600606E-3  -1.135166923631914E-3  
 2.286000000000000E10   -1.877345093816984E-3   5.049313585914206E-4  
 2.288000000000000E10    5.588113144767704E-4   1.045000481099123E-3  
 2.290000000000000E10    1.957191874680575E-3   1.088951419205841E-4  
 2.292000000000000E10    1.301677890296560E-3  -4.430834851518739E-4  
 2.294000000000000E10    6.493927176052239E-4  -1.180496568849776E-3  
 2.296000000000000E10    4.438333235157188E-6   9.930431588145439E-5  
 2.298000000000000E10    8.101080447886488E-5   1.364868767268490E-3  
 2.300000000000000E10    6.581191555596888E-4   1.193389485706575E-3  
 2.302000000000000E10    9.275736156268977E-4  -5.470464338941383E-4  
 2.304000000000000E10    1.751273518948437E-4  -8.721109115867876E-4  
 2.306000000000000E10   -1.008425057079876E-3  -8.118007281154860E-4  
 2.308000000000000E10    7.108771274033643E-5   5.058243768871762E-4  
 2.310000000000000E10    1.347667675872799E-3  -4.121966230741236E-4  
 2.312000000000000E10    1.146199381764745E-3  -5.991657417325769E-4  
 2.314000000000000E10    3.425366776355077E-4  -1.732628642230338E-4  
 2.316000000000000E10    8.274781721411273E-4  -7.567762702365144E-5  
 2.318000000000000E10    2.412445164736710E-4  -5.445419410534669E-4  
 2.320000000000000E10   -5.943700853094924E-4   2.032800671258883E-4  
 2.322000000000000E10   -4.816839355044067E-4   4.373382180347107E-4  
 2.324000000000000E10    3.755196639758651E-4  -3.556223618943477E-4  
 2.326000000000000E10    2.005863825615961E-4  -1.114523096475750E-3  
 2.328000000000000E10   -3.318023154861294E-4  -1.500843529356644E-3  
 2.330000000000000E10   -3.980206474807346E-4  -6.543493909703102E-4  
 2.332000000000000E10   -3.666871998575516E-4  -2.492661378710182E-4  
 2.334000000000000E10    3.395669682504376E-4   2.668600500328466E-4  
 2.336000000000000E10    6.084313836254296E-4  -1.348327461982990E-4  
 2.338000000000000E10   -1.946195709479071E-5  -7.569975859951228E-4  
 2.340000000000000E10   -1.490143797127530E-3  -9.556785844324622E-4  
 2.342000000000000E10   -1.791472386685200E-3   3.280427105778472E-4  
 2.344000000000000E10   -9.810895280679688E-4   1.056546978361439E-3  
 2.346000000000000E10    9.423884403076954E-4  -1.283339279325446E-4  
 2.348000000000000E10    1.650003375743836E-4  -1.256695075426251E-3  
 2.350000000000000E10   -1.201446226332337E-3  -1.040227827616036E-3  
 2.352000000000000E10   -1.799203688278794E-3   2.205272103310563E-4  
 2.354000000000000E10   -5.655630448018201E-4   1.157357168267481E-3  
 2.356000000000000E10    4.389095229271334E-4   6.675641197944060E-4  
 2.358000000000000E10    6.837630062364042E-4  -8.474396236124449E-4  
 2.360000000000000E10   -8.475317154079676E-4  -9.474449616391212E-4  
 2.362000000000000E10   -1.167293565231375E-3   2.328409227629891E-4  
 2.364000000000000E10   -3.624855526140891E-4   7.957834823173471E-4  
 2.366000000000000E10    5.012966248614248E-4   9.512237738817930E-4  
 2.368000000000000E10    8.582087102695368E-4   1.883490376712871E-4  
 2.370000000000000E10   -3.110372906576231E-4  -2.547903277445585E-4  
 2.372000000000000E10   -1.035094872349873E-3   2.564873866504058E-4  
 2.374000000000000E10   -4.520569509622874E-4   1.158770493930206E-3  
 2.376000000000000E10   -4.778948386956472E-4   1.174281307612546E-3  
 2.378000000000000E10    4.387107401271351E-5   2.182266889576567E-4  
 2.380000000000000E10    6.453598471125588E-4  -3.742388071259484E-4  
 2.382000000000000E10   -3.373147292222711E-4  -6.807799509260804E-4  
 2.384000000000000E10   -3.260694975324441E-4  -3.407585518289125E-5  
 2.386000000000000E10    5.475242833199445E-4   5.706516712962184E-4  
 2.388000000000000E10    1.036306610330939E-3   6.081567044020630E-4  
 2.390000000000000E10    1.167315655038692E-3   8.928604365792126E-4  
 2.392000000000000E10    1.029398532409687E-3   6.901832784933504E-5  
 2.394000000000000E10   -3.108309756498784E-4  -3.982552589150146E-4  
 2.396000000000000E10   -7.794689372531138E-4   5.844033948960714E-4  
 2.398000000000000E10   -2.277905750815989E-4   1.119145454140380E-3  
 2.400000000000000E10    1.207487192004919E-3   6.368980507431843E-5  
 2.402000000000000E10    7.143191614886746E-4  -9.010594585561194E-4  
 2.404000000000000E10   -1.871258564278833E-4  -1.609676037332974E-3  
 2.406000000000000E10    7.957905927469255E-5  -1.500536941421160E-4  
 2.408000000000000E10    7.945706529426388E-4   4.206838275422342E-4  
 2.410000000000000E10    1.476812161854468E-3   6.540658941958100E-4  
 2.412000000000000E10    1.379094610456377E-3  -3.943777937820414E-5  
 2.414000000000000E10    9.187912219204009E-4  -8.120545135170687E-4  
 2.416000000000000E10   -9.046097984537482E-4   4.838172935706098E-5  
 2.418000000000000E10   -9.087589569389820E-4   3.973601560574025E-4  
 2.420000000000000E10    4.372338480607141E-6   6.818401307100430E-4  
 2.422000000000000E10    6.191402244439814E-4  -6.130954625405138E-5  
 2.424000000000000E10    6.870351135148667E-4  -1.635104563320056E-3  
 2.426000000000000E10    2.129745234924485E-5  -1.537271833512932E-3  
 2.428000000000000E10   -6.961000181036070E-4  -4.324295259721112E-4  
 2.430000000000000E10    1.491115656335751E-4   4.923042433802038E-4  
 2.432000000000000E10    1.101765068597160E-3   4.967607455910184E-4  
 2.434000000000000E10    1.147964409028646E-3  -7.766619892208837E-4  
 2.436000000000000E10   -6.454698450397700E-6  -6.303430418483913E-4  
 2.438000000000000E10   -5.289630353217945E-4  -3.799504374910612E-4  
 2.440000000000000E10   -6.039067011442967E-4   3.058522761421045E-4  
 2.442000000000000E10   -3.507945475575980E-4   1.490850391405729E-4  
 2.444000000000000E10    4.409231587487739E-5  -3.652133018476889E-4  
 2.446000000000000E10    9.006253094412386E-6  -1.363211049465463E-3  
 2.448000000000000E10   -5.062747877673246E-4  -1.752818876411766E-3  
 2.450000000000000E10   -9.220264910254628E-4  -5.482545602717437E-4  
 2.452000000000000E10   -2.558546148065943E-4   5.527478097064886E-4  
 2.454000000000000E10    9.590450354153290E-4   2.886402471631300E-4  
 2.456000000000000E10    1.705776700759998E-4   8.390253856305208E-5  
 2.458000000000000E10   -4.205712357361335E-4  -2.556102990638465E-4  
 2.460000000000000E10   -1.372711980366148E-3   4.726496445073281E-4  
 2.462000000000000E10   -1.469583105063066E-3   3.344233500683913E-4  
 2.464000000000000E10   -1.015458226902410E-3   1.065142285369802E-3  
 2.466000000000000E10   -3.204814311175142E-4   5.357592126529198E-4  
 2.468000000000000E10    2.303764194948599E-4  -8.143614832079038E-4  
 2.470000000000000E10   -7.440276240231469E-4  -1.236685187905096E-3  
 2.472000000000000E10   -1.474004398914985E-3   8.716262334473868E-5  
 2.474000000000000E10   -8.297878025587124E-5   1.798359226086177E-3  
 2.476000000000000E10    1.246247033122927E-3   1.207704393891618E-3  
 2.478000000000000E10    8.963679138105363E-4   3.491965835564770E-4  
 2.480000000000000E10   -4.516337176028173E-4   5.639485243591480E-5  
 2.482000000000000E10   -1.012035703752190E-3   5.517393656191416E-4  
 2.484000000000000E10   -5.738038998970296E-4   1.243903949216474E-3  
 2.486000000000000E10    8.060013897193130E-6   1.126296716392972E-3  
 2.488000000000000E10    3.493418425932759E-4   3.994854442623819E-5  
 2.490000000000000E10    5.244753265287727E-4  -8.197110655601136E-4  
 2.492000000000000E10    2.521890110074310E-5  -7.322738456423394E-4  
 2.494000000000000E10    7.862019367621542E-5   3.040019983018283E-4  
 2.496000000000000E10    8.741793426452205E-4   1.504624393419363E-3  
 2.498000000000000E10    1.476891397032887E-3   5.504309228854254E-4  
 2.500000000000000E10    6.140090335975401E-4   1.191769441675206E-4  
 2.502000000000000E10    2.794706733766361E-5   9.904143553285394E-5  
 2.504000000000000E10   -1.884292832983192E-4   5.467183909786400E-4  
 2.506000000000000E10   -2.211415448982734E-4   2.404299902991625E-4  
 2.508000000000000E10   -3.105208907072665E-4   2.079424202747759E-4  
 2.510000000000000E10    3.136568229820114E-4   1.914850363391452E-4  
 2.512000000000000E10    7.968884747242555E-4  -6.988288878346793E-4  
 2.514000000000000E10    3.953135092160665E-4  -1.180064195068553E-3  
 2.516000000000000E10   -4.003654976258986E-5  -2.386214182479307E-4  
 2.518000000000000E10    1.423718987325628E-4   7.910935964901000E-4  
 2.520000000000000E10    1.194879019749351E-3   1.067837452865206E-3  
 2.522000000000000E10    1.004077792458702E-3  -1.263790459233860E-4  
 2.524000000000000E10    6.311806964731659E-5  -6.518488735309802E-4  
 2.526000000000000E10   -7.881040655774996E-4  -9.144864725385560E-5  
 2.528000000000000E10   -1.140832639066503E-3   1.544427941553295E-4  
 2.530000000000000E10   -5.803330568596721E-4   5.902308548684232E-4  
 2.532000000000000E10    1.071579710696824E-3   2.473254935466684E-4  
 2.534000000000000E10    9.849535563262180E-4  -1.409049160429277E-3  
 2.536000000000000E10   -5.390742371673696E-4  -1.433497338439338E-3  
 2.538000000000000E10   -9.023076563607901E-4  -1.545683498989092E-4  
 2.540000000000000E10    2.571630229795119E-4   1.267484170966782E-3  
 2.542000000000000E10    1.665380870690569E-3   2.396468098595506E-4  
 2.544000000000000E10    9.119109890889376E-4  -8.694379357621074E-4  
 2.546000000000000E10   -9.888685308396816E-4  -3.074478554481175E-4  
 2.548000000000000E10   -1.263132071471773E-3   4.740870208479464E-4  
 2.550000000000000E10    1.426327511353520E-4   4.416773172124522E-4  
 2.552000000000000E10   -3.592967823351501E-4   3.931906576326583E-5  
 2.554000000000000E10    4.785074634128250E-4  -8.652887481730431E-4  
 2.556000000000000E10    4.827838364462878E-5  -1.210505244671367E-3  
 2.558000000000000E10   -5.449433447211050E-4  -6.548867822857574E-4  
 2.560000000000000E10   -4.698940101661719E-4   3.238769068047986E-5  
 2.562000000000000E10    6.121479455032386E-4   6.825090531492606E-4  
 2.564000000000000E10    2.647116270964034E-4   2.790197431750130E-4  
 2.566000000000000E10   -5.722198184230365E-4  -3.911258063453715E-4  
 2.568000000000000E10   -4.692335714935325E-4  -1.014015360851772E-4  
 2.570000000000000E10   -7.966408593347296E-4   1.976480780285783E-4  
 2.572000000000000E10   -5.800041180918925E-4  -4.480106617847923E-4  
 2.574000000000000E10   -5.833577670273371E-4  -2.789360187307466E-4  
 2.576000000000000E10    3.123183014395181E-4   1.208179444347479E-4  
 2.578000000000000E10    7.489399940823205E-4  -9.677949637989514E-4  
 2.580000000000000E10    5.367964945435233E-5  -9.909547079587355E-4  
 2.582000000000000E10   -1.098621200071648E-3   5.038683229940943E-4  
 2.584000000000000E10    3.466340403974755E-4   8.786704347585328E-4  
 2.586000000000000E10    6.871448131278157E-4   1.053260071785189E-3  
 2.588000000000000E10    1.934692199938581E-4  -1.031544024954201E-4  
 2.590000000000000E10   -2.591171560197836E-4  -2.213290281360969E-4  
 2.592000000000000E10   -1.020642652292736E-3  -2.435792484902777E-4  
 2.594000000000000E10   -2.331748546566814E-4   5.002704929211177E-4  
 2.596000000000000E10   -2.937006320280489E-4   5.958378969808109E-4  
 2.598000000000000E10    1.629232356208377E-3   2.373558509134455E-4  
 2.600000000000000E10    8.443079204880633E-4  -8.668160371598788E-4  
 2.602000000000000E10   -2.157539602194447E-4  -7.286361287697218E-4  
 2.604000000000000E10   -9.319811651948839E-4   1.074859828804620E-3  
 2.606000000000000E10    3.588935724110343E-4   1.763910913723521E-3  
 2.608000000000000E10    1.273022629902698E-3   4.201749907224439E-4  
 2.610000000000000E10    2.535767412155110E-4  -1.088599827198777E-3  
 2.612000000000000E10   -5.588556377915666E-4  -1.660291964071803E-4  
 2.614000000000000E10   -1.131979617639445E-3  -1.613535223441431E-4  
 2.616000000000000E10    3.991171179222874E-4   3.713708410941763E-4  
 2.618000000000000E10    4.387186454550829E-4  -1.476005736549269E-4  
 2.620000000000000E10    1.133838377427310E-3   2.152667875634506E-4  
 2.622000000000000E10    1.731445863697445E-4  -7.234425647766329E-4  
 2.624000000000000E10    3.234646533201158E-5  -1.442387529095868E-4  
 2.626000000000000E10   -8.867272917996161E-4   6.908694267622195E-4  
 2.628000000000000E10    3.596306814870331E-4   7.586439387523569E-4  
 2.630000000000000E10    4.913555967505090E-4   2.265896091557806E-4  
 2.632000000000000E10   -2.494365726306569E-4  -6.888876960147172E-4  
 2.634000000000000E10   -7.002850543358363E-4  -6.995661533437669E-5  
 2.636000000000000E10   -2.480886378180003E-4  -6.928127331775613E-4  
 2.638000000000000E10   -1.831786830734927E-4   3.420720422582235E-4  
 2.640000000000000E10   -7.383029005723074E-4   2.162348027923144E-4  
 2.642000000000000E10    1.104071357985959E-3   6.316934741334990E-4  
 2.644000000000000E10   -3.085488742726739E-6  -1.397324153913360E-4  
 2.646000000000000E10   -2.603245884529315E-4  -6.517385045299307E-4  
 2.648000000000000E10   -1.086994583602063E-3   7.036906972643919E-4  
 2.650000000000000E10    3.702635694935452E-6   1.085748241166584E-3  
 2.652000000000000E10    3.823351034952793E-4   7.125342599465512E-4  
 2.654000000000000E10    5.357305999496020E-4  -5.193019569560420E-4  
 2.656000000000000E10   -2.788164474623045E-4  -2.980257631861605E-4  
 2.658000000000000E10   -6.124194915173575E-4  -5.847640277352184E-4  
 2.660000000000000E10    4.873813168160268E-5   8.164982937159948E-4  
 2.662000000000000E10    4.216815941617824E-4   4.113132708880585E-4  
 2.664000000000000E10    1.612731168279424E-3   1.271695823561458E-4  
 2.666000000000000E10    3.419621170905884E-4  -7.521665975218639E-4  
 2.668000000000000E10   -3.658825698948931E-4  -1.141239135904471E-4  
 2.670000000000000E10   -7.552388415206224E-4   5.102699506096542E-4  
 2.672000000000000E10    6.409261113731191E-4   6.843583760201000E-4  
 2.674000000000000E10    5.836704585817643E-4   1.508212899352657E-4  
 2.676000000000000E10    6.466103295679204E-4  -1.172804622910917E-3  
 2.678000000000000E10   -3.185123896400910E-4  -6.127336055214983E-4  
 2.680000000000000E10   -3.104969073319808E-4  -4.984565493941773E-4  
 2.682000000000000E10    3.362025163369253E-4   1.023450480715837E-3  
 2.684000000000000E10    2.212200542999199E-4   1.663717093833839E-4  
 2.686000000000000E10    1.181944084237330E-3   9.216654416377423E-5  
 2.688000000000000E10    4.087111992703285E-4  -5.356234651117120E-4  
 2.690000000000000E10   -4.614486024365760E-4  -4.427687199495267E-4  
 2.692000000000000E10   -1.117426407290623E-3   6.412120774257346E-5  
 2.694000000000000E10    5.619660769298207E-4   6.705070190946572E-4  
 2.696000000000000E10    4.910986026516184E-4   1.276969796890626E-4  
 2.698000000000000E10    3.932997333322419E-4  -1.202023122459650E-3  
 2.700000000000000E10   -5.552410966913612E-5  -5.054696594015695E-4  
 2.702000000000000E10   -3.131160665361676E-4  -2.258141112179146E-4  
 2.704000000000000E10    2.999604803335387E-4   6.084318883949891E-4  
 2.706000000000000E10    8.745213999645785E-4   1.047734505846165E-3  
 2.708000000000000E10    8.901133915060200E-4   2.966036663565319E-4  
 2.710000000000000E10   -3.684051682739664E-5  -8.271958504337817E-4  
 2.712000000000000E10   -3.892011700372677E-4  -1.454336288588820E-4  
 2.714000000000000E10   -1.082866860087961E-3   4.956354206342439E-5  
 2.716000000000000E10    4.979458753950894E-5   1.544591832498554E-4  
 2.718000000000000E10    6.183449077070691E-4  -1.036805215335335E-4  
 2.720000000000000E10    7.947330086608417E-4  -9.465735492995009E-4  
 2.722000000000000E10    3.802013134190929E-5  -1.292402463150211E-3  
 2.724000000000000E10   -1.503254006820498E-4   5.232864168647211E-6  
 2.726000000000000E10    4.439781378096086E-5   1.028317899908871E-3  
 2.728000000000000E10    7.961740338942036E-4   6.656313144048909E-5  
 2.730000000000000E10    3.608691622503102E-4  -3.163574911013711E-4  
 2.732000000000000E10   -7.572776594315656E-4  -6.867396441521123E-4  
 2.734000000000000E10   -6.622890723519959E-4  -3.060985945921857E-4  
 2.736000000000000E10   -8.578383858548477E-4   2.236627533420688E-4  
 2.738000000000000E10    1.334274488726805E-4  -2.768250742519740E-4  
 2.740000000000000E10    5.555978787015192E-4  -7.103332393398887E-5  
 2.742000000000000E10    3.289729502284899E-4  -1.031805484672077E-3  
 2.744000000000000E10   -5.086154560558498E-4  -5.250345566309989E-4  
 2.746000000000000E10   -6.044104738975875E-4   2.305908819835167E-4  
 2.748000000000000E10    1.704295846138848E-5   4.160717326158192E-4  
 2.750000000000000E10   -1.694743655207276E-4   2.079334035443026E-5  
 2.752000000000000E10    6.370496839736006E-5  -2.274814705742756E-4  
 2.754000000000000E10   -4.815572283405345E-4  -6.874781829537824E-4  
 2.756000000000000E10   -5.858426375198178E-4  -2.149436950276140E-4  
