#  HZ   S   RI   R     50.00 
! Rohde & Schwarz ZVA40 4Ports - Version 3.90 - 1145.1110k42 SN: 100403
! Date: 2023-10-04 06:53:47
! Measurement: S12 
! 
 2.200000000000000E10    1.600605653948151E-3   5.140086959727341E-4  
 2.202000000000000E10   -1.584234578331234E-4  -6.380692175298464E-4  
 2.204000000000000E10   -7.432555357809179E-4   1.252923058927991E-3  
 2.206000000000000E10    2.824167549988488E-4   2.623575666802935E-3  
 2.208000000000000E10    9.687263845989946E-4   3.972165923187276E-4  
 2.210000000000000E10   -3.393063516341499E-4   9.352947836305248E-5  
 2.212000000000000E10   -1.322187410551123E-3   1.552775480377022E-3  
 2.214000000000000E10    7.507688605983276E-4   1.419644591805991E-3  
 2.216000000000000E10    1.050695289450232E-3  -6.638263985223603E-4  
 2.218000000000000E10   -4.170937645540107E-4  -1.407771947015135E-4  
 2.220000000000000E10   -1.393360707879765E-5   3.026485228474485E-4  
 2.222000000000000E10    1.127095565607306E-3   5.408573633758351E-4  
 2.224000000000000E10    1.164481869636802E-3   2.808105450640142E-4  
 2.226000000000000E10    9.298246950493194E-4   4.767055434058420E-4  
 2.228000000000000E10    1.364028888929170E-3   6.758985261967609E-5  
 2.230000000000000E10    5.375724322220776E-4  -6.955867465876509E-4  
 2.232000000000000E10   -8.763323312450666E-4   6.957046468869521E-5  
 2.234000000000000E10    8.012009166122880E-4   1.017546710500028E-3  
 2.236000000000000E10    2.082274171698373E-3   1.778344258127618E-4  
 2.238000000000000E10    9.080566815100610E-4  -2.441692573484033E-3  
 2.240000000000000E10   -1.129029515141156E-3  -1.438220977433957E-3  
 2.242000000000000E10   -8.693004274391569E-4   9.262506100640167E-4  
 2.244000000000000E10    1.489832204242703E-3   1.531933048681822E-4  
 2.246000000000000E10    1.494114861998241E-3  -1.041297211486381E-3  
 2.248000000000000E10   -2.328021284938586E-4  -1.530669498606585E-3  
 2.250000000000000E10    7.924667215775116E-5  -5.926498743065167E-4  
 2.252000000000000E10   -9.731440950417891E-4  -9.309311690230970E-5  
 2.254000000000000E10   -1.313895309067448E-4   1.417451585439267E-5  
 2.256000000000000E10    9.617020114092156E-4   3.265367081439763E-5  
 2.258000000000000E10    6.468003157351632E-4  -1.368832308799028E-3  
 2.260000000000000E10   -8.464809070574120E-4  -1.612210267921910E-3  
 2.262000000000000E10   -1.602181611815468E-3   2.002516630454920E-4  
 2.264000000000000E10   -1.769527607393684E-4   1.125636554206722E-3  
 2.266000000000000E10    1.127984694903716E-3  -3.225765967727057E-4  
 2.268000000000000E10    2.156797709176317E-4  -1.282946963328868E-3  
 2.270000000000000E10   -1.224015912157483E-3  -7.944970602693502E-4  
 2.272000000000000E10   -1.310478185132524E-4   6.597684623557143E-4  
 2.274000000000000E10    2.700715529968534E-5  -2.047763591690455E-4  
 2.276000000000000E10   -2.129687754859333E-5  -3.244398285460193E-4  
 2.278000000000000E10   -9.957288202713244E-4  -5.946366275111359E-5  
 2.280000000000000E10    2.128304968209704E-4   3.129752476525027E-4  
 2.282000000000000E10   -2.433749114061357E-5  -1.429078856745036E-4  
 2.284000000000000E10   -4.702971091319341E-4  -7.910504391475115E-4  
 2.286000000000000E10   -8.998610937851481E-4   6.724672257405473E-4  
 2.288000000000000E10   -4.262267630110728E-4  -1.955278503373847E-5  
 2.290000000000000E10   -1.418058650415333E-5  -8.676436527821352E-5  
 2.292000000000000E10   -1.207389277624316E-4  -9.276316302475607E-5  
 2.294000000000000E10    1.297075377806323E-4  -5.100451180624077E-4  
 2.296000000000000E10   -7.697028813709039E-4  -3.566025170584908E-4  
 2.298000000000000E10   -1.055815871950472E-3   5.090836530143861E-4  
 2.300000000000000E10    3.415337678234209E-4   1.564034355396871E-3  
 2.302000000000000E10    1.299598807236180E-3   1.801329628392523E-4  
 2.304000000000000E10   -1.999335877371777E-4  -1.175142373540439E-3  
 2.306000000000000E10   -1.700098102446646E-3  -4.020422857138328E-4  
 2.308000000000000E10   -1.648717443458736E-3   1.661647380387876E-3  
 2.310000000000000E10    3.184707593533176E-4   1.209154521347955E-3  
 2.312000000000000E10    1.008082072075922E-3   6.637934237119225E-5  
 2.314000000000000E10   -5.926442536292598E-4  -1.278327377804089E-3  
 2.316000000000000E10   -1.439615749404766E-3  -4.380991158541292E-4  
 2.318000000000000E10   -1.021395706629846E-3   1.090910314815119E-3  
 2.320000000000000E10    4.535212719929405E-4   1.297126436838880E-3  
 2.322000000000000E10    9.988220408558846E-4   8.195029913622420E-4  
 2.324000000000000E10    5.454790534713538E-4  -8.199211379178450E-5  
 2.326000000000000E10   -7.694758569414262E-4  -7.007849649198761E-5  
 2.328000000000000E10   -1.334903565293644E-3   1.021396412397735E-3  
 2.330000000000000E10   -3.057860669741785E-5   1.771464623743668E-3  
 2.332000000000000E10    1.007368024147581E-3   5.012842339056078E-4  
 2.334000000000000E10    7.519780338043347E-4  -8.634648875158746E-4  
 2.336000000000000E10   -4.963170613336843E-4  -5.048911698395386E-4  
 2.338000000000000E10   -3.555648213193763E-5   7.136655494832667E-5  
 2.340000000000000E10    8.144848325173371E-4   5.074771579529624E-4  
 2.342000000000000E10    1.062367344275117E-3   8.461210854875390E-4  
 2.344000000000000E10    8.527337340638042E-4   3.941385530197294E-4  
 2.346000000000000E10    7.443298236466944E-4  -3.554407194314990E-4  
 2.348000000000000E10   -1.036804619616305E-4   2.777640611384413E-4  
 2.350000000000000E10   -5.149069875187706E-4  -3.576900198822841E-4  
 2.352000000000000E10    8.514333694620291E-5   5.817259661853313E-4  
 2.354000000000000E10    1.037661786540411E-3   2.491854411346139E-4  
 2.356000000000000E10    9.955632704077289E-4  -4.185456491541117E-4  
 2.358000000000000E10    4.146946594119072E-4  -9.340812466689386E-4  
 2.360000000000000E10   -1.799626897991402E-5  -1.822924896259792E-4  
 2.362000000000000E10    7.745219954813365E-5   3.548240601958241E-4  
 2.364000000000000E10    3.886956437781919E-4   5.130873687448911E-4  
 2.366000000000000E10    7.506091715185903E-4   2.645038366608787E-4  
 2.368000000000000E10    6.006166659062728E-4  -1.065719938196708E-3  
 2.370000000000000E10   -6.631240976275876E-4  -1.148529889178462E-3  
 2.372000000000000E10   -8.762892102822661E-4  -5.314316622389015E-4  
 2.374000000000000E10   -1.973900316443178E-5   2.732740458668559E-4  
 2.376000000000000E10    1.229082539794035E-3  -1.260376302525401E-5  
 2.378000000000000E10    1.681595502304845E-3  -1.231337839271873E-3  
 2.380000000000000E10    2.200983544753399E-6  -1.436166450730525E-3  
 2.382000000000000E10   -6.840636924607679E-4  -4.375129515210574E-5  
 2.384000000000000E10   -8.338719198945910E-4   8.620294756838121E-4  
 2.386000000000000E10    3.174460780428490E-4   6.974136485951021E-4  
 2.388000000000000E10    2.849591819540365E-4  -3.165987218380906E-4  
 2.390000000000000E10   -6.844730378361419E-4  -1.668080847593956E-3  
 2.392000000000000E10   -1.287309132749215E-3  -1.051357670803554E-3  
 2.394000000000000E10   -1.018625349388458E-3   2.022669887082884E-4  
 2.396000000000000E10    1.934557403728832E-4   2.388039865763858E-4  
 2.398000000000000E10    8.821534065646119E-4  -3.097123480984010E-4  
 2.400000000000000E10    4.658414218283724E-4  -1.150991054601036E-3  
 2.402000000000000E10   -6.397072065738030E-4  -1.440066116629168E-4  
 2.404000000000000E10   -1.280891665373929E-3   5.591027293121442E-4  
 2.406000000000000E10   -2.990309021697613E-4   1.523797574918717E-3  
 2.408000000000000E10   -5.200537634664215E-5   8.647196809761226E-4  
 2.410000000000000E10   -4.079200680280337E-4  -6.749954263796099E-4  
 2.412000000000000E10   -8.833397223497741E-4  -5.409822333604097E-4  
 2.414000000000000E10   -9.183772999676876E-4  -5.019013697165065E-4  
 2.416000000000000E10   -4.640312108676881E-4   1.199315502162790E-4  
 2.418000000000000E10   -1.107141270040302E-4   6.901861197547987E-4  
 2.420000000000000E10    5.131838370289188E-4   1.739453873597086E-4  
 2.422000000000000E10    3.908525686711073E-4   2.127603638655273E-4  
 2.424000000000000E10   -7.311117296922021E-4  -1.301077154494124E-4  
 2.426000000000000E10   -1.391713172779419E-3   5.193499164306559E-4  
 2.428000000000000E10   -1.045144010276999E-3   1.496171855251305E-3  
 2.430000000000000E10    2.687309006432770E-4   8.767586841713637E-4  
 2.432000000000000E10    1.596963611518731E-4  -1.455907240597298E-4  
 2.434000000000000E10   -4.191287771391217E-4  -8.426871208939701E-4  
 2.436000000000000E10   -9.442887676414102E-4  -4.492395146371564E-5  
 2.438000000000000E10   -2.917978763434803E-4   6.253702231333591E-4  
 2.440000000000000E10    8.116261087707244E-4   1.205278385896236E-3  
 2.442000000000000E10    1.131277327658609E-3   6.272601858654525E-4  
 2.444000000000000E10    8.544419251848012E-4  -2.302309767401312E-4  
 2.446000000000000E10   -6.636593070652452E-6  -5.101372225908563E-4  
 2.448000000000000E10   -8.716339798411354E-4   4.933239979436621E-4  
 2.450000000000000E10   -1.854167585406685E-4   1.193845368106850E-3  
 2.452000000000000E10    1.092917606001720E-3   5.234922209638171E-4  
 2.454000000000000E10    1.358174311462790E-3  -1.136073449742980E-3  
 2.456000000000000E10   -1.281833888242545E-4  -1.112551530241035E-3  
 2.458000000000000E10   -6.124159554019570E-4  -6.327055302790541E-5  
 2.460000000000000E10    1.735352961986791E-4   6.055651756469160E-4  
 2.462000000000000E10    9.413968946319073E-4   2.157616090698866E-4  
 2.464000000000000E10    1.097283849958330E-3  -1.756873425620142E-4  
 2.466000000000000E10    6.092471448937431E-4  -7.725769246462733E-4  
 2.468000000000000E10   -5.668742669513449E-4  -7.248075780807994E-4  
 2.470000000000000E10   -6.797838141210377E-4   3.494126917757967E-5  
 2.472000000000000E10   -2.632053183333483E-4   5.189633957343176E-4  
 2.474000000000000E10    7.887119572842494E-4  -6.028167221572289E-5  
 2.476000000000000E10    1.000247211777605E-3  -1.561868164571933E-3  
 2.478000000000000E10    1.147260094285230E-4  -1.089445111574605E-3  
 2.480000000000000E10   -7.564310653833672E-4  -7.932489097584039E-5  
 2.482000000000000E10    8.541044098819839E-5   5.589863285422325E-4  
 2.484000000000000E10    7.781059830449522E-4   3.319640454719774E-4  
 2.486000000000000E10    9.248780497728149E-5  -3.552050275175134E-4  
 2.488000000000000E10   -9.139743156083569E-6  -6.791054693167098E-4  
 2.490000000000000E10   -7.175921564339660E-4  -4.878908584942110E-4  
 2.492000000000000E10   -1.143737463280559E-3  -1.816104322642786E-4  
 2.494000000000000E10   -5.221852734393906E-4   3.208553171134554E-4  
 2.496000000000000E10    7.811354662408121E-4   7.643245271538035E-5  
 2.498000000000000E10    6.923972396180034E-4  -1.120663699111901E-3  
 2.500000000000000E10   -3.382878094271291E-4  -1.217438562889583E-3  
 2.502000000000000E10   -1.111051307816524E-3   1.722927677292319E-4  
 2.504000000000000E10   -2.536168231017655E-4   7.892773428466171E-4  
 2.506000000000000E10    6.374758813763037E-4   4.931652911182027E-4  
 2.508000000000000E10    1.846982340794057E-4  -2.163140297852806E-4  
 2.510000000000000E10   -4.562945687212050E-4  -1.145852525951341E-3  
 2.512000000000000E10   -9.678882779553533E-4  -3.531641050358303E-4  
 2.514000000000000E10   -7.111143640941009E-4  -2.101520967698889E-4  
 2.516000000000000E10    1.387678294122452E-4   6.932611358934082E-4  
 2.518000000000000E10    6.303686132014263E-4   8.236740018219280E-5  
 2.520000000000000E10    7.524862667196430E-4  -8.629053045297042E-4  
 2.522000000000000E10   -6.880762448417954E-4  -6.885305483592674E-4  
 2.524000000000000E10   -7.854182476876304E-4   6.186897844600026E-4  
 2.526000000000000E10   -1.705891572783003E-4   9.160878107650206E-4  
 2.528000000000000E10    8.292349957628176E-4   5.236790821072646E-4  
 2.530000000000000E10    1.722935721772956E-4  -6.735079223290086E-4  
 2.532000000000000E10   -5.223192165431101E-4  -2.032185548159760E-4  
 2.534000000000000E10   -6.030709337210283E-4  -1.164466816589993E-4  
 2.536000000000000E10    9.291039168601856E-5   2.717664774536388E-4  
 2.538000000000000E10    1.092969450837700E-4   4.583064619509969E-4  
 2.540000000000000E10    6.443752281484194E-4   2.392084243183490E-4  
 2.542000000000000E10    4.723957536043599E-4  -3.683004506456200E-4  
 2.544000000000000E10   -3.763411295949481E-4  -5.977012333460152E-4  
 2.546000000000000E10   -4.139824159210548E-4   3.938074514735490E-4  
 2.548000000000000E10   -3.027699640369974E-4   6.010512734064832E-4  
 2.550000000000000E10    5.880036114831455E-4   2.309493838765775E-4  
 2.552000000000000E10    3.391295558685670E-5   2.025734352173458E-5  
 2.554000000000000E10    4.174022251390852E-4  -3.390592719370034E-4  
 2.556000000000000E10   -4.567254691210110E-4  -3.237773853470571E-4  
 2.558000000000000E10   -6.927771028131247E-4   6.350675903377123E-4  
 2.560000000000000E10    3.916371606464963E-4   1.081900889403187E-3  
 2.562000000000000E10    1.352379927993752E-3   3.684741277538706E-4  
 2.564000000000000E10    8.555426393286325E-4  -5.028317973483354E-4  
 2.566000000000000E10   -4.851842459174804E-4  -1.086479634977877E-3  
 2.568000000000000E10   -6.254604522837326E-4   1.275906601222232E-3  
 2.570000000000000E10    2.683362581592519E-4   1.247738211532123E-3  
 2.572000000000000E10    1.706043622107245E-3   3.756548608180310E-5  
 2.574000000000000E10    5.404453913797624E-4  -6.345813635562081E-4  
 2.576000000000000E10   -1.167372397503641E-4  -3.501180835883133E-4  
 2.578000000000000E10   -6.499669179902412E-4   2.466988771629985E-4  
 2.580000000000000E10    2.132669151251321E-4   6.732106849085540E-4  
 2.582000000000000E10    4.178745803073980E-4   6.947193032829091E-4  
 2.584000000000000E10    9.718315559439361E-4  -8.764208832872100E-4  
 2.586000000000000E10    5.614846813841723E-4  -4.169407256995328E-4  
 2.588000000000000E10   -8.533476066077128E-4  -4.278361157048494E-4  
 2.590000000000000E10    1.549901329553904E-4   7.157504878705367E-4  
 2.592000000000000E10    5.840076046297327E-4   8.654103949083947E-4  
 2.594000000000000E10    8.338429543073289E-4  -5.613349858322181E-4  
 2.596000000000000E10   -2.970377063320484E-4  -9.920448355842382E-4  
 2.598000000000000E10   -3.484674161882140E-4   4.941274892189540E-5  
 2.600000000000000E10   -3.238309218431823E-4  -5.889653257327154E-4  
 2.602000000000000E10   -2.920421502494719E-4  -1.039871503962786E-4  
 2.604000000000000E10    5.719964508443809E-5   4.327049791754689E-4  
 2.606000000000000E10    6.180804048199207E-4  -1.351461530703091E-4  
 2.608000000000000E10    3.242790407966822E-4  -6.756662987754680E-4  
 2.610000000000000E10   -8.933938079280779E-4  -6.069414448575117E-4  
 2.612000000000000E10   -7.722245281911455E-4   8.299917681142688E-4  
 2.614000000000000E10   -8.362307744391728E-5   5.201933599892072E-4  
 2.616000000000000E10    4.938366910209879E-4   3.661022601590958E-4  
 2.618000000000000E10   -8.134858398989309E-5  -9.760045431903563E-4  
 2.620000000000000E10    1.829412376537221E-4  -4.333050674176775E-4  
 2.622000000000000E10   -9.205327660311014E-4  -2.868378614948597E-4  
 2.624000000000000E10    3.152710141876014E-4   4.271748293831479E-4  
 2.626000000000000E10    4.170880747551564E-4   9.023396632983349E-4  
 2.628000000000000E10    1.116753308451735E-3   1.127496566368791E-4  
 2.630000000000000E10   -1.217632772068100E-4  -3.460108055151068E-4  
 2.632000000000000E10   -9.053563990164548E-4  -4.215387452859432E-4  
 2.634000000000000E10   -1.010649808449671E-3   6.902475652168505E-4  
 2.636000000000000E10    3.947686627725489E-5   5.563776612689253E-4  
 2.638000000000000E10    1.055300832376815E-3   1.222226819663774E-4  
 2.640000000000000E10    3.636259589256952E-5  -1.438526291167364E-3  
 2.642000000000000E10   -9.456363886783947E-5  -5.832335009472445E-4  
 2.644000000000000E10   -8.676934812683612E-4   1.420703538315138E-4  
 2.646000000000000E10    6.662010346190073E-4   8.786903199506924E-4  
 2.648000000000000E10    5.420754314400256E-4   5.493183562066406E-4  
 2.650000000000000E10    8.298679749714211E-4  -1.211043962143776E-4  
 2.652000000000000E10   -5.572132317865908E-5  -2.675591094885021E-4  
 2.654000000000000E10   -1.157727092504501E-3  -5.136633408255875E-4  
 2.656000000000000E10   -8.288774988614023E-4   6.921650929143652E-4  
 2.658000000000000E10    3.890093139489181E-4  -2.790395592455752E-5  
 2.660000000000000E10    8.018660664674826E-4  -3.052721385756740E-4  
 2.662000000000000E10    2.232887363788905E-4  -1.114112252253108E-3  
 2.664000000000000E10   -1.760948498485959E-4  -3.111204659944633E-4  
 2.666000000000000E10   -4.677868419094011E-4   5.174062316655181E-4  
 2.668000000000000E10    3.581073833629489E-4   7.914454545243643E-4  
 2.670000000000000E10    3.525778756738873E-4   6.956590732443146E-4  
 2.672000000000000E10    1.877959748526337E-4  -7.942340926092584E-5  
 2.674000000000000E10   -6.680851438432001E-4  -4.440373450051993E-4  
 2.676000000000000E10   -1.064972937456332E-3   1.708904354700280E-4  
 2.678000000000000E10   -7.207638554973528E-4   3.035007284779567E-4  
 2.680000000000000E10    2.244499191874638E-4   1.420827691163140E-4  
 2.682000000000000E10    3.838400843960699E-4   3.881622615153901E-4  
 2.684000000000000E10    2.963294573419262E-4  -7.332570385187864E-4  
 2.686000000000000E10    4.701375456761525E-5  -2.932844436145388E-4  
 2.688000000000000E10   -7.435385341523215E-4   5.025913706049323E-4  
 2.690000000000000E10   -4.742055716633331E-5   1.270420762011781E-3  
 2.692000000000000E10    1.042415060510393E-3   5.031735199736431E-4  
 2.694000000000000E10    4.825712312594988E-4  -1.911949038913008E-5  
 2.696000000000000E10   -7.673910149605945E-4  -5.238407211436424E-4  
 2.698000000000000E10   -5.449762284115423E-4   1.598689539150655E-4  
 2.700000000000000E10   -6.279506342252716E-4   7.855452058720402E-4  
 2.702000000000000E10    1.858582400018349E-4   2.343640189792495E-4  
 2.704000000000000E10    9.325650098617189E-4  -3.409595119592268E-4  
 2.706000000000000E10    2.145891849067994E-4  -1.183386353659444E-3  
 2.708000000000000E10   -4.308973948354833E-4  -3.802234459726606E-4  
 2.710000000000000E10   -3.574246547941584E-4   4.736461123684421E-4  
 2.712000000000000E10    6.200134957907721E-4   1.193463627714664E-3  
 2.714000000000000E10    5.346717807697132E-4  -3.792803108808585E-4  
 2.716000000000000E10    5.009967135265470E-4   2.839150638465071E-4  
 2.718000000000000E10   -1.257354902918451E-3  -5.437608633656055E-4  
 2.720000000000000E10   -3.257744174334221E-4   1.041626182995969E-4  
 2.722000000000000E10   -6.696363707305864E-4   8.772379442234524E-4  
 2.724000000000000E10    2.697650870686630E-4  -9.648908235249110E-5  
 2.726000000000000E10    6.760765754734166E-4  -3.182246473443229E-4  
 2.728000000000000E10    5.688762612408027E-4  -9.305487983510830E-4  
 2.730000000000000E10   -4.550216253846884E-4  -3.477846112218685E-4  
 2.732000000000000E10   -4.609580937540159E-4   3.405872375878971E-4  
 2.734000000000000E10    6.151217021397315E-4   1.094892752007581E-3  
 2.736000000000000E10    2.135112263204064E-4   3.499248559819534E-4  
 2.738000000000000E10   -1.155926656792872E-5  -1.769557311490644E-4  
 2.740000000000000E10   -9.392568463226780E-4  -3.786215638683643E-4  
 2.742000000000000E10   -8.608962452854030E-4  -2.496274992154213E-4  
 2.744000000000000E10   -1.999620035348926E-4   3.709325574163813E-4  
 2.746000000000000E10    5.134870953042992E-4   9.210117332258960E-5  
 2.748000000000000E10    9.331202454632148E-4  -1.614089132999652E-4  
 2.750000000000000E10    3.496840508887544E-4  -3.508925256028306E-4  
 2.752000000000000E10   -3.255096053180751E-4  -1.068743986252230E-4  
 2.754000000000000E10   -5.467616792884655E-4   9.423308583791368E-4  
 2.756000000000000E10    4.798890113306698E-4   1.710741227725521E-3  
