#  HZ   S   RI   R     50.00 
! Rohde & Schwarz ZVA40 4Ports - Version 3.90 - 1145.1110k42 SN: 100403
! Date: 2023-10-04 06:51:36
! Measurement: S12 
! 
 2.200000000000000E10   -8.571452926844358E-4   5.282581514620688E-4  
 2.202000000000000E10   -9.804596775211394E-4   4.654891454265453E-4  
 2.204000000000000E10   -8.170055589289405E-4   1.546346189570613E-3  
 2.206000000000000E10   -1.647966519158217E-4   4.132991161895916E-4  
 2.208000000000000E10   -8.618691135779955E-4  -9.230038922396489E-4  
 2.210000000000000E10   -2.260515990201384E-3  -5.300247867126018E-4  
 2.212000000000000E10   -1.290383021114394E-3   1.159911480499432E-3  
 2.214000000000000E10    9.763891939655878E-4   6.005656687193550E-4  
 2.216000000000000E10    5.397188433562405E-4  -8.724945364519954E-4  
 2.218000000000000E10   -1.109341828851029E-3   9.303126080340007E-5  
 2.220000000000000E10   -1.463321877963608E-4   1.562701392685995E-3  
 2.222000000000000E10    1.262134624994360E-3   9.009142013383098E-4  
 2.224000000000000E10   -1.862848043856502E-4   3.652370869531296E-4  
 2.226000000000000E10   -1.256150077097118E-3   7.552285824203864E-4  
 2.228000000000000E10    9.756357248988934E-4   1.808171407901682E-3  
 2.230000000000000E10    7.792651158524677E-4   1.563729839801908E-4  
 2.232000000000000E10   -4.821050060854759E-4  -6.860892754048109E-4  
 2.234000000000000E10    1.817694810597459E-4   7.343666075030342E-4  
 2.236000000000000E10    6.277153952396475E-4   6.898552564962301E-4  
 2.238000000000000E10    6.597971587325446E-4  -3.562416850400041E-6  
 2.240000000000000E10    9.317540389019996E-4   5.193486067582853E-4  
 2.242000000000000E10    1.147636765381321E-3  -2.179814271130454E-4  
 2.244000000000000E10    9.069653751794249E-4  -7.857792516006157E-4  
 2.246000000000000E10   -7.483122244593687E-4  -4.546910531644244E-4  
 2.248000000000000E10   -2.262336975036305E-4   1.318778216955252E-3  
 2.250000000000000E10    1.894282497232780E-3   5.453873673104681E-4  
 2.252000000000000E10    1.464654822484590E-3  -1.507481982116588E-3  
 2.254000000000000E10   -6.958030098758172E-4  -1.372164450003766E-3  
 2.256000000000000E10   -1.176994817797095E-3   5.679753485310357E-4  
 2.258000000000000E10    6.046053604222834E-4   8.082001659204252E-4  
 2.260000000000000E10    1.037882080709096E-3  -1.920734575833194E-6  
 2.262000000000000E10    4.797698347829282E-4  -1.315386820351705E-3  
 2.264000000000000E10   -2.721675318753114E-4  -7.499282146454789E-4  
 2.266000000000000E10   -9.855861499090679E-4  -4.783903241332155E-4  
 2.268000000000000E10    2.591471411506063E-4   7.897302202763967E-4  
 2.270000000000000E10    9.548875095788389E-4   7.678558977204375E-4  
 2.272000000000000E10    1.058079353242647E-3  -8.011178651941009E-4  
 2.274000000000000E10   -7.941451622173190E-5  -9.746357245603576E-4  
 2.276000000000000E10   -1.152557626483031E-3   6.488689541583881E-5  
 2.278000000000000E10   -6.597898318432272E-4   9.159606124740094E-4  
 2.280000000000000E10    6.266469972615596E-4   9.612860521883704E-4  
 2.282000000000000E10    9.137953384197317E-4  -4.286203511583153E-4  
 2.284000000000000E10   -6.857457337900996E-4  -1.084684321540408E-3  
 2.286000000000000E10   -1.246461339178495E-3   2.825057373456730E-5  
 2.288000000000000E10    3.552800744728302E-4  -2.143479632650269E-4  
 2.290000000000000E10    7.439616019837558E-4  -1.207896411870024E-4  
 2.292000000000000E10    1.525233656138880E-4  -5.646125953262526E-5  
 2.294000000000000E10    4.140136443311349E-4   2.833889175235527E-4  
 2.296000000000000E10    4.118910765100736E-4   2.140836695616599E-4  
 2.298000000000000E10   -1.855284244811628E-4  -1.230212074005976E-4  
 2.300000000000000E10   -9.717126158648171E-4   4.410603105498012E-4  
 2.302000000000000E10   -1.580350822223409E-4   2.542497186368564E-4  
 2.304000000000000E10    6.207947899383726E-5  -2.983728481922299E-4  
 2.306000000000000E10   -2.715101054491242E-4  -7.905294114607386E-4  
 2.308000000000000E10   -1.548641557747033E-4  -9.353451896458864E-4  
 2.310000000000000E10   -4.989586723240791E-4  -1.047797988576349E-3  
 2.312000000000000E10   -7.878818723838776E-4  -3.000108463311335E-4  
 2.314000000000000E10    5.615093778033042E-5   6.397512261173688E-4  
 2.316000000000000E10    1.166282498161309E-3  -1.556679635541514E-4  
 2.318000000000000E10    1.314443670707988E-5  -1.143219153163955E-3  
 2.320000000000000E10   -1.738250968628563E-3  -5.157578307262156E-4  
 2.322000000000000E10   -1.722423316095956E-3   1.151976452092640E-3  
 2.324000000000000E10   -2.730039004745777E-4   9.287559805670753E-4  
 2.326000000000000E10    3.508587724354584E-4  -9.154368899544352E-5  
 2.328000000000000E10   -5.378110945457593E-4  -1.644370451685973E-3  
 2.330000000000000E10   -1.148026763985399E-3  -9.148114768322557E-4  
 2.332000000000000E10   -1.325068078585900E-3  -2.983255171784549E-5  
 2.334000000000000E10    4.778435049956897E-5   1.070321872248314E-3  
 2.336000000000000E10    1.282154786167666E-3   5.390879268816207E-4  
 2.338000000000000E10    6.764596619177610E-4  -4.721585773950210E-4  
 2.340000000000000E10   -5.278483331494499E-4  -2.987422749356483E-4  
 2.342000000000000E10   -1.538408803753555E-3   1.157679260359146E-3  
 2.344000000000000E10   -6.620229105465114E-4   1.276458031497896E-3  
 2.346000000000000E10    6.245003678486683E-4   1.071662140020635E-3  
 2.348000000000000E10    7.154564264055807E-5  -4.973190298187546E-4  
 2.350000000000000E10   -3.665719777927734E-4  -6.732343754265457E-4  
 2.352000000000000E10   -7.994106199475937E-4  -2.120442768500652E-4  
 2.354000000000000E10    9.785420661501121E-5   1.263623242266476E-3  
 2.356000000000000E10    8.703907515155152E-4   9.963900811271742E-4  
 2.358000000000000E10    1.080248133803252E-3   1.249137476406759E-4  
 2.360000000000000E10    2.740449417615309E-4   3.693573735290556E-4  
 2.362000000000000E10   -1.556833376525901E-4   5.501681589521468E-4  
 2.364000000000000E10   -8.847008484735852E-5   4.655606826418079E-4  
 2.366000000000000E10   -4.933564632665366E-4   8.434283663518727E-4  
 2.368000000000000E10    4.869674085057341E-4   9.103090051212348E-4  
 2.370000000000000E10    1.062422204995528E-3  -3.975298150180606E-4  
 2.372000000000000E10    2.089203389914474E-4  -8.160232609952800E-4  
 2.374000000000000E10    1.967475739093061E-4  -1.364199501949770E-4  
 2.376000000000000E10    1.041423570313782E-4   7.049861014820635E-4  
 2.378000000000000E10    9.571266709826887E-4   8.826861667330377E-4  
 2.380000000000000E10    1.359637550194748E-3   3.137541007163236E-4  
 2.382000000000000E10    6.244060277822428E-4  -4.721682998933829E-4  
 2.384000000000000E10   -4.152733235969208E-4  -8.271981496363878E-4  
 2.386000000000000E10   -2.809869492921280E-4  -4.365254826552700E-4  
 2.388000000000000E10   -2.256851075799204E-4   1.046564052558097E-4  
 2.390000000000000E10    1.242683545569889E-3   4.306833943701349E-4  
 2.392000000000000E10    1.535767893074080E-3  -1.395991261233576E-3  
 2.394000000000000E10    1.511478576503578E-4  -1.544290746096522E-3  
 2.396000000000000E10   -9.692209569038823E-4  -6.275952964642784E-4  
 2.398000000000000E10    2.410715446785616E-4   6.162642239360139E-4  
 2.400000000000000E10    7.237483077915385E-4   6.857558037154377E-4  
 2.402000000000000E10    8.463939302600920E-4  -8.512626227457076E-4  
 2.404000000000000E10   -1.776465942384675E-4  -1.282272045500577E-3  
 2.406000000000000E10   -9.056366179720499E-4  -6.625033565796912E-4  
 2.408000000000000E10   -1.064693729858846E-3   1.826123343562358E-4  
 2.410000000000000E10    5.600505683105439E-4   2.330955030629411E-4  
 2.412000000000000E10    7.089746359270066E-4  -5.869518718100153E-4  
 2.414000000000000E10    5.630816231132485E-4  -1.293144974624738E-3  
 2.416000000000000E10   -6.381190760293976E-4  -9.841104038059712E-4  
 2.418000000000000E10   -1.063320618413854E-3   7.753759200568311E-5  
 2.420000000000000E10   -4.670991911552846E-4   5.010663408029359E-4  
 2.422000000000000E10    3.763676468224730E-4  -1.941899588473461E-4  
 2.424000000000000E10    3.263535288624553E-4  -9.525974455755204E-4  
 2.426000000000000E10   -6.661147381237242E-4  -1.058796740835533E-3  
 2.428000000000000E10   -7.480689528165385E-4  -5.767248330812436E-4  
 2.430000000000000E10   -7.984890980878845E-4   5.737568808399374E-4  
 2.432000000000000E10    1.974282631636015E-4   2.018195300479420E-4  
 2.434000000000000E10    2.026410911639687E-4   2.858811603800859E-5  
 2.436000000000000E10    2.723417474044254E-4  -4.359406502771890E-4  
 2.438000000000000E10   -5.716699051845353E-4  -6.971406692173332E-4  
 2.440000000000000E10   -1.020052062813193E-3   2.181433819714584E-4  
 2.442000000000000E10   -7.690982165513560E-4   9.855680546024814E-4  
 2.444000000000000E10    6.002333975629881E-4   5.838391152792610E-4  
 2.446000000000000E10    3.514659547363408E-4  -6.935296623851173E-4  
 2.448000000000000E10   -1.891995452751871E-4  -9.922947137965821E-4  
 2.450000000000000E10   -7.486610629712232E-4   3.212422689102823E-4  
 2.452000000000000E10   -8.268656347354408E-5   5.702335256501101E-4  
 2.454000000000000E10    2.112188467435772E-4   1.167898837593384E-3  
 2.456000000000000E10    7.066271646181122E-4   2.534962713980349E-4  
 2.458000000000000E10    2.219385933130980E-4  -2.204682159572258E-4  
 2.460000000000000E10   -3.774777906073723E-4  -6.460329786932562E-4  
 2.462000000000000E10   -1.225125015480444E-3   1.799058568394685E-4  
 2.464000000000000E10    6.822219711466460E-5   8.827132187434472E-4  
 2.466000000000000E10    1.113789330702275E-3   5.711547055398114E-4  
 2.468000000000000E10    1.138814535806887E-3  -6.764969693904277E-4  
 2.470000000000000E10   -5.434225531644188E-4  -1.128482064814307E-3  
 2.472000000000000E10   -5.163991522749711E-5   3.044391705770977E-4  
 2.474000000000000E10   -9.805022227737936E-5   1.081214155419730E-3  
 2.476000000000000E10    1.582933648023754E-3   9.319127566413954E-4  
 2.478000000000000E10    9.804655128391460E-4  -2.565712238720153E-4  
 2.480000000000000E10    1.156510279542999E-5  -4.515393811743707E-4  
 2.482000000000000E10   -7.562854298157617E-4  -2.095280215144157E-4  
 2.484000000000000E10   -5.245623924565734E-5   6.470288644777611E-4  
 2.486000000000000E10   -1.858302143773472E-4   5.304439655446913E-4  
 2.488000000000000E10    1.087834636564367E-3  -2.134357359864225E-4  
 2.490000000000000E10    4.459994524950162E-4  -7.749863507342525E-4  
 2.492000000000000E10    6.395456603058847E-5  -1.522799910162576E-3  
 2.494000000000000E10   -4.339775186963379E-4   4.474174766073702E-4  
 2.496000000000000E10    3.681653288367670E-4   9.298035001847893E-4  
 2.498000000000000E10    9.476229388383217E-4   2.521064084248792E-4  
 2.500000000000000E10    7.467123432434164E-4  -5.207407266425435E-4  
 2.502000000000000E10   -2.547257709011319E-4  -2.499929832993075E-4  
 2.504000000000000E10   -7.600501121487469E-4  -4.481059659156017E-4  
 2.506000000000000E10   -1.524248013993201E-4  -2.474878947396064E-4  
 2.508000000000000E10   -5.411594029283151E-4   3.536499589245068E-4  
 2.510000000000000E10    9.877908887574449E-4  -3.315809008199722E-4  
 2.512000000000000E10    1.133734818722587E-3  -9.041799785336480E-4  
 2.514000000000000E10   -1.705677018435381E-4  -1.163470282335766E-3  
 2.516000000000000E10   -6.036849226802588E-4   2.945465330412844E-4  
 2.518000000000000E10   -1.286919086851412E-6   8.992092552944087E-4  
 2.520000000000000E10    9.508211005595513E-4   1.110954210162163E-3  
 2.522000000000000E10    1.758722555678105E-4  -7.685810996918008E-4  
 2.524000000000000E10   -3.261093916080426E-4  -3.883021126966924E-4  
 2.526000000000000E10   -1.548392028780654E-3  -1.874817312454979E-4  
 2.528000000000000E10   -1.400681103405077E-4  -4.239900704305910E-5  
 2.530000000000000E10   -6.753449952157098E-5   8.610524455434643E-4  
 2.532000000000000E10    1.191473988001235E-3  -7.511464209528640E-4  
 2.534000000000000E10    7.290353823918849E-4  -4.642632375180256E-4  
 2.536000000000000E10   -4.835554427700117E-4  -5.652867766912095E-4  
 2.538000000000000E10   -6.814171974838246E-4   1.096554638934322E-3  
 2.540000000000000E10    5.382785420806613E-4   7.907057952252217E-4  
 2.542000000000000E10    7.036563547444530E-4   3.815102936641779E-4  
 2.544000000000000E10   -1.781353312253486E-4  -8.689320820849389E-4  
 2.546000000000000E10   -1.069449164788239E-3  -6.564339710166678E-4  
 2.548000000000000E10   -3.452250894042663E-4  -2.134844098122812E-5  
 2.550000000000000E10   -7.864751796660130E-5  -1.074017854989506E-4  
 2.552000000000000E10    5.419468907348346E-4  -1.218348988913931E-4  
 2.554000000000000E10    5.750428244937211E-4  -4.067318113811780E-4  
 2.556000000000000E10    3.744561836356297E-4  -4.869820331805386E-4  
 2.558000000000000E10   -4.455101625353564E-4  -4.442510362423491E-4  
 2.560000000000000E10   -5.922080817981623E-4   8.619020154583268E-4  
 2.562000000000000E10    1.268035543944279E-5   8.859638255671598E-4  
 2.564000000000000E10    4.311869270168245E-5   4.530908699962311E-4  
 2.566000000000000E10   -3.455413625488291E-4  -5.237124860286713E-4  
 2.568000000000000E10   -2.701802259252872E-4  -4.780371709784959E-4  
 2.570000000000000E10   -1.368589073535986E-3   2.910325874836417E-4  
 2.572000000000000E10   -1.559871943754843E-4   5.683432027581148E-4  
 2.574000000000000E10    4.313270346756326E-5   8.344657035195269E-4  
 2.576000000000000E10    7.716335530858487E-4   3.163106011925265E-4  
 2.578000000000000E10    1.436119346180931E-4  -5.354232343961485E-4  
 2.580000000000000E10   -8.177117124432698E-4  -1.370294515083970E-4  
 2.582000000000000E10   -1.310804247623310E-3   1.401251211063936E-3  
 2.584000000000000E10    7.679739865125157E-4   9.687533311080188E-4  
 2.586000000000000E10    7.022473073448055E-4   5.112732651468832E-4  
 2.588000000000000E10    8.742284717300208E-5  -9.423624433111399E-4  
 2.590000000000000E10   -4.698739103332628E-4  -1.051643048413098E-4  
 2.592000000000000E10   -3.817331089521758E-4   5.473032360896468E-4  
 2.594000000000000E10    3.543208404153120E-4   8.125579006446060E-4  
 2.596000000000000E10    9.352535198559053E-4   1.828229196689790E-4  
 2.598000000000000E10    1.023703443934210E-3  -3.214924654457718E-4  
 2.600000000000000E10   -3.745432441064622E-4  -5.420870838861447E-4  
 2.602000000000000E10   -3.779320759349503E-4  -3.525840875227004E-4  
 2.604000000000000E10   -5.378450878197327E-4   1.268945517949760E-3  
 2.606000000000000E10    7.927480401122011E-4   5.116022330184933E-4  
 2.608000000000000E10    7.618788149557076E-4  -4.756805865326896E-4  
 2.610000000000000E10   -1.792997645679861E-4  -9.072921966435388E-4  
 2.612000000000000E10   -3.817365577560850E-4  -3.959876848966815E-4  
 2.614000000000000E10   -1.256179507436173E-4   2.388441280345433E-4  
 2.616000000000000E10    3.906507736246567E-4  -6.280221577981138E-5  
 2.618000000000000E10    7.039007541607134E-4   1.747202450133045E-4  
 2.620000000000000E10    8.912083794712089E-4  -3.021982065547491E-4  
 2.622000000000000E10   -2.769885340967448E-4  -6.397971774276812E-4  
 2.624000000000000E10   -5.613982066279277E-4   5.209813457440760E-5  
 2.626000000000000E10   -8.963435684563592E-4   5.435257553472184E-4  
 2.628000000000000E10    2.389918938661140E-4   3.555259208951611E-4  
 2.630000000000000E10   -2.105287785525434E-5  -2.148461644537747E-4  
 2.632000000000000E10   -1.025476285576588E-4  -1.128161617089063E-3  
 2.634000000000000E10   -7.637759263161570E-4  -6.402447761502117E-4  
 2.636000000000000E10   -2.924833715951536E-4  -2.606514103717927E-4  
 2.638000000000000E10    9.047159392139292E-5   7.642985437996686E-4  
 2.640000000000000E10    5.895173489989247E-4  -1.123070292123884E-4  
 2.642000000000000E10    6.362372805597261E-4   1.953767041413812E-4  
 2.644000000000000E10   -6.096462238929234E-4  -2.751031115622027E-4  
 2.646000000000000E10   -7.441113993991166E-4   4.579247558922361E-5  
 2.648000000000000E10   -6.954673808650114E-4   9.965415883925743E-4  
 2.650000000000000E10    2.661383807662787E-4   7.155229686759412E-4  
 2.652000000000000E10    4.443421203177422E-4  -5.998184278723784E-4  
 2.654000000000000E10    5.609052459476516E-4  -1.449866322218441E-3  
 2.656000000000000E10   -9.229933202732354E-4  -4.937193443765864E-4  
 2.658000000000000E10   -4.843897768296301E-4   4.201724805170670E-4  
 2.660000000000000E10    8.958778926171362E-4   1.399315602611750E-3  
 2.662000000000000E10    6.109542591730133E-4   2.505304109945428E-4  
 2.664000000000000E10    6.871738296467811E-4  -2.298501058248803E-4  
 2.666000000000000E10   -1.012811902910471E-3   5.863740807399154E-5  
 2.668000000000000E10   -1.172166550531983E-3   2.240662834083196E-4  
 2.670000000000000E10   -5.886524450033903E-4   3.857319752569310E-4  
 2.672000000000000E10    1.650103513384238E-4  -3.526547880028375E-4  
 2.674000000000000E10    2.663766044861404E-4  -8.517910318914801E-4  
 2.676000000000000E10   -4.601438172358030E-5  -1.105359289795160E-3  
 2.678000000000000E10   -2.798460918711498E-4  -3.029433974006679E-4  
 2.680000000000000E10   -2.465975485392846E-4   6.466450868174434E-4  
 2.682000000000000E10    4.999400407541543E-4   1.212586794281378E-3  
 2.684000000000000E10    5.011969915358350E-4   1.311719415753032E-4  
 2.686000000000000E10    1.032476238833624E-4  -1.968113756447565E-4  
 2.688000000000000E10   -1.396305422531441E-3  -2.040927538473625E-4  
 2.690000000000000E10   -1.111135090468451E-3   2.981929574161768E-4  
 2.692000000000000E10   -2.763341144600418E-4   3.285777202108875E-4  
 2.694000000000000E10    3.793003706960008E-4   2.566837838458014E-5  
 2.696000000000000E10    2.773236192297190E-4  -3.366341502442083E-4  
 2.698000000000000E10    4.600065876729786E-4  -7.615901267854497E-4  
 2.700000000000000E10   -2.425763450446539E-4  -1.654708466958255E-4  
 2.702000000000000E10   -2.381898011662997E-4   5.466953152790666E-4  
 2.704000000000000E10    7.271717186085880E-4   1.300716743571684E-3  
 2.706000000000000E10    9.361944685224444E-4   1.008015970000997E-4  
 2.708000000000000E10   -2.188844810007140E-4  -8.037576189963147E-4  
 2.710000000000000E10   -1.102946640457958E-3  -1.334286869223433E-4  
 2.712000000000000E10   -6.295977218542248E-4   6.516512366943061E-4  
 2.714000000000000E10    4.550850353552960E-4   1.182794485430350E-4  
 2.716000000000000E10    5.786593101220205E-4  -4.579253509291448E-4  
 2.718000000000000E10    2.420839100523153E-4  -4.921162617392838E-4  
 2.720000000000000E10    2.479222966940142E-4  -5.512097559403628E-4  
 2.722000000000000E10   -1.156055113824550E-4  -2.113374139298685E-4  
 2.724000000000000E10    2.014640558627434E-4   8.147835324052721E-4  
 2.726000000000000E10    6.614251178689301E-4   9.108379163080826E-4  
 2.728000000000000E10    7.605306163895875E-4  -3.628996782936156E-4  
 2.730000000000000E10   -1.959314795385581E-4  -4.588431038428098E-4  
 2.732000000000000E10   -1.023330260068178E-3  -4.569276061374694E-4  
 2.734000000000000E10   -8.896210638340563E-4   5.642625401378609E-4  
 2.736000000000000E10    5.292401328915730E-5  -2.468185584802995E-4  
 2.738000000000000E10    5.783360247733071E-4  -4.008807009086013E-4  
 2.740000000000000E10    3.878963434544858E-5  -7.550432201242074E-4  
 2.742000000000000E10    2.992463851114735E-4  -5.188992072362453E-4  
 2.744000000000000E10   -5.537621618714184E-4  -1.181685493065743E-4  
 2.746000000000000E10    9.049489017343149E-5   8.756096794968471E-4  
 2.748000000000000E10    6.574363214895129E-4   5.490537951118313E-4  
 2.750000000000000E10    8.916819319892966E-5  -2.707736566662788E-4  
 2.752000000000000E10   -4.462089491426013E-4  -3.728929514181800E-4  
 2.754000000000000E10   -9.721574606373906E-4   1.842451545144286E-4  
 2.756000000000000E10   -5.165217226021923E-4   3.474407494650222E-4  
