#  HZ   S   RI   R     50.00 
! Rohde & Schwarz ZVA40 4Ports - Version 3.90 - 1145.1110k42 SN: 100403
! Date: 2023-10-04 06:51:12
! Measurement: S12 
! 
 2.200000000000000E10    4.867150983045576E-4  -1.264881611859892E-3  
 2.202000000000000E10   -9.231779549736530E-4  -1.159784405899700E-3  
 2.204000000000000E10   -3.895656118402258E-4  -8.328870080731576E-5  
 2.206000000000000E10    1.199013953737449E-3   5.131172329129186E-4  
 2.208000000000000E10    1.753271106281318E-3  -1.281790726352483E-3  
 2.210000000000000E10    2.068660469376482E-4  -1.366593634884339E-3  
 2.212000000000000E10   -1.449597315513529E-3   5.000909477530513E-4  
 2.214000000000000E10    2.014371166296769E-4   9.688771315268241E-4  
 2.216000000000000E10    4.763249000916403E-5   4.258291710357298E-6  
 2.218000000000000E10   -2.911113388108788E-4  -9.864352323347703E-4  
 2.220000000000000E10   -6.454440572269959E-4  -7.167587391450070E-4  
 2.222000000000000E10   -8.966252353275195E-4  -1.104397710150806E-3  
 2.224000000000000E10   -1.175325582153164E-3  -2.461538429088250E-4  
 2.226000000000000E10    1.271977198484819E-4   8.910750657378230E-4  
 2.228000000000000E10    1.016496858937899E-3  -7.925852742118877E-5  
 2.230000000000000E10    2.051529811524233E-4  -1.188719266792759E-3  
 2.232000000000000E10   -1.524272171081975E-3  -2.351946920953196E-4  
 2.234000000000000E10   -1.152448028733488E-3   1.717519269732293E-3  
 2.236000000000000E10    5.767546390416101E-4   1.339546855888329E-3  
 2.238000000000000E10    3.397379864509276E-4  -6.948710870346986E-4  
 2.240000000000000E10   -1.245701416337397E-3  -4.501485291257268E-4  
 2.242000000000000E10   -3.760459567274666E-4   8.819019858492538E-4  
 2.244000000000000E10    1.116570526846772E-4  -4.664570187742356E-4  
 2.246000000000000E10    2.451322757224261E-4   1.769457516047623E-4  
 2.248000000000000E10   -1.552028925431159E-4   3.677883414638927E-4  
 2.250000000000000E10    9.694186082924716E-4   6.428063461498823E-4  
 2.252000000000000E10    1.062095714701172E-4   2.625874722070876E-4  
 2.254000000000000E10   -3.413642170926323E-4  -2.287645347678335E-4  
 2.256000000000000E10   -4.590112730511464E-4   5.497811380337225E-4  
 2.258000000000000E10   -1.472735912102507E-4   2.708903111852123E-4  
 2.260000000000000E10    3.548391823642305E-4  -3.092991955782054E-4  
 2.262000000000000E10    4.105866372583478E-5  -1.786787504443055E-4  
 2.264000000000000E10    5.571887904807227E-4  -2.403471644356614E-4  
 2.266000000000000E10    4.256744268786861E-4  -6.516705834656023E-4  
 2.268000000000000E10   -6.389379595930222E-4   1.312352296736208E-4  
 2.270000000000000E10   -4.942991508869454E-4   8.871613899827935E-4  
 2.272000000000000E10    1.054772408679128E-3   8.849664081935771E-4  
 2.274000000000000E10    5.294689781294437E-4  -5.746059978264384E-4  
 2.276000000000000E10   -9.483819158049300E-4  -1.322285941569135E-3  
 2.278000000000000E10   -2.067663284833543E-3  -2.562331956141861E-4  
 2.280000000000000E10   -3.268317536821996E-4   6.659792416030541E-4  
 2.282000000000000E10    1.606702130629856E-4   3.367451972735580E-4  
 2.284000000000000E10    1.053076321113622E-3  -1.026463563903235E-3  
 2.286000000000000E10   -1.316951296530533E-4  -8.188141400751192E-4  
 2.288000000000000E10   -1.202747975185048E-3  -1.346506223853794E-4  
 2.290000000000000E10   -7.396908258670010E-4   1.580642347107641E-3  
 2.292000000000000E10    5.950177546765190E-4   1.342812000075355E-3  
 2.294000000000000E10    7.613498928549234E-4  -1.284276738715562E-4  
 2.296000000000000E10   -4.501488292589784E-4  -8.763006917433813E-4  
 2.298000000000000E10   -1.397309722960927E-3  -1.230499347002478E-4  
 2.300000000000000E10   -7.013257563812658E-4   1.133333527832292E-3  
 2.302000000000000E10    8.212239008571487E-4   1.024622139084386E-3  
 2.304000000000000E10    1.233661034348188E-3  -2.638031475612479E-4  
 2.306000000000000E10    3.402884285605978E-4  -1.001731339783873E-3  
 2.308000000000000E10   -3.416363870201167E-4   5.783590404462302E-5  
 2.310000000000000E10    2.553832010789847E-4   6.366218640323496E-4  
 2.312000000000000E10    7.972840940055903E-4   7.174761703936383E-4  
 2.314000000000000E10    1.029844635922927E-3   6.670431976090185E-4  
 2.316000000000000E10    6.419802848540712E-4  -2.074625558634580E-4  
 2.318000000000000E10   -4.115876299692900E-5  -4.423116879479494E-4  
 2.320000000000000E10   -4.239382587911678E-5  -1.985792505365680E-4  
 2.322000000000000E10    8.545704656626185E-5   1.059249050854305E-4  
 2.324000000000000E10    8.585582836531103E-4  -1.754990880726837E-4  
 2.326000000000000E10    1.516107447969262E-3  -7.348532271862496E-4  
 2.328000000000000E10    5.605763271887554E-4  -6.939256782061420E-4  
 2.330000000000000E10    5.415188206825405E-4  -6.732771871611476E-4  
 2.332000000000000E10    6.591474757442484E-4  -2.608270724522299E-4  
 2.334000000000000E10    8.688642446941230E-5   2.936819901151466E-4  
 2.336000000000000E10    4.314551579227555E-4   7.989384030224755E-4  
 2.338000000000000E10    6.354238757921848E-4  -1.200893102577538E-4  
 2.340000000000000E10   -6.912873686815146E-7  -1.394771585182753E-3  
 2.342000000000000E10   -1.208196285006125E-3  -6.844249219284393E-4  
 2.344000000000000E10   -1.059071964846226E-3   4.922771981341612E-5  
 2.346000000000000E10    5.716721298085759E-4   9.790433352918626E-5  
 2.348000000000000E10    1.053911710187094E-3  -6.429029253922636E-4  
 2.350000000000000E10    5.325603960955050E-4  -1.163419365184382E-3  
 2.352000000000000E10   -5.501631876541069E-4  -8.313667276524939E-4  
 2.354000000000000E10   -6.073548684071284E-4   3.949158744944725E-4  
 2.356000000000000E10    8.125390559143852E-5   7.257111283252016E-4  
 2.358000000000000E10    6.158161486382596E-4   3.008157964359270E-4  
 2.360000000000000E10   -1.469750341129839E-4  -1.114266131480690E-3  
 2.362000000000000E10   -1.024952551233582E-3  -1.132359873736277E-3  
 2.364000000000000E10   -1.624286713195033E-3   4.033398781757569E-4  
 2.366000000000000E10   -5.931843334110454E-4   2.973444952658610E-4  
 2.368000000000000E10    6.854232342448086E-4  -1.556077208988427E-4  
 2.370000000000000E10    3.890457173838513E-4  -7.125208685465623E-4  
 2.372000000000000E10   -8.725648258405272E-4  -8.771325774432626E-4  
 2.374000000000000E10   -1.181103158160113E-3  -2.417960877210135E-5  
 2.376000000000000E10   -5.322464057826437E-4   1.207355966471368E-3  
 2.378000000000000E10   -1.140998115261027E-4   8.544853335479274E-4  
 2.380000000000000E10    2.594103757473931E-4  -1.206080476379157E-4  
 2.382000000000000E10   -1.015565558191156E-3  -3.661555363123625E-4  
 2.384000000000000E10   -1.189004688058049E-3  -7.835991937099607E-5  
 2.386000000000000E10   -6.482447952294024E-4   9.688818645372521E-4  
 2.388000000000000E10   -2.093409311783034E-4   9.802549029700458E-4  
 2.390000000000000E10    6.393210551323136E-4  -9.033127753355075E-5  
 2.392000000000000E10    5.128328084538225E-4   1.110144958147430E-4  
 2.394000000000000E10   -6.115659944043728E-4   3.233755733162980E-4  
 2.396000000000000E10   -3.356707456987351E-4   4.171383843640797E-4  
 2.398000000000000E10   -3.495158525765874E-4   1.337180583504960E-3  
 2.400000000000000E10    7.318107782339212E-4   1.675853214692324E-3  
 2.402000000000000E10    5.757341095886659E-4   1.587777032909798E-4  
 2.404000000000000E10    8.466946837870637E-6   1.381553056489793E-4  
 2.406000000000000E10   -3.947753775719320E-4   4.697856456914451E-4  
 2.408000000000000E10   -3.606926038628444E-4   5.583234233199619E-4  
 2.410000000000000E10    4.769617680722149E-4   8.730953995836899E-4  
 2.412000000000000E10    9.923117759171873E-4   3.461723736108979E-4  
 2.414000000000000E10    1.019357398035936E-3  -8.641999374958687E-4  
 2.416000000000000E10   -3.058249217247067E-5  -3.519579640851589E-4  
 2.418000000000000E10   -3.495336604828481E-4   5.131458274263423E-4  
 2.420000000000000E10    5.319392475939822E-4   1.188207526865881E-3  
 2.422000000000000E10    1.994823236600496E-3   1.484990003518760E-3  
 2.424000000000000E10    9.392306237714365E-4  -2.501327944628429E-4  
 2.426000000000000E10    1.691319084784482E-8  -9.280002013838384E-4  
 2.428000000000000E10   -7.817868317943066E-4   5.503081520146225E-4  
 2.430000000000000E10   -2.576046817921451E-4   7.565957457700279E-4  
 2.432000000000000E10    1.074773193977308E-3   2.674813922567410E-4  
 2.434000000000000E10    1.225411666382570E-3  -8.345986279891804E-4  
 2.436000000000000E10    8.398019162996206E-4  -1.460776635212824E-3  
 2.438000000000000E10   -1.440406549590989E-4  -1.048550337145571E-3  
 2.440000000000000E10    9.196879511819134E-5   7.972748098836746E-4  
 2.442000000000000E10    9.289012414228637E-4   1.012922693917062E-3  
 2.444000000000000E10    1.632817271456588E-3  -8.008990698726848E-5  
 2.446000000000000E10    5.035967151343357E-4  -5.167804920347408E-4  
 2.448000000000000E10   -1.175413934106473E-3  -7.422153139486909E-4  
 2.450000000000000E10   -1.220385827764403E-3   2.014488936765702E-4  
 2.452000000000000E10   -2.849207548933919E-4   8.916720616980456E-5  
 2.454000000000000E10    7.272620932781138E-4  -5.864337217644788E-4  
 2.456000000000000E10    2.976882806251524E-4  -1.054653446772136E-3  
 2.458000000000000E10    1.648964546347997E-4  -9.428454177395906E-4  
 2.460000000000000E10   -1.912350467137003E-4  -7.073049855534919E-4  
 2.462000000000000E10   -6.320554848571192E-5   5.268916393106338E-4  
 2.464000000000000E10    7.905844495326164E-5   7.381921641353983E-4  
 2.466000000000000E10    5.025643167755334E-4   2.366535354667576E-4  
 2.468000000000000E10    1.737872862577206E-4  -4.665826363634551E-4  
 2.470000000000000E10   -1.108488148020115E-3  -7.005816842138302E-4  
 2.472000000000000E10   -1.574415742652491E-3   1.516262309451122E-4  
 2.474000000000000E10   -4.371961822471349E-4   4.898070656054188E-4  
 2.476000000000000E10    1.022223121253774E-3  -2.159506921088905E-4  
 2.478000000000000E10    1.787799219528097E-4  -7.802615255059209E-4  
 2.480000000000000E10   -2.669737505129888E-4  -6.245371732802596E-4  
 2.482000000000000E10   -7.220037732622586E-4  -2.490861402293376E-5  
 2.484000000000000E10   -4.767691243614536E-4   1.031479681842029E-3  
 2.486000000000000E10    1.539098002467654E-4   1.098893117159605E-3  
 2.488000000000000E10    6.300459826888982E-4   3.595751604734687E-4  
 2.490000000000000E10   -2.452423293561878E-4  -4.926200454065111E-4  
 2.492000000000000E10   -1.261539007828105E-3  -6.812337051087525E-4  
 2.494000000000000E10   -1.256444389582612E-3   6.590520752070006E-4  
 2.496000000000000E10   -8.594791842142513E-5   9.061443852260709E-4  
 2.498000000000000E10    1.016359274217393E-3  -9.288127785112010E-5  
 2.500000000000000E10    5.061432893853635E-4  -1.046770310495049E-3  
 2.502000000000000E10   -4.201224437565543E-4  -6.025445727573242E-4  
 2.504000000000000E10   -3.844466373266187E-4   1.495132473792182E-4  
 2.506000000000000E10    2.163384004347790E-4   1.013515044178348E-3  
 2.508000000000000E10    2.758467708190437E-4   9.377700189361349E-4  
 2.510000000000000E10    4.412819707795279E-4   1.754467775754165E-4  
 2.512000000000000E10   -3.530123558448395E-4  -3.838572229142301E-4  
 2.514000000000000E10   -1.170658098999411E-3  -3.320183004689170E-4  
 2.516000000000000E10   -8.879069791873917E-4   8.961641433415934E-4  
 2.518000000000000E10    1.977828396775294E-4   5.890939137316309E-4  
 2.520000000000000E10    9.126431978074834E-4  -3.144508555124048E-4  
 2.522000000000000E10    4.077928606420755E-4  -9.752918122103438E-4  
 2.524000000000000E10   -3.373099607415497E-4  -3.831970752798952E-4  
 2.526000000000000E10   -1.389520048178383E-4   5.453706180560403E-4  
 2.528000000000000E10    3.786206652875990E-4   1.105982337321620E-3  
 2.530000000000000E10    2.692237612791359E-4   9.393278160132468E-4  
 2.532000000000000E10    4.942136911267880E-4   1.004822734103072E-4  
 2.534000000000000E10   -2.205017754022265E-4  -4.760747870022897E-4  
 2.536000000000000E10   -9.522674372419715E-4  -4.200017629045760E-4  
 2.538000000000000E10   -8.568164412281476E-4   5.902437987970188E-4  
 2.540000000000000E10    3.784791661018971E-4   3.665212243504357E-4  
 2.542000000000000E10    7.677726680412889E-4  -9.101719570026035E-5  
 2.544000000000000E10    7.654038126929663E-4  -1.583333214512095E-3  
 2.546000000000000E10   -2.592154876310815E-4  -6.927609683771152E-5  
 2.548000000000000E10   -5.849376611877233E-4   4.340901068644598E-4  
 2.550000000000000E10    4.574065678752959E-4   1.175379831693135E-3  
 2.552000000000000E10    8.386821282329038E-4   5.926076555624604E-4  
 2.554000000000000E10    5.319265765137970E-4  -4.278149863239378E-4  
 2.556000000000000E10   -7.504799359594472E-4  -8.240488969022408E-4  
 2.558000000000000E10   -9.429635974811390E-4  -3.258829929109197E-5  
 2.560000000000000E10   -9.725367817736697E-7   6.274221232160926E-4  
 2.562000000000000E10    8.021283356356435E-4  -2.033729251706973E-4  
 2.564000000000000E10    1.001743585220538E-3  -7.714947059866972E-4  
 2.566000000000000E10    2.002953847295430E-4  -9.584937797626481E-4  
 2.568000000000000E10   -5.326349237293471E-4   2.436267750454135E-4  
 2.570000000000000E10    1.025881547320751E-4   5.285884326440282E-4  
 2.572000000000000E10    4.721512013929896E-4   3.746493639482651E-4  
 2.574000000000000E10    1.107729835894133E-4  -5.320616292010527E-4  
 2.576000000000000E10   -1.653032650210662E-4  -8.849424702930264E-4  
 2.578000000000000E10   -7.411009355564602E-4  -8.898463711375371E-4  
 2.580000000000000E10   -6.038694045855664E-4  -1.160079573310213E-4  
 2.582000000000000E10   -9.116248475038447E-5   2.049270597126451E-5  
 2.584000000000000E10    1.027486177918036E-3  -6.533818159368821E-4  
 2.586000000000000E10    6.139343486211146E-5  -1.949904599314323E-4  
 2.588000000000000E10   -5.666354372806381E-4  -9.483572939643636E-4  
 2.590000000000000E10   -6.440666984417476E-4   2.504037984181196E-4  
 2.592000000000000E10   -6.242119052330963E-4   2.982415717269760E-4  
 2.594000000000000E10   -6.255353902417937E-6   1.844870475906646E-4  
 2.596000000000000E10    1.012797274597688E-4  -3.917149952030741E-4  
 2.598000000000000E10   -2.069774445772055E-4  -6.534002059197519E-4  
 2.600000000000000E10   -5.303126672515646E-4  -8.701103579369374E-4  
 2.602000000000000E10   -5.674256753991358E-4   2.005778023885796E-4  
 2.604000000000000E10   -3.144412585243117E-4   1.003640252747573E-3  
 2.606000000000000E10    8.475364447804168E-4   2.549688542785589E-4  
 2.608000000000000E10    1.561564231451484E-4   8.182053079508478E-5  
 2.610000000000000E10   -2.453312808938790E-4  -4.103911305719521E-4  
 2.612000000000000E10   -8.683031555847265E-4   5.334634624887258E-4  
 2.614000000000000E10   -3.642769697762560E-4   5.758367988164537E-4  
 2.616000000000000E10    9.176542152999900E-5   9.299248340539634E-4  
 2.618000000000000E10    5.700604451703839E-4  -6.008530035614967E-4  
 2.620000000000000E10    3.579794283723459E-4  -6.238640416995622E-4  
 2.622000000000000E10   -7.859748002374545E-4  -5.018202209612355E-4  
 2.624000000000000E10    8.455501620119321E-5   4.476377689570654E-4  
 2.626000000000000E10    4.992584508727305E-4   1.059951639035717E-3  
 2.628000000000000E10    1.360894922981970E-3  -1.144103298429400E-4  
 2.630000000000000E10    3.880591575580183E-4  -6.499003429780714E-4  
 2.632000000000000E10   -4.047130387334619E-4  -4.638380669348408E-4  
 2.634000000000000E10   -4.418472235556692E-4   4.614087592926808E-4  
 2.636000000000000E10    8.087301057457808E-5   1.892085042527469E-4  
 2.638000000000000E10    3.085893076786306E-4   3.413784743315773E-4  
 2.640000000000000E10    5.202055035624653E-4  -7.191870463429950E-4  
 2.642000000000000E10    1.926235606219962E-5  -8.388588321395218E-4  
 2.644000000000000E10   -1.115679478971288E-3  -5.139936984051019E-4  
 2.646000000000000E10   -3.245702691856423E-5   4.120175217394717E-4  
 2.648000000000000E10    1.811538295442006E-4   5.183962748560589E-4  
 2.650000000000000E10    7.192048287834041E-4  -1.324309837400506E-4  
 2.652000000000000E10   -7.883577700340538E-5  -2.876378275686875E-4  
 2.654000000000000E10   -6.734400158165954E-4  -2.675968426046893E-5  
 2.656000000000000E10   -7.598839874844998E-4   5.914697285334114E-4  
 2.658000000000000E10   -3.379198351467494E-4   3.825817184406333E-4  
 2.660000000000000E10    5.558495499258243E-5   2.977246449518134E-4  
 2.662000000000000E10    5.187579736229964E-4  -5.603843565040734E-4  
 2.664000000000000E10   -2.115946226695087E-4  -8.419687292189337E-4  
 2.666000000000000E10   -9.740770401549526E-4  -4.642310614144662E-5  
 2.668000000000000E10    4.055177378177177E-4   1.040638111589942E-3  
 2.670000000000000E10    8.868906006682664E-4   6.877556297695264E-4  
 2.672000000000000E10    8.119141202769242E-4   2.076654564007185E-4  
 2.674000000000000E10   -3.425932591198944E-4  -3.355520821060054E-4  
 2.676000000000000E10   -9.952647178579355E-5   1.378832412228803E-4  
 2.678000000000000E10   -8.468927553622052E-4   2.322777436347678E-4  
 2.680000000000000E10   -3.387936612853082E-5   3.400203240744304E-4  
 2.682000000000000E10    5.749604024458677E-4   8.909784227739692E-5  
 2.684000000000000E10    8.340633357875049E-4  -9.323153717559762E-4  
 2.686000000000000E10   -1.757316995281144E-4  -1.109204255044460E-3  
 2.688000000000000E10   -7.017782845650800E-4  -1.822225181058457E-5  
 2.690000000000000E10    7.071651780279353E-4   1.086563344870228E-3  
 2.692000000000000E10    9.658354101702571E-4   3.381408150744392E-4  
 2.694000000000000E10    5.115210406074766E-4  -7.466702372767031E-4  
 2.696000000000000E10   -1.444297249690862E-4  -6.310570279310923E-5  
 2.698000000000000E10   -9.190920536639169E-4  -1.304519935274584E-4  
 2.700000000000000E10   -6.285590206971392E-4   4.183288983767852E-4  
 2.702000000000000E10   -1.063229969986423E-4   1.638941921555670E-4  
 2.704000000000000E10    3.606872705859132E-4   1.373578697894118E-5  
 2.706000000000000E10    5.637120993924327E-4  -1.117500985856168E-3  
 2.708000000000000E10   -1.481364580513400E-5  -4.878024774370715E-4  
 2.710000000000000E10   -1.018896284222137E-3   4.089819885848556E-4  
 2.712000000000000E10    4.578669941111002E-4   1.260506556718610E-3  
 2.714000000000000E10    7.250887210830115E-4   3.122906728094677E-4  
 2.716000000000000E10   -1.614133452676470E-4  -5.251722686807625E-4  
 2.718000000000000E10   -1.252110771019943E-3  -5.067740821687039E-4  
 2.720000000000000E10   -6.206756297615357E-4   4.945259643136524E-4  
 2.722000000000000E10   -4.359855920483824E-4   2.193389882449992E-4  
 2.724000000000000E10   -1.169557708635693E-4  -3.465012487140484E-4  
 2.726000000000000E10    3.896806592820212E-4   2.989786688090135E-5  
 2.728000000000000E10    3.341920528328046E-4  -7.097062334651128E-4  
 2.730000000000000E10   -1.527521035313839E-4  -7.880220291553997E-4  
 2.732000000000000E10   -7.591825560666621E-4   4.001371125923470E-4  
 2.734000000000000E10    6.507454527309164E-4   1.215526237501763E-3  
 2.736000000000000E10    8.710792608326301E-4   2.903098775277613E-4  
 2.738000000000000E10   -3.711778163051349E-6  -6.585445735254325E-4  
 2.740000000000000E10   -1.069786769221537E-3   1.109057120629586E-5  
 2.742000000000000E10   -4.157026232860517E-4   5.199159350013360E-4  
 2.744000000000000E10   -1.192009758597123E-4   1.867338396550622E-4  
 2.746000000000000E10    7.920769166958053E-5   4.440077191247838E-5  
 2.748000000000000E10    5.326380669430364E-4   1.816907683860336E-6  
 2.750000000000000E10    7.006328542047413E-5  -7.390704413410276E-4  
 2.752000000000000E10   -4.827220873266924E-4  -8.048829258768819E-4  
 2.754000000000000E10   -3.743476190720685E-4   1.064599076926243E-3  
 2.756000000000000E10    6.419238088710699E-4   7.501516520278528E-4  
