#  HZ   S   RI   R     50.00 
! Rohde & Schwarz ZVA40 4Ports - Version 3.90 - 1145.1110k42 SN: 100403
! Date: 2023-10-04 06:50:43
! Measurement: S12 
! 
 2.200000000000000E10    7.548369831056334E-4   8.460455283056945E-4  
 2.202000000000000E10   -2.868887488638450E-5  -7.793674683398422E-5  
 2.204000000000000E10   -9.475482729612850E-4  -5.669678248523269E-4  
 2.206000000000000E10   -4.115776282560546E-4   5.986855539958924E-4  
 2.208000000000000E10   -1.636526249058079E-4  -9.953428207154502E-5  
 2.210000000000000E10    1.389350632052810E-5   2.373422466916964E-5  
 2.212000000000000E10    1.133220794145018E-4   7.995274863787927E-4  
 2.214000000000000E10    1.051457766152453E-3   1.709516718619852E-4  
 2.216000000000000E10   -1.364084882879979E-4  -3.517725235724356E-4  
 2.218000000000000E10   -2.936215678346343E-4   7.167041476350278E-4  
 2.220000000000000E10    5.064867982582655E-4   1.436123988241889E-3  
 2.222000000000000E10    4.202023192192428E-4   1.806997079967232E-5  
 2.224000000000000E10    4.739156656796695E-5  -3.346191715536406E-5  
 2.226000000000000E10   -3.670897476695245E-4   3.181081337970682E-4  
 2.228000000000000E10    2.209946051152656E-4  -1.099056789826136E-4  
 2.230000000000000E10    3.381868173164548E-4  -1.111594334361143E-3  
 2.232000000000000E10   -3.958225897804368E-4  -2.100020101352129E-4  
 2.234000000000000E10    6.062581815058366E-4   3.081380236835685E-4  
 2.236000000000000E10    2.022383079747669E-3   1.532895648779231E-4  
 2.238000000000000E10    3.929286176571623E-4  -1.337181558483280E-3  
 2.240000000000000E10   -6.118849341874011E-4  -2.733235432970105E-4  
 2.242000000000000E10   -5.286775758577278E-4   1.270075081265532E-3  
 2.244000000000000E10    2.559485874940037E-4   3.976343687099870E-4  
 2.246000000000000E10   -6.615555230382597E-5  -1.096813407457375E-4  
 2.248000000000000E10   -6.866798139526509E-5  -1.407047668180894E-3  
 2.250000000000000E10   -8.354844612767920E-4  -9.470002623856999E-4  
 2.252000000000000E10   -1.126368864788674E-3  -7.404214029520517E-4  
 2.254000000000000E10   -3.884381330863107E-4   4.143096571169735E-4  
 2.256000000000000E10    7.730595607426949E-4   2.581048574938905E-4  
 2.258000000000000E10    1.174985583929811E-3  -8.419357181992382E-4  
 2.260000000000000E10   -7.260945421876386E-4  -1.033752851071768E-3  
 2.262000000000000E10   -1.373459512251429E-3   5.641356219712179E-4  
 2.264000000000000E10   -4.479781055124477E-4   1.567363680806011E-3  
 2.266000000000000E10    9.898706121020950E-4   2.357810026296647E-4  
 2.268000000000000E10   -4.087623819941655E-4  -6.022258239681833E-4  
 2.270000000000000E10   -7.680404014536180E-4  -9.676433764980175E-4  
 2.272000000000000E10   -6.029690994182602E-4   2.161207994504366E-4  
 2.274000000000000E10   -6.878966087242588E-4  -4.739668747788528E-5  
 2.276000000000000E10    6.478162104031071E-4   8.775900641921908E-4  
 2.278000000000000E10    9.179642293020152E-4  -1.795742218746455E-5  
 2.280000000000000E10    4.454830759641482E-4  -3.126900382994791E-4  
 2.282000000000000E10   -2.541521462262608E-4   1.895242098726158E-4  
 2.284000000000000E10   -2.305960833837162E-4   4.815081156266388E-4  
 2.286000000000000E10    1.119680044041616E-4   6.978487108426634E-4  
 2.288000000000000E10    8.886626310413703E-4   4.729433931061067E-4  
 2.290000000000000E10   -1.977934207388898E-4   7.266312195497449E-5  
 2.292000000000000E10   -8.782913664617809E-5  -5.066028643341269E-4  
 2.294000000000000E10   -2.334345153940376E-4  -1.865494105004473E-4  
 2.296000000000000E10   -3.699939043144696E-6  -3.115578465440194E-4  
 2.298000000000000E10    4.922477819491178E-4   1.682344364724031E-4  
 2.300000000000000E10    7.915173046058044E-4  -2.260631149511028E-4  
 2.302000000000000E10    1.169368522823788E-3  -2.972312104247976E-4  
 2.304000000000000E10   -6.412267543964845E-5  -7.328511019295547E-4  
 2.306000000000000E10   -9.630016415940190E-5   4.365531981420645E-4  
 2.308000000000000E10   -3.566984360077186E-4   1.175095065264031E-3  
 2.310000000000000E10    8.324523478222545E-4   2.901485152051464E-4  
 2.312000000000000E10    2.712548948693438E-4  -6.154513212095480E-4  
 2.314000000000000E10   -5.684758289135061E-4  -1.027358594001271E-3  
 2.316000000000000E10   -1.105526753235608E-3  -7.551630042144097E-4  
 2.318000000000000E10   -3.049036095035262E-4   2.477138714311877E-4  
 2.320000000000000E10    1.151701508206315E-5  -1.441468157281634E-5  
 2.322000000000000E10    1.206083259603474E-3  -5.908524763071910E-4  
 2.324000000000000E10    3.954272306145867E-4  -1.167783615528606E-3  
 2.326000000000000E10   -9.028612039401196E-4  -6.003125490678940E-4  
 2.328000000000000E10   -1.447296788683161E-3   9.045037004398182E-4  
 2.330000000000000E10    4.476883877941873E-4   9.250000730389729E-4  
 2.332000000000000E10    4.841592090087943E-4  -6.207944279594813E-4  
 2.334000000000000E10   -3.744649256987032E-4  -1.345609955023974E-3  
 2.336000000000000E10   -1.654859763220884E-3  -7.589057568111457E-4  
 2.338000000000000E10   -8.060652471613139E-4   3.851355431834236E-4  
 2.340000000000000E10   -1.852497189247515E-4   4.365343556855805E-4  
 2.342000000000000E10    9.144150826614350E-4   3.498614569252823E-4  
 2.344000000000000E10    6.858607719095744E-5  -5.278108619677369E-4  
 2.346000000000000E10   -8.589734206907451E-4  -4.482518979784800E-4  
 2.348000000000000E10   -1.500028432928957E-3   5.863296937604900E-4  
 2.350000000000000E10   -5.562525257118978E-4   1.407626856234856E-3  
 2.352000000000000E10    1.478229023632594E-7   4.446056227607187E-4  
 2.354000000000000E10    9.779058382264338E-5  -7.677249159314670E-4  
 2.356000000000000E10   -5.645936034852639E-4  -2.728759554884164E-4  
 2.358000000000000E10   -8.420554804615676E-4   2.200563030783087E-4  
 2.360000000000000E10    1.564602662256220E-4   8.456110954284668E-4  
 2.362000000000000E10    9.518496299278922E-4   8.227931029978208E-4  
 2.364000000000000E10    7.971795348566957E-4   5.372426312533207E-4  
 2.366000000000000E10    3.633956075645983E-4   3.686065610963851E-4  
 2.368000000000000E10   -5.236913202679716E-4   6.699287478113547E-4  
 2.370000000000000E10   -7.019965632935055E-4   6.414364179363474E-4  
 2.372000000000000E10   -3.963027593272273E-4   6.674685573671013E-4  
 2.374000000000000E10    9.106902216444723E-4   1.172775191662367E-4  
 2.376000000000000E10    7.541995728388429E-4  -1.543403632240370E-4  
 2.378000000000000E10    3.750465875782538E-4  -7.271505164681003E-4  
 2.380000000000000E10    3.932147728846758E-5   1.361057536541921E-5  
 2.382000000000000E10    4.923084707115777E-4   8.512999775120989E-4  
 2.384000000000000E10    1.255592709640041E-3   1.152868440840393E-3  
 2.386000000000000E10    1.225963540491648E-3   2.598194623715244E-4  
 2.388000000000000E10    2.367485855074847E-4  -4.159188792982604E-4  
 2.390000000000000E10   -8.304017610498704E-4  -7.509328570449725E-4  
 2.392000000000000E10   -4.639621874957811E-4   7.109838261385448E-4  
 2.394000000000000E10   -2.505979355191812E-4   2.891992326112813E-4  
 2.396000000000000E10    1.560319884447381E-3  -6.002089794492349E-4  
 2.398000000000000E10    9.063190736924298E-4  -1.495443415478803E-3  
 2.400000000000000E10   -3.195746849087300E-4  -1.710564160021022E-3  
 2.402000000000000E10   -4.876212278759340E-5   2.526256262171955E-4  
 2.404000000000000E10    5.347977348719724E-4   1.042510761180893E-3  
 2.406000000000000E10    1.325293182162568E-3  -1.462235811686696E-4  
 2.408000000000000E10    3.184575252817012E-4  -7.650939514860511E-4  
 2.410000000000000E10   -5.755833844887093E-4  -9.418474292033352E-4  
 2.412000000000000E10   -1.602283984539099E-3  -1.988564608836896E-4  
 2.414000000000000E10   -2.411948535154807E-4   3.812818831647746E-4  
 2.416000000000000E10    4.303241330489982E-4   7.303286793103325E-5  
 2.418000000000000E10    6.380999111570418E-4  -1.356636959826574E-3  
 2.420000000000000E10   -4.365212917036843E-4  -1.665360556216911E-3  
 2.422000000000000E10   -7.470283962902613E-4  -2.682105659914669E-4  
 2.424000000000000E10   -2.875457848858787E-4   1.934032661665697E-4  
 2.426000000000000E10    4.784766533703078E-4   3.416260660742410E-4  
 2.428000000000000E10    2.680789020814700E-4   2.031664216701756E-4  
 2.430000000000000E10   -3.614714842115063E-6  -1.010520805721171E-3  
 2.432000000000000E10   -9.953413900802843E-4  -7.594858179800212E-4  
 2.434000000000000E10   -1.626662284252234E-3   4.159299023740459E-4  
 2.436000000000000E10   -5.959135305602104E-4   1.399858447257429E-4  
 2.438000000000000E10    3.446530336077558E-4  -1.151844098785659E-4  
 2.440000000000000E10   -9.128074452746660E-5  -1.106380048440769E-3  
 2.442000000000000E10   -3.044186196348164E-4  -1.276571565540507E-3  
 2.444000000000000E10   -8.498143361066468E-4  -3.688015276566148E-4  
 2.446000000000000E10   -8.526612873538397E-5   7.745283655822277E-4  
 2.448000000000000E10    9.732956459629349E-5   2.197084495492163E-4  
 2.450000000000000E10    7.943357049953193E-4   7.052445726003498E-4  
 2.452000000000000E10   -4.217870937281987E-4  -6.439805201807758E-5  
 2.454000000000000E10   -5.060717157903127E-4  -5.977317050565034E-4  
 2.456000000000000E10   -1.608321690582670E-3   5.057656926510390E-4  
 2.458000000000000E10   -2.897646263591014E-4   1.131562356022187E-3  
 2.460000000000000E10    7.301244113477878E-4   4.920551473333035E-4  
 2.462000000000000E10    8.873071783455089E-4  -7.777613354846835E-4  
 2.464000000000000E10   -3.927401812688913E-4  -5.624892146443017E-4  
 2.466000000000000E10   -6.055797421140596E-4   2.670011090231128E-4  
 2.468000000000000E10   -1.855262657954881E-4   1.384611066896468E-3  
 2.470000000000000E10    7.928693885332905E-4   6.525724602397531E-4  
 2.472000000000000E10    7.740682049188763E-4   2.517841512599262E-4  
 2.474000000000000E10   -1.907246019072773E-5  -8.450973982689902E-4  
 2.476000000000000E10   -1.026284553518053E-3  -4.086033368366770E-4  
 2.478000000000000E10   -8.184233956853859E-4   7.804446941008791E-4  
 2.480000000000000E10    7.050192507449538E-4   8.803790333331563E-4  
 2.482000000000000E10    1.359596470138058E-3  -5.090184786240570E-4  
 2.484000000000000E10    3.146473936794791E-4  -1.486249471781775E-3  
 2.486000000000000E10   -4.836182779399678E-4  -1.324721743003465E-4  
 2.488000000000000E10   -2.528806955979235E-4   8.114745287457481E-4  
 2.490000000000000E10    6.331232216325589E-4   9.608403925085440E-4  
 2.492000000000000E10    5.750150376115926E-4   2.447270853735972E-4  
 2.494000000000000E10   -7.058827941364143E-5  -1.635478920434252E-4  
 2.496000000000000E10   -4.160049538768362E-4  -6.912347089382820E-4  
 2.498000000000000E10   -6.191412830958143E-4   1.716236765787471E-4  
 2.500000000000000E10   -5.660764472850133E-4   5.352377083909232E-4  
 2.502000000000000E10    5.893556008231826E-4   2.816695778165013E-4  
 2.504000000000000E10    1.172410033177584E-3  -4.551107303996105E-4  
 2.506000000000000E10    2.057596138911322E-4  -7.423872375511564E-4  
 2.508000000000000E10   -5.729345066356473E-4   3.725489932548953E-5  
 2.510000000000000E10    1.197613100885064E-4   1.007163387839682E-3  
 2.512000000000000E10    2.390608397035976E-4   9.518609658698551E-4  
 2.514000000000000E10    7.981606031535193E-4  -7.818392691660847E-5  
 2.516000000000000E10   -6.086434268581797E-5   2.560270968388068E-5  
 2.518000000000000E10   -1.204617237817729E-4  -8.696851655258797E-4  
 2.520000000000000E10   -4.825609830731992E-4   1.479323686908174E-4  
 2.522000000000000E10   -2.015637510339730E-4   6.186517348396592E-4  
 2.524000000000000E10    8.495733709423803E-4   1.007400171886275E-4  
 2.526000000000000E10    1.286622209590860E-3  -5.177895945962519E-4  
 2.528000000000000E10   -3.854573405988049E-4  -9.116560613620095E-4  
 2.530000000000000E10   -4.670257585530635E-4   7.018375481493422E-5  
 2.532000000000000E10    2.416834067844320E-4   7.074053646647371E-4  
 2.534000000000000E10    8.694054195075296E-4   9.811839845497161E-4  
 2.536000000000000E10    8.033494814299047E-4  -4.360408929642290E-4  
 2.538000000000000E10    4.891124990535900E-4  -2.526301796024200E-4  
 2.540000000000000E10   -4.366497778391931E-4  -5.083912437839899E-4  
 2.542000000000000E10   -4.061471991008148E-4   3.759833598451223E-4  
 2.544000000000000E10    6.705791311105713E-4   2.801577611535322E-4  
 2.546000000000000E10    1.443571396521293E-3   1.810009953260305E-4  
 2.548000000000000E10    3.165740527037997E-4  -1.141873392043635E-3  
 2.550000000000000E10    1.382643624765478E-4  -3.480030027276371E-4  
 2.552000000000000E10   -5.954151019977871E-4   4.771832973347046E-4  
 2.554000000000000E10    5.287821368256118E-4   4.673539333452936E-4  
 2.556000000000000E10    3.605141355365049E-4  -5.717299654861563E-5  
 2.558000000000000E10    6.851400466985069E-4  -4.559745611913968E-4  
 2.560000000000000E10   -7.358592702075839E-4  -1.064713418600150E-3  
 2.562000000000000E10   -4.778156144311652E-4  -5.552664297283627E-4  
 2.564000000000000E10   -5.426791503850836E-4   1.337970679742284E-4  
 2.566000000000000E10    7.529017384513281E-4   7.364299790424411E-5  
 2.568000000000000E10    3.755878133233637E-4  -7.157932122936472E-4  
 2.570000000000000E10    2.690951641852735E-4  -7.296663170563988E-4  
 2.572000000000000E10   -9.901669254759327E-4  -1.059122971298621E-4  
 2.574000000000000E10   -6.203722950886004E-4   3.644198368419893E-4  
 2.576000000000000E10   -2.310060112904466E-4   1.038235983287450E-3  
 2.578000000000000E10    1.158583172582439E-4   4.561471541819628E-6  
 2.580000000000000E10   -6.412108041331521E-5  -6.325674476101995E-4  
 2.582000000000000E10   -8.721303020138294E-4  -7.205007786978968E-4  
 2.584000000000000E10   -9.951621177606285E-4  -1.800671032015089E-5  
 2.586000000000000E10   -5.288717620715033E-4   7.248581750900485E-4  
 2.588000000000000E10    9.120596150751226E-4   5.417275824584067E-4  
 2.590000000000000E10    5.572402951656841E-4   8.157359798133257E-5  
 2.592000000000000E10   -1.208685669098486E-4  -5.081477538624313E-4  
 2.594000000000000E10   -7.404874995700084E-4   3.561767080100253E-4  
 2.596000000000000E10   -1.173722484963946E-3   9.723280963953584E-4  
 2.598000000000000E10    3.626607722253539E-4   1.190034628962167E-3  
 2.600000000000000E10    3.760938761843136E-4  -1.271364576496126E-4  
 2.602000000000000E10   -3.120611509075388E-4  -6.909176372573711E-4  
 2.604000000000000E10   -5.808226051158272E-4  -3.637172849266790E-4  
 2.606000000000000E10   -3.854904425679706E-4   6.737780931871384E-4  
 2.608000000000000E10    1.723496352497023E-4   6.636848265770823E-4  
 2.610000000000000E10    1.026945275953040E-3   9.564129431964830E-4  
 2.612000000000000E10    8.661212632432580E-4   3.866938851615487E-5  
 2.614000000000000E10   -2.010237813010463E-4  -5.202748070587404E-4  
 2.616000000000000E10   -1.193998075905256E-3   3.039021794393193E-4  
 2.618000000000000E10   -4.819348323508166E-4   7.454714723280631E-4  
 2.620000000000000E10    1.174876175355166E-3   3.974458522861823E-4  
 2.622000000000000E10    4.668438268708997E-4  -5.880194221390411E-4  
 2.624000000000000E10    7.123878958736896E-5  -6.901431625010446E-4  
 2.626000000000000E10   -2.402664395049214E-4  -1.371284361084690E-4  
 2.628000000000000E10    1.151802462118212E-5   5.693603816325776E-4  
 2.630000000000000E10   -9.250638549929136E-5   7.230058399727568E-4  
 2.632000000000000E10    9.783568384591490E-4   6.796675879741088E-4  
 2.634000000000000E10    2.420610780973220E-4  -1.957744825631380E-4  
 2.636000000000000E10   -2.943025574495550E-4  -9.888399654300883E-4  
 2.638000000000000E10   -1.030158338835463E-3   5.413953331299126E-4  
 2.640000000000000E10    1.904816381284036E-4   4.890595519100316E-4  
 2.642000000000000E10    8.543130097677931E-4   2.390669751548558E-4  
 2.644000000000000E10    7.245929082273506E-4  -6.023114765412174E-4  
 2.646000000000000E10    1.148969747646333E-4   2.370864581280330E-4  
 2.648000000000000E10   -3.189681465300964E-4  -2.772338921204209E-4  
 2.650000000000000E10    5.678865829850111E-5   9.099570670514368E-4  
 2.652000000000000E10    1.622018171474338E-4   1.051839179126546E-3  
 2.654000000000000E10    8.208931103581563E-4   2.911761548602954E-4  
 2.656000000000000E10    1.016997193801217E-4  -7.599227537866682E-4  
 2.658000000000000E10   -6.920412488398142E-4  -8.427493885392323E-4  
 2.660000000000000E10   -6.204275778145529E-4   2.524592455301900E-4  
 2.662000000000000E10    6.299255328485742E-4   5.077844398329034E-4  
 2.664000000000000E10    1.483379397541285E-3  -3.781993764278013E-4  
 2.666000000000000E10    4.669648769777268E-4  -9.791541233425960E-4  
 2.668000000000000E10   -1.310317214802126E-4  -1.535475385026075E-4  
 2.670000000000000E10   -3.049916140298592E-4   2.353829486310133E-4  
 2.672000000000000E10   -1.544856240798254E-4   3.438611602177844E-4  
 2.674000000000000E10    1.697759043963742E-4   1.089016445803281E-4  
 2.676000000000000E10    5.977517939754762E-4  -2.354257831029827E-4  
 2.678000000000000E10   -3.929201229766477E-4  -9.700980444904417E-4  
 2.680000000000000E10   -5.692747763532680E-4  -1.190327297081240E-3  
 2.682000000000000E10   -2.413718830212019E-4   5.649354789056815E-4  
 2.684000000000000E10    3.719264095707331E-4   5.017391958972439E-4  
 2.686000000000000E10    1.123819791246206E-3  -2.966719766845927E-4  
 2.688000000000000E10    3.221418992325198E-4  -1.184308872325346E-3  
 2.690000000000000E10   -6.493301916634664E-4   1.537851812827284E-4  
 2.692000000000000E10   -8.989179550553672E-4   1.692049518169370E-4  
 2.694000000000000E10    2.683130078366958E-4   4.836042462557089E-4  
 2.696000000000000E10   -3.376268796273507E-4   2.946542008430697E-4  
 2.698000000000000E10    3.697079337143805E-4  -7.540784572483972E-4  
 2.700000000000000E10   -3.739970379683655E-4  -1.083387549442705E-3  
 2.702000000000000E10   -1.435782687622123E-3  -6.595706872758456E-4  
 2.704000000000000E10   -2.168727787648095E-4   4.409335233503953E-4  
 2.706000000000000E10    1.294998932280578E-3   4.293833967494720E-5  
 2.708000000000000E10    5.138762535352726E-4  -5.727020616177470E-4  
 2.710000000000000E10   -3.017813869519159E-4  -1.107696793042123E-3  
 2.712000000000000E10   -3.870764558087103E-4   4.696457654063124E-4  
 2.714000000000000E10   -4.471170141187031E-4   4.838152999582235E-4  
 2.716000000000000E10   -1.530259560240666E-4   2.684860428416869E-4  
 2.718000000000000E10   -1.991488211388059E-4   4.453132714843378E-4  
 2.720000000000000E10   -4.603400338965002E-5  -2.539382367103826E-4  
 2.722000000000000E10   -6.295738494372927E-4  -9.994011052185670E-4  
 2.724000000000000E10   -1.086061543901451E-3  -1.724553403619211E-4  
 2.726000000000000E10   -1.580177431605989E-4   8.762338038650341E-4  
 2.728000000000000E10    1.481869272538461E-3   6.282429603743367E-5  
 2.730000000000000E10    4.285404065740295E-4  -4.770678388013039E-4  
 2.732000000000000E10   -3.425725262786727E-4  -5.552476432058029E-4  
 2.734000000000000E10   -5.078540489193983E-4   1.078645349480212E-3  
 2.736000000000000E10   -4.032765791635029E-4   7.494803503504954E-4  
 2.738000000000000E10   -1.880279814940877E-4   5.015724746044725E-4  
 2.740000000000000E10   -1.454444836781477E-4   1.363044611935038E-5  
 2.742000000000000E10   -7.562479231637553E-5  -2.964661071018782E-4  
 2.744000000000000E10   -7.783430191921070E-4  -9.168855758616701E-4  
 2.746000000000000E10   -5.206782370805740E-4   3.695426166814286E-4  
 2.748000000000000E10    1.495066408097046E-4   9.763809939613566E-4  
 2.750000000000000E10    1.363501651212573E-3   5.330460567165574E-6  
 2.752000000000000E10    5.946236051386222E-4  -3.373431463842280E-4  
 2.754000000000000E10   -5.029408494010568E-4   7.063543580443366E-5  
 2.756000000000000E10   -3.650372564152349E-4   8.852282844600268E-4  
