#  HZ   S   RI   R     50.00 
! Rohde & Schwarz ZVA40 4Ports - Version 3.90 - 1145.1110k42 SN: 100403
! Date: 2023-10-04 06:50:03
! Measurement: S12 
! 
 2.200000000000000E10    2.965886260426487E-4  -1.768433494362398E-4  
 2.202000000000000E10   -1.904566652228823E-4   1.733110507302627E-4  
 2.204000000000000E10    4.788295955222566E-4   4.175657732048421E-4  
 2.206000000000000E10    1.288841685891384E-4  -6.459234591602581E-4  
 2.208000000000000E10   -5.232169023656752E-4  -8.810543731669895E-4  
 2.210000000000000E10   -1.440775595256127E-3   8.218026414397173E-4  
 2.212000000000000E10    5.266779899102403E-4   8.577682565373834E-4  
 2.214000000000000E10    1.104365466744639E-3  -4.249059065841720E-4  
 2.216000000000000E10   -1.689890286797890E-4  -1.777707919245586E-3  
 2.218000000000000E10   -9.313040281995200E-4   2.422852676318144E-4  
 2.220000000000000E10   -2.686805491975974E-4   4.464865560294129E-4  
 2.222000000000000E10    1.084602088667452E-3   3.877753406413831E-4  
 2.224000000000000E10    5.400796526373597E-4  -5.573162488872185E-4  
 2.226000000000000E10   -1.087303880922264E-4  -3.412251844565617E-4  
 2.228000000000000E10    1.168543444691750E-4   2.359069731028285E-4  
 2.230000000000000E10   -5.165221718925750E-4   2.046310946752783E-4  
 2.232000000000000E10   -3.392126400285633E-4   9.512790202279575E-4  
 2.234000000000000E10    3.860929009533720E-4   6.680807255179388E-4  
 2.236000000000000E10    3.735231030077557E-4  -1.664485455421527E-4  
 2.238000000000000E10   -5.595278526016045E-4  -4.776903624588158E-4  
 2.240000000000000E10   -2.956853177238372E-4   7.611935438944784E-5  
 2.242000000000000E10    3.274949058322818E-4   9.007328553707339E-4  
 2.244000000000000E10    6.186889477248769E-4  -1.393970978824655E-4  
 2.246000000000000E10    6.673882580798818E-4   3.724411953953677E-4  
 2.248000000000000E10   -1.577187113070977E-4   4.468367151275743E-4  
 2.250000000000000E10    5.020022690587211E-4   4.608197705238126E-4  
 2.252000000000000E10    6.637341357418336E-4   2.120544342005815E-4  
 2.254000000000000E10   -7.575108029413968E-4   4.935686993121635E-4  
 2.256000000000000E10    2.963014248962281E-4   6.780760595574975E-4  
 2.258000000000000E10    1.129597396356985E-3   1.769338769008755E-4  
 2.260000000000000E10   -1.858361101767514E-4  -1.200587568746414E-3  
 2.262000000000000E10   -4.135943308938295E-4  -5.814365704281954E-4  
 2.264000000000000E10   -2.409392873232719E-4   9.408630758116487E-4  
 2.266000000000000E10    7.917781804280821E-4   3.114637775070150E-5  
 2.268000000000000E10    1.210444999742322E-3  -3.701866480696481E-4  
 2.270000000000000E10    2.221592485511792E-4  -2.386523583481903E-4  
 2.272000000000000E10   -2.190747800341342E-4  -4.508633783188998E-4  
 2.274000000000000E10   -3.706490479089553E-4   1.528928808056662E-4  
 2.276000000000000E10   -2.349530655010312E-4   4.576493120111991E-4  
 2.278000000000000E10    2.947956334082846E-4   1.273426960324287E-6  
 2.280000000000000E10    5.910749641770963E-4  -9.496886013948824E-4  
 2.282000000000000E10   -7.704824975007796E-5  -1.396527477481868E-3  
 2.284000000000000E10   -1.332623731286731E-3   2.221391368948389E-4  
 2.286000000000000E10   -5.568597111960116E-5   5.410382691479754E-4  
 2.288000000000000E10    1.236921016243286E-3  -4.914606470265426E-4  
 2.290000000000000E10    1.386267827001575E-4  -1.014784153085202E-3  
 2.292000000000000E10   -4.838982495130040E-4  -6.682308412564453E-4  
 2.294000000000000E10   -9.355622969451360E-4   5.977960609016009E-4  
 2.296000000000000E10   -1.874038716778159E-4   5.796711084258277E-4  
 2.298000000000000E10    4.119861096114619E-4   6.992539001657860E-4  
 2.300000000000000E10    2.456519030147319E-5  -1.911419604425646E-4  
 2.302000000000000E10   -2.173839839088032E-4  -5.119118031871039E-4  
 2.304000000000000E10   -1.351816426904406E-3  -2.461075309838634E-4  
 2.306000000000000E10   -4.232477349432884E-4   5.787051086372230E-4  
 2.308000000000000E10   -1.018832967929484E-4   6.518939626403153E-4  
 2.310000000000000E10    8.570205827709287E-4  -1.174717644971679E-4  
 2.312000000000000E10   -3.141145643894561E-4  -1.326526225966518E-4  
 2.314000000000000E10   -4.851503799727652E-4  -1.930619307586312E-4  
 2.316000000000000E10   -4.361507865269232E-5   6.718935401295312E-4  
 2.318000000000000E10    6.956127663215739E-5   7.200621221272741E-4  
 2.320000000000000E10    4.287851352273719E-4   6.144883955130354E-4  
 2.322000000000000E10    6.424511484510731E-4  -7.265387159804959E-5  
 2.324000000000000E10   -1.946591728483327E-4  -1.915022476168815E-4  
 2.326000000000000E10   -8.981990868051071E-4  -5.560950939980103E-4  
 2.328000000000000E10    1.199501343762677E-4   7.064753062877571E-4  
 2.330000000000000E10    7.486227150366176E-4   3.499430422380101E-4  
 2.332000000000000E10    1.400070999807213E-3  -1.961746812639831E-5  
 2.334000000000000E10    2.908414953708416E-4  -7.839349200366996E-4  
 2.336000000000000E10   -1.711342056296417E-4  -1.454961479794292E-4  
 2.338000000000000E10   -2.507996071017260E-4   8.462431542284321E-4  
 2.340000000000000E10    5.155060243851040E-4   8.521995041519404E-4  
 2.342000000000000E10    6.928726870683022E-4  -1.916969474677899E-4  
 2.344000000000000E10    3.262402906329953E-4  -6.161673300084658E-4  
 2.346000000000000E10   -3.040556184430443E-4  -8.391199080506340E-4  
 2.348000000000000E10   -4.480924289964605E-4  -4.082512386958115E-4  
 2.350000000000000E10   -3.689494624268264E-4   7.640522962901741E-4  
 2.352000000000000E10    1.791659808077384E-3   9.598328233551001E-5  
 2.354000000000000E10    1.160505322332028E-3  -1.165377572760917E-3  
 2.356000000000000E10   -2.279847321915440E-4  -1.566720238770358E-3  
 2.358000000000000E10   -6.946920584596228E-4   3.010495911439648E-4  
 2.360000000000000E10   -1.017513150145533E-4   8.395410550292581E-4  
 2.362000000000000E10    3.951009857701138E-4   5.103624498588033E-4  
 2.364000000000000E10    4.303246405470418E-4  -8.747828796913382E-4  
 2.366000000000000E10   -3.184290294484526E-4  -1.033025248034392E-3  
 2.368000000000000E10   -7.003013670328073E-4  -6.724838331138017E-4  
 2.370000000000000E10   -9.257285346393473E-4   2.018097061409208E-4  
 2.372000000000000E10    5.075317749287933E-4   5.598688439931721E-4  
 2.374000000000000E10    7.028409563645255E-4   5.408147671914776E-5  
 2.376000000000000E10    2.238428833152284E-4  -1.583733232109807E-3  
 2.378000000000000E10   -1.284873716940638E-3  -7.708494158578105E-4  
 2.380000000000000E10   -1.297115297347773E-3   2.580489590400248E-4  
 2.382000000000000E10    2.966545689560007E-4   7.034123900666600E-4  
 2.384000000000000E10    5.223905645834748E-4  -4.277258590263955E-4  
 2.386000000000000E10   -2.198485180997523E-4  -8.336464343301486E-4  
 2.388000000000000E10   -3.370244885445572E-4  -4.028619356404306E-4  
 2.390000000000000E10   -9.822133251873311E-4   4.112107872060733E-4  
 2.392000000000000E10   -5.603323115792591E-4   5.087270819785772E-4  
 2.394000000000000E10    4.701583657151787E-4   7.128491270123050E-4  
 2.396000000000000E10    4.979175246262457E-4   6.330361884465674E-5  
 2.398000000000000E10   -8.799182869552169E-4  -5.423486090876395E-4  
 2.400000000000000E10   -9.445612668059766E-4  -5.028692010000668E-5  
 2.402000000000000E10   -2.919977805504459E-4   8.939794570324011E-4  
 2.404000000000000E10    2.638131463754689E-4   3.179120794811752E-4  
 2.406000000000000E10    9.725399795570411E-4   9.416690807029227E-5  
 2.408000000000000E10   -1.420659697259907E-5   1.618536098249024E-4  
 2.410000000000000E10   -3.381594851816772E-4  -1.887600251393451E-5  
 2.412000000000000E10   -2.647372602950782E-4   5.889803178433795E-4  
 2.414000000000000E10   -6.285923300310969E-4   1.368491830362473E-3  
 2.416000000000000E10    5.798619895358570E-4   3.710319979290944E-4  
 2.418000000000000E10    8.432147005805746E-4  -1.865080448624212E-4  
 2.420000000000000E10   -6.850934951216914E-4  -7.909243286121637E-4  
 2.422000000000000E10   -7.014773073024117E-4   1.685026943505363E-4  
 2.424000000000000E10    1.594741294184132E-4   8.964383487182204E-4  
 2.426000000000000E10    7.070662395562977E-4   9.957217225746717E-4  
 2.428000000000000E10    1.271928653295618E-3   9.900079066937906E-5  
 2.430000000000000E10    6.160298871691339E-4  -2.252902670534240E-4  
 2.432000000000000E10   -4.029289630125277E-4   1.127061532315565E-4  
 2.434000000000000E10   -5.617040696961340E-4   1.145719514170196E-3  
 2.436000000000000E10    8.808659949863795E-4   1.460925370338373E-3  
 2.438000000000000E10    1.361462724162266E-3   1.070614189302432E-5  
 2.440000000000000E10    5.775174849986797E-4  -1.330197599600069E-3  
 2.442000000000000E10   -4.758380491693970E-4  -1.857265106082195E-4  
 2.444000000000000E10   -3.684603525471175E-4   8.250915925600566E-4  
 2.446000000000000E10    7.837680132070091E-4   8.293002902064472E-4  
 2.448000000000000E10    1.225586165674031E-3   1.157645515377226E-4  
 2.450000000000000E10    6.981036822253373E-4  -1.109419990825700E-4  
 2.452000000000000E10   -4.031423286505742E-4  -9.156253545370419E-4  
 2.454000000000000E10   -9.563468120177276E-4   3.253222002967959E-4  
 2.456000000000000E10   -1.041087841713306E-4   8.240738570748363E-4  
 2.458000000000000E10    5.704617269657319E-4   5.779650673503056E-4  
 2.460000000000000E10    5.228469271969516E-4  -1.018494469462894E-3  
 2.462000000000000E10   -3.578703899620450E-4  -1.026962061587255E-3  
 2.464000000000000E10   -6.234746142581571E-4  -2.481563269611797E-4  
 2.466000000000000E10   -3.075190666095296E-4   5.773446064267773E-4  
 2.468000000000000E10    7.191658260126133E-4   5.051518273830880E-4  
 2.470000000000000E10    2.944138923339779E-4  -6.379262958944310E-4  
 2.472000000000000E10    6.669305946616078E-5  -1.464753245272732E-4  
 2.474000000000000E10   -7.252757059177384E-4  -5.449539185065078E-4  
 2.476000000000000E10   -5.379061440180522E-4  -1.726545308144978E-5  
 2.478000000000000E10   -3.388755271771515E-4   5.182883287488949E-4  
 2.480000000000000E10    8.690165814186912E-4   4.827671345992712E-4  
 2.482000000000000E10    2.850222281267634E-4  -8.008135773707181E-4  
 2.484000000000000E10    1.081366190192057E-5  -8.079623185039964E-4  
 2.486000000000000E10   -1.241130325070117E-3   1.686709983914625E-4  
 2.488000000000000E10   -4.083000021637417E-4   6.607432624150533E-4  
 2.490000000000000E10    7.240332743094768E-4   5.775397621619050E-4  
 2.492000000000000E10    8.209939696826041E-4  -1.314621035817254E-4  
 2.494000000000000E10   -6.372821408149321E-4  -9.879653662210330E-4  
 2.496000000000000E10   -5.050859181210399E-4  -2.485555887687951E-5  
 2.498000000000000E10   -7.470093078154605E-4   4.671935967053287E-4  
 2.500000000000000E10    2.888713261199882E-4   4.976899672328727E-4  
 2.502000000000000E10    6.523084957734682E-4   3.798639809247106E-4  
 2.504000000000000E10    4.511215738602914E-4  -8.063376517384313E-4  
 2.506000000000000E10   -7.309094580705278E-4  -1.105030038161203E-3  
 2.508000000000000E10   -1.068611105438322E-3   4.018295367131941E-4  
 2.510000000000000E10    1.356566629056033E-4   8.379802602576092E-4  
 2.512000000000000E10    8.132587900036015E-4   1.402684169988788E-4  
 2.514000000000000E10    3.924531047232449E-4  -7.854665309423581E-4  
 2.516000000000000E10   -6.235681430553086E-4  -8.569575220462866E-4  
 2.518000000000000E10   -5.059581853856798E-4   1.332073325102101E-4  
 2.520000000000000E10   -5.346889811335132E-4   6.278047512751073E-4  
 2.522000000000000E10    4.729519350803457E-4   3.950143218389712E-4  
 2.524000000000000E10    6.073240365367383E-4  -4.549535551632289E-4  
 2.526000000000000E10    1.540748507977696E-4  -6.670706134173088E-4  
 2.528000000000000E10   -1.141741624451242E-3  -5.532607683562674E-4  
 2.530000000000000E10   -6.032798009982798E-4   6.038265346433036E-4  
 2.532000000000000E10    2.809373390846304E-4   7.501391301047988E-4  
 2.534000000000000E10    2.857619729184080E-4  -2.703247082536109E-4  
 2.536000000000000E10    1.773586600393173E-4  -9.436096297577024E-4  
 2.538000000000000E10   -1.028450329613406E-3  -3.357227124070050E-4  
 2.540000000000000E10   -7.947078847792000E-4   1.659462650422938E-4  
 2.542000000000000E10   -3.074608921451727E-4   6.880659057060257E-4  
 2.544000000000000E10    4.615465195456636E-5   2.098792465403676E-4  
 2.546000000000000E10   -1.286902643187204E-4  -5.041878248448484E-4  
 2.548000000000000E10   -3.634930653788615E-4  -7.503108427044936E-4  
 2.550000000000000E10   -1.177172904135659E-3   2.812534853546822E-5  
 2.552000000000000E10   -8.086355082923546E-4   1.011684405966662E-3  
 2.554000000000000E10    5.943596188444644E-4   8.193470857804641E-4  
 2.556000000000000E10    4.615158613887616E-4  -1.225689698003407E-4  
 2.558000000000000E10   -3.413796439417638E-4  -3.497677898849361E-4  
 2.560000000000000E10   -1.181385814561509E-3   2.374988689552993E-4  
 2.562000000000000E10   -3.340691073390190E-4   1.163871042081155E-3  
 2.564000000000000E10   -1.696546723906067E-4   1.103362199501135E-3  
 2.566000000000000E10    7.547784771304578E-4   1.105337933040573E-4  
 2.568000000000000E10    2.613804699649336E-4   7.381072009593481E-5  
 2.570000000000000E10   -5.995483224978671E-4  -3.466361267783213E-4  
 2.572000000000000E10   -7.833773925085552E-4   4.054828932567034E-4  
 2.574000000000000E10    3.791890922002494E-4   1.164940884336829E-3  
 2.576000000000000E10    1.197665245854296E-3   7.491809592465870E-4  
 2.578000000000000E10    5.308070358296391E-4  -8.735471128602512E-4  
 2.580000000000000E10    1.551011000628932E-4  -1.238118229593965E-4  
 2.582000000000000E10   -7.808967638993636E-4   8.581350921303965E-4  
 2.584000000000000E10    7.106144112185575E-4   2.887951491175045E-4  
 2.586000000000000E10    7.294502720469609E-4   3.178493316227105E-4  
 2.588000000000000E10    4.371958420961164E-4  -3.659651956695598E-4  
 2.590000000000000E10    2.981288125738502E-4  -1.180925857624970E-3  
 2.592000000000000E10    3.609188979680766E-6  -2.558098967710976E-4  
 2.594000000000000E10   -5.545026288018562E-4   7.203445966297295E-5  
 2.596000000000000E10    6.737059520673938E-4   5.864147387910634E-4  
 2.598000000000000E10    1.200034443172626E-3  -9.422267885383917E-5  
 2.600000000000000E10    5.849672618296609E-5  -1.147461109212600E-3  
 2.602000000000000E10   -9.581197591614910E-4  -4.256199317751452E-4  
 2.604000000000000E10   -5.212687319726683E-4   3.192285548720975E-4  
 2.606000000000000E10    4.243215007591061E-4  -3.883352565026144E-5  
 2.608000000000000E10    2.641503488121089E-4  -3.130648765363731E-4  
 2.610000000000000E10    8.325270246132277E-4  -2.595005171315279E-4  
 2.612000000000000E10    7.127521075744880E-5  -9.899580836645328E-4  
 2.614000000000000E10   -1.709119969746098E-4  -4.814894782612100E-4  
 2.616000000000000E10   -6.410388814401813E-4   8.547143806936219E-4  
 2.618000000000000E10    5.640249255520757E-4   5.890928223379888E-4  
 2.620000000000000E10    6.371316922013648E-4   4.413380190726457E-5  
 2.622000000000000E10   -3.943752417399082E-4  -1.212828894495033E-3  
 2.624000000000000E10   -8.924542853492312E-4  -7.550001610070467E-4  
 2.626000000000000E10   -6.303179616224952E-4   2.095792538057140E-4  
 2.628000000000000E10    4.308605712139979E-4  -1.449814492389123E-4  
 2.630000000000000E10    7.834435018594377E-4  -5.790395734948106E-4  
 2.632000000000000E10    7.252542927744798E-4  -6.084061969886534E-4  
 2.634000000000000E10   -1.976621169887949E-4  -5.578264535870403E-4  
 2.636000000000000E10   -3.923142030544113E-4  -1.688057254796149E-4  
 2.638000000000000E10   -5.591686203842983E-4   8.173945243470371E-4  
 2.640000000000000E10    2.681186633708421E-4   4.989994886273053E-4  
 2.642000000000000E10    3.253658542234916E-4  -4.403117272886448E-4  
 2.644000000000000E10   -2.618478320073336E-4  -1.741547006531619E-3  
 2.646000000000000E10   -1.259605429368094E-3  -3.836872674582992E-4  
 2.648000000000000E10   -3.837879266939126E-4   2.333774418730172E-4  
 2.650000000000000E10    1.038175090798177E-3   1.368220073345583E-4  
 2.652000000000000E10    9.246551489923149E-4  -8.975942837423645E-4  
 2.654000000000000E10    1.568854167999234E-4  -4.703238082583994E-4  
 2.656000000000000E10   -4.076775730936788E-4  -2.806052962114336E-4  
 2.658000000000000E10   -1.022321441269014E-3   4.165608879702631E-4  
 2.660000000000000E10   -7.738887361483648E-4   7.541641389252618E-4  
 2.662000000000000E10    2.513089602871332E-4   1.783022580639226E-4  
 2.664000000000000E10   -1.671149384492310E-4  -1.228688066476025E-3  
 2.666000000000000E10   -1.113303937017918E-3  -1.423062727553770E-3  
 2.668000000000000E10   -8.013128754100762E-4   2.024453315243591E-4  
 2.670000000000000E10    5.737192477681674E-4   5.223938969720621E-4  
 2.672000000000000E10    1.049918297212571E-3   2.876625076169148E-4  
 2.674000000000000E10    3.782061176025309E-4  -4.527455967036076E-4  
 2.676000000000000E10   -6.247685050766449E-4   1.696818217169493E-4  
 2.678000000000000E10   -6.020056316629052E-4   4.469589512154926E-4  
 2.680000000000000E10   -6.016111146891490E-4   5.560473437071778E-4  
 2.682000000000000E10   -7.584447375847958E-4   9.568099849275313E-4  
 2.684000000000000E10    1.368363919027615E-4   2.544172139096190E-5  
 2.686000000000000E10    3.160782616760116E-4  -9.434594176127575E-4  
 2.688000000000000E10   -1.173949276562780E-3  -4.599970379786100E-4  
 2.690000000000000E10   -7.285584215424024E-4   3.069077865802683E-4  
 2.692000000000000E10    1.243352919118479E-3   1.328378377365880E-3  
 2.694000000000000E10    8.630089287180454E-4   5.086022283649072E-4  
 2.696000000000000E10    4.896556129097007E-4  -2.259941538795829E-4  
 2.698000000000000E10   -1.898135378723964E-4   4.395790601847693E-4  
 2.700000000000000E10   -6.856485706521198E-4   1.195433251268696E-3  
 2.702000000000000E10   -3.449767536949366E-4   8.318438776768744E-4  
 2.704000000000000E10    5.411598685896024E-4   5.615882619167678E-4  
 2.706000000000000E10    3.396172905922867E-4  -8.892050414033292E-5  
 2.708000000000000E10    3.467111091595143E-4  -6.747759252903052E-4  
 2.710000000000000E10   -6.170360779833573E-5  -1.475460678648233E-4  
 2.712000000000000E10   -2.823911618179409E-4   9.759860549820587E-4  
 2.714000000000000E10    1.528852313640527E-3   4.952226227032952E-4  
 2.716000000000000E10    1.324611221207306E-3   1.846403338277014E-4  
 2.718000000000000E10   -7.839633235562360E-5  -5.203144974075258E-4  
 2.720000000000000E10    1.204011441586772E-4   1.547402371215867E-5  
 2.722000000000000E10   -3.276603838457959E-4   6.133210845291615E-4  
 2.724000000000000E10    2.829287095664768E-4   5.346476391423494E-4  
 2.726000000000000E10    4.126849307795055E-4   1.830365851702709E-4  
 2.728000000000000E10    8.001080132089555E-4  -1.009822546620853E-3  
 2.730000000000000E10   -3.225876389478799E-4  -9.554718853905797E-4  
 2.732000000000000E10   -1.484300892116153E-4  -7.004918879829347E-4  
 2.734000000000000E10    1.836920196183201E-4   6.108254747232422E-4  
 2.736000000000000E10    1.394470455124974E-3   2.134392161678989E-5  
 2.738000000000000E10    1.250601533683948E-3  -3.899032817571424E-4  
 2.740000000000000E10   -3.706802581291413E-4  -5.373763051466085E-4  
 2.742000000000000E10   -3.841987672785763E-4   3.926670942746569E-4  
 2.744000000000000E10   -2.801901318889577E-4   3.460628577158786E-4  
 2.746000000000000E10    1.223321336283334E-4  -6.759209372830810E-5  
 2.748000000000000E10    2.175677836930845E-4  -1.883736767922528E-4  
 2.750000000000000E10    3.056789973925334E-4  -6.703790495521389E-4  
 2.752000000000000E10   -3.657845882116817E-4  -1.317242116783746E-3  
 2.754000000000000E10   -4.110856425540987E-4  -3.305216932858457E-5  
 2.756000000000000E10    4.386806176626124E-4   8.476468137814663E-4  
