#  HZ   S   RI   R     50.00 
! Rohde & Schwarz ZVA40 4Ports - Version 3.90 - 1145.1110k42 SN: 100403
! Date: 2023-10-04 06:49:32
! Measurement: S12 
! 
 2.200000000000000E10    1.059615737176500E-3  -8.648300972708967E-4  
 2.202000000000000E10   -4.462584447537665E-4  -9.259535618184600E-4  
 2.204000000000000E10   -3.953159875891288E-5   6.503169752249960E-4  
 2.206000000000000E10    5.808853675262071E-4   6.550461803271901E-4  
 2.208000000000000E10    9.055388181877788E-4  -6.033740410202881E-4  
 2.210000000000000E10   -4.046452668262646E-4   4.174340215286065E-4  
 2.212000000000000E10    4.817255467060022E-4   6.959238344279584E-4  
 2.214000000000000E10    5.563684426306281E-4  -2.148268872588233E-4  
 2.216000000000000E10   -1.872089014796075E-4  -1.005386937322328E-3  
 2.218000000000000E10   -1.170185933005996E-3   9.864788407867309E-4  
 2.220000000000000E10    6.118115124991164E-4   1.695264854788547E-4  
 2.222000000000000E10    7.749105643597432E-4  -4.411084646562813E-4  
 2.224000000000000E10   -6.547143857460469E-4  -7.409361351164989E-4  
 2.226000000000000E10   -3.203076794306980E-4   1.441710189737933E-4  
 2.228000000000000E10    6.594372716790531E-4  -5.555765019380488E-4  
 2.230000000000000E10   -1.351255796180340E-4  -6.305659662757535E-4  
 2.232000000000000E10    8.024580824894656E-5   3.864099307975266E-4  
 2.234000000000000E10    8.823673342703842E-4   6.598524146284035E-5  
 2.236000000000000E10    2.904651510107215E-4  -1.320900257269386E-3  
 2.238000000000000E10   -1.245610299520195E-3  -7.301807891053613E-4  
 2.240000000000000E10   -8.598190288466867E-4   1.050673337886110E-3  
 2.242000000000000E10    6.223431482794695E-4   4.908701994281728E-4  
 2.244000000000000E10    7.400330250675324E-4  -1.528100285213441E-3  
 2.246000000000000E10   -1.062234652636107E-3  -1.082495713490062E-3  
 2.248000000000000E10   -1.116926665417850E-3  -5.334939869499067E-4  
 2.250000000000000E10   -2.295744102411845E-4   2.583547175163403E-4  
 2.252000000000000E10   -1.068296478479169E-5  -8.056911101448350E-4  
 2.254000000000000E10   -1.984127177365735E-4   3.211144448300729E-5  
 2.256000000000000E10    2.054378073026442E-4  -7.882460304244887E-4  
 2.258000000000000E10   -6.902208042447455E-4  -1.099124558095355E-3  
 2.260000000000000E10   -1.643196927034296E-3   4.940188300679438E-4  
 2.262000000000000E10   -8.736038853385253E-5   7.928100858407561E-4  
 2.264000000000000E10    7.057882285153028E-4   6.171684526634635E-5  
 2.266000000000000E10   -5.604881516774185E-4  -1.068001849489519E-3  
 2.268000000000000E10   -5.147750925971195E-4  -7.059310883050785E-4  
 2.270000000000000E10   -9.359943214803934E-4   8.715809090062976E-4  
 2.272000000000000E10    2.831571864589932E-4   6.581429192920041E-5  
 2.274000000000000E10    6.085230634198524E-4  -2.376780929580491E-5  
 2.276000000000000E10   -2.399955574219348E-4   1.067301518560271E-4  
 2.278000000000000E10   -1.101449242923991E-6   2.862802630261285E-4  
 2.280000000000000E10    3.028628179890802E-4  -1.562717958449866E-4  
 2.282000000000000E10   -9.532360454613809E-4  -1.117530409828760E-4  
 2.284000000000000E10    7.429177594531211E-5   5.649150079989340E-4  
 2.286000000000000E10    4.609661027643597E-4   1.039478735037847E-3  
 2.288000000000000E10    4.557283573376481E-4  -4.619263945642160E-4  
 2.290000000000000E10   -3.879047635564348E-4  -4.434890606717090E-4  
 2.292000000000000E10   -2.329247461148043E-4   4.709844379249262E-4  
 2.294000000000000E10    9.548817172344570E-5   1.079424298950471E-3  
 2.296000000000000E10    1.032933854730800E-3   3.377104931132635E-4  
 2.298000000000000E10    6.067805734346621E-4  -1.890120029202080E-5  
 2.300000000000000E10    1.195890386043175E-4  -2.646631000970956E-4  
 2.302000000000000E10   -8.676705647303606E-5  -3.533396538841771E-4  
 2.304000000000000E10   -4.450660344446078E-4   2.033779837802285E-4  
 2.306000000000000E10    1.108655126245139E-4   1.066886965418235E-3  
 2.308000000000000E10    1.318395989073906E-3  -9.876648050521908E-5  
 2.310000000000000E10    3.493210060696583E-4  -1.105329421989154E-3  
 2.312000000000000E10   -1.052239735145122E-3  -3.800120612140745E-4  
 2.314000000000000E10   -5.363086784200277E-4   7.819990241841879E-4  
 2.316000000000000E10    7.248935980896931E-4   9.481590277573559E-4  
 2.318000000000000E10    7.980012105690548E-4   6.069234814276570E-5  
 2.320000000000000E10   -6.588365431525745E-5  -1.050224527716637E-3  
 2.322000000000000E10   -7.421755108225625E-4  -1.325015578004241E-4  
 2.324000000000000E10   -2.295003532708506E-4   5.075926346762572E-4  
 2.326000000000000E10    2.772276757241343E-4   3.669688894660794E-4  
 2.328000000000000E10    1.011814973026048E-3   3.290890217613196E-4  
 2.330000000000000E10    8.487895320286043E-4  -1.974445747237041E-4  
 2.332000000000000E10   -5.351301551854704E-4  -1.401804649503902E-3  
 2.334000000000000E10   -1.099825589335524E-3   5.682530209014658E-4  
 2.336000000000000E10   -1.760634063430189E-4   1.026632577122655E-3  
 2.338000000000000E10    9.849830967141315E-4  -2.136309049092233E-4  
 2.340000000000000E10    2.643626612552907E-4  -1.613686370546930E-3  
 2.342000000000000E10   -5.175689329917077E-4  -2.826470063155284E-4  
 2.344000000000000E10   -8.042204208322801E-4  -2.449874541525787E-4  
 2.346000000000000E10    2.596982922113966E-4   4.644690934583196E-4  
 2.348000000000000E10    5.155286326044006E-4  -2.249037111141661E-4  
 2.350000000000000E10    4.275254941603635E-4   1.340830440312857E-4  
 2.352000000000000E10    3.091532598773483E-4  -5.476142614497803E-4  
 2.354000000000000E10   -4.899310879409313E-4   6.086225475883111E-4  
 2.356000000000000E10   -1.351164610241540E-3   2.683179936866509E-4  
 2.358000000000000E10   -1.563279363381298E-5   9.731942227517720E-4  
 2.360000000000000E10    8.010419696802273E-5  -1.529011842649197E-4  
 2.362000000000000E10    5.290332512686291E-5  -1.121332235925365E-3  
 2.364000000000000E10   -9.125343021878507E-4  -8.316478415508755E-4  
 2.366000000000000E10   -3.709047696247581E-4   4.242596478434280E-4  
 2.368000000000000E10    2.262473144583055E-4   2.069115816993872E-4  
 2.370000000000000E10    7.587496111227665E-4   8.726827581995167E-5  
 2.372000000000000E10    7.386708712147083E-4  -2.483430380380014E-4  
 2.374000000000000E10    1.991819317481713E-4  -3.516849233164976E-5  
 2.376000000000000E10   -5.038277304265648E-4  -4.187046897641267E-6  
 2.378000000000000E10   -6.329951720545068E-4   1.524873725429643E-3  
 2.380000000000000E10    4.230062058923068E-4   1.098248329071794E-3  
 2.382000000000000E10    6.928276088729035E-4   7.747335885710527E-5  
 2.384000000000000E10    5.676578666680143E-6  -1.195101933262777E-3  
 2.386000000000000E10   -6.981582555454224E-4  -7.407041994156316E-4  
 2.388000000000000E10   -4.661445191231906E-4   3.717826448337291E-4  
 2.390000000000000E10    6.859450841147918E-4   6.712744652759284E-4  
 2.392000000000000E10    1.722619672364090E-3  -3.808423170994502E-4  
 2.394000000000000E10    8.037081679503899E-4  -1.379681139610511E-4  
 2.396000000000000E10   -5.191168402234325E-4  -6.416921532945707E-4  
 2.398000000000000E10   -6.833691622887272E-4   3.093249797530007E-4  
 2.400000000000000E10   -2.770842784229899E-4   1.511292131908704E-3  
 2.402000000000000E10    7.278551784111187E-4  -1.309401907292340E-4  
 2.404000000000000E10    3.547648318544816E-4  -1.172523778222967E-3  
 2.406000000000000E10   -1.175351026176941E-3  -1.493495503382292E-3  
 2.408000000000000E10   -1.333013169642072E-3  -1.374700004816987E-4  
 2.410000000000000E10    1.924597331708355E-4   4.983333747077268E-5  
 2.412000000000000E10    1.336393877863884E-3  -2.043903673438763E-4  
 2.414000000000000E10    3.857975589198759E-4  -9.243062413588632E-4  
 2.416000000000000E10    8.543345393263735E-5  -1.096368207072374E-3  
 2.418000000000000E10   -1.293759902182501E-3   2.194807129853871E-4  
 2.420000000000000E10   -9.723309085529763E-4   8.448068765574135E-4  
 2.422000000000000E10    1.878750722426048E-4   2.823669547069585E-4  
 2.424000000000000E10    5.765835048805457E-4  -6.392805626092013E-4  
 2.426000000000000E10   -1.067034707375569E-3  -1.370667505398160E-3  
 2.428000000000000E10   -1.012834196444601E-3  -7.388963022094686E-4  
 2.430000000000000E10   -1.088284574507270E-3   3.326320093037793E-4  
 2.432000000000000E10    4.006539211331983E-4   2.116051769576188E-4  
 2.434000000000000E10    4.276614417904057E-4  -7.645251344001736E-5  
 2.436000000000000E10   -1.694394723017467E-4  -3.070196680710069E-4  
 2.438000000000000E10   -5.205396446399391E-4  -1.737134247719041E-4  
 2.440000000000000E10   -1.070242367859464E-3   6.448238236771431E-4  
 2.442000000000000E10   -7.781347885611467E-4   7.668718862987589E-4  
 2.444000000000000E10   -5.042610808914105E-5   6.161984565551393E-4  
 2.446000000000000E10    1.628137342777336E-4  -5.958079673291650E-4  
 2.448000000000000E10   -2.969666265926207E-4  -9.044265279953834E-4  
 2.450000000000000E10   -7.192146549641620E-4  -3.024379739144933E-4  
 2.452000000000000E10   -2.103815277223475E-4   4.559735480142990E-4  
 2.454000000000000E10    6.144084327388555E-4   9.377659662277438E-4  
 2.456000000000000E10    9.323746489826590E-4   4.308128172851866E-4  
 2.458000000000000E10   -1.495592033506910E-5  -3.411114125810855E-4  
 2.460000000000000E10   -3.868300518661272E-4  -1.894978122436442E-4  
 2.462000000000000E10   -1.045878074364737E-3   4.007157131127315E-4  
 2.464000000000000E10   -2.366911067497313E-5   9.684218239272013E-4  
 2.466000000000000E10    1.087946402549278E-3   2.031903868555673E-4  
 2.468000000000000E10    9.868746165011544E-4  -1.139003565185703E-3  
 2.470000000000000E10   -7.915271344245412E-4  -1.332423664280213E-3  
 2.472000000000000E10   -3.170957234033267E-4   8.251544786617160E-4  
 2.474000000000000E10    3.728964893525699E-4   1.141343989729649E-3  
 2.476000000000000E10    1.322366115346085E-3   3.285722486907616E-4  
 2.478000000000000E10    8.524415934516583E-4  -1.821208338697034E-4  
 2.480000000000000E10   -6.769432766304817E-4  -3.012525849044323E-4  
 2.482000000000000E10   -7.395133980026003E-4  -5.750923719460843E-6  
 2.484000000000000E10   -2.255316176160704E-4   9.609817861928605E-4  
 2.486000000000000E10    1.254986127605662E-4   1.724336011648120E-4  
 2.488000000000000E10    9.182517351291608E-4  -6.120728958194377E-4  
 2.490000000000000E10    6.128566622010112E-5  -1.066539014573209E-3  
 2.492000000000000E10   -9.563418170728255E-4  -6.446428760682466E-4  
 2.494000000000000E10   -5.171128270831105E-5   8.277507513412274E-4  
 2.496000000000000E10    1.103123417124152E-3   6.293309670581948E-4  
 2.498000000000000E10    2.710971341457480E-4  -6.407133223547135E-4  
 2.500000000000000E10    4.517754241533112E-4  -4.619590217771474E-4  
 2.502000000000000E10   -8.394202086492442E-4   3.164034624205669E-4  
 2.504000000000000E10   -4.729410211439244E-4  -4.590289142925030E-5  
 2.506000000000000E10    6.078787910723804E-5   1.886774498416344E-4  
 2.508000000000000E10    3.772247407596296E-5   6.079054455767619E-4  
 2.510000000000000E10    5.334272173058707E-4  -9.354555113532115E-4  
 2.512000000000000E10    2.224043868466197E-4  -4.822972587135155E-4  
 2.514000000000000E10   -1.003064560791245E-3  -1.240151855199656E-4  
 2.516000000000000E10   -1.988311787499697E-4   1.027098303893581E-3  
 2.518000000000000E10    1.147430222772528E-3   1.364427531370893E-3  
 2.520000000000000E10    3.841682391794166E-4  -2.093105151743657E-4  
 2.522000000000000E10   -1.367168690649123E-4  -5.088722773507470E-4  
 2.524000000000000E10   -1.133235833549406E-3   9.027049127325881E-4  
 2.526000000000000E10   -8.737973548704758E-4   2.284068759763613E-4  
 2.528000000000000E10   -5.146465082361829E-5   4.363434205743033E-4  
 2.530000000000000E10    4.706576510216110E-4   3.827122200164013E-4  
 2.532000000000000E10    4.483997599891154E-4  -6.541126967931632E-4  
 2.534000000000000E10   -4.216975376039045E-4  -8.720514706510585E-4  
 2.536000000000000E10   -5.346490179363173E-4   6.412451039068401E-4  
 2.538000000000000E10    2.000691947614541E-4   1.079853536793962E-3  
 2.540000000000000E10    1.664437186263967E-3   2.389522351222695E-4  
 2.542000000000000E10    6.543937342939898E-4  -1.248062429795027E-4  
 2.544000000000000E10   -6.466362610808574E-4  -3.230616794098751E-4  
 2.546000000000000E10   -1.636404742839659E-4   4.943265303154476E-4  
 2.548000000000000E10    8.645613843327737E-5   9.122493393078912E-4  
 2.550000000000000E10    6.297050240391400E-4  -1.595746990119551E-4  
 2.552000000000000E10    8.841165872581769E-4  -3.919333321391605E-4  
 2.554000000000000E10    5.484797839017119E-4  -9.759610620676540E-4  
 2.556000000000000E10   -3.417134867049754E-4  -3.378292949491879E-4  
 2.558000000000000E10    2.635585860844003E-4   5.807686939078849E-4  
 2.560000000000000E10    1.199928075948264E-3   4.385791226013680E-4  
 2.562000000000000E10    1.256838746485300E-3  -5.468379422381986E-4  
 2.564000000000000E10   -3.865803682856495E-4  -7.080736795614939E-4  
 2.566000000000000E10   -2.705100232560653E-4  -4.547040480247233E-4  
 2.568000000000000E10   -4.071365447089193E-4   4.535988318821183E-4  
 2.570000000000000E10    1.734997513267444E-4  -2.289424799073458E-4  
 2.572000000000000E10    6.105848697188776E-4  -2.344475396967027E-4  
 2.574000000000000E10    8.393640418944415E-4  -8.975719683803618E-4  
 2.576000000000000E10   -9.529737462798948E-5  -1.145836133218836E-3  
 2.578000000000000E10   -5.239273523329757E-4  -5.800309554615524E-4  
 2.580000000000000E10    3.159832403980545E-4   7.238971738843247E-4  
 2.582000000000000E10    4.869591921305982E-4   3.098522302025231E-4  
 2.584000000000000E10    4.607213359122397E-4  -1.024616467475426E-3  
 2.586000000000000E10   -9.035770053742454E-4  -7.776245765853673E-4  
 2.588000000000000E10   -1.296562477364205E-3  -2.170121497329092E-4  
 2.590000000000000E10    3.423424232096295E-6   3.464811015874147E-5  
 2.592000000000000E10    9.878219407255529E-5   2.536145707381365E-4  
 2.594000000000000E10    2.748239166976418E-4  -6.188638108142186E-4  
 2.596000000000000E10    1.851995942465656E-4  -7.624343197676353E-4  
 2.598000000000000E10   -6.333252367767273E-4  -3.856728526443476E-4  
 2.600000000000000E10   -7.641165138920769E-4   3.329161136207404E-4  
 2.602000000000000E10    3.403985108434426E-4   8.617220228188671E-4  
 2.604000000000000E10    6.371709559971350E-5   4.973083923687227E-4  
 2.606000000000000E10    4.037201642859145E-4  -1.027474510920001E-3  
 2.608000000000000E10   -1.027280079142656E-3  -3.250916166734896E-4  
 2.610000000000000E10   -1.009801337204408E-3   3.257137914260966E-4  
 2.612000000000000E10   -5.566189042838232E-5   9.938993753166869E-4  
 2.614000000000000E10    7.258309797180118E-4  -2.426872242722311E-5  
 2.616000000000000E10   -2.558254418261186E-5  -5.172771889192518E-4  
 2.618000000000000E10   -1.416695527041156E-4  -3.968104556406615E-4  
 2.620000000000000E10   -7.165847491705790E-4   7.073570995999035E-4  
 2.622000000000000E10   -4.452799439604860E-4   5.525052183656953E-4  
 2.624000000000000E10    2.002067562898446E-4   9.730881101859268E-4  
 2.626000000000000E10    4.665711967390962E-4   5.194960122025805E-4  
 2.628000000000000E10    1.168285507446853E-5  -6.032809978933074E-4  
 2.630000000000000E10   -8.542988689441700E-4  -3.315930589451455E-4  
 2.632000000000000E10   -7.324048274313100E-4   1.197041754494421E-3  
 2.634000000000000E10    8.042887384362984E-4   7.234607328427956E-4  
 2.636000000000000E10    1.036544366797898E-3   1.080950762570865E-4  
 2.638000000000000E10   -2.915508158878311E-4  -3.574721495169797E-5  
 2.640000000000000E10   -4.055745321238646E-4   4.269815781299258E-5  
 2.642000000000000E10    9.031827630678890E-6   8.218001858040225E-4  
 2.644000000000000E10   -5.311594723025337E-4   5.695554973499384E-4  
 2.646000000000000E10    3.460283405729570E-4   4.546070485957898E-4  
 2.648000000000000E10    7.815557128196815E-4   9.858150599484361E-5  
 2.650000000000000E10    8.764254857851483E-5  -9.122009651036933E-4  
 2.652000000000000E10   -7.524597931478638E-4  -1.385924551868811E-4  
 2.654000000000000E10   -3.373943309270544E-5   1.062960400304291E-3  
 2.656000000000000E10    1.216151977132540E-3   4.729813990707044E-4  
 2.658000000000000E10    7.773996258038096E-4  -1.132659981522011E-4  
 2.660000000000000E10    1.506537373643369E-4  -1.655986943660537E-4  
 2.662000000000000E10   -1.800665322662098E-4   4.624542561941780E-4  
 2.664000000000000E10   -3.190023853676394E-4   9.416943867108785E-4  
 2.666000000000000E10    1.188964788525482E-4   5.415994855866302E-4  
 2.668000000000000E10    5.397953827923629E-4  -2.693565875233617E-6  
 2.670000000000000E10    2.728490471781697E-4  -8.336120154126547E-4  
 2.672000000000000E10    1.527763752164901E-4  -1.166218244179618E-3  
 2.674000000000000E10   -4.732574998342898E-4   1.887922278456244E-4  
 2.676000000000000E10    5.136220497661270E-4   5.263831408228725E-4  
 2.678000000000000E10    1.196201556012966E-3   4.325433510530274E-4  
 2.680000000000000E10    1.016207614156883E-3  -4.262845868652221E-4  
 2.682000000000000E10   -1.038875241647475E-3  -2.115293609676883E-4  
 2.684000000000000E10   -4.322607856011018E-5  -4.509208565650624E-5  
 2.686000000000000E10   -3.355308022037207E-4   1.361004164209589E-3  
 2.688000000000000E10   -1.306413560087094E-4  -1.228303126481478E-4  
 2.690000000000000E10    7.664190779905766E-4  -3.064412012463436E-4  
 2.692000000000000E10    1.052059888024814E-4  -1.122316709370352E-3  
 2.694000000000000E10   -6.443588245019782E-4  -5.298461619531736E-4  
 2.696000000000000E10   -7.623734063599841E-5  -2.284605823206221E-4  
 2.698000000000000E10    3.955151296395343E-4   1.043716445565224E-3  
 2.700000000000000E10    9.984631324186921E-4  -4.713832677225582E-4  
 2.702000000000000E10    6.611436547245830E-4  -9.451639198232442E-4  
 2.704000000000000E10   -1.140837106504478E-3  -2.356203381168598E-4  
 2.706000000000000E10   -7.341649397858419E-4   4.122001737414394E-4  
 2.708000000000000E10    4.987703141523525E-4   3.031587039004080E-5  
 2.710000000000000E10    2.855706334230490E-4  -7.641120464541018E-5  
 2.712000000000000E10    1.603809919288324E-4  -1.221240097947884E-3  
 2.714000000000000E10    1.450907038815785E-4  -8.550920756533742E-4  
 2.716000000000000E10   -8.969590708147734E-4  -4.125169907638338E-4  
 2.718000000000000E10   -4.130655834160280E-4   6.585487899428699E-4  
 2.720000000000000E10    8.780119751463644E-4   3.183058724971488E-4  
 2.722000000000000E10    4.676191019825637E-4  -5.088794714538381E-4  
 2.724000000000000E10   -3.542712838680018E-4  -1.187490284792148E-3  
 2.726000000000000E10   -1.232585040270351E-3   4.361902483651647E-5  
 2.728000000000000E10   -4.445914564712439E-4   4.689221423177514E-4  
 2.730000000000000E10    1.669562286679138E-4   2.455881890455203E-4  
 2.732000000000000E10    5.803830845252378E-5  -4.669035060942406E-4  
 2.734000000000000E10   -3.660200636659283E-4  -7.089745849953033E-4  
 2.736000000000000E10   -4.809538550034631E-4  -4.534229592536576E-4  
 2.738000000000000E10   -1.057161985954735E-3   4.308491352276178E-4  
 2.740000000000000E10   -2.372136987105478E-4   6.843069786555134E-4  
 2.742000000000000E10    3.963666495110374E-4  -5.925046934862621E-5  
 2.744000000000000E10   -3.987226336903404E-4  -9.021945079439320E-4  
 2.746000000000000E10   -1.192375362734310E-3  -2.616833735373803E-4  
 2.748000000000000E10   -2.591107404441573E-4   5.038157905801199E-4  
 2.750000000000000E10   -5.351133695512544E-4   6.068395596230403E-4  
 2.752000000000000E10    2.132496547346818E-5  -8.138511020661099E-6  
 2.754000000000000E10    2.729962143348530E-4   1.531375419290271E-4  
 2.756000000000000E10   -5.966117678326555E-4  -3.230678012187127E-4  
