#  HZ   S   RI   R     50.00 
! Rohde & Schwarz ZVA40 4Ports - Version 3.90 - 1145.1110k42 SN: 100403
! Date: 2023-10-04 06:49:05
! Measurement: S12 
! 
 2.200000000000000E10    1.218247766701097E-4  -1.611727686395170E-3  
 2.202000000000000E10   -1.495323405833915E-3  -6.277566881180974E-4  
 2.204000000000000E10   -1.192774394439766E-3   3.292374067314086E-4  
 2.206000000000000E10   -9.699729014300829E-5  -3.935387676392566E-4  
 2.208000000000000E10   -7.848400468901673E-5  -4.500215300140553E-4  
 2.210000000000000E10   -5.926125704718288E-4  -3.129205342702335E-4  
 2.212000000000000E10    2.532019179852796E-4  -7.886297753429972E-4  
 2.214000000000000E10   -4.394211146063753E-6  -3.776756930164993E-4  
 2.216000000000000E10   -1.705065758869750E-3   3.369516043676413E-4  
 2.218000000000000E10   -1.952354256218314E-4   1.155051351815928E-3  
 2.220000000000000E10    9.798174196475884E-4   2.572733332186772E-4  
 2.222000000000000E10   -5.891544906262425E-4  -1.037275002090610E-3  
 2.224000000000000E10   -1.688832988293143E-3  -8.093519159046991E-5  
 2.226000000000000E10   -6.888954721944174E-4   1.785365435353015E-3  
 2.228000000000000E10    2.404745108606221E-4   6.345692800096003E-4  
 2.230000000000000E10   -2.709250234147476E-4  -3.819143712462392E-4  
 2.232000000000000E10   -1.224844574608142E-3   6.073169333831174E-5  
 2.234000000000000E10   -2.862774977074878E-4   4.756871480822156E-4  
 2.236000000000000E10   -4.551519043616281E-5   3.538027667673305E-4  
 2.238000000000000E10   -2.146870453145766E-4   2.637035120187647E-4  
 2.240000000000000E10   -1.743449915920792E-4   1.562656467285706E-3  
 2.242000000000000E10    6.749480744474568E-4   8.414082876697648E-4  
 2.244000000000000E10    4.127493339183275E-4   3.745908816199517E-5  
 2.246000000000000E10   -1.165274828963447E-3   8.532703468517866E-4  
 2.248000000000000E10   -2.488109407750017E-5   1.052567626175005E-3  
 2.250000000000000E10    7.724971073912457E-4   1.031379477353767E-3  
 2.252000000000000E10   -2.262005691591185E-4   5.123138862472842E-6  
 2.254000000000000E10    1.553148149469052E-4   6.153711019578623E-4  
 2.256000000000000E10    5.270777764962986E-4   5.372966743379948E-4  
 2.258000000000000E10    2.079158550998272E-4  -2.111007320309000E-4  
 2.260000000000000E10    4.383132327347994E-4   5.813276256958488E-4  
 2.262000000000000E10    5.750732216256438E-4   1.534569459181512E-3  
 2.264000000000000E10    1.210376038216054E-3   6.072808919270756E-4  
 2.266000000000000E10    9.892744601529557E-4  -3.321070053061703E-4  
 2.268000000000000E10   -1.174963043013122E-3  -1.784330729606154E-4  
 2.270000000000000E10   -5.702508151443908E-4   1.228452967552585E-3  
 2.272000000000000E10    1.185228506074054E-3   2.823501654347638E-4  
 2.274000000000000E10    9.537908808852080E-4  -5.635656034428394E-4  
 2.276000000000000E10   -2.558492644766375E-5  -1.180426195787732E-3  
 2.278000000000000E10    1.416583347690903E-4  -3.765101837416296E-4  
 2.280000000000000E10   -1.632985577089130E-4   2.347293788034222E-4  
 2.282000000000000E10    2.422605214746909E-5   4.452263892744668E-4  
 2.284000000000000E10    1.259017895790748E-3  -1.613386102690129E-4  
 2.286000000000000E10    8.072140917647630E-4  -4.295003900551819E-4  
 2.288000000000000E10   -7.408812516587204E-4  -9.800774714676663E-4  
 2.290000000000000E10   -8.099871429294581E-4  -6.583870890608523E-5  
 2.292000000000000E10   -1.814101261743417E-4   7.148619479266927E-4  
 2.294000000000000E10    1.110313867684454E-3  -2.378235431024223E-4  
 2.296000000000000E10    5.774272412963910E-4  -1.367284792650025E-3  
 2.298000000000000E10   -9.080096970137674E-4  -8.501310167048359E-4  
 2.300000000000000E10   -5.616832609121047E-4   3.322893671793281E-4  
 2.302000000000000E10    6.019186594130588E-4   4.240293064867728E-4  
 2.304000000000000E10   -1.256639923212788E-4  -2.250990355605609E-4  
 2.306000000000000E10    5.924925621059174E-5  -4.097974110663927E-4  
 2.308000000000000E10   -3.174374346599507E-4  -2.582050319688278E-4  
 2.310000000000000E10   -4.063661440341093E-4  -6.446232619055081E-4  
 2.312000000000000E10   -8.226201680372469E-4  -1.763874874995963E-4  
 2.314000000000000E10    3.691699030241580E-4   3.157326323162124E-4  
 2.316000000000000E10    4.429903619893594E-4   3.963085919167497E-5  
 2.318000000000000E10    3.532447103680170E-4  -1.534704446385149E-3  
 2.320000000000000E10   -6.709932531521190E-4   1.968668159975096E-4  
 2.322000000000000E10   -5.789973602077225E-4   5.411300526247942E-4  
 2.324000000000000E10    1.094548392757133E-4   6.579148594028084E-4  
 2.326000000000000E10   -8.291593658782404E-5  -1.997410184912951E-4  
 2.328000000000000E10    5.271864085898415E-5  -2.857014687833726E-4  
 2.330000000000000E10   -3.357699652042356E-4  -8.733384547667811E-4  
 2.332000000000000E10   -6.061323747417191E-4  -3.723569298017537E-4  
 2.334000000000000E10   -2.194308490288677E-4   3.450596213951940E-4  
 2.336000000000000E10    7.185936901805690E-4   1.218807094119256E-3  
 2.338000000000000E10    8.047526880545775E-4  -2.077874289057036E-4  
 2.340000000000000E10   -1.549066619190853E-4  -6.415457810362568E-4  
 2.342000000000000E10   -1.230310073879082E-3   4.074231746926671E-4  
 2.344000000000000E10   -8.698828260094160E-4   1.233586866874248E-3  
 2.346000000000000E10    2.423003843432525E-4   8.692694955243496E-4  
 2.348000000000000E10    1.662933355532914E-4  -8.374324861506466E-4  
 2.350000000000000E10   -2.408091445431637E-4  -1.279195970710134E-3  
 2.352000000000000E10   -5.287519088597037E-4  -2.279397449456155E-4  
 2.354000000000000E10    1.034911065289634E-5   3.076997518292046E-5  
 2.356000000000000E10    5.681570337401354E-4   8.228000151575543E-4  
 2.358000000000000E10    1.296676051424583E-3   3.215838869436993E-4  
 2.360000000000000E10    3.180915282428032E-4  -3.467290998742101E-4  
 2.362000000000000E10   -8.721025224076584E-4  -4.066225369570020E-4  
 2.364000000000000E10   -1.269155221962137E-3   1.234697047038935E-3  
 2.366000000000000E10   -3.890884117936366E-4   5.986202650092309E-4  
 2.368000000000000E10    1.246764304596582E-3  -1.836066159626171E-4  
 2.370000000000000E10   -5.878330321138492E-4  -1.401353674737038E-3  
 2.372000000000000E10   -1.084661809727550E-3  -8.251448107330361E-4  
 2.374000000000000E10   -2.489768310169893E-4   3.894595238307375E-4  
 2.376000000000000E10    4.599334588419879E-4   5.676376404153416E-4  
 2.378000000000000E10    4.875895556324394E-4   7.775806940912844E-5  
 2.380000000000000E10    3.454771712085858E-4  -2.739215296969633E-4  
 2.382000000000000E10   -5.514490158020635E-4  -1.747297900465128E-4  
 2.384000000000000E10   -1.033526206811075E-3   5.664657919624005E-6  
 2.386000000000000E10   -9.226382808265043E-4   1.304556597460760E-3  
 2.388000000000000E10   -2.328459913769621E-5   4.881682662016829E-4  
 2.390000000000000E10    5.338017963367747E-4  -1.108254846258205E-3  
 2.392000000000000E10   -6.090344541007653E-4  -5.669488145940704E-4  
 2.394000000000000E10   -1.149409788922640E-3   3.556058391041006E-5  
 2.396000000000000E10    1.783065731046918E-4   7.710305890213931E-4  
 2.398000000000000E10    9.077627109945752E-4   2.812306884152349E-4  
 2.400000000000000E10    7.632940960320411E-4   5.731436422138359E-4  
 2.402000000000000E10    1.421724675765290E-5  -1.656717498690341E-4  
 2.404000000000000E10   -1.838066154959961E-4   2.184026134273154E-4  
 2.406000000000000E10   -9.713923391245771E-4   9.667192953202175E-4  
 2.408000000000000E10    3.950851387344301E-4   9.468811203987571E-4  
 2.410000000000000E10    5.716793475585291E-4   4.658492052840302E-4  
 2.412000000000000E10    3.515056757805724E-4  -5.786108567917836E-4  
 2.414000000000000E10   -4.232386104376928E-4  -6.235362707229797E-4  
 2.416000000000000E10   -3.185465693604783E-4   6.932660180609673E-4  
 2.418000000000000E10   -1.466410412831465E-4   6.182005399750779E-4  
 2.420000000000000E10    6.878007006889675E-4   6.060386494937120E-4  
 2.422000000000000E10    6.371140389092034E-4   3.645748729468323E-4  
 2.424000000000000E10    1.445530417925056E-4  -4.100604282939457E-4  
 2.426000000000000E10   -9.728931163408561E-4  -2.044471052613517E-4  
 2.428000000000000E10   -4.502764895732980E-4   1.342512572591659E-3  
 2.430000000000000E10    6.947861002117861E-4   1.127791027101921E-3  
 2.432000000000000E10    1.207853607411380E-3  -5.211404914007289E-4  
 2.434000000000000E10    2.770486626104685E-4  -1.270309330720920E-3  
 2.436000000000000E10   -6.289434350037482E-4  -3.869538832077524E-4  
 2.438000000000000E10    1.806261270758114E-4   3.628089871199336E-4  
 2.440000000000000E10    5.022967834520387E-4   7.982698498381069E-4  
 2.442000000000000E10    1.133905734604923E-3  -1.902653448269120E-4  
 2.444000000000000E10    1.072135475624236E-3  -6.108133056841325E-4  
 2.446000000000000E10   -5.571630608756095E-4  -7.680593171244254E-4  
 2.448000000000000E10   -8.482566972816130E-4   2.272185940910276E-4  
 2.450000000000000E10    6.978148144298757E-5   1.008880444715032E-3  
 2.452000000000000E10    1.394798269757303E-3  -2.055702316283714E-4  
 2.454000000000000E10    4.965350562997628E-4  -1.065348356860341E-3  
 2.456000000000000E10   -4.405075051181484E-4  -1.322577307291795E-3  
 2.458000000000000E10   -7.763036173855653E-4   3.505293752823491E-4  
 2.460000000000000E10    5.767321672465187E-4   7.619931384397205E-4  
 2.462000000000000E10    6.079217237129342E-4   5.770108970182264E-5  
 2.464000000000000E10    6.077829589230532E-4  -2.035681345660123E-4  
 2.466000000000000E10   -1.185378903301171E-4  -6.455169668697636E-4  
 2.468000000000000E10   -1.066324894054560E-3  -3.930475349989138E-5  
 2.470000000000000E10   -1.058424440998351E-3   6.650332543358672E-4  
 2.472000000000000E10    7.045531958738138E-5   5.478167731780559E-4  
 2.474000000000000E10    5.723728809243767E-4  -4.729852926175227E-4  
 2.476000000000000E10    1.596574250015692E-4  -1.070620168320602E-3  
 2.478000000000000E10   -8.168459626176627E-4  -3.787453943004948E-4  
 2.480000000000000E10   -3.040505789613235E-4   2.146010687056332E-4  
 2.482000000000000E10    7.346360325755086E-4   6.737475468980847E-4  
 2.484000000000000E10    6.826277003710857E-4   9.194555497060719E-5  
 2.486000000000000E10    1.936614610258403E-4  -5.418679702415830E-4  
 2.488000000000000E10    1.468352286337904E-4   8.735234422374560E-5  
 2.490000000000000E10   -1.187479017971782E-3   1.810540841233888E-4  
 2.492000000000000E10   -1.912355683089118E-4   5.784926379419630E-4  
 2.494000000000000E10    6.811511339037679E-4   9.614076097932411E-4  
 2.496000000000000E10    9.832726009335602E-4  -6.271062693485874E-4  
 2.498000000000000E10   -1.903805077745346E-4  -1.142851779150078E-3  
 2.500000000000000E10   -6.538639499922283E-4   2.622414663164818E-4  
 2.502000000000000E10   -1.862047506620002E-4   1.004112265945878E-3  
 2.504000000000000E10    1.496128170401789E-3   6.034881553205196E-4  
 2.506000000000000E10    5.357012378226500E-4  -4.351041303607417E-5  
 2.508000000000000E10   -2.495045700925402E-4  -4.466035215955344E-4  
 2.510000000000000E10   -5.023758340030327E-4   1.306070359134992E-4  
 2.512000000000000E10   -6.842889251856832E-4   4.531672238954343E-4  
 2.514000000000000E10   -1.405730266128558E-4   3.683683980852948E-4  
 2.516000000000000E10    8.947419337346219E-4  -2.087085242692410E-4  
 2.518000000000000E10    5.079124730400508E-4  -1.094605049729580E-3  
 2.520000000000000E10   -4.537179447652306E-4  -1.503628809587099E-3  
 2.522000000000000E10   -3.120107376162196E-4   7.429512206726940E-4  
 2.524000000000000E10    5.254559582681395E-4   7.413598996208748E-4  
 2.526000000000000E10    1.504161213233601E-3  -1.860563615991850E-4  
 2.528000000000000E10    2.478327869539498E-4  -3.851390420095413E-4  
 2.530000000000000E10   -7.657322512386600E-4  -2.008231663239712E-4  
 2.532000000000000E10   -3.358241920068394E-4   2.784887423956661E-5  
 2.534000000000000E10   -1.155694260432938E-4   6.623175759159494E-4  
 2.536000000000000E10    1.131259427893383E-4  -1.671769132371992E-4  
 2.538000000000000E10    5.901710637772339E-4  -6.508009191747988E-4  
 2.540000000000000E10    9.041952489496907E-5  -9.647031201893697E-4  
 2.542000000000000E10   -4.672768636737601E-4  -6.796740253776079E-4  
 2.544000000000000E10   -4.365412660263246E-4   5.059813020125148E-4  
 2.546000000000000E10    3.358325266162865E-4   9.977485606214032E-4  
 2.548000000000000E10    7.672409337828867E-4  -1.504462768480153E-4  
 2.550000000000000E10   -2.722372148582508E-4  -5.049411538493587E-4  
 2.552000000000000E10   -1.102061836718349E-3  -2.997304486598296E-4  
 2.554000000000000E10   -9.253798234567512E-4   5.000857327104313E-4  
 2.556000000000000E10   -4.414628238009755E-4   2.395269730186556E-4  
 2.558000000000000E10    9.594208786438685E-4  -1.051481444847013E-4  
 2.560000000000000E10   -1.825515357722907E-4  -8.548384066671133E-4  
 2.562000000000000E10   -4.802016692337929E-4  -4.108128541702172E-4  
 2.564000000000000E10   -7.669794722460210E-4   5.174061598154367E-4  
 2.566000000000000E10    6.465005151312653E-5   1.123962681958801E-3  
 2.568000000000000E10    2.016996281781758E-4   6.852671995147830E-4  
 2.570000000000000E10    5.326255013642367E-4  -7.939944262034260E-4  
 2.572000000000000E10   -8.448588414466940E-4  -3.611163247114746E-4  
 2.574000000000000E10   -1.745351044519339E-3   6.107677427280578E-5  
 2.576000000000000E10    9.781983294487873E-5   7.951775969559094E-4  
 2.578000000000000E10    6.406810443877475E-4   2.518624105505296E-4  
 2.580000000000000E10    5.636515479636728E-4  -7.823423438821919E-4  
 2.582000000000000E10    2.525328927731607E-4  -4.024136069347151E-4  
 2.584000000000000E10   -2.805349204209051E-4   4.796121565959766E-4  
 2.586000000000000E10   -6.924025228727260E-4   1.063667114067357E-3  
 2.588000000000000E10    2.903741510635882E-4   1.181093924969900E-3  
 2.590000000000000E10    4.978005454177037E-4   5.218604674155358E-4  
 2.592000000000000E10   -4.906854264845606E-4  -8.429927129327552E-4  
 2.594000000000000E10   -9.101452269533183E-4  -3.609876935115608E-4  
 2.596000000000000E10   -5.486745458256337E-4   7.972399071149994E-4  
 2.598000000000000E10    5.448747051559622E-4   4.407418928167317E-4  
 2.600000000000000E10    8.225749934354099E-4  -3.410160416024155E-4  
 2.602000000000000E10    2.861767852664343E-4   3.456394328082979E-5  
 2.604000000000000E10   -4.864160582656041E-4   6.222812231015951E-5  
 2.606000000000000E10   -2.246679698032494E-4   6.061561944079585E-4  
 2.608000000000000E10   -9.314655071648303E-4   8.228816750488477E-4  
 2.610000000000000E10    3.457461652942584E-4   5.930402203375706E-4  
 2.612000000000000E10    7.212189120764379E-4  -6.200517041321518E-5  
 2.614000000000000E10   -3.200158066647418E-4  -1.325521585386014E-3  
 2.616000000000000E10   -9.133743769780267E-4  -5.132571968715638E-4  
 2.618000000000000E10    9.711942993817502E-5   1.039979135384783E-3  
 2.620000000000000E10    9.647742990637198E-4   3.121462059425539E-4  
 2.622000000000000E10    9.575084895914188E-4  -2.338829838208767E-4  
 2.624000000000000E10   -1.267697708726701E-4   2.306760188730550E-4  
 2.626000000000000E10   -2.854802960428060E-4  -1.070142486696568E-4  
 2.628000000000000E10   -5.708139824491809E-4   3.689055574795930E-4  
 2.630000000000000E10   -7.066621947160456E-4   7.119459460227517E-4  
 2.632000000000000E10    5.470717951538973E-4  -7.931052141429973E-5  
 2.634000000000000E10    7.336524868151173E-4  -1.097479425880010E-3  
 2.636000000000000E10   -2.610831966194382E-4  -1.122044486692175E-3  
 2.638000000000000E10   -7.887523988756584E-4   2.283771837028326E-4  
 2.640000000000000E10    5.860549508724944E-4   9.439175246370724E-4  
 2.642000000000000E10    1.015797635773197E-3   6.297072050074348E-4  
 2.644000000000000E10    4.197548596494016E-4  -5.754301964771003E-4  
 2.646000000000000E10   -3.586311968319933E-4   4.608908587044880E-5  
 2.648000000000000E10   -1.119017735618400E-3   2.793298490360030E-4  
 2.650000000000000E10   -5.089994583613589E-4   4.257746195435175E-4  
 2.652000000000000E10    7.663000928914698E-5   1.705629911157303E-4  
 2.654000000000000E10    7.083288128342247E-4  -5.637777167066815E-4  
 2.656000000000000E10    5.079825332359178E-4  -1.171542484371457E-3  
 2.658000000000000E10   -2.459824818288325E-4  -6.525202334159985E-4  
 2.660000000000000E10   -4.513486328505678E-5   6.459503274527378E-4  
 2.662000000000000E10    8.880048117134720E-4   9.676692170614842E-4  
 2.664000000000000E10    8.818826208880637E-4   4.409979228512384E-4  
 2.666000000000000E10    2.189087808801560E-4  -7.393681989924517E-4  
 2.668000000000000E10   -1.162817708973307E-3   1.873619457910536E-4  
 2.670000000000000E10   -7.832508235878777E-4   5.401475282269530E-4  
 2.672000000000000E10    4.124714050703915E-4   3.990762288594851E-4  
 2.674000000000000E10    3.097252811130602E-4  -6.337713712127879E-4  
 2.676000000000000E10    4.791651936102426E-4  -9.610563647584058E-4  
 2.678000000000000E10   -5.874713093589890E-5  -9.200979293382261E-4  
 2.680000000000000E10   -2.650982223713072E-4  -2.187484979003784E-4  
 2.682000000000000E10    1.847963048930978E-4   6.006369658280164E-4  
 2.684000000000000E10    1.088578275812324E-3   7.645915538887493E-4  
 2.686000000000000E10    3.848816450044978E-4  -4.988502787455218E-4  
 2.688000000000000E10   -4.980929115845356E-4  -9.814535151235759E-4  
 2.690000000000000E10   -9.531810756016057E-4   2.100134261127096E-4  
 2.692000000000000E10   -1.063076662831008E-3   2.945240021290374E-5  
 2.694000000000000E10    6.068541260901839E-4  -2.859868327504955E-4  
 2.696000000000000E10    3.722175333678024E-4  -5.269960965961218E-4  
 2.698000000000000E10   -1.711830483372978E-4  -1.136264007072896E-3  
 2.700000000000000E10   -8.963948693008206E-5  -6.531757389893755E-4  
 2.702000000000000E10   -1.508260666014394E-4   9.990565886255354E-4  
 2.704000000000000E10   -2.112627716996940E-4   9.049560867424589E-4  
 2.706000000000000E10    7.837893244868610E-4   2.838785912899766E-4  
 2.708000000000000E10   -6.340672443911899E-4  -2.456803704262711E-4  
 2.710000000000000E10   -1.181618965347298E-3  -5.813960960949771E-4  
 2.712000000000000E10   -1.095693380193552E-3   1.914608956212760E-4  
 2.714000000000000E10   -2.887279351853067E-4  -2.411798027424084E-5  
 2.716000000000000E10    2.115710776706692E-4  -4.348770926299039E-4  
 2.718000000000000E10    5.559949004236842E-4  -7.949656137498096E-4  
 2.720000000000000E10   -1.634763661968464E-4  -6.061323438188992E-4  
 2.722000000000000E10   -5.297131992847426E-4  -2.383519871500539E-4  
 2.724000000000000E10   -3.131550738544320E-5   1.292527325858828E-3  
 2.726000000000000E10    1.888064016384305E-4   6.043404027877841E-4  
 2.728000000000000E10    2.175038143832353E-4   5.587233596315855E-5  
 2.730000000000000E10   -8.365657085960265E-4  -3.133012296530069E-4  
 2.732000000000000E10   -1.180596111225896E-3  -3.057776357309194E-4  
 2.734000000000000E10   -3.442891775193857E-4   8.360109313798603E-5  
 2.736000000000000E10    1.544304418530373E-4   1.191863145777461E-4  
 2.738000000000000E10    4.420811383170076E-4  -3.016278087670798E-4  
 2.740000000000000E10    9.154862200375646E-4  -4.443178931978764E-4  
 2.742000000000000E10   -2.046204353973735E-4   5.835830809530762E-5  
 2.744000000000000E10   -5.705606636183802E-4   6.984905958233867E-4  
 2.746000000000000E10    1.616781723896565E-4   1.635554071981460E-3  
 2.748000000000000E10    4.163012399658328E-4   4.842748712690081E-4  
 2.750000000000000E10    1.667797632762813E-4  -4.959835114277666E-4  
 2.752000000000000E10   -6.382422834576573E-4  -3.910912164428737E-5  
 2.754000000000000E10   -7.522585437982343E-4   2.404485312581528E-4  
 2.756000000000000E10    4.700724775830167E-5   4.398732489789836E-4  
