#  HZ   S   RI   R     50.00 
! Rohde & Schwarz ZVA40 4Ports - Version 3.90 - 1145.1110k42 SN: 100403
! Date: 2023-10-04 06:48:28
! Measurement: S12 
! 
 2.200000000000000E10    9.163225331576541E-4  -5.530429916689172E-4  
 2.202000000000000E10    2.394082451928625E-4  -1.735275895953237E-4  
 2.204000000000000E10    4.208202153677121E-4   1.111542129365262E-3  
 2.206000000000000E10    1.425089838448912E-3   2.022022054006811E-4  
 2.208000000000000E10    6.759996322216466E-4   3.289074220447219E-4  
 2.210000000000000E10    9.890365436149295E-5   1.224490806635004E-4  
 2.212000000000000E10    1.418990505044349E-3   7.396310575131793E-4  
 2.214000000000000E10    6.803828546253499E-4  -1.289185995119624E-3  
 2.216000000000000E10   -3.770417824853212E-4  -4.275197570677847E-4  
 2.218000000000000E10    4.910083907816443E-5   4.981272140867077E-4  
 2.220000000000000E10    2.064126689219847E-3   2.931770416125801E-4  
 2.222000000000000E10    1.241763362486381E-3  -1.658530469285324E-3  
 2.224000000000000E10   -1.165942758234451E-4  -1.409610747941770E-3  
 2.226000000000000E10    2.991064529851428E-4   3.935184540750925E-4  
 2.228000000000000E10    1.428497402230278E-3  -4.920207629766082E-5  
 2.230000000000000E10    6.647211775998585E-4  -1.022201460727956E-3  
 2.232000000000000E10   -4.101798031115322E-4  -1.935658383445116E-4  
 2.234000000000000E10    3.164534855386592E-4  -9.013241578941234E-4  
 2.236000000000000E10   -5.490058174473234E-5  -9.988112360588275E-4  
 2.238000000000000E10   -1.393348240526393E-3  -8.181020311894827E-4  
 2.240000000000000E10    4.304770409362391E-4  -7.866926671340480E-5  
 2.242000000000000E10    1.424084839527495E-3  -1.642043775063939E-3  
 2.244000000000000E10   -5.124887356942054E-4  -2.097706514177844E-3  
 2.246000000000000E10   -1.297076349146664E-3  -6.502488613477908E-4  
 2.248000000000000E10   -5.453131798276445E-4   9.260388687835075E-4  
 2.250000000000000E10    6.568607605004218E-4  -5.787316376881790E-5  
 2.252000000000000E10    1.372741398881772E-4  -1.138583058491349E-3  
 2.254000000000000E10   -1.637452005525120E-3  -1.003437937470153E-3  
 2.256000000000000E10   -1.067926670657471E-3  -4.144382000959013E-5  
 2.258000000000000E10   -3.814646115642972E-4  -5.900525029574055E-4  
 2.260000000000000E10   -8.473009147564881E-4  -7.328790597966872E-4  
 2.262000000000000E10   -3.128353018837515E-4   6.212200605659746E-5  
 2.264000000000000E10    1.823662259994308E-4  -6.811039565945976E-4  
 2.266000000000000E10   -3.613885419326834E-4  -1.238734839716926E-3  
 2.268000000000000E10   -1.368730401736684E-3   8.927509843488224E-4  
 2.270000000000000E10   -1.508968007328804E-4   4.018153231299948E-4  
 2.272000000000000E10    6.187904546095524E-5   7.393617452180479E-4  
 2.274000000000000E10   -1.042869742377661E-3  -6.443366764870007E-4  
 2.276000000000000E10   -1.017859634885099E-3   2.013238891791502E-4  
 2.278000000000000E10   -6.041017841198482E-4   1.039345588651486E-4  
 2.280000000000000E10   -1.247985237569083E-4   3.534843617671868E-4  
 2.282000000000000E10    7.072085873005563E-5  -2.287210961640085E-4  
 2.284000000000000E10   -2.976645419039414E-6   1.278203868423589E-3  
 2.286000000000000E10    5.225767490628641E-4  -2.330339152649685E-4  
 2.288000000000000E10    3.961829788750038E-4  -2.170454845327186E-4  
 2.290000000000000E10   -1.332038780674338E-3   6.428814303944819E-4  
 2.292000000000000E10   -2.835225791386620E-4   1.994675039895810E-3  
 2.294000000000000E10    6.975993746891618E-4   6.207898695720360E-4  
 2.296000000000000E10    1.839976321207359E-4  -1.161005898211442E-4  
 2.298000000000000E10   -1.076087020919658E-3  -2.783710310723109E-4  
 2.300000000000000E10   -5.874653179489542E-4   3.103390390606364E-4  
 2.302000000000000E10    4.315272490202915E-4   7.908356201369315E-4  
 2.304000000000000E10    7.471717253793031E-4   2.609311850392260E-4  
 2.306000000000000E10    1.305949423112907E-3  -2.948592245957116E-4  
 2.308000000000000E10   -6.822750697210722E-5   2.911452756961808E-4  
 2.310000000000000E10   -3.732178956852295E-4   7.513064247177681E-5  
 2.312000000000000E10   -2.818233424477512E-4   1.425290029146709E-3  
 2.314000000000000E10    6.639698440267239E-4   1.325403674854897E-3  
 2.316000000000000E10    8.771284192334861E-4  -3.208072648703819E-4  
 2.318000000000000E10   -5.043779819970951E-4  -1.217584533151239E-3  
 2.320000000000000E10   -1.535873714601621E-3   1.997181338992959E-4  
 2.322000000000000E10    1.081570303540502E-4   6.276978529058397E-4  
 2.324000000000000E10    1.252715068403631E-3   2.992486970470054E-4  
 2.326000000000000E10    1.113421763875522E-3  -5.933522188570350E-4  
 2.328000000000000E10    2.399410277575953E-5  -5.261679943941999E-4  
 2.330000000000000E10   -1.700593893474434E-4   4.928315829602070E-4  
 2.332000000000000E10   -6.277904285525437E-4   6.312088444246911E-4  
 2.334000000000000E10    4.462498054635944E-4   2.922321418736829E-4  
 2.336000000000000E10    2.406489002169110E-4  -3.372958708496299E-4  
 2.338000000000000E10    3.771793890336994E-4  -9.551115508656949E-4  
 2.340000000000000E10   -8.326238821609877E-4  -9.526559297228232E-4  
 2.342000000000000E10   -1.719301599223400E-4   4.378676458145492E-4  
 2.344000000000000E10    3.585733866202645E-4   4.515464461292140E-4  
 2.346000000000000E10    1.106493531551678E-3  -2.204700249421876E-4  
 2.348000000000000E10   -2.918109294114402E-4  -5.243226587481331E-4  
 2.350000000000000E10   -2.229387755505741E-4  -3.861407603835687E-4  
 2.352000000000000E10   -8.768192783463746E-4   5.872399633517489E-4  
 2.354000000000000E10   -5.777006372227334E-4  -1.337044686806621E-4  
 2.356000000000000E10    1.923425770655740E-6   6.206694888533093E-5  
 2.358000000000000E10    6.247658020583913E-4  -4.236500171828084E-4  
 2.360000000000000E10    7.455496961483732E-5  -1.210916649142746E-3  
 2.362000000000000E10   -1.410616987413960E-4  -4.192331798549276E-4  
 2.364000000000000E10   -3.057412775433477E-4   9.527869406156242E-4  
 2.366000000000000E10    9.082017277250998E-4   1.339455084234942E-3  
 2.368000000000000E10    1.183367028716020E-3   2.251099504064769E-4  
 2.370000000000000E10   -2.789656118693529E-4  -1.206336983159417E-4  
 2.372000000000000E10   -1.255307652172633E-3  -6.831465361756273E-5  
 2.374000000000000E10   -7.366729550994933E-4   6.427881926356349E-4  
 2.376000000000000E10   -8.537179360246228E-5   7.848922250559554E-4  
 2.378000000000000E10    1.023963559418917E-3  -5.351799190975726E-4  
 2.380000000000000E10    9.317004587501288E-4  -1.330439743469469E-3  
 2.382000000000000E10    1.741892629070208E-4  -8.800499708740972E-4  
 2.384000000000000E10   -1.630793776712380E-4   2.006728973356076E-4  
 2.386000000000000E10    8.175122675311286E-4   1.748864597175270E-3  
 2.388000000000000E10    1.313651242526248E-3   4.118930119147990E-4  
 2.390000000000000E10    1.195658303913660E-3  -4.738555689982604E-4  
 2.392000000000000E10   -1.406217808835208E-3  -7.765548289171420E-4  
 2.394000000000000E10   -9.010299545479938E-4  -1.161426534963539E-4  
 2.396000000000000E10    1.544957412988879E-4   2.419318225292955E-4  
 2.398000000000000E10    8.688339294167236E-4  -1.355045715172309E-4  
 2.400000000000000E10    5.975387903163210E-4  -1.539591714390554E-3  
 2.402000000000000E10    2.192961133005156E-4  -9.660289360908791E-4  
 2.404000000000000E10   -5.873552363482304E-4   1.368188395645120E-4  
 2.406000000000000E10    3.118959502899088E-4   3.518995945341885E-4  
 2.408000000000000E10    9.722938775666989E-4   7.444037546520121E-4  
 2.410000000000000E10    3.891336418746505E-4  -5.634170665871352E-4  
 2.412000000000000E10   -1.059364367392846E-3  -1.431424039765261E-3  
 2.414000000000000E10   -1.243881415575743E-3  -2.523653863590880E-4  
 2.416000000000000E10   -1.006274978863075E-3   2.462970196575043E-4  
 2.418000000000000E10   -8.826495286484715E-5  -7.503077213186771E-4  
 2.420000000000000E10    3.424079213800724E-4  -7.122712995624170E-4  
 2.422000000000000E10   -4.697278927778825E-5  -1.022629359795246E-3  
 2.424000000000000E10   -6.815125525463373E-4  -8.351502401637845E-4  
 2.426000000000000E10   -1.037840047501959E-3   5.014546841266565E-4  
 2.428000000000000E10   -4.133433649258222E-4   6.337039012578316E-4  
 2.430000000000000E10    5.424169721663930E-4  -1.146427453022625E-4  
 2.432000000000000E10   -5.087501522211824E-4  -9.618107724236324E-4  
 2.434000000000000E10   -1.156722297309898E-3  -3.891875257977517E-4  
 2.436000000000000E10   -7.474631129298359E-4   4.809501569980057E-4  
 2.438000000000000E10   -2.459724601067137E-4   4.294953832868487E-4  
 2.440000000000000E10    3.526584450810333E-4   1.086177821889578E-4  
 2.442000000000000E10    1.051387387462910E-5  -1.291482121814624E-4  
 2.444000000000000E10   -2.110465580926757E-4  -2.611500531202182E-4  
 2.446000000000000E10   -7.806374705978669E-4   1.410889562976081E-4  
 2.448000000000000E10   -7.520668441429734E-4   6.396112148649991E-4  
 2.450000000000000E10    1.385209270665655E-4   1.526146326796152E-3  
 2.452000000000000E10    7.021228229859844E-4   6.058371582184918E-7  
 2.454000000000000E10   -2.158425832021749E-5  -5.643366603180766E-4  
 2.456000000000000E10   -1.200376136694104E-3  -6.555350864800857E-5  
 2.458000000000000E10   -3.752064003492706E-4   1.263905331143178E-3  
 2.460000000000000E10    7.452099889633246E-4   8.724073340999894E-4  
 2.462000000000000E10    9.841305291047320E-4   2.498323174222605E-4  
 2.464000000000000E10    2.922414460044820E-4  -9.567404401877866E-5  
 2.466000000000000E10   -3.296743452665396E-4  -4.542514288914390E-4  
 2.468000000000000E10   -7.711361104156822E-4   3.018884344783146E-4  
 2.470000000000000E10    3.368125162523938E-4   8.163008606061339E-4  
 2.472000000000000E10    6.834291998529807E-4   3.440962918830337E-4  
 2.474000000000000E10    6.795539884478785E-4  -1.167550813988783E-3  
 2.476000000000000E10   -3.990564837295096E-4  -1.105305986129679E-3  
 2.478000000000000E10   -1.133257901528850E-3   1.971103492905968E-4  
 2.480000000000000E10    3.950138816435356E-4   1.006090635200962E-3  
 2.482000000000000E10    1.170383431599475E-3  -1.956602977770672E-5  
 2.484000000000000E10    5.063602548034396E-4  -1.095176092348993E-3  
 2.486000000000000E10   -3.998498978035059E-4  -4.922726257063914E-4  
 2.488000000000000E10   -5.316697533999104E-4   3.998646607215051E-4  
 2.490000000000000E10   -3.188136506651063E-4   6.064897679607384E-4  
 2.492000000000000E10    3.083666306338273E-4   3.192534459230956E-4  
 2.494000000000000E10    7.757893399684690E-5   2.880164583984879E-5  
 2.496000000000000E10   -8.938769610722375E-5  -1.262863297597505E-3  
 2.498000000000000E10   -9.413918887730688E-4  -6.532040497404523E-4  
 2.500000000000000E10   -1.003014367597643E-3   6.559753455803730E-4  
 2.502000000000000E10    2.845754243026022E-4   3.852888949040789E-4  
 2.504000000000000E10    9.893922979244962E-4  -3.206059300282504E-4  
 2.506000000000000E10   -3.359862421348225E-4  -1.024377721478231E-3  
 2.508000000000000E10   -5.011617868149187E-4  -3.314209279778879E-4  
 2.510000000000000E10   -3.878452807839494E-4   4.614739555108827E-4  
 2.512000000000000E10   -2.624891712912358E-4   4.373514020699076E-4  
 2.514000000000000E10    4.415647163114045E-4   2.056628834452567E-4  
 2.516000000000000E10    1.035302839227370E-4  -2.076402400348343E-4  
 2.518000000000000E10   -3.995467850472778E-4  -1.173872005892918E-3  
 2.520000000000000E10   -9.774778300197795E-4   1.120152205658087E-6  
 2.522000000000000E10   -5.454994898173027E-4   6.900029402459040E-4  
 2.524000000000000E10    5.056619193055667E-4   2.604958826850634E-4  
 2.526000000000000E10    9.267391287721694E-4  -4.270069803169463E-4  
 2.528000000000000E10   -6.310384196694940E-4  -6.853792365291156E-4  
 2.530000000000000E10   -1.210456859553233E-3   1.390159095535637E-4  
 2.532000000000000E10    1.888361457531573E-4   1.228575696586631E-3  
 2.534000000000000E10    4.183170312899165E-4   7.363918048213236E-4  
 2.536000000000000E10    6.097435834817588E-4  -1.763000909704715E-4  
 2.538000000000000E10   -5.714097869713442E-5  -9.772408952812839E-5  
 2.540000000000000E10   -8.178133866749704E-4  -7.325648402911611E-5  
 2.542000000000000E10   -5.051633524999488E-4   4.143213081988506E-4  
 2.544000000000000E10    4.698185803135857E-4   1.002938624878880E-3  
 2.546000000000000E10    6.764189820387401E-4  -2.664105986696086E-4  
 2.548000000000000E10    6.366266061377246E-4  -1.254211325431243E-3  
 2.550000000000000E10   -5.584419741353486E-4  -8.080721090664156E-5  
 2.552000000000000E10   -9.181999394058948E-5   7.565777341369540E-4  
 2.554000000000000E10    1.046900229994208E-3   8.449768938589841E-4  
 2.556000000000000E10    1.031860774673987E-3  -7.091378029144835E-5  
 2.558000000000000E10    2.324699198652525E-4  -7.684750889893621E-4  
 2.560000000000000E10   -5.545190288103186E-4  -6.370995481574937E-5  
 2.562000000000000E10   -1.595467138031381E-4  -3.421704423089977E-5  
 2.564000000000000E10    2.282897094119107E-4   1.333012460236205E-5  
 2.566000000000000E10    5.451505930977874E-4   3.223006315238308E-4  
 2.568000000000000E10    7.276469768839888E-4  -5.319676783983596E-4  
 2.570000000000000E10    7.544474919995992E-5  -1.038992450048681E-3  
 2.572000000000000E10   -4.703719896497205E-4   9.731857062433846E-5  
 2.574000000000000E10   -9.822861102293246E-5   4.225239208608400E-4  
 2.576000000000000E10    7.911126158433035E-4   4.206634512229357E-4  
 2.578000000000000E10    2.084360175444999E-4  -1.254937690191582E-4  
 2.580000000000000E10    5.621787659038091E-5  -7.665056036785245E-4  
 2.582000000000000E10   -8.230394014390186E-4  -5.943854666838888E-4  
 2.584000000000000E10   -7.023449797998183E-4   1.205583615444539E-4  
 2.586000000000000E10    4.397050058457808E-5  -2.495114210887550E-5  
 2.588000000000000E10    1.198037047288381E-3  -2.892187585530337E-4  
 2.590000000000000E10    1.165809544545482E-4  -1.041630959662143E-3  
 2.592000000000000E10   -3.842634068860207E-4  -8.122971412376501E-4  
 2.594000000000000E10   -9.852300572674722E-4   7.290485009434633E-4  
 2.596000000000000E10    1.825744220695924E-4   6.301965477177873E-4  
 2.598000000000000E10    7.817422665539198E-4  -1.608458296686877E-4  
 2.600000000000000E10   -1.441672193323029E-4  -9.111003309953958E-4  
 2.602000000000000E10   -7.661829949938692E-4  -8.548956975573674E-4  
 2.604000000000000E10   -3.518555749906227E-4   8.970826820586808E-5  
 2.606000000000000E10   -2.168896426155698E-4   4.535065017989837E-4  
 2.608000000000000E10    7.949266218929552E-4   1.120800006901845E-4  
 2.610000000000000E10    8.353915691259317E-4  -3.906807905877940E-4  
 2.612000000000000E10   -2.767141686490504E-4  -6.089025737310294E-4  
 2.614000000000000E10   -8.647570648463443E-4   7.850753058846749E-5  
 2.616000000000000E10   -6.417411968868692E-4   8.370145587832667E-4  
 2.618000000000000E10    2.617130303406157E-4   3.221154368588941E-4  
 2.620000000000000E10    6.088037698646076E-4  -8.084227592917159E-4  
 2.622000000000000E10   -4.079021782672498E-4  -1.284037149162032E-3  
 2.624000000000000E10   -6.481808013631962E-4  -4.628437673090957E-4  
 2.626000000000000E10   -2.299371608387446E-4   4.472033706406364E-4  
 2.628000000000000E10    7.808286172803491E-4   3.655796681414358E-4  
 2.630000000000000E10    3.106111730630801E-4  -2.484921315044630E-4  
 2.632000000000000E10    1.921670118463226E-4  -5.567804546444677E-4  
 2.634000000000000E10   -6.198432383826003E-4  -1.919974965858273E-4  
 2.636000000000000E10   -9.926236016326584E-4  -3.492883406579495E-4  
 2.638000000000000E10   -3.596635724534281E-4   4.134228984185029E-4  
 2.640000000000000E10    4.637346028175671E-4   5.583992606261745E-5  
 2.642000000000000E10    9.293955372413620E-4  -8.059014871832915E-4  
 2.644000000000000E10   -4.000586686743191E-4  -1.023404089210089E-3  
 2.646000000000000E10   -6.606479146284983E-4   4.152412220719270E-4  
 2.648000000000000E10    2.237736034658155E-4   8.567069380660541E-4  
 2.650000000000000E10    5.672552215401083E-4   3.450730291660875E-4  
 2.652000000000000E10    2.133560653874156E-4  -2.749430368567118E-4  
 2.654000000000000E10   -5.171732336748391E-4  -5.492807322298177E-4  
 2.656000000000000E10   -8.164273458532989E-4  -2.941205020761117E-4  
 2.658000000000000E10   -8.243872580351308E-4  -1.097990955258865E-4  
 2.660000000000000E10   -2.429964533803286E-4   3.996145169367082E-4  
 2.662000000000000E10    9.901650046231225E-4  -4.782623145729303E-4  
 2.664000000000000E10    2.514521802368108E-4  -1.138938561780378E-3  
 2.666000000000000E10   -5.872209585504606E-4  -4.131459645577706E-4  
 2.668000000000000E10   -4.628196256817319E-4   1.124519025324844E-3  
 2.670000000000000E10    1.472402691433672E-4   9.138359600910917E-4  
 2.672000000000000E10    5.410157464211807E-4   1.660851194174029E-5  
 2.674000000000000E10   -4.606254078680649E-4  -4.674088922911324E-4  
 2.676000000000000E10   -6.159459589980543E-4  -4.243375587975606E-4  
 2.678000000000000E10   -8.922730339691043E-4  -5.574598617386073E-6  
 2.680000000000000E10   -8.209319275920279E-6   3.446136324782856E-4  
 2.682000000000000E10    9.839163394644857E-4   2.721813361858949E-4  
 2.684000000000000E10    5.142057561897673E-4  -5.602110686595552E-4  
 2.686000000000000E10   -1.133518407527845E-4  -3.431260338402353E-4  
 2.688000000000000E10   -1.714119280222803E-4   7.165857678046450E-4  
 2.690000000000000E10   -4.940902435919270E-4   1.095337182050571E-3  
 2.692000000000000E10    5.561751095228829E-4   4.693669834523462E-4  
 2.694000000000000E10    6.424956081900746E-4   6.154761467769276E-5  
 2.696000000000000E10   -4.413596252561547E-4  -5.346510151866823E-4  
 2.698000000000000E10   -7.395882857963443E-4  -1.231317946803756E-4  
 2.700000000000000E10   -3.328699676785618E-4   7.400689210044220E-4  
 2.702000000000000E10    6.001055880915374E-4   5.186887283343822E-4  
 2.704000000000000E10    1.163228356745094E-3  -2.070894843200222E-4  
 2.706000000000000E10    5.814644828205928E-4  -5.494398355949670E-4  
 2.708000000000000E10   -5.472881312016398E-4   1.185144046758069E-4  
 2.710000000000000E10    2.357166849833448E-4   8.255404391093180E-4  
 2.712000000000000E10    3.864678656100296E-4   1.480160601204261E-3  
 2.714000000000000E10    4.615615544025786E-4   3.565054794307798E-5  
 2.716000000000000E10    3.647033954621293E-4  -1.461946303606965E-4  
 2.718000000000000E10   -7.571170281153172E-4  -3.476607525954023E-4  
 2.720000000000000E10   -5.641168099828064E-4   9.905762090056669E-5  
 2.722000000000000E10    1.945577514561592E-5   5.803948879474774E-4  
 2.724000000000000E10    1.068565383320674E-3   2.984920774906641E-5  
 2.726000000000000E10    9.313980553997681E-4  -7.484051748178899E-4  
 2.728000000000000E10    6.123568755356246E-5  -5.903159399167635E-4  
 2.730000000000000E10   -5.567678890656680E-4   1.678264989095624E-4  
 2.732000000000000E10    3.116347725153901E-4   1.069630263373256E-3  
 2.734000000000000E10    1.126541494159028E-3   8.904393907869235E-4  
 2.736000000000000E10   -3.287273428043136E-5  -2.889547431550454E-4  
 2.738000000000000E10   -4.128247164771892E-4  -2.918933896580711E-4  
 2.740000000000000E10   -4.887535469606519E-4   1.187843190564308E-5  
 2.742000000000000E10   -4.460953350644559E-4  -1.440649066353217E-4  
 2.744000000000000E10    4.643292413675226E-4  -1.156623238784960E-5  
 2.746000000000000E10    6.073673284845427E-4  -4.084807223989628E-4  
 2.748000000000000E10    2.664883941179141E-4  -7.760202570352703E-4  
 2.750000000000000E10   -2.856534702004865E-4  -6.683778337901458E-4  
 2.752000000000000E10   -4.112433816771954E-4   6.162717763800174E-4  
 2.754000000000000E10    3.352249041199684E-4   4.054026940139011E-4  
 2.756000000000000E10    8.422388491453603E-4  -2.838008695107419E-4  
