#  HZ   S   RI   R     50.00 
! Rohde & Schwarz ZVA40 4Ports - Version 3.90 - 1145.1110k42 SN: 100403
! Date: 2023-10-04 06:47:58
! Measurement: S12 
! 
 2.200000000000000E10   -8.538857655366883E-4  -3.267226893512998E-4  
 2.202000000000000E10   -1.306872771237977E-3   4.264017406967469E-4  
 2.204000000000000E10   -1.994846334127942E-4   8.079843719315250E-4  
 2.206000000000000E10   -5.530194866878446E-4   8.841147791827098E-5  
 2.208000000000000E10   -1.056125212926418E-3   2.400702205704874E-4  
 2.210000000000000E10   -1.925491992551542E-4   6.794467553845607E-4  
 2.212000000000000E10    9.404726006323472E-4  -6.913491688465001E-5  
 2.214000000000000E10   -2.357193870921037E-4  -9.748604793458071E-5  
 2.216000000000000E10   -9.280796366510913E-4   8.699056925252080E-4  
 2.218000000000000E10    8.599152206443250E-4   1.340659960987978E-3  
 2.220000000000000E10    6.248660938581452E-4   6.584013899555430E-4  
 2.222000000000000E10   -5.695181898772717E-4   1.865982303570490E-4  
 2.224000000000000E10   -5.148771087988280E-4   1.470850227633491E-3  
 2.226000000000000E10   -2.664611470777345E-4   6.881886947667226E-4  
 2.228000000000000E10   -3.422204872549628E-5   3.575107220967766E-4  
 2.230000000000000E10   -5.818272693431936E-4   5.529885893338360E-4  
 2.232000000000000E10    6.181727767398115E-4   2.287040333612822E-4  
 2.234000000000000E10    9.660944706411101E-4  -9.757237603480462E-5  
 2.236000000000000E10    3.094940639130073E-4  -8.636069687781856E-4  
 2.238000000000000E10   -5.759387859143317E-4   8.217423019232228E-4  
 2.240000000000000E10    8.474514179397374E-4   1.466619898565114E-3  
 2.242000000000000E10    1.833245885791257E-3   8.885235292837024E-4  
 2.244000000000000E10   -2.623438660975808E-6  -4.284856076992583E-4  
 2.246000000000000E10   -5.972133658360690E-4   1.356298330392747E-4  
 2.248000000000000E10   -3.858720847347286E-4   6.403150182450190E-4  
 2.250000000000000E10    4.343779874034226E-4  -4.436430140231096E-5  
 2.252000000000000E10    3.838256016024388E-4  -6.130156107246876E-4  
 2.254000000000000E10    1.271809873287566E-3  -6.920718442415819E-4  
 2.256000000000000E10    1.001298602204770E-3  -8.394616379518993E-4  
 2.258000000000000E10    4.378193552838638E-4  -5.320422569639050E-4  
 2.260000000000000E10    1.376047712255968E-4   1.171821728348732E-3  
 2.262000000000000E10    9.871636939351447E-4   5.872062247362919E-4  
 2.264000000000000E10    1.363294111797586E-3  -2.077388089674059E-4  
 2.266000000000000E10   -8.636881611892022E-4  -9.165258379653096E-4  
 2.268000000000000E10   -1.035805886203889E-3  -2.295217527716886E-4  
 2.270000000000000E10    3.672510101750959E-4   2.226824199169641E-4  
 2.272000000000000E10    1.092984872229863E-3  -9.660511132096872E-4  
 2.274000000000000E10    6.751395994797349E-4  -1.114775266614743E-3  
 2.276000000000000E10    3.285021739429794E-4  -7.476664031855762E-4  
 2.278000000000000E10    3.312969565740787E-4   1.725615120449220E-4  
 2.280000000000000E10    2.444488463879679E-4  -1.527548190551897E-4  
 2.282000000000000E10   -1.490963604737772E-4   3.416635117901024E-4  
 2.284000000000000E10    5.698017630493268E-4   5.251475813565776E-4  
 2.286000000000000E10   -1.819185017666314E-4  -8.670008683111519E-4  
 2.288000000000000E10   -8.554861633456312E-4  -8.856643908075057E-4  
 2.290000000000000E10   -8.280396141344681E-4   1.702130371086241E-4  
 2.292000000000000E10   -1.716283973109967E-4  -4.646151210181415E-4  
 2.294000000000000E10    1.101513131288812E-3  -7.042810757411644E-4  
 2.296000000000000E10   -1.776659883034881E-5  -9.956251451512799E-4  
 2.298000000000000E10   -1.552136375266855E-4  -8.082175263552927E-4  
 2.300000000000000E10    1.109592199100007E-4   1.755719295033487E-4  
 2.302000000000000E10   -1.160368992714211E-4   5.294465809129179E-4  
 2.304000000000000E10   -5.536854114325251E-4   1.402998823323287E-4  
 2.306000000000000E10    5.070105034974404E-4   5.976023312541656E-4  
 2.308000000000000E10   -3.688380356834387E-4  -1.071283273631707E-3  
 2.310000000000000E10   -1.312041931669228E-3  -1.158220620709471E-3  
 2.312000000000000E10   -6.616721475438681E-4   6.047622300684452E-4  
 2.314000000000000E10    6.236895205802284E-4   7.761693195789121E-4  
 2.316000000000000E10    1.206857661600225E-3  -1.134080601332244E-3  
 2.318000000000000E10    2.642026993271429E-4  -7.912906439742073E-4  
 2.320000000000000E10   -4.938909987686202E-4   6.142586971691344E-5  
 2.322000000000000E10   -6.717744763591327E-4  -2.257854257550207E-4  
 2.324000000000000E10    4.908024711767212E-4   1.232737660757266E-3  
 2.326000000000000E10    2.687198011699366E-4  -1.672968321599910E-4  
 2.328000000000000E10   -5.288268084768788E-5  -1.127889641793445E-3  
 2.330000000000000E10   -6.728931766701862E-4  -5.191300915612374E-4  
 2.332000000000000E10   -1.158425729954615E-3  -5.339881245163269E-4  
 2.334000000000000E10    1.338785538109732E-4   7.491073120036162E-4  
 2.336000000000000E10    1.496004682849161E-3   2.902843261836097E-4  
 2.338000000000000E10    4.783075346495025E-4  -1.091316633392125E-3  
 2.340000000000000E10   -9.474082398810424E-4  -8.302017522510141E-4  
 2.342000000000000E10   -7.956888803164475E-4   7.557208082289435E-4  
 2.344000000000000E10    1.807583657864598E-4   7.163378322729841E-4  
 2.346000000000000E10    4.376370088721160E-4   1.325662151430151E-5  
 2.348000000000000E10    2.115567772307259E-4  -6.616127939196304E-4  
 2.350000000000000E10   -5.125592542754021E-4  -8.367104019271210E-4  
 2.352000000000000E10   -6.102282495703548E-4   3.068658952543046E-4  
 2.354000000000000E10   -2.837695647031069E-4   1.804007188184187E-4  
 2.356000000000000E10    7.081002986524254E-4   7.559004152426496E-4  
 2.358000000000000E10    2.969845227198675E-4  -1.480462015024386E-4  
 2.360000000000000E10   -2.426698738418054E-4  -3.923325348296203E-4  
 2.362000000000000E10   -1.430306758265942E-3   4.284566457499750E-4  
 2.364000000000000E10   -8.219286537496373E-4   1.143639412475750E-3  
 2.366000000000000E10   -3.335035871714354E-4   1.321963263762882E-4  
 2.368000000000000E10    2.884936984628439E-4  -4.070212053193245E-4  
 2.370000000000000E10   -4.852342608501203E-4  -4.282211011741310E-4  
 2.372000000000000E10    3.433014603615447E-5  -5.259353492874652E-4  
 2.374000000000000E10   -3.368348188814707E-4   5.464042624225840E-4  
 2.376000000000000E10    1.139232649620681E-4   7.854083378333598E-4  
 2.378000000000000E10    9.935466368915513E-4   9.690433798823506E-4  
 2.380000000000000E10    3.423589660087600E-4   4.983818653272465E-4  
 2.382000000000000E10   -6.013707752572373E-4  -1.335572978860000E-4  
 2.384000000000000E10   -1.513564726337791E-3   9.651686414144933E-4  
 2.386000000000000E10   -5.559511846513487E-4   1.239972916664556E-3  
 2.388000000000000E10    5.108882978674956E-4   2.220536225649994E-4  
 2.390000000000000E10    8.211092354031280E-4  -4.717948322650045E-4  
 2.392000000000000E10   -2.102092730638105E-4  -4.793334437636077E-5  
 2.394000000000000E10    1.001947275653947E-4   4.508167621679604E-4  
 2.396000000000000E10    5.296043746056967E-4   1.502496306784451E-3  
 2.398000000000000E10    7.939847273519263E-4   1.698997482890263E-3  
 2.400000000000000E10    9.041343146236613E-4   2.273395111842547E-4  
 2.402000000000000E10   -1.294019457418472E-4  -2.196940650094348E-4  
 2.404000000000000E10   -1.437306840671226E-3   5.982199945719913E-4  
 2.406000000000000E10   -1.684904418652877E-4   1.019684859784320E-3  
 2.408000000000000E10    1.008489751257002E-3   6.389420886989683E-4  
 2.410000000000000E10    7.581489771837369E-4  -1.087465323507786E-3  
 2.412000000000000E10    9.054770926013589E-4  -1.124463917221874E-3  
 2.414000000000000E10   -1.801176986191422E-4  -3.349864982737927E-5  
 2.416000000000000E10    2.216390021203551E-4   6.075758356018923E-4  
 2.418000000000000E10    1.605637226020917E-3   5.883571138838306E-4  
 2.420000000000000E10    1.175588695332408E-3   3.222503073629923E-4  
 2.422000000000000E10    2.492901185178198E-4  -7.741131994407624E-4  
 2.424000000000000E10   -6.513317930512130E-4  -7.579591328976676E-4  
 2.426000000000000E10   -5.960711569059640E-4   1.579804975335719E-4  
 2.428000000000000E10    1.062668685335666E-3   2.172847880501649E-4  
 2.430000000000000E10    1.838893571402878E-3  -6.810823979321867E-4  
 2.432000000000000E10    9.541090694256127E-4  -1.542047946713865E-3  
 2.434000000000000E10   -2.813254468492232E-6  -5.511948766070418E-4  
 2.436000000000000E10    3.449264768278226E-4   3.780194601858966E-4  
 2.438000000000000E10    4.019637126475573E-4   7.818973390385509E-4  
 2.440000000000000E10    6.032551609678194E-4  -2.566775474406313E-4  
 2.442000000000000E10    4.419221731950529E-4  -8.300418994622305E-4  
 2.444000000000000E10   -4.942546656820923E-4  -1.010752777801827E-3  
 2.446000000000000E10   -9.591307316441089E-4  -6.317983061308041E-4  
 2.448000000000000E10   -7.483506778953597E-4   2.245254217996262E-4  
 2.450000000000000E10    8.831697923596948E-4   3.562793062883429E-5  
 2.452000000000000E10    9.739420638652518E-4  -8.373690361622721E-4  
 2.454000000000000E10   -4.400538091431372E-4  -9.970091923605651E-4  
 2.456000000000000E10   -1.006777922157198E-3   1.335916003881721E-4  
 2.458000000000000E10   -2.290713055117521E-4   1.131448312662542E-3  
 2.460000000000000E10    1.575189162394963E-4   5.796711629955098E-4  
 2.462000000000000E10   -4.093221264156455E-5  -3.876913469866850E-4  
 2.464000000000000E10   -5.101389106130227E-4  -6.076391728129238E-4  
 2.466000000000000E10   -5.890068132430315E-4  -7.522690866608173E-4  
 2.468000000000000E10   -7.380908209597692E-4   1.202713301609037E-4  
 2.470000000000000E10    2.924280113347777E-5   7.781784661347047E-4  
 2.472000000000000E10    1.179320155642927E-3   1.979551343538333E-4  
 2.474000000000000E10    5.048331222496927E-4  -9.019735007314012E-4  
 2.476000000000000E10   -7.343748147832230E-4  -4.479534618440084E-4  
 2.478000000000000E10   -1.104416791349649E-3   8.764788217376918E-4  
 2.480000000000000E10    5.527438333956525E-4   8.615081751486287E-4  
 2.482000000000000E10    3.833880400634371E-4   2.559620043030009E-4  
 2.484000000000000E10    3.952718252548948E-4  -9.072890388779342E-4  
 2.486000000000000E10   -4.467780818231404E-4  -3.775042059714906E-4  
 2.488000000000000E10   -9.393968794029206E-4  -4.422609072207706E-5  
 2.490000000000000E10    6.363554803101579E-6   6.112337723607197E-4  
 2.492000000000000E10    5.712263809982687E-4   4.270868885214441E-4  
 2.494000000000000E10    7.637280359631404E-4  -4.577135332510807E-4  
 2.496000000000000E10   -1.432412227586610E-4  -9.502965840511024E-4  
 2.498000000000000E10   -9.026954794535413E-4   3.225497812309186E-5  
 2.500000000000000E10   -4.641165432985872E-4   6.779361283406615E-4  
 2.502000000000000E10    1.061528659192845E-3   6.593509169761092E-4  
 2.504000000000000E10    5.856614880030975E-4  -6.161376222735271E-4  
 2.506000000000000E10   -4.039178747916594E-4  -6.345499568851665E-4  
 2.508000000000000E10   -2.317785583727527E-4  -3.696708517963998E-6  
 2.510000000000000E10   -3.606275713536888E-4   5.107013203087263E-4  
 2.512000000000000E10    2.740628915489651E-4   2.399095974396914E-4  
 2.514000000000000E10    8.041272085392848E-4   3.379360205144621E-4  
 2.516000000000000E10    6.295279163168743E-4  -6.571700068889186E-4  
 2.518000000000000E10   -3.781855921261013E-4  -8.453222544630989E-4  
 2.520000000000000E10   -5.353712986106984E-4   3.045439079869539E-4  
 2.522000000000000E10   -8.755900034884689E-5   1.061789196683094E-3  
 2.524000000000000E10    9.371706837555394E-4   3.360324626555666E-6  
 2.526000000000000E10    4.003073554486036E-4  -8.037062507355586E-4  
 2.528000000000000E10   -1.109510194510222E-3  -5.797890480607748E-4  
 2.530000000000000E10   -6.046999769750983E-4  -4.865102891926654E-5  
 2.532000000000000E10   -1.068412357199122E-4   1.054642940289341E-3  
 2.534000000000000E10    2.240099129267037E-4  -1.421977867721580E-5  
 2.536000000000000E10    3.973668863181956E-4  -4.952052186126821E-4  
 2.538000000000000E10   -3.192371004843153E-4  -8.322506910189986E-4  
 2.540000000000000E10   -1.045952609274536E-3  -5.291786437737756E-4  
 2.542000000000000E10   -4.704183738795109E-4   9.373718057759106E-4  
 2.544000000000000E10    3.272120738984086E-4   7.673911459278315E-4  
 2.546000000000000E10    9.927727660397068E-4  -4.996212664991617E-4  
 2.548000000000000E10   -5.304532969603315E-4  -1.017437563859858E-3  
 2.550000000000000E10   -9.286507702199742E-4   2.893598175432999E-4  
 2.552000000000000E10   -5.961498973192647E-4   7.198621024144813E-4  
 2.554000000000000E10    4.493708838708699E-4   4.343108521425165E-4  
 2.556000000000000E10    4.950841284880880E-4  -4.311495786168962E-5  
 2.558000000000000E10    1.006643515211181E-4  -6.939810118637979E-4  
 2.560000000000000E10   -7.324076577788219E-4  -2.893603850679938E-4  
 2.562000000000000E10   -4.346885652921628E-4   5.305038721417077E-4  
 2.564000000000000E10    3.773150237975642E-4   1.000891090370715E-3  
 2.566000000000000E10    5.940013361396268E-4   2.388386656093644E-4  
 2.568000000000000E10    5.776497209808440E-5  -7.628891180502251E-4  
 2.570000000000000E10   -5.833600152982399E-4  -1.890653111331631E-4  
 2.572000000000000E10   -8.457008952973411E-4   7.759661821182817E-4  
 2.574000000000000E10    8.860924663167680E-5   5.297988245729357E-4  
 2.576000000000000E10    9.665347461123020E-4   1.904555465443991E-4  
 2.578000000000000E10   -8.784683723206399E-5  -7.450628036167473E-4  
 2.580000000000000E10   -1.343830517726019E-4  -4.884668960585259E-4  
 2.582000000000000E10   -3.958113375119865E-4   5.183429748285562E-4  
 2.584000000000000E10   -1.712363950900908E-5   4.208184946037363E-4  
 2.586000000000000E10    7.924807287054136E-4   5.670349637512118E-4  
 2.588000000000000E10    5.646513891406357E-4  -8.163278744177660E-5  
 2.590000000000000E10    3.204112636012724E-5  -7.521972001995891E-4  
 2.592000000000000E10   -4.014122532680631E-4  -2.350551585550420E-4  
 2.594000000000000E10   -3.257277858210728E-4   7.192723860498518E-4  
 2.596000000000000E10    8.166255574906245E-4   3.352642888785340E-4  
 2.598000000000000E10    8.576756517868489E-4  -1.442791144654620E-4  
 2.600000000000000E10   -8.039120984904002E-6  -5.558058037422597E-4  
 2.602000000000000E10   -1.553793981656781E-4  -9.559913451084867E-5  
 2.604000000000000E10   -6.157698371680453E-4   6.663732492597774E-4  
 2.606000000000000E10    2.483814605511725E-4   4.535290427156724E-4  
 2.608000000000000E10    6.948074005777016E-4  -2.946460699604359E-5  
 2.610000000000000E10    6.301520043052733E-4  -4.782403339049779E-4  
 2.612000000000000E10   -4.981691308785230E-4  -7.921610667835921E-4  
 2.614000000000000E10   -3.663333191070706E-4  -6.261451562750153E-5  
 2.616000000000000E10    3.898628347087652E-4   1.415941456798464E-3  
 2.618000000000000E10    1.317745918640867E-3   1.670426308919559E-4  
 2.620000000000000E10    8.400688820984215E-4  -3.787088062381372E-4  
 2.622000000000000E10   -8.626838098280132E-4  -3.608871265896596E-4  
 2.624000000000000E10   -6.386013410519809E-4   5.560446879826486E-4  
 2.626000000000000E10   -5.435014372778824E-6   8.046474831644446E-4  
 2.628000000000000E10    2.885292560677044E-4   4.092529798072064E-5  
 2.630000000000000E10    4.322708846302703E-4  -7.830116082914174E-4  
 2.632000000000000E10    6.054299228708260E-4  -1.041840732796118E-3  
 2.634000000000000E10   -3.820505662588403E-4  -3.965228752349503E-4  
 2.636000000000000E10    3.250789632147644E-6   6.692493188893423E-4  
 2.638000000000000E10    7.320797594729811E-4   1.158691913587973E-3  
 2.640000000000000E10    8.450072637060657E-4  -2.696910541999387E-5  
 2.642000000000000E10   -1.545984687254531E-4  -6.009076896589249E-4  
 2.644000000000000E10   -1.385380222927779E-3   2.941205821116455E-5  
 2.646000000000000E10   -5.934487198828720E-4   7.836715521989390E-4  
 2.648000000000000E10   -4.837800224777311E-5   1.146952436101856E-4  
 2.650000000000000E10    6.472176319221035E-4  -5.211343450355344E-4  
 2.652000000000000E10    1.810068279155530E-4  -1.065694959834218E-3  
 2.654000000000000E10    1.875562029454159E-4  -5.690836405847222E-4  
 2.656000000000000E10   -3.457892889855430E-4   2.835379964380991E-4  
 2.658000000000000E10    4.976553100277670E-4   9.146123629761860E-4  
 2.660000000000000E10    8.537044341210276E-4   9.790900803636760E-4  
 2.662000000000000E10    3.384921146789566E-4  -5.087230965727940E-4  
 2.664000000000000E10   -6.592582940356806E-4  -5.559454293688759E-4  
 2.666000000000000E10   -1.341742434306070E-3  -8.198617706511868E-5  
 2.668000000000000E10   -2.256214747831109E-5   3.273336915299296E-4  
 2.670000000000000E10    7.243057480081916E-4  -1.888375591079239E-4  
 2.672000000000000E10    8.600186702096835E-4  -9.135291911661625E-4  
 2.674000000000000E10    2.125256469298620E-5  -7.178041269071400E-4  
 2.676000000000000E10   -1.305786863667890E-4   4.417035816004500E-4  
 2.678000000000000E10   -7.189398957052617E-5   7.792666729073972E-4  
 2.680000000000000E10    4.257410109858029E-4   5.208975780988112E-4  
 2.682000000000000E10    3.749693642021157E-4   4.261437352397479E-4  
 2.684000000000000E10   -2.081904385704547E-4  -9.699144138721749E-4  
 2.686000000000000E10   -9.586615924490616E-4  -4.170094325672835E-4  
 2.688000000000000E10   -8.295545994769782E-4   4.510296930675395E-4  
 2.690000000000000E10    4.051941432408057E-4   1.599410679773428E-4  
 2.692000000000000E10    1.239967939909548E-3  -5.602183882729150E-4  
 2.694000000000000E10    3.380833513801917E-4  -5.700111214537174E-4  
 2.696000000000000E10   -4.126073035877198E-4  -3.684605399030261E-4  
 2.698000000000000E10    1.977832184820727E-4   3.502473773551174E-4  
 2.700000000000000E10   -3.589276675484143E-4   1.287524471990764E-3  
 2.702000000000000E10    2.448585582897067E-4  -3.495079436106607E-4  
 2.704000000000000E10    4.431639099493623E-4  -4.652401403291151E-4  
 2.706000000000000E10   -7.633674395037815E-4  -1.019987088511698E-3  
 2.708000000000000E10   -7.678925467189401E-4  -4.668961173592834E-5  
 2.710000000000000E10   -3.443619789322838E-6   6.261181988520548E-4  
 2.712000000000000E10    5.948376201558858E-4  -1.997448453039397E-4  
 2.714000000000000E10    4.545024130493403E-4  -8.807373087620363E-4  
 2.716000000000000E10   -6.169406115077436E-4  -5.655157292494550E-4  
 2.718000000000000E10   -7.965462864376605E-4   5.865432171958673E-5  
 2.720000000000000E10   -1.612460218893830E-4   1.000338597805239E-4  
 2.722000000000000E10   -3.536735675879754E-4   4.876916646026075E-4  
 2.724000000000000E10    3.131455523543991E-4  -3.471001618891023E-4  
 2.726000000000000E10    1.907156220113393E-4  -7.187658338807523E-4  
 2.728000000000000E10   -1.191097515402362E-3  -4.053765587741509E-4  
 2.730000000000000E10   -6.467714847531170E-4   4.855303996009752E-4  
 2.732000000000000E10    5.352332664187998E-4   8.123294246615842E-4  
 2.734000000000000E10    3.969287427025847E-4  -2.236288928543218E-4  
 2.736000000000000E10   -5.122696456965059E-4  -8.261516341008246E-4  
 2.738000000000000E10   -4.262591610313393E-4   1.926263548739371E-4  
 2.740000000000000E10   -3.775565346586518E-4   2.146480910596438E-4  
 2.742000000000000E10    3.705607923620846E-5   3.821250938926823E-4  
 2.744000000000000E10    5.491652627824806E-4   1.136216342274565E-4  
 2.746000000000000E10    6.401234422810376E-4  -3.886683771270327E-4  
 2.748000000000000E10   -1.803725062927697E-4  -6.260091031435877E-4  
 2.750000000000000E10   -1.015180692775175E-3   4.076381737831980E-4  
 2.752000000000000E10   -6.450161708926316E-5   1.119311869842932E-3  
 2.754000000000000E10    1.150870113633573E-3   1.339914269919973E-4  
 2.756000000000000E10    3.217568955733441E-4  -1.190207636682317E-3  
