#  HZ   S   RI   R     50.00 
! Rohde & Schwarz ZVA40 4Ports - Version 3.90 - 1145.1110k42 SN: 100403
! Date: 2023-10-04 06:47:33
! Measurement: S12 
! 
 2.200000000000000E10   -6.518552800116595E-4   6.164706373965601E-4  
 2.202000000000000E10   -2.032758186487627E-5   9.423280280316249E-4  
 2.204000000000000E10    1.339176393230446E-3   8.196820490411483E-4  
 2.206000000000000E10    5.235252101556398E-4  -4.475711593840970E-4  
 2.208000000000000E10   -3.322262582514668E-4  -5.008137741242535E-4  
 2.210000000000000E10    3.836019186564954E-4   4.693175069405697E-4  
 2.212000000000000E10    5.402053848229116E-4   1.110950734073413E-4  
 2.214000000000000E10    5.889897420274792E-4  -5.617662354779895E-4  
 2.216000000000000E10    9.009064524434507E-4   6.644186316862033E-5  
 2.218000000000000E10    9.596202289685607E-4  -7.696145112277009E-4  
 2.220000000000000E10    1.879261344583938E-4  -3.325415327708470E-4  
 2.222000000000000E10    1.203217748297902E-4   2.885617504944094E-4  
 2.224000000000000E10    9.874746538116597E-4   9.514656194369309E-4  
 2.226000000000000E10    1.158327824668959E-3  -3.043002470803913E-4  
 2.228000000000000E10    3.604162720876047E-4  -9.231837175320834E-4  
 2.230000000000000E10   -8.955373414210044E-4  -6.377312593031093E-5  
 2.232000000000000E10    3.800844660872826E-4   5.443252521217801E-4  
 2.234000000000000E10    7.157313739298843E-4  -2.564230499046971E-4  
 2.236000000000000E10   -2.955935515274177E-4  -1.174309516500216E-3  
 2.238000000000000E10    1.012495404211222E-4  -6.510330094897654E-4  
 2.240000000000000E10    7.489192830689717E-4  -6.064600202080328E-4  
 2.242000000000000E10   -1.248671105713584E-5  -8.933593890105840E-4  
 2.244000000000000E10    1.377161697746487E-5   1.100669367133378E-4  
 2.246000000000000E10    3.124230697721941E-4   9.342953089799266E-4  
 2.248000000000000E10    4.183138544249232E-4  -2.201295402528558E-4  
 2.250000000000000E10   -6.410148635040969E-4  -4.706197505583987E-4  
 2.252000000000000E10   -1.242905600520317E-3   1.278248454354980E-4  
 2.254000000000000E10   -4.415336570673389E-4   4.192574078842881E-4  
 2.256000000000000E10    2.293013076268835E-4  -4.048025712108938E-4  
 2.258000000000000E10   -3.473718934401404E-4  -5.866403334948700E-4  
 2.260000000000000E10   -3.930512602892122E-4  -3.719236983670271E-4  
 2.262000000000000E10    2.984877639846673E-4  -3.027791299246019E-4  
 2.264000000000000E10   -1.197031840547425E-4   1.522914484439752E-4  
 2.266000000000000E10   -7.340275951719377E-4   6.785923396819271E-4  
 2.268000000000000E10    2.177512815251248E-4   4.863141730311327E-4  
 2.270000000000000E10   -3.421180081204511E-4   5.312480334396241E-5  
 2.272000000000000E10   -1.411085308063775E-3  -8.017593063414097E-4  
 2.274000000000000E10   -1.223813735123258E-3   1.841349330788944E-4  
 2.276000000000000E10   -6.290527608143748E-6   7.750207878416404E-4  
 2.278000000000000E10    5.496104167832527E-4  -5.816336306452286E-4  
 2.280000000000000E10    1.841261519075488E-4  -9.242833511962090E-4  
 2.282000000000000E10   -5.101790120534133E-4  -2.438477686155238E-4  
 2.284000000000000E10   -3.616297044573003E-5   2.093733437504852E-4  
 2.286000000000000E10    2.036818505075644E-4   8.019454398890957E-4  
 2.288000000000000E10    2.823343303361980E-4   5.424361443147063E-4  
 2.290000000000000E10    3.055812112506828E-4  -1.978974323719740E-4  
 2.292000000000000E10   -6.549043649783926E-5  -7.554618787253276E-4  
 2.294000000000000E10   -7.993193394213449E-4  -2.170920165553980E-4  
 2.296000000000000E10   -7.425980365951546E-4   2.839708658939344E-4  
 2.298000000000000E10    1.047052945068572E-3   3.803460622293642E-4  
 2.300000000000000E10    5.906195910938550E-4  -6.887809649924748E-4  
 2.302000000000000E10   -7.399485730275046E-4  -1.143532201240305E-3  
 2.304000000000000E10   -7.633740278834011E-4   4.666021704906598E-4  
 2.306000000000000E10   -4.045989098813152E-4   4.937351804983337E-4  
 2.308000000000000E10   -1.032199884321017E-4   1.419811314917752E-4  
 2.310000000000000E10   -3.568765368981985E-4  -4.177315931883641E-4  
 2.312000000000000E10   -3.609076882185036E-4  -4.620156378223328E-4  
 2.314000000000000E10   -8.772409601078834E-4  -6.347214894049102E-4  
 2.316000000000000E10   -7.578040786029305E-4   3.951685303036356E-4  
 2.318000000000000E10   -3.459506597209838E-4   1.312184598646127E-3  
 2.320000000000000E10    6.111364236858208E-4   1.256777384242014E-4  
 2.322000000000000E10   -1.554165473862668E-4  -2.625383253871405E-4  
 2.324000000000000E10   -1.305008670897223E-3  -3.020570402441081E-4  
 2.326000000000000E10   -7.866524247219786E-4   4.342982683738228E-4  
 2.328000000000000E10    1.830661512940424E-4   8.882440779416356E-4  
 2.330000000000000E10    4.944263837387553E-4   2.435870801491546E-4  
 2.332000000000000E10   -1.233024986504461E-4  -5.311607856128831E-4  
 2.334000000000000E10   -3.895123390975641E-4   4.015244776383042E-4  
 2.336000000000000E10   -3.130197110294830E-4   2.391576431364229E-4  
 2.338000000000000E10   -1.398834201609134E-4   1.210836875543464E-3  
 2.340000000000000E10    1.807265070965514E-4   1.399397064233199E-3  
 2.342000000000000E10    6.775484616809990E-4  -1.968634710465267E-4  
 2.344000000000000E10   -9.391189523739740E-4  -4.343167893239297E-4  
 2.346000000000000E10   -1.292155895498581E-3   3.395724979782244E-4  
 2.348000000000000E10   -1.087091932276962E-4   1.013822620734572E-3  
 2.350000000000000E10    7.930074971227441E-4   2.134705027856398E-4  
 2.352000000000000E10    4.699133751273621E-4  -5.144649348949315E-4  
 2.354000000000000E10   -3.185551281603694E-5  -2.121853781318350E-4  
 2.356000000000000E10   -3.668795188787044E-4   9.634153175284155E-4  
 2.358000000000000E10    2.062671210296685E-4   8.594906212238129E-4  
 2.360000000000000E10    3.528728975652484E-4   6.855918181827292E-4  
 2.362000000000000E10    4.546853469946655E-4   2.152287333956338E-4  
 2.364000000000000E10    4.118736751479446E-5  -5.915443252888508E-4  
 2.366000000000000E10   -5.617593160422985E-4  -2.335839153602137E-4  
 2.368000000000000E10   -8.356934959010687E-4   6.331289951049257E-4  
 2.370000000000000E10    1.369931494991761E-3   8.285411022370681E-4  
 2.372000000000000E10    1.725709240417928E-3  -2.412989415461198E-4  
 2.374000000000000E10    1.232049050940987E-4  -8.593702405050863E-4  
 2.376000000000000E10   -1.079951389328926E-4   3.451140928518726E-4  
 2.378000000000000E10    4.907232123514405E-4   9.147671080427244E-4  
 2.380000000000000E10    3.816029029621859E-4   4.395021078380523E-4  
 2.382000000000000E10    4.681016998802079E-4  -2.123765989381354E-5  
 2.384000000000000E10    8.901933063043543E-5  -3.976462248829193E-4  
 2.386000000000000E10   -5.246543969406048E-5  -1.076610948075540E-3  
 2.388000000000000E10   -2.362983641432948E-4   1.418964757249341E-5  
 2.390000000000000E10    4.541899470495991E-4   4.263476803316735E-4  
 2.392000000000000E10    1.885797122668009E-3  -6.368019021465443E-4  
 2.394000000000000E10    1.302094708080404E-3  -1.036440706229769E-3  
 2.396000000000000E10   -4.244270330673317E-4  -5.950377599219792E-4  
 2.398000000000000E10   -3.685500416850118E-5   5.544062041735742E-4  
 2.400000000000000E10    1.038757895003073E-3   7.822984298400115E-4  
 2.402000000000000E10    7.747993986413349E-4  -3.751283129531657E-4  
 2.404000000000000E10    1.464190072510974E-4  -1.064437125023687E-3  
 2.406000000000000E10   -3.447441013122443E-4  -9.232449447154068E-4  
 2.408000000000000E10   -1.129039395891596E-3  -6.503213680844056E-4  
 2.410000000000000E10    4.985410680546920E-5  -4.714272618002724E-4  
 2.412000000000000E10    1.052635816449765E-3  -1.206439433190099E-4  
 2.414000000000000E10    3.706156585394638E-4  -1.685568866378162E-3  
 2.416000000000000E10    5.442219026008388E-5  -1.636568231333513E-3  
 2.418000000000000E10   -4.891278367722407E-4   3.610515818763815E-5  
 2.420000000000000E10   -3.757264348678291E-4   5.372152409108821E-4  
 2.422000000000000E10    5.456909384520259E-4   2.045231213401166E-4  
 2.424000000000000E10    7.099753842965129E-5  -5.713678001484368E-4  
 2.426000000000000E10   -8.856258100422565E-4  -1.143206885899417E-3  
 2.428000000000000E10   -7.703151823079679E-4  -3.509551943352562E-4  
 2.430000000000000E10   -1.278311079659034E-3   1.582568802405149E-5  
 2.432000000000000E10    1.129649135691579E-4  -5.229148882790469E-6  
 2.434000000000000E10    5.645523779094219E-4  -3.089619413003675E-4  
 2.436000000000000E10   -2.526489379306440E-4  -1.317357004154474E-3  
 2.438000000000000E10   -1.232932736456860E-3  -7.243503423524089E-4  
 2.440000000000000E10   -9.069590159924701E-4   5.379019148676889E-4  
 2.442000000000000E10   -2.917826059274375E-4   9.409323829459027E-4  
 2.444000000000000E10    2.787156918202527E-4  -3.204594704584451E-4  
 2.446000000000000E10   -3.571524357539602E-4  -5.148871969140600E-4  
 2.448000000000000E10   -1.216581898916047E-3  -5.969273879600223E-4  
 2.450000000000000E10   -8.122270992316771E-4  -2.836517278410611E-4  
 2.452000000000000E10   -5.049126339145005E-4   5.089018341095652E-4  
 2.454000000000000E10    4.437365205376409E-4   2.675999953680730E-4  
 2.456000000000000E10    6.633490520471241E-4  -5.790991453977767E-4  
 2.458000000000000E10   -3.407167205295991E-4  -7.849399626138620E-4  
 2.460000000000000E10   -9.492195204074960E-4   2.854734029824613E-4  
 2.462000000000000E10   -3.224084885005141E-4   1.200419275846798E-3  
 2.464000000000000E10    6.826588833064307E-4   6.538770721817855E-4  
 2.466000000000000E10    4.477904203668004E-4  -6.979154604778159E-4  
 2.468000000000000E10   -7.615391223225743E-4  -8.076489466475323E-4  
 2.470000000000000E10   -1.086331030819565E-3  -1.258063739442150E-4  
 2.472000000000000E10   -2.793796247715363E-4   6.089285925554577E-4  
 2.474000000000000E10    5.770687967014965E-4   3.662370272650151E-4  
 2.476000000000000E10    7.308646818273701E-4  -1.710391015876667E-4  
 2.478000000000000E10   -8.170596456125168E-5  -7.557346361863893E-4  
 2.480000000000000E10   -8.078343489614781E-4   4.910493029797181E-5  
 2.482000000000000E10   -5.456159524328541E-4   9.355557740491349E-4  
 2.484000000000000E10    5.157779723958811E-4   1.312015505391173E-3  
 2.486000000000000E10    3.698589252962847E-4  -5.132988741252120E-5  
 2.488000000000000E10   -2.667276132797269E-4  -8.812471278361045E-4  
 2.490000000000000E10   -1.116892279242165E-3  -2.616780475364067E-4  
 2.492000000000000E10   -6.703332110191695E-4   7.001755257078912E-4  
 2.494000000000000E10    6.329967200144893E-4   6.273175058595371E-4  
 2.496000000000000E10    7.715264837315772E-4  -8.429656782027450E-5  
 2.498000000000000E10    6.377651106959092E-5  -5.318823095876724E-4  
 2.500000000000000E10   -4.039635487060878E-4  -5.822170692226791E-5  
 2.502000000000000E10   -6.933642034709919E-4   8.740103112359066E-4  
 2.504000000000000E10   -3.068711375817657E-4   8.167908381437883E-4  
 2.506000000000000E10    8.429589797742665E-4   5.334941306500696E-4  
 2.508000000000000E10   -5.593476362264482E-5  -5.315621965564787E-4  
 2.510000000000000E10   -8.558996923966333E-4  -8.607077106717043E-4  
 2.512000000000000E10   -9.920493030222133E-4   4.808913799934089E-4  
 2.514000000000000E10   -5.415627970251080E-5   8.531844941899180E-4  
 2.516000000000000E10    9.490851880400442E-4   2.072468159894925E-4  
 2.518000000000000E10    7.440933331963606E-4  -5.267951892165002E-4  
 2.520000000000000E10   -3.808566743828123E-4  -1.007915379886981E-4  
 2.522000000000000E10   -5.339962954167277E-4   5.295837909216061E-4  
 2.524000000000000E10   -1.518497047072742E-4   1.461680498323403E-3  
 2.526000000000000E10   -1.255890510947211E-4   9.302324178861454E-4  
 2.528000000000000E10    4.462713986868039E-4  -1.660394336795434E-4  
 2.530000000000000E10   -2.377241289650556E-4  -2.421418612357229E-4  
 2.532000000000000E10   -1.085159856302198E-3  -2.278719757669023E-4  
 2.534000000000000E10   -1.185267428809311E-4   5.194687546463683E-4  
 2.536000000000000E10    1.062786395777948E-3   8.670189417898655E-4  
 2.538000000000000E10    1.102937407267746E-3  -2.995149188791402E-4  
 2.540000000000000E10    4.373828269308433E-4  -5.823559113196097E-4  
 2.542000000000000E10    8.236125859184540E-5   7.667743047932163E-4  
 2.544000000000000E10    1.620886559976498E-4   7.660178307560273E-4  
 2.546000000000000E10    4.448478539416101E-4   1.274897353141569E-3  
 2.548000000000000E10    2.919875623774715E-4   3.977923697675578E-4  
 2.550000000000000E10    6.213744964043144E-4  -5.681880502379499E-4  
 2.552000000000000E10   -4.885883899987675E-4  -6.234887914615683E-4  
 2.554000000000000E10   -4.180229589110240E-4   2.036874896020890E-4  
 2.556000000000000E10    7.474895610357635E-4   6.508897495223209E-4  
 2.558000000000000E10    1.453137068892829E-3  -4.233967065374600E-4  
 2.560000000000000E10    7.896252791397274E-4  -3.552784291969147E-4  
 2.562000000000000E10   -1.182001051347470E-4  -8.986472894321196E-4  
 2.564000000000000E10   -1.107445377783733E-4   4.438757714524400E-4  
 2.566000000000000E10    1.674627437751042E-4   4.402470949571580E-4  
 2.568000000000000E10    1.127618132159114E-3  -1.445418965886347E-4  
 2.570000000000000E10    2.924029704445275E-4  -8.079221661319025E-4  
 2.572000000000000E10    2.599465478851926E-4  -1.115259423386306E-3  
 2.574000000000000E10   -4.204327960906085E-4  -5.853303809999488E-4  
 2.576000000000000E10    2.475354740454350E-4  -1.022096239466919E-5  
 2.578000000000000E10    1.014269837469328E-3   3.322389347886201E-4  
 2.580000000000000E10    1.308302875258960E-3  -8.389815629925579E-4  
 2.582000000000000E10   -3.063957410631701E-4  -9.447133343201131E-4  
 2.584000000000000E10   -1.099488064937759E-3  -3.579109652491752E-4  
 2.586000000000000E10   -5.930873885517940E-4   7.888459513196722E-4  
 2.588000000000000E10    3.765645706153009E-4  -3.066275949095143E-4  
 2.590000000000000E10    6.831320497440174E-4  -1.036419773299713E-3  
 2.592000000000000E10   -5.230718270468060E-4  -1.467763053369708E-3  
 2.594000000000000E10   -3.964967836509459E-4  -1.802019050956005E-4  
 2.596000000000000E10   -5.079434868093813E-5   2.806987340591149E-4  
 2.598000000000000E10    3.099041750829201E-4   3.239485522499308E-4  
 2.600000000000000E10    4.377553414087743E-4  -2.281631332152756E-4  
 2.602000000000000E10    3.343788557685912E-4  -5.262629711069167E-4  
 2.604000000000000E10   -1.242164624272846E-3  -5.938320100540295E-4  
 2.606000000000000E10   -1.047694138833322E-3   2.382132042839658E-4  
 2.608000000000000E10    1.919252645166125E-4   1.083591443602927E-3  
 2.610000000000000E10    4.440302436705679E-4  -9.303084516432136E-4  
 2.612000000000000E10    2.031818848990952E-5  -1.006036734906957E-3  
 2.614000000000000E10   -6.437281772377901E-4  -3.384315587027231E-4  
 2.616000000000000E10   -2.475675137247890E-4   3.554388822522014E-4  
 2.618000000000000E10   -1.267106665636675E-5   6.615508173126727E-4  
 2.620000000000000E10   -7.074317682054243E-5   6.183310106280260E-4  
 2.622000000000000E10   -3.076383109146264E-4  -3.867717969114892E-4  
 2.624000000000000E10   -5.665529897669330E-5  -5.596323535428383E-4  
 2.626000000000000E10   -1.347547324257903E-3  -1.230662319358089E-4  
 2.628000000000000E10   -5.085665470687673E-4   5.407357857620809E-4  
 2.630000000000000E10    8.673685952089727E-4   7.585494386148639E-4  
 2.632000000000000E10    5.996934924041852E-4  -8.187156345229596E-4  
 2.634000000000000E10   -3.037175156350713E-4  -3.246302239858778E-4  
 2.636000000000000E10   -6.119938771007583E-4   2.583925634098705E-4  
 2.638000000000000E10   -3.371579341546749E-4   8.082174317678437E-4  
 2.640000000000000E10    3.810564739978872E-4   4.338782127888408E-4  
 2.642000000000000E10    1.288928142457735E-4   3.708654330694117E-4  
 2.644000000000000E10   -1.838226580730407E-6  -5.782454463769682E-4  
 2.646000000000000E10   -4.946642347931629E-4  -5.268203167361207E-4  
 2.648000000000000E10   -7.533386306022294E-4   4.541652269836050E-4  
 2.650000000000000E10    2.358851579629118E-4   6.941395113244653E-4  
 2.652000000000000E10    1.314781038672663E-3   4.573040023387875E-4  
 2.654000000000000E10    7.479181876988150E-4  -8.881244793883525E-4  
 2.656000000000000E10   -6.332001503324136E-4   1.070275910706187E-4  
 2.658000000000000E10   -4.481305804802105E-4   1.004575540719088E-3  
 2.660000000000000E10    2.632713185448665E-4   9.977973968489096E-4  
 2.662000000000000E10    3.371878628968261E-4  -5.604329817288090E-5  
 2.664000000000000E10   -4.333835295255994E-5  -4.022618195449468E-4  
 2.666000000000000E10   -7.365515848505311E-4  -5.015666611143388E-4  
 2.668000000000000E10   -1.748330328155134E-4   4.286142007003946E-5  
 2.670000000000000E10   -1.958078847366096E-4   6.666706030955538E-4  
 2.672000000000000E10    1.006926089758053E-3  -4.908629830424616E-5  
 2.674000000000000E10    8.536926179658622E-4  -1.328228590864455E-4  
 2.676000000000000E10   -1.205517273774603E-4  -8.411116723436862E-4  
 2.678000000000000E10   -7.974353211466223E-4  -3.004056907229824E-6  
 2.680000000000000E10   -3.116439202131005E-4   1.172629519714974E-3  
 2.682000000000000E10    5.654930646414869E-4   5.343156844901387E-4  
 2.684000000000000E10    2.804867926897714E-4  -1.194112002849579E-3  
 2.686000000000000E10   -4.680948331952095E-4  -9.833566655288450E-4  
 2.688000000000000E10   -8.989362249849364E-4  -4.176041909431660E-5  
 2.690000000000000E10    2.571272525528912E-4  -3.090766476816498E-4  
 2.692000000000000E10    5.659957387251779E-4   4.546515410766006E-4  
 2.694000000000000E10    7.959077192936093E-4  -5.734705700888299E-4  
 2.696000000000000E10    5.125848838360980E-4  -7.437320491590072E-4  
 2.698000000000000E10   -4.617127560777590E-4  -1.129755664805998E-4  
 2.700000000000000E10   -9.452691228943877E-4   8.204056066460908E-4  
 2.702000000000000E10    2.287660681759007E-4   5.754636367782950E-4  
 2.704000000000000E10    4.196175250399392E-4  -2.151965700250003E-4  
 2.706000000000000E10   -6.802100433560554E-4  -1.156944694230333E-3  
 2.708000000000000E10   -4.889452902716585E-4  -5.359154929465149E-4  
 2.710000000000000E10   -6.811950152041391E-4   1.342138430118212E-4  
 2.712000000000000E10    7.146606003516354E-4  -2.180151413995191E-4  
 2.714000000000000E10    5.530626785912318E-4   2.133920097548980E-4  
 2.716000000000000E10    4.018047693534754E-4  -5.330389685695991E-4  
 2.718000000000000E10   -5.934856790190679E-5  -4.095205076737329E-4  
 2.720000000000000E10   -7.797202997608110E-4   5.354426466510631E-4  
 2.722000000000000E10   -5.889225394639652E-4   1.013589149806649E-3  
 2.724000000000000E10    7.793216500431299E-4   2.095004250577404E-4  
 2.726000000000000E10   -2.683665525182732E-4  -7.119563924788963E-4  
 2.728000000000000E10   -8.234266206272878E-4  -1.232212991453707E-3  
 2.730000000000000E10   -3.908119924744824E-4   2.661924681888195E-4  
 2.732000000000000E10    1.381005549774272E-4   2.197149551648181E-4  
 2.734000000000000E10    6.762747143511660E-4   7.059793074404297E-5  
 2.736000000000000E10    4.593512312567327E-4  -1.512780188193119E-4  
 2.738000000000000E10   -1.617350091009939E-5   2.245605469397560E-5  
 2.740000000000000E10   -6.940456514712423E-4  -1.945607295965601E-4  
 2.742000000000000E10   -6.584962320630439E-4   9.194846861646511E-4  
 2.744000000000000E10    1.005566232379351E-4   4.091085247637238E-4  
 2.746000000000000E10    9.041127559612505E-4  -3.182699729222804E-4  
 2.748000000000000E10   -4.402074009703938E-4  -6.372231000568718E-4  
 2.750000000000000E10   -9.662562442827039E-4  -4.807992008863948E-4  
 2.752000000000000E10   -9.890602723316988E-5   6.827469696872868E-4  
 2.754000000000000E10    3.410095559956972E-4   1.765387614796055E-4  
 2.756000000000000E10    3.197626210749149E-4  -1.036364160427183E-4  
