#  HZ   S   RI   R     50.00 
! Rohde & Schwarz ZVA40 4Ports - Version 3.90 - 1145.1110k42 SN: 100403
! Date: 2023-10-04 06:47:00
! Measurement: S12 
! 
 2.200000000000000E10   -8.102399588096887E-4  -2.592138152976986E-4  
 2.202000000000000E10   -8.910864926292561E-5   3.663880197564140E-4  
 2.204000000000000E10    6.273369072005153E-4  -7.016907620709389E-4  
 2.206000000000000E10   -1.047921832650900E-3  -5.256589356577024E-4  
 2.208000000000000E10   -4.069842980243266E-4   3.233776078559458E-5  
 2.210000000000000E10   -2.622430474730209E-5   6.206336547620595E-4  
 2.212000000000000E10   -1.073688763426617E-3  -3.843784943455830E-4  
 2.214000000000000E10   -6.149530527181923E-4   5.001617973903194E-4  
 2.216000000000000E10   -4.534249164862558E-4   7.003058854024857E-4  
 2.218000000000000E10   -2.272016790811904E-4  -4.411302943481132E-4  
 2.220000000000000E10   -1.132656179834157E-3  -7.308281492441893E-4  
 2.222000000000000E10   -1.352214661892504E-3   4.304915928514674E-4  
 2.224000000000000E10    1.530847612229991E-5   1.163277600426227E-3  
 2.226000000000000E10    1.245738938450813E-3  -1.835797447711229E-4  
 2.228000000000000E10   -5.885025311727077E-4  -2.646735010785051E-4  
 2.230000000000000E10   -9.262228850275278E-4   8.728106913622469E-4  
 2.232000000000000E10   -1.398390922986437E-4   1.375808729790151E-3  
 2.234000000000000E10   -4.664193838834763E-4   4.510024155024439E-4  
 2.236000000000000E10    4.724820973933674E-5   5.103517032694072E-4  
 2.238000000000000E10   -3.904013428837061E-4   4.995992348995060E-4  
 2.240000000000000E10   -1.645135307626333E-4  -5.291790876071900E-4  
 2.242000000000000E10   -8.051375625655055E-4  -1.282460252696183E-4  
 2.244000000000000E10   -1.206759588967543E-4   5.185885820537806E-4  
 2.246000000000000E10    1.083046838175505E-3   4.062800144311041E-4  
 2.248000000000000E10    6.822936411481351E-4  -9.891535446513444E-4  
 2.250000000000000E10    2.063979263766669E-5  -4.050055576954037E-4  
 2.252000000000000E10   -7.957961934152991E-4   9.070598462130874E-4  
 2.254000000000000E10    8.154564129654318E-4   8.003613329492509E-4  
 2.256000000000000E10    4.225567681714892E-4   4.687949258368462E-4  
 2.258000000000000E10   -7.170580793172121E-4  -6.009733187966049E-4  
 2.260000000000000E10   -2.794907923089340E-4  -7.954960892675445E-5  
 2.262000000000000E10    7.009742103036842E-5  -3.267479623900726E-4  
 2.264000000000000E10   -3.874238755088300E-4  -5.313073052093387E-4  
 2.266000000000000E10    2.313455988769420E-4  -6.008795571688097E-5  
 2.268000000000000E10    1.397139276377857E-3  -1.020934214466251E-4  
 2.270000000000000E10    4.109190194867551E-4  -6.446592451538891E-4  
 2.272000000000000E10   -5.619158473564312E-4  -8.677190926391631E-4  
 2.274000000000000E10   -2.147017294191755E-4   1.356940018013120E-3  
 2.276000000000000E10    7.436118612531573E-4   6.195195019245148E-4  
 2.278000000000000E10    4.397623415570706E-4  -6.770192412659526E-4  
 2.280000000000000E10   -2.954393494292162E-4  -1.811960464692675E-4  
 2.282000000000000E10   -2.775578905129805E-4  -6.195104651851580E-5  
 2.284000000000000E10   -9.211862675329030E-5  -3.658045752672479E-4  
 2.286000000000000E10    3.446104092290625E-4   6.026029004715383E-4  
 2.288000000000000E10    3.056558634852991E-4   7.223080028779805E-4  
 2.290000000000000E10    1.135818485636264E-3   3.026327703992138E-5  
 2.292000000000000E10    1.170444411400240E-4   2.047426387434825E-4  
 2.294000000000000E10   -1.054355758242309E-3  -1.210697973874630E-5  
 2.296000000000000E10    3.166157839586958E-4   1.185292261652648E-3  
 2.298000000000000E10    1.187920570373535E-3   6.683681567665190E-4  
 2.300000000000000E10    4.425051447469741E-4  -8.955287921708077E-4  
 2.302000000000000E10   -1.298236602451652E-4  -2.911624469561502E-4  
 2.304000000000000E10    1.708899289951660E-4   7.406008953694254E-4  
 2.306000000000000E10    2.107380132656544E-4   5.090429040137678E-4  
 2.308000000000000E10    1.064628944732249E-3   1.606806108611636E-4  
 2.310000000000000E10    8.023828559089452E-4   4.707540065282956E-4  
 2.312000000000000E10   -3.629479033406824E-4  -4.936071200063452E-4  
 2.314000000000000E10    1.916356450237799E-5  -6.249849975574762E-4  
 2.316000000000000E10   -3.734577039722353E-4   7.551073795184493E-4  
 2.318000000000000E10    6.059116276446730E-4  -4.413735496200388E-5  
 2.320000000000000E10    1.563148456625640E-3  -9.121710900217295E-4  
 2.322000000000000E10    6.680217920802534E-4  -9.293889452237636E-4  
 2.324000000000000E10   -6.262745009735227E-4  -2.802459930535406E-4  
 2.326000000000000E10    2.944256120827049E-4   8.363727538380772E-4  
 2.328000000000000E10    9.286796848755330E-4   6.515488785225898E-4  
 2.330000000000000E10   -3.531449419824639E-5  -7.315821712836623E-4  
 2.332000000000000E10   -3.327656304463744E-4  -4.673037474276498E-4  
 2.334000000000000E10   -6.853698287159205E-4  -4.528577555902302E-4  
 2.336000000000000E10   -8.181051234714687E-4  -7.509427086915821E-4  
 2.338000000000000E10    2.187413992942311E-4   9.620548371458426E-5  
 2.340000000000000E10    1.096609514206648E-3  -3.428969212109223E-4  
 2.342000000000000E10    8.798561466392130E-4  -1.644530973862857E-3  
 2.344000000000000E10   -3.662131348391995E-4  -7.116688648238778E-4  
 2.346000000000000E10   -5.544867017306387E-4   7.390831015072763E-4  
 2.348000000000000E10    4.482229560380802E-4   9.770143369678408E-4  
 2.350000000000000E10    4.362757463240996E-4  -3.398245753487572E-4  
 2.352000000000000E10   -5.626352503895760E-4  -1.506939413957298E-3  
 2.354000000000000E10   -1.106148294638842E-3  -5.803367821499705E-4  
 2.356000000000000E10   -7.537773053627461E-4  -3.894565015798435E-4  
 2.358000000000000E10    1.276710627280409E-4  -5.574899550992996E-4  
 2.360000000000000E10    4.058207850903273E-4   5.431324279925320E-5  
 2.362000000000000E10    7.893876754678786E-4  -7.543714891653508E-4  
 2.364000000000000E10    9.673254680819809E-5  -8.809028367977589E-4  
 2.366000000000000E10   -1.598834176547825E-3   3.712906764121726E-4  
 2.368000000000000E10   -6.854513194411993E-4   1.355182554107159E-3  
 2.370000000000000E10    5.863906699232757E-4   4.743643221445382E-4  
 2.372000000000000E10   -3.688518481794745E-4  -1.217886630911380E-3  
 2.374000000000000E10   -1.341446535661817E-3  -1.370271609630436E-3  
 2.376000000000000E10   -6.746039434801787E-4  -2.153348505089525E-4  
 2.378000000000000E10   -1.295536094403360E-4   3.087929071625695E-4  
 2.380000000000000E10    7.865876250434667E-4  -2.352297306060791E-4  
 2.382000000000000E10    3.758230013772845E-4  -4.455103189684451E-4  
 2.384000000000000E10   -6.299682672761264E-5  -2.309031060576672E-5  
 2.386000000000000E10   -1.017617643810809E-3   2.259154571220279E-4  
 2.388000000000000E10   -1.323954842519015E-3   8.804688695818186E-4  
 2.390000000000000E10   -6.267439457587898E-4   1.531475572846830E-3  
 2.392000000000000E10    3.086383803747594E-4  -2.240590984001756E-4  
 2.394000000000000E10   -6.354862125590444E-4  -8.302891510538757E-4  
 2.396000000000000E10   -1.701422443147749E-3  -4.332206444814801E-4  
 2.398000000000000E10   -5.485232213686686E-5   7.923691300675273E-4  
 2.400000000000000E10    2.079687110381201E-4   9.190521959681064E-4  
 2.402000000000000E10    6.124461360741407E-4  -1.167837108368985E-4  
 2.404000000000000E10    9.172242062049918E-5   2.370979782426730E-4  
 2.406000000000000E10   -7.931165746413171E-4   7.232521311379969E-4  
 2.408000000000000E10   -8.715501753613353E-4   7.502390071749687E-4  
 2.410000000000000E10    6.256190681597218E-5   1.123537134844810E-3  
 2.412000000000000E10    1.691431680228561E-4   7.363957993220538E-4  
 2.414000000000000E10    6.111902475822717E-4  -4.684774758061394E-4  
 2.416000000000000E10   -4.112802998861298E-4  -2.662270271684974E-4  
 2.418000000000000E10   -9.603509970474988E-4   9.053884714376181E-4  
 2.420000000000000E10    9.844857850112021E-4   1.521077298093587E-3  
 2.422000000000000E10    1.506305183283985E-3   5.898849049117416E-4  
 2.424000000000000E10    5.752896540798247E-4  -5.378805071813986E-4  
 2.426000000000000E10   -5.580677825491875E-4   8.516381967638154E-5  
 2.428000000000000E10   -1.534435286885127E-4   1.138781080953777E-3  
 2.430000000000000E10    1.383834387524985E-6   7.330570660997182E-4  
 2.432000000000000E10    1.374915183987469E-3   3.076888606301509E-4  
 2.434000000000000E10    6.549627578351647E-4  -5.038270173827186E-4  
 2.436000000000000E10   -1.885199453681707E-4  -1.079776498954743E-3  
 2.438000000000000E10    9.376370144309476E-6   5.852684844285250E-4  
 2.440000000000000E10    4.581623652484268E-4   9.741957765072584E-4  
 2.442000000000000E10    1.773637428414077E-3   1.864307487267070E-4  
 2.444000000000000E10    9.329468302894384E-4  -5.788250709883869E-4  
 2.446000000000000E10   -3.778606242121896E-5  -4.261823196429759E-4  
 2.448000000000000E10   -2.430178792565130E-4   5.433908809209243E-4  
 2.450000000000000E10    2.277184757986106E-4   8.616711711511016E-4  
 2.452000000000000E10    2.789245263556950E-4   2.363838721066713E-4  
 2.454000000000000E10    1.001275086309761E-3  -2.694858922041021E-4  
 2.456000000000000E10    1.259737855434651E-4  -9.538793237879872E-4  
 2.458000000000000E10   -5.965772434137762E-4  -5.017116782255471E-4  
 2.460000000000000E10   -3.214925236534327E-4   5.914762150496244E-4  
 2.462000000000000E10    5.030563334003091E-4   3.932104591513053E-4  
 2.464000000000000E10    8.261681068688631E-4  -2.812148668454029E-4  
 2.466000000000000E10    3.394305676920340E-4  -8.691925904713571E-4  
 2.468000000000000E10   -6.692690367344767E-4  -2.564746391726658E-4  
 2.470000000000000E10   -5.209138616919518E-4   4.046833782922477E-4  
 2.472000000000000E10    4.792045074282214E-4   9.925520862452686E-4  
 2.474000000000000E10    3.078051086049527E-4  -2.432813998893835E-4  
 2.476000000000000E10    3.117361775366589E-4  -4.694158415077254E-4  
 2.478000000000000E10   -6.080850434955210E-4  -5.620834417641163E-4  
 2.480000000000000E10   -7.338678697124124E-4  -4.762311982631218E-5  
 2.482000000000000E10    4.056718898937106E-5   9.916912240441889E-4  
 2.484000000000000E10    1.078159257303923E-3   2.252478225273080E-5  
 2.486000000000000E10    8.672452822793275E-4  -1.035257882904261E-3  
 2.488000000000000E10   -3.852708759950474E-4  -6.064460030756891E-4  
 2.490000000000000E10   -8.070645853877068E-4   6.259063375182450E-4  
 2.492000000000000E10    1.485965767642483E-4   8.281324116978794E-4  
 2.494000000000000E10    6.770340260118246E-4   4.470702988328412E-4  
 2.496000000000000E10    2.440978787490167E-4  -5.115450039738789E-4  
 2.498000000000000E10   -3.527989756548777E-4  -5.050898471381515E-4  
 2.500000000000000E10   -9.017092233989388E-4  -3.186241810908541E-4  
 2.502000000000000E10   -2.266524461447261E-4   4.825774376513436E-4  
 2.504000000000000E10    9.055201662704349E-4   8.038202759053092E-5  
 2.506000000000000E10    1.029596402077004E-3  -4.480814532143995E-4  
 2.508000000000000E10   -2.783573108899873E-5  -1.140423293691129E-3  
 2.510000000000000E10   -2.560078137321398E-4  -2.634851916809566E-4  
 2.512000000000000E10   -3.574081638362259E-4   1.097494910936803E-3  
 2.514000000000000E10    8.936692029237747E-4   3.362165298312903E-4  
 2.516000000000000E10    1.162158267106861E-3  -4.323814937379211E-4  
 2.518000000000000E10   -2.443331613903865E-4  -1.146936265286058E-3  
 2.520000000000000E10   -8.672656258568168E-4  -5.692239064956084E-4  
 2.522000000000000E10    2.291550335939974E-4   1.185525034088641E-4  
 2.524000000000000E10    3.902795142494142E-4   1.270945576834492E-4  
 2.526000000000000E10    9.464809263590723E-4  -8.434361079707742E-4  
 2.528000000000000E10    8.155238465406001E-4  -7.357597642112523E-4  
 2.530000000000000E10   -9.517493890598416E-4  -9.515005222056061E-4  
 2.532000000000000E10   -5.313539877533913E-4   9.504935769655276E-5  
 2.534000000000000E10    2.660633181221783E-4   7.027039246167988E-4  
 2.536000000000000E10    8.625612827017903E-4  -5.524030275410041E-4  
 2.538000000000000E10   -2.196871646447107E-4  -1.241508231032640E-3  
 2.540000000000000E10   -9.439543064218015E-4  -1.006329664960504E-3  
 2.542000000000000E10   -9.499667212367058E-4   7.897331568074151E-5  
 2.544000000000000E10   -6.830074562458322E-5   1.564049744047225E-4  
 2.546000000000000E10    6.816255918238312E-4   1.202836429001764E-4  
 2.548000000000000E10   -1.739822910167277E-4  -1.206725602969527E-3  
 2.550000000000000E10   -7.180232787504792E-4  -6.741452962160111E-4  
 2.552000000000000E10   -1.290547312237322E-3   6.625296664424241E-4  
 2.554000000000000E10   -5.652600957546383E-4   4.075487959198654E-4  
 2.556000000000000E10    3.247418208047748E-4   3.251250891480595E-4  
 2.558000000000000E10    7.467357079349313E-7  -6.696115888189524E-4  
 2.560000000000000E10   -1.159547769930214E-3  -8.657785074319691E-4  
 2.562000000000000E10   -1.111439836677164E-3   4.455871821846813E-4  
 2.564000000000000E10   -1.512923372501973E-4   1.329796446952969E-3  
 2.566000000000000E10    4.495249013416469E-4   3.608098195400089E-4  
 2.568000000000000E10   -1.629430917091668E-4  -2.349588976358064E-4  
 2.570000000000000E10   -6.811030907556415E-4   2.461209660395980E-4  
 2.572000000000000E10   -5.999656277708709E-4   8.305180235765874E-4  
 2.574000000000000E10   -4.325353947933763E-4   6.732838228344917E-4  
 2.576000000000000E10   -8.216275284667063E-5   7.666999881621450E-4  
 2.578000000000000E10    3.334174980409443E-4   3.398040717002004E-4  
 2.580000000000000E10   -1.331805797235575E-4  -6.296750798355788E-4  
 2.582000000000000E10   -6.336071528494358E-4  -1.414054495398887E-4  
 2.584000000000000E10   -3.581515629775822E-4   1.341371738817543E-3  
 2.586000000000000E10    9.292890899814665E-4   1.219180412590504E-3  
 2.588000000000000E10    8.298271277453750E-4   1.236402385984547E-4  
 2.590000000000000E10   -2.106085958075710E-4  -3.825447038252605E-5  
 2.592000000000000E10   -8.344813250005245E-4   6.060686719138175E-4  
 2.594000000000000E10   -9.991333445213968E-5   7.655130175407976E-4  
 2.596000000000000E10    1.591161199030466E-4   3.388606419321150E-4  
 2.598000000000000E10    3.535199211910367E-4   2.679010649444535E-4  
 2.600000000000000E10    1.059814938344061E-3  -1.092170787160285E-4  
 2.602000000000000E10   -2.781739822239615E-4  -5.313406727509573E-4  
 2.604000000000000E10   -2.897214653785341E-4   3.936374996555969E-4  
 2.606000000000000E10    4.586619761539623E-4   1.609049388207495E-3  
 2.608000000000000E10    8.322733046952635E-4   5.828513531014323E-4  
 2.610000000000000E10    7.185212743934244E-4  -7.964306569192559E-4  
 2.612000000000000E10   -8.302807400468737E-4  -2.771061699604616E-4  
 2.614000000000000E10   -6.979036261327565E-4   3.629859420470893E-4  
 2.616000000000000E10    3.906256461050361E-4   4.315171245252714E-4  
 2.618000000000000E10    1.038458547554910E-3  -2.612495445646346E-4  
 2.620000000000000E10    6.649528804700822E-4  -6.280064408201724E-4  
 2.622000000000000E10    3.418471605982631E-4  -7.589735614601523E-4  
 2.624000000000000E10   -3.525157953845337E-4   3.166131646139547E-4  
 2.626000000000000E10   -3.825944440905005E-4   6.140856421552599E-4  
 2.628000000000000E10    7.457215688191354E-4   6.965850188862532E-4  
 2.630000000000000E10    7.952966261655092E-4  -4.799924499820918E-4  
 2.632000000000000E10   -4.866954259341583E-4  -1.460901112295687E-3  
 2.634000000000000E10   -1.164934190455824E-3  -2.147410341422074E-4  
 2.636000000000000E10    1.751681229507085E-4   9.081800271815155E-5  
 2.638000000000000E10    1.048569451086223E-3   3.495311539154500E-4  
 2.640000000000000E10    6.620508502237499E-4  -6.379146943800151E-4  
 2.642000000000000E10   -1.307926540903281E-4  -2.897212616517209E-4  
 2.644000000000000E10   -2.715397713473067E-4  -2.619761487920869E-5  
 2.646000000000000E10   -2.715130831347778E-4   1.001863274723291E-3  
 2.648000000000000E10   -4.502806841628626E-4   5.711560079362243E-4  
 2.650000000000000E10    4.966866108588874E-4  -2.762385556707159E-4  
 2.652000000000000E10   -3.049403458135203E-4  -6.840467685833573E-4  
 2.654000000000000E10   -5.780873470939696E-4  -1.526561973150820E-3  
 2.656000000000000E10   -7.192058837972581E-4   4.677771939896047E-4  
 2.658000000000000E10    6.207975093275309E-4   2.595945115899667E-4  
 2.660000000000000E10    1.364891999401152E-3  -1.917938716360368E-4  
 2.662000000000000E10    1.372360638924874E-4  -6.255376210901886E-4  
 2.664000000000000E10   -1.658686669543386E-4  -4.467357575776987E-5  
 2.666000000000000E10   -6.139756878837943E-4   7.130067970138043E-4  
 2.668000000000000E10    1.148138326243497E-4   6.116452568676323E-4  
 2.670000000000000E10    1.846603481681086E-4  -7.482690853066742E-5  
 2.672000000000000E10    4.577282525133342E-4  -9.316347714047879E-4  
 2.674000000000000E10   -2.937410026788712E-4  -7.866121595725417E-4  
 2.676000000000000E10   -4.229424666846171E-4  -3.306512662675232E-4  
 2.678000000000000E10    2.030909308814444E-5   6.772026827093214E-4  
 2.680000000000000E10    8.442073594778776E-4   3.247007553000003E-4  
 2.682000000000000E10    1.067027274984866E-3  -4.117549688089639E-4  
 2.684000000000000E10   -3.296442300779745E-4  -4.516762128332630E-4  
 2.686000000000000E10   -8.835772168822587E-4   3.992073325207457E-4  
 2.688000000000000E10   -3.121042682323605E-4   9.577083692420274E-4  
 2.690000000000000E10    3.388482145965099E-4   1.869073603302240E-4  
 2.692000000000000E10    7.206168083939701E-5  -5.522967258002609E-4  
 2.694000000000000E10    6.850632416899316E-5  -7.808943337295204E-4  
 2.696000000000000E10   -5.940944247413427E-4  -4.005023697573051E-6  
 2.698000000000000E10   -2.322213185834698E-4   2.369500725762919E-4  
 2.700000000000000E10    4.002632631454617E-4   9.576041193213314E-4  
 2.702000000000000E10    1.012849854305387E-3   3.894299588864669E-4  
 2.704000000000000E10    1.241667414433323E-4  -4.818353045266122E-4  
 2.706000000000000E10   -8.855533669702709E-4   8.012144098756835E-5  
 2.708000000000000E10   -9.043303725775331E-4   1.077030785381794E-3  
 2.710000000000000E10    2.034035132965073E-4   8.986061147879809E-4  
 2.712000000000000E10    9.345704456791282E-4  -2.710709813982248E-4  
 2.714000000000000E10   -5.654975830111653E-4  -7.031567511148751E-4  
 2.716000000000000E10   -6.300706590991467E-4  -4.013024445157498E-4  
 2.718000000000000E10   -1.341285751550458E-4   6.528586091008037E-4  
 2.720000000000000E10    1.440731575712562E-4   6.303974369075149E-4  
 2.722000000000000E10    9.017419070005417E-4   2.445527788950130E-4  
 2.724000000000000E10    5.102729483041912E-4  -7.577493579447037E-5  
 2.726000000000000E10   -6.620556232519448E-4  -3.357421737746336E-4  
 2.728000000000000E10   -3.552009729901329E-4   3.740272950381041E-4  
 2.730000000000000E10    7.229794937302358E-5   1.238976372405887E-3  
 2.732000000000000E10    5.446170689538121E-4  -1.908408012241125E-4  
 2.734000000000000E10    4.383433697512373E-4  -4.972406168235466E-4  
 2.736000000000000E10   -4.976147902198136E-4  -1.836860974435695E-4  
 2.738000000000000E10   -7.997849024832249E-5   1.080594993254636E-4  
 2.740000000000000E10    2.812540042214096E-4   4.213706561131403E-4  
 2.742000000000000E10    4.702836740761995E-4   4.247959441272542E-4  
 2.744000000000000E10    6.211269937921315E-4  -4.945512228005100E-5  
 2.746000000000000E10    2.557297193561681E-4  -2.410527449683286E-4  
 2.748000000000000E10   -8.634800033178181E-4   1.358918525511399E-4  
 2.750000000000000E10   -2.337345867999829E-4   5.343176599126309E-4  
 2.752000000000000E10    9.745054994709790E-4   7.950822182465345E-4  
 2.754000000000000E10    3.664029354695231E-4  -7.956170302350074E-4  
 2.756000000000000E10   -9.206210120282776E-5  -7.092187297530472E-4  
