#  HZ   S   RI   R     50.00 
! Rohde & Schwarz ZVA40 4Ports - Version 3.90 - 1145.1110k42 SN: 100403
! Date: 2023-10-04 06:44:08
! Measurement: S12 
! 
 2.200000000000000E10   -3.299712333273419E-4   7.378174775567459E-4  
 2.202000000000000E10   -4.577162534360468E-4   1.182417499421717E-3  
 2.204000000000000E10    4.295261126117111E-4   7.152886985295481E-4  
 2.206000000000000E10    5.286325182396467E-4  -1.436106861376629E-4  
 2.208000000000000E10    2.830550468218007E-4  -1.333467228334939E-4  
 2.210000000000000E10    1.637785549064574E-4  -2.116616769853863E-4  
 2.212000000000000E10    8.989887408006325E-4  -5.529626062070747E-4  
 2.214000000000000E10    3.435246386516155E-4   3.930883884777359E-4  
 2.216000000000000E10    6.648902265169454E-4   5.611023159417528E-4  
 2.218000000000000E10    1.531201930902171E-3   2.693706334184753E-4  
 2.220000000000000E10    3.717647351777487E-4  -6.985503857777076E-4  
 2.222000000000000E10   -5.418379390675909E-4   9.239439498287538E-5  
 2.224000000000000E10   -7.848767737073104E-5   8.657748833229562E-4  
 2.226000000000000E10    5.244926014711382E-4  -3.843273644861256E-4  
 2.228000000000000E10    1.347242076121802E-5  -9.398001993758953E-4  
 2.230000000000000E10   -2.102662288905322E-5  -7.267888463502459E-4  
 2.232000000000000E10    3.223286748834653E-4  -4.481128585211991E-4  
 2.234000000000000E10    4.971969616462957E-4  -8.019469630653475E-4  
 2.236000000000000E10    5.043358384000385E-4   3.625638530024844E-5  
 2.238000000000000E10    1.032147328317024E-4   6.443036143082281E-4  
 2.240000000000000E10    1.019091849684628E-3  -9.446794522460777E-5  
 2.242000000000000E10   -4.434260500829623E-4  -4.928525069090028E-4  
 2.244000000000000E10   -1.538564683414734E-3   1.868411387704327E-4  
 2.246000000000000E10   -1.773458435536668E-4   1.098436177926487E-3  
 2.248000000000000E10    8.882960348728375E-4  -4.346618968043003E-5  
 2.250000000000000E10   -2.216063600712914E-4  -1.105448823182087E-3  
 2.252000000000000E10   -6.518551817862317E-4  -3.708525104002547E-4  
 2.254000000000000E10    3.591475929169974E-4   5.882859215944336E-4  
 2.256000000000000E10    2.117488973567561E-4   4.579364380674633E-5  
 2.258000000000000E10    4.960405431120307E-4   4.309637516826115E-4  
 2.260000000000000E10    4.505784399952972E-4   8.387851928546297E-4  
 2.262000000000000E10    1.184897486137260E-4   9.465593871027522E-5  
 2.264000000000000E10   -8.652014312247047E-4  -3.987349682574859E-4  
 2.266000000000000E10   -6.436127291635785E-4   6.038416634055466E-4  
 2.268000000000000E10    2.213230056895554E-4   1.012632241327083E-3  
 2.270000000000000E10    1.172640241293266E-3  -9.430293757759500E-4  
 2.272000000000000E10    2.976250053734475E-4  -9.146981306002999E-4  
 2.274000000000000E10   -8.072153461853304E-4   3.193194195318938E-4  
 2.276000000000000E10    4.094761228543575E-4   7.247300870858453E-4  
 2.278000000000000E10    5.180722382647218E-4   4.289168358582174E-4  
 2.280000000000000E10   -3.093368237614413E-4  -4.190046005305703E-4  
 2.282000000000000E10    2.929329988177187E-5  -4.482968695356249E-4  
 2.284000000000000E10   -4.824728778203280E-4   2.607560815022225E-4  
 2.286000000000000E10   -9.097407257740997E-4  -7.907305714525137E-4  
 2.288000000000000E10   -3.091745095957776E-4   2.678160393987383E-5  
 2.290000000000000E10    7.663275082450127E-4  -1.781791762880403E-4  
 2.292000000000000E10    2.381059325671231E-4  -1.257291568890651E-3  
 2.294000000000000E10   -3.005435954719360E-4  -9.620962105145736E-4  
 2.296000000000000E10   -3.902879174120244E-4   8.246447951023583E-4  
 2.298000000000000E10    2.330878359089184E-4   7.629028846167785E-4  
 2.300000000000000E10    7.221032162760821E-4  -5.764767195159948E-4  
 2.302000000000000E10   -2.658986569485933E-4  -6.342032420434407E-4  
 2.304000000000000E10   -1.484853462443425E-3  -5.535870993753633E-4  
 2.306000000000000E10   -1.068762134508461E-4  -3.451344609857188E-4  
 2.308000000000000E10   -2.184863062666409E-4  -3.930661827098447E-4  
 2.310000000000000E10   -6.833678949647037E-5  -5.885949385628919E-4  
 2.312000000000000E10    1.066486398258348E-3  -5.467726917913751E-4  
 2.314000000000000E10    9.431922620706246E-5  -8.349323795755481E-4  
 2.316000000000000E10   -1.223725754698535E-3  -1.650314067660474E-4  
 2.318000000000000E10   -4.469310902095458E-4   8.033872236410389E-4  
 2.320000000000000E10    5.608176287523747E-4   8.136579992878978E-4  
 2.322000000000000E10   -3.039515932101722E-4  -1.393546201597928E-3  
 2.324000000000000E10   -8.974621441666386E-4  -1.048574931473922E-3  
 2.326000000000000E10   -1.282802460536914E-3   3.056755646184683E-4  
 2.328000000000000E10   -5.912094900395459E-5   9.988440545072308E-5  
 2.330000000000000E10    4.731411190732615E-4  -1.081571229519796E-4  
 2.332000000000000E10    1.073120536432271E-5  -1.469117268584341E-4  
 2.334000000000000E10   -2.153218569311832E-4  -4.515801128945896E-4  
 2.336000000000000E10   -5.339015069694142E-4  -1.455235619118867E-4  
 2.338000000000000E10   -1.335859011305729E-3   1.016257789615338E-3  
 2.340000000000000E10   -1.451628172901565E-4   5.737819205933192E-4  
 2.342000000000000E10    6.179942358812696E-4   4.480442732983647E-4  
 2.344000000000000E10   -6.156957158509613E-4  -1.194246384784492E-3  
 2.346000000000000E10   -1.255894055702811E-3  -3.364752756169764E-4  
 2.348000000000000E10   -1.281529175116702E-4   1.395570538079483E-3  
 2.350000000000000E10    9.394040835104534E-4   8.073047724792559E-4  
 2.352000000000000E10    4.647457061537352E-4  -1.299243218646495E-4  
 2.354000000000000E10   -6.081210269712756E-4   5.926718012005949E-4  
 2.356000000000000E10   -3.751863041827619E-4   4.903970939267310E-4  
 2.358000000000000E10   -8.251385777384712E-4   4.537626055025612E-4  
 2.360000000000000E10   -7.407176872220589E-4   6.489869165307027E-4  
 2.362000000000000E10    6.499074872863275E-4   5.867521779236995E-4  
 2.364000000000000E10    7.465352985036589E-4  -5.666540527045072E-4  
 2.366000000000000E10   -3.786014216302647E-4  -6.499426312984724E-4  
 2.368000000000000E10   -4.784900570484751E-4   7.296387984752073E-4  
 2.370000000000000E10    8.055008072460623E-4   2.037079959336552E-3  
 2.372000000000000E10    1.559228765472653E-3   4.723716851913196E-4  
 2.374000000000000E10    2.106886503270289E-4  -5.292047310376802E-4  
 2.376000000000000E10   -1.270362166906125E-3   8.298658328840247E-4  
 2.378000000000000E10   -3.588031836443406E-4   7.665703471957386E-4  
 2.380000000000000E10    3.950858604184759E-4   3.638870871327526E-4  
 2.382000000000000E10    4.613734240592748E-4  -3.458350494156548E-5  
 2.384000000000000E10    1.130686931446689E-3  -4.132206632903035E-4  
 2.386000000000000E10    8.764010008235346E-4  -1.045196817813121E-3  
 2.388000000000000E10   -5.245334502923527E-5   1.640415965340480E-4  
 2.390000000000000E10    6.065588324872806E-4   1.815175964566151E-3  
 2.392000000000000E10    1.378379498419236E-3   5.406153572948824E-4  
 2.394000000000000E10    7.383726012903935E-4  -8.824883382203552E-4  
 2.396000000000000E10   -7.204544722299033E-4  -6.415194261535362E-4  
 2.398000000000000E10   -1.023155034772572E-3   7.112808089004830E-4  
 2.400000000000000E10    6.752514046866054E-4   3.196868110535434E-4  
 2.402000000000000E10    1.312682842581125E-3  -9.436661648578593E-4  
 2.404000000000000E10    3.227285129696611E-4  -1.243831156443775E-3  
 2.406000000000000E10    3.166822315279205E-4  -9.839716603892157E-4  
 2.408000000000000E10    4.938801699836404E-4  -3.591720831082057E-4  
 2.410000000000000E10   -1.077620431494397E-4   6.371796168878063E-4  
 2.412000000000000E10    8.962808353771834E-4   6.820508303917450E-4  
 2.414000000000000E10    1.194667250729253E-3  -5.364939875107666E-4  
 2.416000000000000E10   -6.934267973974784E-4  -8.728404047815275E-4  
 2.418000000000000E10   -1.103342907299520E-3  -3.968449309468269E-4  
 2.420000000000000E10    5.497254562669696E-6   3.914274393537198E-4  
 2.422000000000000E10    3.836182992245085E-4  -3.302675171426017E-4  
 2.424000000000000E10    1.180072911211028E-3  -8.445014098015236E-4  
 2.426000000000000E10    3.348409563841415E-4  -6.682947823719587E-4  
 2.428000000000000E10   -6.631226291347048E-4  -1.064939190882797E-3  
 2.430000000000000E10    2.158725254730598E-5   4.739081092566266E-4  
 2.432000000000000E10   -9.316506637091493E-5   8.380414535622549E-4  
 2.434000000000000E10    6.950668075660360E-4  -4.374713166725996E-4  
 2.436000000000000E10    7.654544674551289E-6  -1.018680599827349E-3  
 2.438000000000000E10   -1.121807958497811E-3  -9.956451158359414E-4  
 2.440000000000000E10   -1.504411998666910E-3   2.792980375554421E-5  
 2.442000000000000E10    1.629298112391098E-4   5.305116590079706E-4  
 2.444000000000000E10    1.046050823788391E-3  -1.947378018485324E-4  
 2.446000000000000E10   -7.385068895615632E-5  -1.473612639529165E-3  
 2.448000000000000E10   -4.052129572755803E-4  -7.192223149559140E-4  
 2.450000000000000E10   -1.021636469658915E-3   2.393722451436986E-4  
 2.452000000000000E10    1.786984904867950E-4   6.479199905697897E-4  
 2.454000000000000E10    5.213855590682215E-4   4.197121918991797E-4  
 2.456000000000000E10    4.614438064436399E-4  -1.125312614021823E-3  
 2.458000000000000E10   -8.508022342539334E-4  -8.740951127492735E-4  
 2.460000000000000E10   -1.236117139796988E-3   2.418307883544912E-4  
 2.462000000000000E10    4.743360221937110E-5   7.791023340359971E-4  
 2.464000000000000E10    8.387289478832827E-4   8.474721477114144E-5  
 2.466000000000000E10    2.568266972957645E-4  -1.225396984864347E-3  
 2.468000000000000E10   -4.842249084049399E-4  -9.157622739621729E-4  
 2.470000000000000E10   -6.743752826423588E-4   2.577591058070539E-4  
 2.472000000000000E10   -1.924358046068164E-5   7.412828535962035E-4  
 2.474000000000000E10    5.964954380033305E-4   2.215681061272790E-4  
 2.476000000000000E10    4.943808330040156E-4  -4.535731339956328E-4  
 2.478000000000000E10   -3.259538935935780E-4  -5.828728255892202E-4  
 2.480000000000000E10   -1.055212571827724E-3   2.089859609100131E-5  
 2.482000000000000E10   -5.186433343169483E-4   7.521569023083430E-4  
 2.484000000000000E10    7.665765645015199E-4   4.337870512927111E-4  
 2.486000000000000E10    7.024549777270295E-4  -6.201616561156698E-4  
 2.488000000000000E10   -4.873851387401373E-4  -1.199105490741204E-3  
 2.490000000000000E10   -7.838332946903392E-4   9.787481162604195E-5  
 2.492000000000000E10   -2.119208797068950E-4   9.822084134611941E-4  
 2.494000000000000E10    8.474354219742963E-4   4.670044271506413E-4  
 2.496000000000000E10    3.123277300574046E-4  -3.952784297212020E-4  
 2.498000000000000E10   -3.194846644873906E-4  -3.412954444002025E-4  
 2.500000000000000E10   -7.265387539518997E-4  -2.434155916830605E-4  
 2.502000000000000E10   -7.027757717423810E-4   9.101352547702390E-5  
 2.504000000000000E10   -1.129955436809382E-4   5.467811907919895E-4  
 2.506000000000000E10    8.572686047045863E-4  -4.101606828044169E-4  
 2.508000000000000E10    6.181636804285517E-4  -8.583670160078327E-4  
 2.510000000000000E10   -1.042141638208705E-3  -6.262471458740038E-4  
 2.512000000000000E10   -6.098940568790567E-4   5.477500732240515E-4  
 2.514000000000000E10    2.938903945732818E-4   1.195311608626071E-3  
 2.516000000000000E10    3.582869700267111E-4  -1.140772870087403E-4  
 2.518000000000000E10   -7.734527522984536E-5  -6.657760013695224E-4  
 2.520000000000000E10   -1.065876013626621E-3  -5.302950598888856E-4  
 2.522000000000000E10   -9.641988835937809E-4   1.425322350740998E-4  
 2.524000000000000E10   -4.130218766817961E-4   2.514182750701366E-4  
 2.526000000000000E10    5.306857226514694E-4  -1.115681831720394E-5  
 2.528000000000000E10    2.803799892490133E-4  -3.669891125355207E-4  
 2.530000000000000E10   -2.794729744550750E-4  -8.261905418294191E-4  
 2.532000000000000E10   -8.261471832611278E-4   5.484439393512730E-4  
 2.534000000000000E10   -7.075151384015044E-4   1.287436595703184E-3  
 2.536000000000000E10    4.796963776243501E-4   8.374468218335096E-4  
 2.538000000000000E10   -5.319395028191565E-5  -2.448499513505453E-4  
 2.540000000000000E10   -1.107021487769089E-3  -4.509589791723556E-4  
 2.542000000000000E10   -1.033466117405624E-3   4.966319381765061E-4  
 2.544000000000000E10   -2.297804470572373E-4   1.095463120009299E-3  
 2.546000000000000E10    2.905542201006028E-4   3.225284822292451E-4  
 2.548000000000000E10    7.085686384016299E-4   1.590118649801298E-4  
 2.550000000000000E10    2.077583076243172E-4   1.349929606391243E-4  
 2.552000000000000E10   -3.005538012530451E-4   1.348492164083837E-4  
 2.554000000000000E10   -3.067083502514834E-4   1.372605876440503E-3  
 2.556000000000000E10    4.250491474522278E-4   1.612656236829935E-3  
 2.558000000000000E10    1.012362325127469E-3  -4.764006116664277E-5  
 2.560000000000000E10   -3.616931455781014E-4  -8.243512936587649E-4  
 2.562000000000000E10   -6.625229957535339E-4   9.597863160237807E-6  
 2.564000000000000E10   -2.970962335524519E-5   1.000588283659454E-3  
 2.566000000000000E10    9.299007547269866E-4   5.888852890620910E-4  
 2.568000000000000E10    1.294143697123218E-3  -2.482831938550589E-4  
 2.570000000000000E10    2.266929400889239E-4  -3.680179214597956E-4  
 2.572000000000000E10   -3.535095210338568E-5   1.333083541794622E-4  
 2.574000000000000E10   -2.378678830794456E-5   8.734786865716160E-4  
 2.576000000000000E10    8.500303113123664E-4   1.007442736408848E-3  
 2.578000000000000E10    1.094595865652082E-3   1.884691681652839E-5  
 2.580000000000000E10    7.441089248914068E-4  -1.030647309562482E-3  
 2.582000000000000E10   -6.120238340372453E-4  -2.822312148964556E-4  
 2.584000000000000E10   -4.837169320808243E-4   3.632198487366622E-4  
 2.586000000000000E10    1.385402874802821E-3   6.872129017665429E-4  
 2.588000000000000E10    1.334685354322573E-3  -1.259144253538125E-4  
 2.590000000000000E10    5.815215488382819E-4  -1.296856343287800E-3  
 2.592000000000000E10   -1.951275164060462E-4   1.643204129209153E-4  
 2.594000000000000E10   -2.090857843768390E-4   2.984216636718884E-4  
 2.596000000000000E10    8.129220987029839E-4   1.989031190774426E-5  
 2.598000000000000E10    7.770371603328385E-4  -2.623700760295833E-4  
 2.600000000000000E10    2.674554954751329E-4  -1.195442207517772E-3  
 2.602000000000000E10    1.213471701273505E-4  -9.359921141367522E-4  
 2.604000000000000E10    1.315995575623674E-5  -2.611776379239927E-4  
 2.606000000000000E10   -1.327771784076504E-4   1.346102265245008E-4  
 2.608000000000000E10    1.030782121688390E-3  -3.493899880524509E-5  
 2.610000000000000E10    9.104846128593636E-4  -4.011786659248173E-4  
 2.612000000000000E10   -7.936480662920076E-4  -1.143714178851951E-3  
 2.614000000000000E10   -5.281983565055270E-4   8.726099392220021E-5  
 2.616000000000000E10   -3.348632781694505E-4   7.738786000572873E-4  
 2.618000000000000E10    3.040327358121431E-4  -5.584436310073215E-4  
 2.620000000000000E10    3.342469050835462E-4  -6.089392913963820E-4  
 2.622000000000000E10   -2.988884683645665E-4  -5.077697570641249E-4  
 2.624000000000000E10   -4.258063069073614E-4  -1.796703452896509E-4  
 2.626000000000000E10   -1.916734993301361E-4   2.905833945874292E-4  
 2.628000000000000E10   -3.531452623519726E-4   1.181947139230033E-3  
 2.630000000000000E10    3.716485143741011E-4  -8.961398494733430E-5  
 2.632000000000000E10    1.537149460659748E-4  -3.060385940898414E-4  
 2.634000000000000E10   -1.621486525436922E-3  -8.250412975030486E-4  
 2.636000000000000E10   -1.002065530428808E-3   4.432224352513003E-4  
 2.638000000000000E10    7.899525110133254E-5   7.366504764831916E-4  
 2.640000000000000E10    7.864839594731166E-4  -1.177597198875446E-3  
 2.642000000000000E10    2.980245922401537E-5  -7.110585283953697E-4  
 2.644000000000000E10   -3.636797437138739E-4   8.233099653409681E-5  
 2.646000000000000E10   -6.703971246224683E-5   6.284103315010725E-4  
 2.648000000000000E10    8.701334377292369E-5   7.336301371196896E-4  
 2.650000000000000E10    4.865717418169879E-4   1.051442357493215E-3  
 2.652000000000000E10    6.080918080186848E-5  -4.364044476687923E-4  
 2.654000000000000E10   -7.318964653677540E-4  -8.778594742580026E-4  
 2.656000000000000E10   -1.300842073760578E-3   2.709271125240775E-4  
 2.658000000000000E10   -1.104677415924016E-4   6.205422569109942E-4  
 2.660000000000000E10    1.096980539841752E-3   2.252016798109935E-5  
 2.662000000000000E10    2.213498910350609E-4  -1.175605130811164E-3  
 2.664000000000000E10   -2.953426678686810E-4  -4.997176722554286E-4  
 2.666000000000000E10   -5.431358779333095E-4   1.202993293190957E-3  
 2.668000000000000E10    2.556726316527147E-5   1.017883720123791E-3  
 2.670000000000000E10    4.011189455468411E-4   3.375467385922093E-4  
 2.672000000000000E10   -2.204049270631003E-4  -1.968961846046113E-4  
 2.674000000000000E10   -5.230332772043767E-4  -5.040630740040797E-4  
 2.676000000000000E10   -8.110703720376478E-4  -3.643482026518541E-4  
 2.678000000000000E10   -3.799074022481364E-4   2.520760904189956E-4  
 2.680000000000000E10    7.609869626321597E-4   1.856317801411933E-4  
 2.682000000000000E10    8.574880025662424E-4  -5.546924148802646E-4  
 2.684000000000000E10   -6.736969538678750E-6  -8.891440552361019E-4  
 2.686000000000000E10   -6.927521408215398E-4   4.938405909342691E-4  
 2.688000000000000E10    1.214845221397809E-5   9.669888377175084E-4  
 2.690000000000000E10    7.326636732614134E-4   3.289707760814054E-4  
 2.692000000000000E10    1.960980201829443E-4  -3.682696035411937E-4  
 2.694000000000000E10   -3.159409855015838E-4  -7.301260657186504E-4  
 2.696000000000000E10   -6.739352879776561E-4  -4.366439334262395E-4  
 2.698000000000000E10   -6.215337111825647E-5   8.050137668647039E-5  
 2.700000000000000E10    1.340932128073291E-4   1.452317432217853E-4  
 2.702000000000000E10    1.096061097996426E-3  -3.170105007939128E-4  
 2.704000000000000E10    2.849057716503012E-4  -5.054550306340389E-4  
 2.706000000000000E10   -6.145292750261433E-4  -4.721470531876548E-4  
 2.708000000000000E10   -2.555635797989453E-4   4.742199153042748E-4  
 2.710000000000000E10    2.802601509301894E-4   8.894335778677487E-4  
 2.712000000000000E10    6.183487589623837E-4  -2.346396935308803E-4  
 2.714000000000000E10    2.058038856489475E-5  -1.108618882426526E-3  
 2.716000000000000E10   -7.668729335819080E-4   8.477831869413421E-5  
 2.718000000000000E10   -6.505750234282459E-4  -1.454452004168161E-4  
 2.720000000000000E10    4.978046895303123E-4   4.446655775609543E-4  
 2.722000000000000E10    3.273600345892191E-4   3.620005934408255E-4  
 2.724000000000000E10    5.482032711370266E-4  -8.166283491846116E-4  
 2.726000000000000E10   -1.305638542135057E-4  -3.756911305572430E-4  
 2.728000000000000E10   -5.886976800866250E-4   1.355137942482543E-5  
 2.730000000000000E10   -6.462665413664581E-5   8.894583461369621E-4  
 2.732000000000000E10    1.117363282901351E-3   2.534812782641893E-4  
 2.734000000000000E10    4.869386184509494E-4  -4.286692912955914E-4  
 2.736000000000000E10   -7.573948200843006E-4  -8.370845880563138E-4  
 2.738000000000000E10   -2.035600323324616E-4   5.296028471093450E-4  
 2.740000000000000E10    5.756659574274181E-5   3.806835092063921E-4  
 2.742000000000000E10    8.144939574776799E-4   3.065402077027102E-4  
 2.744000000000000E10    3.505570714423811E-4  -1.125186032169268E-5  
 2.746000000000000E10    6.277594815173870E-5  -5.752501247116015E-4  
 2.748000000000000E10   -4.527500336735102E-4   4.476385478824341E-5  
 2.750000000000000E10   -5.067912697995780E-4   5.644723878504010E-4  
 2.752000000000000E10    7.679230075154919E-4   4.978737911187636E-4  
 2.754000000000000E10    6.507110033453500E-4  -7.925479822006309E-4  
 2.756000000000000E10   -3.270150975822617E-4  -7.628372422914254E-4  
