#  HZ   S   RI   R     50.00 
! Rohde & Schwarz ZVA40 4Ports - Version 3.90 - 1145.1110k42 SN: 100403
! Date: 2023-10-04 06:43:28
! Measurement: S12 
! 
 2.200000000000000E10   -4.930309769406449E-4   6.953595266168122E-5  
 2.202000000000000E10   -2.059460903183208E-4   2.980545541504398E-4  
 2.204000000000000E10    9.097741167352069E-4  -3.500274069665466E-4  
 2.206000000000000E10   -2.175301456190937E-4  -5.624267432722263E-4  
 2.208000000000000E10   -7.552688657597173E-4   1.734136803861475E-4  
 2.210000000000000E10    1.191465499061906E-5   1.003442871478910E-4  
 2.212000000000000E10   -3.183439539498068E-4  -4.679464345827000E-4  
 2.214000000000000E10   -7.399296337098349E-4   4.671813021559501E-4  
 2.216000000000000E10    1.794599802451558E-4  -2.406030409929372E-4  
 2.218000000000000E10    1.339015916528297E-4  -1.028245220368262E-3  
 2.220000000000000E10   -1.161382730060723E-3  -8.412017814407591E-4  
 2.222000000000000E10   -2.538577118684771E-4   8.226016252592672E-4  
 2.224000000000000E10    7.882183017500211E-4   1.076415246643592E-3  
 2.226000000000000E10    7.225891276902985E-4  -7.166729556047358E-4  
 2.228000000000000E10   -5.368199908843963E-4   9.039314841174928E-5  
 2.230000000000000E10   -1.105047143937554E-3   5.941329800407402E-4  
 2.232000000000000E10    3.692056689033052E-4   6.220332834345754E-4  
 2.234000000000000E10    2.911184765252983E-5  -1.037661195368855E-4  
 2.236000000000000E10   -6.477012066170573E-4   8.742764566704864E-5  
 2.238000000000000E10    1.654787119775847E-5   3.809064601227874E-4  
 2.240000000000000E10    6.511380815936718E-4  -6.291129648161586E-4  
 2.242000000000000E10   -8.781339383858722E-4  -4.641570342300838E-5  
 2.244000000000000E10   -1.683575360402756E-4   6.767089726054110E-4  
 2.246000000000000E10    1.143755631346721E-3   5.742230423493311E-4  
 2.248000000000000E10    2.208944279118441E-4  -6.526440338348039E-4  
 2.250000000000000E10   -9.371093474328518E-4   2.361840313369612E-5  
 2.252000000000000E10   -5.497240490512922E-4   4.950580096192425E-4  
 2.254000000000000E10    5.458478462969651E-4   3.438924250076525E-4  
 2.256000000000000E10    1.503364060226886E-4  -7.142251706682146E-4  
 2.258000000000000E10    1.774141458099621E-4  -4.308713105274364E-4  
 2.260000000000000E10    1.549635794617643E-4   5.677576318703359E-4  
 2.262000000000000E10    4.771706153405830E-4  -4.941905517625855E-4  
 2.264000000000000E10    1.674424183875090E-4   3.155090707878117E-4  
 2.266000000000000E10   -1.947136306625907E-4   7.629010760865640E-4  
 2.268000000000000E10    9.721846145112068E-4   2.719380586313491E-5  
 2.270000000000000E10   -7.865476482038503E-5  -1.059213231201284E-3  
 2.272000000000000E10   -9.429912061023060E-4  -6.234703778318362E-4  
 2.274000000000000E10   -4.727943942270940E-4   7.854864161345176E-4  
 2.276000000000000E10    1.137584309617523E-3   1.982490794034675E-4  
 2.278000000000000E10    4.886518745479407E-4  -7.590331370010972E-4  
 2.280000000000000E10   -2.293030643727434E-4  -8.626221315353178E-4  
 2.282000000000000E10    1.331628418483888E-4   2.357676448809798E-4  
 2.284000000000000E10   -3.499167105474044E-4   2.259582283841155E-4  
 2.286000000000000E10   -1.408827663453849E-4   1.909816000988940E-5  
 2.288000000000000E10   -4.334067307354417E-5   6.446030365623301E-4  
 2.290000000000000E10    2.086660470013158E-5  -4.934487751597771E-4  
 2.292000000000000E10   -4.695395691669546E-4  -8.645599846204277E-4  
 2.294000000000000E10   -1.155978228780441E-3   1.236285986578878E-4  
 2.296000000000000E10   -1.428940058758599E-4   8.379538448934909E-4  
 2.298000000000000E10    1.204419386340305E-3   3.056435976755978E-5  
 2.300000000000000E10    4.912873896500969E-5  -9.505308080406394E-4  
 2.302000000000000E10   -1.451268304663245E-3   4.274032053217525E-4  
 2.304000000000000E10   -5.215411711105844E-4   9.679038557806052E-4  
 2.306000000000000E10    4.133446618652670E-4   8.854750267346390E-4  
 2.308000000000000E10   -8.358033983313362E-5  -3.816703338088701E-5  
 2.310000000000000E10   -4.027435970783699E-4   9.267309133065282E-5  
 2.312000000000000E10   -2.972391748699010E-4   6.806530433323133E-5  
 2.314000000000000E10   -5.410758967627771E-4   2.495349997388985E-4  
 2.316000000000000E10   -2.352595884076436E-4   8.937160018831492E-4  
 2.318000000000000E10    1.059026850271039E-3   3.919817991118180E-4  
 2.320000000000000E10    6.203096381796058E-4  -5.695017716789153E-4  
 2.322000000000000E10   -3.586657348932931E-4  -5.750851487391628E-4  
 2.324000000000000E10   -9.012513619381934E-4   1.156855985755101E-3  
 2.326000000000000E10    3.474566365184728E-4   1.286968567001168E-3  
 2.328000000000000E10    1.261609701032285E-3  -1.352552735625068E-4  
 2.330000000000000E10    3.190949091731454E-4  -1.250048648216762E-3  
 2.332000000000000E10   -4.342844113125466E-4   7.660312110147061E-5  
 2.334000000000000E10    3.015689135281718E-4   6.036613012838643E-4  
 2.336000000000000E10    6.070955932955258E-4   1.699758736322110E-4  
 2.338000000000000E10    3.552743482941878E-4   3.253318445786135E-4  
 2.340000000000000E10    8.264727475761902E-4  -1.552191042719642E-4  
 2.342000000000000E10    2.399665390839800E-4  -9.350620202894788E-4  
 2.344000000000000E10   -8.786293255980127E-4  -2.292501039846684E-4  
 2.346000000000000E10   -1.073168555194570E-4   1.180609106086195E-3  
 2.348000000000000E10    1.420554632204585E-3   5.079741840745555E-4  
 2.350000000000000E10    1.074047446309123E-3  -1.283787380089052E-3  
 2.352000000000000E10   -4.019562547910027E-4  -6.351846459438093E-4  
 2.354000000000000E10   -2.224175627816294E-4   3.288843727204949E-4  
 2.356000000000000E10    8.400329679716379E-4   5.881717661395669E-4  
 2.358000000000000E10    4.792235631612130E-4  -1.418005638242903E-4  
 2.360000000000000E10    6.868227064842358E-4  -4.747383718495257E-4  
 2.362000000000000E10    1.719617612252478E-4  -3.471324052952696E-4  
 2.364000000000000E10   -3.302008080936503E-4  -6.814008738729172E-4  
 2.366000000000000E10   -5.369567879824899E-4  -1.075804921129020E-4  
 2.368000000000000E10    1.160083735385342E-4   4.392915725475177E-4  
 2.370000000000000E10    1.210189540870488E-3  -5.755349338869564E-4  
 2.372000000000000E10    1.506346015958116E-4  -1.579517469508573E-3  
 2.374000000000000E10   -1.271037152037025E-3  -5.025056525482796E-4  
 2.376000000000000E10   -2.294775440532249E-4   8.899012827896513E-4  
 2.378000000000000E10    9.131220867857337E-4   1.667594738137268E-4  
 2.380000000000000E10    2.515527230571024E-4  -9.161490015685558E-4  
 2.382000000000000E10   -5.143439593666699E-4  -5.219596496317536E-4  
 2.384000000000000E10   -8.252413244917989E-4  -3.845039900625125E-4  
 2.386000000000000E10   -5.868732878298033E-4  -2.320350140507799E-4  
 2.388000000000000E10   -1.748605500324629E-4   1.782043600542238E-4  
 2.390000000000000E10    1.780648726708023E-4   7.193806595751084E-6  
 2.392000000000000E10    2.246910116809886E-4  -1.173061158624478E-3  
 2.394000000000000E10   -5.551268186536618E-4  -8.775906899245456E-4  
 2.396000000000000E10   -1.331129431491718E-3   7.095731343724765E-4  
 2.398000000000000E10    1.537638090667315E-4   9.247104680980556E-4  
 2.400000000000000E10    1.008448176435195E-3   1.633100623621431E-4  
 2.402000000000000E10   -8.080819316091947E-4  -6.357185920933262E-4  
 2.404000000000000E10   -1.266332183149643E-3  -1.814027336877189E-5  
 2.406000000000000E10   -7.634813810000196E-4   8.692462506587617E-4  
 2.408000000000000E10   -2.394871935393894E-4   3.675891275634058E-4  
 2.410000000000000E10    6.607695031561889E-4  -5.983272021694575E-4  
 2.412000000000000E10    2.122767709806794E-4  -4.084241772943642E-4  
 2.414000000000000E10   -8.075304285739549E-4  -2.561307046562433E-4  
 2.416000000000000E10   -9.245257751899771E-4   9.940426461980678E-4  
 2.418000000000000E10    5.855042327311821E-4   1.577615053975023E-3  
 2.420000000000000E10    3.298714054835727E-4   6.956229190109298E-4  
 2.422000000000000E10   -1.919846425835203E-5  -7.889100379543379E-4  
 2.424000000000000E10   -1.444597713998519E-3  -3.418261985643767E-4  
 2.426000000000000E10   -1.473835363867693E-3   6.217908157850616E-4  
 2.428000000000000E10    3.455817568465136E-4   6.893799509271048E-4  
 2.430000000000000E10    8.887309813871980E-4   2.145167909475276E-4  
 2.432000000000000E10   -1.826999696277198E-4  -8.400461083510891E-4  
 2.434000000000000E10    7.868879174566246E-5  -1.863304896687623E-4  
 2.436000000000000E10   -4.507581979851238E-4   6.840672140242532E-4  
 2.438000000000000E10   -7.885627951509378E-5   8.961262428783812E-4  
 2.440000000000000E10    8.331067438120954E-4   1.045850687660277E-3  
 2.442000000000000E10    5.131720827193931E-4  -3.447776307439199E-4  
 2.444000000000000E10   -4.865413939114660E-4  -6.464310790761374E-4  
 2.446000000000000E10   -6.884166359668598E-4   2.985148130392190E-4  
 2.448000000000000E10    2.960955589514924E-4   5.866567080374807E-4  
 2.450000000000000E10    5.740751439589076E-4   2.683080365386559E-4  
 2.452000000000000E10    8.593409365857951E-4  -1.361985523544718E-4  
 2.454000000000000E10    2.138387390004937E-4  -2.668147972144652E-4  
 2.456000000000000E10   -2.153979385184357E-4  -3.377015644900894E-5  
 2.458000000000000E10   -6.436570693040267E-4   8.835049084154889E-4  
 2.460000000000000E10    2.108055159624200E-4   9.791728734853678E-4  
 2.462000000000000E10    7.117204513633624E-4   1.624411083867017E-5  
 2.464000000000000E10   -3.464115488895914E-4  -6.499316004919820E-4  
 2.466000000000000E10   -8.143379745888524E-4  -3.317834489280358E-4  
 2.468000000000000E10   -7.275278039742261E-4   8.022816109587438E-4  
 2.470000000000000E10    3.314189852972049E-4   6.082154795876704E-4  
 2.472000000000000E10    9.943166660377756E-4  -1.343224498668860E-4  
 2.474000000000000E10   -1.412397650710773E-4  -6.804205113439821E-4  
 2.476000000000000E10   -7.739225911791436E-4   3.236524844396627E-4  
 2.478000000000000E10   -3.894742731063161E-4   8.568605917389505E-4  
 2.480000000000000E10   -3.261237980041187E-4   9.498657454969361E-4  
 2.482000000000000E10    4.726974912045989E-4   2.794419451674912E-4  
 2.484000000000000E10    1.589925086591393E-4  -6.671569644822739E-4  
 2.486000000000000E10   -1.221914717461914E-3  -6.310136086540297E-4  
 2.488000000000000E10   -6.442866651923396E-4   4.082287014171016E-4  
 2.490000000000000E10    5.226618159213103E-4   9.964427299564704E-4  
 2.492000000000000E10    1.409565273206681E-3  -1.087741111405194E-4  
 2.494000000000000E10    4.985893247066997E-4  -1.027022051857784E-3  
 2.496000000000000E10   -1.029595230647828E-3   1.385055170430860E-4  
 2.498000000000000E10   -3.302165569039062E-4   1.142571549280547E-3  
 2.500000000000000E10    5.755786332883872E-4   1.366813085041940E-3  
 2.502000000000000E10    3.829416964435950E-4   2.122366695402889E-4  
 2.504000000000000E10   -3.119568900729064E-4  -4.972119604644831E-4  
 2.506000000000000E10   -6.958904050407000E-4  -4.196938170935027E-4  
 2.508000000000000E10   -7.400507747661322E-4   5.231973664194811E-4  
 2.510000000000000E10   -5.581307368629496E-5   7.370272141997702E-4  
 2.512000000000000E10    1.160592335509136E-3   3.857938645523973E-4  
 2.514000000000000E10    7.914513407740742E-4  -1.474265136494068E-4  
 2.516000000000000E10   -1.229366625921102E-4  -6.391831702785566E-4  
 2.518000000000000E10   -5.567237494688015E-4   1.161653752205893E-3  
 2.520000000000000E10    2.871945580409374E-4   1.736845268169418E-3  
 2.522000000000000E10    1.401125919073820E-3   4.572270809148904E-4  
 2.524000000000000E10    3.929791855625808E-4  -5.043310738983564E-4  
 2.526000000000000E10   -5.401030684879515E-4  -4.501879375311546E-4  
 2.528000000000000E10   -1.435374579159543E-4   2.651573977345834E-4  
 2.530000000000000E10    3.653126295830589E-4   3.922237046936061E-4  
 2.532000000000000E10    8.754878945183009E-4   2.588790703157429E-4  
 2.534000000000000E10    1.230106863658875E-3  -2.666727177711437E-4  
 2.536000000000000E10    4.025150956294965E-4  -5.791278017568402E-4  
 2.538000000000000E10   -4.645358130801469E-4  -2.464547760610003E-4  
 2.540000000000000E10   -2.325909717910690E-4   1.038745307596400E-3  
 2.542000000000000E10    1.017816335661337E-3   5.853205511812121E-4  
 2.544000000000000E10    1.042739684635308E-3  -8.635479825898074E-4  
 2.546000000000000E10   -2.243380131403683E-4  -1.186697729281150E-3  
 2.548000000000000E10   -4.511179286055267E-4  -1.158130635303678E-5  
 2.550000000000000E10    2.130408993252786E-4   3.805136257142294E-4  
 2.552000000000000E10    1.315409579547122E-3  -2.395704314039904E-4  
 2.554000000000000E10    6.062882966944017E-4  -7.956873814691789E-4  
 2.556000000000000E10   -2.383650553383632E-5  -1.022845244733617E-3  
 2.558000000000000E10   -3.887423590640537E-4  -4.250268430041615E-4  
 2.560000000000000E10   -1.327251284237718E-4  -8.849265395838302E-5  
 2.562000000000000E10    3.468535214778967E-4  -1.935898580995854E-4  
 2.564000000000000E10    4.700555036833976E-4  -1.012342858302873E-3  
 2.566000000000000E10    1.101233228837373E-4  -1.519743207609281E-3  
 2.568000000000000E10   -6.004049646435306E-4  -6.012035810272209E-4  
 2.570000000000000E10   -5.602693927357905E-4   9.019771579232838E-5  
 2.572000000000000E10    4.705421415565070E-4  -9.095462530694931E-5  
 2.574000000000000E10    5.963405565125868E-4  -4.937715930282138E-4  
 2.576000000000000E10   -2.638332898641238E-4  -1.271498287678696E-3  
 2.578000000000000E10   -7.973259562277235E-4  -4.984320912626572E-4  
 2.580000000000000E10   -1.002395794785116E-3  -2.056145785900299E-4  
 2.582000000000000E10   -2.759518793027382E-4  -4.676628441302455E-5  
 2.584000000000000E10    2.926881461462472E-5  -2.410164688626537E-4  
 2.586000000000000E10    5.925089908487280E-5  -1.038037182297558E-3  
 2.588000000000000E10   -9.120567119680345E-4  -9.146807278739288E-4  
 2.590000000000000E10   -8.917997838580050E-4  -1.101497264244244E-5  
 2.592000000000000E10   -1.691405186647899E-4   1.103031187085435E-3  
 2.594000000000000E10    6.292665639193729E-4  -4.827520183425804E-5  
 2.596000000000000E10    2.129472595697735E-4  -7.774074983899482E-4  
 2.598000000000000E10   -1.424371876055375E-3  -5.874107446288690E-4  
 2.600000000000000E10   -1.290394124225713E-3   3.121024237771053E-4  
 2.602000000000000E10   -7.973579249664908E-5   5.222709223744460E-4  
 2.604000000000000E10    3.534967654559296E-4  -1.704607002466219E-4  
 2.606000000000000E10    2.229188503406476E-4  -5.281736594042741E-4  
 2.608000000000000E10   -3.234080177207943E-4  -5.169702380953822E-4  
 2.610000000000000E10   -9.156967062153854E-4  -4.248739833201398E-5  
 2.612000000000000E10   -4.007899187854491E-4   8.629527874290943E-4  
 2.614000000000000E10    7.098783098626882E-4   1.593757930095308E-3  
 2.616000000000000E10    4.233469098835485E-4  -5.181007509236224E-4  
 2.618000000000000E10   -1.314971028477885E-3  -9.690355509519577E-4  
 2.620000000000000E10   -1.558558564283885E-3   4.288129603082780E-4  
 2.622000000000000E10   -2.702874317037640E-4   6.424875755328685E-4  
 2.624000000000000E10    6.445241961046122E-4  -1.042816661538382E-4  
 2.626000000000000E10    5.418079344963189E-4  -8.928412935347296E-4  
 2.628000000000000E10   -2.062308540189406E-4  -1.913244650495471E-4  
 2.630000000000000E10   -1.320565506830462E-4   2.341545114177279E-4  
 2.632000000000000E10   -2.468586080794921E-4   7.782650209264830E-4  
 2.634000000000000E10    1.421532397216652E-4   5.715905062970705E-4  
 2.636000000000000E10    5.517516437976155E-4   1.489102460254799E-4  
 2.638000000000000E10   -4.106977758056019E-4  -6.704326006001793E-4  
 2.640000000000000E10   -1.065999807906337E-3  -6.470473963418044E-4  
 2.642000000000000E10   -8.431844180449843E-4   8.281124755740166E-4  
 2.644000000000000E10    5.389829966588877E-4   2.810172081808560E-4  
 2.646000000000000E10    8.560242495150305E-4  -6.844985255156644E-4  
 2.648000000000000E10   -6.051531107686969E-5  -5.044392164563760E-4  
 2.650000000000000E10    5.823002584293135E-5   9.394185099154129E-5  
 2.652000000000000E10    1.699162094155327E-4   8.814223911031149E-4  
 2.654000000000000E10   -1.207942168548470E-4   6.400640922947787E-4  
 2.656000000000000E10    5.933014690526761E-4   3.902266143995803E-4  
 2.658000000000000E10   -4.206154881103430E-4  -2.972658585349564E-4  
 2.660000000000000E10   -6.037083003320731E-4  -7.015901355771348E-4  
 2.662000000000000E10   -7.038235780782998E-4   1.975911794716012E-5  
 2.664000000000000E10    2.885355206672102E-4   6.054273035260849E-4  
 2.666000000000000E10    1.260033386643045E-3  -8.005739255168010E-5  
 2.668000000000000E10    9.051586966961622E-4  -8.522225980414078E-4  
 2.670000000000000E10   -4.075438992003910E-4  -1.214177991641918E-4  
 2.672000000000000E10   -2.583315508672968E-4   7.967323181219399E-4  
 2.674000000000000E10    2.320949788554572E-4   9.862801816780120E-4  
 2.676000000000000E10    3.660621623566840E-4   3.042186508537270E-4  
 2.678000000000000E10   -1.099696332858002E-4  -3.594803347368725E-4  
 2.680000000000000E10   -5.371126917452784E-5  -5.230379574641120E-4  
 2.682000000000000E10   -7.988347206264734E-4  -1.774266456777696E-4  
 2.684000000000000E10    2.061029717879137E-4   5.343654702301137E-4  
 2.686000000000000E10    9.937118884408847E-4   5.012575347791426E-4  
 2.688000000000000E10    1.105106086470187E-3  -7.444752554874867E-4  
 2.690000000000000E10    1.332400270257494E-4  -2.354063253733330E-4  
 2.692000000000000E10   -9.600187695468776E-4   5.577852934948169E-4  
 2.694000000000000E10    1.098152242775541E-4   1.110503231757321E-3  
 2.696000000000000E10    6.433083035517484E-4   5.197277678234968E-4  
 2.698000000000000E10    1.755811663315399E-4  -4.802356488653459E-4  
 2.700000000000000E10   -6.231855950318277E-4  -8.561878203181550E-4  
 2.702000000000000E10   -3.582856152206659E-4   1.808596571208909E-4  
 2.704000000000000E10   -7.985251090758538E-5   5.125373063492589E-4  
 2.706000000000000E10    7.003630234976299E-4   5.016895956941880E-4  
 2.708000000000000E10    1.145252012065612E-3   2.287558345415164E-4  
 2.710000000000000E10   -2.383363062108401E-4  -5.242900297162123E-4  
 2.712000000000000E10   -7.160359455156140E-4  -1.300291330608161E-5  
 2.714000000000000E10   -4.370391579868738E-4   1.384491653880104E-3  
 2.716000000000000E10    2.667746848601382E-4   3.006385595654137E-4  
 2.718000000000000E10    6.008881900925189E-4  -6.188223196659237E-4  
 2.720000000000000E10   -3.471399177215062E-4  -7.439931359840557E-4  
 2.722000000000000E10   -6.344619541778229E-4  -1.851622801041231E-4  
 2.724000000000000E10    4.510687285801396E-4   3.173037039232440E-4  
 2.726000000000000E10    6.654725075350143E-4   4.335196645115502E-4  
 2.728000000000000E10    6.150855260784738E-4  -1.580105456469028E-4  
 2.730000000000000E10    4.049165090691531E-4  -2.033157907135319E-4  
 2.732000000000000E10   -7.354594199568965E-4  -2.278107604070101E-4  
 2.734000000000000E10   -7.155746206990443E-4   2.566410603321856E-4  
 2.736000000000000E10    3.532357618496462E-5   6.274696424952708E-4  
 2.738000000000000E10    5.067636884632520E-4  -1.864820133050671E-4  
 2.740000000000000E10    2.989194908877835E-4  -1.100757566746324E-3  
 2.742000000000000E10   -4.912833246635273E-4  -3.985232324339449E-4  
 2.744000000000000E10   -5.086579985800199E-4   2.377842411078746E-4  
 2.746000000000000E10    5.468192284752149E-4   1.560696709930198E-4  
 2.748000000000000E10    5.661273899022490E-4  -8.715542298887158E-5  
 2.750000000000000E10    9.980315917346161E-5  -6.624008601647802E-4  
 2.752000000000000E10    4.180775863460440E-5  -2.794496977003291E-4  
 2.754000000000000E10   -6.637794867856428E-4   5.105929903947981E-5  
 2.756000000000000E10   -2.969359702547081E-4   6.822226278018206E-4  
