#  HZ   S   RI   R     50.00 
! Rohde & Schwarz ZVA40 4Ports - Version 3.90 - 1145.1110k42 SN: 100403
! Date: 2023-10-04 06:41:47
! Measurement: S12 
! 
 2.200000000000000E10   -6.931614188943058E-4   1.757995414664038E-5  
 2.202000000000000E10   -1.042541607603198E-4   6.786074009141885E-4  
 2.204000000000000E10   -1.289496840399806E-4   2.684201808733633E-4  
 2.206000000000000E10   -1.861808541434584E-4   4.236802931245620E-5  
 2.208000000000000E10   -6.488231861112581E-6   1.859514327406941E-4  
 2.210000000000000E10    2.477261150488630E-4   2.072180013783509E-4  
 2.212000000000000E10   -2.502247771190014E-4  -4.401687074278016E-4  
 2.214000000000000E10   -3.376576605660375E-4  -1.093484470402473E-4  
 2.216000000000000E10   -1.752287644194439E-4   8.653052136651240E-4  
 2.218000000000000E10    1.057759523973800E-3   1.354304204141954E-4  
 2.220000000000000E10    3.894924302585423E-4  -3.656706503534224E-4  
 2.222000000000000E10   -1.048940917826258E-3  -2.692559301067377E-4  
 2.224000000000000E10   -3.626260076998733E-4   7.753968675388023E-4  
 2.226000000000000E10    9.707717690616846E-4   2.929405854956713E-4  
 2.228000000000000E10    1.982958452231287E-4  -4.638495520339347E-4  
 2.230000000000000E10   -2.076444998238003E-4  -4.117352327739354E-4  
 2.232000000000000E10    2.087611812271462E-4   4.383652449178044E-4  
 2.234000000000000E10   -4.540215995803010E-4  -2.914324795710854E-4  
 2.236000000000000E10   -6.443829843192361E-4   1.774551219568821E-5  
 2.238000000000000E10    1.221637103299145E-5   2.132346598955337E-4  
 2.240000000000000E10    5.457416882563848E-4  -5.681588118022773E-4  
 2.242000000000000E10   -2.681412688616547E-4  -1.184409658890218E-3  
 2.244000000000000E10   -4.057075275341049E-4  -2.923650317825377E-4  
 2.246000000000000E10   -1.951729491338483E-4   7.986675846041180E-4  
 2.248000000000000E10    1.142118926509284E-3  -1.550391198179568E-4  
 2.250000000000000E10    2.919653343269602E-4  -4.833985876757652E-4  
 2.252000000000000E10   -9.877203410724178E-4   1.363943511023535E-5  
 2.254000000000000E10   -3.503532680042554E-4   8.537823669030331E-4  
 2.256000000000000E10   -3.525700922182296E-4   3.354280961502809E-4  
 2.258000000000000E10   -8.606191840954125E-4  -2.143855390386307E-4  
 2.260000000000000E10   -3.931902429030743E-4   3.673030842037406E-4  
 2.262000000000000E10    3.823640099653858E-5  -3.684419571072795E-4  
 2.264000000000000E10   -2.870445205189753E-4  -6.851669386378489E-4  
 2.266000000000000E10   -1.046023113303818E-3   3.107739612460136E-4  
 2.268000000000000E10    2.065381413558498E-4   1.415234175510705E-3  
 2.270000000000000E10    6.263575487537310E-4   1.342316354566719E-4  
 2.272000000000000E10   -1.417200455762213E-4  -8.470614557154477E-4  
 2.274000000000000E10   -9.368929750053212E-4   5.945235316175968E-4  
 2.276000000000000E10   -8.080206971499138E-4   7.934479654068127E-4  
 2.278000000000000E10    3.401915273570921E-4  -1.621912615519250E-4  
 2.280000000000000E10   -1.452858485890829E-4  -4.146831929574546E-5  
 2.282000000000000E10   -4.299988904676866E-4  -4.265810650849744E-5  
 2.284000000000000E10    3.460764892224688E-4  -1.307928387177526E-4  
 2.286000000000000E10    6.941562065776452E-5   2.407806769042509E-4  
 2.288000000000000E10   -6.175934686325491E-4   6.313494523055852E-4  
 2.290000000000000E10    8.064370995271020E-4   6.657982448814437E-4  
 2.292000000000000E10    8.176805858965963E-4  -3.465404515736736E-4  
 2.294000000000000E10   -8.682838379172608E-4  -8.341616994584911E-4  
 2.296000000000000E10   -3.443736968620215E-4   5.324722478690092E-4  
 2.298000000000000E10    6.065954439691268E-4   1.045166311087087E-3  
 2.300000000000000E10    1.013727436657064E-3  -2.427635517960880E-4  
 2.302000000000000E10    5.441680332296528E-4  -9.001844737213105E-4  
 2.304000000000000E10    6.487230461971194E-5   7.718138840573374E-5  
 2.306000000000000E10    1.382091159030097E-5   1.754910608724458E-4  
 2.308000000000000E10    3.626463985710871E-4   1.970960420294432E-4  
 2.310000000000000E10    9.892069829220418E-5   2.236222862848081E-4  
 2.312000000000000E10    7.430928235407919E-4  -7.773015167913400E-4  
 2.314000000000000E10    3.410399731365033E-4  -1.320333845796995E-3  
 2.316000000000000E10   -1.022494354401715E-3  -8.042450645007193E-4  
 2.318000000000000E10   -1.434859996152227E-4   6.036522972863168E-4  
 2.320000000000000E10    1.348730525933206E-3   4.125090090383310E-4  
 2.322000000000000E10    1.013394488836639E-3  -1.134511621785350E-3  
 2.324000000000000E10   -9.511458993074484E-4  -1.396772597217932E-3  
 2.326000000000000E10   -5.768313785665669E-4   3.904002696799580E-4  
 2.328000000000000E10    7.984903959368239E-5   7.971726954565384E-4  
 2.330000000000000E10    9.166561540041585E-5  -2.347535319131566E-4  
 2.332000000000000E10    3.247399072279222E-4  -6.882286543259397E-4  
 2.334000000000000E10   -5.170445583644323E-4  -1.006733007670846E-3  
 2.336000000000000E10   -6.739823293173686E-4  -7.047699182294309E-4  
 2.338000000000000E10   -6.678704739897512E-4   2.847438627213705E-4  
 2.340000000000000E10    2.129028284798551E-4   5.857089054188691E-4  
 2.342000000000000E10    9.350308391731232E-4  -2.505292459318298E-4  
 2.344000000000000E10   -4.375925491331145E-4  -9.942818142008036E-4  
 2.346000000000000E10   -1.507613444118761E-3  -1.572780511196470E-4  
 2.348000000000000E10   -7.416261141770519E-4   1.141982414992526E-3  
 2.350000000000000E10    4.585304450301919E-4   4.741109114547726E-4  
 2.352000000000000E10    9.282190603698837E-6  -9.730395177030005E-4  
 2.354000000000000E10   -8.181087032426149E-4  -3.903034921677318E-4  
 2.356000000000000E10   -8.718409517314285E-4   3.007318155141547E-4  
 2.358000000000000E10    1.742790486503054E-5   2.798447567329276E-4  
 2.360000000000000E10    5.530982116397354E-5   2.730176183831645E-4  
 2.362000000000000E10    2.311415773874614E-4   4.180210307822563E-4  
 2.364000000000000E10   -1.214458861795720E-4  -4.387897060951218E-4  
 2.366000000000000E10   -1.126729854149744E-3  -3.349092803546228E-4  
 2.368000000000000E10   -1.010218904411886E-3   6.282211397774518E-4  
 2.370000000000000E10    6.319353706203401E-4   9.589364344719797E-4  
 2.372000000000000E10    8.455834395135753E-4  -4.108547254872974E-4  
 2.374000000000000E10   -1.606222249392886E-4  -9.708930956549011E-4  
 2.376000000000000E10   -8.596399929956533E-4   1.631519717193442E-4  
 2.378000000000000E10   -6.741712695657043E-5   1.325503209955059E-3  
 2.380000000000000E10    9.196010287269019E-4   6.453950481954962E-4  
 2.382000000000000E10    3.383090770512354E-4  -3.846379840979353E-4  
 2.384000000000000E10   -4.837796295760199E-4   1.997605195356300E-4  
 2.386000000000000E10   -9.098551254282938E-5   5.413516646513017E-6  
 2.388000000000000E10   -7.266439424711280E-4   1.616045683476841E-4  
 2.390000000000000E10   -3.736453254532535E-4   5.398939683800563E-4  
 2.392000000000000E10    1.212277376907878E-3   3.653492058219854E-4  
 2.394000000000000E10    2.042721644102130E-4  -1.187801768537611E-3  
 2.396000000000000E10   -7.402529154205695E-4  -5.870366658200510E-4  
 2.398000000000000E10   -7.475164675270207E-4   1.182214706204832E-3  
 2.400000000000000E10    6.956057259230875E-4   9.182687936117873E-4  
 2.402000000000000E10    7.348078797804192E-4  -3.882214077748358E-4  
 2.404000000000000E10   -1.336781897407491E-4  -2.226382630396984E-4  
 2.406000000000000E10   -7.599952587042935E-4   3.404924609640148E-4  
 2.408000000000000E10   -1.158368771143614E-4   4.911401047138497E-4  
 2.410000000000000E10   -1.735601040309120E-5   8.293797072838061E-4  
 2.412000000000000E10    5.040829782956280E-4   3.884019351971801E-4  
 2.414000000000000E10    1.065509190084413E-3  -5.915244328207336E-4  
 2.416000000000000E10    1.020132576741162E-4  -8.602153538959101E-4  
 2.418000000000000E10   -6.273127073654905E-4   1.943672086781589E-4  
 2.420000000000000E10    4.942220875818748E-4   7.712870719842613E-4  
 2.422000000000000E10    1.491490402258933E-3   8.239016024162993E-4  
 2.424000000000000E10    7.771222662995569E-4  -8.755802919040434E-4  
 2.426000000000000E10   -1.209831793858029E-4  -3.914958979294170E-4  
 2.428000000000000E10   -7.169311720645055E-4   4.518509376794100E-4  
 2.430000000000000E10   -1.288333942284226E-5   4.609701136359945E-4  
 2.432000000000000E10    7.678116962779313E-4   1.126916395151056E-4  
 2.434000000000000E10    7.905803140602075E-4  -4.423130303621292E-4  
 2.436000000000000E10   -3.703115507960320E-4  -1.042182702803984E-3  
 2.438000000000000E10   -2.938516263384372E-4   5.136625077284407E-6  
 2.440000000000000E10   -1.933821008606174E-4   1.178579710540362E-3  
 2.442000000000000E10    1.275052723940462E-3   4.574983104248531E-4  
 2.444000000000000E10    7.247783578350209E-4  -4.865419105044566E-4  
 2.446000000000000E10   -6.093356569181196E-4  -9.556788936606608E-4  
 2.448000000000000E10   -1.264220845769160E-3   4.035889614897315E-4  
 2.450000000000000E10    3.916774130630074E-5   4.009779440821149E-4  
 2.452000000000000E10    5.217738471401390E-4  -2.329640665266197E-6  
 2.454000000000000E10    5.033470297348686E-4  -1.093639366445132E-3  
 2.456000000000000E10   -1.004931350507832E-4  -6.865374380140565E-4  
 2.458000000000000E10   -6.261556482058950E-4  -5.292609312164132E-4  
 2.460000000000000E10    2.726962475207984E-5   9.168962787953205E-4  
 2.462000000000000E10    6.341494299704209E-4   9.321699180873111E-4  
 2.464000000000000E10    1.311894651735202E-3  -7.029441330814734E-4  
 2.466000000000000E10   -4.724430436908733E-4  -6.330730757326819E-4  
 2.468000000000000E10   -1.151944583398290E-3  -1.526508458482567E-4  
 2.470000000000000E10   -1.307376086288059E-4   8.315070590469986E-4  
 2.472000000000000E10    7.320977092604153E-4  -1.113527823690674E-4  
 2.474000000000000E10    9.214873352902941E-4  -7.740332075627521E-4  
 2.476000000000000E10    4.350245471869130E-4  -7.869407709222287E-4  
 2.478000000000000E10   -4.500593349803239E-4  -4.442432655196171E-4  
 2.480000000000000E10    2.574555583123583E-4   5.436902647488751E-4  
 2.482000000000000E10    5.889160820515826E-4   7.107861165422946E-4  
 2.484000000000000E10    5.824579566251487E-4   5.392204570853210E-5  
 2.486000000000000E10    4.141615863773041E-4  -6.238777277758345E-4  
 2.488000000000000E10   -8.803430537227541E-4  -7.172751938924193E-4  
 2.490000000000000E10   -9.948069200618193E-4   2.354350781388348E-4  
 2.492000000000000E10    5.326454447640572E-4   5.761733991676010E-4  
 2.494000000000000E10    1.363359013339505E-3  -4.854143335251138E-4  
 2.496000000000000E10    3.449966825428419E-4  -1.314525288762525E-3  
 2.498000000000000E10   -1.378024662699318E-4  -2.638951173139503E-4  
 2.500000000000000E10   -4.302053105220693E-5   4.995468007109594E-4  
 2.502000000000000E10    8.546632452635095E-4   2.075640331895556E-4  
 2.504000000000000E10    7.517657504649833E-4   1.348666701233015E-4  
 2.506000000000000E10    1.527816348243505E-4  -4.370988608570769E-4  
 2.508000000000000E10   -9.748163029144052E-5  -9.685480326879770E-4  
 2.510000000000000E10   -7.591277972096577E-4  -5.507786481757648E-4  
 2.512000000000000E10   -1.930173202708829E-4   3.706187053467147E-4  
 2.514000000000000E10    1.235108007676899E-3  -2.602210661279969E-4  
 2.516000000000000E10    1.100222347304225E-3  -1.198000827571377E-3  
 2.518000000000000E10   -5.935955123277381E-4  -1.468632050091401E-3  
 2.520000000000000E10   -5.697862070519477E-4   2.515353626222350E-4  
 2.522000000000000E10    8.611894918431062E-5   8.184501057257876E-4  
 2.524000000000000E10    1.039395749103278E-3  -4.886143578914926E-4  
 2.526000000000000E10   -2.945391388493590E-4  -1.028835104079917E-3  
 2.528000000000000E10   -7.866988889873028E-4  -1.080482645193115E-3  
 2.530000000000000E10   -5.522990395547822E-4  -1.429533858754439E-4  
 2.532000000000000E10   -4.791938699781895E-4  -2.744913945207372E-4  
 2.534000000000000E10    5.144285460119136E-4   6.207669321156573E-5  
 2.536000000000000E10    6.430092616938055E-4  -1.065276184817776E-3  
 2.538000000000000E10   -1.382982845825609E-4  -9.498156287008897E-4  
 2.540000000000000E10   -1.560963515657932E-3  -1.968756587302778E-4  
 2.542000000000000E10   -5.852641334058717E-4   8.699335739947856E-4  
 2.544000000000000E10    1.932287996169180E-4   3.318839735584334E-4  
 2.546000000000000E10   -3.062933756154962E-4  -9.933847904903814E-4  
 2.548000000000000E10   -1.260469085536897E-3  -9.901807643473148E-4  
 2.550000000000000E10   -1.246940490091220E-3  -4.283196903998032E-5  
 2.552000000000000E10   -3.753311611944810E-4   6.120834950706922E-4  
 2.554000000000000E10    3.951037506340072E-4   9.520030289422721E-6  
 2.556000000000000E10    7.520123108406551E-5  -1.785009771992918E-4  
 2.558000000000000E10   -2.671007605385967E-4  -6.345517249428667E-6  
 2.560000000000000E10   -1.164787157904357E-3   5.543714651139453E-4  
 2.562000000000000E10   -8.342317596543580E-4   1.242255733814091E-3  
 2.564000000000000E10   -2.355457836529240E-4   1.312462962232530E-3  
 2.566000000000000E10    2.716755770961754E-4  -3.010515938512981E-4  
 2.568000000000000E10   -7.268308254424483E-4  -7.059358758851886E-4  
 2.570000000000000E10   -1.346996461506933E-3   6.081358560550143E-5  
 2.572000000000000E10   -1.761679613991873E-4   1.510661706561223E-3  
 2.574000000000000E10    9.750777971930802E-4   8.410555019509047E-4  
 2.576000000000000E10    6.519615853903815E-4  -1.331241510342807E-4  
 2.578000000000000E10   -5.451681863632985E-4   2.435142741887830E-4  
 2.580000000000000E10   -6.293991173151881E-4   7.960429647937417E-4  
 2.582000000000000E10   -5.244172425591387E-4   1.050209015375003E-3  
 2.584000000000000E10    1.932123996084556E-5   1.102904061554000E-3  
 2.586000000000000E10    2.703616810322274E-4  -2.110783589159837E-5  
 2.588000000000000E10   -1.365429616271285E-4  -3.489572118269280E-4  
 2.590000000000000E10   -8.074734651017934E-4   1.067516083139708E-4  
 2.592000000000000E10   -1.527790727777756E-4   7.526129047619179E-4  
 2.594000000000000E10    9.141265181824565E-4   1.142160239396617E-3  
 2.596000000000000E10    7.101895607775077E-4  -1.038239934132434E-4  
 2.598000000000000E10    1.182418709504418E-4  -3.296215436421335E-5  
 2.600000000000000E10   -3.532143600750715E-4   4.407490851008333E-4  
 2.602000000000000E10   -3.962921400670894E-4   2.796617191052064E-4  
 2.604000000000000E10    1.690794624664704E-5   5.464664645842277E-4  
 2.606000000000000E10    4.057643091073260E-4   3.188364607922267E-4  
 2.608000000000000E10    7.228907925309613E-4  -2.713271969696507E-4  
 2.610000000000000E10   -1.822393169277348E-4  -6.507475191028789E-4  
 2.612000000000000E10   -2.784951902867761E-4   3.239473226130940E-4  
 2.614000000000000E10    8.131043432513252E-5   7.207233866211027E-4  
 2.616000000000000E10    1.263875630684197E-3   5.913884961046279E-4  
 2.618000000000000E10    5.615339614450932E-4  -5.340219286154024E-4  
 2.620000000000000E10   -3.175515448674560E-4  -4.931699222652242E-4  
 2.622000000000000E10   -5.870851018698886E-4   4.424449143698439E-4  
 2.624000000000000E10    1.025348492476041E-4   7.534033211413771E-4  
 2.626000000000000E10    7.341102755162865E-4   1.829184402595274E-4  
 2.628000000000000E10    6.546162767335773E-4  -3.771690753637813E-4  
 2.630000000000000E10   -2.213467541878345E-5  -5.754511075792834E-4  
 2.632000000000000E10   -3.710298333317041E-4  -1.275113336305367E-4  
 2.634000000000000E10   -2.402404061285779E-4   1.093168946681544E-3  
 2.636000000000000E10    7.211005286080763E-4   4.534131439868361E-4  
 2.638000000000000E10    8.333024161402136E-4  -1.539790737297153E-4  
 2.640000000000000E10   -4.323550529079512E-4  -8.975231321528554E-4  
 2.642000000000000E10   -9.935645357472822E-4   1.838163625507150E-4  
 2.644000000000000E10   -9.032797061081510E-5   1.006388061796315E-3  
 2.646000000000000E10    7.626582664670423E-4   5.660670431097969E-4  
 2.648000000000000E10    9.484191105002537E-4  -5.619102303171530E-4  
 2.650000000000000E10   -1.366480337310350E-4  -5.514374279300682E-4  
 2.652000000000000E10   -7.753510872134939E-4   1.442845004930859E-4  
 2.654000000000000E10    1.941405535035301E-4   6.653435557382181E-4  
 2.656000000000000E10    5.886693979846314E-4   7.532922027166933E-4  
 2.658000000000000E10    8.328636613441631E-4  -4.550452867988497E-4  
 2.660000000000000E10    1.911148228828097E-5  -3.328341008455027E-4  
 2.662000000000000E10   -1.030386425554752E-3  -1.748200465954142E-4  
 2.664000000000000E10   -4.644989749067463E-4   7.620330579811707E-4  
 2.666000000000000E10    7.462074718205258E-4   6.327825976768509E-4  
 2.668000000000000E10    8.586846379330382E-4  -5.636751156998798E-4  
 2.670000000000000E10    7.141248715925030E-6  -7.447759126080200E-4  
 2.672000000000000E10   -2.019458006543573E-4  -7.572397908006678E-5  
 2.674000000000000E10   -3.334862776682712E-4   7.020886841928586E-4  
 2.676000000000000E10    8.533283980796114E-4   3.200303399353288E-4  
 2.678000000000000E10    6.096284778323025E-4   7.621363556609140E-5  
 2.680000000000000E10    4.359586728241993E-5  -9.606364474166185E-4  
 2.682000000000000E10   -6.072930264053866E-4  -1.517668229098490E-4  
 2.684000000000000E10   -4.371014365460724E-4   2.210307798122813E-6  
 2.686000000000000E10    2.417149953544140E-4   2.973121008835733E-4  
 2.688000000000000E10    7.786551141180098E-4  -1.662184132555922E-6  
 2.690000000000000E10    5.679753812728450E-4  -1.215367781696841E-3  
 2.692000000000000E10   -2.302869215782266E-4  -6.728119187755510E-4  
 2.694000000000000E10   -2.470273375365650E-4   3.787363457377069E-4  
 2.696000000000000E10    2.983121412398759E-4   7.290192588698119E-4  
 2.698000000000000E10    6.658922065980732E-4  -1.853314679465257E-4  
 2.700000000000000E10    3.132184428977780E-5  -5.380406582844444E-4  
 2.702000000000000E10   -6.266818527365103E-4  -5.946893215877935E-4  
 2.704000000000000E10   -5.596099508693442E-4  -2.059899852611125E-4  
 2.706000000000000E10   -1.943203205883037E-4   3.632356820162386E-4  
 2.708000000000000E10    7.598538359161466E-4  -4.936889163218439E-4  
 2.710000000000000E10    6.887038471177220E-4  -5.215082928771153E-4  
 2.712000000000000E10   -2.061847553704865E-4  -7.083939563017339E-4  
 2.714000000000000E10   -7.590198802063242E-4  -2.267018826387357E-4  
 2.716000000000000E10   -1.960903045983287E-5   8.733966387808323E-4  
 2.718000000000000E10    5.881644174223766E-4   5.629127408610657E-4  
 2.720000000000000E10    1.478881931689102E-4  -8.496795344399288E-4  
 2.722000000000000E10   -7.545760017819703E-4  -4.285497780074365E-4  
 2.724000000000000E10   -9.069494990399107E-4   1.985321323445533E-4  
 2.726000000000000E10    1.105386327253655E-4   2.022385051532183E-4  
 2.728000000000000E10    4.514321117312647E-4  -1.696040699243895E-4  
 2.730000000000000E10    1.434910700481851E-4  -3.060820235987194E-4  
 2.732000000000000E10    1.029523295983381E-4  -5.876206923858263E-4  
 2.734000000000000E10   -4.803264309884980E-4   8.194282099793782E-5  
 2.736000000000000E10   -5.383592142607085E-4   5.601862649200484E-4  
 2.738000000000000E10    6.578594766324386E-4   9.939295268850401E-4  
 2.740000000000000E10    5.262125778244808E-4  -5.201410676818341E-4  
 2.742000000000000E10   -3.592906359699555E-4  -7.434977014781907E-4  
 2.744000000000000E10   -7.781611784594134E-4   1.417251914972439E-4  
 2.746000000000000E10   -2.976870237034746E-4   8.529691258445382E-4  
 2.748000000000000E10    6.059459410607815E-4   1.528771244920790E-4  
 2.750000000000000E10    2.816735941451043E-4  -3.119954708381556E-4  
 2.752000000000000E10   -3.442322267801501E-4  -2.616353776829783E-4  
 2.754000000000000E10   -4.823601284442702E-5  -3.826194297289476E-4  
 2.756000000000000E10   -4.266443356755190E-4   6.248017016332597E-4  
