#  HZ   S   RI   R     50.00 
! Rohde & Schwarz ZVA40 4Ports - Version 3.90 - 1145.1110k42 SN: 100403
! Date: 2023-10-04 06:41:18
! Measurement: S12 
! 
 2.200000000000000E10    1.111324424982740E-4  -8.199047588277608E-4  
 2.202000000000000E10   -1.259798445971683E-3   2.162574855901767E-4  
 2.204000000000000E10    4.690164496423677E-5  -1.709388589006267E-4  
 2.206000000000000E10   -7.633686891495017E-5  -2.213361440226436E-4  
 2.208000000000000E10   -1.566268501846935E-4  -6.144130638858769E-4  
 2.210000000000000E10    2.461132407916011E-4  -1.642465886106947E-4  
 2.212000000000000E10    4.164701022091322E-4  -7.056359972921200E-4  
 2.214000000000000E10   -6.536039072670974E-4  -3.452995297266170E-4  
 2.216000000000000E10   -3.315862159070093E-4   2.114367634931114E-4  
 2.218000000000000E10    7.680526832700707E-4   6.538568704854697E-4  
 2.220000000000000E10   -3.065206101382501E-5  -8.527840836904943E-4  
 2.222000000000000E10   -6.643268279731274E-4  -5.557982658501715E-4  
 2.224000000000000E10   -5.982244256301783E-4   8.884424023563042E-4  
 2.226000000000000E10    2.359897071073647E-4   3.707625437527895E-4  
 2.228000000000000E10    4.543885552266147E-7  -7.416010193992406E-4  
 2.230000000000000E10    1.725915171846282E-5  -1.569704327266663E-4  
 2.232000000000000E10   -1.174954377347603E-4   3.632893422036432E-4  
 2.234000000000000E10    4.351026873337105E-4  -1.883215336420108E-4  
 2.236000000000000E10   -5.205474080867134E-4   6.213348096935079E-4  
 2.238000000000000E10   -3.518836310831830E-4   1.139725187385920E-3  
 2.240000000000000E10    9.808346003410406E-4   7.208589231595397E-4  
 2.242000000000000E10    2.497487912478391E-5  -8.024809721973725E-4  
 2.244000000000000E10   -1.238355034729466E-3   6.840549531261786E-5  
 2.246000000000000E10    1.518622575531481E-4   1.163331835414283E-3  
 2.248000000000000E10    1.543521429994144E-3   3.034863661923737E-4  
 2.250000000000000E10    5.469694842759054E-4  -1.175146098830737E-3  
 2.252000000000000E10   -2.049714457825758E-4   2.052989939329564E-4  
 2.254000000000000E10    4.475587847991847E-4   4.148916341364384E-4  
 2.256000000000000E10    5.170497934159357E-4   5.151453442522325E-4  
 2.258000000000000E10    3.963630297221243E-5   2.183933756896295E-4  
 2.260000000000000E10    2.215401709690923E-4   3.445873680902878E-4  
 2.262000000000000E10    1.954949393621064E-4  -6.412531511159614E-4  
 2.264000000000000E10    8.343900640284119E-5  -1.062238639860880E-3  
 2.266000000000000E10   -2.745298543231911E-4  -2.353941272303928E-4  
 2.268000000000000E10    8.825328914099373E-4   4.500448922044598E-4  
 2.270000000000000E10    1.608674589078873E-3  -5.634603658108972E-4  
 2.272000000000000E10    9.434405801584944E-4  -7.109715297701769E-4  
 2.274000000000000E10   -7.492093209293671E-4   2.667285370989703E-4  
 2.276000000000000E10    4.136371499043889E-4   5.800230137538165E-4  
 2.278000000000000E10    7.016517047304660E-4   4.073854379385011E-4  
 2.280000000000000E10   -7.711182388447924E-5  -6.414238741854206E-4  
 2.282000000000000E10    4.875842478213599E-5  -5.248387169558555E-4  
 2.284000000000000E10    4.493121377890930E-5  -1.244534723809920E-3  
 2.286000000000000E10   -7.444603397743776E-4  -6.249975194805302E-4  
 2.288000000000000E10    1.879363708212622E-5  -3.484059234324377E-4  
 2.290000000000000E10    1.113004211219959E-3   5.779278908448760E-4  
 2.292000000000000E10    5.788129492430016E-4  -9.537625301163644E-4  
 2.294000000000000E10   -1.347228280792479E-4  -9.898911375785247E-4  
 2.296000000000000E10   -1.005139987682924E-3   9.753822814673185E-4  
 2.298000000000000E10   -3.093256527790800E-4   5.986725082038902E-4  
 2.300000000000000E10    5.306957391439937E-4  -3.316756929052644E-4  
 2.302000000000000E10   -7.015636292635463E-4  -7.509667557314970E-4  
 2.304000000000000E10   -1.047099758579861E-3  -6.355442092171870E-4  
 2.306000000000000E10    8.747142237552907E-5   8.252779571193969E-5  
 2.308000000000000E10    4.685500243795104E-5  -1.814908184769593E-4  
 2.310000000000000E10   -1.685265178821283E-4   1.340729822914000E-4  
 2.312000000000000E10    4.997935393475927E-4   3.763949498534203E-4  
 2.314000000000000E10   -1.975336235773284E-4  -2.249080789624713E-4  
 2.316000000000000E10   -1.215626558405347E-3  -3.808801375271287E-5  
 2.318000000000000E10   -2.609896000649314E-4   1.030042039928958E-3  
 2.320000000000000E10    4.397961274662521E-4   5.957682078587823E-4  
 2.322000000000000E10    6.165916493046098E-4  -5.549827401409857E-4  
 2.324000000000000E10   -5.117942491779104E-4  -2.526461030356586E-4  
 2.326000000000000E10   -5.036783477407880E-4   5.845361083629541E-4  
 2.328000000000000E10    1.747202641126933E-4   9.918506038957276E-4  
 2.330000000000000E10    4.228196085023228E-4   3.019587238668464E-4  
 2.332000000000000E10   -1.250455604804301E-4   5.030706233810633E-5  
 2.334000000000000E10   -3.128300413663965E-4   3.928665137209464E-5  
 2.336000000000000E10   -5.065559271315578E-4  -1.127027676375292E-4  
 2.338000000000000E10   -5.644258744723629E-4   1.510428328401758E-4  
 2.340000000000000E10    4.434477559698280E-4   1.050926723110024E-3  
 2.342000000000000E10    1.303404438658617E-3  -3.289353771833703E-4  
 2.344000000000000E10   -1.064579778358166E-4  -9.366150625282899E-4  
 2.346000000000000E10   -8.849224395817146E-4   2.829765362548642E-4  
 2.348000000000000E10   -1.328427674707200E-5   1.431496595614590E-3  
 2.350000000000000E10    1.125310765928589E-3   7.122979950509034E-4  
 2.352000000000000E10    8.163572420016863E-4  -5.030017273384146E-4  
 2.354000000000000E10   -2.987181433127262E-4  -2.285161244799383E-4  
 2.356000000000000E10   -2.419039201413398E-4   5.993962651018592E-5  
 2.358000000000000E10   -6.124887386249611E-5   6.674829055555165E-4  
 2.360000000000000E10    9.250738803530112E-4   2.791124534269329E-4  
 2.362000000000000E10    1.486744557041675E-3   4.889006049779709E-5  
 2.364000000000000E10    7.332520181080326E-4  -6.411545400624163E-4  
 2.366000000000000E10   -4.039893501612824E-4  -4.363135521998629E-4  
 2.368000000000000E10   -2.464238023094367E-4   1.263926315004937E-3  
 2.370000000000000E10    8.070468102232553E-4   1.307313112192787E-3  
 2.372000000000000E10    1.317346730502322E-3  -9.393661166541278E-4  
 2.374000000000000E10    6.076506087993039E-5  -1.124285976402462E-3  
 2.376000000000000E10   -1.196051642182283E-3   1.053481116741750E-5  
 2.378000000000000E10    4.864673664997099E-4   5.995879218971822E-4  
 2.380000000000000E10    1.081790658645332E-3  -3.529603759488964E-5  
 2.382000000000000E10    4.863323738391046E-4  -7.635939109604806E-4  
 2.384000000000000E10    5.721537309000269E-4  -3.622092226578388E-4  
 2.386000000000000E10   -2.047244229288481E-4  -4.429453729244415E-4  
 2.388000000000000E10   -5.435565399238840E-4   1.355204487936135E-4  
 2.390000000000000E10    4.390910362417344E-4   8.114253141684458E-4  
 2.392000000000000E10    9.757460938999429E-4  -7.238016114570200E-4  
 2.394000000000000E10    8.876928450263222E-5  -1.633044957998209E-3  
 2.396000000000000E10   -1.210498128784820E-3  -1.031439722282812E-3  
 2.398000000000000E10   -2.385611733188853E-4   6.797128080506809E-4  
 2.400000000000000E10    8.193730245693587E-4  -4.008956284451415E-5  
 2.402000000000000E10    5.533900330192410E-4  -1.292307497351430E-3  
 2.404000000000000E10   -5.568445994867943E-4  -9.320911776740104E-4  
 2.406000000000000E10   -5.273581118672155E-4  -1.254733178939205E-4  
 2.408000000000000E10   -1.067562645857834E-4   5.638037910102867E-4  
 2.410000000000000E10    9.321021389041562E-5  -9.081263669941109E-5  
 2.412000000000000E10    1.590087267686613E-4  -2.563934194768081E-4  
 2.414000000000000E10   -2.251398291264195E-4  -3.637559766502818E-4  
 2.416000000000000E10   -1.132369063270744E-3  -5.522349965758622E-4  
 2.418000000000000E10   -1.268528460059315E-3   3.905048542947043E-4  
 2.420000000000000E10    3.018230345332995E-4   7.436190790031105E-4  
 2.422000000000000E10    5.614056717604399E-4  -2.578408111730823E-4  
 2.424000000000000E10   -7.311560511880089E-5  -8.096878227661364E-4  
 2.426000000000000E10   -7.277797049027868E-4   5.982016909911181E-5  
 2.428000000000000E10   -3.751921540242620E-4   6.666996850981377E-4  
 2.430000000000000E10    3.450916337897070E-4   5.224955530138686E-4  
 2.432000000000000E10    2.792746363411425E-4   4.663792788051069E-4  
 2.434000000000000E10   -1.278952227607988E-4  -5.332470755092800E-4  
 2.436000000000000E10   -4.192618907836732E-4  -4.155062888457906E-4  
 2.438000000000000E10   -9.356294976896606E-4  -4.726869593696392E-5  
 2.440000000000000E10   -7.035093187823804E-5   3.725699516508030E-4  
 2.442000000000000E10    8.100135528366081E-4   2.193269283452537E-4  
 2.444000000000000E10    1.050974715326447E-3  -8.198854047805071E-4  
 2.446000000000000E10    4.172181434114464E-5  -7.977706773090176E-4  
 2.448000000000000E10   -5.649306986015290E-4   5.622949647658970E-4  
 2.450000000000000E10   -8.885449142326252E-5   1.180988503620029E-3  
 2.452000000000000E10    6.439779463107698E-4   3.754206663870718E-4  
 2.454000000000000E10    7.460677008452876E-5  -3.986265292041935E-4  
 2.456000000000000E10   -7.330013104365207E-4  -1.248913918971084E-3  
 2.458000000000000E10   -7.134688712540083E-4  -2.338183876418043E-4  
 2.460000000000000E10   -6.165901249914896E-4   2.949108202301431E-4  
 2.462000000000000E10    8.316339153680019E-4   2.178256982006133E-4  
 2.464000000000000E10    1.138503430411220E-3  -7.385435746982694E-4  
 2.466000000000000E10   -1.045222543325508E-4  -9.362726414110512E-4  
 2.468000000000000E10   -9.504240879323334E-4   1.785096319508739E-4  
 2.470000000000000E10   -4.262175389158074E-4   1.402780180796981E-3  
 2.472000000000000E10    4.315864425734617E-4   7.492559307138436E-4  
 2.474000000000000E10    7.028651134532993E-5  -8.763751320657320E-4  
 2.476000000000000E10   -1.479788843425922E-3  -8.854125480866060E-4  
 2.478000000000000E10   -1.271657354664058E-3   5.442350811790675E-5  
 2.480000000000000E10    3.739859857887495E-5   6.054227706044912E-4  
 2.482000000000000E10    2.808446042763535E-4   3.468268420192544E-5  
 2.484000000000000E10    9.362608543597162E-4  -3.660431466414593E-4  
 2.486000000000000E10    1.586880969739468E-6  -4.540778245427646E-4  
 2.488000000000000E10   -1.623690986889415E-3   3.166439310007263E-4  
 2.490000000000000E10   -6.099443999119103E-4   1.713897043373436E-3  
 2.492000000000000E10    1.450830259273062E-4   8.816639965516515E-4  
 2.494000000000000E10    1.273921830033942E-4  -8.193830799427815E-4  
 2.496000000000000E10   -1.320818177191541E-3  -7.027784376987256E-4  
 2.498000000000000E10   -1.564623264130205E-3   2.393664326518774E-4  
 2.500000000000000E10   -2.401994288447895E-4   5.283057289489079E-4  
 2.502000000000000E10    1.005580292257946E-3   1.706217335595284E-5  
 2.504000000000000E10    1.368874131912889E-5  -4.647772984753829E-4  
 2.506000000000000E10   -2.402341524430085E-4   1.552695266582305E-4  
 2.508000000000000E10   -6.419289929908700E-4   7.176217623054981E-4  
 2.510000000000000E10   -8.524437580490485E-4   4.842709204240236E-4  
 2.512000000000000E10   -3.434235950408038E-4   1.101582012779545E-3  
 2.514000000000000E10    3.403945956961252E-4   2.166032334116608E-5  
 2.516000000000000E10   -3.503824591462035E-4  -7.507143891416490E-4  
 2.518000000000000E10   -9.746928117237985E-4  -8.093763317447156E-4  
 2.520000000000000E10   -5.538093391805887E-4   1.193083560792729E-3  
 2.522000000000000E10    6.627600596402772E-4   7.592032052343711E-4  
 2.524000000000000E10    1.171292489743792E-3   1.785469154071961E-4  
 2.526000000000000E10   -4.503410746110603E-4  -6.980541820666986E-5  
 2.528000000000000E10   -5.611527594737709E-4   3.231769369449467E-4  
 2.530000000000000E10   -6.842236907687038E-4   1.386771109537222E-3  
 2.532000000000000E10   -8.697100292920368E-5   9.495350168435834E-4  
 2.534000000000000E10    4.231290586176328E-4   8.664003178182611E-5  
 2.536000000000000E10    1.922310181043940E-4  -3.650276030384703E-4  
 2.538000000000000E10   -5.108634431962855E-4  -4.919505845464300E-4  
 2.540000000000000E10   -8.822468043945264E-5   4.484301207412500E-4  
 2.542000000000000E10    5.138183769304305E-4   1.365797157632187E-3  
 2.544000000000000E10    1.270789754926227E-3   5.118208136991598E-4  
 2.546000000000000E10    6.342222768580541E-4  -2.695509865588974E-4  
 2.548000000000000E10   -7.198378225439228E-4   1.959814617293887E-4  
 2.550000000000000E10   -5.649198465107475E-4   8.606933770352043E-4  
 2.552000000000000E10    5.891816326766275E-4   7.645933292224072E-4  
 2.554000000000000E10    8.122051222017035E-4  -7.249187592606177E-5  
 2.556000000000000E10    4.445798913366161E-4  -8.510085535817780E-4  
 2.558000000000000E10    1.060439426510129E-4  -4.320818989071995E-4  
 2.560000000000000E10    6.002353711664910E-5   2.360721300647128E-4  
 2.562000000000000E10    8.393070384045132E-4   6.475863847299479E-4  
 2.564000000000000E10    1.254752045497298E-3   5.180333100724965E-4  
 2.566000000000000E10    6.443925449275412E-4  -5.755750607931987E-4  
 2.568000000000000E10   -1.341601619060384E-4  -6.229101127246395E-4  
 2.570000000000000E10   -3.321856420370750E-4   4.074832213518675E-4  
 2.572000000000000E10    3.316154670756077E-4   6.000744542689063E-4  
 2.574000000000000E10    1.490328300860710E-3  -1.935442687681643E-4  
 2.576000000000000E10    8.648183356854133E-4  -1.047937912517227E-3  
 2.578000000000000E10    4.311555721869809E-5  -1.029065213515423E-3  
 2.580000000000000E10   -9.836494609771762E-5   5.561805191973690E-4  
 2.582000000000000E10    5.509267248271499E-4   8.392217205255292E-4  
 2.584000000000000E10    1.331302541075274E-3   1.156037142209243E-4  
 2.586000000000000E10    2.439155477986787E-4  -6.749229287379421E-4  
 2.588000000000000E10   -2.922150142694591E-4  -5.114716041134670E-4  
 2.590000000000000E10   -9.177630636258982E-4  -3.570635595906424E-5  
 2.592000000000000E10    3.382240793143865E-4   4.431765701156110E-4  
 2.594000000000000E10    1.092288628569804E-3  -1.352142439827730E-4  
 2.596000000000000E10    9.240680446964689E-4  -1.506585569586605E-3  
 2.598000000000000E10   -3.346469043208344E-6  -5.824522122566123E-4  
 2.600000000000000E10   -5.483773857122287E-4   8.367914892914996E-5  
 2.602000000000000E10    5.917150629102252E-4   1.226822409080342E-3  
 2.604000000000000E10    6.483247925643809E-4   3.294418020232115E-4  
 2.606000000000000E10    1.184781722258776E-4  -8.069057730608620E-4  
 2.608000000000000E10   -5.966483295196667E-4  -6.136904048616998E-4  
 2.610000000000000E10   -7.858192548155785E-4   7.889031621743925E-6  
 2.612000000000000E10   -3.517034529068042E-4  -3.338988585710467E-5  
 2.614000000000000E10    1.072224571544211E-3  -6.223836953722639E-5  
 2.616000000000000E10    7.135887171898503E-4  -5.875475399079733E-4  
 2.618000000000000E10    1.261054032966058E-4  -9.378029863000847E-4  
 2.620000000000000E10   -6.269224468269385E-4   4.978531032975297E-4  
 2.622000000000000E10   -2.465732795826625E-4   7.018561882432550E-4  
 2.624000000000000E10    5.782492517028004E-4   5.971895188849885E-4  
 2.626000000000000E10   -1.993074438360054E-4  -8.069563336903229E-4  
 2.628000000000000E10   -4.451545355550479E-4  -6.167929604998790E-4  
 2.630000000000000E10   -4.202960481052287E-4  -3.811468413914554E-4  
 2.632000000000000E10   -3.394138923340506E-5  -9.310556441732842E-5  
 2.634000000000000E10    1.407919357916398E-4   1.643084087845637E-4  
 2.636000000000000E10    1.066009805072099E-3   4.904656952930964E-5  
 2.638000000000000E10    1.181784818982123E-5  -2.777053750833147E-4  
 2.640000000000000E10   -5.153841848368757E-4  -7.724817769485526E-4  
 2.642000000000000E10   -6.539035748573951E-4   6.135153889772482E-4  
 2.644000000000000E10    5.061654883320443E-5   8.199223448173143E-4  
 2.646000000000000E10    8.992480652523227E-4  -3.037639216927346E-4  
 2.648000000000000E10    5.586829092862899E-5  -9.951788451871835E-4  
 2.650000000000000E10   -7.649129038327374E-4  -2.822738206305075E-4  
 2.652000000000000E10   -2.460869600326987E-4   4.583678992275964E-5  
 2.654000000000000E10    2.847423165803775E-4   3.241441554564517E-4  
 2.656000000000000E10    8.409915681113489E-4  -7.132647078833543E-5  
 2.658000000000000E10    5.483010027091950E-4  -5.256988879409619E-4  
 2.660000000000000E10   -6.885972907184623E-4  -5.047511658631265E-4  
 2.662000000000000E10   -9.497104620095342E-4  -1.644836129344185E-5  
 2.664000000000000E10   -1.112953564188501E-4   9.673675813246518E-4  
 2.666000000000000E10    6.460705262725242E-4  -1.656189833738608E-4  
 2.668000000000000E10    1.865109534264775E-4  -1.490574781200849E-3  
 2.670000000000000E10   -6.009735589032061E-4  -5.936236775596626E-4  
 2.672000000000000E10   -5.921788470004685E-4   2.540442237659590E-4  
 2.674000000000000E10    2.224893123639049E-4   4.709661807282828E-4  
 2.676000000000000E10    6.834523665020242E-4  -2.392541523477121E-5  
 2.678000000000000E10   -5.118511762702838E-5  -6.535498250741512E-4  
 2.680000000000000E10   -5.075438311905600E-4  -6.177666218718514E-4  
 2.682000000000000E10   -8.117802499327809E-4   3.450646436249372E-4  
 2.684000000000000E10    3.762524840311698E-5   5.169717915123329E-4  
 2.686000000000000E10    4.600896136253141E-4   1.318994882240077E-4  
 2.688000000000000E10    3.141001598123694E-4  -6.654255557805300E-4  
 2.690000000000000E10   -3.995282786490861E-4  -1.078920598956756E-3  
 2.692000000000000E10   -1.303155295317993E-3   4.802308940270450E-4  
 2.694000000000000E10    1.550685458369117E-4   8.031281104194932E-4  
 2.696000000000000E10    7.205555593827739E-4   2.238656106783310E-4  
 2.698000000000000E10    2.320557950952207E-4  -6.859701097710058E-4  
 2.700000000000000E10   -9.651580403442495E-4  -5.090094273327850E-4  
 2.702000000000000E10   -7.651093474123627E-4   3.930433485948015E-4  
 2.704000000000000E10   -1.509711664766655E-4   7.682115829084069E-4  
 2.706000000000000E10    3.979959728894755E-4  -2.689964421733748E-4  
 2.708000000000000E10    2.243864214506175E-4  -3.192918884451501E-4  
 2.710000000000000E10   -4.833909479202703E-4  -5.356298570404761E-4  
 2.712000000000000E10   -6.860335561214015E-4   2.128863673078740E-5  
 2.714000000000000E10   -6.222358024388086E-4   6.443612073780969E-4  
 2.716000000000000E10    3.099532023043139E-4   3.736334692803212E-4  
 2.718000000000000E10    5.014770104025956E-4  -5.791923904325813E-4  
 2.720000000000000E10   -7.473864170606248E-4  -6.954484415473416E-4  
 2.722000000000000E10   -1.275753893423826E-3   3.271850364399143E-4  
 2.724000000000000E10   -1.298950030559354E-5   7.852580092730932E-4  
 2.726000000000000E10    4.480994575715158E-4   9.417747196494020E-5  
 2.728000000000000E10    1.278577428820427E-5  -7.649841136299074E-4  
 2.730000000000000E10   -9.969996597192221E-5  -2.245278265036177E-4  
 2.732000000000000E10   -4.814705171156675E-4  -1.032018535624957E-4  
 2.734000000000000E10   -4.553895960270893E-4   5.976849206490442E-4  
 2.736000000000000E10    4.952765644361534E-5   7.428395765600726E-4  
 2.738000000000000E10    3.393279766896740E-4   3.141605411656201E-4  
 2.740000000000000E10   -3.207954468962271E-4  -8.423382314504124E-4  
 2.742000000000000E10   -8.814150351099670E-4  -2.845588096533902E-5  
 2.744000000000000E10   -5.514592121471651E-4   8.403890969930217E-4  
 2.746000000000000E10    8.582714508520439E-4   4.674630981753580E-4  
 2.748000000000000E10    6.994418654358015E-4  -1.680034802120645E-4  
 2.750000000000000E10   -5.057478992966935E-4  -7.218616010504775E-4  
 2.752000000000000E10   -1.798363809939474E-4   6.540757094626315E-4  
 2.754000000000000E10    6.413077653633081E-5   6.770237232558429E-4  
 2.756000000000000E10    1.237887890965794E-4   3.919011251127813E-4  
