#  HZ   S   RI   R     50.00 
! Rohde & Schwarz ZVA40 4Ports - Version 3.90 - 1145.1110k42 SN: 100403
! Date: 2023-10-04 06:40:53
! Measurement: S12 
! 
 2.200000000000000E10   -2.267141717311461E-4  -7.355759880738333E-4  
 2.202000000000000E10   -1.233732371474616E-3   1.768186748449807E-4  
 2.204000000000000E10   -1.071803712875408E-4   8.295573497889563E-4  
 2.206000000000000E10   -2.816396481648553E-4  -1.207317545777187E-4  
 2.208000000000000E10   -1.986999650398502E-4  -5.583011006820016E-4  
 2.210000000000000E10   -1.778434270818252E-4  -8.548752543902083E-5  
 2.212000000000000E10    3.606131176638883E-4  -4.668979763664538E-4  
 2.214000000000000E10   -4.521309274423402E-4  -9.239050177711761E-5  
 2.216000000000000E10   -2.020014285335492E-4   8.485125872539356E-4  
 2.218000000000000E10    6.060079867893364E-4   1.144123118137941E-3  
 2.220000000000000E10    6.550909092766233E-4  -6.738885858794674E-4  
 2.222000000000000E10   -3.010470409208210E-4  -1.471826217311900E-4  
 2.224000000000000E10   -1.210030110087246E-3   6.184465746628121E-4  
 2.226000000000000E10    4.976917862222763E-4   9.983928248402663E-4  
 2.228000000000000E10    4.936856748827267E-4  -3.417771258682478E-4  
 2.230000000000000E10    8.820407981602330E-5  -8.685526263434440E-4  
 2.232000000000000E10   -5.408762008300982E-4   1.780690654413775E-4  
 2.234000000000000E10    5.450112439575605E-4  -9.583619385011843E-5  
 2.236000000000000E10    3.383353869139683E-4  -1.260601702597342E-4  
 2.238000000000000E10    1.718102521408582E-4   1.833080259530107E-4  
 2.240000000000000E10    4.372105431684759E-4   3.277851319580805E-4  
 2.242000000000000E10    4.736504815809894E-4  -6.592798381461762E-4  
 2.244000000000000E10   -5.599259093287401E-4  -5.616807902697474E-4  
 2.246000000000000E10   -4.025285488751251E-4   5.199224360694643E-4  
 2.248000000000000E10    4.365797103673685E-4   2.301208056110227E-5  
 2.250000000000000E10    6.618246625293978E-4  -1.006488819257356E-3  
 2.252000000000000E10   -1.901972282212228E-4  -6.801329946029000E-4  
 2.254000000000000E10   -1.325490320596146E-4  -2.261531772091985E-4  
 2.256000000000000E10    4.666092645493336E-4   5.883588382857852E-4  
 2.258000000000000E10    4.062553271069191E-4   2.196058903791709E-5  
 2.260000000000000E10   -1.697558641353680E-4  -4.966969441966285E-5  
 2.262000000000000E10   -1.609822429600172E-4   1.291635762754595E-4  
 2.264000000000000E10   -4.298457133700140E-4  -2.149610318156192E-4  
 2.266000000000000E10   -9.399349582963623E-4  -7.720810026512481E-4  
 2.268000000000000E10    1.007240410899613E-4   1.372834313997373E-4  
 2.270000000000000E10    7.392977786366828E-4  -1.231862956956320E-4  
 2.272000000000000E10    9.086965565074934E-5  -1.259347714949399E-3  
 2.274000000000000E10   -6.367154783220030E-4  -2.979625496664085E-4  
 2.276000000000000E10   -1.207641107612290E-4   1.026863363222219E-3  
 2.278000000000000E10    2.067519071715651E-4   5.008370717405342E-4  
 2.280000000000000E10    5.213018084759824E-4  -4.980866797268391E-4  
 2.282000000000000E10   -7.303509410121478E-4  -5.235887292656116E-4  
 2.284000000000000E10   -6.937089347047731E-4  -2.716176677495241E-4  
 2.286000000000000E10   -3.298264018667396E-4   3.549198736436665E-4  
 2.288000000000000E10   -2.087978718918748E-4  -1.309589133597910E-4  
 2.290000000000000E10    5.870640088687651E-4  -3.045859166377340E-4  
 2.292000000000000E10    6.247504716156982E-4  -2.702945585042471E-4  
 2.294000000000000E10   -3.628324120654725E-4  -2.002702130994294E-4  
 2.296000000000000E10   -3.846067556878552E-4   5.288136017043144E-4  
 2.298000000000000E10    4.606789952958934E-4   1.664456227445044E-3  
 2.300000000000000E10    3.512399816827383E-4   5.045705838711001E-4  
 2.302000000000000E10   -3.169564552081283E-4  -7.793838667566888E-4  
 2.304000000000000E10   -1.124352886108682E-3   3.831778922176454E-4  
 2.306000000000000E10   -7.706512042204849E-4   5.368081065171282E-5  
 2.308000000000000E10    3.205842695024330E-4   1.429990688848193E-4  
 2.310000000000000E10    4.589112650137395E-4   3.861421791953035E-4  
 2.312000000000000E10    4.642869243980385E-4  -4.539538858807646E-4  
 2.314000000000000E10   -1.537386509653516E-5  -4.748429309984203E-4  
 2.316000000000000E10   -7.450153716490604E-4   5.779260391136631E-4  
 2.318000000000000E10   -8.704794527147897E-5   8.069267641985789E-4  
 2.320000000000000E10    8.183559111785144E-4   3.152850549668074E-4  
 2.322000000000000E10    2.418914427835261E-4  -4.262069996912032E-4  
 2.324000000000000E10   -6.387317334883846E-4  -8.335864695254713E-4  
 2.326000000000000E10   -8.073974022408947E-4   6.794062719563954E-4  
 2.328000000000000E10    4.145842831349000E-4   8.240744646172971E-4  
 2.330000000000000E10    1.143843837780878E-3  -6.736424475093372E-4  
 2.332000000000000E10    8.234116814165304E-5  -3.823545739578549E-4  
 2.334000000000000E10   -4.634123506548349E-4  -1.315871395490831E-5  
 2.336000000000000E10    8.711638952263456E-5   5.569787026615813E-4  
 2.338000000000000E10    1.732926002659951E-4   5.037026967329439E-4  
 2.340000000000000E10    4.392822247609729E-4   6.001399606248015E-5  
 2.342000000000000E10    5.817385863338132E-4  -6.263709292397834E-4  
 2.344000000000000E10   -5.222986055741785E-5  -6.052322241885122E-4  
 2.346000000000000E10   -5.509670190804172E-4   2.759031440646709E-4  
 2.348000000000000E10    5.159093343536370E-4   6.984801366343163E-4  
 2.350000000000000E10    6.694245894323103E-4  -2.081829461531015E-5  
 2.352000000000000E10    3.058087313547730E-4  -1.094859995646402E-3  
 2.354000000000000E10   -4.657104946090840E-4  -4.939557256875560E-4  
 2.356000000000000E10   -5.898750387132168E-4   2.137708928557913E-4  
 2.358000000000000E10    7.642443815711886E-4   5.718203374271980E-5  
 2.360000000000000E10    7.609164749737829E-4  -4.798363079316914E-4  
 2.362000000000000E10    4.478097753235488E-5  -6.862023146823049E-4  
 2.364000000000000E10    7.853962506487733E-5  -4.275633546058089E-4  
 2.366000000000000E10    7.235359771584626E-5  -2.043617714662105E-4  
 2.368000000000000E10   -3.996915474999696E-4   5.361655639717355E-4  
 2.370000000000000E10    6.195633759489283E-4   7.380476599792019E-4  
 2.372000000000000E10    5.278316748444922E-4  -4.699443234130740E-4  
 2.374000000000000E10   -8.136197429848835E-4  -1.690540171694011E-3  
 2.376000000000000E10   -8.196664566639811E-4  -3.355172520969063E-4  
 2.378000000000000E10   -1.250452223757748E-4   7.433334976667538E-4  
 2.380000000000000E10    8.930621115723625E-4  -4.492688531172462E-4  
 2.382000000000000E10    5.489192117238417E-4  -1.142633234849200E-3  
 2.384000000000000E10   -5.181830783840269E-4  -6.185191814438440E-4  
 2.386000000000000E10   -4.679587509599514E-4   2.213924290117575E-4  
 2.388000000000000E10   -2.975579791382188E-4   7.468605326721445E-4  
 2.390000000000000E10   -3.706933348439634E-4   4.347369540482760E-4  
 2.392000000000000E10    1.303349727095338E-4  -3.127709496766329E-4  
 2.394000000000000E10   -8.286822412628681E-4  -8.941365522332490E-4  
 2.396000000000000E10   -1.637840061448515E-3  -9.990051621571183E-4  
 2.398000000000000E10   -7.822116749593988E-4   7.223173888633028E-4  
 2.400000000000000E10    5.646244972012937E-4   6.444622558774427E-4  
 2.402000000000000E10    6.361238920362666E-4  -1.021126954583451E-3  
 2.404000000000000E10   -9.619402990210801E-4  -5.022405384806916E-4  
 2.406000000000000E10   -1.498546771472320E-3   8.906856382964179E-4  
 2.408000000000000E10   -2.136863440682646E-4   1.339250389719382E-3  
 2.410000000000000E10    2.815560364979319E-4   4.438274918356910E-4  
 2.412000000000000E10   -3.776236408157274E-4  -4.601988694048487E-4  
 2.414000000000000E10   -4.274292514310218E-4  -1.429866497346666E-4  
 2.416000000000000E10   -1.026246914989315E-3   1.270541488338495E-4  
 2.418000000000000E10   -4.821112452191301E-4   8.819478098303080E-4  
 2.420000000000000E10    5.152681696927175E-4   7.702000148128718E-4  
 2.422000000000000E10    9.109319362323731E-4  -3.505803470034152E-4  
 2.424000000000000E10   -4.177728405920789E-4  -1.003490498987958E-3  
 2.426000000000000E10   -8.803453092696145E-4   3.885610058205202E-4  
 2.428000000000000E10   -3.650103099062108E-4   1.672960905125365E-3  
 2.430000000000000E10    9.537362493574619E-4   7.080104987835512E-4  
 2.432000000000000E10    7.621531840413809E-4  -6.033573736203834E-4  
 2.434000000000000E10   -1.083288021618500E-3  -3.631394356489182E-4  
 2.436000000000000E10   -7.526765693910420E-4   4.939128702972084E-4  
 2.438000000000000E10    6.230150063402107E-6   5.608330757240765E-4  
 2.440000000000000E10    5.533341536647640E-4   3.308177183498628E-4  
 2.442000000000000E10    5.606464474112727E-4  -6.980303296586499E-4  
 2.444000000000000E10    9.438566667085979E-5  -8.235004352172837E-4  
 2.446000000000000E10   -9.379768162034452E-4  -6.771756989110145E-5  
 2.448000000000000E10   -1.522825441497844E-4   7.822287443559617E-4  
 2.450000000000000E10    8.678209705976769E-4   1.133429497713223E-3  
 2.452000000000000E10    9.190245764330030E-4  -2.170407315134071E-4  
 2.454000000000000E10   -5.706534284399822E-4  -6.166348466649652E-4  
 2.456000000000000E10   -1.205991604365408E-3   3.018690913449973E-4  
 2.458000000000000E10   -4.392192204250023E-4   9.459831198910251E-4  
 2.460000000000000E10    7.811193790985271E-4   4.020295864393120E-5  
 2.462000000000000E10    5.836061027366668E-4  -5.644240445690230E-4  
 2.464000000000000E10   -6.102101724536624E-5  -1.026190846459940E-3  
 2.466000000000000E10   -1.097462500183610E-4   2.974865310534369E-5  
 2.468000000000000E10    9.255505210603587E-5   5.548547633225098E-4  
 2.470000000000000E10    5.979524430586025E-4   5.034265486756340E-4  
 2.472000000000000E10    3.328079837956466E-4   1.782929994078586E-4  
 2.474000000000000E10    1.844457619881723E-5  -5.398183275246993E-4  
 2.476000000000000E10   -1.078015717212111E-3  -2.084697698592208E-4  
 2.478000000000000E10   -7.857061718823388E-4   5.750409909524024E-4  
 2.480000000000000E10    4.098213394172490E-4   1.394298724335386E-4  
 2.482000000000000E10    8.501200209138915E-4  -5.248719389783219E-4  
 2.484000000000000E10    1.171545563920518E-4  -7.238692196551710E-4  
 2.486000000000000E10   -3.230821057513822E-4  -1.681251305853948E-4  
 2.488000000000000E10   -3.437421764829196E-4   9.673741005826742E-4  
 2.490000000000000E10    1.678359949437436E-4   8.818114583846182E-4  
 2.492000000000000E10    4.601793334586546E-4   4.606259535648860E-4  
 2.494000000000000E10   -3.155558370053768E-4  -3.260245430283248E-4  
 2.496000000000000E10   -9.180490596918389E-4  -3.492419273243286E-4  
 2.498000000000000E10   -1.106815645471215E-3   4.071182629559189E-4  
 2.500000000000000E10   -4.341119802120375E-5   1.042456249706447E-3  
 2.502000000000000E10    1.028261205647141E-3   9.439826499146875E-6  
 2.504000000000000E10    6.426842301152647E-4  -9.143592178588733E-4  
 2.506000000000000E10   -8.983816078398377E-4  -2.824867806339171E-5  
 2.508000000000000E10   -5.748274124925956E-4   1.031749037792906E-3  
 2.510000000000000E10    4.298872008803301E-4   1.493085757829249E-3  
 2.512000000000000E10    3.977902179030934E-5   3.089413366978988E-4  
 2.514000000000000E10    1.449493793188594E-4  -2.561662004154641E-4  
 2.516000000000000E10   -6.447096675401554E-4  -8.675249091538717E-5  
 2.518000000000000E10   -1.012961671222001E-3   5.377613269956783E-4  
 2.520000000000000E10    4.059990314999595E-4   8.415486809099093E-4  
 2.522000000000000E10    1.268684951355681E-3   7.198563689598814E-4  
 2.524000000000000E10    9.605429077055305E-4  -5.763788794865832E-4  
 2.526000000000000E10   -3.482722750050016E-4  -8.134188010444632E-5  
 2.528000000000000E10   -9.912999521475285E-4   1.237993885297328E-3  
 2.530000000000000E10    5.934870205237530E-4   1.231660251505673E-3  
 2.532000000000000E10    1.335058943368495E-3   2.294763762620278E-4  
 2.534000000000000E10    2.014625824813265E-4  -8.362407825188711E-4  
 2.536000000000000E10   -5.675974098267034E-4  -2.931293056462891E-4  
 2.538000000000000E10    8.438991244474892E-5   7.054456800688058E-4  
 2.540000000000000E10    5.419407680165023E-4   7.533903262810782E-4  
 2.542000000000000E10    1.157387276180089E-3  -5.530080147764238E-5  
 2.544000000000000E10    1.376455329591408E-3  -1.136187784140930E-4  
 2.546000000000000E10   -5.555314564844593E-4  -4.389105743030086E-4  
 2.548000000000000E10   -1.567439776408719E-4   5.091952771181241E-4  
 2.550000000000000E10    3.037127899006009E-4   1.231605361681432E-3  
 2.552000000000000E10    8.822332893032581E-4  -2.087904904328752E-4  
 2.554000000000000E10    5.661526520270854E-4  -9.794354846235365E-4  
 2.556000000000000E10   -1.602383890713099E-4  -7.686978788115084E-4  
 2.558000000000000E10   -2.449329767841846E-4   1.026080876727065E-4  
 2.560000000000000E10    7.822117040632293E-4   4.254529776517302E-4  
 2.562000000000000E10    1.275131566217169E-3  -5.353148844733369E-5  
 2.564000000000000E10    3.073633924941532E-4  -9.017425036290661E-4  
 2.566000000000000E10   -1.561298558954150E-4  -3.696295825648122E-4  
 2.568000000000000E10   -3.211799921700731E-4   1.742696913424879E-4  
 2.570000000000000E10    2.250733923574444E-4   3.085466596530750E-4  
 2.572000000000000E10    5.762354412581772E-4  -3.279692900832743E-4  
 2.574000000000000E10    6.419915443984792E-4  -8.709916000952944E-4  
 2.576000000000000E10   -2.866965151042678E-4  -1.072381011908874E-3  
 2.578000000000000E10   -2.529329976823647E-4  -2.553771519160364E-4  
 2.580000000000000E10    2.331936484551989E-4   5.784911627415568E-4  
 2.582000000000000E10    9.184327936964110E-4  -2.653633127920330E-4  
 2.584000000000000E10    3.590113410609774E-4  -7.772787648718804E-4  
 2.586000000000000E10   -4.709181812359020E-4  -8.387095440411940E-4  
 2.588000000000000E10   -6.175162998260930E-4   2.400623052380979E-4  
 2.590000000000000E10    2.322392210771795E-4   6.271516917877307E-5  
 2.592000000000000E10    7.412718114210293E-4  -1.181795287266141E-4  
 2.594000000000000E10    2.735520720307250E-4  -7.216409430839121E-4  
 2.596000000000000E10   -1.081685641111108E-4  -7.649437902728096E-4  
 2.598000000000000E10   -1.536079871584661E-4  -2.611041636555456E-4  
 2.600000000000000E10   -2.740627242019400E-4   4.132798203499988E-4  
 2.602000000000000E10    3.909887964255177E-4   3.361342969583347E-4  
 2.604000000000000E10    7.847246888559312E-4  -1.034499628076446E-4  
 2.606000000000000E10   -5.406893906183541E-4  -1.098507986171171E-3  
 2.608000000000000E10   -5.989719211356714E-4  -2.489867110853083E-4  
 2.610000000000000E10   -3.505420245346613E-4   6.253080791793764E-4  
 2.612000000000000E10    4.353662588982843E-4  -6.506469981104601E-5  
 2.614000000000000E10    4.608335875673220E-4  -3.472956232144497E-4  
 2.616000000000000E10    3.520352402119897E-4  -7.999565714271739E-4  
 2.618000000000000E10   -6.685156986350194E-4  -5.736118982895277E-4  
 2.620000000000000E10   -5.117700202390552E-4   6.566575320903212E-4  
 2.622000000000000E10    4.971329763066024E-4   9.844623564276844E-4  
 2.624000000000000E10    8.625878544989973E-4  -2.723213037825190E-4  
 2.626000000000000E10   -1.560475575388409E-4  -1.174489967525005E-3  
 2.628000000000000E10   -1.346013887086883E-3  -4.309215219109319E-4  
 2.630000000000000E10   -3.585503945942037E-4   7.489523850381374E-4  
 2.632000000000000E10    8.772424334893003E-4   1.024856865114998E-4  
 2.634000000000000E10    7.027867395663634E-4  -5.768594128312543E-4  
 2.636000000000000E10   -1.277377559745219E-4  -7.644331490155309E-4  
 2.638000000000000E10   -6.715626514051110E-4  -6.662593477813061E-6  
 2.640000000000000E10   -3.244393446948379E-4   3.846632025670260E-4  
 2.642000000000000E10    3.807525718002580E-4   3.634426975622773E-4  
 2.644000000000000E10    5.499466351466253E-4  -2.082194805552717E-4  
 2.646000000000000E10    6.437736283260165E-5  -1.022566517349333E-3  
 2.648000000000000E10   -8.952151838457212E-4  -5.353425513021648E-4  
 2.650000000000000E10   -5.727738025598228E-4   5.023486955906265E-4  
 2.652000000000000E10    7.762623863527551E-4   6.092646217439324E-4  
 2.654000000000000E10    1.011667860439047E-3  -7.749669748591259E-4  
 2.656000000000000E10   -6.265534902922809E-4  -8.685408247401938E-4  
 2.658000000000000E10   -5.701683039660566E-4   2.632444156915881E-4  
 2.660000000000000E10   -2.233688464912120E-4   7.765194895910099E-4  
 2.662000000000000E10    1.851760207500774E-4   3.413144950172864E-4  
 2.664000000000000E10    4.739641167361697E-5  -2.293477809871547E-4  
 2.666000000000000E10   -1.689633618298103E-4  -4.874269725405611E-4  
 2.668000000000000E10   -4.176904039923102E-4  -4.810059399460442E-4  
 2.670000000000000E10   -3.757529557333328E-4  -1.980710367206484E-4  
 2.672000000000000E10    2.572626908659004E-4   5.913742352277041E-4  
 2.674000000000000E10    7.920099596958607E-4  -1.114664337364957E-4  
 2.676000000000000E10    3.580381744541228E-4  -5.322699071257375E-4  
 2.678000000000000E10   -1.008941588224843E-3  -5.440295353764668E-4  
 2.680000000000000E10   -6.304053094936535E-4   6.501616007881239E-4  
 2.682000000000000E10    1.235716426890576E-4   4.931516232318245E-4  
 2.684000000000000E10    4.516977569437586E-4  -5.681813490809873E-4  
 2.686000000000000E10   -4.360585371614434E-4  -8.870796154951677E-4  
 2.688000000000000E10   -3.396787433302961E-4  -3.235411277273670E-4  
 2.690000000000000E10   -5.635611450998113E-4   1.175317775050644E-4  
 2.692000000000000E10   -1.117946558224503E-4  -9.585013049218105E-5  
 2.694000000000000E10    6.305589486146346E-4   7.898315379861742E-4  
 2.696000000000000E10    1.961986126843840E-4  -6.731380999553949E-4  
 2.698000000000000E10   -5.888890300411731E-4  -4.101872982573696E-4  
 2.700000000000000E10   -1.403815665980801E-3   4.271322468412109E-4  
 2.702000000000000E10   -3.439270149101503E-4   7.722508016740903E-4  
 2.704000000000000E10    7.301250880118460E-4   1.673098449828103E-4  
 2.706000000000000E10   -7.587705295009073E-5  -9.241785883205012E-4  
 2.708000000000000E10   -1.092697610147297E-3  -7.959119393490255E-4  
 2.710000000000000E10   -4.431978159118444E-4   6.259465735638514E-4  
 2.712000000000000E10   -1.104129114537500E-4   8.614948746981099E-4  
 2.714000000000000E10    2.923821157310158E-4   7.861279664211907E-5  
 2.716000000000000E10    4.600986630975967E-5   9.056171802512836E-5  
 2.718000000000000E10   -6.691507005598396E-4  -2.925066801253706E-4  
 2.720000000000000E10   -8.654862031107768E-4   1.415790775354253E-4  
 2.722000000000000E10   -4.897270337096416E-4   8.286342053906992E-4  
 2.724000000000000E10    4.936945260851644E-4   4.630668190657161E-4  
 2.726000000000000E10    5.005364946555346E-4  -6.844315212219954E-4  
 2.728000000000000E10   -4.467291000764817E-4  -6.941066239960492E-4  
 2.730000000000000E10   -8.692450501257554E-4   1.169294318970060E-4  
 2.732000000000000E10    1.469517319492297E-4   9.985694923670963E-4  
 2.734000000000000E10    6.142003257991746E-4   5.340289208106697E-4  
 2.736000000000000E10    1.712449666229077E-4  -3.238042190787382E-4  
 2.738000000000000E10   -6.512676627608016E-4   2.788628444250207E-5  
 2.740000000000000E10   -9.093464614124969E-4   4.452700668480247E-4  
 2.742000000000000E10   -3.014312460436486E-4   2.038662169070449E-4  
 2.744000000000000E10    1.094681538233999E-4   5.204670669627376E-4  
 2.746000000000000E10    4.479156705201604E-4  -3.180808198521845E-4  
 2.748000000000000E10    1.955975785676856E-4  -9.224638051819056E-4  
 2.750000000000000E10   -7.684041338507086E-4   7.809388625901192E-5  
 2.752000000000000E10   -1.373653103655670E-4   1.125279173720628E-3  
 2.754000000000000E10    1.069619669578970E-3   7.173582416726276E-4  
 2.756000000000000E10    5.763192602898926E-4  -2.456034599163104E-4  
