#  HZ   S   RI   R     50.00 
! Rohde & Schwarz ZVA40 4Ports - Version 3.90 - 1145.1110k42 SN: 100403
! Date: 2023-10-04 06:40:29
! Measurement: S12 
! 
 2.200000000000000E10    3.728557998101678E-4   1.859838615132503E-4  
 2.202000000000000E10   -6.632156296291214E-4   2.135224323183138E-4  
 2.204000000000000E10    2.025489571551020E-4   5.073767852081801E-4  
 2.206000000000000E10    6.392869067894935E-4  -1.052553639482312E-4  
 2.208000000000000E10   -3.486060941213509E-4  -1.813752879797903E-4  
 2.210000000000000E10   -4.447315513402828E-4  -5.244119608960318E-4  
 2.212000000000000E10    4.773183826500826E-4   5.626005627163977E-4  
 2.214000000000000E10    1.418667536654539E-4   2.129166080635514E-4  
 2.216000000000000E10    5.995078354885663E-4   1.523538052197182E-4  
 2.218000000000000E10    1.884566380567776E-4   5.458694101889705E-4  
 2.220000000000000E10   -1.216497017253460E-4  -1.889259237941587E-8  
 2.222000000000000E10   -2.405891395085291E-5   2.928809107061170E-5  
 2.224000000000000E10   -1.146075731384144E-4   1.597427993260681E-4  
 2.226000000000000E10   -6.893970066812472E-5   4.894560177035601E-4  
 2.228000000000000E10    7.096653989719925E-4  -5.939495426900976E-4  
 2.230000000000000E10    1.976665954543933E-4  -4.129795776606215E-4  
 2.232000000000000E10   -5.068001332801941E-4  -8.194191883603708E-5  
 2.234000000000000E10    7.386213133031561E-4   2.545252266372700E-4  
 2.236000000000000E10    1.040658724832611E-3   1.752667024845778E-4  
 2.238000000000000E10    8.765325242166000E-5  -4.625981760000286E-4  
 2.240000000000000E10    4.403674329012119E-5  -3.030142165698635E-4  
 2.242000000000000E10   -4.066652795131631E-4   3.025663493190223E-4  
 2.244000000000000E10   -1.504786973265393E-4  -1.218140042169580E-4  
 2.246000000000000E10    3.945532819216169E-4   2.415223136296163E-4  
 2.248000000000000E10    1.024210813795889E-4  -2.648675172167714E-4  
 2.250000000000000E10    7.475253762301293E-5  -9.001637658911932E-4  
 2.252000000000000E10   -4.900533820091368E-4  -2.943296860848932E-4  
 2.254000000000000E10   -9.640113984232812E-5   2.433890176689602E-4  
 2.256000000000000E10    7.056505260152335E-4   3.496794974466866E-5  
 2.258000000000000E10    7.503697834181367E-4  -4.221972376399208E-4  
 2.260000000000000E10   -4.374530171844526E-4  -5.900515250232274E-4  
 2.262000000000000E10   -6.714479291076714E-4   3.764031931723366E-4  
 2.264000000000000E10    8.114884315091331E-5   3.223961139156018E-4  
 2.266000000000000E10    1.731440067587187E-4  -3.472906896604400E-4  
 2.268000000000000E10   -9.644245535866958E-5  -5.742059718158998E-4  
 2.270000000000000E10    6.565545260173167E-5  -2.376167233606452E-4  
 2.272000000000000E10   -2.578021523333973E-4  -3.910037634113905E-4  
 2.274000000000000E10   -5.683817958015425E-4   2.652227321959799E-4  
 2.276000000000000E10    6.491139676967350E-5   5.797631085897592E-4  
 2.278000000000000E10    4.915982801776409E-4  -4.293478614272317E-4  
 2.280000000000000E10   -4.244291858412908E-4  -6.111376467288210E-4  
 2.282000000000000E10   -6.371066942847392E-4  -6.596593034373655E-4  
 2.284000000000000E10   -5.030504842125083E-4   8.583975309193193E-4  
 2.286000000000000E10    4.669149502660730E-4  -7.048872340220669E-5  
 2.288000000000000E10    7.095030528034840E-4  -6.104510339355329E-4  
 2.290000000000000E10   -6.971500865802227E-4  -4.968869127424114E-4  
 2.292000000000000E10   -7.784090635141183E-4  -7.999568481409369E-5  
 2.294000000000000E10    4.213213697994434E-4   4.672666736951214E-4  
 2.296000000000000E10   -5.153535528279463E-5   9.015031862418255E-4  
 2.298000000000000E10    3.715185912795960E-4  -4.192171104477893E-5  
 2.300000000000000E10    3.993029820321681E-4  -6.953394449737971E-4  
 2.302000000000000E10   -1.044859530793474E-3   1.210196585930135E-4  
 2.304000000000000E10   -5.648847995871620E-4   5.798687602691643E-4  
 2.306000000000000E10    6.220167961146217E-4   6.663344561275153E-4  
 2.308000000000000E10    6.684710035642638E-4  -6.586374151993368E-4  
 2.310000000000000E10   -2.989041734053899E-4  -6.524883069687348E-4  
 2.312000000000000E10   -2.617296186144813E-4   2.316247654334802E-4  
 2.314000000000000E10    1.625408195877753E-4   6.646414794886368E-4  
 2.316000000000000E10    6.828346909060201E-4   3.618758296397573E-4  
 2.318000000000000E10    6.201964547472016E-4   2.441658195948548E-4  
 2.320000000000000E10   -6.030344130181220E-5  -4.461148928385228E-4  
 2.322000000000000E10   -4.009019780824019E-4  -5.375591175038608E-5  
 2.324000000000000E10   -1.161435084213736E-4   5.490640169227845E-4  
 2.326000000000000E10    9.248973822195694E-5   3.193785981920883E-4  
 2.328000000000000E10    8.284466953227820E-4  -2.507241946432259E-4  
 2.330000000000000E10    3.171224581990373E-4  -9.790117151169397E-4  
 2.332000000000000E10   -7.508553285333619E-4  -6.950665456315619E-4  
 2.334000000000000E10    1.664738634872265E-4   6.126555317678140E-4  
 2.336000000000000E10    8.853675958562235E-4   4.517737893365847E-4  
 2.338000000000000E10    6.368125964399951E-4  -8.591345731474576E-4  
 2.340000000000000E10   -1.827598660497642E-4  -7.270657520166424E-4  
 2.342000000000000E10   -4.822402092941047E-4  -1.531455114900382E-4  
 2.344000000000000E10    5.180392894033048E-5   1.321477398050774E-4  
 2.346000000000000E10    1.937211336837663E-4  -5.098878238385396E-5  
 2.348000000000000E10    3.960856283811154E-4  -7.376068583653250E-5  
 2.350000000000000E10    1.226386940516022E-4  -9.483360827289289E-4  
 2.352000000000000E10   -5.140689108884544E-4  -5.736344619435840E-4  
 2.354000000000000E10   -1.077138482287410E-3   7.993119223215217E-5  
 2.356000000000000E10    3.155070062348386E-4   5.157330974725483E-4  
 2.358000000000000E10    1.032994465276715E-3  -1.751169438648503E-4  
 2.360000000000000E10   -6.937943749107944E-5  -1.630017297429731E-3  
 2.362000000000000E10   -1.171328820419149E-3  -6.621574493692606E-5  
 2.364000000000000E10   -8.337030858456274E-4   1.204641081130831E-3  
 2.366000000000000E10    6.827989245721255E-4   1.946983018115134E-4  
 2.368000000000000E10    3.767437001442886E-4  -7.120162908904604E-4  
 2.370000000000000E10   -8.191252063625143E-4  -6.574032277057995E-4  
 2.372000000000000E10   -8.501429256284609E-4  -6.724775349198353E-5  
 2.374000000000000E10   -8.290798077723594E-4   1.339081329376768E-4  
 2.376000000000000E10   -1.131025746872183E-4   2.453498555041733E-4  
 2.378000000000000E10    1.897610009109485E-4  -1.601315357220301E-4  
 2.380000000000000E10    2.786104203096329E-4  -1.331586538981355E-3  
 2.382000000000000E10   -9.465215161981178E-4  -5.183006160223158E-4  
 2.384000000000000E10   -1.083268880393007E-3   9.291029455198441E-4  
 2.386000000000000E10    6.336222688787530E-4   1.447155077585194E-3  
 2.388000000000000E10    7.377170013569412E-4  -4.089497524546459E-4  
 2.390000000000000E10   -8.484790723741753E-4  -8.290827481687302E-4  
 2.392000000000000E10   -1.505936666944763E-3   6.711162814099225E-4  
 2.394000000000000E10   -8.913036441526856E-5   9.222081826010253E-4  
 2.396000000000000E10    1.973861848227898E-4  -2.208232683642564E-5  
 2.398000000000000E10   -1.011414004778999E-4  -4.159344093750406E-4  
 2.400000000000000E10    5.969687470042118E-5   9.133126820870530E-5  
 2.402000000000000E10   -4.808616627087758E-4  -1.176336022581381E-4  
 2.404000000000000E10   -2.852874295058427E-4   6.300288159764023E-4  
 2.406000000000000E10    4.704114608102827E-4   1.492353099820321E-3  
 2.408000000000000E10    6.944685792404926E-4   7.906640721557778E-4  
 2.410000000000000E10   -2.836407647919259E-4  -5.386540478866664E-4  
 2.412000000000000E10   -1.322909116424853E-3   4.691157668048618E-4  
 2.414000000000000E10   -9.774987956916448E-4   9.853769606706919E-4  
 2.416000000000000E10    8.184309690477676E-4   5.897467563045211E-4  
 2.418000000000000E10    4.080712428731204E-4  -3.009117831425101E-4  
 2.420000000000000E10   -1.473192057801498E-4  -5.772535077994689E-4  
 2.422000000000000E10   -1.615294299881498E-4   5.867161635251250E-4  
 2.424000000000000E10   -1.673094084537752E-4   8.186743170881528E-4  
 2.426000000000000E10    1.347840677397016E-4   7.834807556719170E-4  
 2.428000000000000E10    3.916713280887052E-4   6.852195169813058E-4  
 2.430000000000000E10    4.699830158187979E-4   2.771758477706499E-4  
 2.432000000000000E10   -1.101457228287472E-3  -5.041555500611139E-4  
 2.434000000000000E10   -8.732858850635239E-4   5.871823418601707E-4  
 2.436000000000000E10    3.758297134481836E-4   1.121211980716907E-3  
 2.438000000000000E10    1.509178769993014E-3  -1.640571691154946E-4  
 2.440000000000000E10    4.697285635302251E-4  -8.693310410308186E-4  
 2.442000000000000E10   -4.623999348041252E-4  -2.427997605138899E-4  
 2.444000000000000E10   -1.577792857929694E-4   9.433131099285674E-4  
 2.446000000000000E10    7.697408655076288E-4   1.075323368240788E-3  
 2.448000000000000E10    7.313487312785583E-4   3.268677701093736E-4  
 2.450000000000000E10    6.598431349402745E-5  -6.479955623035494E-4  
 2.452000000000000E10   -2.166938752452552E-4  -2.965759140920454E-4  
 2.454000000000000E10   -7.091910238159471E-4   2.378385465817701E-5  
 2.456000000000000E10    3.481902012936189E-4   4.486469393896186E-4  
 2.458000000000000E10    1.100046628380369E-3  -4.086265812475176E-5  
 2.460000000000000E10    1.148691035268712E-3  -1.151973610831192E-3  
 2.462000000000000E10   -2.664707469648420E-4  -8.924247767936322E-4  
 2.464000000000000E10   -7.737432406429434E-4   7.574818573630182E-4  
 2.466000000000000E10    4.472661776162568E-4   1.452577405871125E-3  
 2.468000000000000E10    1.463269745727303E-3  -1.789173813904199E-5  
 2.470000000000000E10   -1.881504160792247E-4  -1.139993779361248E-3  
 2.472000000000000E10   -1.271270115466905E-3  -5.063693442934891E-4  
 2.474000000000000E10   -4.056120019413356E-4   6.055038866179530E-4  
 2.476000000000000E10    2.968128919746960E-4   3.562377038406339E-4  
 2.478000000000000E10    9.388576218043454E-4  -3.900400420207006E-4  
 2.480000000000000E10    4.048263310778566E-4  -8.622970526630525E-4  
 2.482000000000000E10   -7.353200498982915E-4  -7.962524168760865E-4  
 2.484000000000000E10   -1.000676716103044E-3   7.813410493326956E-4  
 2.486000000000000E10    2.598932674118260E-4   1.270015996851726E-3  
 2.488000000000000E10    8.029084065128700E-4  -1.333257628175488E-4  
 2.490000000000000E10   -3.331001244077925E-4  -1.052976608661993E-3  
 2.492000000000000E10   -1.506770455307560E-3  -6.550405523739755E-4  
 2.494000000000000E10   -6.530903547172784E-4   8.346158647327684E-4  
 2.496000000000000E10    5.850288234796608E-4   8.848055676935474E-4  
 2.498000000000000E10    8.899656422727276E-4  -5.486185164045310E-4  
 2.500000000000000E10    1.243025778432383E-4  -6.966084283703822E-4  
 2.502000000000000E10   -7.242766014314839E-4   4.668959240916593E-4  
 2.504000000000000E10   -6.033317818037176E-4   9.101842106247204E-4  
 2.506000000000000E10    2.932984748440504E-4   9.673182421465754E-4  
 2.508000000000000E10   -4.588278000028367E-5   4.152316896579578E-4  
 2.510000000000000E10   -9.165560112478488E-5  -6.886574074087548E-4  
 2.512000000000000E10   -9.191804902002332E-4  -3.903621945937630E-4  
 2.514000000000000E10   -9.203764575431706E-4   5.211928487369733E-4  
 2.516000000000000E10    7.538077916251496E-4   9.458300964979571E-4  
 2.518000000000000E10    9.844089963735314E-4   4.491032774467385E-5  
 2.520000000000000E10    1.572673593273066E-4  -1.168046744624007E-4  
 2.522000000000000E10   -2.449959374644095E-4   3.380399259356182E-5  
 2.524000000000000E10   -1.475159893189471E-4   1.438459109522228E-3  
 2.526000000000000E10   -4.183802598163311E-4   8.496373129673884E-4  
 2.528000000000000E10    6.395287605300837E-4   6.874859798244870E-5  
 2.530000000000000E10   -2.412841824650513E-5   1.696845552032755E-4  
 2.532000000000000E10   -2.236524608179025E-5  -1.032136677167728E-3  
 2.534000000000000E10   -2.367090301049757E-4   2.049683495215504E-4  
 2.536000000000000E10    3.176909531248384E-4   4.201023839414120E-4  
 2.538000000000000E10    1.617850986804115E-3   5.131866969350085E-4  
 2.540000000000000E10    8.977351662906585E-4  -4.541000334938872E-4  
 2.542000000000000E10    1.197159292587458E-4  -3.722506151007110E-4  
 2.544000000000000E10   -3.840386099192017E-4   5.782903008366702E-4  
 2.546000000000000E10    6.453558066823462E-4   7.701593849560595E-4  
 2.548000000000000E10    3.753167402464896E-4   1.637169383457149E-4  
 2.550000000000000E10    7.867684698794619E-4  -7.604779975736165E-4  
 2.552000000000000E10   -3.531671744383402E-6  -4.198482270112436E-4  
 2.554000000000000E10   -4.837587648580666E-4  -3.006961311484702E-4  
 2.556000000000000E10    8.326266488438705E-4   7.736080351605779E-4  
 2.558000000000000E10    1.069688468305685E-3   8.439635917056876E-5  
 2.560000000000000E10    8.137337399602984E-4  -6.735738343195408E-4  
 2.562000000000000E10   -2.430655135867710E-4  -5.938749195593118E-4  
 2.564000000000000E10   -7.045507336442825E-4   1.307734710280784E-4  
 2.566000000000000E10   -1.872568209364545E-4   7.660142700842698E-4  
 2.568000000000000E10    1.106665113184135E-3  -2.283655389874184E-4  
 2.570000000000000E10    4.099951229363796E-4  -1.270186756300973E-3  
 2.572000000000000E10   -4.082584355273866E-4  -9.587245731381699E-4  
 2.574000000000000E10   -4.707495036200271E-4   1.907060624262158E-4  
 2.576000000000000E10    6.342226497508818E-4   6.659452737949323E-4  
 2.578000000000000E10    9.144320929408423E-4   1.262431428585842E-4  
 2.580000000000000E10    4.941961844906473E-5  -6.758935396646848E-4  
 2.582000000000000E10   -3.612632226577262E-4  -7.191987042460823E-4  
 2.584000000000000E10   -1.043862181177246E-3  -1.739987308155833E-4  
 2.586000000000000E10   -9.968037602448021E-6   6.050123320164857E-4  
 2.588000000000000E10    1.048338869622967E-3  -2.877288795843924E-5  
 2.590000000000000E10    5.413673247858242E-4  -1.243706705281511E-3  
 2.592000000000000E10   -1.151574458617688E-4  -9.919301892296062E-4  
 2.594000000000000E10   -6.588886653844384E-4   3.484402739104553E-4  
 2.596000000000000E10    4.237440932683967E-4   1.076174992704182E-3  
 2.598000000000000E10    1.015784384435392E-3   6.919519194070745E-5  
 2.600000000000000E10    2.389486942320218E-4  -9.345863054477377E-4  
 2.602000000000000E10   -8.290939222206362E-4  -3.116008365395828E-4  
 2.604000000000000E10   -6.633880175286322E-4  -2.041524716389631E-6  
 2.606000000000000E10    1.202547257719289E-4   1.749423446995024E-4  
 2.608000000000000E10    5.986079049762338E-4   3.134702399165690E-4  
 2.610000000000000E10    8.780443413343164E-4  -8.120081583911087E-4  
 2.612000000000000E10   -2.571313050339086E-4  -7.244090916174173E-4  
 2.614000000000000E10   -8.839649353831192E-4   2.847390217084467E-4  
 2.616000000000000E10    3.542727372405352E-4   1.132803456130205E-3  
 2.618000000000000E10    8.102071051325765E-4   2.246425337943947E-4  
 2.620000000000000E10    5.103151488583535E-5  -9.532726198813180E-4  
 2.622000000000000E10   -7.361486832451192E-4  -3.344710135024798E-4  
 2.624000000000000E10   -5.870122067790362E-4   2.276696834542236E-4  
 2.626000000000000E10   -4.753559886694347E-5   1.094082744259595E-4  
 2.628000000000000E10    7.775221374686225E-4  -6.307305005748276E-5  
 2.630000000000000E10    3.200570367880573E-4   1.312355493610085E-5  
 2.632000000000000E10   -1.993903129005048E-5  -5.491198971867561E-4  
 2.634000000000000E10   -4.949105086780037E-4  -8.652952851662121E-5  
 2.636000000000000E10   -5.144208057572541E-4   7.280090940184891E-4  
 2.638000000000000E10    5.612660384031187E-4   4.417069394548889E-4  
 2.640000000000000E10    4.792862896465522E-4  -6.359681601679768E-4  
 2.642000000000000E10   -4.749937756969302E-4  -9.661427102400921E-4  
 2.644000000000000E10   -7.158901880757185E-4   1.009450764399844E-5  
 2.646000000000000E10    3.185913406014151E-4   4.456754045349953E-4  
 2.648000000000000E10    4.907554076680754E-4  -8.239874682658410E-5  
 2.650000000000000E10    6.169406292428903E-4  -4.399483618726663E-4  
 2.652000000000000E10    9.782111584399900E-5  -5.246364949016424E-4  
 2.654000000000000E10   -4.122030643429753E-4  -4.850002769671846E-4  
 2.656000000000000E10   -4.110949503228767E-4   1.657704663102777E-4  
 2.658000000000000E10    4.464106864077166E-5   8.588531190980575E-4  
 2.660000000000000E10    9.025685467349831E-4  -1.966629594107872E-4  
 2.662000000000000E10   -9.317351070503577E-5  -1.271058976271888E-3  
 2.664000000000000E10   -1.015990666019206E-3  -5.026613214340614E-4  
 2.666000000000000E10   -4.600613692673505E-4   6.115824262451497E-4  
 2.668000000000000E10    7.816808893039706E-4   5.310358692440786E-4  
 2.670000000000000E10    9.435382553419913E-4  -7.269260268003563E-4  
 2.672000000000000E10   -5.110975594107003E-4  -9.005874280774151E-4  
 2.674000000000000E10   -1.015460928101675E-3   1.047803561959881E-4  
 2.676000000000000E10   -4.582430565278628E-4   5.650962825711758E-4  
 2.678000000000000E10    5.842853238391399E-4  -3.280466984989516E-5  
 2.680000000000000E10   -6.357746860885527E-5  -3.132878314318077E-4  
 2.682000000000000E10   -2.104822427497766E-4  -9.147599694188102E-4  
 2.684000000000000E10   -7.346966103796149E-4  -3.346837384015089E-4  
 2.686000000000000E10   -7.940747336760978E-4   2.675598584573891E-4  
 2.688000000000000E10    6.174252407618042E-4   9.051353572431253E-4  
 2.690000000000000E10    6.465455753641436E-4  -3.740061822554708E-4  
 2.692000000000000E10   -1.952457482730097E-4  -1.159550509328255E-3  
 2.694000000000000E10   -1.411807827025768E-3   8.673685840676626E-5  
 2.696000000000000E10   -3.567244905298139E-4   9.368638693558751E-4  
 2.698000000000000E10    4.335016451477713E-4   1.277293699217807E-4  
 2.700000000000000E10    2.729549990760916E-4  -7.692717008467298E-4  
 2.702000000000000E10   -4.593544878161993E-4  -4.633941443898948E-4  
 2.704000000000000E10   -3.972880917899602E-4  -1.940836764191545E-6  
 2.706000000000000E10   -5.601304098945548E-5   4.675824766309233E-4  
 2.708000000000000E10    3.511420743507188E-6   5.564626017076080E-4  
 2.710000000000000E10    4.542365418274130E-4   1.590694186006658E-4  
 2.712000000000000E10    7.606486167333060E-5  -4.164065649092663E-4  
 2.714000000000000E10   -9.631923303459189E-4  -5.882602126803249E-4  
 2.716000000000000E10   -8.205387284760946E-4   6.713986840622965E-4  
 2.718000000000000E10   -4.403110477824157E-5   7.961420360516058E-4  
 2.720000000000000E10    8.389678687308333E-4  -6.151622128527379E-4  
 2.722000000000000E10   -3.733559510692430E-4  -9.397118583365227E-4  
 2.724000000000000E10   -8.262776837000274E-4  -2.317853900990485E-5  
 2.726000000000000E10   -2.902960227402218E-5   4.539291107903409E-4  
 2.728000000000000E10    4.371019767859252E-4   4.172338740318082E-4  
 2.730000000000000E10    1.067192295067798E-4  -1.340383901577980E-4  
 2.732000000000000E10   -1.962274793072538E-4  -5.400575846579159E-4  
 2.734000000000000E10   -4.905660957774671E-4   1.382095914550519E-4  
 2.736000000000000E10   -1.067549921572208E-3   2.133668401711475E-4  
 2.738000000000000E10   -6.484793712502324E-5   7.289528311957838E-4  
 2.740000000000000E10    4.869768954449683E-4   1.026931537353448E-4  
 2.742000000000000E10    2.007164832775743E-4  -7.402171768262633E-4  
 2.744000000000000E10   -1.011878105600772E-3  -3.745964781955991E-4  
 2.746000000000000E10   -7.464817181244143E-4   7.170179651438957E-4  
 2.748000000000000E10    3.433219180806191E-4   7.428649205394322E-4  
 2.750000000000000E10    7.710444187978283E-4  -3.803701604283560E-4  
 2.752000000000000E10   -4.101209296436537E-5  -2.623728978505824E-4  
 2.754000000000000E10   -8.463049971396686E-4  -2.727356973650785E-4  
 2.756000000000000E10   -3.655455084299319E-4   8.365693820451270E-4  
