#  HZ   S   RI   R     50.00 
! Rohde & Schwarz ZVA40 4Ports - Version 3.90 - 1145.1110k42 SN: 100403
! Date: 2023-10-04 06:39:44
! Measurement: S12 
! 
 2.200000000000000E10    2.337515019803504E-4  -4.494545391935390E-4  
 2.202000000000000E10   -8.902357876650058E-4  -1.089426194084808E-3  
 2.204000000000000E10   -4.298638123145793E-4   1.747010583130759E-4  
 2.206000000000000E10    2.615365647216095E-4   1.027333008096321E-3  
 2.208000000000000E10    7.888511136115994E-4  -7.604473539686296E-4  
 2.210000000000000E10   -6.725022758473642E-4  -7.143297079892363E-4  
 2.212000000000000E10   -9.014461465994827E-4  -4.573225851345342E-5  
 2.214000000000000E10   -7.340332217609102E-5   1.771668057699571E-4  
 2.216000000000000E10   -3.151600378714647E-5  -3.958940960728796E-4  
 2.218000000000000E10   -4.845288422075100E-4  -1.556068632453389E-4  
 2.220000000000000E10    8.378456561786152E-5  -3.980991932621691E-4  
 2.222000000000000E10   -4.459698120626854E-4  -1.739208013304960E-4  
 2.224000000000000E10   -6.803126780141611E-4   2.637485408740758E-5  
 2.226000000000000E10    2.654667850947590E-4   4.601233795256121E-4  
 2.228000000000000E10   -7.929520234029042E-5   2.964794134641124E-5  
 2.230000000000000E10   -6.323163397610188E-4  -2.753049639068195E-4  
 2.232000000000000E10   -7.832480841898359E-4   9.532793274047435E-5  
 2.234000000000000E10   -6.229453756532166E-4   1.099034943763400E-4  
 2.236000000000000E10   -5.023363628424704E-4  -1.955410834852955E-4  
 2.238000000000000E10   -1.194121862226893E-4  -4.339493443694664E-4  
 2.240000000000000E10   -1.335372344328789E-4   5.844201168656582E-4  
 2.242000000000000E10   -7.020193788775941E-5  -2.512374512662063E-4  
 2.244000000000000E10   -2.180006831622450E-4   2.548486445448361E-4  
 2.246000000000000E10   -5.073176525911549E-4   5.083510786789702E-4  
 2.248000000000000E10   -8.950315054789826E-5   1.314004060986918E-3  
 2.250000000000000E10    2.237037897430128E-4  -3.068440837523667E-4  
 2.252000000000000E10   -6.558031382155605E-4  -2.865921392185555E-4  
 2.254000000000000E10   -9.981000439438503E-4   2.631420534271456E-4  
 2.256000000000000E10    6.082941939666853E-5   5.647572324960493E-4  
 2.258000000000000E10    1.016108416251882E-4   9.483317217018339E-5  
 2.260000000000000E10    3.775702916755108E-4  -4.860523840761744E-4  
 2.262000000000000E10   -4.468598126550205E-5   2.875124555430375E-4  
 2.264000000000000E10   -3.140461385555682E-4   3.930395496354322E-4  
 2.266000000000000E10   -2.844410410034470E-4   7.023739744909108E-4  
 2.268000000000000E10    1.728650664745146E-4   7.948655547806993E-4  
 2.270000000000000E10    3.448867828410585E-4   1.621658284420846E-4  
 2.272000000000000E10   -2.463151195115643E-4  -4.111781254323432E-4  
 2.274000000000000E10   -7.911562024673913E-4   2.323319486094988E-4  
 2.276000000000000E10   -3.732381283043651E-4   4.586454742820934E-4  
 2.278000000000000E10    1.021339754515793E-3   6.151676443550969E-4  
 2.280000000000000E10    5.490569583344040E-4  -6.089477028581314E-4  
 2.282000000000000E10    1.981194523068552E-4  -2.749993873294443E-4  
 2.284000000000000E10   -4.871447181358235E-4   3.638399266492343E-4  
 2.286000000000000E10    6.537032459164038E-4   6.887180970807094E-4  
 2.288000000000000E10   -3.237338091821584E-5   3.738256709766574E-4  
 2.290000000000000E10    5.105500531499274E-4  -3.315329718134308E-5  
 2.292000000000000E10    2.618431863083970E-4  -5.091709087423624E-5  
 2.294000000000000E10   -4.811431317648385E-4   2.350378457549596E-5  
 2.296000000000000E10   -2.377661394348252E-4   6.904629553901032E-4  
 2.298000000000000E10    7.371985557256267E-4   6.430848006857559E-4  
 2.300000000000000E10    6.065101042622700E-4  -1.201548270728381E-4  
 2.302000000000000E10   -4.939126611134270E-4  -7.511786679970101E-4  
 2.304000000000000E10   -6.048203904356342E-4   4.792912909579172E-5  
 2.306000000000000E10   -4.146216974731942E-5   1.194245505757863E-3  
 2.308000000000000E10    7.158941662055440E-4   2.716067483561346E-4  
 2.310000000000000E10    6.583370959560853E-4  -3.379792033229023E-4  
 2.312000000000000E10   -5.415288051153766E-4  -3.685239980768529E-4  
 2.314000000000000E10   -1.699460053714574E-4   2.470193940098397E-4  
 2.316000000000000E10   -1.899397020679317E-4   6.225571105460404E-4  
 2.318000000000000E10    3.816505632130429E-4   5.645432647725102E-4  
 2.320000000000000E10    4.903339322481770E-4  -2.115998941008002E-4  
 2.322000000000000E10   -6.607112993606279E-5  -5.702693888451904E-4  
 2.324000000000000E10   -8.620196931587998E-4  -5.155357630428625E-4  
 2.326000000000000E10   -3.004412210430019E-4   1.256316194485407E-3  
 2.328000000000000E10    9.099532071559224E-4   5.686528675141744E-4  
 2.330000000000000E10    5.338368464435916E-4  -5.992969854560215E-4  
 2.332000000000000E10   -8.175968323484995E-4  -6.539782116306014E-4  
 2.334000000000000E10   -8.614446123829112E-4   6.149774890218396E-4  
 2.336000000000000E10   -5.227247402217472E-5   1.040811323036905E-3  
 2.338000000000000E10    5.053007480455563E-4   2.089650943162269E-4  
 2.340000000000000E10    4.462976147578956E-5  -4.323985922383145E-4  
 2.342000000000000E10   -1.681477669990272E-5  -2.440844073134940E-4  
 2.344000000000000E10   -4.388625238789246E-4   4.570408982544905E-4  
 2.346000000000000E10   -7.380324564110197E-5   3.535362593538594E-4  
 2.348000000000000E10    2.892785187214031E-4   7.557394019386265E-4  
 2.350000000000000E10    4.735991424240638E-4   4.611501790350303E-4  
 2.352000000000000E10   -6.553199909831164E-5  -5.300989796523936E-4  
 2.354000000000000E10   -1.393493032082915E-3   3.046495721719111E-4  
 2.356000000000000E10   -3.433676138229203E-4   1.317622802162077E-3  
 2.358000000000000E10    7.867669955885503E-4   1.992805873669568E-4  
 2.360000000000000E10    3.972698978031986E-4  -7.452531499438919E-4  
 2.362000000000000E10   -5.043076635047328E-4  -2.060983988485532E-4  
 2.364000000000000E10   -1.270524253413896E-4   5.980142559565138E-4  
 2.366000000000000E10    3.791973012994276E-4   4.442730642040260E-4  
 2.368000000000000E10    5.554303006647388E-4   4.701046473201131E-4  
 2.370000000000000E10    6.696317768728477E-5   4.142833386140410E-4  
 2.372000000000000E10    8.182711972040124E-4  -1.012947359413374E-4  
 2.374000000000000E10   -3.505260556266876E-4  -2.103168044413906E-4  
 2.376000000000000E10   -5.805605342175113E-4   7.654802684555762E-4  
 2.378000000000000E10    8.737670250411611E-4   1.185755296319258E-3  
 2.380000000000000E10    1.219416182721034E-3  -5.097469238535268E-4  
 2.382000000000000E10   -1.870908922683157E-4  -1.491331051511224E-3  
 2.384000000000000E10   -1.012861204799265E-3   6.597355113626691E-4  
 2.386000000000000E10    2.645872082212009E-4   1.168103452073410E-3  
 2.388000000000000E10    1.736061829433311E-3   1.013408975722996E-4  
 2.390000000000000E10    5.423304392024875E-4  -9.032108282553963E-4  
 2.392000000000000E10    1.498159840593871E-4  -2.091669939545682E-4  
 2.394000000000000E10   -3.143500434816815E-4   3.325211291667074E-4  
 2.396000000000000E10    1.928223018694553E-4   2.432421320008871E-4  
 2.398000000000000E10    4.958477475156542E-4   6.605658709304407E-4  
 2.400000000000000E10    7.239349397423212E-4  -2.288194618813577E-4  
 2.402000000000000E10   -4.112778105991310E-5  -1.399664011842106E-3  
 2.404000000000000E10   -1.165848923847079E-3  -4.040455041831592E-4  
 2.406000000000000E10   -5.087508407086716E-5   6.184207559272181E-4  
 2.408000000000000E10    1.851626962888986E-3  -6.913028300914448E-7  
 2.410000000000000E10    1.308269027504139E-3  -1.477270743635017E-3  
 2.412000000000000E10   -7.982974457263481E-4  -8.713318202353548E-4  
 2.414000000000000E10   -4.744308007502696E-4   4.743234185298206E-4  
 2.416000000000000E10    6.775670335628092E-4   1.071774648153223E-3  
 2.418000000000000E10    4.229383521305863E-4  -7.122758979676291E-4  
 2.420000000000000E10   -1.031386568683956E-4  -4.871461042057490E-4  
 2.422000000000000E10   -5.229767139098840E-4  -7.235241901071277E-4  
 2.424000000000000E10   -6.595285522053018E-4  -7.941965450299904E-4  
 2.426000000000000E10    5.739580092267715E-5   8.068389490745176E-5  
 2.428000000000000E10    7.559230361948721E-4   2.196421155531425E-4  
 2.430000000000000E10    9.028909917105921E-4  -1.014308836602140E-3  
 2.432000000000000E10   -2.121797603393816E-5  -7.081175826897379E-4  
 2.434000000000000E10   -9.918737705447711E-4   2.644073410920100E-4  
 2.436000000000000E10   -2.225219768661191E-4   9.866789114312269E-4  
 2.438000000000000E10    6.803882060921751E-4   2.990879875142127E-4  
 2.440000000000000E10   -2.509157184249489E-4  -1.121535024140030E-3  
 2.442000000000000E10   -5.506222987605725E-4  -9.157174936262891E-4  
 2.444000000000000E10   -7.067844780976884E-4  -4.060296191710222E-5  
 2.446000000000000E10    3.240595451643458E-4  -4.292530456950772E-5  
 2.448000000000000E10    4.229963706166018E-4  -3.088616722379811E-4  
 2.450000000000000E10    8.428281180385966E-4   1.737666002554761E-5  
 2.452000000000000E10   -2.643725074946701E-5  -5.830898771819193E-4  
 2.454000000000000E10   -6.215669091034215E-4   8.231284209614387E-5  
 2.456000000000000E10   -1.123108821047936E-3   9.565597538312431E-4  
 2.458000000000000E10    3.884969992213883E-4   8.159400931617711E-4  
 2.460000000000000E10    3.042903772438876E-4  -7.894530499470420E-4  
 2.462000000000000E10   -6.057869632059010E-4  -1.277867719181813E-3  
 2.464000000000000E10   -9.756317012943327E-4  -3.348101945448434E-4  
 2.466000000000000E10    3.549441844370449E-4   6.394334304786753E-4  
 2.468000000000000E10    7.616608127136715E-4   3.625671124609653E-4  
 2.470000000000000E10    7.707879012741614E-4  -3.241121976316208E-4  
 2.472000000000000E10   -2.687994656298542E-4  -2.379509742240771E-4  
 2.474000000000000E10   -1.049445112585090E-3  -4.681823374852456E-5  
 2.476000000000000E10   -5.489677532750648E-4   7.103006028046366E-4  
 2.478000000000000E10    2.163461126656330E-4   4.751911874336656E-4  
 2.480000000000000E10    6.616602040594444E-4  -7.411985279759392E-4  
 2.482000000000000E10    7.187550204434956E-5  -1.370381658489350E-3  
 2.484000000000000E10   -3.298780011391500E-4  -7.125792835722677E-4  
 2.486000000000000E10   -2.698117032196024E-4   8.565133393858559E-4  
 2.488000000000000E10    1.563224454002921E-3   9.106453180720564E-4  
 2.490000000000000E10    1.194871700135991E-3  -2.129387858076370E-4  
 2.492000000000000E10   -3.958462493756088E-4  -6.335852085612714E-4  
 2.494000000000000E10   -1.298063027206808E-3   6.216157780727372E-4  
 2.496000000000000E10   -4.786617100762669E-4   4.711842484539375E-4  
 2.498000000000000E10    6.223014788702130E-4  -2.681112732716429E-6  
 2.500000000000000E10    5.713800201192498E-4  -8.786671714915428E-4  
 2.502000000000000E10    6.201957148732618E-6  -1.574034140503500E-3  
 2.504000000000000E10   -3.407231906749075E-4  -3.928677942894865E-4  
 2.506000000000000E10    2.369812473261845E-4   1.069450714567211E-3  
 2.508000000000000E10    1.316112276981585E-3   5.409927016444271E-4  
 2.510000000000000E10    1.268563806661405E-3  -2.955883055619779E-4  
 2.512000000000000E10   -1.016865153360413E-3  -6.625328423979227E-4  
 2.514000000000000E10   -1.141889166319743E-3   9.216564421876683E-5  
 2.516000000000000E10   -2.670897301868536E-4   7.586513784190174E-4  
 2.518000000000000E10    5.547809705603868E-4  -1.747660235196236E-4  
 2.520000000000000E10    8.524520235368982E-4  -1.428255702194292E-3  
 2.522000000000000E10   -1.820945917643257E-4  -1.283014404179994E-3  
 2.524000000000000E10   -3.257663502154173E-4  -1.389320905218483E-4  
 2.526000000000000E10    2.041724555965629E-4   5.990278441458941E-4  
 2.528000000000000E10    5.727307689085137E-4   7.433070677507203E-4  
 2.530000000000000E10    3.015425627381774E-4  -4.314915076975012E-4  
 2.532000000000000E10   -1.248991164857216E-4  -7.564896586700343E-4  
 2.534000000000000E10   -1.695475220913068E-3  -1.677976738392317E-4  
 2.536000000000000E10   -3.995188035332831E-4   6.141641024441924E-4  
 2.538000000000000E10    6.034880861989223E-4  -4.175158790076239E-5  
 2.540000000000000E10    4.590454209392192E-4  -1.249586894118693E-3  
 2.542000000000000E10   -6.359766121022403E-4  -1.138478488428518E-3  
 2.544000000000000E10   -3.319023544463562E-4   3.857349165627966E-4  
 2.546000000000000E10   -3.228182113161893E-4   6.720496312482283E-4  
 2.548000000000000E10    5.138737687957473E-4  -1.985246032631949E-5  
 2.550000000000000E10    1.930392409121851E-5  -2.851173376257066E-4  
 2.552000000000000E10   -7.518984966736753E-4  -7.764721158309840E-4  
 2.554000000000000E10   -8.177679701475427E-4  -5.696339976566378E-4  
 2.556000000000000E10   -5.719192449760158E-4   3.543504280969501E-4  
 2.558000000000000E10    2.695193888939684E-4  -3.215291593505754E-5  
 2.560000000000000E10    3.451787015364971E-4  -6.091528448450845E-4  
 2.562000000000000E10   -2.178500781155890E-4  -6.880038417875767E-4  
 2.564000000000000E10   -8.831941195239779E-4   1.234582036886422E-4  
 2.566000000000000E10   -4.292494504625211E-4   5.772284421254881E-4  
 2.568000000000000E10    1.681408089098113E-4   2.587406488601118E-4  
 2.570000000000000E10   -4.482318818190834E-4  -4.444302903721109E-4  
 2.572000000000000E10   -6.038923747837544E-4  -2.775727912194270E-4  
 2.574000000000000E10   -8.422066021012142E-4  -2.696083029150032E-4  
 2.576000000000000E10   -4.659116093534976E-4   2.694090417207917E-4  
 2.578000000000000E10    3.282605193817290E-4   4.575064417622343E-5  
 2.580000000000000E10    4.864917427767068E-4  -4.235334927216172E-7  
 2.582000000000000E10   -1.490688819103525E-4  -5.417261163529474E-4  
 2.584000000000000E10   -9.867836088233162E-4   9.034888353198767E-5  
 2.586000000000000E10   -5.358692033041734E-4   1.025589481287170E-3  
 2.588000000000000E10    5.132576534379041E-4   9.013543458422646E-4  
 2.590000000000000E10    3.458119062997866E-4  -4.600280481099617E-4  
 2.592000000000000E10   -2.959302473755088E-4  -6.750289285264444E-4  
 2.594000000000000E10   -9.451704245293513E-4   2.445632353555993E-4  
 2.596000000000000E10   -1.818132996049826E-4   4.820046742679551E-4  
 2.598000000000000E10    5.243570485617966E-4   5.787218360637780E-4  
 2.600000000000000E10    1.777187349034648E-4   1.194276546812034E-4  
 2.602000000000000E10   -7.316248058941710E-5  -3.344292836118257E-4  
 2.604000000000000E10   -7.982161550899036E-4  -3.031406197351316E-5  
 2.606000000000000E10   -8.846217897371389E-4   9.609656335669570E-4  
 2.608000000000000E10    4.973419545422075E-4   6.359133221849334E-4  
 2.610000000000000E10    1.112153942813166E-3  -1.827285859690164E-4  
 2.612000000000000E10   -4.283183516236022E-4  -9.013880189741030E-4  
 2.614000000000000E10   -6.477741189883091E-4  -3.513421015668428E-4  
 2.616000000000000E10   -4.531254180619726E-4   7.982972347235773E-4  
 2.618000000000000E10    5.803132917208131E-4   8.273732673842460E-4  
 2.620000000000000E10    7.605455793964211E-4  -6.298091448115883E-4  
 2.622000000000000E10   -3.397665959710139E-4  -5.374657921493053E-4  
 2.624000000000000E10   -9.816259116632864E-4  -3.588209310692037E-4  
 2.626000000000000E10   -2.676176391105400E-4   5.610929001704790E-4  
 2.628000000000000E10    6.418881264380616E-5   5.028314808441792E-4  
 2.630000000000000E10    7.926201978989411E-4  -6.141720768937375E-4  
 2.632000000000000E10    2.364746887906222E-4  -7.292361151485238E-4  
 2.634000000000000E10   -9.756091822055168E-4  -3.200680066584027E-5  
 2.636000000000000E10   -4.963953324477188E-4   8.821859737508930E-4  
 2.638000000000000E10    6.898654210090172E-4   1.170501578599215E-3  
 2.640000000000000E10    4.354774100647774E-4  -6.695535957987886E-4  
 2.642000000000000E10   -4.776703462994192E-4  -8.061154621827882E-4  
 2.644000000000000E10   -9.701576054794714E-4   1.180355078247430E-4  
 2.646000000000000E10   -2.906855661422014E-4   8.213944056478795E-4  
 2.648000000000000E10    7.066959478834178E-4   2.471827365297941E-4  
 2.650000000000000E10    3.344844863022445E-4  -2.504734293324873E-4  
 2.652000000000000E10   -2.194385706388857E-4  -4.283889957150677E-4  
 2.654000000000000E10   -2.305595044163056E-4   1.218794241140131E-4  
 2.656000000000000E10   -2.474125012668083E-4   6.968877496547066E-4  
 2.658000000000000E10    5.739252628700342E-8   7.237514291773550E-4  
 2.660000000000000E10    3.929644117306452E-4   1.351637274638051E-4  
 2.662000000000000E10    1.086526191329540E-5  -4.561694258882199E-4  
 2.664000000000000E10   -8.704788415343501E-4  -6.212031948962249E-4  
 2.666000000000000E10   -1.818472792365355E-4   9.455202671233565E-4  
 2.668000000000000E10    4.372157127363607E-4   6.392024806700647E-4  
 2.670000000000000E10    9.073522523976862E-4  -4.898443294223398E-4  
 2.672000000000000E10   -1.828076829042402E-4  -2.856582923413953E-4  
 2.674000000000000E10   -4.067060835950542E-4   3.981005284003913E-4  
 2.676000000000000E10   -3.437681807554327E-4   5.582739177043550E-4  
 2.678000000000000E10    2.304651552549331E-4   5.738309846492484E-4  
 2.680000000000000E10    3.536248077580240E-4   5.575649047386833E-4  
 2.682000000000000E10    5.036868037677778E-5  -4.016731982119381E-4  
 2.684000000000000E10   -5.113086081109941E-4  -3.714797931024805E-4  
 2.686000000000000E10   -1.039188617141917E-3   5.722708556277212E-4  
 2.688000000000000E10    4.226156088407151E-4   8.277907472802326E-4  
 2.690000000000000E10    9.936705901054665E-4   2.195352353737690E-4  
 2.692000000000000E10    3.477242680673953E-4  -8.885169445420615E-4  
 2.694000000000000E10   -8.989823909359984E-4  -1.335953422767489E-4  
 2.696000000000000E10   -1.694256402515748E-4   1.175915371277370E-3  
 2.698000000000000E10    7.232351999846287E-4   7.910131389508024E-4  
 2.700000000000000E10    4.270111530786380E-4  -1.538672495371429E-4  
 2.702000000000000E10   -1.535799110570224E-4  -3.761374937312212E-4  
 2.704000000000000E10   -6.404416271834634E-4   4.419557274104591E-5  
 2.706000000000000E10   -4.417746640683617E-4   2.054603319265880E-4  
 2.708000000000000E10    4.223085852572694E-4   9.105325443670154E-4  
 2.710000000000000E10    7.612543195136823E-4   7.214808465505485E-5  
 2.712000000000000E10    3.063462572754361E-4  -8.439206139883027E-4  
 2.714000000000000E10   -4.162658151471987E-4  -1.231846918017254E-4  
 2.716000000000000E10   -7.428816679748707E-4   1.015332047245465E-3  
 2.718000000000000E10    4.105625303054694E-4   8.728155298740603E-4  
 2.720000000000000E10    6.999834076850675E-4  -1.014359060036441E-5  
 2.722000000000000E10   -4.097594028280582E-4  -6.216985784703866E-4  
 2.724000000000000E10   -7.095449982443824E-4  -6.712698541377904E-5  
 2.726000000000000E10    6.205159752425971E-5   7.729854696663097E-4  
 2.728000000000000E10    3.940853857784532E-4   6.819082627771422E-4  
 2.730000000000000E10    5.872825131518766E-4  -3.460742755123647E-4  
 2.732000000000000E10    1.204383324875380E-4  -1.467307811253704E-5  
 2.734000000000000E10   -3.007147170137614E-4   9.310812686180725E-5  
 2.736000000000000E10   -4.254447048879229E-4   5.499151920957957E-4  
 2.738000000000000E10   -4.925103655750718E-5   9.019949793582782E-4  
 2.740000000000000E10    6.699064324493520E-4   1.448126690775098E-4  
 2.742000000000000E10    7.242908686748706E-4  -6.537133958772756E-4  
 2.744000000000000E10   -6.768509920220822E-4  -4.164974779996555E-4  
 2.746000000000000E10   -1.150789651092055E-4   6.114447387517430E-4  
 2.748000000000000E10    7.731183068244718E-4   8.949433613452129E-4  
 2.750000000000000E10    9.192618526867591E-4  -4.806510693811106E-5  
 2.752000000000000E10    2.541570593166398E-4  -5.433180558611639E-4  
 2.754000000000000E10   -2.931379349320196E-4  -3.208384714525892E-5  
 2.756000000000000E10   -3.408890188438818E-4   5.891045148018748E-4  
