#  HZ   S   RI   R     50.00 
! Rohde & Schwarz ZVA40 4Ports - Version 3.90 - 1145.1110k42 SN: 100403
! Date: 2023-10-04 06:39:03
! Measurement: S12 
! 
 2.200000000000000E10    3.052310376006062E-4  -3.526958516886225E-4  
 2.202000000000000E10   -3.728007450263249E-4  -2.465686857249239E-4  
 2.204000000000000E10   -5.974561390758026E-4   3.834397430182435E-4  
 2.206000000000000E10    4.518128789641196E-4   6.855608444311656E-4  
 2.208000000000000E10    5.268117311061360E-4   3.445022230152972E-6  
 2.210000000000000E10   -4.919466300634667E-4  -5.326545360730961E-4  
 2.212000000000000E10   -6.861208385089412E-4   6.067109497962520E-4  
 2.214000000000000E10   -5.212711203057552E-4   7.346625025093090E-4  
 2.216000000000000E10    2.170296424992557E-4   3.276604675193084E-4  
 2.218000000000000E10    3.741759883268969E-4   8.194898191504763E-5  
 2.220000000000000E10   -3.226899843866704E-4  -9.641613428357232E-5  
 2.222000000000000E10   -7.730921140591818E-6   4.296822635296849E-5  
 2.224000000000000E10   -2.345354634059049E-6   5.429220254882239E-4  
 2.226000000000000E10   -8.428537512372714E-7   6.318311461654957E-4  
 2.228000000000000E10    7.058729061100166E-4   4.689418674388435E-4  
 2.230000000000000E10    2.068702538053913E-4  -3.146228191326372E-4  
 2.232000000000000E10   -6.472996137745213E-4  -8.900225876118384E-5  
 2.234000000000000E10   -5.712731854146114E-5   6.264986368478276E-4  
 2.236000000000000E10    7.790314411977306E-4   1.931085751039063E-4  
 2.238000000000000E10    5.554662493523210E-4  -2.981868219649186E-4  
 2.240000000000000E10    3.593500332499389E-4   2.498155661356805E-5  
 2.242000000000000E10    1.164889094980026E-4   5.337140082701808E-4  
 2.244000000000000E10    2.963264905702090E-4   8.753813999646809E-4  
 2.246000000000000E10    5.423768634500448E-4   6.100610735302325E-4  
 2.248000000000000E10    4.659378100768663E-4   3.717916169989621E-4  
 2.250000000000000E10    4.528784666035790E-5  -4.096402826689882E-4  
 2.252000000000000E10   -5.768613027612446E-4   3.156115008096094E-4  
 2.254000000000000E10   -3.942318453482585E-4   5.578769778367132E-4  
 2.256000000000000E10    7.076702531776391E-4  -1.445380885343184E-4  
 2.258000000000000E10    2.618352436911664E-4  -5.956738132226747E-4  
 2.260000000000000E10    8.321075210915296E-5  -2.179001639888156E-4  
 2.262000000000000E10    2.709854070417350E-4   1.866498851086362E-4  
 2.264000000000000E10    4.522179515333846E-4   5.964433694316540E-4  
 2.266000000000000E10    3.943061728932662E-4   4.825199212064035E-4  
 2.268000000000000E10    2.893033015425317E-4   3.439853044255870E-4  
 2.270000000000000E10   -6.765063858438225E-6  -1.871219237727928E-4  
 2.272000000000000E10    1.326302226516418E-4  -2.938321604233352E-4  
 2.274000000000000E10   -7.835503492970020E-4   1.707329247437883E-4  
 2.276000000000000E10    6.404321140962566E-5   3.665670647023944E-4  
 2.278000000000000E10    7.757913044770248E-4   1.584915223702410E-4  
 2.280000000000000E10    1.937992437888170E-4  -9.576993252267130E-4  
 2.282000000000000E10   -4.220072114549112E-4  -2.838912059814902E-4  
 2.284000000000000E10   -3.079031057495740E-5   2.762376598184346E-4  
 2.286000000000000E10    1.711908259949269E-4   1.366445499115798E-4  
 2.288000000000000E10    1.228432975040050E-4  -2.756244339252589E-4  
 2.290000000000000E10    2.611169576312022E-4  -1.173597033812257E-4  
 2.292000000000000E10   -5.095243359392043E-4  -4.445785962161608E-4  
 2.294000000000000E10   -2.903128840898717E-4  -6.257946733967401E-4  
 2.296000000000000E10    8.462750020044041E-5   7.148358927224763E-4  
 2.298000000000000E10    5.203866930969525E-4   2.572974117356353E-4  
 2.300000000000000E10    9.945730853360146E-4  -7.056124850350898E-4  
 2.302000000000000E10   -2.632542589253717E-4  -7.593749869556632E-4  
 2.304000000000000E10   -8.581568254157901E-4   3.006945462402655E-4  
 2.306000000000000E10    4.019379593955819E-4   8.940657826315146E-4  
 2.308000000000000E10    8.159784192685038E-4   1.765914751103992E-4  
 2.310000000000000E10    1.893173393909819E-4  -1.184690983791370E-3  
 2.312000000000000E10   -5.393399042077363E-4  -1.043727381784265E-4  
 2.314000000000000E10   -3.174282219333691E-4   8.557512082916219E-4  
 2.316000000000000E10    5.606174854619894E-4   1.341576007689582E-4  
 2.318000000000000E10    4.356634599389508E-4   3.613990593294147E-4  
 2.320000000000000E10    2.186311282912357E-4  -2.471049083396792E-4  
 2.322000000000000E10   -1.744821847751155E-4  -1.109287317376584E-3  
 2.324000000000000E10   -4.727372433990240E-4   1.819043678210619E-4  
 2.326000000000000E10   -5.241064036454191E-5   6.928232542122714E-4  
 2.328000000000000E10    1.096436251827981E-3  -1.931291080836672E-4  
 2.330000000000000E10    7.238061662064865E-4  -8.559197813156061E-4  
 2.332000000000000E10   -8.895230603229720E-4  -6.171134627948050E-4  
 2.334000000000000E10   -1.816307330955169E-4   6.877766827528831E-4  
 2.336000000000000E10    9.736651009006891E-4   1.145595932030119E-3  
 2.338000000000000E10    9.774133650353178E-4  -8.924627545638941E-4  
 2.340000000000000E10   -3.126291067019338E-4  -1.160043088020757E-3  
 2.342000000000000E10   -7.438396860379726E-4   2.437937491777120E-4  
 2.344000000000000E10   -7.600162007292965E-5   2.512491482775658E-4  
 2.346000000000000E10    3.897077749570599E-4   1.971167657757178E-4  
 2.348000000000000E10    5.489543073053937E-4   1.283681713175611E-4  
 2.350000000000000E10    5.297103525663260E-4  -6.792922249587718E-4  
 2.352000000000000E10   -2.422887109787553E-4  -4.742683449876495E-4  
 2.354000000000000E10   -9.503842884441838E-4   7.698457084188703E-4  
 2.356000000000000E10    4.232534556649625E-4   1.216229611600284E-3  
 2.358000000000000E10    1.291183863941114E-3  -4.629067716450663E-4  
 2.360000000000000E10   -4.247233910064097E-4  -1.102876449294854E-3  
 2.362000000000000E10   -1.197563287860248E-3  -3.850470457109623E-4  
 2.364000000000000E10   -1.123030875191944E-4   1.162031388957985E-3  
 2.366000000000000E10    1.329697355686221E-3   2.440261305309832E-4  
 2.368000000000000E10    7.805085297150072E-4  -9.496099264652003E-4  
 2.370000000000000E10   -4.081545448570978E-4  -1.238413601640787E-4  
 2.372000000000000E10   -7.900187991793928E-6   2.925305852841120E-4  
 2.374000000000000E10    2.921186460298486E-4   3.295304468338145E-4  
 2.376000000000000E10    2.347607460251311E-5   2.491272507540998E-4  
 2.378000000000000E10    8.219010924221948E-4  -1.892746772682585E-4  
 2.380000000000000E10    3.751503645617049E-4  -8.323047004523687E-4  
 2.382000000000000E10   -5.328798542905133E-4  -8.590460238337982E-4  
 2.384000000000000E10   -2.744863322732272E-4   6.268109536904376E-4  
 2.386000000000000E10    1.586450292961672E-3   5.813270745420596E-4  
 2.388000000000000E10    9.334603382740170E-4  -1.138358005846385E-3  
 2.390000000000000E10   -3.307553870399715E-4  -9.241839761671145E-4  
 2.392000000000000E10   -1.611877551113139E-4   2.686010120669380E-4  
 2.394000000000000E10    4.686870870500570E-4   1.628283853278845E-4  
 2.396000000000000E10    5.836387499584816E-4  -5.834095954924123E-4  
 2.398000000000000E10   -1.015547613860690E-4  -6.221097646630369E-4  
 2.400000000000000E10   -2.428882389722276E-4  -3.301881752122426E-4  
 2.402000000000000E10   -1.110715375034488E-4  -5.088831640023273E-4  
 2.404000000000000E10   -1.043072512402432E-3  -4.069853439432336E-4  
 2.406000000000000E10   -1.289617944166821E-4   2.870354655897245E-4  
 2.408000000000000E10    9.104669152293354E-4  -2.222486000391655E-4  
 2.410000000000000E10    3.070083130296553E-5  -1.755758901708759E-3  
 2.412000000000000E10   -1.206063978315797E-3  -7.935057874419726E-4  
 2.414000000000000E10   -5.505457211256726E-4   1.383532820909750E-3  
 2.416000000000000E10    6.246592784009408E-4   3.995783627033234E-4  
 2.418000000000000E10    4.569520388031378E-4  -4.753529810841428E-4  
 2.420000000000000E10   -7.130862250050996E-4  -6.278068176470697E-4  
 2.422000000000000E10   -1.079638321243692E-3  -2.115779361702153E-4  
 2.424000000000000E10   -6.938185833860189E-4   3.201081726729171E-4  
 2.426000000000000E10   -1.255610159489606E-5   2.830280673151719E-4  
 2.428000000000000E10    6.807271456636954E-4  -5.640498566208407E-4  
 2.430000000000000E10    1.260255612578476E-4  -7.879507829784416E-4  
 2.432000000000000E10   -5.537453798751812E-4  -3.976882217102684E-4  
 2.434000000000000E10   -7.310741857509129E-4   8.004288356460165E-4  
 2.436000000000000E10    7.871560483181384E-4   1.164957764558494E-3  
 2.438000000000000E10    7.998597793630324E-4   3.597164072743908E-5  
 2.440000000000000E10   -5.565688152273651E-4  -1.405990362400189E-3  
 2.442000000000000E10   -1.500215737905819E-3   6.907597477834315E-5  
 2.444000000000000E10   -5.267705309961457E-4   5.416466374299489E-4  
 2.446000000000000E10    7.527471170760691E-4  -1.577351304149488E-5  
 2.448000000000000E10    9.113700180023443E-4  -1.188752452435438E-3  
 2.450000000000000E10   -2.827709340635920E-4  -1.025596186082112E-3  
 2.452000000000000E10   -7.693604165979195E-4   2.378895082983945E-4  
 2.454000000000000E10   -5.586107454291778E-4   1.185906483442523E-3  
 2.456000000000000E10    6.812205829191953E-4   6.902412096678745E-4  
 2.458000000000000E10    8.252806310338201E-5  -3.551503850758309E-4  
 2.460000000000000E10   -6.024387366778683E-4  -8.869498960848432E-4  
 2.462000000000000E10   -1.606443329364993E-3  -5.567439984588418E-4  
 2.464000000000000E10   -1.493675827077823E-4   6.509322120109573E-4  
 2.466000000000000E10    1.058504713000730E-3   1.437565916830863E-4  
 2.468000000000000E10    1.171755138784647E-3  -1.002518245513784E-3  
 2.470000000000000E10   -1.580373532306112E-4  -6.806422061345074E-4  
 2.472000000000000E10   -1.016873182379641E-3   6.361307168845087E-4  
 2.474000000000000E10   -3.113344209850766E-4   1.349662728898693E-3  
 2.476000000000000E10    2.776854621515668E-4   7.471050448657479E-4  
 2.478000000000000E10   -3.118997410638258E-4  -7.791746756993234E-4  
 2.480000000000000E10   -7.950039471324999E-4  -7.359355258813594E-4  
 2.482000000000000E10   -8.781226097198669E-4  -4.675246091210283E-4  
 2.484000000000000E10    9.073356460476134E-5   2.141711593139917E-4  
 2.486000000000000E10    9.528432092338335E-4  -1.056912924468634E-4  
 2.488000000000000E10    9.732718099257909E-4  -8.929020514187869E-4  
 2.490000000000000E10   -2.191578714700881E-4  -5.961021961411461E-4  
 2.492000000000000E10   -6.746485596522689E-4   5.992705991957337E-4  
 2.494000000000000E10   -3.093126106250566E-4   1.035689485433977E-3  
 2.496000000000000E10    1.121300206250453E-4   3.190994484612020E-4  
 2.498000000000000E10   -2.198784532083664E-4  -7.907419130788185E-4  
 2.500000000000000E10   -7.066498619678896E-4  -9.956414287444204E-4  
 2.502000000000000E10   -5.761714837717591E-4  -3.529862078721635E-4  
 2.504000000000000E10    2.072861616397859E-4   4.388807656141580E-5  
 2.506000000000000E10    7.246963432407938E-4   2.728906965785427E-4  
 2.508000000000000E10    6.704652660118882E-4  -3.735216632776428E-4  
 2.510000000000000E10   -1.106973993501015E-4  -3.565586521290243E-4  
 2.512000000000000E10   -8.192468339984771E-4   5.367732519516721E-4  
 2.514000000000000E10   -7.606426006532274E-4   6.072544820199255E-4  
 2.516000000000000E10    1.924066627907450E-4   4.114230741834035E-4  
 2.518000000000000E10    3.504137257550610E-4  -5.679316491296049E-4  
 2.520000000000000E10   -6.176503738970496E-4  -1.007727223623078E-3  
 2.522000000000000E10   -7.040494274406228E-4  -3.707378091348801E-4  
 2.524000000000000E10    3.527648214003420E-4   5.901523454667768E-4  
 2.526000000000000E10    4.202636755508138E-4   4.046830490551656E-4  
 2.528000000000000E10    5.817364526592428E-4   8.376618944794245E-5  
 2.530000000000000E10   -1.557342525302374E-4  -3.066598164878087E-4  
 2.532000000000000E10   -1.333618070930243E-3  -1.345198713238460E-4  
 2.534000000000000E10   -7.431547383021098E-4   8.054287245613523E-4  
 2.536000000000000E10   -1.586442135703692E-4   1.030191815516446E-3  
 2.538000000000000E10    8.411415838054381E-4  -1.003854809823679E-3  
 2.540000000000000E10   -3.600645795813762E-4  -8.678902959218249E-4  
 2.542000000000000E10   -1.100725792639423E-3  -1.244614628603813E-4  
 2.544000000000000E10   -2.065467629108753E-4   1.115935392590473E-3  
 2.546000000000000E10    8.934290453908034E-4   8.675552344357129E-4  
 2.548000000000000E10    4.540566042123828E-4   7.312818121363307E-5  
 2.550000000000000E10   -8.694811331224628E-4  -5.356821238819975E-4  
 2.552000000000000E10   -1.112096659198869E-3   5.239848323981278E-4  
 2.554000000000000E10   -6.959660822758451E-4   1.032075946568511E-3  
 2.556000000000000E10    2.509604400984244E-4   3.788273388636299E-4  
 2.558000000000000E10    5.650322455039714E-4  -4.267537688065204E-4  
 2.560000000000000E10   -6.056378479115665E-4  -7.674195039726328E-4  
 2.562000000000000E10   -1.057506611687131E-3   2.254339069622802E-4  
 2.564000000000000E10   -2.608982777019264E-4   1.659032597672194E-3  
 2.566000000000000E10    7.300180222955532E-4   7.001690937613603E-4  
 2.568000000000000E10    4.283122034394182E-4  -4.789124432136305E-4  
 2.570000000000000E10   -9.367486491100863E-4  -3.751646199816605E-4  
 2.572000000000000E10   -1.017404618323781E-3   8.559392481402028E-4  
 2.574000000000000E10    1.584601420745457E-4   1.106504947529174E-3  
 2.576000000000000E10    7.824366730346810E-4   2.442567829348263E-4  
 2.578000000000000E10    4.077720968780341E-4  -3.806471013376722E-4  
 2.580000000000000E10   -7.472891484212596E-4  -9.216646958520869E-5  
 2.582000000000000E10   -3.595351190597285E-4   8.325209419126622E-4  
 2.584000000000000E10    2.993003927258542E-4   1.153103286924306E-3  
 2.586000000000000E10    4.541956077446230E-4   3.542696849763161E-4  
 2.588000000000000E10   -3.090316511134006E-6  -5.780672090622829E-4  
 2.590000000000000E10   -3.453796614394378E-5  -2.521693222661270E-4  
 2.592000000000000E10   -8.720199148228858E-4   1.261990369130217E-4  
 2.594000000000000E10    4.549223413050640E-4   7.936846050142776E-4  
 2.596000000000000E10    1.077194516255986E-3   2.608179893286433E-4  
 2.598000000000000E10    5.961495498922886E-4  -6.781537085771561E-4  
 2.600000000000000E10   -4.681032805819996E-4  -6.144430938093137E-5  
 2.602000000000000E10   -1.560437858643127E-4   4.554378137981985E-4  
 2.604000000000000E10   -1.353121133433888E-4   5.942945499555208E-4  
 2.606000000000000E10    4.922347143292427E-4   5.567041398535366E-6  
 2.608000000000000E10    3.610001058405032E-4  -3.008987059729407E-4  
 2.610000000000000E10   -2.962181961265742E-4  -6.195662426762283E-4  
 2.612000000000000E10   -1.808733995858347E-4  -1.168088443250781E-4  
 2.614000000000000E10   -3.584546880119888E-5   5.747613577113953E-4  
 2.616000000000000E10    7.187583105405793E-4   4.297110990592046E-4  
 2.618000000000000E10    4.848417647735914E-4  -9.689092576081748E-5  
 2.620000000000000E10   -3.913205455319258E-4  -7.926903308543842E-4  
 2.622000000000000E10   -8.184675534721464E-4   7.537784270539305E-5  
 2.624000000000000E10   -3.026914928341284E-4   8.437804644927383E-4  
 2.626000000000000E10    5.997606058372185E-4   4.354243583293282E-5  
 2.628000000000000E10    4.875347967754351E-4  -8.583807284594514E-4  
 2.630000000000000E10   -1.298865927310544E-4  -3.693606267916039E-4  
 2.632000000000000E10   -1.568682982906466E-4  -4.850560844715801E-5  
 2.634000000000000E10    1.904840501083527E-4   5.164663780306000E-4  
 2.636000000000000E10    4.187579561403254E-4   5.795104698336218E-4  
 2.638000000000000E10    5.491441988851875E-4   1.258613908703410E-4  
 2.640000000000000E10   -2.030585164902732E-4  -5.756402897532098E-4  
 2.642000000000000E10   -9.964500422938727E-4  -9.260205183636572E-5  
 2.644000000000000E10   -5.146019975654781E-4   5.263238999759778E-4  
 2.646000000000000E10    5.687685261364095E-4   3.695708419400035E-4  
 2.648000000000000E10    8.259715577878524E-4  -6.514576543850126E-4  
 2.650000000000000E10   -1.736016815812036E-4  -8.589798926550429E-4  
 2.652000000000000E10   -6.587096431758255E-4   6.545183314301539E-4  
 2.654000000000000E10    2.923518150055315E-5   8.270511134469416E-4  
 2.656000000000000E10    7.820883038220927E-4   9.920008778863121E-5  
 2.658000000000000E10    9.892303933156654E-5  -2.446561338729225E-4  
 2.660000000000000E10   -4.514129759627394E-4  -2.996981729666004E-4  
 2.662000000000000E10   -6.500454619526863E-4  -5.033886816363520E-5  
 2.664000000000000E10   -4.961175545759033E-4   4.220466471451800E-4  
 2.666000000000000E10    6.046180569683202E-4   5.843222606927156E-4  
 2.668000000000000E10    9.004193780128844E-4  -4.052744370710570E-4  
 2.670000000000000E10   -2.944713269243948E-4  -6.427434273064137E-4  
 2.672000000000000E10   -8.730126719456166E-4   9.286317344958661E-5  
 2.674000000000000E10    3.080631483953766E-5   1.432704724720679E-3  
 2.676000000000000E10    7.090467333910056E-4   3.979600260208827E-4  
 2.678000000000000E10    1.296265486416814E-4  -7.073152519296855E-4  
 2.680000000000000E10   -6.307355215540156E-4  -5.644526245305315E-4  
 2.682000000000000E10   -6.545572250615805E-4   4.985064806533046E-4  
 2.684000000000000E10    4.470751009648666E-4   6.598783947993070E-4  
 2.686000000000000E10    4.013625839434099E-4  -2.199519758505630E-5  
 2.688000000000000E10    7.013209906290285E-4  -2.659381425473839E-5  
 2.690000000000000E10   -1.098218181141419E-4  -2.778059842967195E-4  
 2.692000000000000E10   -3.340691218909342E-4   1.425501621667991E-4  
 2.694000000000000E10    1.065820679286844E-4   1.035463224980049E-3  
 2.696000000000000E10    6.169834305183031E-4   8.369482166017406E-4  
 2.698000000000000E10    8.025527713471092E-4  -3.635270077211317E-4  
 2.700000000000000E10   -3.053083819395397E-4  -7.161526591517031E-4  
 2.702000000000000E10   -8.641108361189254E-4   1.905700974020874E-4  
 2.704000000000000E10    3.162925240758341E-4   7.590494788018987E-4  
 2.706000000000000E10    1.089952769689262E-3   1.975501891138265E-4  
 2.708000000000000E10    5.773829761892557E-4  -3.765415567613673E-4  
 2.710000000000000E10   -9.413410225533880E-6  -4.875419326708652E-4  
 2.712000000000000E10   -4.336688398325350E-4   2.367204670008505E-4  
 2.714000000000000E10   -9.831198804022279E-5   5.149932003405411E-4  
 2.716000000000000E10    7.832623014110141E-4   4.436443232407328E-4  
 2.718000000000000E10    4.084231422893936E-4  -2.351202929276042E-4  
 2.720000000000000E10   -1.798275932287652E-4  -7.743224705336615E-4  
 2.722000000000000E10   -6.828018449596129E-4  -4.018456820631400E-4  
 2.724000000000000E10   -3.017673225258477E-4   8.925501315388829E-4  
 2.726000000000000E10    1.343142561381683E-3   2.996382754645310E-4  
 2.728000000000000E10    1.061367031070404E-3  -7.181565451901406E-4  
 2.730000000000000E10   -2.859530868590809E-4  -7.636438895133324E-4  
 2.732000000000000E10   -7.174814963946119E-4   5.295773808029480E-4  
 2.734000000000000E10    1.891327774501406E-4   1.053916406817734E-3  
 2.736000000000000E10    7.124371622921899E-4   1.721652306514443E-4  
 2.738000000000000E10    1.092348675229005E-4  -6.413865958165843E-4  
 2.740000000000000E10   -4.819883761228994E-4  -1.041382347466424E-4  
 2.742000000000000E10   -5.340063871699385E-4  -1.590915967426554E-4  
 2.744000000000000E10    2.920283441198990E-4   4.414743743836880E-4  
 2.746000000000000E10    5.473461933434010E-4   2.350583745283075E-4  
 2.748000000000000E10    9.417708788532764E-4  -7.324390098801814E-4  
 2.750000000000000E10   -1.069718684334475E-4  -4.694201488746330E-4  
 2.752000000000000E10   -4.855071201745886E-4   3.479051847534720E-4  
 2.754000000000000E10    3.920819945051335E-4   9.228029666701332E-4  
 2.756000000000000E10    7.164850976550952E-4   4.638012396753766E-4  
