#  HZ   S   RI   R     50.00 
! Rohde & Schwarz ZVA40 4Ports - Version 3.90 - 1145.1110k42 SN: 100403
! Date: 2023-10-04 06:38:25
! Measurement: S12 
! 
 2.200000000000000E10    6.744905331288464E-4   3.119863986285054E-4  
 2.202000000000000E10   -3.281845820310991E-4  -6.431283381971298E-4  
 2.204000000000000E10   -3.096934597124346E-4  -4.633332937373780E-4  
 2.206000000000000E10   -5.785768325949903E-5  -2.602069980639499E-5  
 2.208000000000000E10    5.722960177081404E-4  -2.984270604429185E-4  
 2.210000000000000E10    4.969247238477692E-4  -7.556886484962888E-4  
 2.212000000000000E10    3.305689401713607E-4  -2.948063054191152E-4  
 2.214000000000000E10   -8.815080161639344E-5  -5.543996267078910E-4  
 2.216000000000000E10    2.602004797154223E-4   3.828464969046763E-5  
 2.218000000000000E10   -3.728181363840122E-4   5.852284630236682E-6  
 2.220000000000000E10   -6.271787742662127E-5   2.526327534724260E-5  
 2.222000000000000E10    2.495427638677938E-4  -3.305077407276258E-4  
 2.224000000000000E10   -5.918196184211411E-4  -4.106055766897043E-4  
 2.226000000000000E10   -8.924541543819942E-4  -4.193876702629495E-4  
 2.228000000000000E10    6.657916601398028E-4  -2.468976576892601E-4  
 2.230000000000000E10    3.295123342468287E-4  -4.861705874645850E-4  
 2.232000000000000E10    2.522935756132938E-5  -5.691862716048490E-4  
 2.234000000000000E10   -3.618415485107107E-5   9.288193359680008E-5  
 2.236000000000000E10   -3.668077042675577E-4   2.824420571414521E-4  
 2.238000000000000E10   -2.269642486680823E-4   4.222335919621401E-4  
 2.240000000000000E10    2.376265701968805E-4   1.958868847395934E-4  
 2.242000000000000E10   -1.753495780576486E-4  -7.877155694586691E-4  
 2.244000000000000E10   -4.182642260275316E-4  -5.348397899069823E-4  
 2.246000000000000E10   -7.115602820704226E-4  -3.147082143186708E-4  
 2.248000000000000E10   -2.212195840911591E-5   8.027423211842688E-5  
 2.250000000000000E10    6.476547423517332E-4  -6.197081675054506E-4  
 2.252000000000000E10    3.212439423805336E-5  -8.333590594702400E-4  
 2.254000000000000E10   -6.290610672294861E-4  -6.198558548931032E-4  
 2.256000000000000E10   -3.792540082940832E-4   6.301043686107732E-4  
 2.258000000000000E10    2.495808812454925E-4   6.810383420088328E-4  
 2.260000000000000E10    2.078283069977260E-4  -2.878717896237504E-4  
 2.262000000000000E10   -3.126319697912550E-4  -9.955116911442019E-4  
 2.264000000000000E10   -3.684581570269074E-4  -3.183842036378337E-4  
 2.266000000000000E10   -9.369292019982822E-4   5.892498222692666E-6  
 2.268000000000000E10    1.609216161284621E-4   2.467099311616039E-4  
 2.270000000000000E10    6.245374097488821E-4   1.975009015495743E-4  
 2.272000000000000E10   -1.497338987519470E-4  -7.791761127009522E-4  
 2.274000000000000E10   -1.111540594138205E-3  -1.225179485118133E-4  
 2.276000000000000E10   -4.161385386396432E-4   7.637038870598190E-4  
 2.278000000000000E10    4.544582116068341E-4   3.554322247509845E-4  
 2.280000000000000E10    1.001857335722889E-4  -5.573538765020203E-4  
 2.282000000000000E10    9.331179398941458E-6  -7.765107402519789E-4  
 2.284000000000000E10   -4.617975591827417E-4   1.678965833207258E-4  
 2.286000000000000E10    3.407139620321686E-4   2.599104518594686E-4  
 2.288000000000000E10    3.043934020752204E-4   4.261761787347496E-4  
 2.290000000000000E10   -1.547009014757350E-5   2.628080037538894E-4  
 2.292000000000000E10    2.825680694513721E-4   2.642471872604801E-5  
 2.294000000000000E10   -7.212590804783758E-5   1.505328573330189E-4  
 2.296000000000000E10   -9.261839004466310E-4   3.081823992943100E-4  
 2.298000000000000E10    2.860468393919291E-4   7.896554307080805E-4  
 2.300000000000000E10    5.611691267404240E-4  -3.608536883348279E-5  
 2.302000000000000E10   -2.058155927215921E-4  -4.676992866734508E-4  
 2.304000000000000E10   -7.427031778206583E-4  -2.008252095038188E-4  
 2.306000000000000E10    1.240422261616914E-5   7.722161499259528E-4  
 2.308000000000000E10    1.228967096267297E-4  -1.906737547869852E-4  
 2.310000000000000E10    1.926658644606505E-4   8.797035980023793E-5  
 2.312000000000000E10   -5.733333400712581E-4   2.062887933789170E-4  
 2.314000000000000E10   -4.247235426291240E-5  -4.214932123431936E-4  
 2.316000000000000E10   -1.137197488105812E-4  -2.544530502746056E-6  
 2.318000000000000E10   -1.642227668980922E-4   7.564024308521766E-4  
 2.320000000000000E10    6.190534695633687E-4  -6.485302264991333E-6  
 2.322000000000000E10    1.009406991215656E-3  -4.467735634534620E-4  
 2.324000000000000E10   -6.641052459599450E-4  -7.117105378711131E-4  
 2.326000000000000E10   -7.249405425682198E-4   2.897389276768081E-4  
 2.328000000000000E10    5.391512677306309E-4   1.276892129681073E-3  
 2.330000000000000E10    8.268382698588539E-4  -5.377013148972765E-4  
 2.332000000000000E10   -9.477550884184893E-5  -1.046825607772917E-3  
 2.334000000000000E10   -8.534281587344594E-4   3.440792534092907E-5  
 2.336000000000000E10   -1.562407519486442E-4   1.590869174492582E-4  
 2.338000000000000E10    3.627200894698035E-4   2.683082166186068E-4  
 2.340000000000000E10    3.184878260071855E-4   2.568649260865641E-4  
 2.342000000000000E10    3.857087449432584E-4  -3.878452980643488E-4  
 2.344000000000000E10   -5.998893793730531E-4  -8.027933545236010E-4  
 2.346000000000000E10   -1.145182104664855E-3   5.288258980726823E-4  
 2.348000000000000E10   -5.540846759686247E-4   7.446930394507945E-4  
 2.350000000000000E10    9.577481869200710E-4  -2.068560525003704E-5  
 2.352000000000000E10   -1.911470226332312E-4  -1.322772674029693E-3  
 2.354000000000000E10   -1.034761837217957E-3  -9.693655883893371E-4  
 2.356000000000000E10   -8.466002618661150E-4   6.956359284231439E-4  
 2.358000000000000E10    1.084693707525730E-3   7.112256935215555E-4  
 2.360000000000000E10    5.932617641519755E-4  -7.420245310640894E-4  
 2.362000000000000E10   -1.016909336613026E-3  -9.030131695908494E-4  
 2.364000000000000E10   -1.228801993420348E-3   6.494544068118557E-4  
 2.366000000000000E10   -4.268801967555191E-4   4.842715352424420E-4  
 2.368000000000000E10    3.857395813611220E-5   2.655763928487431E-4  
 2.370000000000000E10    2.897404738178011E-4  -2.346842948099948E-4  
 2.372000000000000E10    3.242097991460469E-4  -7.571251771878451E-4  
 2.374000000000000E10   -1.099607208743691E-3  -4.177781556791160E-4  
 2.376000000000000E10   -7.330630905926228E-4   1.072988670784980E-3  
 2.378000000000000E10    7.768896684865467E-4   1.167757305665873E-3  
 2.380000000000000E10    1.006775055429898E-3  -3.629900293162791E-4  
 2.382000000000000E10   -7.869601759011857E-4  -7.399333844659850E-4  
 2.384000000000000E10   -1.749433664372191E-3   5.502491039806046E-4  
 2.386000000000000E10   -3.771569099626504E-4   1.748714115819894E-3  
 2.388000000000000E10    1.039682312693913E-3   8.257417994173011E-5  
 2.390000000000000E10   -6.389773943737964E-5  -8.543910807929933E-4  
 2.392000000000000E10   -8.737265525269322E-4  -5.345667632354889E-4  
 2.394000000000000E10   -5.244510903139599E-4   7.308637868845835E-4  
 2.396000000000000E10    4.861645538767334E-5   5.440427921712399E-4  
 2.398000000000000E10    2.240868279841379E-4   5.837716744281352E-4  
 2.400000000000000E10    4.864318980253302E-4   2.580829495855141E-4  
 2.402000000000000E10   -2.202597861469258E-4  -5.769564668298699E-4  
 2.404000000000000E10   -7.449899494531564E-4   2.524784576962702E-4  
 2.406000000000000E10   -6.329783209366724E-4   1.856365939602256E-3  
 2.408000000000000E10    9.522653635940515E-4   4.759686526085716E-4  
 2.410000000000000E10    4.998434815206565E-4  -6.688045759801753E-4  
 2.412000000000000E10   -1.021495423628949E-3   1.912423829253385E-5  
 2.414000000000000E10   -6.067777358111925E-4   6.815922606620006E-4  
 2.416000000000000E10    6.684895633952692E-4   5.473320561577566E-4  
 2.418000000000000E10    4.477451802813448E-4   1.032094353377033E-4  
 2.420000000000000E10    1.220001668116311E-4   1.250209334102692E-5  
 2.422000000000000E10    8.350831990355800E-5   1.848835527198389E-4  
 2.424000000000000E10   -2.511285383661743E-4   5.265994586807210E-4  
 2.426000000000000E10   -3.537291304382961E-4   3.653225194284460E-4  
 2.428000000000000E10    5.434560953290202E-4   1.108017109800130E-3  
 2.430000000000000E10    5.618237191811204E-4  -4.591658080244088E-5  
 2.432000000000000E10    7.210313924588263E-6  -9.725409327074885E-4  
 2.434000000000000E10   -1.052734180120751E-3   2.704771104617976E-4  
 2.436000000000000E10   -1.241097697857185E-5   1.060981332557276E-3  
 2.438000000000000E10    1.170378163806163E-3   1.454780021958868E-4  
 2.440000000000000E10    6.498212023871020E-4  -5.168529169168323E-4  
 2.442000000000000E10   -2.038094780800748E-4  -2.915821755777870E-5  
 2.444000000000000E10   -3.766246481973212E-4   6.446622865041718E-4  
 2.446000000000000E10   -7.207627390926064E-6   1.049482234520838E-3  
 2.448000000000000E10    3.450636941124685E-4   4.450779815670103E-4  
 2.450000000000000E10    6.226009354577400E-4  -1.919987043947913E-4  
 2.452000000000000E10    8.205937649563566E-5  -7.772069293423556E-4  
 2.454000000000000E10   -7.109174985089339E-4  -6.454973336076364E-4  
 2.456000000000000E10   -9.809995844989317E-5   9.830179769778624E-4  
 2.458000000000000E10    1.369737146887928E-3   7.900597629486583E-4  
 2.460000000000000E10    1.648261313675903E-3  -3.144517831970006E-4  
 2.462000000000000E10   -3.282802608737256E-4  -7.391653707600199E-4  
 2.464000000000000E10   -1.142083521699533E-3   6.235925029614009E-4  
 2.466000000000000E10   -2.152386932721129E-4   1.128249044995755E-3  
 2.468000000000000E10    1.155079677118920E-3   3.813083312707022E-4  
 2.470000000000000E10    4.424811158969533E-4  -1.283962919842452E-3  
 2.472000000000000E10   -3.216390905436128E-4  -7.754093021503650E-4  
 2.474000000000000E10   -3.664325049612671E-4   9.051520191860618E-5  
 2.476000000000000E10    3.084446070715785E-4   6.281470195972361E-4  
 2.478000000000000E10    1.105822200770490E-3   5.790024806628935E-4  
 2.480000000000000E10    5.661673494614661E-4  -4.254500236129388E-4  
 2.482000000000000E10   -3.917329522664659E-4  -6.623287044931203E-4  
 2.484000000000000E10   -1.195097807794809E-3   7.759953368804418E-4  
 2.486000000000000E10   -9.754602501743648E-5   1.102041904232465E-3  
 2.488000000000000E10    7.206738227978349E-4   3.594687757413340E-5  
 2.490000000000000E10    5.149887292645872E-4  -1.196229728520848E-3  
 2.492000000000000E10   -6.625663445447572E-4  -7.425135991070420E-4  
 2.494000000000000E10   -4.704196726379450E-4   7.382951298495755E-4  
 2.496000000000000E10    8.829881480778568E-4   1.222741339006461E-3  
 2.498000000000000E10    1.010843290714547E-3   4.871154010288592E-5  
 2.500000000000000E10    2.104983905155677E-4  -1.882902906800155E-4  
 2.502000000000000E10   -8.540687631466426E-4  -1.116075172831188E-4  
 2.504000000000000E10   -9.033676760736853E-4   6.263476316235028E-4  
 2.506000000000000E10    6.864697206765413E-5   7.253959993249737E-4  
 2.508000000000000E10    6.521813629660755E-4  -2.776837220608286E-5  
 2.510000000000000E10    6.156424715300091E-4  -1.092585211154074E-3  
 2.512000000000000E10   -7.275420939549804E-4  -4.346117602835875E-4  
 2.514000000000000E10   -3.466650305199437E-4   8.823580647003837E-4  
 2.516000000000000E10    9.099424642045051E-4   1.292195520363748E-3  
 2.518000000000000E10    6.756544753443450E-4   5.725774258280580E-6  
 2.520000000000000E10   -6.492225520560169E-5  -3.973845923610497E-4  
 2.522000000000000E10   -5.654757842421532E-4   5.533112562261522E-5  
 2.524000000000000E10   -3.953481937060133E-4   9.688350610304042E-5  
 2.526000000000000E10    5.268364220682997E-4   2.196698005718645E-4  
 2.528000000000000E10    6.678070640191436E-4  -1.786415741662495E-4  
 2.530000000000000E10    7.816412035026588E-4  -4.645121589419432E-4  
 2.532000000000000E10    2.014649580814876E-4  -5.076050947536714E-4  
 2.534000000000000E10   -1.741810337989591E-4   4.363246989669278E-4  
 2.536000000000000E10    2.288926280016312E-4   7.210367111838423E-4  
 2.538000000000000E10    1.091063953936100E-3   2.134601072611986E-5  
 2.540000000000000E10    4.436498613813455E-6  -6.837412365712225E-4  
 2.542000000000000E10   -6.471521410276182E-4  -7.147730357246473E-4  
 2.544000000000000E10   -1.111916590161854E-4   1.373943323415006E-4  
 2.546000000000000E10    4.481393953028601E-4   8.622775339972577E-5  
 2.548000000000000E10    6.977309240028262E-4  -8.127095861709677E-4  
 2.550000000000000E10    4.300515065551736E-4  -4.478242553886958E-4  
 2.552000000000000E10   -1.995894417632371E-4  -5.860778619535267E-4  
 2.554000000000000E10   -2.648051031428622E-4  -4.848602111451328E-4  
 2.556000000000000E10    1.781530318112345E-5   7.941537842270918E-4  
 2.558000000000000E10    6.356685917126015E-4  -1.574194452587108E-4  
 2.560000000000000E10    5.121663489262573E-4  -1.165959431091324E-3  
 2.562000000000000E10   -3.724603484442923E-4  -9.059144940692931E-4  
 2.564000000000000E10   -6.387039757100865E-4  -7.541859395132633E-5  
 2.566000000000000E10    4.293788661016151E-4   5.558479315368459E-4  
 2.568000000000000E10    1.075941007002257E-3  -5.739130119764013E-5  
 2.570000000000000E10    1.922128067235462E-4  -1.061147238942795E-3  
 2.572000000000000E10   -6.748027226421982E-4  -4.687028194894083E-4  
 2.574000000000000E10   -6.028055577189662E-4   4.254051309544593E-4  
 2.576000000000000E10    1.848391148087103E-4   8.031637626118027E-4  
 2.578000000000000E10    8.313185462611727E-4  -6.186160462675616E-4  
 2.580000000000000E10    2.488585541868815E-4  -1.061471019056626E-3  
 2.582000000000000E10   -6.561423942912370E-4  -5.306861930876039E-4  
 2.584000000000000E10   -7.873805298004299E-4   2.639001395436935E-4  
 2.586000000000000E10   -1.519571060271119E-5   9.622038996894844E-4  
 2.588000000000000E10    1.325650082435459E-3   5.384498763305601E-6  
 2.590000000000000E10   -1.766260875228909E-4  -1.213520692544989E-3  
 2.592000000000000E10   -1.166252390248701E-3  -2.819605288095772E-4  
 2.594000000000000E10   -6.168803665786982E-4   9.909616564982571E-4  
 2.596000000000000E10    8.833383399178274E-4   3.776693338295445E-4  
 2.598000000000000E10    7.286072286660783E-4  -6.926661008037627E-4  
 2.600000000000000E10   -1.960937406693120E-4  -8.881030880729668E-4  
 2.602000000000000E10   -8.756860988796689E-4   2.168406408600276E-4  
 2.604000000000000E10   -2.152304669778005E-5   7.435996230924502E-4  
 2.606000000000000E10    3.232706658309326E-4   3.271233326813672E-4  
 2.608000000000000E10    4.044533343403600E-4  -2.747747730609262E-4  
 2.610000000000000E10   -1.298951046919683E-4  -5.380315778893419E-4  
 2.612000000000000E10   -8.467035368084908E-4  -3.381029036972905E-4  
 2.614000000000000E10   -5.738567706430331E-4   2.297687187819975E-4  
 2.616000000000000E10    5.538646801142022E-4   6.068911243346520E-4  
 2.618000000000000E10    1.058719091815874E-3  -2.266922074340982E-4  
 2.620000000000000E10    5.027567249271669E-5  -1.078248125850223E-3  
 2.622000000000000E10   -8.781521901255474E-4   2.715271657507401E-4  
 2.624000000000000E10   -1.065620781446341E-4   8.588425407651812E-4  
 2.626000000000000E10    4.008238429378253E-4   1.948132594407070E-4  
 2.628000000000000E10    5.257669545244426E-4   1.232938211614965E-5  
 2.630000000000000E10   -3.825719504675362E-4  -5.198607796046417E-4  
 2.632000000000000E10   -1.882251799543155E-4  -3.709531047206838E-4  
 2.634000000000000E10   -5.246032014838420E-4   1.469056933274260E-4  
 2.636000000000000E10    3.599415322241839E-4   2.131771088897949E-4  
 2.638000000000000E10    7.748687057755888E-4   1.324908289461746E-4  
 2.640000000000000E10    4.908938935841434E-4  -6.981988990446553E-4  
 2.642000000000000E10   -7.808844820829108E-4  -2.098246714012930E-4  
 2.644000000000000E10   -7.281236321432516E-4   1.133714089519344E-3  
 2.646000000000000E10    5.824507024954073E-4   7.622140910825692E-4  
 2.648000000000000E10    4.646156594390050E-4  -6.548405581270345E-4  
 2.650000000000000E10   -4.252688777341973E-4  -6.786173617001623E-4  
 2.652000000000000E10   -4.449640728125814E-4  -1.584741039550863E-4  
 2.654000000000000E10   -6.308275078481529E-5   1.769209520716686E-4  
 2.656000000000000E10    2.787398625514470E-4   3.557634045137093E-4  
 2.658000000000000E10    4.916207799396943E-4  -1.318463337725007E-4  
 2.660000000000000E10    3.301843935332727E-4  -2.881709351640893E-4  
 2.662000000000000E10   -2.798978530336171E-4  -3.907228856405709E-4  
 2.664000000000000E10   -7.332250461331569E-4   5.815927070216276E-4  
 2.666000000000000E10    2.064388754661195E-4   9.583402352291159E-4  
 2.668000000000000E10    6.482480239355937E-4  -2.533372844482074E-4  
 2.670000000000000E10    1.191331944028207E-5  -1.126606221077964E-3  
 2.672000000000000E10   -8.424950865446590E-4  -3.329685059725307E-4  
 2.674000000000000E10   -8.859393665261450E-5   5.735459708375856E-4  
 2.676000000000000E10    1.063010029611178E-3   5.681976035702974E-4  
 2.678000000000000E10    7.407101802527905E-4  -6.818813635618426E-4  
 2.680000000000000E10   -1.863697434600908E-4  -3.819484809355345E-4  
 2.682000000000000E10   -5.303108482621610E-4   1.834260528994491E-4  
 2.684000000000000E10   -1.992398374568438E-4   4.911060495942365E-4  
 2.686000000000000E10   -3.387142969586421E-4   3.339810791658238E-4  
 2.688000000000000E10    7.444381844834425E-4  -2.636305835039821E-4  
 2.690000000000000E10    4.154214275331469E-5  -1.021359486912843E-3  
 2.692000000000000E10   -4.617777158273384E-4  -5.768221599282697E-4  
 2.694000000000000E10   -2.596195517980959E-4   1.312667263846379E-4  
 2.696000000000000E10    5.671455182891805E-4   2.425197690172354E-4  
 2.698000000000000E10    1.156011101556942E-3  -2.481252668076195E-4  
 2.700000000000000E10   -4.220486734993756E-4  -8.815691398922354E-4  
 2.702000000000000E10   -5.781965810456313E-4   7.449936470038665E-5  
 2.704000000000000E10   -3.321790572954342E-4   8.465628998237662E-4  
 2.706000000000000E10    3.466160560492426E-4   1.291608782594267E-4  
 2.708000000000000E10    3.902658354490995E-4  -6.865143950562924E-4  
 2.710000000000000E10   -1.196685152535792E-4  -6.174274240038358E-4  
 2.712000000000000E10   -3.521078579069581E-4  -4.904816269117873E-4  
 2.714000000000000E10   -3.649956342997029E-4  -1.596711217644042E-5  
 2.716000000000000E10    2.208895202784333E-4   6.200388743309304E-4  
 2.718000000000000E10    7.376580251730047E-4  -3.042273492610548E-4  
 2.720000000000000E10    6.216974579729140E-4  -7.444212606060319E-4  
 2.722000000000000E10   -1.233271294040605E-3  -1.361994167154990E-4  
 2.724000000000000E10   -6.989473840803839E-4   6.440251818276011E-4  
 2.726000000000000E10    6.189267078298144E-4   3.788853246078361E-4  
 2.728000000000000E10    8.155281284416560E-5  -7.560939920949750E-4  
 2.730000000000000E10   -1.881473035609815E-4  -1.225908708875068E-3  
 2.732000000000000E10   -8.899115346139297E-4  -2.709839827730320E-4  
 2.734000000000000E10   -4.975732954335399E-4   3.173236091242870E-4  
 2.736000000000000E10    3.612345972214826E-4   2.305247089680051E-4  
 2.738000000000000E10    6.687474815407768E-4   1.024846561179515E-4  
 2.740000000000000E10   -2.382289039815078E-4  -1.010259802569635E-3  
 2.742000000000000E10   -5.901395197724924E-4  -2.904826906160452E-4  
 2.744000000000000E10   -8.646517599117942E-4   7.237017998704687E-4  
 2.746000000000000E10    1.633434967516223E-4   8.413702016696334E-4  
 2.748000000000000E10    9.654174791648984E-4  -5.241388280410320E-4  
 2.750000000000000E10   -5.573675443883985E-4  -1.110467477701604E-3  
 2.752000000000000E10   -1.360910217044875E-3  -2.725142439885531E-4  
 2.754000000000000E10   -2.342609695915598E-5   8.870968158589676E-4  
 2.756000000000000E10    5.391835729824379E-4   5.546487627725583E-4  
