#  HZ   S   RI   R     50.00 
! Rohde & Schwarz ZVA40 4Ports - Version 3.90 - 1145.1110k42 SN: 100403
! Date: 2023-10-04 06:37:53
! Measurement: S12 
! 
 2.200000000000000E10    8.792372682364658E-5  -1.474989821872441E-4  
 2.202000000000000E10   -7.748123607598245E-5  -7.351395834120922E-4  
 2.204000000000000E10   -1.282871467992663E-3  -4.312607870815555E-5  
 2.206000000000000E10   -6.372517455019988E-4   2.433642421237892E-4  
 2.208000000000000E10    2.818441025738139E-4  -4.317915008869022E-4  
 2.210000000000000E10    6.939621016499586E-5  -6.987451415625401E-4  
 2.212000000000000E10   -6.336225669656415E-4  -7.292016598512419E-4  
 2.214000000000000E10    1.543762746223365E-4   3.546254229149781E-4  
 2.216000000000000E10   -4.605258873198181E-4   1.817657594074262E-4  
 2.218000000000000E10    1.821526356025061E-4   1.422699388058391E-4  
 2.220000000000000E10    5.192475327930879E-6   4.870344528171700E-4  
 2.222000000000000E10   -4.933450982207432E-4  -5.569690983975306E-4  
 2.224000000000000E10   -5.738983090850525E-4  -3.655568507383578E-4  
 2.226000000000000E10   -7.692371509619989E-4   3.996569776063552E-4  
 2.228000000000000E10   -1.225126856638781E-4  -6.637111800955609E-5  
 2.230000000000000E10    2.668407705641585E-4  -6.199748531798832E-4  
 2.232000000000000E10   -4.218028661853168E-4  -4.784158300026320E-4  
 2.234000000000000E10   -5.106360695208423E-4   9.608890468371101E-5  
 2.236000000000000E10    2.713277899601962E-4   4.877048413618468E-4  
 2.238000000000000E10   -1.023937920763274E-4  -5.717066596844234E-5  
 2.240000000000000E10   -5.005061611882411E-4  -7.125886804715265E-5  
 2.242000000000000E10   -2.990527827932965E-4  -4.502763363234408E-5  
 2.244000000000000E10   -2.307411041329033E-4  -3.980067322117975E-5  
 2.246000000000000E10   -5.800455328426324E-4  -2.704575808820664E-5  
 2.248000000000000E10    6.270487199344643E-5   5.102906325191725E-4  
 2.250000000000000E10    1.163470360552310E-4   2.575015805632575E-4  
 2.252000000000000E10   -1.190388552458899E-4  -7.762196619296446E-4  
 2.254000000000000E10   -6.527277073473670E-4   5.719001783290878E-4  
 2.256000000000000E10   -6.042308450560086E-4   2.800700094667263E-4  
 2.258000000000000E10    2.982355235872092E-4   3.958402123771521E-5  
 2.260000000000000E10   -1.877897266240325E-4  -1.386449426945546E-4  
 2.262000000000000E10   -5.901944496145006E-4  -6.318406121863518E-5  
 2.264000000000000E10   -2.195669576394721E-4  -6.267247090363526E-5  
 2.266000000000000E10   -3.608229853853118E-4   8.324468399223406E-5  
 2.268000000000000E10    5.195118376377650E-5   4.268411248631310E-4  
 2.270000000000000E10    5.048799503128976E-4   2.705270271690097E-4  
 2.272000000000000E10    3.554232789610978E-4  -2.993547641381156E-4  
 2.274000000000000E10   -7.019338736427017E-4  -3.038112117792480E-4  
 2.276000000000000E10   -8.730139161343686E-4   6.751734763383865E-4  
 2.278000000000000E10    5.077803034509998E-4   7.739251814200543E-4  
 2.280000000000000E10    7.206309164757840E-4  -4.929420974804089E-4  
 2.282000000000000E10    3.725650240085088E-4  -7.541127415606752E-4  
 2.284000000000000E10   -7.122642637114041E-4   1.273058860533638E-4  
 2.286000000000000E10    4.754512428917224E-5   1.697777279332513E-4  
 2.288000000000000E10    6.121969345258549E-4  -8.091007475741208E-5  
 2.290000000000000E10    3.443727928242879E-5   1.065151909642736E-4  
 2.292000000000000E10    7.494718386169552E-5  -3.548255481291562E-4  
 2.294000000000000E10   -6.418000702979043E-4  -4.219112743157893E-4  
 2.296000000000000E10   -2.060319166048430E-4   4.713932976301294E-4  
 2.298000000000000E10    1.958461216418073E-4   1.316105597652495E-3  
 2.300000000000000E10    8.878846056177281E-4  -4.958506033290178E-4  
 2.302000000000000E10   -3.947739351133350E-4  -1.025912577460986E-3  
 2.304000000000000E10   -1.156233280198649E-3   3.530982321535703E-4  
 2.306000000000000E10   -4.048677983519156E-4   1.090322795789689E-3  
 2.308000000000000E10    1.270968074095435E-3   5.509145703399554E-4  
 2.310000000000000E10    4.679096701920571E-5  -1.109570948756300E-3  
 2.312000000000000E10   -7.613135458086617E-4  -3.841000434476882E-4  
 2.314000000000000E10   -3.776123594434466E-4   9.236187397618778E-4  
 2.316000000000000E10    2.721197852224577E-4   2.437915063637774E-4  
 2.318000000000000E10    6.270305311772972E-4  -4.111184171051718E-4  
 2.320000000000000E10   -2.017917831835803E-4  -3.235855474486016E-4  
 2.322000000000000E10   -4.424202743393835E-4  -3.304019592178520E-4  
 2.324000000000000E10   -2.982767327921465E-4  -3.614391698647523E-4  
 2.326000000000000E10   -6.905754416948184E-4   8.702601408003829E-4  
 2.328000000000000E10    3.756657461053692E-4   5.585585458902642E-4  
 2.330000000000000E10    5.636444293486420E-4  -8.462652767775580E-4  
 2.332000000000000E10   -1.277040530112572E-3  -7.134877960197628E-4  
 2.334000000000000E10   -1.228294102475047E-3   3.061854258703534E-4  
 2.336000000000000E10    3.448643910815008E-4   3.696841085911728E-4  
 2.338000000000000E10    4.914976525469683E-4  -4.667845896619838E-4  
 2.340000000000000E10   -3.059693190152757E-4  -5.125167081132531E-4  
 2.342000000000000E10   -6.079672821215354E-4   3.618264236138202E-4  
 2.344000000000000E10   -2.077176977763884E-4   3.363256182637997E-4  
 2.346000000000000E10   -2.814104809658602E-4   3.732842997123953E-4  
 2.348000000000000E10   -3.044391050934792E-4   5.270923902571667E-4  
 2.350000000000000E10   -1.038439983176431E-4   3.623780539783184E-4  
 2.352000000000000E10   -8.949349603426526E-5  -5.234542986727320E-4  
 2.354000000000000E10   -1.178585371235386E-3  -3.683656068460550E-4  
 2.356000000000000E10   -5.014085909351707E-4   1.255604205653071E-3  
 2.358000000000000E10    8.348110277438536E-4   4.525886361079756E-4  
 2.360000000000000E10    8.329068732564338E-4  -7.055535024846904E-4  
 2.362000000000000E10   -9.348019884782843E-4  -1.201605407175066E-6  
 2.364000000000000E10   -7.328675783355720E-4   9.958574373740703E-4  
 2.366000000000000E10    1.798733742361947E-4   9.339513999293558E-4  
 2.368000000000000E10   -3.905810709170510E-5  -2.137975074134602E-5  
 2.370000000000000E10   -3.289983542344999E-4  -1.781252808541467E-5  
 2.372000000000000E10   -3.611912761698477E-4  -1.911607569127227E-5  
 2.374000000000000E10   -2.864620710170129E-4   7.491635045653311E-5  
 2.376000000000000E10   -3.211749790352769E-4   7.235806988319382E-4  
 2.378000000000000E10    7.841323604225181E-4   6.196990871103481E-4  
 2.380000000000000E10    9.893916430883110E-4   1.034571278069052E-4  
 2.382000000000000E10   -2.737562535912730E-4  -3.344991364429006E-4  
 2.384000000000000E10   -1.064183423295617E-3   8.780438074609265E-4  
 2.386000000000000E10    1.970467637875117E-4   2.030681964242831E-3  
 2.388000000000000E10    1.496558354119770E-3   2.618540820549242E-4  
 2.390000000000000E10    1.415111839833116E-4  -1.029318620567210E-3  
 2.392000000000000E10   -9.214167221216485E-4  -6.487748322570042E-5  
 2.394000000000000E10    1.519309407740366E-4   9.087110447580926E-4  
 2.396000000000000E10    1.012373337289318E-3   3.664252872113138E-4  
 2.398000000000000E10    4.664727457566187E-4   1.041075811372139E-4  
 2.400000000000000E10    8.021904068300501E-4   1.138571792580478E-4  
 2.402000000000000E10   -1.652907540119486E-4  -3.413206832192373E-4  
 2.404000000000000E10   -9.877676202449948E-4   6.572211641469039E-4  
 2.406000000000000E10    2.450211723044049E-4   1.280897296965122E-3  
 2.408000000000000E10    1.419105596141890E-3   8.999449801194714E-5  
 2.410000000000000E10    2.242651717097033E-4  -1.296193542657420E-3  
 2.412000000000000E10   -1.155159276095219E-3  -6.195143869263120E-4  
 2.414000000000000E10   -2.647772853379138E-4   1.044690390699543E-3  
 2.416000000000000E10    1.335792403551750E-3   7.704408271820284E-4  
 2.418000000000000E10    1.526285894215107E-3  -5.301803939801175E-4  
 2.420000000000000E10   -1.935468299052445E-4  -5.550944188144058E-4  
 2.422000000000000E10   -5.939162074355409E-4   4.150022177782375E-4  
 2.424000000000000E10    3.171054413542152E-4   1.064857919118367E-3  
 2.426000000000000E10    4.946635926899035E-4   5.339618328434881E-4  
 2.428000000000000E10    8.240690149250440E-4  -2.290926186105935E-4  
 2.430000000000000E10    3.357034838700201E-4  -9.022909653140232E-4  
 2.432000000000000E10   -6.407432520063594E-4  -4.516496774158441E-4  
 2.434000000000000E10   -4.099966645298991E-4   9.427109325770289E-4  
 2.436000000000000E10    1.367527918773703E-3   8.334645826835185E-4  
 2.438000000000000E10    1.344129501376301E-3  -6.150286571937613E-4  
 2.440000000000000E10   -4.074349126312882E-4  -9.775585203897208E-4  
 2.442000000000000E10   -8.800933719612658E-4   6.703131948597729E-4  
 2.444000000000000E10    4.327547685534228E-4   1.233925955602899E-3  
 2.446000000000000E10    1.060859765857458E-3  -2.215517997683492E-5  
 2.448000000000000E10    5.885471618967131E-4  -8.362416119780392E-4  
 2.450000000000000E10   -4.571466270135716E-4  -7.299403077922761E-4  
 2.452000000000000E10   -9.918578757606156E-5   7.463224937964696E-5  
 2.454000000000000E10    3.559661563485861E-4   4.741366064990871E-4  
 2.456000000000000E10    7.314578615478240E-4   3.289136184321251E-4  
 2.458000000000000E10    9.108355807256885E-4  -2.382262791797984E-4  
 2.460000000000000E10   -2.026675701927161E-5  -7.489579802495427E-4  
 2.462000000000000E10   -5.122057191329077E-4   1.084558689399273E-4  
 2.464000000000000E10   -2.991175424540415E-4   8.107301036943682E-4  
 2.466000000000000E10    7.059853014652617E-4   2.275137594551779E-4  
 2.468000000000000E10    5.632361571770161E-4  -6.311195247690193E-4  
 2.470000000000000E10   -1.987626728805481E-4  -5.579339886025991E-4  
 2.472000000000000E10   -3.611165484471712E-4   1.726874248788590E-4  
 2.474000000000000E10    4.597971346811391E-4   5.944273143541068E-4  
 2.476000000000000E10    9.250808652723208E-4   8.524426357325865E-5  
 2.478000000000000E10    1.304092056670925E-4  -1.831013869377784E-4  
 2.480000000000000E10    3.875069342029747E-5  -2.771268609649269E-4  
 2.482000000000000E10   -6.838585541117936E-4  -1.056888704624726E-4  
 2.484000000000000E10   -5.743205038015731E-4   3.840752360702027E-4  
 2.486000000000000E10    3.943380579585210E-4   5.795512151962612E-6  
 2.488000000000000E10    8.582504087826237E-4  -7.453100479324348E-4  
 2.490000000000000E10    3.345105358221190E-5  -1.010094973025844E-3  
 2.492000000000000E10   -6.224147145985626E-4   7.590841323690256E-5  
 2.494000000000000E10    4.216000197629910E-4   1.008708662993740E-3  
 2.496000000000000E10    1.114820217480883E-3   7.050991262076423E-4  
 2.498000000000000E10    3.763080167118460E-4  -3.142596360703465E-4  
 2.500000000000000E10   -3.137861567665823E-4  -3.777567762881517E-4  
 2.502000000000000E10   -7.844355568522587E-4   6.112244009273127E-4  
 2.504000000000000E10   -3.475785160844680E-4   5.763406443293206E-4  
 2.506000000000000E10    1.002695316856261E-3   4.095098447578494E-4  
 2.508000000000000E10    8.252548941527493E-4  -6.841858994448558E-4  
 2.510000000000000E10   -9.280749691242818E-5  -1.012789456581231E-3  
 2.512000000000000E10   -4.178259005129803E-4   1.867745413619559E-4  
 2.514000000000000E10    9.736378842717386E-6   1.182931140647270E-3  
 2.516000000000000E10    1.081448834156618E-3   2.817758886521915E-4  
 2.518000000000000E10    5.955077940598130E-4  -6.593309808522463E-4  
 2.520000000000000E10   -6.186797036207281E-4  -1.018126160488464E-3  
 2.522000000000000E10   -8.990430869744159E-4   9.743332179823483E-5  
 2.524000000000000E10    4.612899829226080E-4   4.314035541028716E-4  
 2.526000000000000E10    1.136913808295503E-3  -3.739199455594644E-4  
 2.528000000000000E10    6.965820357436314E-4  -1.109428019844927E-3  
 2.530000000000000E10   -1.150538864749251E-4  -2.693140231713187E-4  
 2.532000000000000E10   -2.805799958878197E-4   3.631700419646222E-4  
 2.534000000000000E10    3.733642224688083E-4   6.645738321822137E-4  
 2.536000000000000E10    5.658995214616880E-4   3.751304357137997E-4  
 2.538000000000000E10    6.434705646825023E-4  -1.306998281506822E-3  
 2.540000000000000E10   -6.124934006948024E-4  -1.183024331112392E-3  
 2.542000000000000E10   -1.185549859656021E-3   1.853561698226258E-4  
 2.544000000000000E10    8.354303645319305E-4   5.398656066972762E-4  
 2.546000000000000E10    1.513169510872103E-3  -4.916103534924332E-4  
 2.548000000000000E10    1.450911327083304E-4  -1.377943422994576E-3  
 2.550000000000000E10   -7.643075587111525E-4  -3.634897238953272E-4  
 2.552000000000000E10   -3.341872688906733E-4   7.654209111933596E-4  
 2.554000000000000E10    5.135594583407510E-4   3.275557064625900E-4  
 2.556000000000000E10    3.697850515891332E-4  -6.552570848725736E-4  
 2.558000000000000E10   -3.500600469124038E-4  -8.077920574578457E-4  
 2.560000000000000E10   -6.199193667271175E-4  -6.709576482535340E-4  
 2.562000000000000E10   -1.812850423448253E-4  -4.008127530141792E-5  
 2.564000000000000E10    5.115503226988949E-4   6.938677802281745E-5  
 2.566000000000000E10    5.302538738760632E-4  -2.861474458768498E-4  
 2.568000000000000E10    1.138862942298147E-4  -7.585553757962771E-4  
 2.570000000000000E10   -1.020089490339160E-3  -2.852746983990073E-4  
 2.572000000000000E10   -8.492093184031546E-4   5.297440147842281E-4  
 2.574000000000000E10    2.149040665244684E-4   3.944044910895173E-4  
 2.576000000000000E10    3.713155747391284E-4  -9.078627117560245E-4  
 2.578000000000000E10   -2.420633154542884E-4  -8.832410312606953E-4  
 2.580000000000000E10   -5.475936741277110E-4  -1.870166215667268E-5  
 2.582000000000000E10   -6.497248364212283E-6  -3.085244640033125E-5  
 2.584000000000000E10    6.754088690286153E-5  -1.018568009385490E-4  
 2.586000000000000E10    6.653674608969595E-5   1.204046075145016E-4  
 2.588000000000000E10   -1.376319896735367E-4  -2.413625734334346E-4  
 2.590000000000000E10   -4.127813663217239E-4  -4.174155474174768E-4  
 2.592000000000000E10   -9.979526221286506E-4   4.832480481127277E-4  
 2.594000000000000E10   -1.006058755592676E-4   3.616775466070976E-4  
 2.596000000000000E10    7.378472873824649E-4  -9.999237954616547E-5  
 2.598000000000000E10    4.275074206816498E-4  -8.154149036272429E-4  
 2.600000000000000E10   -9.216399193974212E-4  -4.020930355181918E-4  
 2.602000000000000E10   -9.159538021776825E-4   8.794271925580688E-4  
 2.604000000000000E10    4.578644220600836E-4   1.065044292772654E-3  
 2.606000000000000E10    7.324340258492157E-4  -2.367167544434778E-4  
 2.608000000000000E10   -3.508950467221439E-4  -5.851230016560294E-4  
 2.610000000000000E10   -1.000848562398460E-3  -1.706649291008944E-4  
 2.612000000000000E10   -2.980329190904740E-4   3.018429415533319E-4  
 2.614000000000000E10    2.117899566655979E-5   4.782957294082735E-4  
 2.616000000000000E10    7.162701949710026E-4  -2.412379544693977E-4  
 2.618000000000000E10    5.026844846724998E-4  -5.135395913384855E-4  
 2.620000000000000E10   -9.096714638872072E-4  -4.361224710009992E-4  
 2.622000000000000E10   -8.286109150503762E-4   1.108622105675750E-3  
 2.624000000000000E10    6.139360848465003E-4   1.231862872373313E-3  
 2.626000000000000E10    6.635831305175088E-4  -6.951177783776075E-4  
 2.628000000000000E10   -6.341028674796689E-4  -9.540568498778157E-4  
 2.630000000000000E10   -8.321655841427855E-4  -3.938720068319412E-5  
 2.632000000000000E10   -4.754978144774213E-4   7.617450464749709E-4  
 2.634000000000000E10    6.956721626920626E-4   1.070604943720355E-4  
 2.636000000000000E10    8.242705589509569E-4  -5.157249179319479E-4  
 2.638000000000000E10   -1.493645959271817E-4  -9.037497802637518E-4  
 2.640000000000000E10   -5.919369723415002E-4   3.102762184425956E-5  
 2.642000000000000E10   -2.268781290695188E-4   5.901578042539768E-4  
 2.644000000000000E10    2.800796828523744E-4   4.069455317221582E-4  
 2.646000000000000E10    2.741205353231635E-4  -4.122857862967067E-4  
 2.648000000000000E10   -1.593078959558625E-4  -7.503523083869368E-4  
 2.650000000000000E10   -9.026458938024007E-4  -2.991559558722656E-4  
 2.652000000000000E10   -7.231941975760492E-5   7.825471184332855E-4  
 2.654000000000000E10    6.352745331241749E-4   3.814468363998458E-4  
 2.656000000000000E10    4.208202080917545E-4  -4.523807401710656E-4  
 2.658000000000000E10   -4.158483061473817E-4  -3.784027358051390E-4  
 2.660000000000000E10   -6.363602005876601E-4   3.114813007414341E-4  
 2.662000000000000E10   -6.876774193642632E-5   9.415122622158378E-4  
 2.664000000000000E10    3.152427598251961E-4   2.641267692524707E-4  
 2.666000000000000E10    1.953158644028008E-4  -4.730135151476134E-5  
 2.668000000000000E10   -1.069113257585741E-4  -4.608623275998980E-4  
 2.670000000000000E10   -4.739126197819132E-4  -1.675824150879635E-4  
 2.672000000000000E10   -2.988779124279972E-4   4.934519165544771E-4  
 2.674000000000000E10    5.909123792662285E-4   5.340904099284671E-4  
 2.676000000000000E10    6.170778942760080E-4  -6.539368987432681E-4  
 2.678000000000000E10   -7.821704548405251E-5  -7.328406427404843E-4  
 2.680000000000000E10   -8.953434080467559E-4  -1.324965332969441E-4  
 2.682000000000000E10   -1.166335478046676E-4   7.176944272941910E-4  
 2.684000000000000E10    7.588964581373148E-4   7.584808772662655E-4  
 2.686000000000000E10    2.232063561677933E-4  -9.265910484828055E-4  
 2.688000000000000E10   -1.916415785672143E-4  -2.736244423431344E-4  
 2.690000000000000E10   -5.600996009889059E-4   2.872693894460099E-4  
 2.692000000000000E10   -1.361651684419485E-4   1.256871730674902E-4  
 2.694000000000000E10    4.188055208942387E-4   5.269289104035124E-4  
 2.696000000000000E10    4.109169422008563E-4  -3.962160008086357E-4  
 2.698000000000000E10   -2.612159823911497E-4  -7.670891136513092E-4  
 2.700000000000000E10   -6.216296678758226E-4  -1.709153721094481E-4  
 2.702000000000000E10   -6.520203969557770E-4   8.933496574172750E-4  
 2.704000000000000E10    8.019147717277519E-4   2.070468799502123E-4  
 2.706000000000000E10    8.774021334829740E-4  -8.709486719453707E-4  
 2.708000000000000E10   -3.998354040959384E-4  -8.550715647288598E-4  
 2.710000000000000E10   -7.202907581813633E-4   4.551561028165452E-5  
 2.712000000000000E10    1.290323530156456E-4   1.002161654469091E-3  
 2.714000000000000E10    6.446304832934402E-4  -1.431917853551568E-4  
 2.716000000000000E10   -1.107413316958628E-5  -8.715225194464438E-4  
 2.718000000000000E10   -5.820240185130388E-4  -3.798114048549905E-4  
 2.720000000000000E10   -1.060447189956904E-3  -5.832805072714109E-6  
 2.722000000000000E10    4.191729476588080E-5   4.513242602115497E-4  
 2.724000000000000E10    4.180275955150137E-4   2.219026519014733E-4  
 2.726000000000000E10    6.454499962273985E-4  -7.636685331817716E-4  
 2.728000000000000E10   -3.502089457469992E-4  -9.472881210967898E-4  
 2.730000000000000E10   -9.959262461052276E-4   2.732956345425919E-4  
 2.732000000000000E10    3.746175607375335E-4   9.256870835088193E-4  
 2.734000000000000E10    4.655189695768058E-4   3.445051152084488E-4  
 2.736000000000000E10   -4.610863652487751E-5  -6.587609532289207E-4  
 2.738000000000000E10   -9.962393742171116E-4  -4.351244206191041E-4  
 2.740000000000000E10   -5.330044004949741E-4   6.704120605718344E-4  
 2.742000000000000E10   -3.694936422107276E-4  -5.140600524100591E-5  
 2.744000000000000E10    6.251612794585526E-4  -7.590958819037041E-5  
 2.746000000000000E10    1.840641925809905E-4  -2.390706122241681E-4  
 2.748000000000000E10   -7.043493769742781E-5  -4.454655245353933E-4  
 2.750000000000000E10   -5.597927474809694E-5   2.028560811595526E-4  
 2.752000000000000E10    8.388331025344087E-7   7.978839421411976E-4  
 2.754000000000000E10    6.821351780672558E-4   4.680223137256689E-4  
 2.756000000000000E10    1.461611407194141E-4  -2.421331300865859E-4  
