#  HZ   S   RI   R     50.00 
! Rohde & Schwarz ZVA40 4Ports - Version 3.90 - 1145.1110k42 SN: 100403
! Date: 2023-10-04 06:36:47
! Measurement: S12 
! 
 2.200000000000000E10    1.322138855357480E-4   2.119541438787564E-4  
 2.202000000000000E10   -6.760138148820261E-4  -1.669576953418073E-4  
 2.204000000000000E10   -6.833450934209395E-4   1.336326690761780E-4  
 2.206000000000000E10   -2.778723878691380E-4   5.830927948409226E-4  
 2.208000000000000E10    2.381164822509163E-4  -8.498512252117507E-4  
 2.210000000000000E10   -3.835087391053094E-4  -5.663527772412635E-4  
 2.212000000000000E10   -5.640380659315269E-4   6.404625783034135E-4  
 2.214000000000000E10    3.834754497802351E-4   5.280035420582863E-4  
 2.216000000000000E10    2.324135984963505E-4   6.292396915341669E-5  
 2.218000000000000E10   -3.792639145103749E-4   3.703964630403789E-4  
 2.220000000000000E10   -4.045495443278924E-4   4.157005423621740E-4  
 2.222000000000000E10   -1.827940553766894E-4   1.093475820823642E-5  
 2.224000000000000E10   -8.792758235358633E-4   5.889327917429910E-5  
 2.226000000000000E10   -4.300555610825541E-4   5.258379587758100E-6  
 2.228000000000000E10    7.312206580536440E-4   9.963744855667756E-5  
 2.230000000000000E10    2.211581231676973E-4  -3.765708497667220E-4  
 2.232000000000000E10   -2.836197872966295E-4  -3.153779562126147E-4  
 2.234000000000000E10   -3.585372560337419E-4   9.211457581841387E-4  
 2.236000000000000E10    5.929663966526277E-4   3.410491553950124E-4  
 2.238000000000000E10   -8.650116001263086E-5  -4.220387381792534E-4  
 2.240000000000000E10   -8.779515519563574E-4  -3.817797869487549E-5  
 2.242000000000000E10   -6.613474288315047E-4  -1.899509043141734E-4  
 2.244000000000000E10    2.386615942668868E-4   1.571865741425427E-4  
 2.246000000000000E10   -1.622657512143633E-4  -7.191019631136442E-5  
 2.248000000000000E10    1.961955531442072E-4   7.016631104761473E-5  
 2.250000000000000E10    5.645903456752421E-4  -2.414348164165858E-4  
 2.252000000000000E10   -6.013049933244474E-4  -2.098519819355715E-4  
 2.254000000000000E10   -9.422908879059833E-4   8.711259870324284E-4  
 2.256000000000000E10    5.387696146499366E-4   8.916313527151942E-4  
 2.258000000000000E10    5.665754451911198E-4  -5.020968128519598E-4  
 2.260000000000000E10   -9.510713134659454E-4  -1.058170295436867E-3  
 2.262000000000000E10   -9.328922787972260E-4   3.638920752564445E-4  
 2.264000000000000E10    2.778473299258621E-4   4.396723743411712E-4  
 2.266000000000000E10    5.364211028791033E-4  -2.677465812439550E-5  
 2.268000000000000E10    3.195583872184216E-5  -6.380909690051340E-4  
 2.270000000000000E10   -2.586153250376810E-4   2.568022700870642E-4  
 2.272000000000000E10   -1.119856465265912E-4   2.786390032269992E-4  
 2.274000000000000E10   -2.464384069753578E-4   5.466367420012830E-4  
 2.276000000000000E10   -2.831430292644654E-4   9.572193948770291E-5  
 2.278000000000000E10    3.340414732520003E-4   6.602903204111499E-5  
 2.280000000000000E10   -2.670154917723266E-4  -6.265407610044349E-4  
 2.282000000000000E10   -5.917033849982545E-4  -4.744549660244957E-4  
 2.284000000000000E10   -1.021936162146631E-4   7.523955391661730E-4  
 2.286000000000000E10    9.843073748925235E-4   1.010194407626841E-4  
 2.288000000000000E10    7.985119964359910E-5  -9.566316728637503E-5  
 2.290000000000000E10   -7.313714777410496E-4  -2.057821525340842E-4  
 2.292000000000000E10   -1.257110380947779E-5   7.153169608500321E-4  
 2.294000000000000E10    3.957629323849687E-4   3.965282776334789E-4  
 2.296000000000000E10   -2.309695482836105E-4  -9.618070635042386E-6  
 2.298000000000000E10    1.872733041636820E-4   1.754648692440242E-4  
 2.300000000000000E10    2.448910099701607E-4   8.466995132039301E-5  
 2.302000000000000E10   -2.063151623588055E-4  -5.409322657214943E-4  
 2.304000000000000E10   -4.669470508815721E-4   5.338815408322262E-4  
 2.306000000000000E10    5.235332137090154E-4   7.634280227648560E-4  
 2.308000000000000E10    5.054683697380824E-4  -2.925940607383382E-4  
 2.310000000000000E10    1.243354417965747E-4  -7.362924334302079E-4  
 2.312000000000000E10   -1.052276355039794E-3   2.264038757857634E-4  
 2.314000000000000E10    3.830809509963729E-5   8.797422669886146E-4  
 2.316000000000000E10    1.316356487222947E-3   1.998075213123229E-4  
 2.318000000000000E10   -1.205491296332184E-4  -6.043283028702717E-4  
 2.320000000000000E10   -5.295649243635126E-4  -3.011104827237432E-4  
 2.322000000000000E10   -3.713005808094749E-4   8.648424773127772E-4  
 2.324000000000000E10    9.733332331052225E-5   2.838724794855807E-4  
 2.326000000000000E10    1.792918401406496E-4   1.994554488646827E-4  
 2.328000000000000E10    5.176221220608568E-4  -2.505785306539110E-5  
 2.330000000000000E10   -7.019497679721098E-4  -5.677718509105034E-4  
 2.332000000000000E10   -9.832612995523959E-4   5.839069453941193E-4  
 2.334000000000000E10   -3.122797716059722E-5   1.452410237106960E-3  
 2.336000000000000E10    9.993605926865712E-4   3.041149311684421E-4  
 2.338000000000000E10    2.723606494328124E-4  -9.561828010191675E-4  
 2.340000000000000E10   -1.184302680485416E-3  -2.745302854236797E-4  
 2.342000000000000E10   -6.617744274990400E-4   9.770756150828674E-4  
 2.344000000000000E10    7.296377334569115E-4   8.804226017673500E-4  
 2.346000000000000E10    4.039672567159869E-4  -3.843293961836025E-4  
 2.348000000000000E10   -1.207954796882405E-4  -6.740049975633156E-4  
 2.350000000000000E10   -5.382290928537259E-4   4.980240955774207E-4  
 2.352000000000000E10   -3.646686218417017E-4   7.673663058085367E-4  
 2.354000000000000E10    3.988542757724645E-4   5.803830972581636E-4  
 2.356000000000000E10   -3.892291715601459E-6  -1.237366733448653E-4  
 2.358000000000000E10    3.606783707255090E-5  -1.931652477651369E-4  
 2.360000000000000E10   -6.244462565518916E-4  -3.689266959554516E-4  
 2.362000000000000E10   -6.971440525376238E-4   1.074956871889299E-3  
 2.364000000000000E10    7.456956373061985E-4   1.098021384677850E-3  
 2.366000000000000E10    1.160762920335401E-3  -3.589458137867041E-4  
 2.368000000000000E10   -5.830558129673591E-4  -5.683176932507195E-4  
 2.370000000000000E10   -1.027817572321510E-3   8.569719939259812E-4  
 2.372000000000000E10    4.143085443502059E-4   1.203297564643435E-3  
 2.374000000000000E10    8.768571424297988E-4   3.896360740327509E-4  
 2.376000000000000E10    1.238621239281201E-4  -3.484955232124776E-4  
 2.378000000000000E10   -1.731199076857592E-4  -6.169710877657053E-5  
 2.380000000000000E10   -1.357327164441813E-4   2.826984682542388E-4  
 2.382000000000000E10    8.510499355907086E-5   3.867825716952211E-4  
 2.384000000000000E10    5.558715693041449E-4   6.181344251672272E-4  
 2.386000000000000E10    9.451732476009056E-4   1.711950898197756E-5  
 2.388000000000000E10    1.759049107477040E-4  -4.693109249274130E-4  
 2.390000000000000E10   -7.834004682081286E-4   7.632598772033816E-5  
 2.392000000000000E10   -1.090434636239479E-4   9.541426043142565E-4  
 2.394000000000000E10    1.256261508387979E-3   3.328057564431219E-4  
 2.396000000000000E10    6.888241914566606E-4  -1.174970195279457E-3  
 2.398000000000000E10   -3.926405915990472E-4  -4.590712997014634E-4  
 2.400000000000000E10   -3.304039078102505E-4   7.223995125968941E-4  
 2.402000000000000E10    1.077503391570645E-3   3.210889003639750E-4  
 2.404000000000000E10    5.717196836485528E-4   1.535477210836689E-4  
 2.406000000000000E10   -1.482420393585926E-4   2.549843475208036E-5  
 2.408000000000000E10   -1.007626192404132E-4  -1.636028639495635E-4  
 2.410000000000000E10   -1.377104299535858E-4  -2.053835146398342E-4  
 2.412000000000000E10   -4.637427391571691E-4   1.304369534338434E-4  
 2.414000000000000E10    6.522598014271352E-4   6.010817514834344E-5  
 2.416000000000000E10    9.382000353070907E-4  -6.140030345704872E-4  
 2.418000000000000E10   -1.465929021833290E-4  -8.137435688695405E-4  
 2.420000000000000E10   -7.913880654086825E-4   4.871417713729898E-4  
 2.422000000000000E10   -2.233269447060593E-5   1.076266591553576E-3  
 2.424000000000000E10    1.012642671412323E-3  -1.539845407023677E-4  
 2.426000000000000E10   -1.086748216039268E-5  -1.079300640412839E-3  
 2.428000000000000E10   -1.008261962851975E-3  -4.186328715150012E-5  
 2.430000000000000E10   -3.497199031698983E-4  -1.802931084284865E-4  
 2.432000000000000E10    5.206856803852134E-4   2.620232980916626E-4  
 2.434000000000000E10    3.617801230575424E-4  -3.349661886886679E-5  
 2.436000000000000E10    1.227095468493644E-3  -6.842271213827189E-4  
 2.438000000000000E10    1.368557959722239E-4  -4.858452666667290E-4  
 2.440000000000000E10   -6.473582689068280E-4   1.885553992906353E-4  
 2.442000000000000E10   -1.552086256424445E-4   1.295812515309081E-3  
 2.444000000000000E10    1.118145708460361E-3   2.981860925501678E-4  
 2.446000000000000E10    9.013215349114034E-4  -1.288795618165750E-3  
 2.448000000000000E10   -8.626411108707544E-4  -1.166959566035075E-3  
 2.450000000000000E10   -8.303053400595672E-4   6.678806548734428E-4  
 2.452000000000000E10    1.026331061439123E-3   8.187812782125548E-4  
 2.454000000000000E10    1.493023461080156E-3  -3.900009323842824E-5  
 2.456000000000000E10    2.156862919946434E-4  -9.458232125325594E-4  
 2.458000000000000E10   -5.302801546349656E-4  -5.112694179842947E-5  
 2.460000000000000E10   -6.691781418339815E-4   7.421807422360871E-4  
 2.462000000000000E10    3.308748746349011E-4   8.686274268256966E-4  
 2.464000000000000E10    8.790364954620600E-4  -4.337640066296444E-4  
 2.466000000000000E10    3.424539554544026E-4  -9.342375851701945E-4  
 2.468000000000000E10   -1.009120529488428E-3  -1.069416106474819E-3  
 2.470000000000000E10   -2.536435349611566E-4   1.014828219922492E-3  
 2.472000000000000E10    1.158488208602648E-3   1.103096750739496E-3  
 2.474000000000000E10    1.727570408547763E-3  -5.271541194815654E-4  
 2.476000000000000E10   -2.759995732048992E-4  -9.754310376592912E-4  
 2.478000000000000E10   -1.233602786669508E-3   2.431517314107623E-4  
 2.480000000000000E10   -1.634754196402355E-4   1.514726427558344E-3  
 2.482000000000000E10    9.524064807919785E-4   3.071337224014314E-5  
 2.484000000000000E10    4.895566453342326E-4  -1.000586988084251E-3  
 2.486000000000000E10   -4.123219641769538E-4  -9.109360871661920E-4  
 2.488000000000000E10   -8.850100348354317E-4   2.490683118594461E-4  
 2.490000000000000E10    4.588025240082061E-4   4.836575717490632E-4  
 2.492000000000000E10    8.927080089051742E-4   6.333139426715206E-4  
 2.494000000000000E10    4.989409681002144E-4  -1.981857694772771E-4  
 2.496000000000000E10   -2.054036642675783E-4  -5.570651446760166E-4  
 2.498000000000000E10   -9.602790159988217E-4   3.500023067317670E-4  
 2.500000000000000E10    1.116308732207472E-5   8.233694570662919E-4  
 2.502000000000000E10    9.697706846054643E-4  -1.234585270140087E-4  
 2.504000000000000E10    8.971321367425844E-4  -1.007316648610868E-3  
 2.506000000000000E10   -3.862975718220696E-4  -5.887287916266359E-4  
 2.508000000000000E10    2.361713359277928E-4   4.348754991951864E-4  
 2.510000000000000E10    7.724052993580699E-4   7.749456053716131E-4  
 2.512000000000000E10    8.316685853060335E-4  -1.243494926637112E-4  
 2.514000000000000E10    2.894849276344758E-4   4.107240397388523E-5  
 2.516000000000000E10   -2.625559645821340E-4   3.339554882586526E-5  
 2.518000000000000E10   -2.993929210788338E-4  -3.344599790580105E-4  
 2.520000000000000E10    2.236887812614441E-4   4.697169133578427E-4  
 2.522000000000000E10    3.701997557072900E-4  -1.618219821466482E-4  
 2.524000000000000E10    1.074753454304300E-3  -7.770480151521042E-4  
 2.526000000000000E10    3.456777267274447E-4  -8.411815360886976E-4  
 2.528000000000000E10   -5.026700819144025E-4   9.278907475618325E-5  
 2.530000000000000E10    3.275429735367652E-4   6.408903209376149E-4  
 2.532000000000000E10    8.439080775133334E-4   1.911442894879656E-4  
 2.534000000000000E10    2.894348381232703E-4  -6.843634837423451E-4  
 2.536000000000000E10   -4.009620170108974E-4  -8.521587078575976E-4  
 2.538000000000000E10   -4.767158643517178E-4  -2.837806750903837E-4  
 2.540000000000000E10   -9.061405762622599E-6  -3.095573720202083E-4  
 2.542000000000000E10    8.684924177941866E-4  -4.404569444886874E-4  
 2.544000000000000E10    6.964927597437054E-4  -6.697472563246265E-4  
 2.546000000000000E10    1.805890008199640E-5  -1.141517233918421E-3  
 2.548000000000000E10   -2.690655273909215E-4   8.332481229444966E-6  
 2.550000000000000E10   -3.532224582158960E-4   7.893542715464719E-4  
 2.552000000000000E10    1.054308275342919E-3   1.745252029650146E-4  
 2.554000000000000E10    1.358809131488670E-4  -1.240355239133351E-3  
 2.556000000000000E10   -7.713086015428416E-4  -1.263214362552390E-3  
 2.558000000000000E10   -9.911537345033139E-4  -1.099327619158430E-4  
 2.560000000000000E10    5.409057994256727E-4   3.899960283888504E-4  
 2.562000000000000E10    9.820069681154564E-4  -7.051592037896626E-4  
 2.564000000000000E10    2.634562224557158E-4  -1.094207676942460E-3  
 2.566000000000000E10   -8.443565384368412E-4  -6.724771592416801E-4  
 2.568000000000000E10   -5.070669540145900E-4   1.715517601041938E-4  
 2.570000000000000E10   -2.324868328287266E-4   6.276447529671714E-4  
 2.572000000000000E10    2.879916628444335E-4  -1.320074343311717E-4  
 2.574000000000000E10   -1.727779545035446E-4  -1.038460060954094E-3  
 2.576000000000000E10   -1.114354454330169E-3  -8.240861861850135E-4  
 2.578000000000000E10   -1.117549240007065E-3   3.134750440949574E-4  
 2.580000000000000E10    4.898457591480110E-4   4.391511210997123E-4  
 2.582000000000000E10    7.930548745207489E-4  -4.318983083066996E-4  
 2.584000000000000E10   -5.399458968895488E-4  -1.457191217923537E-3  
 2.586000000000000E10   -1.447453396394849E-3   1.036450655220733E-4  
 2.588000000000000E10   -7.892101566540077E-4   1.003848199616186E-3  
 2.590000000000000E10    4.947572451783344E-4   2.990347074955935E-4  
 2.592000000000000E10    1.778123732947279E-4  -8.817374909995124E-4  
 2.594000000000000E10   -7.918392875581048E-4  -7.173331978265196E-4  
 2.596000000000000E10   -4.345398083387408E-4   2.603488803742948E-5  
 2.598000000000000E10    5.430527090766191E-5   5.620074007310905E-4  
 2.600000000000000E10    7.654895944142481E-5   3.305484315205831E-4  
 2.602000000000000E10    1.928901547216810E-4  -3.554258291842416E-4  
 2.604000000000000E10   -2.155727406716324E-4  -1.783665297807602E-4  
 2.606000000000000E10   -8.598587155574933E-4  -5.843503663527372E-5  
 2.608000000000000E10   -3.887577186105773E-4   5.470324176712893E-4  
 2.610000000000000E10    2.819011222641166E-4   5.533737203222700E-4  
 2.612000000000000E10    6.565462899743579E-4  -4.427245221449994E-4  
 2.614000000000000E10   -3.435006437939592E-4  -9.779240353964269E-4  
 2.616000000000000E10   -5.743604924646206E-4   3.484861663309857E-4  
 2.618000000000000E10    1.325314992755011E-4   7.427031086990610E-4  
 2.620000000000000E10    5.321286371327005E-4   3.484518747427501E-4  
 2.622000000000000E10    4.094490141142160E-4  -2.076727107578336E-4  
 2.624000000000000E10   -2.204202692155377E-4  -2.321574011148186E-4  
 2.626000000000000E10   -4.993196416762658E-4  -2.257979440400959E-4  
 2.628000000000000E10   -4.782175456057303E-4   3.712295019795420E-4  
 2.630000000000000E10    4.037547514599282E-4   5.854949704371393E-4  
 2.632000000000000E10    5.781932923127897E-4  -1.250191271537915E-4  
 2.634000000000000E10   -1.082617800420849E-4  -7.698438057559542E-4  
 2.636000000000000E10   -7.951546649564989E-4  -5.687179221069982E-5  
 2.638000000000000E10   -8.119062185869552E-4   6.225939650903456E-4  
 2.640000000000000E10    6.419259443646297E-4   5.043366072641220E-4  
 2.642000000000000E10    4.632265154214110E-4  -6.356646990752779E-4  
 2.644000000000000E10   -6.824743759352714E-4  -6.935731216799468E-4  
 2.646000000000000E10   -8.699066456756555E-4   1.216349874084699E-4  
 2.648000000000000E10   -2.614465009287414E-5   7.682103314436972E-4  
 2.650000000000000E10    3.787390523939394E-4   3.033130815310869E-4  
 2.652000000000000E10    6.155076189315878E-4  -1.693181293376256E-4  
 2.654000000000000E10   -1.508819232185488E-4  -3.401210924494080E-4  
 2.656000000000000E10   -1.025809520797338E-3  -1.345200153082260E-4  
 2.658000000000000E10   -1.511752843725844E-4   1.118766856961884E-3  
 2.660000000000000E10    4.590538483171258E-4   4.815782740479335E-4  
 2.662000000000000E10    3.317321934446227E-4  -7.655066219740547E-4  
 2.664000000000000E10   -6.506236095447093E-4  -5.564852071984205E-4  
 2.666000000000000E10   -8.372788579436019E-4   3.667943346954417E-4  
 2.668000000000000E10    3.642364245024510E-4   7.128395009203814E-4  
 2.670000000000000E10    7.918117844383232E-4   3.049824772460852E-5  
 2.672000000000000E10    3.044528275495395E-4  -7.144889677874744E-4  
 2.674000000000000E10   -5.723446447518654E-4  -3.690811845444841E-4  
 2.676000000000000E10   -8.970725466497243E-4   4.720010729215574E-4  
 2.678000000000000E10    6.325893139091932E-6   6.122366103227250E-4  
 2.680000000000000E10    4.999064549338073E-4   2.726526349761116E-5  
 2.682000000000000E10    3.503242878650781E-4  -6.489252846222371E-4  
 2.684000000000000E10   -5.016120376239996E-4  -5.508013418875635E-4  
 2.686000000000000E10   -5.254985117062461E-4   9.540877545077819E-5  
 2.688000000000000E10    1.401225927111227E-4   9.034900795086287E-4  
 2.690000000000000E10    8.645617272122763E-4   1.282635037114233E-4  
 2.692000000000000E10    4.152015608269721E-4  -6.156478048069403E-4  
 2.694000000000000E10   -6.914775367476977E-4  -4.142087382206228E-4  
 2.696000000000000E10   -3.513745614327490E-4   8.748585314606316E-4  
 2.698000000000000E10    1.198292761728226E-5   3.868277708534151E-4  
 2.700000000000000E10    5.753311779699288E-4   5.509605216502678E-6  
 2.702000000000000E10   -3.021839056600584E-4  -5.253484123386443E-4  
 2.704000000000000E10   -2.447865153953899E-4  -3.253210197726730E-4  
 2.706000000000000E10   -4.331683849159163E-4   3.129270771751180E-4  
 2.708000000000000E10    1.536392114758201E-4   5.357193222153001E-4  
 2.710000000000000E10    6.733544796588831E-4   3.075450877076946E-4  
 2.712000000000000E10    6.684039617539384E-4  -6.398789118975401E-4  
 2.714000000000000E10   -7.703861265326850E-4  -2.676343865459785E-4  
 2.716000000000000E10   -9.968234444386326E-4   1.403483256581239E-4  
 2.718000000000000E10    2.990671328007011E-5   1.072315324563533E-3  
 2.720000000000000E10    8.266053773695603E-4  -5.268590348350699E-5  
 2.722000000000000E10   -1.414343296346488E-5  -9.843071529758163E-4  
 2.724000000000000E10   -5.288778738758992E-4  -2.105603216477903E-4  
 2.726000000000000E10   -2.682909289433155E-4   7.208408715086989E-4  
 2.728000000000000E10    4.892535398539621E-4   4.948528548993636E-4  
 2.730000000000000E10    5.764026136603206E-4  -1.207925770358997E-4  
 2.732000000000000E10   -3.034104047401343E-4  -4.560001543723047E-4  
 2.734000000000000E10   -6.341615298879333E-4  -3.868548083119094E-4  
 2.736000000000000E10   -9.666299520176835E-4   4.629600844054949E-4  
 2.738000000000000E10    1.686760788288666E-4   6.769414321752265E-4  
 2.740000000000000E10    1.021337098791264E-3  -5.267326705507003E-4  
 2.742000000000000E10    5.326456230250187E-4  -9.453303136979230E-4  
 2.744000000000000E10   -1.104540970118251E-3  -6.105831125751138E-4  
 2.746000000000000E10   -2.800444126478396E-4   1.058420093613677E-3  
 2.748000000000000E10    5.915375659242272E-4   9.082147153094411E-4  
 2.750000000000000E10    5.906120059080422E-4  -4.552480240818113E-4  
 2.752000000000000E10   -4.329133007558994E-4  -6.680620062979870E-4  
 2.754000000000000E10   -1.329623832134530E-3   5.033616025684751E-5  
 2.756000000000000E10   -3.547248452377971E-4   7.055288879200816E-4  
