#  HZ   S   RI   R     50.00 
! Rohde & Schwarz ZVA40 4Ports - Version 3.90 - 1145.1110k42 SN: 100403
! Date: 2023-10-04 06:36:16
! Measurement: S12 
! 
 2.200000000000000E10    7.742721027170774E-4  -2.429451187708764E-4  
 2.202000000000000E10   -5.520716840692330E-4  -3.621831419877708E-4  
 2.204000000000000E10   -1.872872744570486E-4   1.287931074330118E-3  
 2.206000000000000E10    4.664243897423148E-4   9.632366527512204E-4  
 2.208000000000000E10    5.083198293505120E-4  -6.199933850439265E-4  
 2.210000000000000E10   -8.243336596933659E-4  -2.372799299337203E-4  
 2.212000000000000E10   -1.890529429147136E-4   3.327491231175372E-4  
 2.214000000000000E10    8.334571575687733E-4   2.866758372874756E-4  
 2.216000000000000E10    2.852665650152630E-4  -3.269771609666350E-4  
 2.218000000000000E10   -9.590842364559649E-5  -1.207458808494266E-5  
 2.220000000000000E10    6.418699449568521E-4   7.331894703384023E-4  
 2.222000000000000E10    1.274346395803150E-4   9.737900040818204E-5  
 2.224000000000000E10    1.295875986784267E-5   4.631033443729393E-4  
 2.226000000000000E10   -4.345167799328920E-4   4.959022317052586E-4  
 2.228000000000000E10    6.355292825901415E-4   1.909852271637647E-4  
 2.230000000000000E10    3.522677729961288E-5  -3.923250005755108E-4  
 2.232000000000000E10   -2.922681796917459E-4  -2.373282859480241E-5  
 2.234000000000000E10    2.965483890875476E-4   5.715202059946023E-4  
 2.236000000000000E10    1.431984674127307E-3   3.354798755026422E-4  
 2.238000000000000E10    2.362609693591367E-4  -4.377629466034705E-5  
 2.240000000000000E10   -1.053619289450580E-4   1.182950381917181E-4  
 2.242000000000000E10    2.614988020468445E-4   6.232532505237032E-4  
 2.244000000000000E10   -3.235509539081249E-4   8.385281580558512E-5  
 2.246000000000000E10   -3.980456131102983E-4  -9.557512476021657E-5  
 2.248000000000000E10    2.854067661246518E-4   3.542742142599309E-4  
 2.250000000000000E10    6.083103908167686E-4  -2.985619530591066E-4  
 2.252000000000000E10   -1.949239203895559E-4  -8.958815815276466E-4  
 2.254000000000000E10   -1.147556306477782E-4   4.107886798010441E-4  
 2.256000000000000E10    4.976046966476133E-4   7.210521616798360E-4  
 2.258000000000000E10    5.065706245659385E-4  -3.367281897226349E-5  
 2.260000000000000E10    6.479245590185201E-5  -4.600802676577587E-4  
 2.262000000000000E10   -1.081022906873841E-3   2.170216189369967E-4  
 2.264000000000000E10    1.031757567488967E-4   4.304902595322346E-4  
 2.266000000000000E10    4.829685676668305E-4   2.388205012380240E-4  
 2.268000000000000E10    4.888569019385614E-4  -5.781564304925269E-4  
 2.270000000000000E10   -2.168859646189958E-5  -1.548690397612518E-4  
 2.272000000000000E10    1.665888376010116E-4  -6.915698577358853E-6  
 2.274000000000000E10   -1.325510329479585E-4   4.857013400396681E-4  
 2.276000000000000E10    2.626206523927976E-4   3.095371666859137E-4  
 2.278000000000000E10    6.372089555952698E-4   3.313898614578648E-4  
 2.280000000000000E10   -1.382856175951019E-4  -9.025676736200694E-4  
 2.282000000000000E10   -2.921424311352894E-4  -8.056631086219568E-4  
 2.284000000000000E10   -2.783990767056821E-4   1.234206378285307E-3  
 2.286000000000000E10    6.772019441996235E-4  -3.817425590568746E-5  
 2.288000000000000E10    6.468022911576554E-4  -1.078135381249012E-3  
 2.290000000000000E10   -5.640693088935223E-4  -2.834961305779871E-4  
 2.292000000000000E10   -3.624361870606663E-4   7.937912741908804E-4  
 2.294000000000000E10    2.448071609251201E-4   1.830689698181232E-4  
 2.296000000000000E10    5.148244636075106E-4  -4.241840156282706E-5  
 2.298000000000000E10   -8.797049486020114E-5  -1.222082664753543E-4  
 2.300000000000000E10   -1.352584986307193E-4  -1.880989577216496E-4  
 2.302000000000000E10   -2.950317193608498E-4   1.432764674973441E-4  
 2.304000000000000E10   -1.654398447499261E-4   3.003563724632841E-4  
 2.306000000000000E10    4.189361243334133E-4   4.156262662036170E-4  
 2.308000000000000E10    5.184049914532807E-4  -6.021442222845508E-4  
 2.310000000000000E10   -4.301039025449427E-4  -6.931956813787110E-4  
 2.312000000000000E10   -4.785874425579095E-4   2.302021312061697E-4  
 2.314000000000000E10    4.227735380482045E-4   9.428438970644493E-4  
 2.316000000000000E10    9.167790594801772E-4  -6.359676335705444E-4  
 2.318000000000000E10    1.105793190276927E-4  -4.610430223692674E-4  
 2.320000000000000E10   -3.173167688146350E-4   4.655220436688978E-4  
 2.322000000000000E10    2.107497593186736E-4   4.041301226607175E-4  
 2.324000000000000E10    3.799930982495425E-4   2.723054121815949E-4  
 2.326000000000000E10    1.284163606669608E-4   8.942655608734640E-5  
 2.328000000000000E10    1.552051253383979E-4  -4.861215093114879E-4  
 2.330000000000000E10    5.302182023569912E-5  -7.779667503200471E-4  
 2.332000000000000E10   -4.588076426443877E-4  -2.396757599854027E-5  
 2.334000000000000E10    3.346022895129863E-4   5.042263310315320E-4  
 2.336000000000000E10    1.313391621806659E-3   1.359204284199223E-4  
 2.338000000000000E10    7.973486863193102E-4  -6.495272245956585E-4  
 2.340000000000000E10   -1.612316937098512E-4  -5.614578803943005E-4  
 2.342000000000000E10   -3.866556908178609E-4   1.421441047568806E-3  
 2.344000000000000E10    6.502535143226851E-4   6.002553564030677E-4  
 2.346000000000000E10    6.377578229148639E-4  -3.374119278305443E-4  
 2.348000000000000E10   -8.335750811738762E-5  -5.247088483883999E-4  
 2.350000000000000E10   -7.349981133302208E-4   4.007930488114653E-5  
 2.352000000000000E10    1.683771297393832E-4  -3.023370481969323E-5  
 2.354000000000000E10    3.360336104378803E-4   6.519330963783432E-4  
 2.356000000000000E10    9.898203788907267E-4  -1.054479646711570E-5  
 2.358000000000000E10    7.372074232989689E-4  -8.475663817080203E-4  
 2.360000000000000E10   -7.386494762613438E-4  -5.963494768366218E-4  
 2.362000000000000E10   -3.948418016079813E-4   9.704200383566786E-4  
 2.364000000000000E10    9.428773919353262E-4   4.297018931538332E-4  
 2.366000000000000E10    1.003303157631308E-3  -7.214893230411690E-4  
 2.368000000000000E10   -2.193130062551063E-4  -1.102496771636652E-3  
 2.370000000000000E10   -5.126323303557001E-4   1.166943616226490E-5  
 2.372000000000000E10    7.027181891317014E-5   4.695924490079051E-4  
 2.374000000000000E10    1.061149137967732E-3   3.416642812226201E-6  
 2.376000000000000E10    2.321388565178495E-4  -1.095520245144144E-3  
 2.378000000000000E10   -3.123813530692132E-5  -2.897228068832192E-4  
 2.380000000000000E10   -6.962990046304185E-4   6.416820929189271E-5  
 2.382000000000000E10   -6.382343599398155E-5   3.813172288573696E-4  
 2.384000000000000E10    1.002684664854314E-3   1.781639030014048E-4  
 2.386000000000000E10    7.687020133744227E-4  -8.696116128703579E-4  
 2.388000000000000E10   -1.398928225171403E-4  -1.447536014893558E-3  
 2.390000000000000E10   -1.005218538921326E-3   3.016426653630333E-4  
 2.392000000000000E10    3.072928011533804E-4   1.315595349296928E-3  
 2.394000000000000E10    1.514774703537114E-3  -2.187178361623410E-5  
 2.396000000000000E10    1.507753750047414E-4  -1.423167188477237E-3  
 2.398000000000000E10   -1.058619687682949E-3  -5.220287930569612E-4  
 2.400000000000000E10   -3.253429440519540E-4   6.676294360659085E-4  
 2.402000000000000E10    9.015419927891344E-4   5.430562546848705E-5  
 2.404000000000000E10    5.749387346440926E-4  -5.939917791693006E-4  
 2.406000000000000E10    1.473083693781518E-4  -7.005346051300876E-4  
 2.408000000000000E10   -3.885979058395606E-4  -1.753297829054645E-4  
 2.410000000000000E10   -2.701854882616317E-4   1.975853774638381E-4  
 2.412000000000000E10    6.635771751462016E-5   3.957518692914164E-4  
 2.414000000000000E10    5.711631820304319E-4  -1.760938021106995E-4  
 2.416000000000000E10    2.805090189212933E-4  -1.325384619121905E-3  
 2.418000000000000E10   -5.280643999867607E-4  -5.529037407541182E-4  
 2.420000000000000E10   -7.642016062163748E-4   7.833282143110409E-4  
 2.422000000000000E10    1.255572708032560E-3   5.672507213603240E-4  
 2.424000000000000E10    9.616230672691017E-4  -5.123394494148670E-4  
 2.426000000000000E10   -7.783512737660203E-4  -7.716920808888972E-4  
 2.428000000000000E10   -8.929115501814522E-4   5.084367458039196E-4  
 2.430000000000000E10    4.448648933248478E-4   6.631751712120604E-4  
 2.432000000000000E10    8.202374192478601E-5  -5.534862320928369E-4  
 2.434000000000000E10    6.185338710196220E-5  -6.855836472823285E-4  
 2.436000000000000E10    1.944383757290780E-5  -5.193864781176671E-4  
 2.438000000000000E10   -4.970093323208857E-5  -5.218543483351823E-4  
 2.440000000000000E10   -2.369656613154803E-5   1.400907440256560E-4  
 2.442000000000000E10    3.457558304944541E-4   6.880159744468983E-4  
 2.444000000000000E10    6.585386909137014E-4  -1.929849249791005E-4  
 2.446000000000000E10   -3.516713695717044E-5  -7.014716138655786E-4  
 2.448000000000000E10   -1.160601892479463E-3  -1.674149016253068E-4  
 2.450000000000000E10   -3.558321168384282E-4   3.734173496923177E-4  
 2.452000000000000E10    7.622831071785186E-4   8.441188811048050E-5  
 2.454000000000000E10    5.267684118734906E-4  -1.039535916788736E-3  
 2.456000000000000E10   -2.404743145234534E-5  -7.141713103919756E-4  
 2.458000000000000E10   -3.063041913264897E-4  -1.495544909175806E-4  
 2.460000000000000E10   -1.925123154364883E-4   3.102542759734206E-4  
 2.462000000000000E10    3.877603649016237E-5   3.303466710349312E-4  
 2.464000000000000E10    2.913968883149209E-4   9.412243343831506E-6  
 2.466000000000000E10    8.822514234907430E-5  -9.396682908118237E-4  
 2.468000000000000E10   -8.073312201304361E-4  -9.277604258386418E-4  
 2.470000000000000E10   -6.283435395744164E-4   1.195599634229438E-4  
 2.472000000000000E10    7.246830791700631E-4   7.357914510066621E-4  
 2.474000000000000E10    1.230194568051957E-3  -6.969437090447173E-4  
 2.476000000000000E10   -2.592738428575103E-4  -1.081120622984599E-3  
 2.478000000000000E10   -9.725919662741944E-4   2.990791963384254E-4  
 2.480000000000000E10   -2.959018015644688E-4   1.099935823731357E-3  
 2.482000000000000E10    8.784484016359784E-4   1.485688053435297E-4  
 2.484000000000000E10    4.902422479062807E-4  -1.129239026340656E-3  
 2.486000000000000E10   -7.025622762739658E-4  -1.591732165252324E-3  
 2.488000000000000E10   -9.908660904329736E-4  -6.474382826127112E-5  
 2.490000000000000E10    3.409898890822660E-4   8.102217325358652E-4  
 2.492000000000000E10    9.596229538146872E-4  -9.286236399930203E-5  
 2.494000000000000E10    8.501789961883333E-4  -8.134875861287583E-4  
 2.496000000000000E10   -6.401100945367944E-4  -4.229449987178668E-4  
 2.498000000000000E10   -1.369048877677415E-3   4.376055476313923E-4  
 2.500000000000000E10    7.390614990754330E-5   1.286009464820381E-3  
 2.502000000000000E10    1.086542855773587E-3  -2.244946940663795E-4  
 2.504000000000000E10   -8.063405766733922E-5  -2.003313333261758E-3  
 2.506000000000000E10   -1.211260256241076E-3  -9.639474301366136E-4  
 2.508000000000000E10   -7.995522755663842E-4   5.772600925411098E-4  
 2.510000000000000E10    1.251565525308251E-3   4.425555307534523E-4  
 2.512000000000000E10    8.182875171769410E-4  -6.434694005292840E-4  
 2.514000000000000E10   -4.496621404541656E-4  -8.010904857655987E-4  
 2.516000000000000E10   -1.032899715937674E-3  -3.221304195903940E-4  
 2.518000000000000E10   -4.025935450044926E-4   4.269729615771212E-4  
 2.520000000000000E10   -1.345819091511658E-4   6.210529295458400E-5  
 2.522000000000000E10    3.823804108833429E-4  -1.140939886681736E-3  
 2.524000000000000E10   -1.758868893375620E-4  -1.238515396835282E-3  
 2.526000000000000E10   -6.971006732783280E-4  -4.125345112697687E-4  
 2.528000000000000E10   -4.409120265336242E-4   2.555800656409701E-4  
 2.530000000000000E10    5.340184870874509E-4   5.659632333845366E-4  
 2.532000000000000E10    6.401065184036270E-4  -6.866547846584581E-4  
 2.534000000000000E10   -5.209704468143173E-4  -7.475091842934489E-4  
 2.536000000000000E10   -1.377191409119405E-3   2.075746342597995E-4  
 2.538000000000000E10   -4.898318979940086E-5   5.393389947130345E-4  
 2.540000000000000E10    3.248997636546847E-4  -6.082069444346416E-5  
 2.542000000000000E10   -3.224416577722877E-4  -1.162326705525629E-3  
 2.544000000000000E10   -3.490876497380668E-4  -5.241345570539124E-4  
 2.546000000000000E10   -3.763216591323726E-4  -3.469575733561214E-5  
 2.548000000000000E10   -4.804558448086027E-4   1.674371469562175E-4  
 2.550000000000000E10   -2.989336917380570E-5   5.085850862087682E-4  
 2.552000000000000E10    3.137733947369270E-4   1.424937072442845E-4  
 2.554000000000000E10   -5.795136021333747E-4  -6.405463791452348E-4  
 2.556000000000000E10   -9.938513685483486E-4   1.370702502754284E-4  
 2.558000000000000E10   -5.434720733319409E-4   5.785031898994930E-4  
 2.560000000000000E10    6.892116016388172E-5   1.732971163619368E-4  
 2.562000000000000E10    2.285767423018115E-4  -6.451019362430088E-4  
 2.564000000000000E10   -1.000498559733387E-3  -3.653533276519738E-4  
 2.566000000000000E10   -4.904254783468787E-4   2.869307500077412E-4  
 2.568000000000000E10   -3.169402170897229E-4   8.223179684136994E-4  
 2.570000000000000E10    6.316477038126322E-5   4.765297962876502E-4  
 2.572000000000000E10    1.316107300226577E-4  -1.026768964038638E-4  
 2.574000000000000E10   -4.505642791627906E-4  -1.395028511979035E-4  
 2.576000000000000E10   -8.276188309537247E-4   1.362159914606309E-4  
 2.578000000000000E10   -4.882206885667983E-4   8.420274898526259E-4  
 2.580000000000000E10    1.900556580949342E-4   7.058690462145023E-4  
 2.582000000000000E10    6.880598157295026E-4  -2.961460177175468E-4  
 2.584000000000000E10   -5.949692276772112E-4  -6.523915944853798E-4  
 2.586000000000000E10   -1.021532298182137E-3   6.204435485415161E-4  
 2.588000000000000E10    1.948332646861672E-4   1.350340142380446E-3  
 2.590000000000000E10    9.043684403877705E-4   1.553698220959632E-4  
 2.592000000000000E10   -1.326671626884490E-4  -4.225381999276578E-4  
 2.594000000000000E10   -1.009434519801289E-3  -2.201208917540498E-4  
 2.596000000000000E10   -6.111666152719408E-4   8.510508996550925E-4  
 2.598000000000000E10    7.801358697179239E-5   8.135208045132458E-4  
 2.600000000000000E10    6.297602885751985E-4   2.505436455066956E-4  
 2.602000000000000E10    1.249342958544730E-4  -5.825521111546550E-4  
 2.604000000000000E10   -7.341782620642334E-4  -2.996870371134719E-4  
 2.606000000000000E10   -8.201979071600363E-4   6.631665673921816E-4  
 2.608000000000000E10    1.615276946722588E-4   1.073915685992688E-3  
 2.610000000000000E10    1.110981014790013E-3   1.555160142743262E-4  
 2.612000000000000E10    7.452599038515473E-5  -6.523574047605507E-4  
 2.614000000000000E10   -1.072943021426909E-3  -2.065688568109181E-4  
 2.616000000000000E10   -4.197232519800309E-4   1.301134601817466E-3  
 2.618000000000000E10    6.949731323402375E-4   5.592408051597886E-4  
 2.620000000000000E10    6.913455727044493E-4  -4.536374181043357E-4  
 2.622000000000000E10   -3.010944710695185E-4  -5.443215850391425E-4  
 2.624000000000000E10   -5.753492077928968E-4   1.697695133771049E-4  
 2.626000000000000E10   -1.791839295037789E-4   5.198351136641577E-4  
 2.628000000000000E10    4.482136537262704E-4   4.192899032204878E-4  
 2.630000000000000E10    5.830026784678921E-4  -1.817134243538021E-4  
 2.632000000000000E10    2.493112660886254E-4  -6.447496634791605E-4  
 2.634000000000000E10   -4.829699100810103E-4  -4.852176698477706E-5  
 2.636000000000000E10   -4.501828079810366E-4   7.506516776629724E-4  
 2.638000000000000E10    4.948466521454975E-4   6.641579311690293E-4  
 2.640000000000000E10    2.248086457257159E-4  -2.337114165129606E-4  
 2.642000000000000E10   -1.185938765502215E-4  -8.604256508988328E-4  
 2.644000000000000E10   -7.153278857003897E-4   2.584694757388206E-4  
 2.646000000000000E10   -7.943185028125299E-5   2.802781164064072E-4  
 2.648000000000000E10    4.416614174260758E-4  -4.031932826364937E-5  
 2.650000000000000E10    5.023851736041252E-4   1.728432962408988E-4  
 2.652000000000000E10    2.011754149862099E-4  -3.211970979464240E-4  
 2.654000000000000E10   -4.481596515688580E-4  -1.265068763132149E-4  
 2.656000000000000E10   -1.366099677397870E-4   8.745783488848247E-4  
 2.658000000000000E10    1.478505146224052E-4   6.025917027727701E-4  
 2.660000000000000E10    7.026077146292664E-4  -5.690119451173814E-5  
 2.662000000000000E10   -3.090830832661595E-4  -6.483750184997916E-4  
 2.664000000000000E10   -9.865751708275639E-4  -2.262422349303961E-4  
 2.666000000000000E10   -2.609562416182598E-4   6.564067443832755E-4  
 2.668000000000000E10    7.938589551486075E-4   8.043431880651042E-4  
 2.670000000000000E10    6.936554636922665E-4  -6.961728940950707E-4  
 2.672000000000000E10   -6.157039297249867E-5  -3.453663812251762E-4  
 2.674000000000000E10   -8.453495320281945E-4   4.374699747131672E-4  
 2.676000000000000E10   -2.904312823375221E-4   8.885863790055737E-4  
 2.678000000000000E10    7.572022732347250E-4   4.003847243438941E-4  
 2.680000000000000E10    1.526714295323473E-4  -3.177054823026992E-4  
 2.682000000000000E10   -2.377687924308702E-4  -4.520226320892107E-4  
 2.684000000000000E10   -7.245002125273459E-4   1.565560887684114E-4  
 2.686000000000000E10   -3.161905351589667E-4   7.434166836901568E-4  
 2.688000000000000E10    9.928142972057685E-4   3.958119195885956E-4  
 2.690000000000000E10    7.077559930621646E-4  -9.487870047450997E-4  
 2.692000000000000E10   -5.400912559707649E-4  -6.568960816366598E-4  
 2.694000000000000E10   -8.828589343465865E-4   3.179497598466696E-4  
 2.696000000000000E10    3.210935174138285E-4   1.102172551327385E-3  
 2.698000000000000E10    9.850793721852824E-4  -2.414190348645207E-4  
 2.700000000000000E10   -8.967021597072744E-5  -7.213604039861821E-4  
 2.702000000000000E10   -6.821897986810654E-4  -3.441043718339643E-4  
 2.704000000000000E10   -9.117672834690893E-5   4.009872645838186E-4  
 2.706000000000000E10    8.583323676703003E-6   4.343943583080545E-4  
 2.708000000000000E10    6.814129665144719E-4   2.852895590876869E-5  
 2.710000000000000E10    2.351171933696605E-4  -1.790717551557464E-4  
 2.712000000000000E10   -4.277035041013733E-4  -3.491828902042471E-4  
 2.714000000000000E10   -5.513101023097988E-4   3.975111735599057E-5  
 2.716000000000000E10    1.759678561938927E-4   9.947643702616915E-4  
 2.718000000000000E10    3.609422346926294E-4   6.855535048089223E-5  
 2.720000000000000E10    4.803038245881908E-4  -1.091089608962648E-3  
 2.722000000000000E10   -9.618500844226219E-4  -6.985685104154982E-4  
 2.724000000000000E10   -6.304163325694390E-4   7.244460211950354E-4  
 2.726000000000000E10    8.461598699796014E-4   5.584122518484946E-4  
 2.728000000000000E10    6.692483366350643E-4  -1.704571404843591E-4  
 2.730000000000000E10   -2.953081457235385E-4  -7.057868351694197E-4  
 2.732000000000000E10   -3.199816674168687E-4   2.358253259444609E-4  
 2.734000000000000E10   -6.390656271832995E-4   6.369397669914179E-4  
 2.736000000000000E10   -1.300716685364023E-4   9.839358699537115E-5  
 2.738000000000000E10    3.350914121256210E-4   3.026032154593850E-4  
 2.740000000000000E10    5.024000415687624E-5  -6.042856111889705E-4  
 2.742000000000000E10   -5.697612832591403E-4  -7.840223406674340E-4  
 2.744000000000000E10   -2.339708771614824E-4   4.713341186288744E-4  
 2.746000000000000E10    1.787391338439193E-4   8.845757911331020E-4  
 2.748000000000000E10    1.040231356455479E-3   6.287040378083475E-5  
 2.750000000000000E10    2.168529754271731E-4  -6.032450401107781E-4  
 2.752000000000000E10   -1.173945885966532E-3   2.011604574363446E-4  
 2.754000000000000E10   -6.176817732921336E-4   9.080245508812368E-4  
 2.756000000000000E10    6.693490504403599E-4   6.330922697088681E-4  
