#  HZ   S   RI   R     50.00 
! Rohde & Schwarz ZVA40 4Ports - Version 3.90 - 1145.1110k42 SN: 100403
! Date: 2023-10-04 06:35:48
! Measurement: S12 
! 
 2.200000000000000E10    4.049913386552362E-4  -1.285424732486717E-3  
 2.202000000000000E10   -5.039340067014564E-4  -7.061099749989808E-4  
 2.204000000000000E10    1.782600247679511E-5   4.906211324851029E-4  
 2.206000000000000E10    5.750604941567872E-4   4.996911375201307E-4  
 2.208000000000000E10    4.423835034685908E-4  -4.320346270105802E-4  
 2.210000000000000E10   -5.269506946206093E-4  -2.899707014876185E-4  
 2.212000000000000E10   -3.838661941699684E-4   3.049713950531441E-4  
 2.214000000000000E10    3.138141219096724E-4  -7.414094602609112E-5  
 2.216000000000000E10    7.143394668673864E-5  -3.340799630677793E-4  
 2.218000000000000E10   -1.561233657412231E-4  -2.359947775403271E-4  
 2.220000000000000E10    2.313641380169429E-4   5.509944685400114E-5  
 2.222000000000000E10    3.829301349469461E-4  -5.681888542312663E-4  
 2.224000000000000E10   -3.211356106476160E-4   1.826804732445453E-4  
 2.226000000000000E10    3.816315711446805E-5   6.066108326194808E-4  
 2.228000000000000E10    1.009603205602616E-3   2.682529111552867E-5  
 2.230000000000000E10   -3.777216823408480E-5  -9.139115136349574E-4  
 2.232000000000000E10   -9.142070848611184E-4  -5.124157105456106E-4  
 2.234000000000000E10    1.890274031666195E-4   6.365161243593320E-4  
 2.236000000000000E10    6.735329297953285E-4  -5.727439784095623E-4  
 2.238000000000000E10    1.256702546470478E-4  -9.090766543522477E-4  
 2.240000000000000E10   -1.290196714762715E-4   1.148791980085662E-4  
 2.242000000000000E10    1.485302964283619E-4   1.807273292797618E-4  
 2.244000000000000E10    5.256876320345327E-4  -1.420549710928754E-4  
 2.246000000000000E10    5.038010294811102E-5   2.989366676047212E-4  
 2.248000000000000E10   -8.412684269387682E-5  -1.128920971495973E-4  
 2.250000000000000E10    2.915591958299046E-4  -1.359614259968112E-4  
 2.252000000000000E10   -2.806102202157490E-4  -7.561944858025527E-5  
 2.254000000000000E10   -2.963262959383428E-4   6.329993777853815E-5  
 2.256000000000000E10    1.048173003255215E-4   2.761823579930933E-4  
 2.258000000000000E10    6.879760767333210E-4  -2.832615627994528E-4  
 2.260000000000000E10   -4.682272174250102E-5  -6.455599504988641E-4  
 2.262000000000000E10   -9.087976723094471E-4   2.922872990893666E-4  
 2.264000000000000E10    3.030781954294071E-4   6.806358724134043E-4  
 2.266000000000000E10   -3.749189318114077E-5  -7.078502949298127E-5  
 2.268000000000000E10    5.437517143036530E-5  -2.499185411579674E-4  
 2.270000000000000E10    5.070530005468754E-5   2.999571188411210E-4  
 2.272000000000000E10    1.241119498445187E-4  -1.944909527082928E-4  
 2.274000000000000E10    2.981875923069310E-6  -1.134258368438168E-4  
 2.276000000000000E10   -9.062796652870020E-5   4.980172998330090E-4  
 2.278000000000000E10    2.663589766598307E-4   2.717487041081768E-4  
 2.280000000000000E10    3.985681541962549E-4  -4.616444239218254E-4  
 2.282000000000000E10   -3.466643756837584E-4  -5.471085751196370E-4  
 2.284000000000000E10   -6.580744375241920E-4   8.521980198565871E-4  
 2.286000000000000E10    4.529408251983114E-4   4.832967024412938E-4  
 2.288000000000000E10    7.717521511949599E-4   2.406375642749481E-5  
 2.290000000000000E10   -1.789556547464599E-4  -4.048538394272327E-4  
 2.292000000000000E10   -3.862926751025952E-4  -2.702721940295305E-5  
 2.294000000000000E10    4.205382424515847E-5   7.657677269889973E-4  
 2.296000000000000E10    5.375112123147119E-4   4.337177633715328E-4  
 2.298000000000000E10    4.775250272359699E-4  -9.141275495494483E-5  
 2.300000000000000E10    2.427450854156632E-4  -5.827880777360406E-4  
 2.302000000000000E10   -3.932362014893442E-4  -5.136659892741591E-4  
 2.304000000000000E10   -3.000520882778801E-4   6.979297322686762E-4  
 2.306000000000000E10    8.980237107607536E-4   8.297602762468159E-4  
 2.308000000000000E10    1.028725120704621E-3  -8.983380248537287E-4  
 2.310000000000000E10   -3.682780043163803E-4  -8.567868280806579E-4  
 2.312000000000000E10   -1.009954059554730E-3   7.322007004404441E-4  
 2.314000000000000E10    4.522061644820496E-4   9.744226990733296E-4  
 2.316000000000000E10    1.272491615964100E-3  -1.368078947052709E-4  
 2.318000000000000E10   -1.968498639826066E-4  -9.591610214556567E-4  
 2.320000000000000E10   -6.138214230304584E-4  -2.242595364805311E-4  
 2.322000000000000E10   -2.792438244796358E-4   5.029510975873563E-4  
 2.324000000000000E10    4.262035836291034E-4   2.428717630209576E-4  
 2.326000000000000E10    5.640072122332640E-4  -2.502302213542862E-4  
 2.328000000000000E10    3.961699230785598E-4  -2.869713061954826E-4  
 2.330000000000000E10   -6.389915506588295E-4  -5.169210126041435E-4  
 2.332000000000000E10   -5.243006380624138E-4   4.242503600835335E-4  
 2.334000000000000E10    4.088513705937658E-4   2.117757067026105E-4  
 2.336000000000000E10    7.681885253987275E-4  -7.193180936155841E-4  
 2.338000000000000E10   -9.805149466046714E-5  -1.356194086838514E-3  
 2.340000000000000E10   -1.195998323964886E-3   1.530789564867519E-4  
 2.342000000000000E10    8.514448472851655E-5   3.948591584048700E-4  
 2.344000000000000E10    1.311923886532895E-3   7.570979846605042E-5  
 2.346000000000000E10    3.629282145993784E-4  -6.825191339885350E-4  
 2.348000000000000E10   -4.422758174769115E-4  -4.460964810277801E-4  
 2.350000000000000E10   -4.123639955651015E-4  -2.378619632281698E-5  
 2.352000000000000E10   -1.801532771423808E-4  -8.443269553026767E-5  
 2.354000000000000E10    2.524351257306989E-4  -1.435719841538230E-4  
 2.356000000000000E10    3.614825145632494E-4  -1.119220726195636E-4  
 2.358000000000000E10    2.616439705889206E-4  -7.127811404643580E-4  
 2.360000000000000E10   -5.351689760573208E-4  -4.133846996410284E-4  
 2.362000000000000E10   -1.214488665937097E-4   3.265232517151162E-4  
 2.364000000000000E10    5.123657028889284E-4   5.397490749601275E-4  
 2.366000000000000E10    8.092978896456771E-4  -7.652219792362303E-4  
 2.368000000000000E10   -5.856558564119041E-4  -8.333652222063392E-4  
 2.370000000000000E10   -6.544098941958509E-4   8.237222573370673E-5  
 2.372000000000000E10    5.878755814592296E-6   5.441206740215421E-4  
 2.374000000000000E10    7.917409457149915E-4  -2.624823855512659E-5  
 2.376000000000000E10    3.737582555913832E-4  -4.453561268746853E-4  
 2.378000000000000E10    1.483509266222427E-4  -6.002753652865067E-4  
 2.380000000000000E10   -2.954911542474292E-4  -1.279899561268394E-4  
 2.382000000000000E10   -5.762898672401207E-5   3.887778584612534E-4  
 2.384000000000000E10   -8.729767046133929E-5   5.308696127030999E-4  
 2.386000000000000E10    5.210878407524433E-4  -6.922498578205705E-4  
 2.388000000000000E10   -2.941076272691134E-4  -1.149131625425071E-3  
 2.390000000000000E10   -9.773163328645751E-4   4.103598030269495E-5  
 2.392000000000000E10   -6.223236596269999E-6   7.618869494763203E-4  
 2.394000000000000E10    1.418698753695935E-3  -4.194433931843378E-4  
 2.396000000000000E10    1.189112881547771E-4  -1.360766080324538E-3  
 2.398000000000000E10   -9.914373658830300E-4  -4.987073480151594E-4  
 2.400000000000000E10   -7.041029966785573E-4   4.043809422000777E-4  
 2.402000000000000E10    2.865593814931344E-4   3.834165436273906E-4  
 2.404000000000000E10    2.491626473783981E-4  -4.761139571201056E-4  
 2.406000000000000E10   -2.963738988910336E-4  -4.759627991006710E-4  
 2.408000000000000E10   -6.757102819392458E-4  -6.568309509020764E-4  
 2.410000000000000E10   -6.041786837158725E-4   3.806239619734697E-4  
 2.412000000000000E10   -2.733680121309590E-4   4.331002492108382E-4  
 2.414000000000000E10    8.062156048254110E-4   7.335937880270649E-5  
 2.416000000000000E10    3.362713253522998E-4  -1.393346406985074E-3  
 2.418000000000000E10   -1.583924575243145E-3  -4.548069118754938E-4  
 2.420000000000000E10   -1.110870318370871E-3   7.695293534197845E-4  
 2.422000000000000E10    6.695822339679580E-4   1.005416306725238E-3  
 2.424000000000000E10    7.555131669505499E-4  -8.571842190576717E-4  
 2.426000000000000E10   -6.338765306281857E-4  -1.049337384756655E-3  
 2.428000000000000E10   -1.369095058180392E-3   6.435421746573411E-4  
 2.430000000000000E10   -2.014973333643866E-4   9.991706101573072E-4  
 2.432000000000000E10    7.553993709734641E-4  -6.029463565937476E-5  
 2.434000000000000E10    2.987090863371122E-5  -4.362726140243467E-4  
 2.436000000000000E10   -4.712042682513129E-4  -7.819719176040962E-4  
 2.438000000000000E10   -6.196406175149605E-4   2.638253354234621E-4  
 2.440000000000000E10   -3.453982208156958E-4   8.420094236498699E-4  
 2.442000000000000E10    8.496532027493231E-4   5.810127331642434E-4  
 2.444000000000000E10    5.292421046760865E-4  -4.697361800936051E-4  
 2.446000000000000E10   -6.351836782414466E-4  -9.902541642077267E-4  
 2.448000000000000E10   -1.529520377516747E-3   4.097660566912964E-4  
 2.450000000000000E10   -3.052056272281334E-4   1.390359786455520E-3  
 2.452000000000000E10    1.025289748213254E-3  -5.050655818195082E-4  
 2.454000000000000E10    1.201826944452478E-5  -1.322321841144003E-3  
 2.456000000000000E10   -1.259865413885564E-3  -5.280317855067551E-4  
 2.458000000000000E10   -5.616748749162071E-4   7.780840751365759E-4  
 2.460000000000000E10    9.208603005390614E-4   6.028576171956956E-4  
 2.462000000000000E10    4.491785184654873E-4  -4.341020176070742E-4  
 2.464000000000000E10   -1.289916835958138E-4  -5.303081125020981E-4  
 2.466000000000000E10   -1.051354534865823E-3   4.994944129066425E-5  
 2.468000000000000E10   -5.116547399666160E-4   1.732506552798441E-4  
 2.470000000000000E10   -2.935433444690716E-4   4.069242077093804E-4  
 2.472000000000000E10    2.846320264779934E-4  -9.668298207543558E-5  
 2.474000000000000E10    2.245998039143160E-4  -9.179201224469580E-4  
 2.476000000000000E10   -4.789409067598172E-4  -2.981488687510137E-4  
 2.478000000000000E10   -6.349035320454277E-4   5.186970120121259E-4  
 2.480000000000000E10    3.103168801317224E-4   8.094636868918315E-4  
 2.482000000000000E10   -1.843141671997728E-5  -2.761982786978479E-4  
 2.484000000000000E10   -8.009574594325386E-4  -6.421038633561693E-4  
 2.486000000000000E10   -9.228814815287478E-4  -1.221711331709230E-4  
 2.488000000000000E10   -5.928335594944656E-4   1.336967982865644E-4  
 2.490000000000000E10    8.229385457525495E-7  -3.770124585571466E-4  
 2.492000000000000E10    3.074497617490124E-4  -2.865578971977811E-4  
 2.494000000000000E10    1.109012421238731E-4  -2.591539741843008E-4  
 2.496000000000000E10   -3.647327212092932E-4  -3.764544271689374E-4  
 2.498000000000000E10   -7.264295345521532E-4   3.255514602642506E-4  
 2.500000000000000E10   -1.166461229331617E-4   1.079548383131623E-3  
 2.502000000000000E10    4.757043279823847E-4   4.506301847868599E-4  
 2.504000000000000E10   -9.842329700404662E-5  -8.897548250388354E-4  
 2.506000000000000E10   -9.764031856320798E-4  -4.448542968020774E-4  
 2.508000000000000E10   -9.717008797451854E-4   4.034666635561734E-4  
 2.510000000000000E10    4.415050934767351E-4   1.048076519509777E-3  
 2.512000000000000E10    6.176665629027411E-4  -2.490433907951228E-4  
 2.514000000000000E10   -2.347874687984586E-4  -2.999323332915083E-4  
 2.516000000000000E10   -1.166218338767067E-3   4.386648579384200E-4  
 2.518000000000000E10   -5.237976365606301E-4   6.563940696651116E-4  
 2.520000000000000E10    7.006020132394042E-5   8.484211721224710E-4  
 2.522000000000000E10    4.139118391321972E-4  -2.921394843724556E-4  
 2.524000000000000E10   -3.438106068642810E-4  -1.050357474014163E-3  
 2.526000000000000E10   -1.165118272183463E-3  -4.184971476206556E-4  
 2.528000000000000E10   -8.591327641624957E-4   9.600469493307173E-4  
 2.530000000000000E10    9.402839350514114E-4   1.083860377548263E-3  
 2.532000000000000E10    7.012906280579045E-4  -6.347492890199646E-4  
 2.534000000000000E10   -9.177228494081646E-4  -7.811715622665361E-4  
 2.536000000000000E10   -1.230941619724035E-3   8.634163095848635E-4  
 2.538000000000000E10   -1.925534779729787E-4   1.237224438227713E-3  
 2.540000000000000E10    5.959891714155674E-4  -1.184440543511300E-4  
 2.542000000000000E10   -1.222121663886355E-4  -7.983406685525551E-4  
 2.544000000000000E10   -8.483923302264884E-4  -4.070039722137153E-4  
 2.546000000000000E10   -6.877439227537252E-4   4.216199668007903E-4  
 2.548000000000000E10    5.272122434689663E-4   1.263054553419352E-3  
 2.550000000000000E10    6.322878471110016E-4   1.541645833640359E-4  
 2.552000000000000E10    2.692359321372351E-4  -4.022273933514953E-4  
 2.554000000000000E10   -9.093555127037689E-4  -2.496736360626528E-4  
 2.556000000000000E10   -1.048572419676930E-3   1.115276987547986E-3  
 2.558000000000000E10    2.970576897496358E-4   7.740347209619358E-4  
 2.560000000000000E10    8.889023883966729E-4  -4.561453079077182E-5  
 2.562000000000000E10   -3.551800327841193E-4  -1.199994876515120E-3  
 2.564000000000000E10   -6.472308305092156E-4   1.773708572727628E-4  
 2.566000000000000E10   -2.723372163018212E-4   1.239308447111398E-3  
 2.568000000000000E10    6.978088786127046E-4   6.078956648707390E-4  
 2.570000000000000E10    3.859524949803017E-4  -3.697612555697560E-5  
 2.572000000000000E10   -2.698192947718781E-4  -9.032487469085027E-5  
 2.574000000000000E10   -3.715588609338738E-4   4.321239830460399E-4  
 2.576000000000000E10   -8.458859565507737E-5   5.968643527012318E-4  
 2.578000000000000E10    4.939924547215924E-4   7.021830970188603E-4  
 2.580000000000000E10    3.432132507441565E-4  -2.012976201513084E-4  
 2.582000000000000E10    1.263162002942408E-4  -2.616820202092640E-4  
 2.584000000000000E10   -7.890941633377224E-4   7.172069672378711E-5  
 2.586000000000000E10   -9.306406991527183E-5   9.885549661703408E-4  
 2.588000000000000E10    7.555942429462448E-4   7.260721031343564E-4  
 2.590000000000000E10    5.746656606788747E-4  -3.667799428512808E-4  
 2.592000000000000E10    1.046737015713006E-4   9.280986478188424E-5  
 2.594000000000000E10   -3.648209967650473E-4   1.937467859534081E-4  
 2.596000000000000E10    3.175918973283842E-4   6.490987434517592E-4  
 2.598000000000000E10    6.859152344986796E-4   3.147573006572202E-4  
 2.600000000000000E10    5.124048475408927E-4   5.666286597261205E-5  
 2.602000000000000E10    3.529845489538275E-4  -1.168899079857511E-4  
 2.604000000000000E10   -1.513201823399868E-4   7.992554765223758E-5  
 2.606000000000000E10   -1.991664703382412E-6   5.945746815996245E-4  
 2.608000000000000E10    3.571871056919918E-4   7.778413273626939E-4  
 2.610000000000000E10    1.190220820717514E-3  -3.523867926560342E-4  
 2.612000000000000E10   -1.631243467272725E-4  -6.971963448449969E-4  
 2.614000000000000E10   -3.949667807319202E-4   4.180732576060109E-4  
 2.616000000000000E10    8.358985724044032E-6   9.378747781738639E-4  
 2.618000000000000E10    1.144594672950916E-3   3.054720946238376E-4  
 2.620000000000000E10    5.210015369812027E-4  -4.209190883557312E-4  
 2.622000000000000E10   -3.645364049589261E-4  -5.076374218333513E-4  
 2.624000000000000E10   -6.290963719948195E-4   2.836959247360937E-4  
 2.626000000000000E10   -9.851651884673629E-5   7.354854169534519E-4  
 2.628000000000000E10    7.576330244773999E-4   4.729884585685795E-5  
 2.630000000000000E10    7.926501566544175E-4  -5.459336825879291E-4  
 2.632000000000000E10   -2.636577628436498E-4  -9.454821993131191E-4  
 2.634000000000000E10   -7.386121578747407E-4   4.682353901444003E-4  
 2.636000000000000E10    2.392072797192668E-4   7.228548493003473E-4  
 2.638000000000000E10    1.204101776238531E-3   3.695858322316781E-4  
 2.640000000000000E10    2.559941676736344E-4  -1.123017602367327E-3  
 2.642000000000000E10   -8.798631606623530E-4  -2.669455425348133E-4  
 2.644000000000000E10   -6.790150073356926E-4   8.830414735712111E-4  
 2.646000000000000E10    6.704235565848649E-4   5.751175776822493E-4  
 2.648000000000000E10    8.525585435563698E-4  -5.489271425176412E-4  
 2.650000000000000E10   -4.497520712902769E-4  -6.946117209736258E-4  
 2.652000000000000E10   -9.735459633475330E-5   1.084594841813669E-4  
 2.654000000000000E10   -2.554982591504995E-4   4.410229084896855E-4  
 2.656000000000000E10    3.163533619954251E-4   4.640549232135527E-4  
 2.658000000000000E10    3.243350220145658E-4   6.094478339946363E-5  
 2.660000000000000E10    2.243532035208773E-4  -3.560694458428770E-4  
 2.662000000000000E10   -6.920950399944559E-4  -3.208045782230329E-4  
 2.664000000000000E10   -2.743250825005816E-4   3.627006226452068E-4  
 2.666000000000000E10    2.150512918888126E-4   4.199265677016228E-4  
 2.668000000000000E10    8.986725297290832E-4  -4.410821748024318E-4  
 2.670000000000000E10    2.052541094599292E-4  -5.731458513764665E-4  
 2.672000000000000E10   -6.152619898784906E-4  -1.664441906541470E-4  
 2.674000000000000E10    2.725886370171793E-4   7.369732484221458E-4  
 2.676000000000000E10    3.678671128000133E-4   3.898451104760170E-4  
 2.678000000000000E10    3.460073203314096E-4  -1.192266827274580E-4  
 2.680000000000000E10    1.440111191186588E-6  -3.006297501997324E-4  
 2.682000000000000E10   -3.760101244552061E-4   9.412150484422455E-5  
 2.684000000000000E10   -2.253319398732856E-4   1.372242013530922E-4  
 2.686000000000000E10   -8.496646762523596E-5   5.636231435346417E-4  
 2.688000000000000E10    9.083100158022717E-4   1.673346450843383E-4  
 2.690000000000000E10    3.006849874509499E-4  -5.708389508072287E-4  
 2.692000000000000E10   -8.361536747543141E-4  -4.730960208689794E-4  
 2.694000000000000E10   -4.623385830200277E-4   9.985837677959353E-4  
 2.696000000000000E10    8.716584852663800E-4   8.611005614511669E-4  
 2.698000000000000E10    6.135055009508506E-4  -4.799527087016031E-4  
 2.700000000000000E10   -3.258756405557506E-4  -9.197071049129590E-4  
 2.702000000000000E10   -1.034767861710861E-3   4.397146185510792E-4  
 2.704000000000000E10    8.304096809297334E-6   7.164902490330860E-4  
 2.706000000000000E10    7.897706818766892E-4   3.924391785403714E-4  
 2.708000000000000E10    6.430189241655171E-4  -3.187244874425232E-4  
 2.710000000000000E10   -3.756808800972067E-4  -6.434609822463244E-4  
 2.712000000000000E10   -3.550778710632585E-4   2.543715127103496E-4  
 2.714000000000000E10   -6.092890980653465E-4   5.870217428309843E-4  
 2.716000000000000E10    8.988493937067688E-4   7.030605192994699E-4  
 2.718000000000000E10    6.919336010469124E-4  -8.103364816633984E-4  
 2.720000000000000E10   -2.815130101225805E-4  -9.917441057041287E-4  
 2.722000000000000E10   -1.193927746498957E-3   2.454029890941456E-5  
 2.724000000000000E10    4.504424141487107E-4   1.352811988908798E-3  
 2.726000000000000E10    1.380881731165573E-3   8.691064977028873E-6  
 2.728000000000000E10    2.664464482222684E-4  -1.188167167128995E-3  
 2.730000000000000E10   -8.552663930458948E-4   4.262969014234841E-6  
 2.732000000000000E10   -3.969630161009263E-4   9.198571933666244E-4  
 2.734000000000000E10    7.289990171557292E-4   7.535651820944622E-4  
 2.736000000000000E10    5.674899075529538E-4  -4.528049867076334E-4  
 2.738000000000000E10   -9.087827493203804E-5  -5.493301650858484E-4  
 2.740000000000000E10   -6.582687346963212E-4  -2.902958658523858E-4  
 2.742000000000000E10    6.006538387737237E-5   5.225452041486278E-4  
 2.744000000000000E10    4.167463630437851E-4   4.352798205218278E-4  
 2.746000000000000E10    7.784645858919248E-4  -4.629207796824630E-5  
 2.748000000000000E10    3.352061939949635E-4  -3.517328768793959E-4  
 2.750000000000000E10   -5.204640401643701E-4  -6.086924695409834E-4  
 2.752000000000000E10   -4.034267913084477E-4   8.306997042382136E-4  
 2.754000000000000E10    3.106235744780861E-4   7.035302987787873E-4  
 2.756000000000000E10    9.929959487635642E-4  -4.042362998006865E-4  
