#  HZ   S   RI   R     50.00 
! Rohde & Schwarz ZVA40 4Ports - Version 3.90 - 1145.1110k42 SN: 100403
! Date: 2023-10-04 06:35:13
! Measurement: S12 
! 
 2.200000000000000E10    3.337672842462780E-4  -8.835982189339120E-4  
 2.202000000000000E10   -7.820413993613329E-4  -2.490254573785933E-4  
 2.204000000000000E10    1.083581437342218E-4   8.784592282609083E-4  
 2.206000000000000E10    8.187554085452575E-4   6.028327152307611E-5  
 2.208000000000000E10    6.896555152025030E-5  -3.905024759660591E-4  
 2.210000000000000E10   -7.547732129751239E-4  -1.356392613161006E-4  
 2.212000000000000E10   -7.508149292334565E-5   3.599908395699458E-4  
 2.214000000000000E10    4.103176579519641E-4   5.043569936447057E-5  
 2.216000000000000E10   -9.666295079568954E-5  -3.988721782661742E-4  
 2.218000000000000E10   -1.612948176443751E-4  -2.952662161987973E-4  
 2.220000000000000E10    4.936647637805436E-4   2.471522529958747E-4  
 2.222000000000000E10    7.833282325009350E-6  -7.505391695303842E-4  
 2.224000000000000E10   -3.111662681476446E-4   2.085917454905939E-4  
 2.226000000000000E10    8.590643165007350E-5   8.161204059433658E-4  
 2.228000000000000E10    3.294246944278712E-4  -7.156094034144189E-4  
 2.230000000000000E10   -4.838828135689255E-4  -8.261551738542039E-4  
 2.232000000000000E10   -1.006842256174423E-3   2.501253957234439E-4  
 2.234000000000000E10    6.600706074095797E-4   4.070026061526733E-4  
 2.236000000000000E10    8.486820406687912E-4  -5.758218012488214E-4  
 2.238000000000000E10   -9.669952449087305E-5  -8.148637753038202E-4  
 2.240000000000000E10   -4.748917253891705E-4  -5.821626382385148E-5  
 2.242000000000000E10    3.172852309489826E-4   7.987467179191299E-4  
 2.244000000000000E10    5.300635020830669E-4   2.512404980734573E-4  
 2.246000000000000E10    3.943986994272564E-4  -1.750359569996363E-4  
 2.248000000000000E10    6.388178189808969E-5  -1.010771743779060E-4  
 2.250000000000000E10   -5.930492784500530E-5  -7.191444387899537E-5  
 2.252000000000000E10   -3.391872887732461E-4  -2.210842269505520E-4  
 2.254000000000000E10    1.574186103425745E-4   4.574611339194235E-4  
 2.256000000000000E10    1.030091349093709E-3   2.221563745479216E-4  
 2.258000000000000E10    5.448255906230770E-4  -6.357044512697030E-4  
 2.260000000000000E10   -5.115916719660163E-4  -1.315773490659922E-4  
 2.262000000000000E10   -6.719589946442284E-4   1.044626966177020E-3  
 2.264000000000000E10    1.100881985621527E-3   2.847401156031992E-4  
 2.266000000000000E10    2.778769212454790E-4  -8.821591763990000E-4  
 2.268000000000000E10   -3.665858603199013E-4  -4.723672791442368E-4  
 2.270000000000000E10    4.773317914441577E-5   3.007220348081319E-4  
 2.272000000000000E10    6.835628082626499E-4   2.730984383561008E-4  
 2.274000000000000E10    6.306083469098667E-4   9.504574211405270E-5  
 2.276000000000000E10    1.976381427084561E-4  -7.084150797709299E-5  
 2.278000000000000E10    1.379946597808157E-4  -1.735240266498295E-4  
 2.280000000000000E10   -3.844002876576269E-4   3.445610260541798E-4  
 2.282000000000000E10   -2.193520285800332E-4   3.869021747959778E-5  
 2.284000000000000E10    1.532562482680078E-4   3.284431597876392E-4  
 2.286000000000000E10    1.950045416378998E-4  -1.884706585570939E-4  
 2.288000000000000E10   -5.612376355657034E-6  -7.018253345449921E-4  
 2.290000000000000E10    1.727761741676659E-4   1.158393743025954E-4  
 2.292000000000000E10    5.038016388425604E-4   4.063580036017811E-4  
 2.294000000000000E10    7.443722352036275E-4  -1.620957764316700E-4  
 2.296000000000000E10    1.624375408937340E-4  -2.125745809280488E-4  
 2.298000000000000E10   -7.083009666075668E-5   1.748001004671096E-4  
 2.300000000000000E10    1.909590240245507E-5  -2.681198909613158E-4  
 2.302000000000000E10   -8.285373894523218E-5  -3.642679871518340E-5  
 2.304000000000000E10    9.473071258980781E-5  -3.319527491996155E-5  
 2.306000000000000E10    3.956641121476423E-4  -2.022870457949466E-4  
 2.308000000000000E10    2.267037934871041E-4  -9.448153068660758E-4  
 2.310000000000000E10   -7.040411437628791E-4  -3.335327455715742E-4  
 2.312000000000000E10    5.851343066751724E-4   7.403729941870552E-4  
 2.314000000000000E10    6.390072812791914E-4   2.326917970094655E-4  
 2.316000000000000E10    3.274088702482914E-4  -6.459856231231242E-4  
 2.318000000000000E10   -4.633688604371855E-4  -2.979988630613661E-4  
 2.320000000000000E10   -2.795322179736104E-4   3.255073024774902E-4  
 2.322000000000000E10   -3.128353199599587E-5   2.697898780752439E-4  
 2.324000000000000E10    7.991968013811857E-4  -8.238351028921898E-5  
 2.326000000000000E10    4.048575992783299E-4  -6.139242868812289E-4  
 2.328000000000000E10   -4.268206484994153E-4  -5.547618420678191E-4  
 2.330000000000000E10   -2.184092390962178E-4  -3.470140530907884E-4  
 2.332000000000000E10   -2.151605294784531E-4   6.679861780867213E-4  
 2.334000000000000E10    6.339343999570701E-4   5.552600168812205E-5  
 2.336000000000000E10    5.336515059752855E-4  -7.209609502751846E-4  
 2.338000000000000E10   -8.840835107548628E-4  -8.794420718913898E-4  
 2.340000000000000E10   -8.113527183013503E-4   9.237602425855584E-4  
 2.342000000000000E10    9.726966891321354E-4   7.804619453963824E-4  
 2.344000000000000E10    5.809682224935386E-4  -1.119558677601162E-3  
 2.346000000000000E10   -5.811522496514954E-4  -1.038180409523193E-3  
 2.348000000000000E10   -1.093854622013168E-3   3.099965069850441E-4  
 2.350000000000000E10   -4.744515035781660E-5   8.237870788434520E-4  
 2.352000000000000E10    7.271579088410363E-4  -3.406920177440043E-4  
 2.354000000000000E10    1.016922917642660E-4  -7.064080782583915E-4  
 2.356000000000000E10   -4.869739714195021E-4  -9.622604047763161E-4  
 2.358000000000000E10   -7.604113925481215E-4  -3.336379231768660E-4  
 2.360000000000000E10   -3.000356955453754E-4   2.010402240557596E-4  
 2.362000000000000E10    5.083912619738840E-4   4.099707639397821E-4  
 2.364000000000000E10    5.938486574450508E-4  -8.021729881875217E-4  
 2.366000000000000E10   -5.400876616477035E-4  -9.373242428409867E-4  
 2.368000000000000E10   -1.092262100428343E-3   2.617627460494987E-4  
 2.370000000000000E10   -6.071525240258779E-5   1.005676152999513E-3  
 2.372000000000000E10    1.020017843984533E-3  -4.378554986033123E-4  
 2.374000000000000E10   -2.045557312158053E-4  -1.331466162810102E-3  
 2.376000000000000E10   -1.401917674229480E-3  -4.366286011645570E-4  
 2.378000000000000E10   -1.642184488446219E-4   3.636053152149543E-4  
 2.380000000000000E10    7.586144201923162E-4   2.796237215534347E-4  
 2.382000000000000E10    4.610181458701845E-4  -1.003467412374448E-3  
 2.384000000000000E10   -1.424326455889968E-4  -5.799234531878028E-5  
 2.386000000000000E10   -4.826888543902896E-4  -2.837576539604925E-5  
 2.388000000000000E10   -4.574675549520180E-4   7.693232237215852E-5  
 2.390000000000000E10    2.474427965353243E-4   5.882781988475472E-4  
 2.392000000000000E10    2.421348945063073E-4  -3.200123755959794E-4  
 2.394000000000000E10    4.910791449219687E-5  -9.327477382612415E-4  
 2.396000000000000E10   -1.196122306282632E-3  -8.481965633109212E-4  
 2.398000000000000E10   -5.051445987191983E-4   6.853207523818128E-4  
 2.400000000000000E10    7.543999963672832E-4   3.764903012779541E-4  
 2.402000000000000E10    3.550273977452889E-4  -5.397689456003718E-4  
 2.404000000000000E10   -7.397124791168608E-4  -5.114629711897578E-4  
 2.406000000000000E10   -4.940276958222967E-4   7.461039531335700E-4  
 2.408000000000000E10    1.015734351312858E-4   6.612760334974155E-4  
 2.410000000000000E10   -2.068114717985736E-4  -6.015846940954361E-5  
 2.412000000000000E10   -7.585326159187389E-6  -4.589012187352637E-4  
 2.414000000000000E10   -3.539720200933516E-4   3.629401544458233E-5  
 2.416000000000000E10   -2.595720725366846E-4  -3.032948643522104E-4  
 2.418000000000000E10   -6.012478188495152E-4   4.402032209327444E-4  
 2.420000000000000E10    3.258668239141116E-4   8.435725685558282E-4  
 2.422000000000000E10    7.846693843021058E-4  -1.931789004174789E-4  
 2.424000000000000E10   -3.819773155555595E-4  -7.797797879902646E-4  
 2.426000000000000E10   -1.161404055892490E-3   1.725315669318661E-4  
 2.428000000000000E10   -1.969644254131708E-4   8.642612156108953E-4  
 2.430000000000000E10    6.746039071003906E-4   1.909937491291203E-4  
 2.432000000000000E10    4.669447262131143E-4  -6.966144646867178E-4  
 2.434000000000000E10   -6.725547718815506E-4  -8.594719183747657E-4  
 2.436000000000000E10   -5.204825647524558E-4   5.658732225128915E-4  
 2.438000000000000E10    4.694228809967171E-4   4.524736941675656E-4  
 2.440000000000000E10    5.697607703041285E-4   3.798146171902772E-4  
 2.442000000000000E10    3.778453301492846E-4  -1.201161326207512E-4  
 2.444000000000000E10   -2.696872152228025E-4  -4.656115270336159E-4  
 2.446000000000000E10   -7.435063816956244E-4   1.906900124595268E-4  
 2.448000000000000E10   -4.038493079860928E-4   1.037379071931355E-3  
 2.450000000000000E10    1.110828183300328E-3   3.584358601074200E-4  
 2.452000000000000E10    5.548052649828605E-4  -1.222513601533137E-3  
 2.454000000000000E10   -9.860514837782830E-4  -8.222757824114524E-4  
 2.456000000000000E10   -1.058334994013421E-3   7.060880379867740E-4  
 2.458000000000000E10    8.958443359006196E-4   1.557916868478060E-3  
 2.460000000000000E10    1.488399066147395E-3  -5.068163354735589E-4  
 2.462000000000000E10   -3.672118655231316E-4  -1.378145039780065E-3  
 2.464000000000000E10   -1.405270872055553E-3  -1.812943851291493E-4  
 2.466000000000000E10   -3.956701257266104E-4   1.080083769920748E-3  
 2.468000000000000E10    7.673366344533861E-4   1.535718251943763E-4  
 2.470000000000000E10    5.368262063711882E-4  -8.180114018614404E-4  
 2.472000000000000E10   -2.574418540461920E-4  -9.149943216471002E-4  
 2.474000000000000E10   -9.605810482753441E-4  -7.869901725143791E-5  
 2.476000000000000E10   -3.493056065053679E-4   1.015707654005382E-3  
 2.478000000000000E10    7.031446293694899E-4   4.718820346170105E-4  
 2.480000000000000E10    3.344128417666070E-4  -7.730550714768469E-4  
 2.482000000000000E10   -1.107143907574937E-3  -1.093583385227248E-3  
 2.484000000000000E10   -1.519775149063207E-3   1.859336898633046E-4  
 2.486000000000000E10   -1.177196581920725E-4   1.090635312721133E-3  
 2.488000000000000E10    1.286114682443440E-3  -2.886407455662265E-4  
 2.490000000000000E10    1.290394088755420E-4  -1.343279320280999E-3  
 2.492000000000000E10   -1.336279485258274E-3  -3.167028771713376E-4  
 2.494000000000000E10   -1.922826988902671E-4   1.121027307817712E-3  
 2.496000000000000E10    3.423002017370891E-4   1.010382409731392E-3  
 2.498000000000000E10    2.005462881697895E-4  -4.531227496045176E-4  
 2.500000000000000E10   -6.991762566030957E-4  -5.603212703135796E-4  
 2.502000000000000E10   -9.790378244360909E-4  -6.057713153495570E-5  
 2.504000000000000E10   -5.344635101209860E-4   1.681950543570565E-4  
 2.506000000000000E10   -1.398178574163467E-4   1.962894220923772E-4  
 2.508000000000000E10    5.251096372376196E-4  -3.125767107121646E-4  
 2.510000000000000E10   -1.193349144159583E-4  -1.941225600603502E-4  
 2.512000000000000E10   -4.750466796394903E-4   8.611387693235884E-5  
 2.514000000000000E10   -6.077930302126333E-4   1.072316670615692E-3  
 2.516000000000000E10   -4.235091591908713E-5   6.906859780428931E-4  
 2.518000000000000E10    2.655451899045147E-4   3.187204911228037E-4  
 2.520000000000000E10   -5.938911344856024E-4  -2.823391550919041E-4  
 2.522000000000000E10   -8.839064030325972E-4  -1.142702039942378E-4  
 2.524000000000000E10   -3.781194318435155E-4   1.268516552954679E-5  
 2.526000000000000E10    1.544238821225008E-4   2.211462624472915E-4  
 2.528000000000000E10    1.421050028511672E-4   3.092697934334865E-4  
 2.530000000000000E10    3.541023652360309E-4  -1.539171935291961E-4  
 2.532000000000000E10   -2.979699565912597E-4   2.036284640780650E-4  
 2.534000000000000E10   -8.846863493090496E-4   7.071877262205817E-4  
 2.536000000000000E10   -2.316565114597324E-4   1.189808965136763E-3  
 2.538000000000000E10    2.524038827687036E-4   1.346366943835164E-4  
 2.540000000000000E10   -5.060761650383938E-4  -6.271802049013786E-4  
 2.542000000000000E10   -1.073713588993996E-3  -1.289995225306484E-4  
 2.544000000000000E10   -6.452415836974978E-4   8.192617169697769E-4  
 2.546000000000000E10    5.081583803985268E-4   8.349802956217900E-4  
 2.548000000000000E10    6.448019557865337E-4   5.775154841103358E-5  
 2.550000000000000E10    1.376244335915544E-4  -1.228614063393252E-4  
 2.552000000000000E10   -1.334299871814437E-3   2.676817130122799E-4  
 2.554000000000000E10   -1.961762609425932E-4   9.534171476843767E-4  
 2.556000000000000E10    1.920443155540852E-4   7.683767107664608E-4  
 2.558000000000000E10    3.809653098869603E-4  -2.662161314219702E-4  
 2.560000000000000E10   -6.376851570166764E-5  -9.411876017111354E-4  
 2.562000000000000E10   -5.802259038318880E-4   4.287798619770911E-4  
 2.564000000000000E10    1.531857124064118E-4   1.162060070782900E-3  
 2.566000000000000E10    1.183913889690302E-3   5.908081257075537E-4  
 2.568000000000000E10    9.520745006739162E-4  -3.863932106469292E-4  
 2.570000000000000E10   -9.572104681865312E-4  -2.376098636887036E-4  
 2.572000000000000E10   -6.579227265319787E-4   1.245020801434293E-3  
 2.574000000000000E10    1.679409997450421E-4   1.214868592796847E-3  
 2.576000000000000E10    8.598895583418198E-4  -2.629917662488879E-4  
 2.578000000000000E10    2.348234102100832E-4  -3.808661313087214E-4  
 2.580000000000000E10   -3.033988905372098E-4  -4.376288707135245E-4  
 2.582000000000000E10   -2.329046578779526E-4   4.053946177009493E-4  
 2.584000000000000E10    3.420964440010721E-4   7.817984442226589E-4  
 2.586000000000000E10    1.053105559549294E-3  -1.917826663344613E-5  
 2.588000000000000E10    1.193386868862945E-4  -5.333988665370271E-4  
 2.590000000000000E10   -3.328445200168062E-4  -1.223883373313583E-4  
 2.592000000000000E10   -3.912730189767899E-4   1.125054855947383E-3  
 2.594000000000000E10    8.329859119839966E-4   4.441054734343197E-4  
 2.596000000000000E10    1.162579996162094E-3  -3.994595972471871E-4  
 2.598000000000000E10   -1.382784903398715E-4  -1.024392717226874E-3  
 2.600000000000000E10   -8.344433081219904E-4   1.280694307297381E-4  
 2.602000000000000E10    2.503917949070456E-4   9.105488134082407E-4  
 2.604000000000000E10    9.557726443745196E-4   2.248362752652611E-4  
 2.606000000000000E10    4.792367253685370E-4  -4.133878501306754E-4  
 2.608000000000000E10   -1.536038944323082E-4  -5.061823030700907E-4  
 2.610000000000000E10   -3.530779576976784E-5   2.741677581070690E-4  
 2.612000000000000E10   -2.732404482230777E-4   3.748237177205738E-4  
 2.614000000000000E10    5.404071343946271E-4   7.725991963525303E-4  
 2.616000000000000E10    7.412229242618196E-4  -3.301809811091516E-4  
 2.618000000000000E10   -4.522757772065233E-4  -7.212355994852260E-4  
 2.620000000000000E10   -7.584976629004814E-4   2.749066443357151E-4  
 2.622000000000000E10   -1.178779766632943E-4   5.666819088219199E-4  
 2.624000000000000E10    9.552887131576426E-4   1.880341133073671E-4  
 2.626000000000000E10    1.910204282467021E-4  -8.600262881373055E-4  
 2.628000000000000E10   -3.621383075369522E-4  -3.623423872340936E-4  
 2.630000000000000E10   -4.209050348435994E-4   4.555429841275327E-4  
 2.632000000000000E10    3.624502460297663E-4   6.115211072028615E-4  
 2.634000000000000E10    2.467918711772654E-4   1.900001816466101E-4  
 2.636000000000000E10    1.528971024526982E-4  -1.515525200375123E-4  
 2.638000000000000E10   -3.124120221400517E-4  -4.383326049719472E-4  
 2.640000000000000E10   -7.584119230159558E-4  -1.726853352010949E-4  
 2.642000000000000E10   -6.027265567354334E-5   4.930258437525481E-4  
 2.644000000000000E10    6.195217138156295E-4   6.382287247106433E-4  
 2.646000000000000E10    7.254176598507911E-4  -7.783886758261360E-4  
 2.648000000000000E10   -4.535087646218017E-4  -7.253302101162262E-4  
 2.650000000000000E10   -6.602912762900814E-4   7.739658831269480E-4  
 2.652000000000000E10    4.739834184874781E-4   8.788013074081391E-4  
 2.654000000000000E10    1.255340626812540E-3  -1.473179490858456E-4  
 2.656000000000000E10   -3.387398755876347E-4  -5.756490972999018E-4  
 2.658000000000000E10   -6.904720139573328E-4  -2.437876064504962E-4  
 2.660000000000000E10   -1.838608720845514E-4   5.424365117505658E-4  
 2.662000000000000E10    1.473256759254582E-4   4.715102829777607E-5  
 2.664000000000000E10    6.664451138931327E-4  -2.074977646771004E-4  
 2.666000000000000E10    4.019658845209051E-4  -5.239016609266400E-4  
 2.668000000000000E10   -5.520643389900215E-4  -4.985105169907911E-4  
 2.670000000000000E10   -5.283132704789750E-4   6.369219445332419E-4  
 2.672000000000000E10    5.799223326903302E-4   6.269499644986354E-4  
 2.674000000000000E10    6.167390456539579E-4  -5.144421129443799E-5  
 2.676000000000000E10    7.296544936252758E-5  -1.249608365469612E-3  
 2.678000000000000E10   -1.152263692347333E-3  -2.943361105280928E-4  
 2.680000000000000E10    1.551205969008151E-5   9.144894575001672E-4  
 2.682000000000000E10    9.722722898004577E-4   1.893089338409482E-4  
 2.684000000000000E10    7.112412422429770E-4  -8.648410876048729E-4  
 2.686000000000000E10   -3.937988367397338E-4  -5.511368835868780E-4  
 2.688000000000000E10   -4.428413667483255E-4   5.433067199192010E-4  
 2.690000000000000E10    2.813121463987045E-4   4.486058169277385E-4  
 2.692000000000000E10    3.497973593766801E-4   2.649534208103432E-4  
 2.694000000000000E10    1.019531327983714E-5  -4.549989935185295E-4  
 2.696000000000000E10    5.991391222437414E-5  -4.057858859596308E-4  
 2.698000000000000E10   -3.886054219037760E-4  -2.665272577360156E-4  
 2.700000000000000E10   -4.448138606676366E-4   4.926842702843715E-4  
 2.702000000000000E10    8.430189336650074E-4   4.158928277320229E-4  
 2.704000000000000E10    8.839158908813261E-4  -3.386024000064936E-4  
 2.706000000000000E10   -2.598425180622144E-4  -4.617551676346920E-4  
 2.708000000000000E10   -8.396300472668372E-4   3.630826649896335E-4  
 2.710000000000000E10    3.853329435514752E-4   1.048075559083372E-3  
 2.712000000000000E10    3.083345291088335E-4  -1.536015024612425E-4  
 2.714000000000000E10    1.928039628182887E-4  -5.418662549345754E-4  
 2.716000000000000E10   -8.082667336566374E-4  -2.776167602860369E-4  
 2.718000000000000E10   -4.159660747973248E-4   8.253548639913788E-5  
 2.720000000000000E10    1.994173544517253E-4   1.174591452581808E-4  
 2.722000000000000E10    4.041108550154604E-4   2.032627448897983E-4  
 2.724000000000000E10    7.080406940076500E-4  -3.440325162955560E-4  
 2.726000000000000E10   -1.088192875613459E-4  -2.840615197783336E-4  
 2.728000000000000E10   -7.520562430727296E-4   1.174416756839491E-4  
 2.730000000000000E10   -4.628232964023482E-4   7.248813853948377E-4  
 2.732000000000000E10    1.045590266585350E-3   3.822743128694128E-4  
 2.734000000000000E10    1.241133168150554E-5  -1.081430891645141E-3  
 2.736000000000000E10   -4.233455620124005E-4  -7.403181080007926E-4  
 2.738000000000000E10   -9.514522753306665E-4   4.583767586154863E-4  
 2.740000000000000E10    8.817990237730555E-4   7.670925915590487E-4  
 2.742000000000000E10    1.227287080837414E-3  -3.226511180400848E-4  
 2.744000000000000E10    5.969579433440231E-6  -5.213199328863993E-4  
 2.746000000000000E10   -6.444754944823217E-4   2.247150007406162E-5  
 2.748000000000000E10   -3.656359913293272E-4   7.904091253294610E-4  
 2.750000000000000E10    4.104402323719114E-4   8.673183765495196E-4  
 2.752000000000000E10    4.918010017718189E-4  -1.121630446050403E-4  
 2.754000000000000E10    1.894852334771713E-4  -9.532353433314711E-4  
 2.756000000000000E10   -7.486797549063340E-4  -3.486699315544684E-4  
