#  HZ   S   RI   R     50.00 
! Rohde & Schwarz ZVA40 4Ports - Version 3.90 - 1145.1110k42 SN: 100403
! Date: 2023-10-04 06:34:39
! Measurement: S12 
! 
 2.200000000000000E10   -2.032446955126943E-4  -4.228985371810268E-4  
 2.202000000000000E10   -7.755597798677627E-4  -4.153498630330432E-4  
 2.204000000000000E10   -6.869584249216132E-4   3.663880706881173E-4  
 2.206000000000000E10    6.381995972333243E-4   3.636909677879885E-4  
 2.208000000000000E10    8.821298979455605E-5  -4.470112362469081E-4  
 2.210000000000000E10   -2.864415364456363E-6   7.187749940840149E-5  
 2.212000000000000E10    2.291461341883405E-4   5.846783133165445E-4  
 2.214000000000000E10    2.873980793083319E-4  -2.772195293800905E-4  
 2.216000000000000E10   -9.294161573052406E-4  -2.168957316825981E-4  
 2.218000000000000E10   -6.600447522941977E-5   1.039768394548446E-3  
 2.220000000000000E10    2.472373507771408E-4  -3.015411266460433E-5  
 2.222000000000000E10    8.207190157349942E-5  -9.867156222753692E-4  
 2.224000000000000E10   -5.068775753898080E-4  -1.401807494971763E-4  
 2.226000000000000E10    3.293316476629116E-4   6.864350434625521E-4  
 2.228000000000000E10    1.049502287060022E-3   2.522158820283948E-5  
 2.230000000000000E10    3.170489549120248E-5  -3.742378885362996E-4  
 2.232000000000000E10   -7.009256332821678E-4  -1.136683522418025E-6  
 2.234000000000000E10   -1.205161491952822E-4   7.518183629144914E-4  
 2.236000000000000E10   -2.041271386588051E-5   2.547150472764770E-5  
 2.238000000000000E10   -2.949929221358616E-4  -3.308381674287375E-4  
 2.240000000000000E10    4.248621934266339E-5   3.979481675742136E-6  
 2.242000000000000E10    1.395161498294328E-4  -4.717387710115872E-4  
 2.244000000000000E10   -2.268590678795590E-4  -8.113430922094267E-4  
 2.246000000000000E10   -2.020678839471657E-4   1.048942747729598E-3  
 2.248000000000000E10    1.989305137612973E-4   7.598655320180114E-4  
 2.250000000000000E10    6.012242920405697E-4  -4.387119406601414E-4  
 2.252000000000000E10   -1.196081000671256E-3  -4.309837495384272E-4  
 2.254000000000000E10   -9.433715677005239E-4   4.887297545792535E-4  
 2.256000000000000E10   -2.040397785663117E-5   2.419765696686227E-4  
 2.258000000000000E10    4.749262770928908E-4  -7.387730765913148E-4  
 2.260000000000000E10   -3.470841152193316E-4  -1.103743648855016E-3  
 2.262000000000000E10   -6.167809879116248E-4   3.346610264998162E-4  
 2.264000000000000E10   -1.522578736512514E-4   6.185033271322027E-4  
 2.266000000000000E10    4.403444781928556E-4   5.326509386804901E-5  
 2.268000000000000E10   -6.436552939703688E-5  -1.405335801791807E-4  
 2.270000000000000E10   -1.919407341119950E-4  -1.178152990632952E-5  
 2.272000000000000E10   -7.454902370227501E-4  -4.502824958763085E-4  
 2.274000000000000E10   -8.948740687628742E-4   2.470191196835003E-4  
 2.276000000000000E10   -3.384341539458546E-5   1.677272302913480E-4  
 2.278000000000000E10    5.051856278441846E-4  -1.989408519875724E-4  
 2.280000000000000E10   -2.678321143321227E-4  -1.074246094503906E-3  
 2.282000000000000E10   -7.785574853187427E-4  -3.029777253686916E-4  
 2.284000000000000E10    2.726877000895911E-4   1.117783853260335E-3  
 2.286000000000000E10    6.667910820397083E-4   1.694832358225540E-4  
 2.288000000000000E10    7.106737029971555E-6  -6.821371607657056E-4  
 2.290000000000000E10   -1.190742485050578E-3  -7.560652557003778E-5  
 2.292000000000000E10   -4.942891719110776E-4   3.848552623821888E-4  
 2.294000000000000E10    5.815800409436633E-5   2.598926685095648E-4  
 2.296000000000000E10    1.424163664029976E-4   1.046203715304728E-5  
 2.298000000000000E10    1.637357163417619E-4  -3.478369762888178E-4  
 2.300000000000000E10   -1.328382350038737E-4  -1.711532079013978E-4  
 2.302000000000000E10   -5.880858680029633E-4   6.229197776974615E-5  
 2.304000000000000E10   -1.322675288975006E-4   7.580563942610752E-4  
 2.306000000000000E10    3.058482625419856E-4   5.591915833065286E-4  
 2.308000000000000E10   -1.343393405477400E-4  -4.649278562283143E-4  
 2.310000000000000E10   -6.655449506069999E-4  -7.450646944562323E-5  
 2.312000000000000E10   -5.084909989818698E-4   7.306035804504063E-4  
 2.314000000000000E10    5.379448193707503E-4   2.589352707218495E-4  
 2.316000000000000E10    2.455603712405718E-4  -3.422150412006886E-4  
 2.318000000000000E10   -3.068002361032995E-4  -5.258815099296044E-5  
 2.320000000000000E10   -1.480711301837800E-5   3.739146741281729E-4  
 2.322000000000000E10   -4.953928055329016E-5  -1.455911629477669E-5  
 2.324000000000000E10   -2.218769213868654E-4   2.087903931169421E-4  
 2.326000000000000E10   -1.772434234226239E-4   5.040842534071999E-4  
 2.328000000000000E10    4.839168896069168E-4  -1.232943111517670E-4  
 2.330000000000000E10   -8.548331752535887E-4  -4.757180868182331E-4  
 2.332000000000000E10   -8.915801336115692E-4   5.649421927955700E-4  
 2.334000000000000E10    2.992951208398154E-4   8.051347176660784E-4  
 2.336000000000000E10    5.066679805167951E-4  -5.479959909280296E-4  
 2.338000000000000E10    8.718451471168009E-5  -7.525704531872179E-4  
 2.340000000000000E10   -5.293896956573008E-4   3.046995052500279E-4  
 2.342000000000000E10   -1.965115188795608E-4   9.307568543590605E-4  
 2.344000000000000E10    5.317722825566307E-4   2.053246213336024E-4  
 2.346000000000000E10    2.411305422356236E-4   1.027866815093148E-4  
 2.348000000000000E10    1.914976028274396E-4  -4.296892279853637E-5  
 2.350000000000000E10   -2.230533073088736E-4  -8.090289907158876E-5  
 2.352000000000000E10   -4.692521069955546E-4   3.824747909675352E-4  
 2.354000000000000E10    1.225530281772080E-4   9.531280702503864E-4  
 2.356000000000000E10    1.046737546857912E-3   1.157652179699653E-4  
 2.358000000000000E10    2.074474200526311E-4  -6.866709918540437E-4  
 2.360000000000000E10   -9.262540916097350E-4  -1.482136690356128E-5  
 2.362000000000000E10   -5.177852926863125E-4   1.457297054002993E-3  
 2.364000000000000E10    1.375747597194277E-3   6.008542204654077E-4  
 2.366000000000000E10    8.351119395229034E-4  -1.030872415867634E-3  
 2.368000000000000E10   -1.577930022904184E-3  -3.299974760011537E-4  
 2.370000000000000E10   -3.284345730207861E-4   1.244601247890387E-3  
 2.372000000000000E10    1.008503400953487E-3   9.098931732296478E-4  
 2.374000000000000E10    7.185540016507730E-4  -3.265357736381702E-4  
 2.376000000000000E10   -1.484765648456232E-4   1.104959515174642E-5  
 2.378000000000000E10   -5.611034976027440E-4   1.579719419169123E-4  
 2.380000000000000E10   -3.601032094593393E-4   1.674292143434286E-4  
 2.382000000000000E10    1.470751885790378E-5   8.688272428116761E-4  
 2.384000000000000E10    7.644469551451039E-4   1.592070071296803E-4  
 2.386000000000000E10    1.910648015837069E-4  -8.740928678889759E-4  
 2.388000000000000E10   -5.237671866780147E-4  -6.802684074500576E-4  
 2.390000000000000E10   -7.179748354246840E-4   1.007182319881395E-3  
 2.392000000000000E10    9.349434621981345E-4   1.091146383259911E-3  
 2.394000000000000E10    1.110600926040206E-3  -7.782406901242212E-4  
 2.396000000000000E10   -8.482181438012049E-4  -1.102236092265230E-3  
 2.398000000000000E10   -1.428678813681472E-3   8.253949054051191E-4  
 2.400000000000000E10    4.818053967028391E-4   1.058443544025067E-3  
 2.402000000000000E10    6.389019072230440E-4  -3.339239592605736E-4  
 2.404000000000000E10   -9.108121093959198E-5  -7.800530402164441E-4  
 2.406000000000000E10   -5.667740788339870E-4  -4.025648138394899E-5  
 2.408000000000000E10   -1.444474364689086E-4   5.585394392255694E-4  
 2.410000000000000E10    3.667562805276248E-5   4.687881555582862E-4  
 2.412000000000000E10    4.171032933300012E-4   4.154709258727962E-4  
 2.414000000000000E10    8.990389233076712E-5  -3.964346924476558E-4  
 2.416000000000000E10   -5.322845427144785E-4  -8.246260767919011E-4  
 2.418000000000000E10   -8.692564224475063E-4   2.037201052758064E-4  
 2.420000000000000E10    1.709466505417367E-4   6.871139630675316E-4  
 2.422000000000000E10    1.200471939228009E-3  -2.134054027749244E-4  
 2.424000000000000E10    2.820307090587448E-4  -7.616073380631860E-4  
 2.426000000000000E10   -4.535683219728526E-4  -1.373707796119561E-4  
 2.428000000000000E10   -2.216885968664428E-4   1.257492673175875E-3  
 2.430000000000000E10    8.066363225225359E-4   8.253964188043028E-4  
 2.432000000000000E10    3.679173578348127E-4  -2.036985761151300E-4  
 2.434000000000000E10   -8.593253951403312E-4  -1.386298141028419E-4  
 2.436000000000000E10   -3.130145896648173E-4   2.131131032001576E-5  
 2.438000000000000E10    2.577434188424377E-4  -1.779736521712039E-5  
 2.440000000000000E10    1.398870640514360E-4   1.766238838172285E-4  
 2.442000000000000E10    7.495807003579103E-4   1.446236269657675E-4  
 2.444000000000000E10    9.441616821277421E-4  -1.553220461119054E-4  
 2.446000000000000E10   -5.987746517348569E-4  -3.389035391592188E-4  
 2.448000000000000E10   -4.883023775619222E-4   7.479551713913679E-4  
 2.450000000000000E10    3.563185964594595E-4   9.839942358667031E-4  
 2.452000000000000E10    6.621175562031567E-4  -4.182677512289956E-4  
 2.454000000000000E10    4.994232949684374E-5  -9.929619918693788E-4  
 2.456000000000000E10   -7.765173104417045E-4  -2.616726560518146E-4  
 2.458000000000000E10   -1.881435418908950E-4   5.491931478900369E-4  
 2.460000000000000E10    6.372915922838729E-4   5.100217476865510E-4  
 2.462000000000000E10    6.668314345006365E-4  -1.825135746003070E-4  
 2.464000000000000E10   -9.175072091238690E-5  -2.298533472639974E-4  
 2.466000000000000E10   -4.206283374514896E-4   1.877745089586824E-4  
 2.468000000000000E10   -4.704686380136991E-4   6.871087716717739E-4  
 2.470000000000000E10    2.426529608783312E-4   5.659052185364999E-4  
 2.472000000000000E10    6.032415876688901E-4  -1.338240076620423E-4  
 2.474000000000000E10    2.009338118114101E-5  -1.512496899522375E-3  
 2.476000000000000E10   -9.309668239438906E-4  -2.137471724381612E-4  
 2.478000000000000E10   -1.390904499203316E-4   1.270810607820749E-3  
 2.480000000000000E10    1.713021367322654E-3   6.005324466968887E-4  
 2.482000000000000E10    1.190667870105244E-3  -9.993698440666776E-4  
 2.484000000000000E10   -1.304452693148051E-3  -5.452709228848107E-4  
 2.486000000000000E10   -8.102915307972580E-4   1.399805623805150E-3  
 2.488000000000000E10    2.590172143754899E-4   9.653120578150265E-4  
 2.490000000000000E10    7.016377348918468E-4  -3.420717584958766E-4  
 2.492000000000000E10    8.405001426581293E-5  -1.000279600702925E-3  
 2.494000000000000E10   -6.352757518470753E-4  -8.270273701782571E-5  
 2.496000000000000E10   -1.779042378302620E-5   1.002425542537822E-3  
 2.498000000000000E10    8.901431428967044E-4   8.307241805596277E-4  
 2.500000000000000E10    1.137593204475706E-3   5.886572938607060E-5  
 2.502000000000000E10    2.093171824526507E-4  -4.772797274199547E-4  
 2.504000000000000E10   -7.914077687019017E-4   7.473181563000253E-5  
 2.506000000000000E10   -7.219522995001171E-4   1.218344215885736E-3  
 2.508000000000000E10    7.182053850556258E-4   7.067959959385917E-4  
 2.510000000000000E10    9.113006526604295E-4  -6.212745902303141E-4  
 2.512000000000000E10   -4.206073990644654E-4  -1.413338941347320E-3  
 2.514000000000000E10   -6.660670733253937E-4   4.644764576369198E-4  
 2.516000000000000E10    5.907622435188387E-4   1.119659194955602E-3  
 2.518000000000000E10    1.436028178432025E-3  -8.651416828797665E-5  
 2.520000000000000E10    2.697033673939586E-4  -5.782330736110453E-4  
 2.522000000000000E10   -5.349396851670463E-4   2.336598745387164E-4  
 2.524000000000000E10   -1.666105217736913E-4   4.887435134151019E-4  
 2.526000000000000E10    3.220964490537881E-4   3.139373156955116E-4  
 2.528000000000000E10    3.965833948313957E-4  -3.849474924209062E-4  
 2.530000000000000E10    8.737203279451933E-4  -5.647013931593392E-4  
 2.532000000000000E10   -4.494400400290033E-5  -4.942442919855239E-4  
 2.534000000000000E10    4.325784675529576E-5   1.141364873546991E-5  
 2.536000000000000E10    6.142672209534794E-4   6.396695316652767E-4  
 2.538000000000000E10    7.729307399131358E-4   1.968761089301552E-4  
 2.540000000000000E10    4.976228992745746E-4  -6.678699573967606E-4  
 2.542000000000000E10   -1.642451779844123E-4  -2.385911830060650E-4  
 2.544000000000000E10   -2.703372010728344E-4   1.112115496653132E-4  
 2.546000000000000E10    2.311283151357202E-4  -1.431391865480691E-4  
 2.548000000000000E10    6.137030213722028E-4  -3.434422196733067E-4  
 2.550000000000000E10    9.481222468821215E-5  -6.289887842285680E-4  
 2.552000000000000E10    2.261303434352158E-4  -5.731994679081254E-4  
 2.554000000000000E10    1.234888106864673E-4   4.856830963717584E-5  
 2.556000000000000E10    1.564482754474739E-4   5.373383137339260E-4  
 2.558000000000000E10    1.112665071559604E-3  -1.250889054063009E-4  
 2.560000000000000E10    3.044489094463643E-4  -7.531370283686556E-4  
 2.562000000000000E10   -6.197619295562618E-4  -6.471219458035193E-4  
 2.564000000000000E10   -2.717487413974595E-4   1.789504831322120E-4  
 2.566000000000000E10    3.467270616965834E-4   4.573423593683401E-4  
 2.568000000000000E10    6.876652478240430E-4  -3.343717507959809E-4  
 2.570000000000000E10    2.519720510463230E-5  -8.237809961428866E-4  
 2.572000000000000E10   -3.787572914006887E-4  -2.226216820417903E-4  
 2.574000000000000E10   -3.215389515389688E-4   3.432396933931159E-4  
 2.576000000000000E10    4.209519702271791E-4   1.850288372224895E-4  
 2.578000000000000E10    5.793984419142362E-4  -3.317600148875499E-4  
 2.580000000000000E10   -1.766550390129851E-4  -9.560093167237938E-4  
 2.582000000000000E10   -8.267201483249664E-4  -8.497564408571634E-5  
 2.584000000000000E10   -3.922920204786351E-4   3.506318289510091E-4  
 2.586000000000000E10    6.374877993948758E-4   2.469213213771582E-4  
 2.588000000000000E10    5.903671735723037E-4  -6.442700141633395E-4  
 2.590000000000000E10   -2.625513170642080E-4  -1.264678168809041E-3  
 2.592000000000000E10   -1.018964652757859E-3   1.191613270066227E-4  
 2.594000000000000E10   -3.779161033889977E-6   8.337207800650504E-4  
 2.596000000000000E10    7.414599167532288E-4  -7.281139892256761E-5  
 2.598000000000000E10    2.272249312227359E-4  -6.193210174387787E-4  
 2.600000000000000E10   -5.563770973822102E-4  -6.436624207708519E-4  
 2.602000000000000E10   -8.039397216634825E-4   3.766138961509569E-4  
 2.604000000000000E10    2.343278856642428E-5   6.434776405512821E-4  
 2.606000000000000E10    4.179728657618398E-4  -4.845703606406460E-4  
 2.608000000000000E10    3.732714662874059E-5  -4.868540036113700E-4  
 2.610000000000000E10   -5.798690035589971E-4  -7.268490699061658E-4  
 2.612000000000000E10   -6.471250908361981E-4  -8.659976424496563E-5  
 2.614000000000000E10    1.211628705277690E-4   6.460416298068594E-4  
 2.616000000000000E10    7.860394216550048E-4  -2.383875480518327E-4  
 2.618000000000000E10    2.808707467920613E-4  -8.665006862429436E-4  
 2.620000000000000E10   -8.164039463736117E-4  -5.706106367142638E-4  
 2.622000000000000E10   -8.122611216094811E-4   7.773651523166336E-4  
 2.624000000000000E10    5.734874521294842E-4   8.359313687833492E-4  
 2.626000000000000E10    4.510198778007180E-4  -7.301492078113370E-4  
 2.628000000000000E10   -4.461109238036443E-4  -7.188898307504132E-4  
 2.630000000000000E10   -7.465955932275392E-4  -7.871961167893460E-5  
 2.632000000000000E10   -9.666235473559937E-5   3.533354120008880E-4  
 2.634000000000000E10    5.208837828831747E-4   1.808159952361166E-4  
 2.636000000000000E10    3.651666247606045E-4  -9.335671893495601E-5  
 2.638000000000000E10    4.260219748175587E-5  -3.198625527147669E-4  
 2.640000000000000E10   -6.943741573195439E-4  -1.826317693485180E-4  
 2.642000000000000E10   -6.712887334288098E-4   7.574344490421936E-4  
 2.644000000000000E10    5.670549508067779E-4   6.013531510689063E-4  
 2.646000000000000E10    4.246883272571722E-4  -4.434936017787550E-4  
 2.648000000000000E10   -4.522965846263105E-4  -8.614284852228593E-4  
 2.650000000000000E10   -7.999788031156641E-4  -7.071979808870310E-5  
 2.652000000000000E10    2.502488179061402E-4   6.150766166683752E-4  
 2.654000000000000E10    9.688578611530829E-4   4.664553799216265E-5  
 2.656000000000000E10    4.097266410099110E-4  -6.595497252419591E-4  
 2.658000000000000E10   -2.771335311990697E-4  -1.223254766955506E-4  
 2.660000000000000E10   -3.407565200177487E-4   3.986310657637660E-4  
 2.662000000000000E10   -1.947991222550627E-6   6.934189696039539E-5  
 2.664000000000000E10    6.030188046679541E-6   5.457275401568040E-4  
 2.666000000000000E10    4.002031564596109E-4  -4.313190656830557E-4  
 2.668000000000000E10    8.052745670283912E-5  -1.126113966165576E-3  
 2.670000000000000E10   -9.714103580336087E-4  -4.108270422875648E-5  
 2.672000000000000E10    1.752252046571812E-5   1.019824077957310E-3  
 2.674000000000000E10    1.385320065310225E-3   4.332009229983669E-4  
 2.676000000000000E10    2.300523592566606E-4  -8.855189007590525E-4  
 2.678000000000000E10   -1.047769357683137E-3  -4.020772939838935E-4  
 2.680000000000000E10   -4.539165420283098E-4   7.449198819813319E-4  
 2.682000000000000E10    2.643846110004233E-4   6.351864867610857E-4  
 2.684000000000000E10    4.752161730721127E-4  -2.174301389459288E-4  
 2.686000000000000E10   -1.765381784935016E-4  -7.963793905219063E-4  
 2.688000000000000E10   -3.693678190757055E-4  -1.852006698754849E-4  
 2.690000000000000E10   -3.412911610212177E-5   3.779242688324302E-4  
 2.692000000000000E10    9.349270499114937E-5   5.384370015235618E-4  
 2.694000000000000E10    8.410269219893962E-4  -2.337478840672702E-4  
 2.696000000000000E10    3.073845109611284E-4  -4.721698096545879E-4  
 2.698000000000000E10   -8.608655989519320E-4  -5.095027954666875E-4  
 2.700000000000000E10   -6.785516961826943E-4   5.871370558452327E-4  
 2.702000000000000E10    2.484877950337250E-4   8.014970298972912E-4  
 2.704000000000000E10    8.374297758564353E-4  -6.115262440289371E-4  
 2.706000000000000E10   -1.770715825841762E-4  -1.095043495297432E-3  
 2.708000000000000E10   -7.314586764550768E-4   1.673474234848982E-4  
 2.710000000000000E10    8.243490674431087E-5   8.697999583091587E-4  
 2.712000000000000E10    1.031942883855663E-3   2.443585599394282E-4  
 2.714000000000000E10    2.430428050956834E-4  -4.674554584198631E-4  
 2.716000000000000E10   -4.681747559516225E-4  -3.392387516214512E-4  
 2.718000000000000E10   -4.995956696802750E-4   2.734496883931570E-4  
 2.720000000000000E10   -2.422308971290477E-4   5.271397021715529E-4  
 2.722000000000000E10    7.111081285984255E-4  -1.620629846001975E-4  
 2.724000000000000E10    4.595989375957288E-4  -3.508992122078780E-4  
 2.726000000000000E10    1.531682009954238E-4  -4.786475728906225E-4  
 2.728000000000000E10   -2.655297357705422E-4  -1.280224259971874E-4  
 2.730000000000000E10   -1.618827309357585E-4   7.916414469946176E-4  
 2.732000000000000E10    7.609280801261775E-4   3.575249211280607E-4  
 2.734000000000000E10    4.601463879225776E-4  -5.524366824829485E-4  
 2.736000000000000E10   -4.969873116351664E-4  -5.562982514675241E-4  
 2.738000000000000E10   -9.040597578859888E-4   3.540005818649661E-4  
 2.740000000000000E10    5.264502615318634E-4   4.909133713226765E-4  
 2.742000000000000E10    7.587597865494900E-4  -2.000597942242166E-4  
 2.744000000000000E10    8.029697073652642E-5  -7.087762496666983E-4  
 2.746000000000000E10   -1.825690319492423E-4  -4.076207260368392E-4  
 2.748000000000000E10   -4.915844474453479E-4   2.537393766033347E-5  
 2.750000000000000E10    2.311301341251237E-4   5.668283447448630E-4  
 2.752000000000000E10    5.216982863203157E-4  -1.472855728934519E-5  
 2.754000000000000E10    1.852861996667343E-4  -5.808020869153552E-4  
 2.756000000000000E10   -5.217039724811912E-4  -8.905727954697795E-4  
