#  HZ   S   RI   R     50.00 
! Rohde & Schwarz ZVA40 4Ports - Version 3.90 - 1145.1110k42 SN: 100403
! Date: 2023-10-04 06:34:12
! Measurement: S12 
! 
 2.200000000000000E10   -1.947451530597277E-4  -6.691788157695555E-4  
 2.202000000000000E10   -7.504524355681497E-4   1.776247352154314E-4  
 2.204000000000000E10    1.987331004329462E-4   6.880857099531568E-4  
 2.206000000000000E10    5.170337352637944E-4  -7.619721159244364E-4  
 2.208000000000000E10   -1.103820701402469E-4  -7.762687168906268E-4  
 2.210000000000000E10   -2.573469330400258E-4   4.522874342001160E-4  
 2.212000000000000E10    5.441308160243352E-4  -8.914485542277362E-5  
 2.214000000000000E10   -7.964255746628624E-5  -1.036060818364604E-4  
 2.216000000000000E10   -1.921747259245876E-4   3.268298601142305E-4  
 2.218000000000000E10    1.622652251853651E-4   4.282586230601737E-4  
 2.220000000000000E10    2.095384591029870E-4  -2.595463995760383E-4  
 2.222000000000000E10   -6.279903166159784E-4  -4.367078022369242E-4  
 2.224000000000000E10   -2.876320827454038E-4   2.203557262419054E-4  
 2.226000000000000E10    2.248149719434878E-4   3.258882494492355E-4  
 2.228000000000000E10    4.713006246674922E-4  -6.596066791644262E-4  
 2.230000000000000E10   -1.449502847066242E-4  -2.527195752008993E-4  
 2.232000000000000E10   -6.209497141753673E-4   9.321569632447790E-4  
 2.234000000000000E10    1.656934757647832E-4   1.791270058220107E-4  
 2.236000000000000E10    3.973115562985186E-4  -2.415449768591316E-4  
 2.238000000000000E10   -9.031567983583955E-4  -1.416158498841469E-4  
 2.240000000000000E10   -3.653765050586344E-4   1.730541021061072E-5  
 2.242000000000000E10    3.259448332073589E-4  -3.827173648005555E-4  
 2.244000000000000E10   -4.377804108912642E-4  -1.882800991097611E-4  
 2.246000000000000E10    3.541586750088754E-4   1.567481947404303E-4  
 2.248000000000000E10    5.687753041456745E-4   1.175406528659551E-4  
 2.250000000000000E10   -1.494815973250852E-4  -4.446958662356337E-4  
 2.252000000000000E10   -9.689768862699566E-4   6.149022115096159E-4  
 2.254000000000000E10   -2.618983244246920E-4   8.725727834644204E-4  
 2.256000000000000E10    3.122117907423672E-4   1.271272213898556E-5  
 2.258000000000000E10   -2.233811250107465E-4  -2.301105419206806E-4  
 2.260000000000000E10   -4.850229529438366E-4  -2.379771789264851E-4  
 2.262000000000000E10   -3.830153602848441E-4   5.276294743907783E-4  
 2.264000000000000E10    6.258356017951883E-5   1.662845102714528E-4  
 2.266000000000000E10    2.876434019185581E-4   3.555171977325244E-4  
 2.268000000000000E10   -1.262268141886125E-4  -1.642578203586709E-5  
 2.270000000000000E10   -4.752825891500834E-4   1.155910614443201E-4  
 2.272000000000000E10   -4.752797653964080E-4   1.486908396941544E-4  
 2.274000000000000E10   -4.976730708676769E-4   6.300913928498630E-4  
 2.276000000000000E10    3.982575179009018E-4   4.731670725277581E-4  
 2.278000000000000E10   -8.110768675351210E-6  -5.674336057381879E-4  
 2.280000000000000E10   -8.514191895301337E-4  -3.092211379680521E-4  
 2.282000000000000E10   -1.317974416451762E-3  -1.535845694888849E-4  
 2.284000000000000E10    7.514994322264101E-4   8.727081817596627E-4  
 2.286000000000000E10    5.634852059301920E-4  -7.767888291709824E-6  
 2.288000000000000E10   -6.066014129828545E-4  -7.143764819375065E-4  
 2.290000000000000E10   -4.292356934456620E-4   5.287568369567453E-4  
 2.292000000000000E10   -2.298459248208928E-4   7.384789241768885E-4  
 2.294000000000000E10    4.576231754072069E-4  -1.113528686573773E-4  
 2.296000000000000E10    2.782973826924717E-4   2.224053514510160E-4  
 2.298000000000000E10   -1.913533580761850E-4  -3.428493077990424E-4  
 2.300000000000000E10   -5.886932797238842E-4  -4.009635610771056E-4  
 2.302000000000000E10   -4.430689402852295E-4   9.081047573999967E-4  
 2.304000000000000E10    4.539433159607142E-4   4.851219148349628E-4  
 2.306000000000000E10    6.719308480569453E-4  -5.524890671040339E-4  
 2.308000000000000E10   -3.416815470700385E-4  -5.812539320686483E-4  
 2.310000000000000E10   -9.503171718279191E-4   4.927235875129554E-4  
 2.312000000000000E10    4.014315591120976E-4   1.120805070513598E-3  
 2.314000000000000E10    1.153627790699829E-3   2.037502370058064E-4  
 2.316000000000000E10   -3.294494895271782E-4  -5.550652258534683E-4  
 2.318000000000000E10   -1.141388446740166E-3   2.284667066305701E-4  
 2.320000000000000E10   -4.889557487786078E-6   1.276160835459450E-3  
 2.322000000000000E10    5.593917335318110E-4   9.391424606519649E-5  
 2.324000000000000E10    1.594164441485191E-4  -7.753641926910859E-5  
 2.326000000000000E10   -3.250667316478939E-5  -6.877539246374909E-5  
 2.328000000000000E10   -3.776829811386051E-4  -2.331921380118729E-4  
 2.330000000000000E10   -1.424370966560673E-4   4.732681345558376E-4  
 2.332000000000000E10    1.851927646612239E-5   1.236691664416867E-3  
 2.334000000000000E10    6.685983621537162E-4  -2.093375815661602E-4  
 2.336000000000000E10   -4.512656871611398E-4  -7.198094376690278E-4  
 2.338000000000000E10   -1.294553410843946E-3   7.965883057625689E-5  
 2.340000000000000E10    1.285655984020195E-4   9.255776258214610E-4  
 2.342000000000000E10    7.840921762181097E-4   1.464457920015150E-4  
 2.344000000000000E10    1.820318469754056E-4  -1.058319546245912E-3  
 2.346000000000000E10   -2.180938687956768E-4  -1.747471722950422E-4  
 2.348000000000000E10   -7.839017189326114E-5   9.210779812747205E-4  
 2.350000000000000E10    7.965833319758531E-4   5.835136560108367E-4  
 2.352000000000000E10    1.482063077276052E-4   1.400350489859648E-4  
 2.354000000000000E10   -4.646701568162825E-4  -3.856971378013441E-5  
 2.356000000000000E10    2.691771392164810E-4   3.191082323610317E-4  
 2.358000000000000E10    1.651401498747873E-5   8.966062523541041E-7  
 2.360000000000000E10   -7.114506643119967E-4   1.295450857980995E-4  
 2.362000000000000E10    6.541489701703540E-4   4.219603333694977E-4  
 2.364000000000000E10    1.003747674076294E-3  -4.093841373560281E-4  
 2.366000000000000E10   -5.628850485663861E-4  -7.160329014368472E-4  
 2.368000000000000E10   -6.826074086347944E-4   4.521865475908271E-4  
 2.370000000000000E10    5.853269512954284E-4   1.035012119245948E-3  
 2.372000000000000E10    7.547608156528440E-4  -6.176219621920609E-4  
 2.374000000000000E10   -1.346322249418108E-4  -4.854347071159282E-4  
 2.376000000000000E10   -3.223258122488915E-4   1.353358494498025E-4  
 2.378000000000000E10   -1.371671164349664E-4   2.101935082237105E-4  
 2.380000000000000E10    2.245199750436910E-4  -7.038777891921200E-5  
 2.382000000000000E10    2.629094653912034E-4  -1.564457813856279E-4  
 2.384000000000000E10    5.061440378995030E-4  -1.689884766165051E-4  
 2.386000000000000E10   -1.169037318291544E-4  -5.381405389925931E-4  
 2.388000000000000E10   -8.258385259978240E-4   3.542179924806987E-4  
 2.390000000000000E10    1.183888969080726E-5   9.700814107418410E-4  
 2.392000000000000E10    8.509562239851221E-4   4.644829273274809E-4  
 2.394000000000000E10    2.238994659364835E-4  -1.078119892554241E-3  
 2.396000000000000E10   -1.797196997358697E-3  -3.180528010489070E-4  
 2.398000000000000E10   -8.536213099432644E-4   1.519498067864333E-3  
 2.400000000000000E10    1.429999649189995E-3   5.460091101667786E-4  
 2.402000000000000E10    2.736908040787967E-4  -1.055686990184768E-3  
 2.404000000000000E10   -8.555304257242824E-4  -3.054332278225047E-4  
 2.406000000000000E10    2.920379024828890E-6   8.787215392658254E-4  
 2.408000000000000E10    4.911150390398689E-4   5.971738155494677E-4  
 2.410000000000000E10    6.368800704876776E-4   3.614491394046127E-4  
 2.412000000000000E10    1.022479782619712E-4  -2.685815672975878E-4  
 2.414000000000000E10   -7.223574430099689E-4  -1.848589909059228E-4  
 2.416000000000000E10   -8.563414403397474E-4   3.822919261438074E-4  
 2.418000000000000E10   -1.072642566555260E-4   8.007743736015982E-4  
 2.420000000000000E10    7.733358816039981E-4   6.433203077449434E-5  
 2.422000000000000E10    5.666371762345079E-4  -1.043827505782247E-3  
 2.424000000000000E10   -7.038827561700600E-4  -3.135851138722501E-4  
 2.426000000000000E10   -4.463640934773139E-4   1.141832256507769E-3  
 2.428000000000000E10    1.391373401929741E-3   1.367798955470789E-3  
 2.430000000000000E10    1.148781775555108E-3  -3.291319349045807E-4  
 2.432000000000000E10   -3.885263349729939E-4  -9.622216985007981E-4  
 2.434000000000000E10   -1.078497873095330E-3   3.838322254523519E-4  
 2.436000000000000E10    2.238768816198444E-4   1.001677416752500E-3  
 2.438000000000000E10    1.110575733036967E-3  -1.972601980924083E-4  
 2.440000000000000E10    5.727097354792932E-4  -7.641495049028890E-4  
 2.442000000000000E10   -6.635150577949389E-5  -4.563524673812935E-4  
 2.444000000000000E10    4.226319185818284E-5   4.437336699538719E-4  
 2.446000000000000E10    2.207018010267348E-4   7.112592502380721E-4  
 2.448000000000000E10    6.882879506520112E-4   4.839318521590030E-4  
 2.450000000000000E10    4.393300819174328E-4  -6.843322953500319E-4  
 2.452000000000000E10   -6.990622205194086E-4  -7.357175863944576E-4  
 2.454000000000000E10   -7.599608552482096E-4   1.816099445477448E-4  
 2.456000000000000E10    2.418292006041156E-4   7.465454700650298E-4  
 2.458000000000000E10    1.353989497147268E-3  -1.489937146743614E-4  
 2.460000000000000E10    2.988530709444603E-4  -1.123416523114429E-3  
 2.462000000000000E10   -4.490865508159914E-4  -8.475740995095293E-5  
 2.464000000000000E10   -3.580725156666631E-4   9.459517223149305E-4  
 2.466000000000000E10    1.075286004379450E-3   5.968041527921741E-4  
 2.468000000000000E10    7.340542060774169E-5  -2.516396689316025E-4  
 2.470000000000000E10   -3.713615033120732E-4  -3.443776172389335E-4  
 2.472000000000000E10   -2.757198606104794E-4   1.649168361836928E-4  
 2.474000000000000E10    4.065669315878040E-6   1.011147269309731E-4  
 2.476000000000000E10    1.494035712426012E-4  -7.308173337605695E-5  
 2.478000000000000E10    6.384458201864618E-4   2.600472498670570E-4  
 2.480000000000000E10    4.845868106713169E-4  -3.064681291107263E-4  
 2.482000000000000E10   -4.945971809320326E-4  -1.723521513667947E-4  
 2.484000000000000E10   -2.265842945234908E-4   6.656222421952407E-4  
 2.486000000000000E10   -4.861365903252590E-5   6.026281434969860E-4  
 2.488000000000000E10    8.337576964549953E-4  -3.625799331530288E-4  
 2.490000000000000E10   -2.867136468296394E-4  -6.196670342433208E-4  
 2.492000000000000E10   -3.967983093389194E-4  -1.898402322240145E-4  
 2.494000000000000E10    2.585383417681442E-4   1.242434136656812E-4  
 2.496000000000000E10    7.272171815202455E-4   5.895539161429042E-4  
 2.498000000000000E10    4.890061654805322E-4   1.717976260806609E-5  
 2.500000000000000E10    6.670144439340220E-4  -1.381000197397952E-4  
 2.502000000000000E10   -4.400840180096566E-4  -6.394038301493765E-5  
 2.504000000000000E10   -9.765333964395495E-5   3.645828546723351E-4  
 2.506000000000000E10    3.253492850490147E-4   7.814353575668065E-4  
 2.508000000000000E10    1.073620540410047E-3  -2.702629113571220E-4  
 2.510000000000000E10    2.577661681471000E-4  -1.061435217707185E-3  
 2.512000000000000E10   -9.291545193264028E-4  -4.971530847797112E-5  
 2.514000000000000E10    2.501707436977085E-4   1.277776513234130E-3  
 2.516000000000000E10    1.298609116929583E-3   6.148793272586772E-4  
 2.518000000000000E10    8.935884952734341E-4  -7.456985122189508E-4  
 2.520000000000000E10   -8.520366491211462E-4  -7.605208083987236E-4  
 2.522000000000000E10   -6.696176169498358E-4   7.434362983076426E-4  
 2.524000000000000E10    3.472449257060362E-4   7.079571305439458E-4  
 2.526000000000000E10    1.130346909121727E-3  -1.221582383550413E-4  
 2.528000000000000E10    3.664087482775358E-4  -8.023746122489683E-4  
 2.530000000000000E10   -5.323909022081352E-4  -4.660981580855150E-4  
 2.532000000000000E10   -3.006039260071702E-4   4.785551345776185E-4  
 2.534000000000000E10    7.377988995358464E-4   1.175918201624882E-3  
 2.536000000000000E10    1.148916357124108E-3  -5.679969071934465E-4  
 2.538000000000000E10    1.468334744458844E-5  -1.047276371537009E-3  
 2.540000000000000E10   -8.488725907227490E-4   9.319043527966642E-6  
 2.542000000000000E10   -2.983694041631679E-4   6.223448353921413E-4  
 2.544000000000000E10    1.322116755545721E-3   4.284001843188889E-4  
 2.546000000000000E10    8.878741664375411E-4  -1.087674679183692E-3  
 2.548000000000000E10   -5.352166672309977E-4  -9.523779472146998E-4  
 2.550000000000000E10   -2.972864353978366E-4   2.591032402960991E-4  
 2.552000000000000E10    1.147608252267673E-4   1.059810091646796E-3  
 2.554000000000000E10    1.150704997598950E-3  -5.176543677407608E-4  
 2.556000000000000E10    2.696786589240219E-5  -5.122734551150643E-4  
 2.558000000000000E10   -7.727972242719261E-4  -4.474623565329239E-4  
 2.560000000000000E10   -2.383976652708952E-4  -1.273027911565805E-4  
 2.562000000000000E10    3.915649044756719E-4   3.292278083790734E-4  
 2.564000000000000E10    4.801101149496390E-4  -5.137955649843207E-4  
 2.566000000000000E10    2.864719881472411E-4  -9.454586270294385E-4  
 2.568000000000000E10   -4.974113644493627E-4  -3.037891457076114E-4  
 2.570000000000000E10   -2.262326182673746E-4   2.248248618172966E-4  
 2.572000000000000E10    7.804019310242438E-4   2.963545255170175E-4  
 2.574000000000000E10    2.282466957694851E-4  -1.953437439965455E-4  
 2.576000000000000E10   -1.278307763641351E-4  -7.578507193102269E-4  
 2.578000000000000E10   -5.182040117688302E-4  -1.078636022668889E-4  
 2.580000000000000E10   -4.771772055391921E-4   2.797747473408663E-4  
 2.582000000000000E10    3.035549061678466E-4  -6.228495897175890E-5  
 2.584000000000000E10    2.494955767815554E-4  -2.935370866907761E-5  
 2.586000000000000E10   -9.992749494358577E-5  -7.267378491633281E-4  
 2.588000000000000E10   -4.252440917298372E-4   2.485816321495804E-5  
 2.590000000000000E10   -4.012414792669006E-4   6.080715320422314E-5  
 2.592000000000000E10    1.097574926660627E-4   4.635202612917055E-4  
 2.594000000000000E10    2.619826099135025E-4  -1.670465936740584E-4  
 2.596000000000000E10   -1.627760340632278E-4  -8.935224514061702E-4  
 2.598000000000000E10   -7.129674258976593E-4   1.886089542324498E-6  
 2.600000000000000E10   -4.387359913380351E-4   5.645283954436309E-4  
 2.602000000000000E10    6.109260079938395E-4   1.775842608822131E-4  
 2.604000000000000E10    5.229091329965740E-4  -5.001078975510609E-4  
 2.606000000000000E10   -4.065829266437504E-4  -4.486618774421913E-4  
 2.608000000000000E10   -4.974138651050453E-4   1.710282381282013E-4  
 2.610000000000000E10   -2.502470442777849E-5   7.111528711902793E-4  
 2.612000000000000E10    8.316864796142909E-5   3.180882117703732E-4  
 2.614000000000000E10    1.832839898270322E-4  -4.649660068025696E-4  
 2.616000000000000E10   -5.018509500587243E-5  -3.303101775600226E-4  
 2.618000000000000E10   -9.344351528852712E-4  -1.147980757423284E-4  
 2.620000000000000E10   -1.309076874917992E-4   7.899914635345340E-4  
 2.622000000000000E10    7.365400560956914E-4   4.126934993564646E-4  
 2.624000000000000E10    4.853795730923594E-4  -7.230235223687487E-4  
 2.626000000000000E10   -5.304280666678096E-4  -7.289161421795143E-4  
 2.628000000000000E10   -1.055799058121920E-3   7.251059905684087E-4  
 2.630000000000000E10    5.694991859854781E-4   7.490007155865897E-4  
 2.632000000000000E10    8.706620492375805E-4  -1.964578132174211E-5  
 2.634000000000000E10    4.352419176711919E-5  -7.087226240400923E-4  
 2.636000000000000E10   -8.600702594776521E-4  -2.043426375166746E-4  
 2.638000000000000E10    1.261723025436368E-4   7.268410245160339E-4  
 2.640000000000000E10    8.100786271825200E-5   1.414936202763784E-4  
 2.642000000000000E10    4.940155522490386E-4   1.521569768101472E-4  
 2.644000000000000E10    3.827830460068071E-4  -4.406410635056091E-4  
 2.646000000000000E10   -6.133246379249613E-4  -2.059090356851812E-4  
 2.648000000000000E10   -3.891578910497628E-4   2.588144493529399E-4  
 2.650000000000000E10    5.046663777648064E-4   1.199750934574695E-3  
 2.652000000000000E10    8.892122068573372E-4  -4.428801998983545E-4  
 2.654000000000000E10    1.318489416917146E-4  -8.767278177401749E-4  
 2.656000000000000E10   -9.267074474337278E-4   1.153578713228853E-4  
 2.658000000000000E10   -3.251377058859362E-4   9.498096605966566E-4  
 2.660000000000000E10    8.625854052297655E-4   3.779949943236716E-4  
 2.662000000000000E10    2.887279738388315E-4  -7.498896638935548E-4  
 2.664000000000000E10   -6.292545012911432E-4  -5.384078976931050E-4  
 2.666000000000000E10   -1.736896751651784E-4   2.649079137881927E-4  
 2.668000000000000E10    2.576866909720366E-4   3.222159775759792E-4  
 2.670000000000000E10    2.412992721474438E-4  -8.029553771393694E-5  
 2.672000000000000E10    4.616014985003858E-4   2.114034411988541E-4  
 2.674000000000000E10   -9.088550223168568E-5  -7.259961103045498E-4  
 2.676000000000000E10   -7.353825749305543E-4  -8.044242014193515E-5  
 2.678000000000000E10   -4.208191876386991E-4   5.625940102618188E-4  
 2.680000000000000E10    8.351843262062175E-4   2.604138840069936E-4  
 2.682000000000000E10    5.901153326703934E-4  -7.527167063017259E-4  
 2.684000000000000E10   -3.635032217061962E-4  -7.886806643000455E-4  
 2.686000000000000E10   -6.063893724785885E-4   8.018888802325819E-4  
 2.688000000000000E10    5.417891470642644E-4   9.404050324519631E-4  
 2.690000000000000E10    1.027162864374986E-3  -9.302881951356312E-5  
 2.692000000000000E10    1.619420652332337E-5  -3.720413483279117E-4  
 2.694000000000000E10   -7.555895999757922E-4  -1.551685215872567E-6  
 2.696000000000000E10   -3.515809203236131E-4   4.465906222321792E-4  
 2.698000000000000E10   -1.368666985612776E-5   4.267424460522307E-4  
 2.700000000000000E10    2.686537409317680E-4   4.986201429346693E-5  
 2.702000000000000E10    3.509362077238620E-4  -7.407779548884719E-4  
 2.704000000000000E10   -4.910116354039928E-4  -3.799142236857733E-4  
 2.706000000000000E10   -5.181481224099116E-4   5.243453692855837E-4  
 2.708000000000000E10    3.802396263381525E-4   1.074922663974576E-3  
 2.710000000000000E10    1.209337780892383E-3   9.474263583797438E-5  
 2.712000000000000E10   -2.975305401378137E-4  -1.135010645157308E-3  
 2.714000000000000E10   -9.522878726784256E-4   1.099953387324604E-4  
 2.716000000000000E10   -6.406400761989062E-4   9.257912197426776E-4  
 2.718000000000000E10    7.733208494755672E-4   4.940231356158620E-4  
 2.720000000000000E10    8.161522227965179E-4  -8.410673626713106E-4  
 2.722000000000000E10   -7.754541002213955E-4  -6.400053989636945E-4  
 2.724000000000000E10   -2.958484351438528E-4   3.890865343691985E-6  
 2.726000000000000E10    1.403772401431525E-4   1.046020557623706E-3  
 2.728000000000000E10    8.641215499665123E-4   4.470897579267330E-4  
 2.730000000000000E10    4.108066227672680E-4  -8.964909739006544E-4  
 2.732000000000000E10   -2.826884219757631E-4  -1.872854124940204E-4  
 2.734000000000000E10   -1.095407427783357E-3  -1.706842743374182E-4  
 2.736000000000000E10    2.547279414102377E-4   9.386084984726040E-4  
 2.738000000000000E10    9.094541246668086E-4   1.855019327194896E-4  
 2.740000000000000E10    3.968872383666167E-4  -1.160635174528579E-3  
 2.742000000000000E10   -4.955343206347607E-4  -6.049213316146052E-4  
 2.744000000000000E10   -5.922127588746662E-4   8.033159328988404E-4  
 2.746000000000000E10    6.127222113718744E-4   8.141751350194681E-4  
 2.748000000000000E10    7.581856143588084E-4  -2.726861085307064E-4  
 2.750000000000000E10   -2.155396205125726E-4  -5.025272075727116E-4  
 2.752000000000000E10   -1.244598488483462E-3  -3.005483283686772E-4  
 2.754000000000000E10   -3.115199069725350E-4   8.945998697527102E-4  
 2.756000000000000E10    5.678934412571834E-4  -1.748447130012210E-5  
