#  HZ   S   RI   R     50.00 
! Rohde & Schwarz ZVA40 4Ports - Version 3.90 - 1145.1110k42 SN: 100403
! Date: 2023-09-28 10:52:56
! Measurement: S12 
! 
 2.000000000000000E10    6.828967956965002E-5  -4.155040543963996E-5  
 2.000200000000000E10    6.280718085636231E-5  -1.258696225139662E-4  
 2.000400000000000E10   -1.067225402365358E-4  -1.779624290561150E-4  
 2.000600000000000E10   -6.864161593865004E-5  -2.339053312643245E-4  
 2.000800000000000E10   -9.266684789251444E-5  -2.360530168238994E-4  
 2.001000000000000E10   -1.449932827324804E-4  -1.362840776366157E-4  
 2.001200000000000E10   -1.402659916359979E-4  -7.922756187814784E-5  
 2.001400000000000E10   -5.292003486786627E-5   3.659437396450846E-5  
 2.001600000000000E10   -1.277721843603235E-4   1.089427104675780E-4  
 2.001800000000000E10   -6.146659287927260E-5   2.109178221392455E-4  
 2.002000000000000E10   -6.975178067659358E-5   2.874556623610728E-4  
 2.002200000000000E10    1.014246776088562E-4   3.360721156565739E-4  
 2.002400000000000E10    1.146168203475599E-4   3.138942375748994E-4  
 2.002600000000000E10    1.275479733092841E-4   1.599982347800148E-4  
 2.002800000000000E10    1.008557511437920E-4   6.689445607527364E-5  
 2.003000000000000E10    1.381345465518370E-4  -2.349447228847211E-6  
 2.003200000000000E10    1.063473962177185E-4  -1.594413850838289E-4  
 2.003400000000000E10    1.664747794444865E-4  -1.637823599789514E-4  
 2.003600000000000E10    1.096579750349303E-4  -1.339542575223539E-4  
 2.003800000000000E10    1.489512682823086E-4  -1.696043721450211E-4  
 2.004000000000000E10    5.133093635241802E-5  -2.343781161015609E-4  
 2.004200000000000E10    1.181679768907530E-5  -2.530404925153741E-4  
 2.004400000000000E10   -9.566623412412119E-5  -7.344193694041081E-5  
 2.004600000000000E10   -1.044510275044930E-4   8.862477801200006E-5  
 2.004800000000000E10   -1.056704670048449E-4   1.856234674068398E-4  
 2.005000000000000E10   -2.428905908469587E-5   2.128760420079175E-4  
 2.005200000000000E10   -1.152889154121382E-4   1.204823632277431E-4  
 2.005400000000000E10    3.922752011806838E-7   8.933643499661249E-5  
 2.005600000000000E10    7.888605832367593E-5   1.125072864607867E-4  
 2.005800000000000E10    2.339246139215694E-4   9.777491511696501E-6  
 2.006000000000000E10    1.860593367924231E-4  -7.189326456873702E-5  
 2.006200000000000E10    2.171641844092438E-4  -1.821473525650532E-4  
 2.006400000000000E10    1.922134522920532E-4  -2.684084526834283E-4  
 2.006600000000000E10    1.117824531952732E-4  -3.311673057471270E-4  
 2.006800000000000E10   -5.896466138846538E-5  -2.648729163064628E-4  
 2.007000000000000E10   -4.217084550887981E-5  -1.118573726968785E-4  
 2.007200000000000E10   -1.736590354237918E-4  -5.286051962930205E-6  
 2.007400000000000E10   -1.716947355787511E-4   3.992183966834705E-6  
 2.007600000000000E10   -1.863562621449509E-4   6.503763896196719E-5  
 2.007800000000000E10   -8.021999057970469E-5   4.704944764167234E-5  
 2.008000000000000E10   -6.420986636412663E-5   2.015965270928897E-5  
 2.008200000000000E10   -5.870638271529591E-5  -1.125807530411805E-4  
 2.008400000000000E10   -1.380763056591423E-4  -1.369331104361359E-4  
 2.008600000000000E10   -1.326251116893850E-4  -1.446617511319972E-4  
 2.008800000000000E10   -2.255571508137223E-4  -1.370258260773703E-4  
 2.009000000000000E10   -1.738641724100722E-4  -4.243775687942650E-5  
 2.009200000000000E10   -2.066463812620676E-4   1.428384518872610E-4  
 2.009400000000000E10   -7.463631925637602E-5   2.002248778176907E-4  
 2.009600000000000E10    6.649833988784172E-6   1.897691511055322E-4  
 2.009800000000000E10    1.089994111278073E-4   7.312526982526332E-5  
 2.010000000000000E10   -4.845863322332665E-5   3.039535301187248E-5  
 2.010200000000000E10   -1.806472111152617E-4   8.324015354688580E-6  
 2.010400000000000E10   -2.875882322671814E-4   1.396652313014644E-4  
 2.010600000000000E10   -2.249093128993423E-4   1.875889872462794E-4  
 2.010800000000000E10   -2.413921796488909E-4   2.066482693252182E-4  
 2.011000000000000E10   -1.476419515681060E-4   2.062605924513596E-4  
 2.011200000000000E10   -9.971052608123662E-5   3.796646283352392E-4  
 2.011400000000000E10    7.018039197894509E-6   4.143200470224708E-4  
 2.011600000000000E10    1.019392182812409E-4   4.490505499607526E-4  
 2.011800000000000E10    2.976892393050673E-4   3.616619990939162E-4  
 2.012000000000000E10    4.370083426524158E-4   4.082600972570458E-4  
 2.012200000000000E10    6.035287968867826E-4   3.072322722437100E-4  
 2.012400000000000E10    6.905270992410039E-4   1.501687378785557E-4  
 2.012600000000000E10    7.092157015646075E-4  -1.133372744713541E-4  
 2.012800000000000E10    4.589487077267496E-4  -2.758844334543153E-4  
 2.013000000000000E10    3.082215614193188E-4  -4.523163882792450E-4  
 2.013200000000000E10    1.827076379953630E-4  -3.723506934238816E-4  
 2.013400000000000E10    1.506450908949021E-4  -3.646989139068283E-4  
 2.013600000000000E10    5.345979424365075E-5  -2.955873351519101E-4  
 2.013800000000000E10    3.934165679112962E-5  -3.636268628239112E-4  
 2.014000000000000E10    6.753935745121857E-5  -3.098461130998237E-4  
 2.014200000000000E10    9.814178515955271E-5  -3.882210509233081E-4  
 2.014400000000000E10    1.192548927789900E-4  -4.349752171470142E-4  
 2.014600000000000E10    1.100089147591342E-4  -5.460386567033915E-4  
 2.014800000000000E10   -1.313161931127322E-4  -5.221285840924248E-4  
 2.015000000000000E10   -3.732286011028651E-4  -5.716299123316123E-4  
 2.015200000000000E10   -5.277085030197118E-4  -4.117390183891202E-4  
 2.015400000000000E10   -6.020124489180155E-4  -2.661031829530109E-4  
 2.015600000000000E10   -6.296945645977344E-4  -5.220537543532146E-5  
 2.015800000000000E10   -6.258768445684142E-4  -2.010094210610550E-5  
 2.016000000000000E10   -5.929320356748004E-4   1.138640403796898E-4  
 2.016200000000000E10   -5.632680231197516E-4   1.671670799116883E-4  
 2.016400000000000E10   -5.294586907300457E-4   2.335558109088129E-4  
 2.016600000000000E10   -4.230653732309018E-4   2.180375880627601E-4  
 2.016800000000000E10   -3.695827720807143E-4   4.407961303675239E-4  
 2.017000000000000E10   -3.689120612944318E-4   4.356495845336114E-4  
 2.017200000000000E10   -2.858679635870937E-4   5.405949371049582E-4  
 2.017400000000000E10   -1.369713025659556E-4   5.945925042004311E-4  
 2.017600000000000E10   -1.565317085925196E-5   7.110315523556818E-4  
 2.017800000000000E10    6.649296883360162E-5   7.314532078734849E-4  
 2.018000000000000E10    2.827204109925418E-4   7.639841676993431E-4  
 2.018200000000000E10    4.885284246969517E-4   6.411069345795706E-4  
 2.018400000000000E10    5.798612741072759E-4   4.740435182019367E-4  
 2.018600000000000E10    5.739544140952196E-4   1.520922265135484E-4  
 2.018800000000000E10    5.615578162268260E-4   1.332956431045681E-4  
 2.019000000000000E10    4.598698021327676E-4   8.603589074533205E-5  
 2.019200000000000E10    4.738798749954723E-4   4.942566266458934E-5  
 2.019400000000000E10    4.634018375009638E-4  -4.210334564432200E-5  
 2.019600000000000E10    5.512096407649181E-4  -3.602938527722142E-5  
 2.019800000000000E10    5.860299468928663E-4  -1.529178350136059E-4  
 2.020000000000000E10    6.185005821090754E-4  -2.883084900570654E-4  
 2.020200000000000E10    5.536145745149801E-4  -4.606790289185032E-4  
 2.020400000000000E10    3.692294802281554E-4  -4.858654044086756E-4  
 2.020600000000000E10    1.665745799391190E-4  -6.298763018961925E-4  
 2.020800000000000E10    1.647337029727015E-4  -6.103316110400067E-4  
 2.021000000000000E10    6.474412855406988E-5  -6.553233075530856E-4  
 2.021200000000000E10   -7.069507282671071E-5  -6.390537064645530E-4  
 2.021400000000000E10   -2.232695971574029E-4  -6.698723482448347E-4  
 2.021600000000000E10   -3.294379341867785E-4  -6.112856998498937E-4  
 2.021800000000000E10   -5.548185703225701E-4  -5.734071124425857E-4  
 2.022000000000000E10   -6.563253994299740E-4  -4.143771635992468E-4  
 2.022200000000000E10   -6.915157404587644E-4  -2.513528624315525E-4  
 2.022400000000000E10   -6.254611406861315E-4   1.072984176947852E-4  
 2.022600000000000E10   -5.626343191418618E-4   2.139078883604946E-4  
 2.022800000000000E10   -3.774782440444537E-4   1.910812073078092E-4  
 2.023000000000000E10   -3.445249406983477E-4   1.490960716399275E-4  
 2.023200000000000E10   -3.180450193398524E-4   1.246264656138630E-4  
 2.023400000000000E10   -4.265392942600077E-4   2.861025991885539E-5  
 2.023600000000000E10   -4.496092848149663E-4   1.181424011242813E-4  
 2.023800000000000E10   -5.142449616315173E-4   3.153845330171897E-4  
 2.024000000000000E10   -4.343775524954715E-4   5.040854708659927E-4  
 2.024200000000000E10   -2.461137417081691E-4   5.320311342935294E-4  
 2.024400000000000E10    7.704538719321124E-5   6.052544747724208E-4  
 2.024600000000000E10    1.436645756049418E-4   4.855489778351918E-4  
 2.024800000000000E10    1.753233252647485E-4   3.251214428451602E-4  
 2.025000000000000E10    6.077140406671790E-5   2.201651504487430E-4  
 2.025200000000000E10   -6.252412157563789E-5   3.558659670726591E-4  
 2.025400000000000E10   -1.438255692689325E-4   4.869643954411144E-4  
 2.025600000000000E10    7.632201513610512E-5   5.209864222216445E-4  
 2.025800000000000E10    2.262369294321016E-4   5.272475927562934E-4  
 2.026000000000000E10    4.001565247714767E-4   5.025861021257576E-4  
 2.026200000000000E10    4.734174040330341E-4   2.494937371799100E-4  
 2.026400000000000E10    6.095619064022120E-4   1.049330010396424E-4  
 2.026600000000000E10    5.509884119239762E-4   4.901617355139420E-5  
 2.026800000000000E10    5.148643492601175E-4  -7.276426041279983E-6  
 2.027000000000000E10    4.634285528311141E-4  -7.634668489555233E-5  
 2.027200000000000E10    5.918376381369840E-4  -5.919196876806808E-5  
 2.027400000000000E10    5.029233721470674E-4  -6.530070314997625E-5  
 2.027600000000000E10    5.078072039189814E-4  -1.880780473749626E-4  
 2.027800000000000E10    4.827171709221612E-4  -2.900452910231859E-4  
 2.028000000000000E10    4.576173022058616E-4  -3.516930118076046E-4  
 2.028200000000000E10    2.064024719867055E-4  -5.311193512089675E-4  
 2.028400000000000E10    1.268984745921916E-4  -7.047700916594350E-4  
 2.028600000000000E10   -3.642874847938586E-5  -7.005088077248396E-4  
 2.028800000000000E10   -1.286247816702285E-4  -5.709221683231564E-4  
 2.029000000000000E10   -2.421278489814836E-4  -5.117419660188880E-4  
 2.029200000000000E10   -1.811847024957064E-4  -5.435756246973407E-4  
 2.029400000000000E10   -2.721231538575698E-4  -3.970919452220177E-4  
 2.029600000000000E10   -3.323927901786633E-4  -3.600943376053512E-4  
 2.029800000000000E10   -4.037784021337941E-4  -3.639371536482049E-4  
 2.030000000000000E10   -3.331546580040462E-4  -2.296073338263409E-4  
 2.030200000000000E10   -5.032075580887777E-4  -7.275693742979716E-5  
 2.030400000000000E10   -5.927090135663991E-4  -4.304156002895126E-5  
 2.030600000000000E10   -6.214262884410938E-4   7.823215648225222E-5  
 2.030800000000000E10   -4.767936022771061E-4   1.662240900664256E-4  
 2.031000000000000E10   -5.314671609733091E-4   2.517707352225189E-4  
 2.031200000000000E10   -4.687796717551855E-4   2.243704596380772E-4  
 2.031400000000000E10   -3.432641128703209E-4   3.808683584911882E-4  
 2.031600000000000E10   -2.330986240228292E-4   4.445149332739903E-4  
 2.031800000000000E10   -2.210475354963711E-4   3.944325736645051E-4  
 2.032000000000000E10   -2.320622985215164E-5   3.599783008343710E-4  
 2.032200000000000E10   -2.503949211649601E-5   4.852552085102876E-4  
 2.032400000000000E10    7.396568647952298E-5   5.430259975105451E-4  
 2.032600000000000E10    1.641034027714540E-4   4.561719220135289E-4  
 2.032800000000000E10    2.865127133984138E-4   3.750158371452969E-4  
 2.033000000000000E10    2.803138809657742E-4   4.184269421505902E-4  
 2.033200000000000E10    3.040719050058680E-4   2.606030803620767E-4  
 2.033400000000000E10    3.061949678911027E-4   1.724618709032016E-4  
 2.033600000000000E10    3.725581773816805E-4   1.720934223940520E-4  
 2.033800000000000E10    2.909271095400719E-4   4.779972884112392E-5  
 2.034000000000000E10    3.336961894150777E-4  -1.031089834965987E-4  
 2.034200000000000E10    3.476486369704957E-4  -6.449212667547638E-5  
 2.034400000000000E10    3.499434315859305E-4  -6.784134730032572E-5  
 2.034600000000000E10    3.035577745405202E-4  -5.698514011595844E-5  
 2.034800000000000E10    4.129458410978192E-4  -1.703209762442890E-4  
 2.035000000000000E10    4.468445455480754E-4  -2.112490642556741E-4  
 2.035200000000000E10    3.233116334823796E-4  -3.890824274843397E-4  
 2.035400000000000E10    1.027733155383043E-4  -4.709472331624786E-4  
 2.035600000000000E10   -6.579167139779586E-5  -4.507198703454566E-4  
 2.035800000000000E10   -2.883533870597544E-4  -2.025751716243411E-4  
 2.036000000000000E10   -2.259933609795201E-4  -1.546365900791372E-4  
 2.036200000000000E10   -8.825928167388129E-5  -1.505913163813718E-4  
 2.036400000000000E10    4.825481225520833E-5  -1.986881481439026E-4  
 2.036600000000000E10    4.810889864183520E-5  -2.774416870643773E-4  
 2.036800000000000E10   -1.291541675252063E-5  -4.899382453226343E-4  
 2.037000000000000E10   -1.252241548145735E-4  -4.516801197534398E-4  
 2.037200000000000E10   -2.795584477832600E-4  -4.650174876194459E-4  
 2.037400000000000E10   -4.880735328483546E-4  -3.598035305054277E-4  
 2.037600000000000E10   -5.144482165179012E-4  -1.757194099313913E-4  
 2.037800000000000E10   -5.721293704612322E-4   1.731935515657036E-4  
 2.038000000000000E10   -5.527776855279108E-4   3.324215474213095E-4  
 2.038200000000000E10   -4.050812626711642E-4   4.317096087677564E-4  
 2.038400000000000E10   -2.517694474038323E-4   3.579516970292538E-4  
 2.038600000000000E10   -2.434656732007898E-4   3.843424211859802E-4  
 2.038800000000000E10   -2.010639043604074E-4   2.653091169004654E-4  
 2.039000000000000E10   -1.271429177459779E-4   3.317374347505092E-4  
 2.039200000000000E10   -7.360675150131749E-5   3.517896674943775E-4  
 2.039400000000000E10   -1.370457892304858E-5   3.715691666601759E-4  
 2.039600000000000E10    1.956774684626364E-4   2.511037484590695E-4  
 2.039800000000000E10    2.287541798851883E-4   3.167278888002042E-4  
 2.040000000000000E10    2.616859777295218E-4   3.489001998639258E-4  
 2.040200000000000E10    2.728997749981989E-4   4.052469865352812E-4  
 2.040400000000000E10    4.363458423762333E-4   4.177746902937334E-4  
 2.040600000000000E10    5.657020267277385E-4   4.728773601378993E-4  
 2.040800000000000E10    5.947693855940253E-4   2.275527003205720E-4  
 2.041000000000000E10    6.151869164344001E-4   3.387593319814540E-5  
 2.041200000000000E10    6.060091696733843E-4  -1.700187468390070E-4  
 2.041400000000000E10    4.423909858870622E-4  -2.916463566393669E-4  
 2.041600000000000E10    3.403321055897097E-4  -4.788177468080365E-4  
 2.041800000000000E10    3.176569656756405E-4  -5.296918357067927E-4  
 2.042000000000000E10    2.682399509599241E-4  -6.372341064041011E-4  
 2.042200000000000E10    1.286014420146246E-4  -6.437788070457765E-4  
 2.042400000000000E10    8.670521010555893E-5  -7.167342982979639E-4  
 2.042600000000000E10    1.110088331116096E-4  -5.581121343952419E-4  
 2.042800000000000E10   -2.396052147342217E-5  -5.382871491088247E-4  
 2.043000000000000E10   -1.368901636416745E-4  -5.408498681639390E-4  
 2.043200000000000E10   -2.703986976364837E-4  -5.126877156381377E-4  
 2.043400000000000E10   -4.569554302828551E-4  -3.229814180115747E-4  
 2.043600000000000E10   -6.225975446212640E-4  -3.581039474494237E-4  
 2.043800000000000E10   -8.058118311660036E-4  -2.508608716188618E-4  
 2.044000000000000E10   -8.402647943680957E-4  -1.051602085848640E-4  
 2.044200000000000E10   -8.866567742599532E-4   9.200349772526533E-5  
 2.044400000000000E10   -9.153730017637757E-4   1.007249155287258E-4  
 2.044600000000000E10   -7.401320097654296E-4   3.423811542515942E-4  
 2.044800000000000E10   -5.683398175304725E-4   4.983419287806446E-4  
 2.045000000000000E10   -3.626934724927509E-4   6.096377899946111E-4  
 2.045200000000000E10   -1.501285003955111E-4   5.715633177605732E-4  
 2.045400000000000E10   -2.994188956119737E-5   6.814454103548763E-4  
 2.045600000000000E10   -2.569669046296156E-5   7.172921985631336E-4  
 2.045800000000000E10    1.409152394039013E-5   8.004466909766290E-4  
 2.046000000000000E10    8.634877858815538E-5   8.076318856543782E-4  
 2.046200000000000E10    2.508237659281555E-4   9.827041671476569E-4  
 2.046400000000000E10    3.953281909477909E-4   9.161419357464503E-4  
 2.046600000000000E10    7.282218562481206E-4   6.941578409533100E-4  
 2.046800000000000E10    8.610100751489679E-4   3.941798032851470E-4  
 2.047000000000000E10    8.974230802667212E-4   1.420924240873752E-4  
 2.047200000000000E10    8.347545495991920E-4  -2.137347571544417E-4  
 2.047400000000000E10    7.631190688584851E-4  -3.221815869238148E-4  
 2.047600000000000E10    7.143580039614248E-4  -3.579046185687262E-4  
 2.047800000000000E10    6.625461366081630E-4  -3.260972373624279E-4  
 2.048000000000000E10    6.264319971455686E-4  -3.978124382027492E-4  
 2.048200000000000E10    7.143366644986045E-4  -3.977323052957177E-4  
 2.048400000000000E10    5.502132095932894E-4  -5.454357658251988E-4  
 2.048600000000000E10    3.779414465592311E-4  -7.598634711438213E-4  
 2.048800000000000E10    9.876115845867023E-5  -8.696184162626403E-4  
 2.049000000000000E10   -2.051945621578651E-4  -7.365744702376989E-4  
 2.049200000000000E10   -3.521916848227724E-4  -6.186543268498804E-4  
 2.049400000000000E10   -2.622640497317990E-4  -5.923576661244685E-4  
 2.049600000000000E10   -2.576227996565732E-4  -6.874438288629636E-4  
 2.049800000000000E10   -3.421121830633055E-4  -6.772540960633122E-4  
 2.050000000000000E10   -5.188913156309203E-4  -6.878261356411335E-4  
 2.050200000000000E10   -4.885164662850679E-4  -5.509262172566200E-4  
 2.050400000000000E10   -5.757858642130254E-4  -3.885929610380737E-4  
 2.050600000000000E10   -7.070024754608844E-4  -3.192356234324217E-4  
 2.050800000000000E10   -8.912201433750070E-4  -1.278949790854419E-4  
 2.051000000000000E10   -9.477028620050064E-4   2.617564079748744E-4  
 2.051200000000000E10   -9.008307830140501E-4   4.898537046328783E-4  
 2.051400000000000E10   -7.756320822299825E-4   5.916220762937573E-4  
 2.051600000000000E10   -7.108350763006671E-4   5.629866216955509E-4  
 2.051800000000000E10   -6.044649754293013E-4   6.224366630569152E-4  
 2.052000000000000E10   -6.364189235810568E-4   7.182272815715654E-4  
 2.052200000000000E10   -3.912834285955127E-4   7.944212623386970E-4  
 2.052400000000000E10   -1.160564163897489E-4   8.247519912172995E-4  
 2.052600000000000E10    1.224527869180775E-4   8.008899597901048E-4  
 2.052800000000000E10    3.249163380263150E-4   6.825316544811367E-4  
 2.053000000000000E10    5.061901884675958E-4   5.876573394831555E-4  
 2.053200000000000E10    4.781439239847872E-4   5.147520546740338E-4  
 2.053400000000000E10    4.760686126517294E-4   5.661881765365036E-4  
 2.053600000000000E10    4.369192727694216E-4   5.816408803516807E-4  
 2.053800000000000E10    6.199113197556512E-4   5.722469305703162E-4  
 2.054000000000000E10    6.678251090510082E-4   5.245958460449666E-4  
 2.054200000000000E10    7.783188231183849E-4   2.718321417144113E-4  
 2.054400000000000E10    7.909811362634947E-4   2.847517911814484E-5  
 2.054600000000000E10    7.668655285572013E-4  -2.223605486205935E-4  
 2.054800000000000E10    6.238980654435012E-4  -4.894482583113377E-4  
 2.055000000000000E10    5.521779685529088E-4  -6.449430889730562E-4  
 2.055200000000000E10    4.136284550641643E-4  -7.486116497252018E-4  
 2.055400000000000E10    3.153886126784667E-4  -7.133859247462641E-4  
 2.055600000000000E10    1.966812618027031E-4  -6.010825578284266E-4  
