#  HZ   S   RI   R     50.00 
! Rohde & Schwarz ZVA40 4Ports - Version 3.90 - 1145.1110k42 SN: 100403
! Date: 2023-09-28 11:04:20
! Measurement: S12 
! 
 2.000000000000000E10    2.896050189303357E-3   6.375744845994058E-5  
 2.000200000000000E10    2.937162100763149E-3  -4.515936246416179E-4  
 2.000400000000000E10    2.772050025076415E-3  -1.015149769119151E-3  
 2.000600000000000E10    2.493935672698591E-3  -1.464051135136884E-3  
 2.000800000000000E10    2.187047687756184E-3  -1.828535072754026E-3  
 2.001000000000000E10    1.838582797773578E-3  -2.147500205810871E-3  
 2.001200000000000E10    1.461583204357917E-3  -2.412405420576501E-3  
 2.001400000000000E10    1.009545345049573E-3  -2.634062004133530E-3  
 2.001600000000000E10    5.230429354062735E-4  -2.738344622577185E-3  
 2.001800000000000E10    7.035767180154600E-5  -2.747348195313499E-3  
 2.002000000000000E10   -3.707815297459325E-4  -2.716884469415273E-3  
 2.002200000000000E10   -8.459217917048337E-4  -2.588856571219547E-3  
 2.002400000000000E10   -1.233231909096842E-3  -2.406887518641728E-3  
 2.002600000000000E10   -1.597526447945856E-3  -2.196851498917918E-3  
 2.002800000000000E10   -1.972083439706968E-3  -1.921779864121753E-3  
 2.003000000000000E10   -2.283469192657295E-3  -1.545528284412584E-3  
 2.003200000000000E10   -2.489930506055527E-3  -1.120783108887853E-3  
 2.003400000000000E10   -2.635731250554440E-3  -6.880133781471257E-4  
 2.003600000000000E10   -2.691948123195607E-3  -2.142261633555747E-4  
 2.003800000000000E10   -2.632507163579304E-3   2.175117487427919E-4  
 2.004000000000000E10   -2.546222269714772E-3   5.820597545879019E-4  
 2.004200000000000E10   -2.478137783461470E-3   9.392149671238650E-4  
 2.004400000000000E10   -2.365537374271167E-3   1.349359724877609E-3  
 2.004600000000000E10   -2.142439390388028E-3   1.769518683542568E-3  
 2.004800000000000E10   -1.829364495317133E-3   2.152066827493209E-3  
 2.005000000000000E10   -1.438254853243523E-3   2.466760422502692E-3  
 2.005200000000000E10   -9.929105545363748E-4   2.689377013256076E-3  
 2.005400000000000E10   -5.096260667001386E-4   2.842010329100617E-3  
 2.005600000000000E10    1.317370823541239E-5   2.905900437456386E-3  
 2.005800000000000E10    5.421741783014655E-4   2.843321387737938E-3  
 2.006000000000000E10    1.029767997414124E-3   2.689384842696595E-3  
 2.006200000000000E10    1.472684098711396E-3   2.470135735589180E-3  
 2.006400000000000E10    1.854526396693043E-3   2.161164468813236E-3  
 2.006600000000000E10    2.163379537155990E-3   1.809682800555754E-3  
 2.006800000000000E10    2.436021333575962E-3   1.452643612566913E-3  
 2.007000000000000E10    2.683537122368361E-3   1.048629930913034E-3  
 2.007200000000000E10    2.864415672047167E-3   5.543306455633753E-4  
 2.007400000000000E10    2.900224947430917E-3   1.805615936225204E-5  
 2.007600000000000E10    2.835806980138599E-3  -4.773279456377020E-4  
 2.007800000000000E10    2.716216671206325E-3  -9.531117415814631E-4  
 2.008000000000000E10    2.517497219121735E-3  -1.420401137717798E-3  
 2.008200000000000E10    2.215119223436150E-3  -1.840246256058753E-3  
 2.008400000000000E10    1.850021721482490E-3  -2.166898151595050E-3  
 2.008600000000000E10    1.468113420591198E-3  -2.439068007610672E-3  
 2.008800000000000E10    1.026748281573110E-3  -2.692442908150642E-3  
 2.009000000000000E10    4.832935260194730E-4  -2.817231680307299E-3  
 2.009200000000000E10   -9.961570147970690E-6  -2.762636866686235E-3  
 2.009400000000000E10   -3.989202617522829E-4  -2.672922585501352E-3  
 2.009600000000000E10   -7.770980421991417E-4  -2.596582582838194E-3  
 2.009800000000000E10   -1.195759147162467E-3  -2.490109692036259E-3  
 2.010000000000000E10   -1.646105371170897E-3  -2.280049020369978E-3  
 2.010200000000000E10   -2.042242602251142E-3  -1.962405578443386E-3  
 2.010400000000000E10   -2.354851710960562E-3  -1.571918628583090E-3  
 2.010600000000000E10   -2.588948911867015E-3  -1.149481394106170E-3  
 2.010800000000000E10   -2.768842159842681E-3  -6.911180831881312E-4  
 2.011000000000000E10   -2.865534610519686E-3  -1.883447479851173E-4  
 2.011200000000000E10   -2.836388173652082E-3   3.298412962060995E-4  
 2.011400000000000E10   -2.730571506100650E-3   8.203170260041443E-4  
 2.011600000000000E10   -2.517059531188892E-3   1.302145258512878E-3  
 2.011800000000000E10   -2.209680312872558E-3   1.709189993823894E-3  
 2.012000000000000E10   -1.860383795533143E-3   2.043845614510938E-3  
 2.012200000000000E10   -1.466174467141426E-3   2.296116043945681E-3  
 2.012400000000000E10   -1.046312832072828E-3   2.472697943775502E-3  
 2.012600000000000E10   -6.108344233659564E-4   2.575889024162412E-3  
 2.012800000000000E10   -2.008083986187530E-4   2.605175229077320E-3  
 2.013000000000000E10    1.881614065709174E-4   2.584189245084974E-3  
 2.013200000000000E10    5.566206065832269E-4   2.521099217343639E-3  
 2.013400000000000E10    9.198086235649241E-4   2.424822978607515E-3  
 2.013600000000000E10    1.286170527127053E-3   2.308305734838065E-3  
 2.013800000000000E10    1.697546070167786E-3   2.139696012281030E-3  
 2.014000000000000E10    2.101744201421543E-3   1.886741772038964E-3  
 2.014200000000000E10    2.513157796782409E-3   1.515315655078651E-3  
 2.014400000000000E10    2.830974612529254E-3   9.626501700618033E-4  
 2.014600000000000E10    2.939008658418551E-3   3.552950638663771E-4  
 2.014800000000000E10    2.907700260951798E-3  -2.074333177670612E-4  
 2.015000000000000E10    2.773699073536577E-3  -7.224486439692242E-4  
 2.015200000000000E10    2.541085608884683E-3  -1.164890039284075E-3  
 2.015400000000000E10    2.284794822035733E-3  -1.523770289046322E-3  
 2.015600000000000E10    2.013675391316617E-3  -1.859731297537451E-3  
 2.015800000000000E10    1.682763896859681E-3  -2.187256684469738E-3  
 2.016000000000000E10    1.286116007157891E-3  -2.449058784795660E-3  
 2.016200000000000E10    8.344272801233379E-4  -2.639913314333417E-3  
 2.016400000000000E10    3.522241712794332E-4  -2.724279318958172E-3  
 2.016600000000000E10   -1.077945231423182E-4  -2.721364002819890E-3  
 2.016800000000000E10   -5.756768200519107E-4  -2.685796763637779E-3  
 2.017000000000000E10   -1.071727523420360E-3  -2.537451739125028E-3  
 2.017200000000000E10   -1.504887999598244E-3  -2.241902298891184E-3  
 2.017400000000000E10   -1.806636557192084E-3  -1.871890550125984E-3  
 2.017600000000000E10   -2.021148175035497E-3  -1.521363633306096E-3  
 2.017800000000000E10   -2.185351425528327E-3  -1.172529777496766E-3  
 2.018000000000000E10   -2.305659943609020E-3  -8.247812913024266E-4  
 2.018200000000000E10   -2.376870315997767E-3  -4.639694449319191E-4  
 2.018400000000000E10   -2.398066920165988E-3  -1.225083853799066E-4  
 2.018600000000000E10   -2.425391963647440E-3   2.209627752800851E-4  
 2.018800000000000E10   -2.399499148788773E-3   6.196011546482525E-4  
 2.019000000000000E10   -2.284077295374578E-3   1.012458187118292E-3  
 2.019200000000000E10   -2.089928917144209E-3   1.383456427822845E-3  
 2.019400000000000E10   -1.818732350441955E-3   1.709085587236671E-3  
 2.019600000000000E10   -1.527091892812452E-3   1.954884133279674E-3  
 2.019800000000000E10   -1.225018937652001E-3   2.183433624286523E-3  
 2.020000000000000E10   -8.873841933776340E-4   2.384232502428407E-3  
 2.020200000000000E10   -4.889336889540851E-4   2.519487390522357E-3  
 2.020400000000000E10   -7.680840967241325E-5   2.597176231140965E-3  
 2.020600000000000E10    3.685833310142102E-4   2.643111953604101E-3  
 2.020800000000000E10    8.759995238929864E-4   2.564024719151441E-3  
 2.021000000000000E10    1.335789470663251E-3   2.351372066537176E-3  
 2.021200000000000E10    1.700871704519448E-3   2.063906833903081E-3  
 2.021400000000000E10    2.003194615175311E-3   1.751477315780182E-3  
 2.021600000000000E10    2.277075206854370E-3   1.400362724071232E-3  
 2.021800000000000E10    2.480197757247747E-3   1.002837293739466E-3  
 2.022000000000000E10    2.606958824195249E-3   5.833254694307559E-4  
 2.022200000000000E10    2.661465922446638E-3   1.472530602230679E-4  
 2.022400000000000E10    2.664542127469624E-3  -2.495758527490938E-4  
 2.022600000000000E10    2.671841737674997E-3  -6.794549276090727E-4  
 2.022800000000000E10    2.568306843931164E-3  -1.193708483070973E-3  
 2.023000000000000E10    2.330385342639493E-3  -1.645270016891384E-3  
 2.023200000000000E10    2.012758540296767E-3  -2.036647814570282E-3  
 2.023400000000000E10    1.637887510761615E-3  -2.363743989868494E-3  
 2.023600000000000E10    1.207624771884212E-3  -2.640973618164638E-3  
 2.023800000000000E10    7.281090626197846E-4  -2.831714538342921E-3  
 2.024000000000000E10    2.244813346764870E-4  -2.894563929669956E-3  
 2.024200000000000E10   -2.244403561882177E-4  -2.888779609008881E-3  
 2.024400000000000E10   -6.832830530298613E-4  -2.884766995156492E-3  
 2.024600000000000E10   -1.210004950511160E-3  -2.825518036681368E-3  
 2.024800000000000E10   -1.796053004579702E-3  -2.629811666006496E-3  
 2.025000000000000E10   -2.359629566354669E-3  -2.223181803123803E-3  
 2.025200000000000E10   -2.752087565232338E-3  -1.648414892581986E-3  
 2.025400000000000E10   -2.935812631102427E-3  -1.037697898163810E-3  
 2.025600000000000E10   -2.993535442942676E-3  -4.790982089389808E-4  
 2.025800000000000E10   -2.972574070295596E-3   1.919836344047101E-5  
 2.026000000000000E10   -2.890908990635608E-3   5.126953304972659E-4  
 2.026200000000000E10   -2.735312206287666E-3   9.717656371475115E-4  
 2.026400000000000E10   -2.511904125841841E-3   1.409636972402659E-3  
 2.026600000000000E10   -2.214839787095686E-3   1.785217241872107E-3  
 2.026800000000000E10   -1.880848434630364E-3   2.088224901773026E-3  
 2.027000000000000E10   -1.551129100086261E-3   2.337063124333520E-3  
 2.027200000000000E10   -1.187260868503333E-3   2.600352550182373E-3  
 2.027400000000000E10   -7.141069642431646E-4   2.841108469804955E-3  
 2.027600000000000E10   -1.580248379509163E-4   2.951206170376507E-3  
 2.027800000000000E10    3.974494521807133E-4   2.916912462152377E-3  
 2.028000000000000E10    9.423856906799525E-4   2.761174436511563E-3  
 2.028200000000000E10    1.413310284493101E-3   2.454977764076196E-3  
 2.028400000000000E10    1.740615160436272E-3   2.096068105028568E-3  
 2.028600000000000E10    1.981005351788186E-3   1.759467003791088E-3  
 2.028800000000000E10    2.194982134824941E-3   1.427093560399590E-3  
 2.029000000000000E10    2.360476471585627E-3   1.057052399918143E-3  
 2.029200000000000E10    2.451740158232084E-3   6.696557627334758E-4  
 2.029400000000000E10    2.489907434174694E-3   3.043720098342599E-4  
 2.029600000000000E10    2.507411777702622E-3  -5.092572752069557E-5  
 2.029800000000000E10    2.493784302545235E-3  -4.033283603883616E-4  
 2.030000000000000E10    2.458671368895597E-3  -7.872973373860281E-4  
 2.030200000000000E10    2.326031514077089E-3  -1.200027772910482E-3  
 2.030400000000000E10    2.121968882546202E-3  -1.541955731459947E-3  
 2.030600000000000E10    1.911380327936371E-3  -1.860180865635256E-3  
 2.030800000000000E10    1.647783385523288E-3  -2.217150608060896E-3  
 2.031000000000000E10    1.264522892368040E-3  -2.539576369920720E-3  
 2.031200000000000E10    7.916884648337828E-4  -2.763326512898065E-3  
 2.031400000000000E10    2.670114622938248E-4  -2.871384120389713E-3  
 2.031600000000000E10   -2.189985817518172E-4  -2.875815882595792E-3  
 2.031800000000000E10   -6.960701234860131E-4  -2.815889165934185E-3  
 2.032000000000000E10   -1.207885191486426E-3  -2.661730063364599E-3  
 2.032200000000000E10   -1.651728823423304E-3  -2.369429873133093E-3  
 2.032400000000000E10   -1.943553575112873E-3  -2.025400612932258E-3  
 2.032600000000000E10   -2.188881877920483E-3  -1.761194551682971E-3  
 2.032800000000000E10   -2.485459464954347E-3  -1.469428135443243E-3  
 2.033000000000000E10   -2.775047900632985E-3  -1.074225676883761E-3  
 2.033200000000000E10   -2.994984660288832E-3  -5.785205058657393E-4  
 2.033400000000000E10   -3.120924422481648E-3  -3.517252504359869E-5  
 2.033600000000000E10   -3.142046541745783E-3   2.760064438153771E-4  
 2.033800000000000E10   -2.943509806427612E-3   1.163620309399024E-3  
 2.034000000000000E10   -2.663151663362542E-3   1.694286557039647E-3  
 2.034200000000000E10   -2.284247948383696E-3   2.130903517397289E-3  
 2.034400000000000E10   -1.851423504544319E-3   2.472617763836000E-3  
 2.034600000000000E10   -1.362694858184013E-3   2.722717274671384E-3  
 2.034800000000000E10   -8.797435878787797E-4   2.859290040136031E-3  
 2.035000000000000E10   -4.023373778978645E-4   2.942619114060105E-3  
 2.035200000000000E10    1.024176800846963E-4   2.927348345983419E-3  
 2.035400000000000E10    5.516765962366621E-4   2.820432048365917E-3  
 2.035600000000000E10    9.372936953090541E-4   2.693337210546455E-3  
 2.035800000000000E10    1.328392113213872E-3   2.557821181327255E-3  
 2.036000000000000E10    1.764114576901754E-3   2.357929429897295E-3  
 2.036200000000000E10    2.170761290161490E-3   2.034526490175555E-3  
 2.036400000000000E10    2.482850991995462E-3   1.635263099602991E-3  
 2.036600000000000E10    2.709676505978757E-3   1.208591345926746E-3  
 2.036800000000000E10    2.884286644104446E-3   7.751500361406406E-4  
 2.037000000000000E10    3.000662459457721E-3   2.881874414588113E-4  
 2.037200000000000E10    3.029400417477579E-3  -2.332623591178478E-4  
 2.037400000000000E10    2.946602620852714E-3  -7.526096472421694E-4  
 2.037600000000000E10    2.771956271546879E-3  -1.242004878162620E-3  
 2.037800000000000E10    2.529571824108779E-3  -1.690138982537373E-3  
 2.038000000000000E10    2.210898345465207E-3  -2.083074698439574E-3  
 2.038200000000000E10    1.854433265961525E-3  -2.416947248332615E-3  
 2.038400000000000E10    1.450449765046368E-3  -2.717680395665288E-3  
 2.038600000000000E10    9.796343537940646E-4  -2.947574208153140E-3  
 2.038800000000000E10    4.647276194062030E-4  -3.083242874342998E-3  
 2.039000000000000E10   -5.320247710323536E-5  -3.138191226267678E-3  
 2.039200000000000E10   -6.141772677117215E-4  -3.121147807816694E-3  
 2.039400000000000E10   -1.173263122287171E-3  -2.967975573988132E-3  
 2.039600000000000E10   -1.679539950395585E-3  -2.708402854151828E-3  
 2.039800000000000E10   -2.145152412787321E-3  -2.360869049920899E-3  
 2.040000000000000E10   -2.530386271839543E-3  -1.918867715807441E-3  
 2.040200000000000E10   -2.777347435114114E-3  -1.405855519350007E-3  
 2.040400000000000E10   -2.908389297708747E-3  -8.995343463991769E-4  
 2.040600000000000E10   -2.963308626713482E-3  -4.412041711968406E-4  
 2.040800000000000E10   -2.973029799675639E-3   1.709326982706017E-5  
 2.041000000000000E10   -2.931999489625287E-3   4.709707003222651E-4  
 2.041200000000000E10   -2.845563275076369E-3   9.136130926964360E-4  
 2.041400000000000E10   -2.701274038584456E-3   1.357982841891252E-3  
 2.041600000000000E10   -2.480002677887440E-3   1.839452152371247E-3  
 2.041800000000000E10   -2.109897578708037E-3   2.291055038241186E-3  
 2.042000000000000E10   -1.654778856805682E-3   2.601622474802702E-3  
 2.042200000000000E10   -1.202858711645800E-3   2.814460063792937E-3  
 2.042400000000000E10   -7.353008430312899E-4   2.982153983121249E-3  
 2.042600000000000E10   -2.310965021829571E-4   3.079572642121832E-3  
 2.042800000000000E10    2.987360787988726E-4   3.081401807991761E-3  
 2.043000000000000E10    8.249644985089767E-4   2.979697761601532E-3  
 2.043200000000000E10    1.304324021918657E-3   2.807506069651982E-3  
 2.043400000000000E10    1.771165233535809E-3   2.552372911582166E-3  
 2.043600000000000E10    2.183427754832176E-3   2.193777132373388E-3  
 2.043800000000000E10    2.504376355268208E-3   1.785893354913672E-3  
 2.044000000000000E10    2.780989779327210E-3   1.343540478839272E-3  
 2.044200000000000E10    2.958560827445263E-3   8.213066044222378E-4  
 2.044400000000000E10    3.002679187285215E-3   3.152800801414085E-4  
 2.044600000000000E10    2.979999667997666E-3  -1.447605493296712E-4  
 2.044800000000000E10    2.923794630293194E-3  -6.059484953932167E-4  
 2.045000000000000E10    2.813502535226233E-3  -1.077628575876921E-3  
 2.045200000000000E10    2.630871264141913E-3  -1.542119588003822E-3  
 2.045400000000000E10    2.353837743585777E-3  -1.977081619445965E-3  
 2.045600000000000E10    1.994972999063315E-3  -2.377767738487445E-3  
 2.045800000000000E10    1.533895814579819E-3  -2.726405380024594E-3  
 2.046000000000000E10    9.772804894125026E-4  -2.944418724384708E-3  
 2.046200000000000E10    4.437042243228374E-4  -3.005668156368795E-3  
 2.046400000000000E10   -3.686678430157363E-5  -2.991706100914948E-3  
 2.046600000000000E10   -4.946986001016208E-4  -2.946727517725396E-3  
 2.046800000000000E10   -9.861850027439102E-4  -2.845144910525518E-3  
 2.047000000000000E10   -1.458615664760498E-3  -2.649283136095357E-3  
 2.047200000000000E10   -1.899034355746773E-3  -2.374677893478124E-3  
 2.047400000000000E10   -2.286683590030856E-3  -2.000531107276699E-3  
 2.047600000000000E10   -2.576366835830950E-3  -1.561169614080659E-3  
 2.047800000000000E10   -2.799833315887231E-3  -1.095290491419903E-3  
 2.048000000000000E10   -2.947195541954517E-3  -5.856906897623324E-4  
 2.048200000000000E10   -2.978060692332992E-3  -4.877377918594594E-5  
 2.048400000000000E10   -2.884398377120763E-3   4.361552920262675E-4  
 2.048600000000000E10   -2.753879428765800E-3   8.432136326128323E-4  
 2.048800000000000E10   -2.633001016431049E-3   1.268451914873734E-3  
 2.049000000000000E10   -2.432335005769916E-3   1.742347684945651E-3  
 2.049200000000000E10   -2.069305976950151E-3   2.200987422093579E-3  
 2.049400000000000E10   -1.574925207591141E-3   2.533606563969729E-3  
 2.049600000000000E10   -1.037806155825239E-3   2.671248610180415E-3  
 2.049800000000000E10   -6.101032792793688E-4   2.718145244121336E-3  
 2.050000000000000E10   -1.792457161265671E-4   2.773223528817337E-3  
 2.050200000000000E10    2.905498391091912E-4   2.723663009040545E-3  
 2.050400000000000E10    6.722233328736061E-4   2.554802430645734E-3  
 2.050600000000000E10    9.338357721997213E-4   2.411535362483225E-3  
 2.050800000000000E10    1.234440060369040E-3   2.368998389013738E-3  
 2.051000000000000E10    1.664544758287547E-3   2.275974433288555E-3  
 2.051200000000000E10    2.132743526269429E-3   2.041884978676425E-3  
 2.051400000000000E10    2.560319565456589E-3   1.646386651295134E-3  
 2.051600000000000E10    2.888491270524850E-3   1.117705671186123E-3  
 2.051800000000000E10    3.061892431647533E-3   5.118191321921970E-4  
 2.052000000000000E10    3.062607340463275E-3  -1.041387429857558E-4  
 2.052200000000000E10    2.911007896156843E-3  -6.364366295797142E-4  
 2.052400000000000E10    2.709696690099548E-3  -1.046832921080669E-3  
 2.052600000000000E10    2.519016676196155E-3  -1.430866481048421E-3  
 2.052800000000000E10    2.292614163255419E-3  -1.828609540340425E-3  
 2.053000000000000E10    1.988525489147033E-3  -2.221639916945787E-3  
 2.053200000000000E10    1.595489233488073E-3  -2.562688163163263E-3  
 2.053400000000000E10    1.112029981616879E-3  -2.827555670578534E-3  
 2.053600000000000E10    5.970618416111781E-4  -2.967045727923895E-3  
 2.053800000000000E10    8.747990853776146E-5  -3.041536582446765E-3  
 2.054000000000000E10   -4.689700246834057E-4  -3.048148770840614E-3  
 2.054200000000000E10   -1.022925633696377E-3  -2.926374899302654E-3  
 2.054400000000000E10   -1.538733021312020E-3  -2.664190501634999E-3  
 2.054600000000000E10   -1.948209659494812E-3  -2.308246506533631E-3  
 2.054800000000000E10   -2.274060969914792E-3  -1.940973214298371E-3  
 2.055000000000000E10   -2.542668713787320E-3  -1.549745299580844E-3  
 2.055200000000000E10   -2.771461595572626E-3  -1.139475162481133E-3  
 2.055400000000000E10   -2.969114199159232E-3  -6.728598870980888E-4  
 2.055600000000000E10   -3.068530724575947E-3  -1.304257693277664E-4  
