#  HZ   S   RI   R     50.00 
! Rohde & Schwarz ZVA40 4Ports - Version 3.90 - 1145.1110k42 SN: 100403
! Date: 2023-09-28 10:59:57
! Measurement: S12 
! 
 2.000000000000000E10   -1.576969471967737E-3  -2.813236375815501E-3  
 2.000200000000000E10   -2.047476663178749E-3  -2.596001264908603E-3  
 2.000400000000000E10   -2.510971330437058E-3  -2.193980057512631E-3  
 2.000600000000000E10   -2.846277976256360E-3  -1.693093792565766E-3  
 2.000800000000000E10   -3.061005803095894E-3  -1.172849927190411E-3  
 2.001000000000000E10   -3.196758397143796E-3  -6.364727979219758E-4  
 2.001200000000000E10   -3.241802345826273E-3  -9.524880183284251E-5  
 2.001400000000000E10   -3.205363512513429E-3   4.196812334839307E-4  
 2.001600000000000E10   -3.128765779899448E-3   9.411254719883748E-4  
 2.001800000000000E10   -2.962283679782718E-3   1.481061083429474E-3  
 2.002000000000000E10   -2.678421460758289E-3   1.991180243272741E-3  
 2.002200000000000E10   -2.252823328118677E-3   2.484444819095271E-3  
 2.002400000000000E10   -1.762726274961873E-3   2.829604225564819E-3  
 2.002600000000000E10   -1.262743478490666E-3   3.070031362298348E-3  
 2.002800000000000E10   -7.209341546317925E-4   3.282582926789672E-3  
 2.003000000000000E10   -8.494988314622883E-5   3.363746932635936E-3  
 2.003200000000000E10    5.167843922110795E-4   3.273805207259832E-3  
 2.003400000000000E10    1.049237394236549E-3   3.089059321830464E-3  
 2.003600000000000E10    1.531506925486637E-3   2.851871688088929E-3  
 2.003800000000000E10    1.973162666010676E-3   2.541374936373485E-3  
 2.004000000000000E10    2.360995180337757E-3   2.163781433190856E-3  
 2.004200000000000E10    2.664209532378855E-3   1.734110947089836E-3  
 2.004400000000000E10    2.915586845849102E-3   1.284610301725299E-3  
 2.004600000000000E10    3.087155799123013E-3   7.663204005388542E-4  
 2.004800000000000E10    3.133349263002080E-3   2.373857281712755E-4  
 2.005000000000000E10    3.114249670518803E-3  -2.593208864527531E-4  
 2.005200000000000E10    3.008624880653497E-3  -7.612874172160595E-4  
 2.005400000000000E10    2.841752417880787E-3  -1.187805388882119E-3  
 2.005600000000000E10    2.678867970545365E-3  -1.598619132280455E-3  
 2.005800000000000E10    2.451757222181161E-3  -2.049647537004767E-3  
 2.006000000000000E10    2.113939407495220E-3  -2.476497413941801E-3  
 2.006200000000000E10    1.701205738984479E-3  -2.846038516892055E-3  
 2.006400000000000E10    1.220708463530932E-3  -3.168805613924668E-3  
 2.006600000000000E10    6.237092996774338E-4  -3.408591087016153E-3  
 2.006800000000000E10   -4.448508501887743E-5  -3.506298508899045E-3  
 2.007000000000000E10   -7.228736867598511E-4  -3.423160208409891E-3  
 2.007200000000000E10   -1.326070414163605E-3  -3.183058948832985E-3  
 2.007400000000000E10   -1.837635133616134E-3  -2.849030294102953E-3  
 2.007600000000000E10   -2.255794809598611E-3  -2.466537934870555E-3  
 2.007800000000000E10   -2.590782762295209E-3  -2.051388028719812E-3  
 2.008000000000000E10   -2.858121696212465E-3  -1.609249272064463E-3  
 2.008200000000000E10   -3.075729925514918E-3  -1.147750230999925E-3  
 2.008400000000000E10   -3.238223900054643E-3  -6.791879811005505E-4  
 2.008600000000000E10   -3.373142007804873E-3  -1.636864927819645E-4  
 2.008800000000000E10   -3.432999848497573E-3   4.156189722693596E-4  
 2.009000000000000E10   -3.356058520446535E-3   1.067760812142520E-3  
 2.009200000000000E10   -3.114744024471034E-3   1.688816842555341E-3  
 2.009400000000000E10   -2.739814815415962E-3   2.215520981767318E-3  
 2.009600000000000E10   -2.299147291382096E-3   2.626289041968688E-3  
 2.009800000000000E10   -1.833818352862572E-3   2.955897565664645E-3  
 2.010000000000000E10   -1.334332140646702E-3   3.234472064848165E-3  
 2.010200000000000E10   -8.049087074727106E-4   3.470686705285304E-3  
 2.010400000000000E10   -1.694137626341690E-4   3.618123863230311E-3  
 2.010600000000000E10    5.366707375053784E-4   3.610773553524488E-3  
 2.010800000000000E10    1.195619450352101E-3   3.408981646868396E-3  
 2.011000000000000E10    1.747103114246531E-3   3.092155074028329E-3  
 2.011200000000000E10    2.184633673592965E-3   2.715639916450342E-3  
 2.011400000000000E10    2.546004464457214E-3   2.346780414263810E-3  
 2.011600000000000E10    2.925247281147226E-3   1.987317485528076E-3  
 2.011800000000000E10    3.324400724059744E-3   1.499201674542924E-3  
 2.012000000000000E10    3.611232518918087E-3   8.466837656721198E-4  
 2.012200000000000E10    3.721199962540865E-3   1.618794608313315E-4  
 2.012400000000000E10    3.686253954053079E-3  -5.384580437577585E-4  
 2.012600000000000E10    3.496805598030389E-3  -1.214463522977578E-3  
 2.012800000000000E10    3.169905773209875E-3  -1.812305101763231E-3  
 2.013000000000000E10    2.770762601799639E-3  -2.328905486024294E-3  
 2.013200000000000E10    2.266433646919401E-3  -2.749726274144237E-3  
 2.013400000000000E10    1.687305184940313E-3  -3.028016364615657E-3  
 2.013600000000000E10    1.149423752346089E-3  -3.169575287672809E-3  
 2.013800000000000E10    6.347080686924828E-4  -3.252496924429412E-3  
 2.014000000000000E10    1.134815107320683E-4  -3.258344753606356E-3  
 2.014200000000000E10   -3.341521700599959E-4  -3.190914898294392E-3  
 2.014400000000000E10   -7.524860926337050E-4  -3.131083797002729E-3  
 2.014600000000000E10   -1.208227609306961E-3  -3.059815149327225E-3  
 2.014800000000000E10   -1.722803088808470E-3  -2.923830271958246E-3  
 2.015000000000000E10   -2.282599307573610E-3  -2.653177628397181E-3  
 2.015200000000000E10   -2.783771918399158E-3  -2.232461746094075E-3  
 2.015400000000000E10   -3.175429616285833E-3  -1.673991824205644E-3  
 2.015600000000000E10   -3.426137670996852E-3  -1.078337009109059E-3  
 2.015800000000000E10   -3.563712781186955E-3  -4.356928592659025E-4  
 2.016000000000000E10   -3.560574691173833E-3   2.091376990160529E-4  
 2.016200000000000E10   -3.433192414713020E-3   7.976208871895115E-4  
 2.016400000000000E10   -3.240135647140146E-3   1.355734939961440E-3  
 2.016600000000000E10   -2.955989090569681E-3   1.861944465393614E-3  
 2.016800000000000E10   -2.615380918696209E-3   2.313814447024619E-3  
 2.017000000000000E10   -2.202892376722393E-3   2.731563265884273E-3  
 2.017200000000000E10   -1.706297508863617E-3   3.070870772948933E-3  
 2.017400000000000E10   -1.156105218319468E-3   3.301089446448853E-3  
 2.017600000000000E10   -6.195718747056139E-4   3.441555906092769E-3  
 2.017800000000000E10   -6.277208820183555E-5   3.540390878408568E-3  
 2.018000000000000E10    5.389083186013906E-4   3.556420055171326E-3  
 2.018200000000000E10    1.171296102834201E-3   3.479643289475071E-3  
 2.018400000000000E10    1.825507597578125E-3   3.233875776244663E-3  
 2.018600000000000E10    2.400572504767752E-3   2.841126410377954E-3  
 2.018800000000000E10    2.879614850072324E-3   2.328186261153930E-3  
 2.019000000000000E10    3.210190817089470E-3   1.743761860089598E-3  
 2.019200000000000E10    3.415787628129329E-3   1.151165029506349E-3  
 2.019400000000000E10    3.522423352975303E-3   5.228439552754446E-4  
 2.019600000000000E10    3.506765692787615E-3  -7.251699414450564E-5  
 2.019800000000000E10    3.396572613710622E-3  -6.177927157341489E-4  
 2.020000000000000E10    3.253727771117405E-3  -1.122196466608249E-3  
 2.020200000000000E10    3.056081819043342E-3  -1.635763604139800E-3  
 2.020400000000000E10    2.746778391548790E-3  -2.119902335003109E-3  
 2.020600000000000E10    2.374461026780842E-3  -2.537215867997212E-3  
 2.020800000000000E10    1.964492802503681E-3  -2.910848531445861E-3  
 2.021000000000000E10    1.474776389451188E-3  -3.259420884702383E-3  
 2.021200000000000E10    8.668679566052355E-4  -3.534460676678850E-3  
 2.021400000000000E10    1.837068218598697E-4  -3.652429530034654E-3  
 2.021600000000000E10   -4.927454185375990E-4  -3.582855083315592E-3  
 2.021800000000000E10   -1.093727835508623E-3  -3.402217453503849E-3  
 2.022000000000000E10   -1.659509993608524E-3  -3.127575954068311E-3  
 2.022200000000000E10   -2.138243544048586E-3  -2.751206832164866E-3  
 2.022400000000000E10   -2.498405572663288E-3  -2.322951610571397E-3  
 2.022600000000000E10   -2.785889381150993E-3  -1.906395470050740E-3  
 2.022800000000000E10   -3.062509166805775E-3  -1.472350529870862E-3  
 2.023000000000000E10   -3.281396502944901E-3  -9.730501640447219E-4  
 2.023200000000000E10   -3.420280313959482E-3  -4.195276105813118E-4  
 2.023400000000000E10   -3.477020297416211E-3   1.500368119191422E-4  
 2.023600000000000E10   -3.440921914941178E-3   7.428269519243404E-4  
 2.023800000000000E10   -3.291872037041465E-3   1.352441671199949E-3  
 2.024000000000000E10   -2.994244441667583E-3   1.946812586856886E-3  
 2.024200000000000E10   -2.540123026266733E-3   2.440208097728531E-3  
 2.024400000000000E10   -2.030156334329190E-3   2.761066664859974E-3  
 2.024600000000000E10   -1.545153015571923E-3   2.951634360034654E-3  
 2.024800000000000E10   -1.115291460410418E-3   3.101795366413323E-3  
 2.025000000000000E10   -6.872303489017605E-4   3.253472005697203E-3  
 2.025200000000000E10   -2.197575201719484E-4   3.393161858095131E-3  
 2.025400000000000E10    3.403977116989067E-4   3.479357367980311E-3  
 2.025600000000000E10    9.432647993972325E-4   3.444330135142362E-3  
 2.025800000000000E10    1.533138806404075E-3   3.309419848992935E-3  
 2.026000000000000E10    2.156369097655146E-3   3.072583105849203E-3  
 2.026200000000000E10    2.765447380514484E-3   2.640514960126816E-3  
 2.026400000000000E10    3.241767892351407E-3   2.057641951587672E-3  
 2.026600000000000E10    3.538606493346743E-3   1.388064241585682E-3  
 2.026800000000000E10    3.673530929919134E-3   7.087733131329175E-4  
 2.027000000000000E10    3.679489655642299E-3   6.485811497780254E-5  
 2.027200000000000E10    3.588554341959699E-3  -5.311173290115778E-4  
 2.027400000000000E10    3.433510862944134E-3  -1.081832441819877E-3  
 2.027600000000000E10    3.236109724736603E-3  -1.600127763332387E-3  
 2.027800000000000E10    2.976655372400814E-3  -2.126426870545088E-3  
 2.028000000000000E10    2.618277646904126E-3  -2.640854073860050E-3  
 2.028200000000000E10    2.140025875838174E-3  -3.127007249748482E-3  
 2.028400000000000E10    1.517354846417650E-3  -3.508662530581086E-3  
 2.028600000000000E10    8.134870963710143E-4  -3.735702217950685E-3  
 2.028800000000000E10    9.324740476631732E-5  -3.788745761492986E-3  
 2.029000000000000E10   -6.100746578149287E-4  -3.686656992387453E-3  
 2.029200000000000E10   -1.241410087671219E-3  -3.449087610120096E-3  
 2.029400000000000E10   -1.796606607084310E-3  -3.099260893024012E-3  
 2.029600000000000E10   -2.222687806965732E-3  -2.698496447337391E-3  
 2.029800000000000E10   -2.569626932439340E-3  -2.281707520284808E-3  
 2.030000000000000E10   -2.874389074754851E-3  -1.841531885197538E-3  
 2.030200000000000E10   -3.137475709574793E-3  -1.354491982179631E-3  
 2.030400000000000E10   -3.319019905218834E-3  -8.093298745434892E-4  
 2.030600000000000E10   -3.369496148683077E-3  -2.373299726344531E-4  
 2.030800000000000E10   -3.351890917991459E-3   2.808407861603786E-4  
 2.031000000000000E10   -3.291118501743632E-3   8.208835950133951E-4  
 2.031200000000000E10   -3.131802569028623E-3   1.383125987873437E-3  
 2.031400000000000E10   -2.855085640844027E-3   1.930885912224305E-3  
 2.031600000000000E10   -2.474897486471172E-3   2.393256887533334E-3  
 2.031800000000000E10   -2.002982240622049E-3   2.761034603097445E-3  
 2.032000000000000E10   -1.514040207519625E-3   3.035966319137748E-3  
 2.032200000000000E10   -9.790044331203576E-4   3.255972854660806E-3  
 2.032400000000000E10   -3.915107840218777E-4   3.366399565287765E-3  
 2.032600000000000E10    2.068250478157874E-4   3.353662096136527E-3  
 2.032800000000000E10    7.796051207358608E-4   3.244563360145718E-3  
 2.033000000000000E10    1.315677149975324E-3   3.033156519152975E-3  
 2.033200000000000E10    1.784294040849354E-3   2.703371662842025E-3  
 2.033400000000000E10    2.142754100401897E-3   2.338123767556739E-3  
 2.033600000000000E10    2.243765967026380E-3   2.196862347291208E-3  
 2.033800000000000E10    2.732276439693141E-3   1.568232623459325E-3  
 2.034000000000000E10    2.960280094583291E-3   1.122972701943851E-3  
 2.034200000000000E10    3.123401542658456E-3   6.266691029651635E-4  
 2.034400000000000E10    3.204775947122263E-3   9.188366864908146E-5  
 2.034600000000000E10    3.180960537127961E-3  -4.657278890394827E-4  
 2.034800000000000E10    3.047275045240212E-3  -9.800320925306637E-4  
 2.035000000000000E10    2.879540161866149E-3  -1.459244830866321E-3  
 2.035200000000000E10    2.653317690256236E-3  -1.965970994231393E-3  
 2.035400000000000E10    2.271819819086677E-3  -2.489182071083010E-3  
 2.035600000000000E10    1.716686430575556E-3  -2.886857435769543E-3  
 2.035800000000000E10    1.111603394592841E-3  -3.084126997334409E-3  
 2.036000000000000E10    5.506435614660834E-4  -3.131604697562574E-3  
 2.036200000000000E10    7.206045707252071E-5  -3.126570209779136E-3  
 2.036400000000000E10   -4.020473766054704E-4  -3.111574027857835E-3  
 2.036600000000000E10   -9.205550227080948E-4  -3.022662950461930E-3  
 2.036800000000000E10   -1.411454863078381E-3  -2.847199810821074E-3  
 2.037000000000000E10   -1.894623017006464E-3  -2.587668656365895E-3  
 2.037200000000000E10   -2.345366046120687E-3  -2.237454247857760E-3  
 2.037400000000000E10   -2.728740418596942E-3  -1.800134141182087E-3  
 2.037600000000000E10   -3.020084727758846E-3  -1.285740553377292E-3  
 2.037800000000000E10   -3.235036894112355E-3  -6.986506525563929E-4  
 2.038000000000000E10   -3.294361926746983E-3  -4.522932323334551E-5  
 2.038200000000000E10   -3.164793219074201E-3   5.726849227075037E-4  
 2.038400000000000E10   -2.933133641081939E-3   1.090248502635308E-3  
 2.038600000000000E10   -2.638807526005185E-3   1.527832490251581E-3  
 2.038800000000000E10   -2.309464400360675E-3   1.891163379105956E-3  
 2.039000000000000E10   -1.969833497706675E-3   2.188075721171121E-3  
 2.039200000000000E10   -1.629910647273486E-3   2.459354416635965E-3  
 2.039400000000000E10   -1.225777713155554E-3   2.731656947778537E-3  
 2.039600000000000E10   -7.310471688240403E-4   2.927042996039517E-3  
 2.039800000000000E10   -2.055935661257757E-4   2.990864725208472E-3  
 2.040000000000000E10    3.026622974212695E-4   2.966325446030191E-3  
 2.040200000000000E10    7.805333019093819E-4   2.865169374099558E-3  
 2.040400000000000E10    1.238624112701182E-3   2.690076325587184E-3  
 2.040600000000000E10    1.687847215474612E-3   2.465876431315152E-3  
 2.040800000000000E10    2.109059357656254E-3   2.156284683530859E-3  
 2.041000000000000E10    2.478362391299353E-3   1.744613749027282E-3  
 2.041200000000000E10    2.746229811577357E-3   1.268294765639269E-3  
 2.041400000000000E10    2.907729733665908E-3   7.695692495851502E-4  
 2.041600000000000E10    3.002775258644535E-3   2.635122610586156E-4  
 2.041800000000000E10    3.027059322015511E-3  -2.680062040541004E-4  
 2.042000000000000E10    2.945248015203020E-3  -8.136308490502787E-4  
 2.042200000000000E10    2.741115818555707E-3  -1.349835918560840E-3  
 2.042400000000000E10    2.418923059952118E-3  -1.826637247491875E-3  
 2.042600000000000E10    2.017557823616748E-3  -2.204276776615563E-3  
 2.042800000000000E10    1.557249670608876E-3  -2.495329048112905E-3  
 2.043000000000000E10    1.082863259555551E-3  -2.661676673564629E-3  
 2.043200000000000E10    6.474306302834354E-4  -2.751633896622191E-3  
 2.043400000000000E10    2.194323049683953E-4  -2.817783331421226E-3  
 2.043600000000000E10   -2.279039109955163E-4  -2.869435159751649E-3  
 2.043800000000000E10   -7.495588528847792E-4  -2.852836976190543E-3  
 2.044000000000000E10   -1.312634788677123E-3  -2.697657637880237E-3  
 2.044200000000000E10   -1.832116203443972E-3  -2.371773076008763E-3  
 2.044400000000000E10   -2.218395336857568E-3  -1.920688730928321E-3  
 2.044600000000000E10   -2.475016580281303E-3  -1.444218380585572E-3  
 2.044800000000000E10   -2.604770133645505E-3  -9.566988164234337E-4  
 2.045000000000000E10   -2.657161364086130E-3  -5.055927232681994E-4  
 2.045200000000000E10   -2.669476618043626E-3  -8.903818417366884E-5  
 2.045400000000000E10   -2.646370499645996E-3   3.297762701923498E-4  
 2.045600000000000E10   -2.566840625876981E-3   7.514522147065513E-4  
 2.045800000000000E10   -2.427302007525835E-3   1.187117750356523E-3  
 2.046000000000000E10   -2.185442455680902E-3   1.624171522693024E-3  
 2.046200000000000E10   -1.832258609854485E-3   1.995618836668049E-3  
 2.046400000000000E10   -1.421321479426745E-3   2.256809384243533E-3  
 2.046600000000000E10   -9.866055181783767E-4   2.422255278967393E-3  
 2.046800000000000E10   -5.783880317398760E-4   2.520164182156073E-3  
 2.047000000000000E10   -1.513084059769792E-4   2.587966396895175E-3  
 2.047200000000000E10    3.187763646753003E-4   2.575526999470197E-3  
 2.047400000000000E10    7.860068196127888E-4   2.433030579088205E-3  
 2.047600000000000E10    1.162464797052255E-3   2.203163767460144E-3  
 2.047800000000000E10    1.461684818253028E-3   1.949940759216929E-3  
 2.048000000000000E10    1.718489477374290E-3   1.677730057423497E-3  
 2.048200000000000E10    1.948431986288116E-3   1.410397357228635E-3  
 2.048400000000000E10    2.186968060012633E-3   1.080085801390803E-3  
 2.048600000000000E10    2.344887522661206E-3   6.685955519405303E-4  
 2.048800000000000E10    2.393499228085980E-3   2.502093994951172E-4  
 2.049000000000000E10    2.370733731710950E-3  -1.287901816742862E-4  
 2.049200000000000E10    2.316221286861593E-3  -4.830858087130956E-4  
 2.049400000000000E10    2.245454501703231E-3  -8.440117760491851E-4  
 2.049600000000000E10    2.104275427254785E-3  -1.243226930024765E-3  
 2.049800000000000E10    1.861951160156350E-3  -1.612718488359008E-3  
 2.050000000000000E10    1.532242450420553E-3  -1.925058674587360E-3  
 2.050200000000000E10    1.165640095344341E-3  -2.142754039859647E-3  
 2.050400000000000E10    7.898407239068879E-4  -2.308161880940719E-3  
 2.050600000000000E10    3.728261019582064E-4  -2.425306804055379E-3  
 2.050800000000000E10   -8.284985676497123E-5  -2.449762318331097E-3  
 2.051000000000000E10   -5.345849966641033E-4  -2.352955335798115E-3  
 2.051200000000000E10   -9.110890681460553E-4  -2.168969563570644E-3  
 2.051400000000000E10   -1.216130566852562E-3  -1.962114826392523E-3  
 2.051600000000000E10   -1.494855247043787E-3  -1.734779476976413E-3  
 2.051800000000000E10   -1.748801977011221E-3  -1.475924954471427E-3  
 2.052000000000000E10   -1.983314069057209E-3  -1.181016794358544E-3  
 2.052200000000000E10   -2.176903650935079E-3  -8.060504356907231E-4  
 2.052400000000000E10   -2.263853290642673E-3  -4.081531138063874E-4  
 2.052600000000000E10   -2.269781630923612E-3  -3.972016665923906E-6  
 2.052800000000000E10   -2.207190635627064E-3   3.756010733064615E-4  
 2.053000000000000E10   -2.082433414127991E-3   7.140858385821614E-4  
 2.053200000000000E10   -1.943091032005650E-3   1.030673802309561E-3  
 2.053400000000000E10   -1.738775982162804E-3   1.352134098722939E-3  
 2.053600000000000E10   -1.457370270737734E-3   1.639638953732462E-3  
 2.053800000000000E10   -1.106026597894621E-3   1.840110756415408E-3  
 2.054000000000000E10   -7.602153436501643E-4   1.934011270703829E-3  
 2.054200000000000E10   -4.539317985038086E-4   1.981145182188681E-3  
 2.054400000000000E10   -1.556576523576018E-4   2.005491587372523E-3  
 2.054600000000000E10    1.603084481892993E-4   1.999586537493746E-3  
 2.054800000000000E10    4.832367938379169E-4   1.934323536190194E-3  
 2.055000000000000E10    7.794155068781734E-4   1.797664913718176E-3  
 2.055200000000000E10    1.025816425664518E-3   1.615464102319408E-3  
 2.055400000000000E10    1.219793531429998E-3   1.431696107291027E-3  
 2.055600000000000E10    1.410340850919904E-3   1.243567157341336E-3  
