#  HZ   S   RI   R     50.00 
! Rohde & Schwarz ZVA40 4Ports - Version 3.90 - 1145.1110k42 SN: 100403
! Date: 2023-09-28 11:01:33
! Measurement: S12 
! 
 2.000000000000000E10    1.638035086158739E-3  -2.116431508787037E-3  
 2.000200000000000E10    1.260556752679649E-3  -2.471045068673980E-3  
 2.000400000000000E10    7.187508470182928E-4  -2.658649021489928E-3  
 2.000600000000000E10    2.261471997854519E-4  -2.677967061685117E-3  
 2.000800000000000E10   -1.973977476111992E-4  -2.646722709927569E-3  
 2.001000000000000E10   -6.240250738843683E-4  -2.578534315023819E-3  
 2.001200000000000E10   -1.027943125426017E-3  -2.438218685071714E-3  
 2.001400000000000E10   -1.417226996606381E-3  -2.272191695639581E-3  
 2.001600000000000E10   -1.820710777362414E-3  -2.038035131826250E-3  
 2.001800000000000E10   -2.169792149978199E-3  -1.707480068649570E-3  
 2.002000000000000E10   -2.463569593261102E-3  -1.327448791858775E-3  
 2.002200000000000E10   -2.705212035272461E-3  -8.219101172600768E-4  
 2.002400000000000E10   -2.811525465615095E-3  -3.188728940399000E-4  
 2.002600000000000E10   -2.851330643707699E-3   1.750849580925684E-4  
 2.002800000000000E10   -2.805251533410010E-3   7.334206899651608E-4  
 2.003000000000000E10   -2.581591349614069E-3   1.255549524483910E-3  
 2.003200000000000E10   -2.270909118744440E-3   1.654078637293346E-3  
 2.003400000000000E10   -1.944785028168865E-3   1.998982903833043E-3  
 2.003600000000000E10   -1.558804292806121E-3   2.301780784867717E-3  
 2.003800000000000E10   -1.117820938341655E-3   2.496358941389639E-3  
 2.004000000000000E10   -6.926520540557986E-4   2.606417474282557E-3  
 2.004200000000000E10   -2.837393729988815E-4   2.672327236658353E-3  
 2.004400000000000E10    1.483155261881012E-4   2.711946145622715E-3  
 2.004600000000000E10    6.036729757108943E-4   2.651741555400081E-3  
 2.004800000000000E10    1.025263297823956E-3   2.528660692503959E-3  
 2.005000000000000E10    1.450058526063963E-3   2.347813828375189E-3  
 2.005200000000000E10    1.825554011288972E-3   2.080945967574674E-3  
 2.005400000000000E10    2.146124617420756E-3   1.786090032274329E-3  
 2.005600000000000E10    2.485864355527359E-3   1.435748000303191E-3  
 2.005800000000000E10    2.754920087560258E-3   9.726760592948970E-4  
 2.006000000000000E10    2.912206319874050E-3   4.587516489214719E-4  
 2.006200000000000E10    2.981639383749683E-3  -7.374127954902458E-5  
 2.006400000000000E10    2.930987712618710E-3  -6.280812246540005E-4  
 2.006600000000000E10    2.748111528289803E-3  -1.168782111449513E-3  
 2.006800000000000E10    2.464709671485628E-3  -1.634318364975468E-3  
 2.007000000000000E10    2.114248138130895E-3  -2.019757338882009E-3  
 2.007200000000000E10    1.735848251435945E-3  -2.333409867953919E-3  
 2.007400000000000E10    1.298568723645221E-3  -2.574091984911268E-3  
 2.007600000000000E10    8.640504929428273E-4  -2.729451237750311E-3  
 2.007800000000000E10    4.227154113015456E-4  -2.834323073368684E-3  
 2.008000000000000E10   -3.689601190010606E-5  -2.888436737727114E-3  
 2.008200000000000E10   -5.188277852741030E-4  -2.874077014702293E-3  
 2.008400000000000E10   -9.961568776541813E-4  -2.788898983380916E-3  
 2.008600000000000E10   -1.501703655422887E-3  -2.630522225278952E-3  
 2.008800000000000E10   -2.002597331080624E-3  -2.352740122549006E-3  
 2.009000000000000E10   -2.437722943633775E-3  -1.923524157916754E-3  
 2.009200000000000E10   -2.718628685422625E-3  -1.411490437988180E-3  
 2.009400000000000E10   -2.865612430888646E-3  -9.092192727207374E-4  
 2.009600000000000E10   -2.950882413315962E-3  -4.564126966754791E-4  
 2.009800000000000E10   -3.023949768821497E-3   1.100550180387057E-5  
 2.010000000000000E10   -3.042447292926567E-3   5.425914200149151E-4  
 2.010200000000000E10   -2.951686445273308E-3   1.106352613704565E-3  
 2.010400000000000E10   -2.711627555798443E-3   1.668710856559486E-3  
 2.010600000000000E10   -2.320954843707164E-3   2.147919823942348E-3  
 2.010800000000000E10   -1.864917758503619E-3   2.491449618550531E-3  
 2.011000000000000E10   -1.397700762219904E-3   2.733794243573618E-3  
 2.011200000000000E10   -9.360731305988731E-4   2.895836257616380E-3  
 2.011400000000000E10   -4.783908599152830E-4   3.023665444279563E-3  
 2.011600000000000E10    2.332918389742522E-5   3.130906598737291E-3  
 2.011800000000000E10    6.135504915137108E-4   3.139784948865140E-3  
 2.012000000000000E10    1.217116921077781E-3   2.994848909483923E-3  
 2.012200000000000E10    1.764984328990056E-3   2.712099003713284E-3  
 2.012400000000000E10    2.236335202939428E-3   2.304845595064607E-3  
 2.012600000000000E10    2.592727340605395E-3   1.819725708773815E-3  
 2.012800000000000E10    2.836829020040310E-3   1.300629857326268E-3  
 2.013000000000000E10    2.965246250001537E-3   7.636439713099119E-4  
 2.013200000000000E10    2.972724067560808E-3   2.358102630398716E-4  
 2.013400000000000E10    2.895472056088032E-3  -2.264245232459346E-4  
 2.013600000000000E10    2.805105613963615E-3  -6.334770312248177E-4  
 2.013800000000000E10    2.692929618059170E-3  -1.053909305101617E-3  
 2.014000000000000E10    2.498323374482222E-3  -1.473795073886181E-3  
 2.014200000000000E10    2.261940223082385E-3  -1.858292656401739E-3  
 2.014400000000000E10    1.966694011066931E-3  -2.232799141106663E-3  
 2.014600000000000E10    1.595962342960601E-3  -2.575295255487511E-3  
 2.014800000000000E10    1.140251960510278E-3  -2.878144605508544E-3  
 2.015000000000000E10    5.788260427839610E-4  -3.082206115825564E-3  
 2.015200000000000E10   -1.541509134920457E-5  -3.131172673310021E-3  
 2.015400000000000E10   -5.832262742789479E-4  -3.043869359934307E-3  
 2.015600000000000E10   -1.086817818258462E-3  -2.866855269082765E-3  
 2.015800000000000E10   -1.552037792043973E-3  -2.609956551664290E-3  
 2.016000000000000E10   -1.958530895224455E-3  -2.287078857930902E-3  
 2.016200000000000E10   -2.286152484489049E-3  -1.920610905493341E-3  
 2.016400000000000E10   -2.553963329127172E-3  -1.513767087307027E-3  
 2.016600000000000E10   -2.753352261401203E-3  -1.084631756884216E-3  
 2.016800000000000E10   -2.905846911923547E-3  -6.434562672084322E-4  
 2.017000000000000E10   -3.009429368272941E-3  -1.459353964268442E-4  
 2.017200000000000E10   -2.987323132431741E-3   3.869164648676677E-4  
 2.017400000000000E10   -2.855785322929052E-3   8.693772494981589E-4  
 2.017600000000000E10   -2.698763115171129E-3   1.305549989632310E-3  
 2.017800000000000E10   -2.484377790279341E-3   1.748688783628063E-3  
 2.018000000000000E10   -2.194938017197341E-3   2.172094107054900E-3  
 2.018200000000000E10   -1.805752265821950E-3   2.581010099392254E-3  
 2.018400000000000E10   -1.303190464531327E-3   2.879225071636011E-3  
 2.018600000000000E10   -7.686286157671623E-4   3.065890995921865E-3  
 2.018800000000000E10   -2.012300295256319E-4   3.151823088833051E-3  
 2.019000000000000E10    3.610098299879049E-4   3.113823768492142E-3  
 2.019200000000000E10    8.906487863728881E-4   2.982754709177495E-3  
 2.019400000000000E10    1.374127760003884E-3   2.747369127324218E-3  
 2.019600000000000E10    1.767131344264357E-3   2.458026921176439E-3  
 2.019800000000000E10    2.101122313717770E-3   2.159115693006297E-3  
 2.020000000000000E10    2.431926895526329E-3   1.840071303365678E-3  
 2.020200000000000E10    2.750380365997031E-3   1.449366449857506E-3  
 2.020400000000000E10    2.995209920512065E-3   9.769374518205976E-4  
 2.020600000000000E10    3.184088048163329E-3   4.548945432273205E-4  
 2.020800000000000E10    3.270938765666976E-3  -1.398060665523700E-4  
 2.021000000000000E10    3.215177042121340E-3  -7.614189224248685E-4  
 2.021200000000000E10    3.009059566211236E-3  -1.360953254148965E-3  
 2.021400000000000E10    2.676296472752993E-3  -1.891364425883087E-3  
 2.021600000000000E10    2.247664219760980E-3  -2.304138388645686E-3  
 2.021800000000000E10    1.793400387200483E-3  -2.617044886070234E-3  
 2.022000000000000E10    1.291784149320077E-3  -2.853175477969201E-3  
 2.022200000000000E10    7.836419163663421E-4  -2.973011930518147E-3  
 2.022400000000000E10    3.197014480614898E-4  -2.999148167774248E-3  
 2.022600000000000E10   -1.172994665445484E-4  -3.022087157172056E-3  
 2.022800000000000E10   -6.101960663097751E-4  -3.018352174433055E-3  
 2.023000000000000E10   -1.122038119678105E-3  -2.897754726831238E-3  
 2.023200000000000E10   -1.622394935974295E-3  -2.680793006591711E-3  
 2.023400000000000E10   -2.078495823144130E-3  -2.366796738756692E-3  
 2.023600000000000E10   -2.483176908479495E-3  -1.956242324348333E-3  
 2.023800000000000E10   -2.783410361292450E-3  -1.462240097089675E-3  
 2.024000000000000E10   -2.939270366449690E-3  -9.088174863611282E-4  
 2.024200000000000E10   -2.950903665171612E-3  -3.988393280453083E-4  
 2.024400000000000E10   -2.905917610606042E-3   1.563742998740049E-5  
 2.024600000000000E10   -2.872282298328064E-3   3.963180010217573E-4  
 2.024800000000000E10   -2.849745715905428E-3   8.114837465001956E-4  
 2.025000000000000E10   -2.757739255821137E-3   1.286590011986851E-3  
 2.025200000000000E10   -2.551783649977641E-3   1.786160116214371E-3  
 2.025400000000000E10   -2.205993300875869E-3   2.220953519574900E-3  
 2.025600000000000E10   -1.809271404050113E-3   2.565729454413257E-3  
 2.025800000000000E10   -1.392776687637896E-3   2.874146603775192E-3  
 2.026000000000000E10   -8.637660804994302E-4   3.135524928624302E-3  
 2.026200000000000E10   -2.469291450465935E-4   3.251077112016555E-3  
 2.026400000000000E10    3.536484816020850E-4   3.199250115983892E-3  
 2.026600000000000E10    8.867960032429806E-4   3.035205470215240E-3  
 2.026800000000000E10    1.346911505442990E-3   2.787468936183598E-3  
 2.027000000000000E10    1.717238507432004E-3   2.523516147831679E-3  
 2.027200000000000E10    2.061593726754582E-3   2.239980100021119E-3  
 2.027400000000000E10    2.380447101120217E-3   1.936159458058516E-3  
 2.027600000000000E10    2.701227898797343E-3   1.583036579475724E-3  
 2.027800000000000E10    2.998395586279011E-3   1.145553163139496E-3  
 2.028000000000000E10    3.231796532181742E-3   6.256653359420304E-4  
 2.028200000000000E10    3.347356606939445E-3   3.637085885958975E-6  
 2.028400000000000E10    3.296104651317796E-3  -6.232543235699776E-4  
 2.028600000000000E10    3.114964955793960E-3  -1.216055919730522E-3  
 2.028800000000000E10    2.811067579402121E-3  -1.744847765392253E-3  
 2.029000000000000E10    2.421166717821886E-3  -2.179906486954176E-3  
 2.029200000000000E10    1.997462360109158E-3  -2.507771119135257E-3  
 2.029400000000000E10    1.533728945592095E-3  -2.749368378942507E-3  
 2.029600000000000E10    1.096076220372626E-3  -2.909096599445929E-3  
 2.029800000000000E10    6.661563764379932E-4  -3.040151127410102E-3  
 2.030000000000000E10    1.967575328447888E-4  -3.158451354039121E-3  
 2.030200000000000E10   -3.343973342656313E-4  -3.198101280935335E-3  
 2.030400000000000E10   -8.800031630218858E-4  -3.103295125195272E-3  
 2.030600000000000E10   -1.369677387013852E-3  -2.912593189617848E-3  
 2.030800000000000E10   -1.841806065476551E-3  -2.699249372371150E-3  
 2.031000000000000E10   -2.327978550132113E-3  -2.379367395054741E-3  
 2.031200000000000E10   -2.740129501688155E-3  -1.926628847627347E-3  
 2.031400000000000E10   -3.033802230764199E-3  -1.395335628707436E-3  
 2.031600000000000E10   -3.204602710042485E-3  -8.553918902643710E-4  
 2.031800000000000E10   -3.279679424699066E-3  -3.147450137594631E-4  
 2.032000000000000E10   -3.294058977754728E-3   2.330863617742505E-4  
 2.032200000000000E10   -3.199234498125902E-3   8.070083439586900E-4  
 2.032400000000000E10   -2.972062529270399E-3   1.323178639244235E-3  
 2.032600000000000E10   -2.687784809221166E-3   1.762226985125452E-3  
 2.032800000000000E10   -2.358557952369492E-3   2.165976250765630E-3  
 2.033000000000000E10   -1.959353110559525E-3   2.503424253632130E-3  
 2.033200000000000E10   -1.531356747119238E-3   2.744253821799615E-3  
 2.033400000000000E10   -1.130528962927363E-3   2.930556994878044E-3  
 2.033600000000000E10   -9.827542281720259E-4   3.019962409801352E-3  
 2.033800000000000E10   -1.752759789944700E-4   3.229628271208797E-3  
 2.034000000000000E10    3.759549949313558E-4   3.288359397298643E-3  
 2.034200000000000E10    9.567974504664533E-4   3.219260199826153E-3  
 2.034400000000000E10    1.527124712192008E-3   3.028419464182139E-3  
 2.034600000000000E10    2.036080218139271E-3   2.696654810200406E-3  
 2.034800000000000E10    2.450238047413230E-3   2.314273282817985E-3  
 2.035000000000000E10    2.830424409658069E-3   1.908698520936712E-3  
 2.035200000000000E10    3.179735418886340E-3   1.388159161657146E-3  
 2.035400000000000E10    3.382663657824042E-3   7.495483018250221E-4  
 2.035600000000000E10    3.399618869657888E-3   1.286062495988442E-4  
 2.035800000000000E10    3.306129888396196E-3  -4.175256861595862E-4  
 2.036000000000000E10    3.178070674212745E-3  -9.039614057616072E-4  
 2.036200000000000E10    3.035111666542479E-3  -1.392448273236993E-3  
 2.036400000000000E10    2.808378117540566E-3  -1.902912388306019E-3  
 2.036600000000000E10    2.464589843337124E-3  -2.380166371169716E-3  
 2.036800000000000E10    2.047225778608449E-3  -2.788770812187578E-3  
 2.037000000000000E10    1.530245225567833E-3  -3.142233215533044E-3  
 2.037200000000000E10    9.407370055541217E-4  -3.393718377719544E-3  
 2.037400000000000E10    3.220642303916711E-4  -3.506974146192228E-3  
 2.037600000000000E10   -3.184120561413705E-4  -3.513840855670036E-3  
 2.037800000000000E10   -9.747318585068693E-4  -3.380976139822307E-3  
 2.038000000000000E10   -1.563070372321624E-3  -3.076237009395630E-3  
 2.038200000000000E10   -2.012029362131564E-3  -2.680600764138480E-3  
 2.038400000000000E10   -2.350050257873759E-3  -2.281153079363902E-3  
 2.038600000000000E10   -2.630560596627813E-3  -1.884726808060627E-3  
 2.038800000000000E10   -2.872726130172227E-3  -1.464468813971147E-3  
 2.039000000000000E10   -3.079588359201660E-3  -1.045678237603852E-3  
 2.039200000000000E10   -3.281971354727677E-3  -5.535913866404074E-4  
 2.039400000000000E10   -3.390445450356044E-3   4.386186567079464E-5  
 2.039600000000000E10   -3.338643820585014E-3   6.566263518273188E-4  
 2.039800000000000E10   -3.166606248255762E-3   1.218115444960278E-3  
 2.040000000000000E10   -2.923101403542809E-3   1.741759388110260E-3  
 2.040200000000000E10   -2.583413172535675E-3   2.220803724124635E-3  
 2.040400000000000E10   -2.157829882458677E-3   2.640072738631397E-3  
 2.040600000000000E10   -1.679821879187913E-3   2.980780663809657E-3  
 2.040800000000000E10   -1.128272115093362E-3   3.228152682323386E-3  
 2.041000000000000E10   -5.334807447034449E-4   3.356238692968226E-3  
 2.041200000000000E10    3.874693848554528E-5   3.372870331706480E-3  
 2.041400000000000E10    5.876405451228457E-4   3.313992679270428E-3  
 2.041600000000000E10    1.139244305787813E-3   3.199764158669845E-3  
 2.041800000000000E10    1.706280731832397E-3   2.976563840839348E-3  
 2.042000000000000E10    2.213883769426326E-3   2.609763451240250E-3  
 2.042200000000000E10    2.612589430924170E-3   2.145887808180123E-3  
 2.042400000000000E10    2.900653091401108E-3   1.649795226249410E-3  
 2.042600000000000E10    3.100041043096517E-3   1.135267778272069E-3  
 2.042800000000000E10    3.206856790133703E-3   6.113979906930207E-4  
 2.043000000000000E10    3.255647118774685E-3   1.221032459327694E-4  
 2.043200000000000E10    3.272166196583357E-3  -3.830628906334574E-4  
 2.043400000000000E10    3.234863822321305E-3  -9.416264342715475E-4  
 2.043600000000000E10    3.081778285667503E-3  -1.533043151057751E-3  
 2.043800000000000E10    2.765253455430779E-3  -2.110752769175397E-3  
 2.044000000000000E10    2.311112451716415E-3  -2.601964019116590E-3  
 2.044200000000000E10    1.754562032305107E-3  -2.953385487699908E-3  
 2.044400000000000E10    1.174889879120632E-3  -3.150923254429407E-3  
 2.044600000000000E10    6.285776712731830E-4  -3.241190405338526E-3  
 2.044800000000000E10    1.130920156575041E-4  -3.255673746991891E-3  
 2.045000000000000E10   -3.837071682764123E-4  -3.238930573326125E-3  
 2.045200000000000E10   -8.957206035670786E-4  -3.172389805057728E-3  
 2.045400000000000E10   -1.440665689165009E-3  -3.009794687963268E-3  
 2.045600000000000E10   -1.965540743648275E-3  -2.744329690983194E-3  
 2.045800000000000E10   -2.450543752664352E-3  -2.365877396722206E-3  
 2.046000000000000E10   -2.843773551306560E-3  -1.869786463378657E-3  
 2.046200000000000E10   -3.107133362132241E-3  -1.318751343191942E-3  
 2.046400000000000E10   -3.249285981823325E-3  -7.571519624308858E-4  
 2.046600000000000E10   -3.304772979901096E-3  -2.112397668026405E-4  
 2.046800000000000E10   -3.313805504796144E-3   3.366309657110283E-4  
 2.047000000000000E10   -3.227634511604415E-3   9.195939297577053E-4  
 2.047200000000000E10   -2.994124650074554E-3   1.495786486426333E-3  
 2.047400000000000E10   -2.647089716105248E-3   1.969149451161443E-3  
 2.047600000000000E10   -2.277879894399785E-3   2.335177751173131E-3  
 2.047800000000000E10   -1.883420880817643E-3   2.667140321919065E-3  
 2.048000000000000E10   -1.444503466420261E-3   2.961017264690858E-3  
 2.048200000000000E10   -9.291802826076333E-4   3.206521671604904E-3  
 2.048400000000000E10   -3.328472840972117E-4   3.337958322562854E-3  
 2.048600000000000E10    2.501397066785795E-4   3.322166038153024E-3  
 2.048800000000000E10    7.833009967756455E-4   3.230368180379029E-3  
 2.049000000000000E10    1.307622520783239E-3   3.099303883393227E-3  
 2.049200000000000E10    1.850359541109359E-3   2.877699323166023E-3  
 2.049400000000000E10    2.394296630918628E-3   2.531591578592691E-3  
 2.049600000000000E10    2.837805888880851E-3   2.033738252766303E-3  
 2.049800000000000E10    3.148824168608216E-3   1.475789392411861E-3  
 2.050000000000000E10    3.337814556968477E-3   8.812941056026087E-4  
 2.050200000000000E10    3.422573145890330E-3   2.854401212177957E-4  
 2.050400000000000E10    3.421641264039546E-3  -3.173131883818492E-4  
 2.050600000000000E10    3.300885126118746E-3  -9.242250264185498E-4  
 2.050800000000000E10    3.058782210922748E-3  -1.480609118357026E-3  
 2.051000000000000E10    2.732605841333032E-3  -1.944736758909349E-3  
 2.051200000000000E10    2.366047072630433E-3  -2.342181778742142E-3  
 2.051400000000000E10    1.972158407306135E-3  -2.714314321743038E-3  
 2.051600000000000E10    1.491479437731262E-3  -3.050986072069838E-3  
 2.051800000000000E10    9.355708652541056E-4  -3.307019601214205E-3  
 2.052000000000000E10    3.062696365234731E-4  -3.434880153901877E-3  
 2.052200000000000E10   -3.347431856980175E-4  -3.404864824300775E-3  
 2.052400000000000E10   -9.115809212790654E-4  -3.251578876283943E-3  
 2.052600000000000E10   -1.430882908685783E-3  -3.027573751742463E-3  
 2.052800000000000E10   -1.914340622139412E-3  -2.727548577881654E-3  
 2.053000000000000E10   -2.337703199087927E-3  -2.360810872672401E-3  
 2.053200000000000E10   -2.717624295439309E-3  -1.938423174875579E-3  
 2.053400000000000E10   -3.012762234782305E-3  -1.416311170577219E-3  
 2.053600000000000E10   -3.192025767423518E-3  -8.525872849197110E-4  
 2.053800000000000E10   -3.246041423708004E-3  -3.056961802107513E-4  
 2.054000000000000E10   -3.231458576390998E-3   2.149869262542752E-4  
 2.054200000000000E10   -3.167426460860487E-3   7.278563540998517E-4  
 2.054400000000000E10   -3.013022517120545E-3   1.261163205851618E-3  
 2.054600000000000E10   -2.742516116604364E-3   1.779216083523663E-3  
 2.054800000000000E10   -2.375520899425696E-3   2.218088063936198E-3  
 2.055000000000000E10   -1.957494599050267E-3   2.545411314656585E-3  
 2.055200000000000E10   -1.524951148723834E-3   2.807257200238241E-3  
 2.055400000000000E10   -1.077596824604838E-3   3.029562703204197E-3  
 2.055600000000000E10   -5.708008616115978E-4   3.196058037739507E-3  
