#  HZ   S   RI   R     50.00 
! Rohde & Schwarz ZVA40 4Ports - Version 3.90 - 1145.1110k42 SN: 100403
! Date: 2023-10-03 12:17:26
! Measurement: S12 
! 
 2.000000000000000E10   -1.621533229797619E-3   1.516684014522643E-3  
 2.000200000000000E10   -1.091693808255648E-3   2.059512878020789E-3  
 2.000400000000000E10   -4.402674414090996E-4   2.103972504559307E-3  
 2.000600000000000E10   -1.188395806282104E-4   2.007238055222933E-3  
 2.000800000000000E10    2.190633310453484E-4   2.056052392337150E-3  
 2.001000000000000E10    6.217619966152183E-4   1.898143147290857E-3  
 2.001200000000000E10    7.570193660801945E-4   1.697978710491257E-3  
 2.001400000000000E10    8.315953410253573E-4   1.768248201704320E-3  
 2.001600000000000E10    1.216520809706439E-3   1.987664572273692E-3  
 2.001800000000000E10    1.930856285329311E-3   1.982967803300715E-3  
 2.002000000000000E10    2.714170884616949E-3   1.501367139963456E-3  
 2.002200000000000E10    3.167216467705590E-3   5.836752315201326E-4  
 2.002400000000000E10    3.188048633114424E-3  -3.590357966324384E-4  
 2.002600000000000E10    2.857484642048309E-3  -1.194830663375741E-3  
 2.002800000000000E10    2.235300051347341E-3  -1.775497283188649E-3  
 2.003000000000000E10    1.561495190900233E-3  -1.940048420456825E-3  
 2.003200000000000E10    1.138550485196857E-3  -1.866458072959457E-3  
 2.003400000000000E10    9.448894128536830E-4  -1.787461226886530E-3  
 2.003600000000000E10    8.956496388203017E-4  -1.928846817463637E-3  
 2.003800000000000E10    5.859376591009399E-4  -2.281528063992292E-3  
 2.004000000000000E10   -2.872412219010496E-5  -2.369946955392758E-3  
 2.004200000000000E10   -5.025018694994535E-4  -2.099771555628122E-3  
 2.004400000000000E10   -6.981967182335572E-4  -1.846629212162010E-3  
 2.004600000000000E10   -9.163587640131607E-4  -1.689165975772029E-3  
 2.004800000000000E10   -1.078964361955447E-3  -1.344940546083690E-3  
 2.005000000000000E10   -8.536178566929367E-4  -1.114184054097644E-3  
 2.005200000000000E10   -6.824347354402698E-4  -1.431755373760322E-3  
 2.005400000000000E10   -1.132640356692359E-3  -1.863798908429382E-3  
 2.005600000000000E10   -1.902104437316734E-3  -1.769608790687297E-3  
 2.005800000000000E10   -2.462024754488174E-3  -1.278526126694532E-3  
 2.006000000000000E10   -2.798031567147485E-3  -6.329207134973488E-4  
 2.006200000000000E10   -2.890241136889399E-3   1.314186354894996E-4  
 2.006400000000000E10   -2.568162856968465E-3   8.978410135310742E-4  
 2.006600000000000E10   -1.899991989319708E-3   1.218871755330007E-3  
 2.006800000000000E10   -1.472165251875090E-3   9.975390189706729E-4  
 2.007000000000000E10   -1.590004820307648E-3   7.297481104076185E-4  
 2.007200000000000E10   -2.002337361099544E-3   8.561752117123962E-4  
 2.007400000000000E10   -2.345513598418531E-3   1.436500173395523E-3  
 2.007600000000000E10   -2.284155365217615E-3   2.353312717865647E-3  
 2.007800000000000E10   -1.665307437414649E-3   3.198730368397119E-3  
 2.008000000000000E10   -7.185674168997342E-4   3.666677940521896E-3  
 2.008200000000000E10    3.194640236791730E-4   3.740694080651911E-3  
 2.008400000000000E10    1.299501938549917E-3   3.318000527351728E-3  
 2.008600000000000E10    1.731579841608987E-3   2.581108643178955E-3  
 2.008800000000000E10    1.768939119453232E-3   2.175912735293861E-3  
 2.009000000000000E10    1.939156581360249E-3   2.089917271708449E-3  
 2.009200000000000E10    2.401723273466399E-3   1.897213342427104E-3  
 2.009400000000000E10    2.762022077531359E-3   1.421608602812077E-3  
 2.009600000000000E10    3.006802337175167E-3   1.005714923074400E-3  
 2.009800000000000E10    3.407879551458690E-3   4.379096445282577E-4  
 2.010000000000000E10    3.513314950935267E-3  -5.479383355661952E-4  
 2.010200000000000E10    3.020960001136970E-3  -1.412904771033353E-3  
 2.010400000000000E10    2.399801365732227E-3  -1.810829406661660E-3  
 2.010600000000000E10    1.873004506054668E-3  -2.000136194566702E-3  
 2.010800000000000E10    1.417133520230835E-3  -2.075189339387933E-3  
 2.011000000000000E10    1.047722827844368E-3  -2.023710489824966E-3  
 2.011200000000000E10    8.883162180283740E-4  -1.963868262936120E-3  
 2.011400000000000E10    7.822395066650195E-4  -2.081089342633883E-3  
 2.011600000000000E10    5.264787203172384E-4  -2.302839121792788E-3  
 2.011800000000000E10    1.313471755251450E-4  -2.487458581863731E-3  
 2.012000000000000E10   -4.480502354038627E-4  -2.561506401333544E-3  
 2.012200000000000E10   -1.095393445503749E-3  -2.227696026732892E-3  
 2.012400000000000E10   -1.328149423819541E-3  -1.617246340488854E-3  
 2.012600000000000E10   -1.132094824433695E-3  -1.225721605559006E-3  
 2.012800000000000E10   -9.465790799255542E-4  -1.242509262670798E-3  
 2.013000000000000E10   -1.019081496058699E-3  -1.405583458872122E-3  
 2.013200000000000E10   -1.309107097992559E-3  -1.503727799798880E-3  
 2.013400000000000E10   -1.706025939733710E-3  -1.467502658703813E-3  
 2.013600000000000E10   -2.184314975216065E-3  -1.198239808465228E-3  
 2.013800000000000E10   -2.505018257961413E-3  -6.979421818812873E-4  
 2.014000000000000E10   -2.603795080457205E-3  -1.313692461993879E-4  
 2.014200000000000E10   -2.492696202049653E-3   3.829812839408808E-4  
 2.014400000000000E10   -2.261901458288417E-3   7.400956740717831E-4  
 2.014600000000000E10   -2.076694908563370E-3   8.976997959967935E-4  
 2.014800000000000E10   -2.111302832440462E-3   1.036000134779807E-3  
 2.015000000000000E10   -2.247259891764434E-3   1.426206469064418E-3  
 2.015200000000000E10   -2.214332479109735E-3   2.061220791397824E-3  
 2.015400000000000E10   -1.847951363967617E-3   2.825918690772888E-3  
 2.015600000000000E10   -1.069995601960447E-3   3.459442090703014E-3  
 2.015800000000000E10    2.629313106202366E-5   3.736814883549089E-3  
 2.016000000000000E10    1.189467541723984E-3   3.415848174488839E-3  
 2.016200000000000E10    1.880755081749809E-3   2.624754934790142E-3  
 2.016400000000000E10    2.122106858425670E-3   1.893765788904771E-3  
 2.016600000000000E10    2.171122170064921E-3   1.281558778884326E-3  
 2.016800000000000E10    2.017777811241463E-3   8.174318735441770E-4  
 2.017000000000000E10    1.857837995537270E-3   6.452947201057810E-4  
 2.017200000000000E10    1.942318810989368E-3   5.570190152394828E-4  
 2.017400000000000E10    2.152402896756007E-3   2.316601849649746E-4  
 2.017600000000000E10    2.150920998696008E-3  -2.528982203565883E-4  
 2.017800000000000E10    1.998442223720989E-3  -6.586515767223858E-4  
 2.018000000000000E10    1.761909697871702E-3  -1.076440548202322E-3  
 2.018200000000000E10    1.275976290523914E-3  -1.410111579411652E-3  
 2.018400000000000E10    7.000617851089273E-4  -1.326769702481451E-3  
 2.018600000000000E10    4.957961112571260E-4  -9.962033881391918E-4  
 2.018800000000000E10    5.926429200630039E-4  -8.365227380928435E-4  
 2.019000000000000E10    7.083809181449959E-4  -9.080004529096186E-4  
 2.019200000000000E10    7.099601652841142E-4  -1.128044390453049E-3  
 2.019400000000000E10    5.209245065077680E-4  -1.388781518606400E-3  
 2.019600000000000E10    1.804554007838216E-4  -1.493900011144119E-3  
 2.019800000000000E10   -1.104509974538814E-4  -1.408763387941836E-3  
 2.020000000000000E10   -2.675081635925942E-4  -1.267947055353427E-3  
 2.020200000000000E10   -3.544177064516892E-4  -1.195353769156852E-3  
 2.020400000000000E10   -4.314491377976712E-4  -1.103969951976597E-3  
 2.020600000000000E10   -3.129573672561458E-4  -1.115181440211557E-3  
 2.020800000000000E10   -3.601439203060934E-4  -1.552480505779386E-3  
 2.021000000000000E10   -1.038147771823002E-3  -1.947017510157125E-3  
 2.021200000000000E10   -1.981463978917879E-3  -1.739058305831327E-3  
 2.021400000000000E10   -2.699617586776983E-3  -9.827538361818888E-4  
 2.021600000000000E10   -2.975960348353342E-3   3.455795370618833E-5  
 2.021800000000000E10   -2.752605055309373E-3   1.133576386182765E-3  
 2.022000000000000E10   -1.962295428700286E-3   1.965924255250965E-3  
 2.022200000000000E10   -9.187147535820619E-4   2.137006162723274E-3  
 2.022400000000000E10   -2.782990296161447E-4   1.776716404559988E-3  
 2.022600000000000E10   -2.885274798357804E-5   1.475828998710639E-3  
 2.022800000000000E10    1.330443707878276E-4   1.243618907648380E-3  
 2.023000000000000E10    1.368997630682619E-4   1.040009500021920E-3  
 2.023200000000000E10    8.384038251896541E-5   1.094629232093324E-3  
 2.023400000000000E10    2.850411602807588E-4   1.236752628486742E-3  
 2.023600000000000E10    6.018496401619488E-4   1.175014322255681E-3  
 2.023800000000000E10    8.141428791273985E-4   9.784332223604492E-4  
 2.024000000000000E10    9.258386469158679E-4   8.023953163007529E-4  
 2.024200000000000E10    1.035640211660921E-3   6.630791158610841E-4  
 2.024400000000000E10    1.152307150115110E-3   4.843873141425444E-4  
 2.024600000000000E10    1.251621344299228E-3   3.295029749961594E-4  
 2.024800000000000E10    1.434435638208173E-3   7.714923318686758E-5  
 2.025000000000000E10    1.466723883317577E-3  -3.467290505930713E-4  
 2.025200000000000E10    1.323438248091182E-3  -6.739483114308967E-4  
 2.025400000000000E10    1.228615430321683E-3  -9.836417760837964E-4  
 2.025600000000000E10    9.446168220659466E-4  -1.466114095550169E-3  
 2.025800000000000E10    2.687713867886981E-4  -1.719011945282052E-3  
 2.026000000000000E10   -4.096238156723112E-4  -1.473019930051157E-3  
 2.026200000000000E10   -7.297939270228884E-4  -9.405204198426672E-4  
 2.026400000000000E10   -6.631681455563708E-4  -4.537169624660394E-4  
 2.026600000000000E10   -3.631729528417144E-4  -1.603290167375594E-4  
 2.026800000000000E10    1.110738091405056E-4  -2.068390789151445E-4  
 2.027000000000000E10    3.442243747643115E-4  -7.691043932105842E-4  
 2.027200000000000E10   -6.523277355612397E-5  -1.389312131019930E-3  
 2.027400000000000E10   -8.558665609194174E-4  -1.537742015595238E-3  
 2.027600000000000E10   -1.587912527970786E-3  -1.186018838420695E-3  
 2.027800000000000E10   -2.104366954163085E-3  -5.073569661845673E-4  
 2.028000000000000E10   -2.209954357556539E-3   4.987943052302725E-4  
 2.028200000000000E10   -1.558517440751103E-3   1.386510330413319E-3  
 2.028400000000000E10   -6.160772409876464E-4   1.483873559024047E-3  
 2.028600000000000E10   -1.415659690668870E-4   1.107590268710973E-3  
 2.028800000000000E10    3.229765022780032E-5   7.643220029242429E-4  
 2.029000000000000E10   -5.384796936090831E-5   4.088385389933800E-4  
 2.029200000000000E10   -4.374327786255307E-4   3.363683695450748E-4  
 2.029400000000000E10   -6.821900828925456E-4   7.051531883692485E-4  
 2.029600000000000E10   -5.469423252370577E-4   1.146638076062556E-3  
 2.029800000000000E10   -1.808676431580723E-4   1.427171983250222E-3  
 2.030000000000000E10    2.774979030270774E-4   1.475349485437259E-3  
 2.030200000000000E10    6.124513241013996E-4   1.269361464145743E-3  
 2.030400000000000E10    6.983887424324583E-4   1.125316439558649E-3  
 2.030600000000000E10    8.845263294427208E-4   1.176792722954243E-3  
 2.030800000000000E10    1.260106246286061E-3   1.126368627826005E-3  
 2.031000000000000E10    1.648418274765581E-3   8.235533777796837E-4  
 2.031200000000000E10    1.808901525815420E-3   4.395592783830693E-4  
 2.031400000000000E10    2.033529343244470E-3   1.659711106410135E-4  
 2.031600000000000E10    2.371592096478483E-3  -5.050908233740449E-4  
 2.031800000000000E10    2.100642546321507E-3  -1.480102472950095E-3  
 2.032000000000000E10    1.292544787887622E-3  -2.015721317334676E-3  
 2.032200000000000E10    4.924715821412795E-4  -2.026684038961927E-3  
 2.032400000000000E10   -9.818003857134624E-5  -1.711356292628212E-3  
 2.032600000000000E10   -3.368678419379357E-4  -1.255619047887992E-3  
 2.032800000000000E10   -2.549444641458032E-4  -8.607862070260317E-4  
 2.033000000000000E10    9.172231538859371E-5  -7.943379589253004E-4  
 2.033200000000000E10    2.441398643480361E-4  -1.210380029393199E-3  
 2.033400000000000E10   -1.417150531640093E-4  -1.646026567969885E-3  
 2.033600000000000E10   -5.975314150104461E-4  -1.753196305664326E-3  
 2.033800000000000E10   -1.322691828978283E-3  -1.421364101891717E-3  
 2.034000000000000E10   -1.751635703660640E-3  -8.197736324179045E-4  
 2.034200000000000E10   -1.657876398782304E-3  -1.585673103195236E-5  
 2.034400000000000E10   -1.054705742942055E-3   3.946659943508560E-4  
 2.034600000000000E10   -5.122475508588976E-4   1.978400162633877E-4  
 2.034800000000000E10   -4.281295013591004E-4  -2.401225817861197E-4  
 2.035000000000000E10   -6.955233179780162E-4  -5.020449231924881E-4  
 2.035200000000000E10   -1.098079402804559E-3  -5.389916822659197E-4  
 2.035400000000000E10   -1.513844785671451E-3  -2.643936231048249E-4  
 2.035600000000000E10   -1.655094746649726E-3   2.488278763018043E-4  
 2.035800000000000E10   -1.508961262089419E-3   6.424111089910623E-4  
 2.036000000000000E10   -1.343985539458600E-3   9.064863113985388E-4  
 2.036200000000000E10   -1.100506481174150E-3   1.127423945653402E-3  
 2.036400000000000E10   -8.598174971677823E-4   1.166204255028272E-3  
 2.036600000000000E10   -8.337734716967393E-4   1.116491851316374E-3  
 2.036800000000000E10   -9.783563666896505E-4   1.314588405628816E-3  
 2.037000000000000E10   -9.115227342893680E-4   1.798654262574367E-3  
 2.037200000000000E10   -4.908665238569181E-4   2.271500516705859E-3  
 2.037400000000000E10    1.479445971558619E-4   2.497873214406916E-3  
 2.037600000000000E10    8.529100292592230E-4   2.494860509479488E-3  
 2.037800000000000E10    1.567741252343964E-3   2.148900422509070E-3  
 2.038000000000000E10    1.963449154842507E-3   1.516114066665371E-3  
 2.038200000000000E10    2.009433487223255E-3   9.462741594531655E-4  
 2.038400000000000E10    1.934951418481860E-3   5.747011501951442E-4  
 2.038600000000000E10    1.835326572167285E-3   3.149295951538708E-4  
 2.038800000000000E10    1.765975390882864E-3   2.031232080175139E-4  
 2.039000000000000E10    1.898670684040329E-3   1.256384160642708E-4  
 2.039200000000000E10    2.173153999732968E-3  -1.822906413980053E-4  
 2.039400000000000E10    2.277699799311382E-3  -8.116229925948530E-4  
 2.039600000000000E10    1.972438615206400E-3  -1.459736152793522E-3  
 2.039800000000000E10    1.410680233765348E-3  -1.862993075822791E-3  
 2.040000000000000E10    7.266805156559489E-4  -1.973229489162749E-3  
 2.040200000000000E10    1.311331736225704E-4  -1.623352613001142E-3  
 2.040400000000000E10    6.684247098207754E-5  -1.044002314167166E-3  
 2.040600000000000E10    5.003652743058119E-4  -8.235729104022922E-4  
 2.040800000000000E10    8.815380552047751E-4  -1.165991212114876E-3  
 2.041000000000000E10    8.786456087420201E-4  -1.800950349274057E-3  
 2.041200000000000E10    4.218285827880243E-4  -2.403151218055023E-3  
 2.041400000000000E10   -3.916215507980483E-4  -2.745924802083109E-3  
 2.041600000000000E10   -1.395058272015534E-3  -2.539330558782375E-3  
 2.041800000000000E10   -2.039463377132276E-3  -1.792074309052601E-3  
 2.042000000000000E10   -2.162358691961862E-3  -1.012830241198111E-3  
 2.042200000000000E10   -1.984449120721332E-3  -3.797129967198190E-4  
 2.042400000000000E10   -1.504575481557828E-3  -2.890293277838889E-5  
 2.042600000000000E10   -1.088460795236407E-3  -2.267306171469736E-4  
 2.042800000000000E10   -1.239918226974062E-3  -6.438751782601079E-4  
 2.043000000000000E10   -1.818553947004271E-3  -6.365037327747288E-4  
 2.043200000000000E10   -2.282149946018134E-3  -1.859329073160979E-4  
 2.043400000000000E10   -2.477247940583362E-3   5.155139441751404E-4  
 2.043600000000000E10   -2.279804855654086E-3   1.276488674597608E-3  
 2.043800000000000E10   -1.696005765417660E-3   1.814959554956008E-3  
 2.044000000000000E10   -1.016120643377948E-3   1.878278798504192E-3  
 2.044200000000000E10   -7.208259007318613E-4   1.623407677448366E-3  
 2.044400000000000E10   -7.211396960760066E-4   1.641185063132902E-3  
 2.044600000000000E10   -5.399751783072673E-4   1.825468370369004E-3  
 2.044800000000000E10   -3.186992788543627E-4   1.951562339888403E-3  
 2.045000000000000E10   -2.692458752947312E-5   2.135343016067773E-3  
 2.045200000000000E10    4.701455300501376E-4   2.260094669498044E-3  
 2.045400000000000E10    1.056276790705728E-3   2.091069013041295E-3  
 2.045600000000000E10    1.443432358001578E-3   1.665279578222077E-3  
 2.045800000000000E10    1.558314270144444E-3   1.283052429142926E-3  
 2.046000000000000E10    1.650823372197740E-3   1.011003103440651E-3  
 2.046200000000000E10    1.662146008320521E-3   7.193947087306484E-4  
 2.046400000000000E10    1.627227343204949E-3   5.973883678872185E-4  
 2.046600000000000E10    1.781147101284638E-3   5.795542268588404E-4  
 2.046800000000000E10    2.153664217962895E-3   3.891987550032131E-4  
 2.047000000000000E10    2.524107803855046E-3  -1.627845529044323E-4  
 2.047200000000000E10    2.555434770284244E-3  -1.027508344167821E-3  
 2.047400000000000E10    2.044970066183143E-3  -1.836451594027933E-3  
 2.047600000000000E10    1.203614219528750E-3  -2.214078705205962E-3  
 2.047800000000000E10    4.007839676809073E-4  -2.080323838594336E-3  
 2.048000000000000E10   -6.158933108873698E-6  -1.638508756805993E-3  
 2.048200000000000E10   -8.456094961550178E-5  -1.326816962790434E-3  
 2.048400000000000E10   -9.935558207669399E-5  -1.106675319017176E-3  
 2.048600000000000E10    8.306882173875004E-5  -1.001828170473469E-3  
 2.048800000000000E10    2.407037346181173E-4  -1.259243723729419E-3  
 2.049000000000000E10    1.716318092242285E-5  -1.662200056648825E-3  
 2.049200000000000E10   -5.064736365449881E-4  -1.837573057316520E-3  
 2.049400000000000E10   -1.073031742298217E-3  -1.718888946027024E-3  
 2.049600000000000E10   -1.549886770971856E-3  -1.321325748354013E-3  
 2.049800000000000E10   -1.731607460784784E-3  -7.276663579690605E-4  
 2.050000000000000E10   -1.549888885131589E-3  -2.410232382654041E-4  
 2.050200000000000E10   -1.279316760634107E-3  -9.886210767787962E-5  
 2.050400000000000E10   -1.203586064267582E-3  -1.481517067728464E-4  
 2.050600000000000E10   -1.346015579780035E-3  -1.449769583421495E-4  
 2.050800000000000E10   -1.592031526264310E-3   3.475757653682702E-5  
 2.051000000000000E10   -1.769066084015333E-3   5.003717874556230E-4  
 2.051200000000000E10   -1.601310192469370E-3   1.078754390394430E-3  
 2.051400000000000E10   -1.147654881976821E-3   1.433646547849532E-3  
 2.051600000000000E10   -6.922077729631170E-4   1.533702340689890E-3  
 2.051800000000000E10   -3.011083032039029E-4   1.464930591518405E-3  
 2.052000000000000E10   -7.970657182419401E-5   1.267683123134905E-3  
 2.052200000000000E10   -5.429867870128717E-5   1.119095445495605E-3  
 2.052400000000000E10   -1.168765417709056E-4   1.177514220564914E-3  
 2.052600000000000E10   -5.680576214217581E-5   1.463598622020656E-3  
 2.052800000000000E10    3.536559927369250E-4   1.827002911150088E-3  
 2.053000000000000E10    1.132010066893274E-3   1.865560505079267E-3  
 2.053200000000000E10    1.871611238859686E-3   1.363879955017272E-3  
 2.053400000000000E10    2.254432515689621E-3   5.068659953439586E-4  
 2.053600000000000E10    2.101627198611329E-3  -4.809644212658851E-4  
 2.053800000000000E10    1.360810630563877E-3  -1.126562209259489E-3  
 2.054000000000000E10    5.290998256604338E-4  -1.110335911141226E-3  
 2.054200000000000E10    7.205156182380176E-5  -6.749350584778982E-4  
 2.054400000000000E10    2.432497579174658E-5  -1.881820256433761E-4  
 2.054600000000000E10    3.531317285515001E-4   2.095311905981766E-4  
 2.054800000000000E10    1.011192104434250E-3   1.377591404799418E-4  
 2.055000000000000E10    1.369011911770536E-3  -5.672272254517418E-4  
 2.055200000000000E10    1.031137337436739E-3  -1.319562539136337E-3  
 2.055400000000000E10    3.998466529509766E-4  -1.621163789366867E-3  
 2.055600000000000E10   -2.198524810488761E-4  -1.665146508323098E-3  
