#  HZ   S   RI   R     50.00 
! Rohde & Schwarz ZVA40 4Ports - Version 3.90 - 1145.1110k42 SN: 100403
! Date: 2023-10-03 12:20:33
! Measurement: S12 
! 
 2.000000000000000E10    2.665196744717444E-2   3.180963587429789E-2  
 2.000200000000000E10    3.150200316444837E-2   2.728571630094523E-2  
 2.000400000000000E10    3.568624163912648E-2   2.176173551031101E-2  
 2.000600000000000E10    3.898699929623448E-2   1.554682959683638E-2  
 2.000800000000000E10    4.121257741878063E-2   8.769024282295274E-3  
 2.001000000000000E10    4.216201554355308E-2   1.544125974580738E-3  
 2.001200000000000E10    4.181637573573325E-2  -5.599168096688182E-3  
 2.001400000000000E10    4.034867701829707E-2  -1.249754480603669E-2  
 2.001600000000000E10    3.759305364617105E-2  -1.927586543707200E-2  
 2.001800000000000E10    3.377718857102434E-2  -2.519516065839387E-2  
 2.002000000000000E10    2.912094522988110E-2  -3.039538397342580E-2  
 2.002200000000000E10    2.343922363663161E-2  -3.513452150080921E-2  
 2.002400000000000E10    1.734106237291064E-2  -3.874213342006806E-2  
 2.002600000000000E10    1.056168557225186E-2  -4.123731930989297E-2  
 2.002800000000000E10    3.579644758422925E-3  -4.249130137295390E-2  
 2.003000000000000E10   -3.709646977614535E-3  -4.253725506702569E-2  
 2.003200000000000E10   -1.072211336697080E-2  -4.142004746652435E-2  
 2.003400000000000E10   -1.760850968644207E-2  -3.912067588096784E-2  
 2.003600000000000E10   -2.402793940294672E-2  -3.564114186437533E-2  
 2.003800000000000E10   -2.985885303942756E-2  -3.111839722152110E-2  
 2.004000000000000E10   -3.482300243934487E-2  -2.553022853692864E-2  
 2.004200000000000E10   -3.860071742976154E-2  -1.902002525427705E-2  
 2.004400000000000E10   -4.102233444712290E-2  -1.207823525547000E-2  
 2.004600000000000E10   -4.221694366124923E-2  -5.072349519564660E-3  
 2.004800000000000E10   -4.230388520676413E-2   1.936273795931980E-3  
 2.005000000000000E10   -4.131040470712961E-2   8.781062500405706E-3  
 2.005200000000000E10   -3.938423616834629E-2   1.537448960383243E-2  
 2.005400000000000E10   -3.655208989119334E-2   2.163089595643091E-2  
 2.005600000000000E10   -3.264297433044194E-2   2.763342447272299E-2  
 2.005800000000000E10   -2.765253821671500E-2   3.295592592699538E-2  
 2.006000000000000E10   -2.153468194107215E-2   3.738243280001629E-2  
 2.006200000000000E10   -1.486251296268569E-2   4.052344524136788E-2  
 2.006400000000000E10   -7.664843891659147E-3   4.241514642849381E-2  
 2.006600000000000E10   -2.275047583769961E-4   4.293989371738317E-2  
 2.006800000000000E10    6.928911239077403E-3   4.216741686188635E-2  
 2.007000000000000E10    1.379463512741735E-2   4.027874547022361E-2  
 2.007200000000000E10    2.009041480137488E-2   3.749573255272069E-2  
 2.007400000000000E10    2.615285804303585E-2   3.376866887810300E-2  
 2.007600000000000E10    3.165718831827121E-2   2.889242482375461E-2  
 2.007800000000000E10    3.611118510488130E-2   2.305680593866625E-2  
 2.008000000000000E10    3.940398994174024E-2   1.653347392049101E-2  
 2.008200000000000E10    4.146635103127594E-2   9.642355649927518E-3  
 2.008400000000000E10    4.244540978238416E-2   2.708560605092672E-3  
 2.008600000000000E10    4.233655236937382E-2  -4.363254829857943E-3  
 2.008800000000000E10    4.107904072406361E-2  -1.145059457853621E-2  
 2.009000000000000E10    3.866248951895247E-2  -1.822443569362654E-2  
 2.009200000000000E10    3.505661340100776E-2  -2.456914441882338E-2  
 2.009400000000000E10    3.030015033796246E-2  -3.024370913918863E-2  
 2.009600000000000E10    2.456396352116464E-2  -3.489254947000571E-2  
 2.009800000000000E10    1.832986465145532E-2  -3.837219596583658E-2  
 2.010000000000000E10    1.154755150186427E-2  -4.076558474160026E-2  
 2.010200000000000E10    4.415114492622546E-3  -4.195312965553975E-2  
 2.010400000000000E10   -2.433990673526141E-3  -4.193882484740191E-2  
 2.010600000000000E10   -9.289409827303006E-3  -4.091488801464133E-2  
 2.010800000000000E10   -1.591095148965165E-2  -3.884254869671516E-2  
 2.011000000000000E10   -2.219968866326927E-2  -3.574305415582756E-2  
 2.011200000000000E10   -2.786920251853673E-2  -3.160566620436716E-2  
 2.011400000000000E10   -3.287018712901285E-2  -2.654858978288900E-2  
 2.011600000000000E10   -3.701700457206970E-2  -2.052935380718591E-2  
 2.011800000000000E10   -3.995346533970088E-2  -1.388452573844190E-2  
 2.012000000000000E10   -4.164061126578983E-2  -6.912093770540792E-3  
 2.012200000000000E10   -4.205782533673103E-2   3.225424130774897E-4  
 2.012400000000000E10   -4.120113093543936E-2   7.315558847039940E-3  
 2.012600000000000E10   -3.927841302727967E-2   1.387439683892232E-2  
 2.012800000000000E10   -3.639665399313954E-2   2.011050282375803E-2  
 2.013000000000000E10   -3.267386359442409E-2   2.579318810208345E-2  
 2.013200000000000E10   -2.806951682784676E-2   3.090106612339678E-2  
 2.013400000000000E10   -2.257539810221873E-2   3.533111262775253E-2  
 2.013600000000000E10   -1.625565394237944E-2   3.874623629843257E-2  
 2.013800000000000E10   -9.378246759896172E-3   4.094126031048014E-2  
 2.014000000000000E10   -2.390930374486395E-3   4.186353188605957E-2  
 2.014200000000000E10    4.616735997483318E-3   4.168851046589177E-2  
 2.014400000000000E10    1.159011412779858E-2   4.031556314279024E-2  
 2.014600000000000E10    1.813059387567603E-2   3.781959149265977E-2  
 2.014800000000000E10    2.416766814335630E-2   3.431976819602551E-2  
 2.015000000000000E10    2.964811577411837E-2   2.988857099088867E-2  
 2.015200000000000E10    3.439747316785801E-2   2.447316982618576E-2  
 2.015400000000000E10    3.807391971349716E-2   1.832671906538461E-2  
 2.015600000000000E10    4.068262910340059E-2   1.162457540861251E-2  
 2.015800000000000E10    4.208141592917619E-2   4.581694238255790E-3  
 2.016000000000000E10    4.227208454974395E-2  -2.671543973471219E-3  
 2.016200000000000E10    4.125292551676923E-2  -9.675513853322824E-3  
 2.016400000000000E10    3.908965813279643E-2  -1.652143446444975E-2  
 2.016600000000000E10    3.580033179725149E-2  -2.299443311192126E-2  
 2.016800000000000E10    3.149629959169730E-2  -2.871520523702412E-2  
 2.017000000000000E10    2.617384952496845E-2  -3.372298015488519E-2  
 2.017200000000000E10    2.009095391833488E-2  -3.778744449095472E-2  
 2.017400000000000E10    1.334804537564271E-2  -4.077135398983955E-2  
 2.017600000000000E10    5.996488465893048E-3  -4.248160838222308E-2  
 2.017800000000000E10   -1.374638423327464E-3  -4.280454870849972E-2  
 2.018000000000000E10   -8.596611983399579E-3  -4.182533761907999E-2  
 2.018200000000000E10   -1.549885863890496E-2  -3.968919231077281E-2  
 2.018400000000000E10   -2.185843546909315E-2  -3.653717419676821E-2  
 2.018600000000000E10   -2.771767995362420E-2  -3.237981303238575E-2  
 2.018800000000000E10   -3.290574962403549E-2  -2.728632583049100E-2  
 2.019000000000000E10   -3.715176504764538E-2  -2.136052822226605E-2  
 2.019200000000000E10   -4.037173723978271E-2  -1.458271044026677E-2  
 2.019400000000000E10   -4.230821117329500E-2  -7.314737803789446E-3  
 2.019600000000000E10   -4.285400311765358E-2   1.786434443268941E-4  
 2.019800000000000E10   -4.188488120282138E-2   7.530683640068697E-3  
 2.020000000000000E10   -3.979634653025695E-2   1.433180459993489E-2  
 2.020200000000000E10   -3.670807333026895E-2   2.063198719526270E-2  
 2.020400000000000E10   -3.277309473465991E-2   2.642143057053718E-2  
 2.020600000000000E10   -2.793536903988188E-2   3.151345182470824E-2  
 2.020800000000000E10   -2.220480851522444E-2   3.578435280072836E-2  
 2.021000000000000E10   -1.581046304094448E-2   3.901274738365732E-2  
 2.021200000000000E10   -9.126188141512285E-3   4.107119716366624E-2  
 2.021400000000000E10   -2.054173012605175E-3   4.199109740034053E-2  
 2.021600000000000E10    5.000921470254906E-3   4.174650842208921E-2  
 2.021800000000000E10    1.189439733409220E-2   4.047326630157699E-2  
 2.022000000000000E10    1.866710179872474E-2   3.798807024526499E-2  
 2.022200000000000E10    2.501789273487198E-2   3.420252461798888E-2  
 2.022400000000000E10    3.042322824950572E-2   2.935988505834660E-2  
 2.022600000000000E10    3.491504375397424E-2   2.374529633134481E-2  
 2.022800000000000E10    3.842345022676904E-2   1.750438141448753E-2  
 2.023000000000000E10    4.080617133482004E-2   1.067134280355624E-2  
 2.023200000000000E10    4.195664407601082E-2   3.485876717125622E-3  
 2.023400000000000E10    4.173629749336361E-2  -3.706545632240581E-3  
 2.023600000000000E10    4.027121678117372E-2  -1.060062364019730E-2  
 2.023800000000000E10    3.769081850907931E-2  -1.699610381797263E-2  
 2.024000000000000E10    3.426497722420183E-2  -2.281484334373180E-2  
 2.024200000000000E10    3.011791857243076E-2  -2.787386840630952E-2  
 2.024400000000000E10    2.539771943211311E-2  -3.237200292294899E-2  
 2.024600000000000E10    2.001252440053495E-2  -3.636915219848048E-2  
 2.024800000000000E10    1.374294289958821E-2  -3.959548309322739E-2  
 2.025000000000000E10    6.778221813111027E-3  -4.162508480772070E-2  
 2.025200000000000E10   -4.784993130527821E-4  -4.226535466718086E-2  
 2.025400000000000E10   -7.769379465852257E-3  -4.155181458702795E-2  
 2.025600000000000E10   -1.465565851916379E-2  -3.966066468154453E-2  
 2.025800000000000E10   -2.110927072142868E-2  -3.664925993408687E-2  
 2.026000000000000E10   -2.708477975317726E-2  -3.250404996145900E-2  
 2.026200000000000E10   -3.214010749579457E-2  -2.743589379843861E-2  
 2.026400000000000E10   -3.621941461484619E-2  -2.161626681041571E-2  
 2.026600000000000E10   -3.923088365805493E-2  -1.520736287865374E-2  
 2.026800000000000E10   -4.116103894732617E-2  -8.543954050712626E-3  
 2.027000000000000E10   -4.203567433136481E-2  -1.667175551688629E-3  
 2.027200000000000E10   -4.187608571577466E-2   5.325682039675399E-3  
 2.027400000000000E10   -4.055589762489492E-2   1.223686632964714E-2  
 2.027600000000000E10   -3.803750254796366E-2   1.893624233334889E-2  
 2.027800000000000E10   -3.451105217936108E-2   2.513124638930761E-2  
 2.028000000000000E10   -3.000451850517052E-2   3.080465590175043E-2  
 2.028200000000000E10   -2.429611635214262E-2   3.577693977964268E-2  
 2.028400000000000E10   -1.758229594539713E-2   3.945466707395429E-2  
 2.028600000000000E10   -1.061632599175712E-2   4.179880199302372E-2  
 2.028800000000000E10   -3.293586097688342E-3   4.295514847454712E-2  
 2.029000000000000E10    4.108727014711733E-3   4.277504876317311E-2  
 2.029200000000000E10    1.125563199367420E-2   4.131910914685501E-2  
 2.029400000000000E10    1.795282197250015E-2   3.870868463636426E-2  
 2.029600000000000E10    2.402752768938189E-2   3.507610805976538E-2  
 2.029800000000000E10    2.944258276235175E-2   3.059487599772191E-2  
 2.030000000000000E10    3.412539918174960E-2   2.540815932821836E-2  
 2.030200000000000E10    3.790593939860172E-2   1.939956599332914E-2  
 2.030400000000000E10    4.065867718845730E-2   1.290722608320998E-2  
 2.030600000000000E10    4.241755505096275E-2   6.004102332632484E-3  
 2.030800000000000E10    4.302751121145708E-2  -1.190217568274633E-3  
 2.031000000000000E10    4.234614733744551E-2  -8.605697322560193E-3  
 2.031200000000000E10    4.030444197080754E-2  -1.571513779859975E-2  
 2.031400000000000E10    3.704246962941234E-2  -2.237110904613395E-2  
 2.031600000000000E10    3.278895496647545E-2  -2.821854671363723E-2  
 2.031800000000000E10    2.749784309187053E-2  -3.333951716805682E-2  
 2.032000000000000E10    2.147066726544757E-2  -3.742048084551906E-2  
 2.032200000000000E10    1.494502628781668E-2  -4.045660919490666E-2  
 2.032400000000000E10    7.897477531843961E-3  -4.236817592946591E-2  
 2.032600000000000E10    7.099921478786403E-4  -4.305418047272130E-2  
 2.032800000000000E10   -6.496595312676436E-3  -4.257580694654352E-2  
 2.033000000000000E10   -1.341677728442499E-2  -4.089434469432988E-2  
 2.033200000000000E10   -2.006527346869310E-2  -3.819120298197241E-2  
 2.033400000000000E10   -2.631219971633743E-2  -3.442056483202020E-2  
 2.033600000000000E10   -2.896175972749422E-2  -3.244002701507675E-2  
 2.033800000000000E10   -3.645407636899026E-2  -2.366488665311671E-2  
 2.034000000000000E10   -3.999976804594935E-2  -1.710898224494340E-2  
 2.034200000000000E10   -4.235458386287768E-2  -1.010702650442168E-2  
 2.034400000000000E10   -4.344957081194768E-2  -2.795568261096262E-3  
 2.034600000000000E10   -4.320795299033080E-2   4.620396191016638E-3  
 2.034800000000000E10   -4.177168290678857E-2   1.176101145614322E-2  
 2.035000000000000E10   -3.930628238391484E-2   1.856601266611997E-2  
 2.035200000000000E10   -3.562777797565049E-2   2.505719698505637E-2  
 2.035400000000000E10   -3.073029896175420E-2   3.076400483647983E-2  
 2.035600000000000E10   -2.499534543833615E-2   3.530925739203952E-2  
 2.035800000000000E10   -1.872411149519462E-2   3.878616733254230E-2  
 2.036000000000000E10   -1.213482045664341E-2   4.130986466267963E-2  
 2.036200000000000E10   -5.166381365646429E-3   4.282607487690302E-2  
 2.036400000000000E10    2.063787390895709E-3   4.317600660240700E-2  
 2.036600000000000E10    9.281444190828891E-3   4.229844951764547E-2  
 2.036800000000000E10    1.626711913648947E-2   4.021133263231305E-2  
 2.037000000000000E10    2.294365760444859E-2   3.684385896587569E-2  
 2.037200000000000E10    2.880619525326869E-2   3.247083438399398E-2  
 2.037400000000000E10    3.381160993144346E-2   2.707672897159073E-2  
 2.037600000000000E10    3.781667417643493E-2   2.093877720765371E-2  
 2.037800000000000E10    4.075781009140820E-2   1.425377987401844E-2  
 2.038000000000000E10    4.240029499915893E-2   7.334232029462917E-3  
 2.038200000000000E10    4.293182697683697E-2   1.507129207521259E-4  
 2.038400000000000E10    4.238784862030681E-2  -6.856340357320913E-3  
 2.038600000000000E10    4.080331661267046E-2  -1.372575745323804E-2  
 2.038800000000000E10    3.803461302577714E-2  -2.048575893473724E-2  
 2.039000000000000E10    3.414928019353393E-2  -2.666158474399230E-2  
 2.039200000000000E10    2.918707005250356E-2  -3.206980594820938E-2  
 2.039400000000000E10    2.326119872798891E-2  -3.664427422324326E-2  
 2.039600000000000E10    1.674964866091195E-2  -4.002303677637882E-2  
 2.039800000000000E10    9.758153708015450E-3  -4.217301007099604E-2  
 2.040000000000000E10    2.517353274779004E-3  -4.313691706998359E-2  
 2.040200000000000E10   -4.778380984816042E-3  -4.286193912043984E-2  
 2.040400000000000E10   -1.182719784187069E-2  -4.131871688758396E-2  
 2.040600000000000E10   -1.843092410438100E-2  -3.868140091682659E-2  
 2.040800000000000E10   -2.450272152698580E-2  -3.510608353916511E-2  
 2.041000000000000E10   -2.997758503957296E-2  -3.071685090139815E-2  
 2.041200000000000E10   -3.482198672284806E-2  -2.537826025559579E-2  
 2.041400000000000E10   -3.874321663637220E-2  -1.922143892281586E-2  
 2.041600000000000E10   -4.148196073348631E-2  -1.238493955935593E-2  
 2.041800000000000E10   -4.295446697637868E-2  -5.109764882765803E-3  
 2.042000000000000E10   -4.320931143353506E-2   2.168569213676233E-3  
 2.042200000000000E10   -4.220635773529732E-2   9.379661197433012E-3  
 2.042400000000000E10   -3.994407284039039E-2   1.634744660537920E-2  
 2.042600000000000E10   -3.663698671224677E-2   2.274312230723876E-2  
 2.042800000000000E10   -3.235201427230129E-2   2.854886868730985E-2  
 2.043000000000000E10   -2.708851260903442E-2   3.366245862878400E-2  
 2.043200000000000E10   -2.099053140867640E-2   3.772624899391776E-2  
 2.043400000000000E10   -1.438732530323812E-2   4.062702683080371E-2  
 2.043600000000000E10   -7.444922645564803E-3   4.243992632369937E-2  
 2.043800000000000E10   -3.044819639720945E-4   4.310860803711072E-2  
 2.044000000000000E10    6.842217379376110E-3   4.264828118154542E-2  
 2.044200000000000E10    1.380840764446146E-2   4.110677054328193E-2  
 2.044400000000000E10    2.075851463363985E-2   3.840369556421116E-2  
 2.044600000000000E10    2.723748430824330E-2   3.435255461391599E-2  
 2.044800000000000E10    3.278121418116516E-2   2.904156721177906E-2  
 2.045000000000000E10    3.714794138208830E-2   2.289182189928652E-2  
 2.045200000000000E10    4.039551996829088E-2   1.632946619281063E-2  
 2.045400000000000E10    4.254057460728988E-2   9.244482535025713E-3  
 2.045600000000000E10    4.336930356091924E-2   1.877747877566106E-3  
 2.045800000000000E10    4.299279421935848E-2  -5.314673254948586E-3  
 2.046000000000000E10    4.155592031684923E-2  -1.237548236953624E-2  
 2.046200000000000E10    3.899147993129959E-2  -1.927146468112253E-2  
 2.046400000000000E10    3.521574239549324E-2  -2.565966236094635E-2  
 2.046600000000000E10    3.035795773712942E-2  -3.129868177934685E-2  
 2.046800000000000E10    2.462870899756505E-2  -3.602989269382179E-2  
 2.047000000000000E10    1.813601555279744E-2  -3.978539518858670E-2  
 2.047200000000000E10    1.106876564507254E-2  -4.238803284587684E-2  
 2.047400000000000E10    3.596331456622470E-3  -4.359740472624823E-2  
 2.047600000000000E10   -3.853819420208596E-3  -4.348575357547023E-2  
 2.047800000000000E10   -1.112209097578079E-2  -4.214315947313859E-2  
 2.048000000000000E10   -1.817034470844907E-2  -3.968521754866766E-2  
 2.048200000000000E10   -2.471319010381591E-2  -3.603397326643576E-2  
 2.048400000000000E10   -3.057060539415835E-2  -3.114206428206507E-2  
 2.048600000000000E10   -3.540328552816140E-2  -2.526956890928157E-2  
 2.048800000000000E10   -3.903150464956162E-2  -1.871084201115150E-2  
 2.049000000000000E10   -4.139407054203038E-2  -1.182105374587662E-2  
 2.049200000000000E10   -4.262546569476894E-2  -4.627296676161727E-3  
 2.049400000000000E10   -4.272412304831631E-2   2.380659953219655E-3  
 2.049600000000000E10   -4.173319914029459E-2   9.480614046501036E-3  
 2.049800000000000E10   -3.950315126727638E-2   1.644643112526509E-2  
 2.050000000000000E10   -3.622048021650609E-2   2.281532110071477E-2  
 2.050200000000000E10   -3.188667668665879E-2   2.859928526382879E-2  
 2.050400000000000E10   -2.655392623058072E-2   3.376363961355677E-2  
 2.050600000000000E10   -2.036633709667887E-2   3.782676811878083E-2  
 2.050800000000000E10   -1.348471083513503E-2   4.073434036393716E-2  
 2.051000000000000E10   -6.163593255167391E-3   4.231299783405945E-2  
 2.051200000000000E10    1.136061816414964E-3   4.252611326030743E-2  
 2.051400000000000E10    8.232917238042189E-3   4.143982115412446E-2  
 2.051600000000000E10    1.499685009657847E-2   3.933662004431580E-2  
 2.051800000000000E10    2.128634208606349E-2   3.625925887881974E-2  
 2.052000000000000E10    2.702121366076019E-2   3.217600135768883E-2  
 2.052200000000000E10    3.210189257874901E-2   2.701888951653071E-2  
 2.052400000000000E10    3.612812751053292E-2   2.119617030760389E-2  
 2.052600000000000E10    3.899055288591013E-2   1.483532665259063E-2  
 2.052800000000000E10    4.083835358114400E-2   8.142023197846651E-3  
 2.053000000000000E10    4.170977837816188E-2   1.243971916751116E-3  
 2.053200000000000E10    4.139950212259843E-2  -5.833697679678723E-3  
 2.053400000000000E10    3.986934567859144E-2  -1.284838336378091E-2  
 2.053600000000000E10    3.706165614687367E-2  -1.955691740346053E-2  
 2.053800000000000E10    3.297511108004998E-2  -2.558081534235076E-2  
 2.054000000000000E10    2.792401111266986E-2  -3.059472066997992E-2  
 2.054200000000000E10    2.240292477294987E-2  -3.461111415131593E-2  
 2.054400000000000E10    1.639295058945815E-2  -3.770886905828622E-2  
 2.054600000000000E10    9.894372458443232E-3  -3.987852776798692E-2  
 2.054800000000000E10    3.154966676485085E-3  -4.095834004596919E-2  
 2.055000000000000E10   -3.685533416882894E-3  -4.095236886553313E-2  
 2.055200000000000E10   -1.041906336207449E-2  -3.984467280499730E-2  
 2.055400000000000E10   -1.697740128164184E-2  -3.760264950340668E-2  
 2.055600000000000E10   -2.301588219900926E-2  -3.437891887661852E-2  
