#  HZ   S   RI   R     50.00 
! Rohde & Schwarz ZVA40 4Ports - Version 3.90 - 1145.1110k42 SN: 100403
! Date: 2023-10-03 12:22:15
! Measurement: S12 
! 
 2.000000000000000E10    3.983272363742193E-2   1.973242747286956E-2  
 2.000200000000000E10    4.258902715864005E-2   1.304630500574907E-2  
 2.000400000000000E10    4.411383221546809E-2   5.723432344556960E-3  
 2.000600000000000E10    4.444549177531844E-2  -1.666849530819390E-3  
 2.000800000000000E10    4.359635945271563E-2  -9.113706234428618E-3  
 2.001000000000000E10    4.144545575534857E-2  -1.634175399387325E-2  
 2.001200000000000E10    3.810580005800283E-2  -2.304705673897708E-2  
 2.001400000000000E10    3.381201638667672E-2  -2.904379098779625E-2  
 2.001600000000000E10    2.837580428631218E-2  -3.443223431154534E-2  
 2.001800000000000E10    2.222606201690656E-2  -3.865269157621596E-2  
 2.002000000000000E10    1.555930443659977E-2  -4.183421049405028E-2  
 2.002200000000000E10    7.837619891183246E-3  -4.411786408336075E-2  
 2.002400000000000E10    2.840210630286796E-4  -4.500769685815882E-2  
 2.002600000000000E10   -7.475650317415044E-3  -4.438825489746200E-2  
 2.002800000000000E10   -1.480716194405600E-2  -4.246740857208217E-2  
 2.003000000000000E10   -2.175000772156098E-2  -3.927661657885270E-2  
 2.003200000000000E10   -2.799273082227619E-2  -3.506300018893348E-2  
 2.003400000000000E10   -3.342822345870513E-2  -2.985908836126328E-2  
 2.003600000000000E10   -3.804405033588409E-2  -2.376056469425008E-2  
 2.003800000000000E10   -4.158227559592989E-2  -1.698000639401101E-2  
 2.004000000000000E10   -4.386657559209400E-2  -9.642953122103656E-3  
 2.004200000000000E10   -4.468351809514894E-2  -1.818426755360432E-3  
 2.004400000000000E10   -4.400013152647902E-2   5.739501073818517E-3  
 2.004600000000000E10   -4.208412393927574E-2   1.285322931491667E-2  
 2.004800000000000E10   -3.924102791481549E-2   1.939681551798626E-2  
 2.005000000000000E10   -3.552961915179536E-2   2.535247209447402E-2  
 2.005200000000000E10   -3.102778905519733E-2   3.081419063663042E-2  
 2.005400000000000E10   -2.585772680187667E-2   3.558775686003544E-2  
 2.005600000000000E10   -1.965604708702476E-2   3.974433339856290E-2  
 2.005800000000000E10   -1.266744305138235E-2   4.279350351404261E-2  
 2.006000000000000E10   -5.025315184698061E-3   4.449740824876008E-2  
 2.006200000000000E10    2.822595458753683E-3   4.466086184536970E-2  
 2.006400000000000E10    1.038082144050687E-2   4.333497018173890E-2  
 2.006600000000000E10    1.757281301198183E-2   4.073376249935892E-2  
 2.006800000000000E10    2.403960266598949E-2   3.704750482682830E-2  
 2.007000000000000E10    2.973065697760494E-2   3.242038949220269E-2  
 2.007200000000000E10    3.456365800014249E-2   2.703633918254464E-2  
 2.007400000000000E10    3.863085916748754E-2   2.099598992477965E-2  
 2.007600000000000E10    4.175369413914504E-2   1.418397016823292E-2  
 2.007800000000000E10    4.354174545517675E-2   6.874464262552837E-3  
 2.008000000000000E10    4.396695616068664E-2  -5.590209696459136E-4  
 2.008200000000000E10    4.316766918809326E-2  -8.007766196021329E-3  
 2.008400000000000E10    4.123707198434407E-2  -1.499097435562699E-2  
 2.008600000000000E10    3.811493309007751E-2  -2.165916182652668E-2  
 2.008800000000000E10    3.388948421235438E-2  -2.781025941173236E-2  
 2.009000000000000E10    2.883009591864216E-2  -3.305795968130783E-2  
 2.009200000000000E10    2.288318528897233E-2  -3.750630109398453E-2  
 2.009400000000000E10    1.615488494711894E-2  -4.096158635285166E-2  
 2.009600000000000E10    8.746001179571507E-3  -4.312780347687227E-2  
 2.009800000000000E10    1.236447223669125E-3  -4.381441545707208E-2  
 2.010000000000000E10   -6.195255296511783E-3  -4.315020199175235E-2  
 2.010200000000000E10   -1.344177213118032E-2  -4.118446895369778E-2  
 2.010400000000000E10   -1.986618829822099E-2  -3.816529128838469E-2  
 2.010600000000000E10   -2.573224301967356E-2  -3.426517546176910E-2  
 2.010800000000000E10   -3.096265414798702E-2  -2.945158354662083E-2  
 2.011000000000000E10   -3.529302279154460E-2  -2.403448570381712E-2  
 2.011200000000000E10   -3.879406220383115E-2  -1.800522304795407E-2  
 2.011400000000000E10   -4.142071679234505E-2  -1.139188319858578E-2  
 2.011600000000000E10   -4.298725213717532E-2  -4.253234576295924E-3  
 2.011800000000000E10   -4.320136292113198E-2   3.263675262806593E-3  
 2.012000000000000E10   -4.206217811615379E-2   1.067797829293543E-2  
 2.012200000000000E10   -3.943853025083190E-2   1.778592093399278E-2  
 2.012400000000000E10   -3.561199622021782E-2   2.414572645944578E-2  
 2.012600000000000E10   -3.095639662610160E-2   2.952513609219481E-2  
 2.012800000000000E10   -2.554014263053735E-2   3.412072636463025E-2  
 2.013000000000000E10   -1.952446659130079E-2   3.780933786873465E-2  
 2.013200000000000E10   -1.313286326411698E-2   4.054477231370079E-2  
 2.013400000000000E10   -6.172954018607185E-3   4.235446839420884E-2  
 2.013600000000000E10    1.194062547896196E-3   4.293029479406499E-2  
 2.013800000000000E10    8.621688414778976E-3   4.210927254623838E-2  
 2.014000000000000E10    1.567226075739773E-2   3.984655936559042E-2  
 2.014200000000000E10    2.200272051548517E-2   3.657650961368172E-2  
 2.014400000000000E10    2.781350958954405E-2   3.229674752111789E-2  
 2.014600000000000E10    3.277467356787788E-2   2.716410877528015E-2  
 2.014800000000000E10    3.679613907028128E-2   2.138697514655414E-2  
 2.015000000000000E10    3.994234941071935E-2   1.487903241757994E-2  
 2.015200000000000E10    4.189840814581625E-2   7.893288818498453E-3  
 2.015400000000000E10    4.263987185226547E-2   7.600049268350835E-4  
 2.015600000000000E10    4.215055028045620E-2  -6.525298287333162E-3  
 2.015800000000000E10    4.045960541676592E-2  -1.355405155293368E-2  
 2.016000000000000E10    3.754367637965415E-2  -2.025293386368840E-2  
 2.016200000000000E10    3.356951806280348E-2  -2.622003315223588E-2  
 2.016400000000000E10    2.871266738684089E-2  -3.143786004296056E-2  
 2.016600000000000E10    2.300770104759270E-2  -3.587437241717622E-2  
 2.016800000000000E10    1.678329450940645E-2  -3.924612287018035E-2  
 2.017000000000000E10    9.943784076582505E-3  -4.161298343980754E-2  
 2.017200000000000E10    2.722817447243466E-3  -4.284102787022238E-2  
 2.017400000000000E10   -4.635942616948376E-3  -4.290598120402407E-2  
 2.017600000000000E10   -1.217430843799203E-2  -4.151111951580755E-2  
 2.017800000000000E10   -1.927608458532228E-2  -3.867341260667201E-2  
 2.018000000000000E10   -2.554649356062766E-2  -3.465369219581287E-2  
 2.018200000000000E10   -3.096846987803777E-2  -2.958359631399314E-2  
 2.018400000000000E10   -3.530712494695629E-2  -2.383515218065845E-2  
 2.018600000000000E10   -3.866728215857789E-2  -1.766681457283321E-2  
 2.018800000000000E10   -4.117817900798940E-2  -1.090851781406889E-2  
 2.019000000000000E10   -4.249290928796486E-2  -3.818005194059677E-3  
 2.019200000000000E10   -4.257286878095733E-2   3.523610653010784E-3  
 2.019400000000000E10   -4.129262723856503E-2   1.096891905008643E-2  
 2.019600000000000E10   -3.868701515926255E-2   1.798634679505119E-2  
 2.019800000000000E10   -3.467674194662659E-2   2.425105255787020E-2  
 2.020000000000000E10   -2.981926052382699E-2   2.948251663258783E-2  
 2.020200000000000E10   -2.443654697250437E-2   3.374435173140632E-2  
 2.020400000000000E10   -1.853284515716412E-2   3.718436481776061E-2  
 2.020600000000000E10   -1.215208625351941E-2   3.970129912098249E-2  
 2.020800000000000E10   -5.426123945249452E-3   4.115333435712038E-2  
 2.021000000000000E10    1.579836368802245E-3   4.151399957912940E-2  
 2.021200000000000E10    8.469161370562185E-3   4.071260809346482E-2  
 2.021400000000000E10    1.524363999703416E-2   3.868283041649395E-2  
 2.021600000000000E10    2.155082424481710E-2   3.551519772520773E-2  
 2.021800000000000E10    2.715346424116029E-2   3.144594895894881E-2  
 2.022000000000000E10    3.203896267546548E-2   2.652440144232026E-2  
 2.022200000000000E10    3.611867833468650E-2   2.063017642056501E-2  
 2.022400000000000E10    3.903370267815061E-2   1.425304957148102E-2  
 2.022600000000000E10    4.088874533772469E-2   7.558171689096426E-3  
 2.022800000000000E10    4.165453767334974E-2   5.376634540476113E-4  
 2.023000000000000E10    4.116319685622499E-2  -6.515788518030335E-3  
 2.023200000000000E10    3.945616922444768E-2  -1.355595717689506E-2  
 2.023400000000000E10    3.642287450256172E-2  -2.017774005179052E-2  
 2.023600000000000E10    3.227805967132251E-2  -2.593091406204083E-2  
 2.023800000000000E10    2.719984072502013E-2  -3.083053100164290E-2  
 2.024000000000000E10    2.156329555092035E-2  -3.468683817320400E-2  
 2.024200000000000E10    1.557235281776499E-2  -3.743886299155377E-2  
 2.024400000000000E10    9.301347416584140E-3  -3.935746048335677E-2  
 2.024600000000000E10    2.862101619097370E-3  -4.041594487649423E-2  
 2.024800000000000E10   -3.745134454220533E-3  -4.053185231707715E-2  
 2.025000000000000E10   -1.063892914465180E-2  -3.956221113050426E-2  
 2.025200000000000E10   -1.727149338909874E-2  -3.726089152472991E-2  
 2.025400000000000E10   -2.347144243065958E-2  -3.376410087501562E-2  
 2.025600000000000E10   -2.879990119900969E-2  -2.916775519649188E-2  
 2.025800000000000E10   -3.312627571048561E-2  -2.388282665223987E-2  
 2.026000000000000E10   -3.653275994239030E-2  -1.790618551550088E-2  
 2.026200000000000E10   -3.892292841165154E-2  -1.153231908877691E-2  
 2.026400000000000E10   -4.024837731763169E-2  -4.989715655230815E-3  
 2.026600000000000E10   -4.042829904291365E-2   1.778660169630139E-3  
 2.026800000000000E10   -3.952916214863460E-2   8.402513960997265E-3  
 2.027000000000000E10   -3.763567062991637E-2   1.475836471137074E-2  
 2.027200000000000E10   -3.471755774484741E-2   2.090624830237142E-2  
 2.027400000000000E10   -3.080659904689701E-2   2.649102760133920E-2  
 2.027600000000000E10   -2.590490339530839E-2   3.128731016207625E-2  
 2.027800000000000E10   -2.028105097512404E-2   3.518069590683337E-2  
 2.028000000000000E10   -1.410874144898521E-2   3.810311081232849E-2  
 2.028200000000000E10   -7.518160898514370E-3   3.996959135488228E-2  
 2.028400000000000E10   -5.594965979172332E-4   4.066849527535615E-2  
 2.028600000000000E10    6.234584910864080E-3   4.014728604643433E-2  
 2.028800000000000E10    1.295150992357069E-2   3.851595562365320E-2  
 2.029000000000000E10    1.938933610088296E-2   3.565204764405887E-2  
 2.029200000000000E10    2.507012344344899E-2   3.172242103351487E-2  
 2.029400000000000E10    2.986808886958494E-2   2.689938323089370E-2  
 2.029600000000000E10    3.373705319784306E-2   2.136158329193239E-2  
 2.029800000000000E10    3.655394387465936E-2   1.546711674718945E-2  
 2.030000000000000E10    3.843840929093185E-2   9.384976251533740E-3  
 2.030200000000000E10    3.940921152631442E-2   2.949254242358385E-3  
 2.030400000000000E10    3.940308466553688E-2  -3.397363755438063E-3  
 2.030600000000000E10    3.842200918330087E-2  -9.837103835134597E-3  
 2.030800000000000E10    3.640643465850089E-2  -1.617426501104126E-2  
 2.031000000000000E10    3.330892241663404E-2  -2.216846302703575E-2  
 2.031200000000000E10    2.908994629979134E-2  -2.755366879756804E-2  
 2.031400000000000E10    2.389368290702502E-2  -3.212595468869917E-2  
 2.031600000000000E10    1.817362320919832E-2  -3.549501313655465E-2  
 2.031800000000000E10    1.190551163421737E-2  -3.789475698162009E-2  
 2.032000000000000E10    5.423868730388306E-3  -3.919095766765100E-2  
 2.032200000000000E10   -1.002576422049768E-3  -3.949493983829464E-2  
 2.032400000000000E10   -7.583958769424095E-3  -3.871421446954763E-2  
 2.032600000000000E10   -1.386715168202365E-2  -3.685340575046010E-2  
 2.032800000000000E10   -1.970656209245876E-2  -3.403016966250208E-2  
 2.033000000000000E10   -2.503547341459328E-2  -3.029609782000383E-2  
 2.033200000000000E10   -2.974559359804348E-2  -2.572836761397345E-2  
 2.033400000000000E10   -3.363134242870190E-2  -2.048252667817805E-2  
 2.033600000000000E10   -3.514233880020955E-2  -1.795883559518391E-2  
 2.033800000000000E10   -3.856618909372224E-2  -8.059871693452200E-3  
 2.034000000000000E10   -3.928337756682326E-2  -1.493434210445870E-3  
 2.034200000000000E10   -3.895344267840739E-2   5.058889035825377E-3  
 2.034400000000000E10   -3.754674215559607E-2   1.152160770639225E-2  
 2.034600000000000E10   -3.494341147166712E-2   1.765598308432986E-2  
 2.034800000000000E10   -3.137902246305237E-2   2.315099827117390E-2  
 2.035000000000000E10   -2.708470131512042E-2   2.795370247353007E-2  
 2.035200000000000E10   -2.200711684094535E-2   3.204918307838617E-2  
 2.035400000000000E10   -1.610123704153079E-2   3.517529837511205E-2  
 2.035600000000000E10   -9.954260972638926E-3   3.702670156403825E-2  
 2.035800000000000E10   -3.856487175518717E-3   3.779642297713845E-2  
 2.036000000000000E10    2.083055709523184E-3   3.778883938988050E-2  
 2.036200000000000E10    8.054733069406617E-3   3.705989196896553E-2  
 2.036400000000000E10    1.397030845422436E-2   3.542500127244879E-2  
 2.036600000000000E10    1.972316433158186E-2   3.277041404335587E-2  
 2.036800000000000E10    2.499226839454086E-2   2.915856290470671E-2  
 2.037000000000000E10    2.961593259263922E-2   2.455255582376763E-2  
 2.037200000000000E10    3.331665156616105E-2   1.923543663212547E-2  
 2.037400000000000E10    3.599595940775342E-2   1.324786725281566E-2  
 2.037600000000000E10    3.751193649239011E-2   6.972895090088801E-3  
 2.037800000000000E10    3.795976191759110E-2   6.357522657641246E-4  
 2.038000000000000E10    3.733357814727006E-2  -5.430982827588365E-3  
 2.038200000000000E10    3.581681654409127E-2  -1.133761368691921E-2  
 2.038400000000000E10    3.353613546049154E-2  -1.692272219117041E-2  
 2.038600000000000E10    3.051838878956106E-2  -2.212233123955903E-2  
 2.038800000000000E10    2.655805578386343E-2  -2.701355427227639E-2  
 2.039000000000000E10    2.164127808754091E-2  -3.115083594565039E-2  
 2.039200000000000E10    1.613412624983876E-2  -3.426832250422902E-2  
 2.039400000000000E10    1.016024820920494E-2  -3.642545861226541E-2  
 2.039600000000000E10    3.989371048562505E-3  -3.753689248804694E-2  
 2.039800000000000E10   -2.174124518340385E-3  -3.757481621923271E-2  
 2.040000000000000E10   -8.263891769780055E-3  -3.667538778649437E-2  
 2.040200000000000E10   -1.424250637905465E-2  -3.475449841331553E-2  
 2.040400000000000E10   -1.972496799296803E-2  -3.188922808126168E-2  
 2.040600000000000E10   -2.461152730716600E-2  -2.819995375143158E-2  
 2.040800000000000E10   -2.887178716008310E-2  -2.371691105266412E-2  
 2.041000000000000E10   -3.232493210170005E-2  -1.872564093382271E-2  
 2.041200000000000E10   -3.496883837161241E-2  -1.323392607823566E-2  
 2.041400000000000E10   -3.677757594872404E-2  -7.319142334853059E-3  
 2.041600000000000E10   -3.749212360492460E-2  -1.139310703837072E-3  
 2.041800000000000E10   -3.711557443495150E-2   5.064596473756764E-3  
 2.042000000000000E10   -3.579085651371215E-2   1.097843568358157E-2  
 2.042200000000000E10   -3.357116781451085E-2   1.663882499215780E-2  
 2.042400000000000E10   -3.048171047811155E-2   2.200413764350944E-2  
 2.042600000000000E10   -2.648240921122057E-2   2.681157662084809E-2  
 2.042800000000000E10   -2.173824553136473E-2   3.090907867859912E-2  
 2.043000000000000E10   -1.630295233594047E-2   3.410477067033450E-2  
 2.043200000000000E10   -1.036439867069324E-2   3.635567744021064E-2  
 2.043400000000000E10   -4.247531976067910E-3   3.754412920938598E-2  
 2.043600000000000E10    1.841370214673656E-3   3.778684001277995E-2  
 2.043800000000000E10    8.023431455647505E-3   3.705533110985050E-2  
 2.044000000000000E10    1.402595242554391E-2   3.536253325917103E-2  
 2.044200000000000E10    1.968144528843739E-2   3.279056331073797E-2  
 2.044400000000000E10    2.518435940146447E-2   2.921914723184374E-2  
 2.044600000000000E10    3.002895318247655E-2   2.454618516343612E-2  
 2.044800000000000E10    3.375330801915240E-2   1.895925926941413E-2  
 2.045000000000000E10    3.634936376302331E-2   1.280767011835620E-2  
 2.045200000000000E10    3.780441193117036E-2   6.569743242666679E-3  
 2.045400000000000E10    3.821839957877442E-2   3.301949634785869E-4  
 2.045600000000000E10    3.763658484375036E-2  -5.885639659094590E-3  
 2.045800000000000E10    3.622693416697008E-2  -1.183330553963229E-2  
 2.046000000000000E10    3.399452498113668E-2  -1.749518968992763E-2  
 2.046200000000000E10    3.089715837052575E-2  -2.300159812525467E-2  
 2.046400000000000E10    2.682500677528205E-2  -2.808530207861353E-2  
 2.046600000000000E10    2.180157932970259E-2  -3.238801989290450E-2  
 2.046800000000000E10    1.600406960480743E-2  -3.574742735536011E-2  
 2.047000000000000E10    9.643115689633070E-3  -3.809230346922522E-2  
 2.047200000000000E10    3.034349686155717E-3  -3.921886547296136E-2  
 2.047400000000000E10   -3.641003967021351E-3  -3.910709931342690E-2  
 2.047600000000000E10   -1.007271913328657E-2  -3.789761358941043E-2  
 2.047800000000000E10   -1.617209502944240E-2  -3.568251941491057E-2  
 2.048000000000000E10   -2.191322593501321E-2  -3.260879149591482E-2  
 2.048200000000000E10   -2.717753782592439E-2  -2.863015710479684E-2  
 2.048400000000000E10   -3.180373032335883E-2  -2.366002738751747E-2  
 2.048600000000000E10   -3.541969231985234E-2  -1.785176571596552E-2  
 2.048800000000000E10   -3.789796252493506E-2  -1.143880899029750E-2  
 2.049000000000000E10   -3.916873327559896E-2  -4.920616556234934E-3  
 2.049200000000000E10   -3.932882058951590E-2   1.714212819933892E-3  
 2.049400000000000E10   -3.845268612106641E-2   8.065615056289568E-3  
 2.049600000000000E10   -3.667220666452691E-2   1.426194163246287E-2  
 2.049800000000000E10   -3.388760459643823E-2   2.023363651500808E-2  
 2.050000000000000E10   -3.014213736686442E-2   2.572324844422164E-2  
 2.050200000000000E10   -2.556107848606728E-2   3.047908856361001E-2  
 2.050400000000000E10   -2.008440559385000E-2   3.455984551045630E-2  
 2.050600000000000E10   -1.380458598335584E-2   3.765280889692130E-2  
 2.050800000000000E10   -7.042605033213342E-3   3.944611756338014E-2  
 2.051000000000000E10   -1.514654480464136E-4   3.987805434951076E-2  
 2.051200000000000E10    6.595768172431876E-3   3.909062801135911E-2  
 2.051400000000000E10    1.284177128777460E-2   3.720048069953919E-2  
 2.051600000000000E10    1.860852518843280E-2   3.453595756932542E-2  
 2.051800000000000E10    2.397783466235356E-2   3.112379930637502E-2  
 2.052000000000000E10    2.888296979169051E-2   2.690593663741041E-2  
 2.052200000000000E10    3.310793003550283E-2   2.177216919759909E-2  
 2.052400000000000E10    3.643025788995955E-2   1.590466261323956E-2  
 2.052600000000000E10    3.862332014573945E-2   9.535421030940834E-3  
 2.052800000000000E10    3.963464650290984E-2   2.936365988312496E-3  
 2.053000000000000E10    3.962729802286184E-2  -3.693715065579724E-3  
 2.053200000000000E10    3.856369839222344E-2  -1.029855026691048E-2  
 2.053400000000000E10    3.639592740822722E-2  -1.662564829543785E-2  
 2.053600000000000E10    3.308694368159330E-2  -2.271374832424853E-2  
 2.053800000000000E10    2.865656272128777E-2  -2.804779923624463E-2  
 2.054000000000000E10    2.340350162099910E-2  -3.231400665309694E-2  
 2.054200000000000E10    1.769726399194312E-2  -3.558141241470973E-2  
 2.054400000000000E10    1.168704981467238E-2  -3.801863171436169E-2  
 2.054600000000000E10    5.290636603065111E-3  -3.950848333813527E-2  
 2.054800000000000E10   -1.372345292043907E-3  -3.995045026143392E-2  
 2.055000000000000E10   -8.029607642028067E-3  -3.920774341181473E-2  
 2.055200000000000E10   -1.431260302800823E-2  -3.740165079081501E-2  
 2.055400000000000E10   -2.036718168744335E-2  -3.462057905616584E-2  
 2.055600000000000E10   -2.592622654305565E-2  -3.092381613398040E-2  
