#  HZ   S   RI   R     50.00 
! Rohde & Schwarz ZVA40 4Ports - Version 3.90 - 1145.1110k42 SN: 100403
! Date: 2023-10-03 12:15:58
! Measurement: S12 
! 
 2.000000000000000E10   -1.396303337472406E-2   3.336837844986028E-2  
 2.000200000000000E10   -8.549479547846118E-3   3.522145267327756E-2  
 2.000400000000000E10   -2.636166180201147E-3   3.618750556981708E-2  
 2.000600000000000E10    3.434397563670695E-3   3.630306414568828E-2  
 2.000800000000000E10    9.672346232463287E-3   3.526151971822740E-2  
 2.001000000000000E10    1.549898194847358E-2   3.295361251394618E-2  
 2.001200000000000E10    2.071441835373091E-2   2.990530205585124E-2  
 2.001400000000000E10    2.542282044502776E-2   2.612882998322223E-2  
 2.001600000000000E10    2.958280523885010E-2   2.141331657222706E-2  
 2.001800000000000E10    3.275028255663091E-2   1.611394474572152E-2  
 2.002000000000000E10    3.496082636184542E-2   1.031348205416478E-2  
 2.002200000000000E10    3.620633482684899E-2   3.873521295442171E-3  
 2.002400000000000E10    3.624516148050454E-2  -2.157470303320965E-3  
 2.002600000000000E10    3.533745288955791E-2  -8.095205119684559E-3  
 2.002800000000000E10    3.354893115334792E-2  -1.372987374937282E-2  
 2.003000000000000E10    3.080251992658204E-2  -1.914181829712221E-2  
 2.003200000000000E10    2.726579109652504E-2  -2.399129835224065E-2  
 2.003400000000000E10    2.291582039345634E-2  -2.821970669459640E-2  
 2.003600000000000E10    1.786475822409209E-2  -3.165982374543457E-2  
 2.003800000000000E10    1.233082697528996E-2  -3.418879031912576E-2  
 2.004000000000000E10    6.471123234330719E-3  -3.566069369040333E-2  
 2.004200000000000E10    5.415649136326952E-4  -3.613034790173589E-2  
 2.004400000000000E10   -5.272277583674786E-3  -3.569398857442077E-2  
 2.004600000000000E10   -1.093708454146278E-2  -3.448216020231406E-2  
 2.004800000000000E10   -1.645008286851473E-2  -3.239429640389995E-2  
 2.005000000000000E10   -2.161047407495013E-2  -2.947898403941954E-2  
 2.005200000000000E10   -2.647353779154245E-2  -2.576282319929019E-2  
 2.005400000000000E10   -3.069854135164278E-2  -2.113822298475256E-2  
 2.005600000000000E10   -3.413855666190932E-2  -1.556313495820203E-2  
 2.005800000000000E10   -3.639275955912363E-2  -9.448169442618703E-3  
 2.006000000000000E10   -3.739878785177449E-2  -2.952564966636781E-3  
 2.006200000000000E10   -3.728391691591033E-2   3.385270423197857E-3  
 2.006400000000000E10   -3.605218856445253E-2   9.578281927402696E-3  
 2.006600000000000E10   -3.380757330287934E-2   1.536927497646873E-2  
 2.006800000000000E10   -3.084723271731184E-2   2.052660230431634E-2  
 2.007000000000000E10   -2.726801969120219E-2   2.533706287368604E-2  
 2.007200000000000E10   -2.296574480509608E-2   2.971765970374584E-2  
 2.007400000000000E10   -1.771454385593261E-2   3.350564353834152E-2  
 2.007600000000000E10   -1.163635878002411E-2   3.623764377543952E-2  
 2.007800000000000E10   -5.198714273756339E-3   3.766789472833024E-2  
 2.008000000000000E10    1.322799412383695E-3   3.791605802106858E-2  
 2.008200000000000E10    7.695306613489380E-3   3.698595333078079E-2  
 2.008400000000000E10    1.363371234849182E-2   3.512527197661518E-2  
 2.008600000000000E10    1.919273689989772E-2   3.239751705735901E-2  
 2.008800000000000E10    2.440000241481240E-2   2.884456119653659E-2  
 2.009000000000000E10    2.897700072455425E-2   2.441892669198566E-2  
 2.009200000000000E10    3.276916534578180E-2   1.916449124307033E-2  
 2.009400000000000E10    3.549116146740856E-2   1.327634701579001E-2  
 2.009600000000000E10    3.714836419773897E-2   7.065029426694974E-3  
 2.009800000000000E10    3.771481668783658E-2   7.971920523764785E-4  
 2.010000000000000E10    3.718582651966445E-2  -5.453579856176796E-3  
 2.010200000000000E10    3.568116033825954E-2  -1.154095264718935E-2  
 2.010400000000000E10    3.339589954340605E-2  -1.711385732547914E-2  
 2.010600000000000E10    3.023171818196658E-2  -2.242719579026284E-2  
 2.010800000000000E10    2.621459494892252E-2  -2.724817128098679E-2  
 2.011000000000000E10    2.140747295253495E-2  -3.147772006355617E-2  
 2.011200000000000E10    1.585498721385338E-2  -3.486246168156536E-2  
 2.011400000000000E10    9.566058875629883E-3  -3.725443445502112E-2  
 2.011600000000000E10    2.771670489710595E-3  -3.837851955535193E-2  
 2.011800000000000E10   -3.981885090013872E-3  -3.807626265531868E-2  
 2.012000000000000E10   -1.037951774010885E-2  -3.655775852744787E-2  
 2.012200000000000E10   -1.631622564145523E-2  -3.393855522341203E-2  
 2.012400000000000E10   -2.151477925501998E-2  -3.047465919409355E-2  
 2.012600000000000E10   -2.592633891198793E-2  -2.644913426580688E-2  
 2.012800000000000E10   -2.982387773151789E-2  -2.182597573318917E-2  
 2.013000000000000E10   -3.296639268597584E-2  -1.667984921699945E-2  
 2.013200000000000E10   -3.528973661749267E-2  -1.104437663437434E-2  
 2.013400000000000E10   -3.668237327684258E-2  -4.956559393531823E-3  
 2.013600000000000E10   -3.685104602058889E-2   1.316852983606799E-3  
 2.013800000000000E10   -3.596360435735340E-2   7.335547626226177E-3  
 2.014000000000000E10   -3.424080935255205E-2   1.308891201099743E-2  
 2.014200000000000E10   -3.158970011610064E-2   1.851392698280245E-2  
 2.014400000000000E10   -2.808676017251139E-2   2.344731345016051E-2  
 2.014600000000000E10   -2.386121494842950E-2   2.772606324179023E-2  
 2.014800000000000E10   -1.908176090193779E-2   3.127003547978029E-2  
 2.015000000000000E10   -1.363888411130998E-2   3.411501639545197E-2  
 2.015200000000000E10   -7.679578900927452E-3   3.597257198335918E-2  
 2.015400000000000E10   -1.565774114221256E-3   3.676294717508646E-2  
 2.015600000000000E10    4.624836395863098E-3   3.650403995073184E-2  
 2.015800000000000E10    1.070712214200114E-2   3.514942585582503E-2  
 2.016000000000000E10    1.643198606399672E-2   3.274617073033137E-2  
 2.016200000000000E10    2.142697334863471E-2   2.961100848341067E-2  
 2.016400000000000E10    2.607497694638255E-2   2.573442722999839E-2  
 2.016600000000000E10    3.008973712729653E-2   2.098997625510226E-2  
 2.016800000000000E10    3.319995502560492E-2   1.572880420731532E-2  
 2.017000000000000E10    3.539464377269923E-2   9.911873711672847E-3  
 2.017200000000000E10    3.655987260283423E-2   3.707053231882027E-3  
 2.017400000000000E10    3.655577104153934E-2  -2.544459288328882E-3  
 2.017600000000000E10    3.539250821752598E-2  -8.594195664807581E-3  
 2.017800000000000E10    3.339396167949203E-2  -1.422038858536985E-2  
 2.018000000000000E10    3.057813135511327E-2  -1.942591637841561E-2  
 2.018200000000000E10    2.700532536100926E-2  -2.418425052700126E-2  
 2.018400000000000E10    2.274565661491198E-2  -2.826772375830080E-2  
 2.018600000000000E10    1.781204984899696E-2  -3.176785509177145E-2  
 2.018800000000000E10    1.225949180090650E-2  -3.445059149805585E-2  
 2.019000000000000E10    6.297255202091275E-3  -3.609500266507482E-2  
 2.019200000000000E10   -3.510758122683253E-5  -3.666449727254424E-2  
 2.019400000000000E10   -6.325918897588720E-3  -3.596788409171249E-2  
 2.019600000000000E10   -1.212906341748314E-2  -3.416564107487258E-2  
 2.019800000000000E10   -1.736702991110880E-2  -3.157391316769569E-2  
 2.020000000000000E10   -2.214297583294162E-2  -2.844053850669876E-2  
 2.020200000000000E10   -2.652938239188254E-2  -2.465395449246638E-2  
 2.020400000000000E10   -3.044254711114326E-2  -2.007148744348262E-2  
 2.020600000000000E10   -3.353884891603502E-2  -1.488415785601252E-2  
 2.020800000000000E10   -3.581726222494391E-2  -9.135284467726311E-3  
 2.021000000000000E10   -3.717525867449387E-2  -2.826650688417073E-3  
 2.021200000000000E10   -3.729747784931829E-2   3.675353523783603E-3  
 2.021400000000000E10   -3.616790110430389E-2   1.011859390201765E-2  
 2.021600000000000E10   -3.386221000048353E-2   1.625796823371339E-2  
 2.021800000000000E10   -3.056503818295424E-2   2.192009941608399E-2  
 2.022000000000000E10   -2.622580872194319E-2   2.682430304559676E-2  
 2.022200000000000E10   -2.114171072088779E-2   3.083020864049854E-2  
 2.022400000000000E10   -1.556207162403075E-2   3.384174721854105E-2  
 2.022600000000000E10   -9.544373731387851E-3   3.597273543500024E-2  
 2.022800000000000E10   -3.218242632533808E-3   3.695648457663346E-2  
 2.023000000000000E10    3.150707101021616E-3   3.673582201912944E-2  
 2.023200000000000E10    9.287299993015396E-3   3.539322766318356E-2  
 2.023400000000000E10    1.487059268907813E-2   3.309356751657646E-2  
 2.023600000000000E10    1.989732951175011E-2   3.012336623855179E-2  
 2.023800000000000E10    2.442646044050988E-2   2.645124730515665E-2  
 2.024000000000000E10    2.834790893457184E-2   2.218964841403621E-2  
 2.024200000000000E10    3.163375932588690E-2   1.749149542794296E-2  
 2.024400000000000E10    3.441775549867343E-2   1.223491925027994E-2  
 2.024600000000000E10    3.644246423638242E-2   6.293342056140345E-3  
 2.024800000000000E10    3.723769200348036E-2  -3.664766274234869E-4  
 2.025000000000000E10    3.649453438885623E-2  -7.026150024343447E-3  
 2.025200000000000E10    3.452172430745983E-2  -1.306936735705804E-2  
 2.025400000000000E10    3.159936159610386E-2  -1.868042967246516E-2  
 2.025600000000000E10    2.786791898000254E-2  -2.360155156173879E-2  
 2.025800000000000E10    2.350791820286795E-2  -2.770944670964385E-2  
 2.026000000000000E10    1.858333234264110E-2  -3.110386591374094E-2  
 2.026200000000000E10    1.321635279482691E-2  -3.370555660603090E-2  
 2.026400000000000E10    7.589864144241288E-3  -3.541340844674687E-2  
 2.026600000000000E10    1.671994629203599E-3  -3.629146540200541E-2  
 2.026800000000000E10   -4.360125390634725E-3  -3.625350286128744E-2  
 2.027000000000000E10   -1.044146674656870E-2  -3.524868544627868E-2  
 2.027200000000000E10   -1.644390546712711E-2  -3.309494198837566E-2  
 2.027400000000000E10   -2.194028910216589E-2  -2.984266150136107E-2  
 2.027600000000000E10   -2.678229945985548E-2  -2.568712132741263E-2  
 2.027800000000000E10   -3.082914280293114E-2  -2.068732683569264E-2  
 2.028000000000000E10   -3.397465667701196E-2  -1.504694573840343E-2  
 2.028200000000000E10   -3.597433720977782E-2  -8.872183915289794E-3  
 2.028400000000000E10   -3.675984987341599E-2  -2.520848297125313E-3  
 2.028600000000000E10   -3.650015625326220E-2   3.749937599958923E-3  
 2.028800000000000E10   -3.510545355857885E-2   9.855588822481391E-3  
 2.029000000000000E10   -3.273323538938055E-2   1.542129093898447E-2  
 2.029200000000000E10   -2.964820099315955E-2   2.045968831806824E-2  
 2.029400000000000E10   -2.583525064888308E-2   2.492676585312205E-2  
 2.029600000000000E10   -2.145615074350002E-2   2.870999010351145E-2  
 2.029800000000000E10   -1.661397496648603E-2   3.191938112697911E-2  
 2.030000000000000E10   -1.118182516502014E-2   3.438368249889897E-2  
 2.030200000000000E10   -5.334194653316886E-3   3.593551990274618E-2  
 2.030400000000000E10    7.571061510507249E-4   3.656609092079557E-2  
 2.030600000000000E10    7.116661635103000E-3   3.611649291666933E-2  
 2.030800000000000E10    1.335024049442717E-2   3.439232878176779E-2  
 2.031000000000000E10    1.912040416620724E-2   3.141868715434131E-2  
 2.031200000000000E10    2.407968456331939E-2   2.755398582349394E-2  
 2.031400000000000E10    2.829932070717969E-2   2.300443657779167E-2  
 2.031600000000000E10    3.152174751911571E-2   1.789318573137957E-2  
 2.031800000000000E10    3.385776238200333E-2   1.233469020348140E-2  
 2.032000000000000E10    3.527057930773419E-2   6.665504902717130E-3  
 2.032200000000000E10    3.590920892781532E-2   8.727348244986350E-4  
 2.032400000000000E10    3.556297674944004E-2  -5.032592270800961E-3  
 2.032600000000000E10    3.436463634683697E-2  -1.077626278493126E-2  
 2.032800000000000E10    3.225516304395892E-2  -1.637796612749447E-2  
 2.033000000000000E10    2.920559450594061E-2  -2.170137887951380E-2  
 2.033200000000000E10    2.513727184811446E-2  -2.650152046449367E-2  
 2.033400000000000E10    2.020879651158138E-2  -3.048186230819920E-2  
 2.033600000000000E10    1.767471033971048E-2  -3.188962497307223E-2  
 2.033800000000000E10    8.614620420008226E-3  -3.517792625634762E-2  
 2.034000000000000E10    2.620385846354952E-3  -3.593999281264315E-2  
 2.034200000000000E10   -3.255983042245661E-3  -3.577902529672725E-2  
 2.034400000000000E10   -9.029234177442813E-3  -3.471868557889138E-2  
 2.034600000000000E10   -1.454016499625356E-2  -3.276294451137561E-2  
 2.034800000000000E10   -1.977966425371203E-2  -3.004362967292107E-2  
 2.035000000000000E10   -2.454520023220963E-2  -2.641177284383538E-2  
 2.035200000000000E10   -2.860476452191039E-2  -2.191368976551837E-2  
 2.035400000000000E10   -3.178112776097945E-2  -1.690537990169464E-2  
 2.035600000000000E10   -3.407144074083930E-2  -1.158184709691514E-2  
 2.035800000000000E10   -3.568219486159079E-2  -5.972279797112885E-3  
 2.036000000000000E10   -3.645276514570742E-2   3.645914106784826E-5  
 2.036200000000000E10   -3.611417178895267E-2   6.207753550711780E-3  
 2.036400000000000E10   -3.471848696219956E-2   1.219645114976617E-2  
 2.036600000000000E10   -3.228866040077521E-2   1.795629862747378E-2  
 2.036800000000000E10   -2.889800307955025E-2   2.323515901007875E-2  
 2.037000000000000E10   -2.453312159983133E-2   2.791205781496074E-2  
 2.037200000000000E10   -1.949405138805288E-2   3.164400511670713E-2  
 2.037400000000000E10   -1.390119578156747E-2   3.444085817312123E-2  
 2.037600000000000E10   -7.992763141575602E-3   3.632143837097468E-2  
 2.037800000000000E10   -1.767027628513058E-3   3.725222080783286E-2  
 2.038000000000000E10    4.457405063453073E-3   3.709197476887174E-2  
 2.038200000000000E10    1.068969777104207E-2   3.588521552398043E-2  
 2.038400000000000E10    1.660488337331263E-2   3.365286025501941E-2  
 2.038600000000000E10    2.209705974925112E-2   3.041043197285643E-2  
 2.038800000000000E10    2.699679396101857E-2   2.620367312113229E-2  
 2.039000000000000E10    3.104704831859354E-2   2.130856525494558E-2  
 2.039200000000000E10    3.417809496135098E-2   1.575699321069352E-2  
 2.039400000000000E10    3.632235667536515E-2   9.618492349292990E-3  
 2.039600000000000E10    3.733026658717618E-2   3.433260493416237E-3  
 2.039800000000000E10    3.726455066884671E-2  -2.803448351846655E-3  
 2.040000000000000E10    3.624371341917717E-2  -8.903470815000062E-3  
 2.040200000000000E10    3.424400697367470E-2  -1.475693124438602E-2  
 2.040400000000000E10    3.136996428675798E-2  -2.021887541093699E-2  
 2.040600000000000E10    2.760271518191585E-2  -2.520447378910128E-2  
 2.040800000000000E10    2.301492313141580E-2  -2.949503086654905E-2  
 2.041000000000000E10    1.775040639613579E-2  -3.294465283454080E-2  
 2.041200000000000E10    1.197521283872625E-2  -3.543269597137695E-2  
 2.041400000000000E10    5.920101704876483E-3  -3.692005479223556E-2  
 2.041600000000000E10   -2.974838969247524E-4  -3.740128662729068E-2  
 2.041800000000000E10   -6.530613444865108E-3  -3.683924649537346E-2  
 2.042000000000000E10   -1.250214187935966E-2  -3.527429121460335E-2  
 2.042200000000000E10   -1.823008531286156E-2  -3.270364180728781E-2  
 2.042400000000000E10   -2.337633544475849E-2  -2.921814456665935E-2  
 2.042600000000000E10   -2.791091774362333E-2  -2.505941924057982E-2  
 2.042800000000000E10   -3.184062481276134E-2  -2.009195892323677E-2  
 2.043000000000000E10   -3.487937483406266E-2  -1.444016746082742E-2  
 2.043200000000000E10   -3.685309354797835E-2  -8.346880515623576E-3  
 2.043400000000000E10   -3.775293075963256E-2  -1.955046253055625E-3  
 2.043600000000000E10   -3.743912685290506E-2   4.420613581799604E-3  
 2.043800000000000E10   -3.604792737737635E-2   1.054429684986843E-2  
 2.044000000000000E10   -3.376265453662477E-2   1.631660345237306E-2  
 2.044200000000000E10   -3.070855827558976E-2   2.168545374197270E-2  
 2.044400000000000E10   -2.666121285464793E-2   2.667245821321170E-2  
 2.044600000000000E10   -2.164785858045054E-2   3.076565135106925E-2  
 2.044800000000000E10   -1.604260602042856E-2   3.384561071293105E-2  
 2.045000000000000E10   -1.015682469411919E-2   3.587681473456052E-2  
 2.045200000000000E10   -4.123737076750814E-3   3.694008160751471E-2  
 2.045400000000000E10    1.912652855905207E-3   3.697118328169775E-2  
 2.045600000000000E10    7.854688144216802E-3   3.617229519276805E-2  
 2.045800000000000E10    1.360665707671901E-2   3.449276168761148E-2  
 2.046000000000000E10    1.914583578492999E-2   3.197565703235242E-2  
 2.046200000000000E10    2.435479137631363E-2   2.844895446951209E-2  
 2.046400000000000E10    2.890480817044757E-2   2.393757044597307E-2  
 2.046600000000000E10    3.255470059714704E-2   1.875113670563677E-2  
 2.046800000000000E10    3.533798748780691E-2   1.298883297648245E-2  
 2.047000000000000E10    3.698951781725354E-2   6.679981003421201E-3  
 2.047200000000000E10    3.740374068978997E-2   3.764115011302957E-4  
 2.047400000000000E10    3.676101079012617E-2  -5.737167615565054E-3  
 2.047600000000000E10    3.528300385928201E-2  -1.159376127166153E-2  
 2.047800000000000E10    3.301540436980821E-2  -1.718683002608978E-2  
 2.048000000000000E10    2.978011540936237E-2  -2.249133944799965E-2  
 2.048200000000000E10    2.564631766908772E-2  -2.719012366162983E-2  
 2.048400000000000E10    2.074853309484058E-2  -3.110042305898376E-2  
 2.048600000000000E10    1.532211717740278E-2  -3.407125389163071E-2  
 2.048800000000000E10    9.476994080550836E-3  -3.618847484286702E-2  
 2.049000000000000E10    3.455669763228386E-3  -3.736742470598303E-2  
 2.049200000000000E10   -2.870795804020883E-3  -3.763285517728850E-2  
 2.049400000000000E10   -9.181583644334763E-3  -3.683239682089503E-2  
 2.049600000000000E10   -1.543326016951903E-2  -3.483136518982589E-2  
 2.049800000000000E10   -2.119665831251214E-2  -3.166268794796887E-2  
 2.050000000000000E10   -2.626776166609135E-2  -2.761173145923534E-2  
 2.050200000000000E10   -3.064122087613785E-2  -2.269258796992296E-2  
 2.050400000000000E10   -3.405318590553383E-2  -1.702069277852325E-2  
 2.050600000000000E10   -3.628174622281487E-2  -1.095906578154286E-2  
 2.050800000000000E10   -3.741321064163327E-2  -4.686386882222072E-3  
 2.051000000000000E10   -3.751950895725486E-2   1.668278655632273E-3  
 2.051200000000000E10   -3.657436484041611E-2   7.773580068076554E-3  
 2.051400000000000E10   -3.473514808491930E-2   1.356126171987738E-2  
 2.051600000000000E10   -3.213506838386603E-2   1.907565195681894E-2  
 2.051800000000000E10   -2.864367032559672E-2   2.428492092622627E-2  
 2.052000000000000E10   -2.425145286424455E-2   2.882429095396543E-2  
 2.052200000000000E10   -1.897806257235516E-2   3.265153096998748E-2  
 2.052400000000000E10   -1.313817713230478E-2   3.542866302202777E-2  
 2.052600000000000E10   -6.949300989390480E-3   3.709909211362557E-2  
 2.052800000000000E10   -5.121482805212770E-4   3.772129663631829E-2  
 2.053000000000000E10    5.985311050965912E-3   3.722113003659450E-2  
 2.053200000000000E10    1.219212238971620E-2   3.547221505739526E-2  
 2.053400000000000E10    1.795651180276182E-2   3.274878891877155E-2  
 2.053600000000000E10    2.310949252745737E-2   2.907602373765553E-2  
 2.053800000000000E10    2.739342942690887E-2   2.468361735078417E-2  
 2.054000000000000E10    3.087787255440604E-2   1.975435718212597E-2  
 2.054200000000000E10    3.360924997530614E-2   1.451762166105573E-2  
 2.054400000000000E10    3.558716356598210E-2   8.881259481594423E-3  
 2.054600000000000E10    3.666012154908038E-2   2.855785031310359E-3  
 2.054800000000000E10    3.670408468870065E-2  -3.299946173589117E-3  
 2.055000000000000E10    3.572254018749449E-2  -9.422455815196615E-3  
 2.055200000000000E10    3.364212425282254E-2  -1.537615878508901E-2  
 2.055400000000000E10    3.053374969652523E-2  -2.086268778996563E-2  
 2.055600000000000E10    2.660389402879916E-2  -2.569600983182636E-2  
