#  HZ   S   RI   R     50.00 
! Rohde & Schwarz ZVA40 4Ports - Version 3.90 - 1145.1110k42 SN: 100403
! Date: 2023-10-03 13:09:29
! Measurement: S12 
! 
 2.000000000000000E10    6.757551518323819E-1   1.132574012638447E-1  
 2.000200000000000E10    6.838552260922144E-1   5.966493721913409E-2  
 2.000400000000000E10    6.862356303814181E-1   4.785553490249914E-4  
 2.000600000000000E10    6.832141857415398E-1  -5.991853842069747E-2  
 2.000800000000000E10    6.748353162747189E-1  -1.179959628174008E-1  
 2.001000000000000E10    6.612339524248174E-1  -1.776522298653921E-1  
 2.001200000000000E10    6.429182344993938E-1  -2.341590122062974E-1  
 2.001400000000000E10    6.202266041306966E-1  -2.878197306468163E-1  
 2.001600000000000E10    5.922166790981843E-1  -3.419241074099626E-1  
 2.001800000000000E10    5.606136300763314E-1  -3.913922493840442E-1  
 2.002000000000000E10    5.237481136217367E-1  -4.392894879290107E-1  
 2.002200000000000E10    4.790622532285945E-1  -4.873188796602650E-1  
 2.002400000000000E10    4.351364204504200E-1  -5.279754382265612E-1  
 2.002600000000000E10    3.882250155849876E-1  -5.636101737107433E-1  
 2.002800000000000E10    3.393749590191495E-1  -5.950436706569133E-1  
 2.003000000000000E10    2.852050146938843E-1  -6.236879170676810E-1  
 2.003200000000000E10    2.306809328261390E-1  -6.462532082375840E-1  
 2.003400000000000E10    1.731162070206000E-1  -6.644073168763737E-1  
 2.003600000000000E10    1.141755667774439E-1  -6.773370517461226E-1  
 2.003800000000000E10    5.328094180474067E-2  -6.851685361116513E-1  
 2.004000000000000E10   -6.292827258752699E-3  -6.868567535416090E-1  
 2.004200000000000E10   -6.656615740641320E-2  -6.836191844220679E-1  
 2.004400000000000E10   -1.275945569711785E-1  -6.746591157873964E-1  
 2.004600000000000E10   -1.858477585518475E-1  -6.605060731759616E-1  
 2.004800000000000E10   -2.424699045993664E-1  -6.412406429668841E-1  
 2.005000000000000E10   -2.983806227296796E-1  -6.166083310693707E-1  
 2.005200000000000E10   -3.510621728066391E-1  -5.880576196357874E-1  
 2.005400000000000E10   -4.003354850211098E-1  -5.549521710319939E-1  
 2.005600000000000E10   -4.470449208967971E-1  -5.178858819321841E-1  
 2.005800000000000E10   -4.906591280007069E-1  -4.764115350073094E-1  
 2.006000000000000E10   -5.307647999585575E-1  -4.308255967698144E-1  
 2.006200000000000E10   -5.646287650074325E-1  -3.846684750706081E-1  
 2.006400000000000E10   -5.971493229617472E-1  -3.321078058705245E-1  
 2.006600000000000E10   -6.233625057956974E-1  -2.790375200645751E-1  
 2.006800000000000E10   -6.449886181881073E-1  -2.241603714121386E-1  
 2.007000000000000E10   -6.624087249791182E-1  -1.658623578903280E-1  
 2.007200000000000E10   -6.742254827575266E-1  -1.075313082693045E-1  
 2.007400000000000E10   -6.809708092601866E-1  -4.764933082363243E-2  
 2.007600000000000E10   -6.820630206329179E-1   1.084075553089748E-2  
 2.007800000000000E10   -6.781164025083001E-1   7.263819584099192E-2  
 2.008000000000000E10   -6.689502342574718E-1   1.306759588553255E-1  
 2.008200000000000E10   -6.545263025168693E-1   1.880791249425650E-1  
 2.008400000000000E10   -6.352950550401163E-1   2.445027800826216E-1  
 2.008600000000000E10   -6.112107594480895E-1   2.990615173295366E-1  
 2.008800000000000E10   -5.827162027031960E-1   3.504428652987723E-1  
 2.009000000000000E10   -5.497454682822418E-1   3.994984422773328E-1  
 2.009200000000000E10   -5.122314671103030E-1   4.463421841380693E-1  
 2.009400000000000E10   -4.711138016566001E-1   4.889106483125884E-1  
 2.009600000000000E10   -4.271956312640051E-1   5.272914656886349E-1  
 2.009800000000000E10   -3.795684547417776E-1   5.622060680749159E-1  
 2.010000000000000E10   -3.280801096080263E-1   5.937487105283228E-1  
 2.010200000000000E10   -2.766761366477229E-1   6.187921946431385E-1  
 2.010400000000000E10   -2.211169855993635E-1   6.405877171720498E-1  
 2.010600000000000E10   -1.640598941977623E-1   6.574807593034293E-1  
 2.010800000000000E10   -1.070986052640345E-1   6.689203200026306E-1  
 2.011000000000000E10   -4.822283142101946E-2   6.756677731401473E-1  
 2.011200000000000E10    9.889003279042753E-3   6.773026606837092E-1  
 2.011400000000000E10    6.981383573739128E-2   6.740358078594235E-1  
 2.011600000000000E10    1.272227983047933E-1   6.654263261414360E-1  
 2.011800000000000E10    1.852171635063588E-1   6.518846287485340E-1  
 2.012000000000000E10    2.416764447677610E-1   6.334730016351238E-1  
 2.012200000000000E10    2.955902713071172E-1   6.104477325911712E-1  
 2.012400000000000E10    3.474707699525177E-1   5.826559490300665E-1  
 2.012600000000000E10    3.977746149558263E-1   5.500129776890550E-1  
 2.012800000000000E10    4.441325949052725E-1   5.136654891267890E-1  
 2.013000000000000E10    4.874693757467310E-1   4.728744969037663E-1  
 2.013200000000000E10    5.269460969174024E-1   4.283948742231388E-1  
 2.013400000000000E10    5.621891234310240E-1   3.806560626572870E-1  
 2.013600000000000E10    5.944504489296912E-1   3.280414907857061E-1  
 2.013800000000000E10    6.196928602350756E-1   2.766321733982312E-1  
 2.014000000000000E10    6.418680940308853E-1   2.198285369920469E-1  
 2.014200000000000E10    6.583566475143486E-1   1.633524422333237E-1  
 2.014400000000000E10    6.699737995576793E-1   1.056249960439359E-1  
 2.014600000000000E10    6.765256477481545E-1   4.642636641676044E-2  
 2.014800000000000E10    6.775849560487746E-1  -1.214096053990195E-2  
 2.015000000000000E10    6.737286170487216E-1  -7.201366561921047E-2  
 2.015200000000000E10    6.646313457986128E-1  -1.302797579103046E-1  
 2.015400000000000E10    6.508538066441467E-1  -1.867271920535790E-1  
 2.015600000000000E10    6.317569357541037E-1  -2.434982340808432E-1  
 2.015800000000000E10    6.079332921730639E-1  -2.987076298771899E-1  
 2.016000000000000E10    5.802484603575719E-1  -3.490279261712675E-1  
 2.016200000000000E10    5.470046887508964E-1  -3.995409584993853E-1  
 2.016400000000000E10    5.097422084690613E-1  -4.458473088891746E-1  
 2.016600000000000E10    4.687759578227997E-1  -4.883508941437156E-1  
 2.016800000000000E10    4.241801351104418E-1  -5.270386007914656E-1  
 2.017000000000000E10    3.764158209737274E-1  -5.616871565784775E-1  
 2.017200000000000E10    3.245850726246671E-1  -5.927789871911782E-1  
 2.017400000000000E10    2.721445237903439E-1  -6.177379861780646E-1  
 2.017600000000000E10    2.165460941804617E-1  -6.386933229424172E-1  
 2.017800000000000E10    1.596034216823565E-1  -6.547673275114252E-1  
 2.018000000000000E10    1.021192738037705E-1  -6.655702967048510E-1  
 2.018200000000000E10    4.540663757278433E-2  -6.709905568464304E-1  
 2.018400000000000E10   -1.374118092542691E-2  -6.720924702854969E-1  
 2.018600000000000E10   -7.132211288715751E-2  -6.679917811039218E-1  
 2.018800000000000E10   -1.284549577859204E-1  -6.589847234868547E-1  
 2.019000000000000E10   -1.849687547513651E-1  -6.452012353963814E-1  
 2.019200000000000E10   -2.394762825328137E-1  -6.268766643415591E-1  
 2.019400000000000E10   -2.941530124477235E-1  -6.032061307845620E-1  
 2.019600000000000E10   -3.441869485280151E-1  -5.763868860420049E-1  
 2.019800000000000E10   -3.931783055081780E-1  -5.445399645751724E-1  
 2.020000000000000E10   -4.388048911290896E-1  -5.090188460094940E-1  
 2.020200000000000E10   -4.817417154014520E-1  -4.692949282697854E-1  
 2.020400000000000E10   -5.204682832555680E-1  -4.263339870914674E-1  
 2.020600000000000E10   -5.561515468955859E-1  -3.791184172299992E-1  
 2.020800000000000E10   -5.869096570708299E-1  -3.298543987614301E-1  
 2.021000000000000E10   -6.139120529872074E-1  -2.769866901333604E-1  
 2.021200000000000E10   -6.358638809705142E-1  -2.226194866481959E-1  
 2.021400000000000E10   -6.527763658263230E-1  -1.673161369251453E-1  
 2.021600000000000E10   -6.652916170278532E-1  -1.086436882104076E-1  
 2.021800000000000E10   -6.721143389762021E-1  -5.070710107581933E-2  
 2.022000000000000E10   -6.740408623169480E-1   7.874270809101473E-3  
 2.022200000000000E10   -6.707011090057542E-1   6.678032904699835E-2  
 2.022400000000000E10   -6.623835154031040E-1   1.247514955423497E-1  
 2.022600000000000E10   -6.490226295586314E-1   1.814599220522147E-1  
 2.022800000000000E10   -6.307798927376465E-1   2.379692860346273E-1  
 2.023000000000000E10   -6.079381454138109E-1   2.912581682368726E-1  
 2.023200000000000E10   -5.803928277947121E-1   3.431138246638295E-1  
 2.023400000000000E10   -5.479032697337483E-1   3.930589720627246E-1  
 2.023600000000000E10   -5.124315746200102E-1   4.385886390186305E-1  
 2.023800000000000E10   -4.725622278427392E-1   4.813974752756468E-1  
 2.024000000000000E10   -4.292007286525722E-1   5.205555565563250E-1  
 2.024200000000000E10   -3.821896871012753E-1   5.563261771398318E-1  
 2.024400000000000E10   -3.324684952021627E-1   5.874210638600941E-1  
 2.024600000000000E10   -2.806866042244419E-1   6.140622557108950E-1  
 2.024800000000000E10   -2.263721479269049E-1   6.362498804865552E-1  
 2.025000000000000E10   -1.682253639802684E-1   6.543496735956117E-1  
 2.025200000000000E10   -1.130136417937868E-1   6.662507117693972E-1  
 2.025400000000000E10   -5.451868018659219E-2   6.737680507949024E-1  
 2.025600000000000E10    5.945905883999642E-3   6.761024175684476E-1  
 2.025800000000000E10    6.362334787027990E-2   6.735799360013630E-1  
 2.026000000000000E10    1.218873587001335E-1   6.655014293838104E-1  
 2.026200000000000E10    1.796156071913422E-1   6.524251131200334E-1  
 2.026400000000000E10    2.357097501126828E-1   6.345718709039101E-1  
 2.026600000000000E10    2.906809547310504E-1   6.113917066400108E-1  
 2.026800000000000E10    3.428337786995662E-1   5.839025911316788E-1  
 2.027000000000000E10    3.918823871674689E-1   5.521324356233469E-1  
 2.027200000000000E10    4.394058833724024E-1   5.153592916509580E-1  
 2.027400000000000E10    4.823161106050752E-1   4.752000241613194E-1  
 2.027600000000000E10    5.220038746937150E-1   4.313017068985232E-1  
 2.027800000000000E10    5.573752109569451E-1   3.839384330480024E-1  
 2.028000000000000E10    5.888662943297127E-1   3.335847310895619E-1  
 2.028200000000000E10    6.155132037294909E-1   2.811400748901734E-1  
 2.028400000000000E10    6.378773536701753E-1   2.258641978186672E-1  
 2.028600000000000E10    6.548912932352765E-1   1.697263093396960E-1  
 2.028800000000000E10    6.673367677565629E-1   1.117159114800527E-1  
 2.029000000000000E10    6.746002287694621E-1   5.240456638819397E-2  
 2.029200000000000E10    6.765523597863804E-1  -6.112602499756958E-3  
 2.029400000000000E10    6.734070435309444E-1  -6.552274355508991E-2  
 2.029600000000000E10    6.649559867071354E-1  -1.237753377550260E-1  
 2.029800000000000E10    6.513598495877166E-1  -1.819620976845424E-1  
 2.030000000000000E10    6.328697516103832E-1  -2.381091598825036E-1  
 2.030200000000000E10    6.095247989001753E-1  -2.922310205725813E-1  
 2.030400000000000E10    5.816595907564517E-1  -3.432781826730292E-1  
 2.030600000000000E10    5.485113232060552E-1  -3.939477713428571E-1  
 2.030800000000000E10    5.120108806220266E-1  -4.397009980286101E-1  
 2.031000000000000E10    4.720165843580977E-1  -4.817534123837376E-1  
 2.031200000000000E10    4.279809722929826E-1  -5.208481228891224E-1  
 2.031400000000000E10    3.798484514443146E-1  -5.564827217486661E-1  
 2.031600000000000E10    3.324100932793690E-1  -5.849362601141545E-1  
 2.031800000000000E10    2.811544058008940E-1  -6.113927923602823E-1  
 2.032000000000000E10    2.267853379740146E-1  -6.335238128369074E-1  
 2.032200000000000E10    1.718800204648893E-1  -6.507469753342565E-1  
 2.032400000000000E10    1.145748169211203E-1  -6.635461575536898E-1  
 2.032600000000000E10    5.684520760538320E-2  -6.711608360333699E-1  
 2.032800000000000E10   -1.546506647311857E-3  -6.739097565453404E-1  
 2.033000000000000E10   -6.031086977024465E-2  -6.714667188941370E-1  
 2.033200000000000E10   -1.193300523017169E-1  -6.638203206049236E-1  
 2.033400000000000E10   -1.766630347782366E-1  -6.512703075493969E-1  
 2.033600000000000E10   -1.719815509677424E-1  -6.531580240147596E-1  
 2.033800000000000E10   -2.881439361307356E-1  -6.106455078340853E-1  
 2.034000000000000E10   -3.415534679045894E-1  -5.828105361700386E-1  
 2.034200000000000E10   -3.912626582980974E-1  -5.505546758204332E-1  
 2.034400000000000E10   -4.375296766538843E-1  -5.144004215101811E-1  
 2.034600000000000E10   -4.806180068576615E-1  -4.739088422231715E-1  
 2.034800000000000E10   -5.203165100435172E-1  -4.297292560379856E-1  
 2.035000000000000E10   -5.553105484965081E-1  -3.826197340818754E-1  
 2.035200000000000E10   -5.864087205037823E-1  -3.323465491273276E-1  
 2.035400000000000E10   -6.124690883934745E-1  -2.802979354995759E-1  
 2.035600000000000E10   -6.342171126432381E-1  -2.259949146474831E-1  
 2.035800000000000E10   -6.513546723233658E-1  -1.693504811641448E-1  
 2.036000000000000E10   -6.632068871797685E-1  -1.125042000874898E-1  
 2.036200000000000E10   -6.700357028649833E-1  -5.445460027239615E-2  
 2.036400000000000E10   -6.720011916180207E-1   4.390575164808945E-3  
 2.036600000000000E10   -6.689000859836166E-1   6.180029623568141E-2  
 2.036800000000000E10   -6.607441418946036E-1   1.191543203424688E-1  
 2.037000000000000E10   -6.472044663174164E-1   1.775425996718257E-1  
 2.037200000000000E10   -6.299328272561806E-1   2.312818366436311E-1  
 2.037400000000000E10   -6.076820242552110E-1   2.843242499808716E-1  
 2.037600000000000E10   -5.802644468302263E-1   3.366207749428246E-1  
 2.037800000000000E10   -5.485298282815596E-1   3.859274825605020E-1  
 2.038000000000000E10   -5.142987386843470E-1   4.300805456190280E-1  
 2.038200000000000E10   -4.743567537133096E-1   4.739364514380326E-1  
 2.038400000000000E10   -4.318767904990005E-1   5.127894461400225E-1  
 2.038600000000000E10   -3.865031960160972E-1   5.478886866275177E-1  
 2.038800000000000E10   -3.374674847995958E-1   5.798062243906397E-1  
 2.039000000000000E10   -2.872853716950358E-1   6.070781700078026E-1  
 2.039200000000000E10   -2.342645685368605E-1   6.298693340828717E-1  
 2.039400000000000E10   -1.778373481968957E-1   6.489082564215275E-1  
 2.039600000000000E10   -1.223389025782689E-1   6.624392398590906E-1  
 2.039800000000000E10   -6.443054973057105E-2   6.714660473811774E-1  
 2.040000000000000E10   -6.423813084572228E-3   6.751690566621528E-1  
 2.040200000000000E10    5.228580303479943E-2   6.742213696282261E-1  
 2.040400000000000E10    1.118530540104920E-1   6.674668380098907E-1  
 2.040600000000000E10    1.705123414636803E-1   6.557033928660536E-1  
 2.040800000000000E10    2.267030675797142E-1   6.388737158683757E-1  
 2.041000000000000E10    2.827287730039066E-1   6.167802316007628E-1  
 2.041200000000000E10    3.363000111978895E-1   5.896687557504339E-1  
 2.041400000000000E10    3.867418036294082E-1   5.583315019908430E-1  
 2.041600000000000E10    4.342743639102200E-1   5.223450430953782E-1  
 2.041800000000000E10    4.794052339712126E-1   4.816444235737596E-1  
 2.042000000000000E10    5.185071237293292E-1   4.385359499434877E-1  
 2.042200000000000E10    5.550330119368472E-1   3.907684187911994E-1  
 2.042400000000000E10    5.869612970142863E-1   3.401255630089586E-1  
 2.042600000000000E10    6.139127055313363E-1   2.878761304177048E-1  
 2.042800000000000E10    6.362347784356326E-1   2.332055947254061E-1  
 2.043000000000000E10    6.542601823316190E-1   1.762711244886959E-1  
 2.043200000000000E10    6.668257993762223E-1   1.188099089044112E-1  
 2.043400000000000E10    6.746554289662136E-1   5.942760063501380E-2  
 2.043600000000000E10    6.768523603473344E-1   1.786752255660302E-3  
 2.043800000000000E10    6.743267338789377E-1  -5.660066243634140E-2  
 2.044000000000000E10    6.664192315155261E-1  -1.156767651500035E-1  
 2.044200000000000E10    6.540551277999198E-1  -1.725581816725934E-1  
 2.044400000000000E10    6.367361176815217E-1  -2.281356736997191E-1  
 2.044600000000000E10    6.145613103573542E-1  -2.828905422582876E-1  
 2.044800000000000E10    5.874121343647993E-1  -3.355542442190304E-1  
 2.045000000000000E10    5.559732120877595E-1  -3.858464466936795E-1  
 2.045200000000000E10    5.203715708357154E-1  -4.328181378553598E-1  
 2.045400000000000E10    4.810450046396060E-1  -4.763500293504718E-1  
 2.045600000000000E10    4.383919178131350E-1  -5.158099595084277E-1  
 2.045800000000000E10    3.911875099638690E-1  -5.527027470094187E-1  
 2.046000000000000E10    3.413263423207366E-1  -5.846904921760613E-1  
 2.046200000000000E10    2.896205344644921E-1  -6.117552036447618E-1  
 2.046400000000000E10    2.346601056750093E-1  -6.346201342319756E-1  
 2.046600000000000E10    1.776634659950299E-1  -6.527106398090579E-1  
 2.046800000000000E10    1.207456404984570E-1  -6.653147513156730E-1  
 2.047000000000000E10    6.098728879918287E-2  -6.735422975895992E-1  
 2.047200000000000E10    2.588689791623744E-3  -6.762029003704527E-1  
 2.047400000000000E10   -5.516885283348166E-2  -6.737014175442513E-1  
 2.047600000000000E10   -1.135944896601192E-1  -6.661281508836892E-1  
 2.047800000000000E10   -1.718971743382544E-1  -6.536486012291354E-1  
 2.048000000000000E10   -2.268029263521582E-1  -6.361900764237707E-1  
 2.048200000000000E10   -2.809676173129037E-1  -6.140495858401756E-1  
 2.048400000000000E10   -3.340712768959575E-1  -5.870927462689017E-1  
 2.048600000000000E10   -3.837125035225120E-1  -5.561787981555296E-1  
 2.048800000000000E10   -4.310247179003247E-1  -5.203558116619806E-1  
 2.049000000000000E10   -4.750685619882760E-1  -4.812536941961334E-1  
 2.049200000000000E10   -5.151395095392184E-1  -4.379115658205397E-1  
 2.049400000000000E10   -5.509087283097832E-1  -3.923153115234585E-1  
 2.049600000000000E10   -5.836668048866492E-1  -3.421978376529835E-1  
 2.049800000000000E10   -6.112469740528793E-1  -2.904250971737876E-1  
 2.050000000000000E10   -6.339734120624057E-1  -2.365706027862303E-1  
 2.050200000000000E10   -6.526569982451504E-1  -1.795628194496629E-1  
 2.050400000000000E10   -6.658587044485640E-1  -1.217101192298577E-1  
 2.050600000000000E10   -6.739185907059083E-1  -6.328001587724491E-2  
 2.050800000000000E10   -6.769204541161882E-1  -3.700942083406269E-3  
 2.051000000000000E10   -6.746631194371092E-1   5.514750493222796E-2  
 2.051200000000000E10   -6.671213645830404E-1   1.136016497702756E-1  
 2.051400000000000E10   -6.545299372555298E-1   1.720317308426885E-1  
 2.051600000000000E10   -6.368345414660106E-1   2.284514279154594E-1  
 2.051800000000000E10   -6.143819923590568E-1   2.826898778662270E-1  
 2.052000000000000E10   -5.870821650953778E-1   3.354986751112264E-1  
 2.052200000000000E10   -5.548804264990882E-1   3.858416992123399E-1  
 2.052400000000000E10   -5.192591201294271E-1   4.321300373891744E-1  
 2.052600000000000E10   -4.791837699292293E-1   4.754568980227446E-1  
 2.052800000000000E10   -4.359082366622199E-1   5.148814399873606E-1  
 2.053000000000000E10   -3.892750485362013E-1   5.501327073132551E-1  
 2.053200000000000E10   -3.394112819997372E-1   5.820178593954760E-1  
 2.053400000000000E10   -2.877288944354928E-1   6.086561933302913E-1  
 2.053600000000000E10   -2.339975813656678E-1   6.309213820635374E-1  
 2.053800000000000E10   -1.782098241426327E-1   6.485161055262688E-1  
 2.054000000000000E10   -1.209080881849238E-1   6.614125598278230E-1  
 2.054200000000000E10   -6.425079503013602E-2   6.692134591614105E-1  
 2.054400000000000E10   -6.160190048536851E-3   6.723859821981528E-1  
 2.054600000000000E10    5.186123151551877E-2   6.705595429869183E-1  
 2.054800000000000E10    1.089741550130445E-1   6.640349687862790E-1  
 2.055000000000000E10    1.666477830117295E-1   6.525549612254600E-1  
 2.055200000000000E10    2.224203342436437E-1   6.362780647349784E-1  
 2.055400000000000E10    2.769264079252225E-1   6.152943825689037E-1  
 2.055600000000000E10    3.298173792486492E-1   5.894474284148512E-1  
