#  HZ   S   RI   R     50.00 
! Rohde & Schwarz ZVA40 4Ports - Version 3.90 - 1145.1110k42 SN: 100403
! Date: 2023-10-03 11:32:32
! Measurement: S12 
! 
 2.000000000000000E10   -3.334098107491931E-3  -2.825161787094894E-3  
 2.000200000000000E10   -3.767491887427039E-3  -2.216032861421506E-3  
 2.000400000000000E10   -4.038759145057864E-3  -1.500531263580477E-3  
 2.000600000000000E10   -4.124325148209379E-3  -7.794347108790169E-4  
 2.000800000000000E10   -4.059338122951213E-3  -1.441623023344652E-4  
 2.001000000000000E10   -3.997120031811022E-3   3.620870573083974E-4  
 2.001200000000000E10   -4.058840132697866E-3   8.702059125493247E-4  
 2.001400000000000E10   -4.096220195707348E-3   1.562633323138235E-3  
 2.001600000000000E10   -3.866478041918190E-3   2.401008874315907E-3  
 2.001800000000000E10   -3.378946730798042E-3   3.133787601082414E-3  
 2.002000000000000E10   -2.773548002113347E-3   3.718573919118003E-3  
 2.002200000000000E10   -2.043740358203650E-3   4.177668545809058E-3  
 2.002400000000000E10   -1.285724057298568E-3   4.504282148209988E-3  
 2.002600000000000E10   -4.394194111227989E-4   4.649807078142961E-3  
 2.002800000000000E10    4.247106585858598E-4   4.624106214140301E-3  
 2.003000000000000E10    1.272214826679340E-3   4.392823273385013E-3  
 2.003200000000000E10    1.948829076287371E-3   4.008244084953158E-3  
 2.003400000000000E10    2.494621038850811E-3   3.580769118680447E-3  
 2.003600000000000E10    2.982288047119423E-3   3.100551009454109E-3  
 2.003800000000000E10    3.390849481716200E-3   2.568642953755679E-3  
 2.004000000000000E10    3.728080394298390E-3   2.034649675436043E-3  
 2.004200000000000E10    4.008617459072008E-3   1.434886418455453E-3  
 2.004400000000000E10    4.177843548219514E-3   7.934020034520439E-4  
 2.004600000000000E10    4.245951444048574E-3   9.532077873936270E-5  
 2.004800000000000E10    4.182887298089487E-3  -5.645207258769209E-4  
 2.005000000000000E10    4.101099636129760E-3  -1.210078377173179E-3  
 2.005200000000000E10    3.887822696318230E-3  -1.896492140885029E-3  
 2.005400000000000E10    3.533556815926676E-3  -2.493669960164914E-3  
 2.005600000000000E10    3.119271714240313E-3  -3.061132781483510E-3  
 2.005800000000000E10    2.614178841381713E-3  -3.605831612798351E-3  
 2.006000000000000E10    1.962706981295789E-3  -4.086183004633145E-3  
 2.006200000000000E10    1.184337035131951E-3  -4.400402548964378E-3  
 2.006400000000000E10    3.541244562560072E-4  -4.515566518185316E-3  
 2.006600000000000E10   -4.698263278610453E-4  -4.483754142980885E-3  
 2.006800000000000E10   -1.241530222749269E-3  -4.294134555729452E-3  
 2.007000000000000E10   -1.937651222019836E-3  -4.000284329608635E-3  
 2.007200000000000E10   -2.570024708768836E-3  -3.613797094052037E-3  
 2.007400000000000E10   -3.127327852847952E-3  -3.103598219308037E-3  
 2.007600000000000E10   -3.607758062167301E-3  -2.501543913105572E-3  
 2.007800000000000E10   -3.949505777132732E-3  -1.817938056774438E-3  
 2.008000000000000E10   -4.103934582046889E-3  -1.126791251374892E-3  
 2.008200000000000E10   -4.157199662316730E-3  -5.178923623774339E-4  
 2.008400000000000E10   -4.246800016887762E-3   7.165817522844819E-5  
 2.008600000000000E10   -4.317760829710299E-3   8.127218590945835E-4  
 2.008800000000000E10   -4.156850036923533E-3   1.648050944182884E-3  
 2.009000000000000E10   -3.795187420177240E-3   2.355291861695824E-3  
 2.009200000000000E10   -3.358259296941537E-3   2.954162191599608E-3  
 2.009400000000000E10   -2.868812513986120E-3   3.531518883796202E-3  
 2.009600000000000E10   -2.200642428188413E-3   4.135302612902942E-3  
 2.009800000000000E10   -1.309603163800030E-3   4.523537794335022E-3  
 2.010000000000000E10   -3.605474614434773E-4   4.598208616867111E-3  
 2.010200000000000E10    5.276756192971435E-4   4.433166114958349E-3  
 2.010400000000000E10    1.247436510985372E-3   4.107718493927409E-3  
 2.010600000000000E10    1.830939229370819E-3   3.732857768665310E-3  
 2.010800000000000E10    2.295935819684356E-3   3.357676323503256E-3  
 2.011000000000000E10    2.711246997393944E-3   2.998146478569618E-3  
 2.011200000000000E10    3.159021803488334E-3   2.610780781617871E-3  
 2.011400000000000E10    3.607190231344215E-3   2.112144492221652E-3  
 2.011600000000000E10    4.020416419263240E-3   1.483427696964807E-3  
 2.011800000000000E10    4.269185700212365E-3   7.043847473579702E-4  
 2.012000000000000E10    4.259345087188262E-3  -1.012801682615342E-4  
 2.012200000000000E10    4.066824464610330E-3  -8.176873045697534E-4  
 2.012400000000000E10    3.867585211992264E-3  -1.410604182941218E-3  
 2.012600000000000E10    3.668674526529181E-3  -2.002782998951497E-3  
 2.012800000000000E10    3.379057368470564E-3  -2.663633639544801E-3  
 2.013000000000000E10    2.879168855509273E-3  -3.321500288115608E-3  
 2.013200000000000E10    2.183610038762844E-3  -3.825757376573705E-3  
 2.013400000000000E10    1.473527543971108E-3  -4.144950614621243E-3  
 2.013600000000000E10    7.045871612650378E-4  -4.376592597475758E-3  
 2.013800000000000E10   -1.622681296861696E-4  -4.427633851904561E-3  
 2.014000000000000E10   -1.012529733728756E-3  -4.241034836956749E-3  
 2.014200000000000E10   -1.763581074084397E-3  -3.850256101469751E-3  
 2.014400000000000E10   -2.287978013218553E-3  -3.383573239531231E-3  
 2.014600000000000E10   -2.732461137283180E-3  -2.976413402292464E-3  
 2.014800000000000E10   -3.159007626689143E-3  -2.504398882458056E-3  
 2.015000000000000E10   -3.502261824905873E-3  -1.957612172527998E-3  
 2.015200000000000E10   -3.754975067244636E-3  -1.399140360903133E-3  
 2.015400000000000E10   -3.964800525594641E-3  -8.338049713832637E-4  
 2.015600000000000E10   -4.111687221598846E-3  -1.958288304632772E-4  
 2.015800000000000E10   -4.151887760532123E-3   5.065431512236871E-4  
 2.016000000000000E10   -4.069054292307960E-3   1.275336801039952E-3  
 2.016200000000000E10   -3.823470824432594E-3   2.057204298951008E-3  
 2.016400000000000E10   -3.373151248389925E-3   2.786457728318595E-3  
 2.016600000000000E10   -2.779656408906535E-3   3.387842818887698E-3  
 2.016800000000000E10   -2.072908139477174E-3   3.833965208657362E-3  
 2.017000000000000E10   -1.319952455728695E-3   4.113556110058671E-3  
 2.017200000000000E10   -5.288846635570129E-4   4.247155419930265E-3  
 2.017400000000000E10    2.322387342617192E-4   4.190582851016964E-3  
 2.017600000000000E10    8.978069095906837E-4   3.973598928294249E-3  
 2.017800000000000E10    1.440359654629396E-3   3.694228526135838E-3  
 2.018000000000000E10    1.953326493363690E-3   3.416966043274712E-3  
 2.018200000000000E10    2.447829737017552E-3   3.091886173933745E-3  
 2.018400000000000E10    2.903693648814052E-3   2.736911901997196E-3  
 2.018600000000000E10    3.346408743204343E-3   2.324116442145573E-3  
 2.018800000000000E10    3.814987070789493E-3   1.838780732618438E-3  
 2.019000000000000E10    4.280920416392662E-3   1.178565275579415E-3  
 2.019200000000000E10    4.558169179492528E-3   3.033583957908882E-4  
 2.019400000000000E10    4.588881645489623E-3  -6.062289337731071E-4  
 2.019600000000000E10    4.419854807632941E-3  -1.534269441402069E-3  
 2.019800000000000E10    3.971699495903321E-3  -2.415502029988501E-3  
 2.020000000000000E10    3.334479803150451E-3  -3.101194803430527E-3  
 2.020200000000000E10    2.608648199519074E-3  -3.559828183993146E-3  
 2.020400000000000E10    1.900250648355319E-3  -3.823569182444502E-3  
 2.020600000000000E10    1.235676808627667E-3  -3.980071939252042E-3  
 2.020800000000000E10    5.529104371951825E-4  -4.042554284549423E-3  
 2.021000000000000E10   -4.944405292109068E-5  -3.946324801762348E-3  
 2.021200000000000E10   -4.664935188850871E-4  -3.892492709888353E-3  
 2.021400000000000E10   -1.013863560122748E-3  -3.966842596936557E-3  
 2.021600000000000E10   -1.777004303962544E-3  -3.900093699081077E-3  
 2.021800000000000E10   -2.578463750305000E-3  -3.548381306851904E-3  
 2.022000000000000E10   -3.221528725353657E-3  -2.992452475828706E-3  
 2.022200000000000E10   -3.730535101904362E-3  -2.357143719025233E-3  
 2.022400000000000E10   -4.108777700888890E-3  -1.648247082441769E-3  
 2.022600000000000E10   -4.347858950495720E-3  -8.628329356994343E-4  
 2.022800000000000E10   -4.415109632881704E-3  -6.861849235267274E-5  
 2.023000000000000E10   -4.363030747131066E-3   6.943657925283469E-4  
 2.023200000000000E10   -4.201812842101963E-3   1.432200553137120E-3  
 2.023400000000000E10   -3.885598482426119E-3   2.151770465489891E-3  
 2.023600000000000E10   -3.398649325525320E-3   2.776010936402061E-3  
 2.023800000000000E10   -2.869814125545048E-3   3.259757352578972E-3  
 2.024000000000000E10   -2.308709357209780E-3   3.701317322405953E-3  
 2.024200000000000E10   -1.632519001658592E-3   4.050927995531648E-3  
 2.024400000000000E10   -9.089380920933630E-4   4.214076877192215E-3  
 2.024600000000000E10   -2.302183840786004E-4   4.291623382380715E-3  
 2.024800000000000E10    5.172538070904989E-4   4.289072593329130E-3  
 2.025000000000000E10    1.255102524602855E-3   4.123630571282573E-3  
 2.025200000000000E10    1.913361540236683E-3   3.830889308894123E-3  
 2.025400000000000E10    2.510237533392178E-3   3.440261568391213E-3  
 2.025600000000000E10    3.048428989670895E-3   2.993323650487044E-3  
 2.025800000000000E10    3.529917612602866E-3   2.474190960465758E-3  
 2.026000000000000E10    3.951386703799169E-3   1.867107081192511E-3  
 2.026200000000000E10    4.265971671513938E-3   1.146839276232101E-3  
 2.026400000000000E10    4.417987919791982E-3   3.943132523326549E-4  
 2.026600000000000E10    4.451240947539056E-3  -3.757025837398100E-4  
 2.026800000000000E10    4.347315816967576E-3  -1.177849118701286E-3  
 2.027000000000000E10    4.037979119284838E-3  -1.975289856394132E-3  
 2.027200000000000E10    3.522268668920906E-3  -2.617282603211977E-3  
 2.027400000000000E10    2.977289406030819E-3  -3.098538861161581E-3  
 2.027600000000000E10    2.408267999136890E-3  -3.494121953500090E-3  
 2.027800000000000E10    1.813428515257935E-3  -3.744388292371123E-3  
 2.028000000000000E10    1.287296785179664E-3  -3.950664954673913E-3  
 2.028200000000000E10    7.209394588480120E-4  -4.187428288989598E-3  
 2.028400000000000E10    3.543230650393526E-5  -4.359205839810549E-3  
 2.028600000000000E10   -7.262021773149848E-4  -4.374364046034990E-3  
 2.028800000000000E10   -1.501494212317522E-3  -4.212535917758942E-3  
 2.029000000000000E10   -2.195734358220189E-3  -3.919966311918365E-3  
 2.029200000000000E10   -2.878346101001458E-3  -3.521757433190942E-3  
 2.029400000000000E10   -3.564455330854765E-3  -2.958209986832959E-3  
 2.029600000000000E10   -4.097757671304323E-3  -2.187559079309857E-3  
 2.029800000000000E10   -4.361184175919604E-3  -1.306130317971110E-3  
 2.030000000000000E10   -4.398302002637475E-3  -5.125460986703359E-4  
 2.030200000000000E10   -4.383179410878155E-3   1.927612595156663E-4  
 2.030400000000000E10   -4.292610722283523E-3   9.458668560169087E-4  
 2.030600000000000E10   -3.993003939588865E-3   1.705575057443370E-3  
 2.030800000000000E10   -3.534468218546224E-3   2.292432322132367E-3  
 2.031000000000000E10   -3.035608963626955E-3   2.739595128568235E-3  
 2.031200000000000E10   -2.556211953223856E-3   3.091137959725327E-3  
 2.031400000000000E10   -2.120652529238551E-3   3.445252336354720E-3  
 2.031600000000000E10   -1.571318380431169E-3   3.819416949732437E-3  
 2.031800000000000E10   -8.708575494690903E-4   4.063233715930472E-3  
 2.032000000000000E10   -1.845892617927381E-4   4.146255414794993E-3  
 2.032200000000000E10    5.054830398876220E-4   4.170946414685912E-3  
 2.032400000000000E10    1.242733137958028E-3   4.050495999830741E-3  
 2.032600000000000E10    1.923854117868124E-3   3.772801426411779E-3  
 2.032800000000000E10    2.553273578760801E-3   3.368696051270322E-3  
 2.033000000000000E10    3.093874806331264E-3   2.806158960555439E-3  
 2.033200000000000E10    3.499752643552644E-3   2.199126045323081E-3  
 2.033400000000000E10    3.810541712920423E-3   1.585855247901270E-3  
 2.033600000000000E10    3.928047466885161E-3   1.246614920630775E-3  
 2.033800000000000E10    4.097087403621387E-3   7.563001229384639E-5  
 2.034000000000000E10    3.978429327684421E-3  -6.897158649129173E-4  
 2.034200000000000E10    3.666374504704167E-3  -1.370047283772793E-3  
 2.034400000000000E10    3.244397859951413E-3  -1.889294957638615E-3  
 2.034600000000000E10    2.826486541717141E-3  -2.250812128531161E-3  
 2.034800000000000E10    2.421549288555980E-3  -2.552558400633711E-3  
 2.035000000000000E10    2.011155200846218E-3  -2.843516180291772E-3  
 2.035200000000000E10    1.565332796114187E-3  -3.131620482438141E-3  
 2.035400000000000E10    1.070873609192118E-3  -3.346598586412492E-3  
 2.035600000000000E10    5.179288305549158E-4  -3.503003243908839E-3  
 2.035800000000000E10   -8.220383930771884E-5  -3.590011115496358E-3  
 2.036000000000000E10   -7.202853987648808E-4  -3.542486250538517E-3  
 2.036200000000000E10   -1.319566038782122E-3  -3.371299416930588E-3  
 2.036400000000000E10   -1.896248078318658E-3  -3.126607707667131E-3  
 2.036600000000000E10   -2.444547523433964E-3  -2.717874987326839E-3  
 2.036800000000000E10   -2.874965012004530E-3  -2.153304440003855E-3  
 2.037000000000000E10   -3.152459902964809E-3  -1.532029037156867E-3  
 2.037200000000000E10   -3.261477143193285E-3  -9.183185606229086E-4  
 2.037400000000000E10   -3.213519825496608E-3  -3.645682795818344E-4  
 2.037600000000000E10   -3.142607484564737E-3   7.925716205068902E-5  
 2.037800000000000E10   -3.100293869566587E-3   5.152428121719924E-4  
 2.038000000000000E10   -2.985433735712259E-3   9.849896628616587E-4  
 2.038200000000000E10   -2.794857386982552E-3   1.429707036112194E-3  
 2.038400000000000E10   -2.556386567583239E-3   1.848966314422864E-3  
 2.038600000000000E10   -2.221710600510792E-3   2.255632731787585E-3  
 2.038800000000000E10   -1.776499272738066E-3   2.615828644829216E-3  
 2.039000000000000E10   -1.278637153855353E-3   2.862969568620126E-3  
 2.039200000000000E10   -7.424946417342183E-4   2.981307976706713E-3  
 2.039400000000000E10   -2.553378721198964E-4   2.989775026906972E-3  
 2.039600000000000E10    1.587655480627156E-4   2.984191773942223E-3  
 2.039800000000000E10    6.353892644660341E-4   2.940827937520765E-3  
 2.040000000000000E10    1.098057733745211E-3   2.791355890049427E-3  
 2.040200000000000E10    1.501312354338114E-3   2.608820485572021E-3  
 2.040400000000000E10    1.926010655653146E-3   2.372941442040934E-3  
 2.040600000000000E10    2.349288720223639E-3   1.989747923626392E-3  
 2.040800000000000E10    2.662897541153211E-3   1.545869361574728E-3  
 2.041000000000000E10    2.906211350044167E-3   1.029249297937861E-3  
 2.041200000000000E10    3.021472280293151E-3   4.549694756321885E-4  
 2.041400000000000E10    3.026919827486078E-3  -9.557118998297182E-5  
 2.041600000000000E10    2.947006754025265E-3  -6.378955807088426E-4  
 2.041800000000000E10    2.721357668094613E-3  -1.194472161673562E-3  
 2.042000000000000E10    2.345924024228697E-3  -1.638152459808798E-3  
 2.042200000000000E10    1.909864074723037E-3  -1.903076712214561E-3  
 2.042400000000000E10    1.499437658047235E-3  -2.036609014289247E-3  
 2.042600000000000E10    1.155798250153937E-3  -2.115608037759861E-3  
 2.042800000000000E10    8.443551250147047E-4  -2.151978357384603E-3  
 2.043000000000000E10    5.745098632932814E-4  -2.147358747337152E-3  
 2.043200000000000E10    3.733702448058736E-4  -2.180209840406423E-3  
 2.043400000000000E10    1.609585640296616E-4  -2.273220913829627E-3  
 2.043600000000000E10   -1.050976651539612E-4  -2.409158757439366E-3  
 2.043800000000000E10   -5.136692877082776E-4  -2.542662744720777E-3  
 2.044000000000000E10   -1.051685893563209E-3  -2.554664569389489E-3  
 2.044200000000000E10   -1.603807779718881E-3  -2.396786421606387E-3  
 2.044400000000000E10   -2.188333827588294E-3  -2.008315003304570E-3  
 2.044600000000000E10   -2.581490522802428E-3  -1.370217370869661E-3  
 2.044800000000000E10   -2.615488410271981E-3  -6.865513644664101E-4  
 2.045000000000000E10   -2.446721031985902E-3  -2.323158761201841E-4  
 2.045200000000000E10   -2.344940935640976E-3   3.401627650924234E-5  
 2.045400000000000E10   -2.311784627467946E-3   3.106928359354950E-4  
 2.045600000000000E10   -2.275046814853947E-3   6.050582095566724E-4  
 2.045800000000000E10   -2.246849549313386E-3   9.644545584537641E-4  
 2.046000000000000E10   -2.105732543255996E-3   1.383637246261869E-3  
 2.046200000000000E10   -1.818449529646724E-3   1.768027238237361E-3  
 2.046400000000000E10   -1.435380873132359E-3   2.100709929234452E-3  
 2.046600000000000E10   -9.656361330093611E-4   2.313159492418722E-3  
 2.046800000000000E10   -4.804015409684292E-4   2.339190406793798E-3  
 2.047000000000000E10   -6.391696202896397E-5   2.268175430664862E-3  
 2.047200000000000E10    2.635941917240551E-4   2.121394353539304E-3  
 2.047400000000000E10    4.466584327423738E-4   1.977265622742750E-3  
 2.047600000000000E10    6.292846002098587E-4   1.958160117889444E-3  
 2.047800000000000E10    9.371498642765264E-4   1.951215922384075E-3  
 2.048000000000000E10    1.284714206121862E-3   1.801770262385684E-3  
 2.048200000000000E10    1.571397391941261E-3   1.529783756403184E-3  
 2.048400000000000E10    1.788660267333466E-3   1.230478079782592E-3  
 2.048600000000000E10    1.926299451884848E-3   9.285462869296748E-4  
 2.048800000000000E10    2.029922489007866E-3   6.260656475744867E-4  
 2.049000000000000E10    2.080150388388170E-3   3.281511868677896E-4  
 2.049200000000000E10    2.089045226091036E-3   5.681045553905684E-5  
 2.049400000000000E10    2.114780023004170E-3  -1.975573422559710E-4  
 2.049600000000000E10    2.134252770769376E-3  -4.711706682832706E-4  
 2.049800000000000E10    2.177915527243857E-3  -7.608406530279254E-4  
 2.050000000000000E10    2.175950402117990E-3  -1.155844691243989E-3  
 2.050200000000000E10    2.065690251550189E-3  -1.676668632879026E-3  
 2.050400000000000E10    1.735184540006298E-3  -2.232610058315375E-3  
 2.050600000000000E10    1.154952954190473E-3  -2.672952229019117E-3  
 2.050800000000000E10    4.087304567090339E-4  -2.855750447553066E-3  
 2.051000000000000E10   -2.864454290829599E-4  -2.727244566712115E-3  
 2.051200000000000E10   -7.873139262233896E-4  -2.386806920791666E-3  
 2.051400000000000E10   -1.044367903550328E-3  -1.993158116453776E-3  
 2.051600000000000E10   -1.130336667066095E-3  -1.730275142041070E-3  
 2.051800000000000E10   -1.221339558941071E-3  -1.619484758487454E-3  
 2.052000000000000E10   -1.435911162169996E-3  -1.485486096633529E-3  
 2.052200000000000E10   -1.643894339428732E-3  -1.253892771071858E-3  
 2.052400000000000E10   -1.767527441390687E-3  -1.011784046163990E-3  
 2.052600000000000E10   -1.867089955205167E-3  -7.996895518671309E-4  
 2.052800000000000E10   -2.036925689834688E-3  -6.153347483767129E-4  
 2.053000000000000E10   -2.244221029320249E-3  -3.227561214266138E-4  
 2.053200000000000E10   -2.349460799316014E-3   5.626795232442587E-5  
 2.053400000000000E10   -2.407685551723397E-3   4.512159977349695E-4  
 2.053600000000000E10   -2.411926820598267E-3   9.168279917772722E-4  
 2.053800000000000E10   -2.231345477479476E-3   1.427629751291264E-3  
 2.054000000000000E10   -1.860987584761999E-3   1.863017281586374E-3  
 2.054200000000000E10   -1.455458635636778E-3   2.137624598280700E-3  
 2.054400000000000E10   -1.006555506373169E-3   2.331915596086118E-3  
 2.054600000000000E10   -5.453536049807790E-4   2.434176634307261E-3  
 2.054800000000000E10   -8.762765274797048E-5   2.436244756811195E-3  
 2.055000000000000E10    3.153687618948796E-4   2.295707473186432E-3  
 2.055200000000000E10    5.605985600225352E-4   2.108871402149951E-3  
 2.055400000000000E10    7.222788623982559E-4   2.040166554420635E-3  
 2.055600000000000E10    9.587606311672266E-4   2.022136985841725E-3  
