#  HZ   S   RI   R     50.00 
! Rohde & Schwarz ZVA40 4Ports - Version 3.90 - 1145.1110k42 SN: 100403
! Date: 2023-10-03 11:32:00
! Measurement: S12 
! 
 2.000000000000000E10   -3.272520088870462E-3  -3.042471230053056E-3  
 2.000200000000000E10   -3.733349048030475E-3  -2.457707213935416E-3  
 2.000400000000000E10   -4.090981195784278E-3  -1.698054592201770E-3  
 2.000600000000000E10   -4.246586847498462E-3  -9.323641171088682E-4  
 2.000800000000000E10   -4.237927500265862E-3  -2.843721381339740E-4  
 2.001000000000000E10   -4.211443685255792E-3   2.370107626262669E-4  
 2.001200000000000E10   -4.278200544386245E-3   8.274935494433829E-4  
 2.001400000000000E10   -4.292343509356672E-3   1.625127595017660E-3  
 2.001600000000000E10   -4.023283386580003E-3   2.515451232385305E-3  
 2.001800000000000E10   -3.512133595077589E-3   3.232982935222947E-3  
 2.002000000000000E10   -2.869018738698445E-3   3.790946462701378E-3  
 2.002200000000000E10   -2.077900112794383E-3   4.229972156247607E-3  
 2.002400000000000E10   -1.286865403653418E-3   4.571112940172232E-3  
 2.002600000000000E10   -4.197658871304352E-4   4.735190858259614E-3  
 2.002800000000000E10    4.179756765046882E-4   4.687199656518154E-3  
 2.003000000000000E10    1.221545039170226E-3   4.430710033364135E-3  
 2.003200000000000E10    1.900731452736897E-3   4.072983067007468E-3  
 2.003400000000000E10    2.505388013144702E-3   3.691143038157574E-3  
 2.003600000000000E10    3.060757708563297E-3   3.254447965940209E-3  
 2.003800000000000E10    3.524195818698088E-3   2.722648275180609E-3  
 2.004000000000000E10    3.900369845805959E-3   2.104028202823283E-3  
 2.004200000000000E10    4.184451860609492E-3   1.386899548513746E-3  
 2.004400000000000E10    4.334221946635119E-3   6.830953943079393E-4  
 2.004600000000000E10    4.393072087900261E-3  -1.509914694712286E-5  
 2.004800000000000E10    4.308688753273017E-3  -6.923923422697427E-4  
 2.005000000000000E10    4.158915871363364E-3  -1.380514285005936E-3  
 2.005200000000000E10    3.870771273227079E-3  -2.111095311350109E-3  
 2.005400000000000E10    3.467241272429933E-3  -2.709021820560282E-3  
 2.005600000000000E10    3.031652578854083E-3  -3.244803721131183E-3  
 2.005800000000000E10    2.512629164014886E-3  -3.717781259168568E-3  
 2.006000000000000E10    1.859313996658189E-3  -4.160420572454179E-3  
 2.006200000000000E10    1.067662184268482E-3  -4.471184756729462E-3  
 2.006400000000000E10    2.775878765757547E-4  -4.572847676022677E-3  
 2.006600000000000E10   -4.836629095023552E-4  -4.544789105684424E-3  
 2.006800000000000E10   -1.230003061194602E-3  -4.392153386087944E-3  
 2.007000000000000E10   -1.997213713909067E-3  -4.133557840422900E-3  
 2.007200000000000E10   -2.772540214314383E-3  -3.711276175070999E-3  
 2.007400000000000E10   -3.407060684168658E-3  -3.111893253653874E-3  
 2.007600000000000E10   -3.872871367306806E-3  -2.399493351869991E-3  
 2.007800000000000E10   -4.155051587877696E-3  -1.597329884587400E-3  
 2.008000000000000E10   -4.213300845949862E-3  -8.043874540929627E-4  
 2.008200000000000E10   -4.140985106336483E-3  -1.671379223684378E-4  
 2.008400000000000E10   -4.116062885495249E-3   3.206217653116157E-4  
 2.008600000000000E10   -4.110084187408044E-3   9.183366232026569E-4  
 2.008800000000000E10   -3.945967640513134E-3   1.633122990697377E-3  
 2.009000000000000E10   -3.604121026180593E-3   2.290795710505037E-3  
 2.009200000000000E10   -3.221335730787536E-3   2.864937982119528E-3  
 2.009400000000000E10   -2.810661246954107E-3   3.423564849850634E-3  
 2.009600000000000E10   -2.210634715525518E-3   4.040618958871490E-3  
 2.009800000000000E10   -1.303071317592552E-3   4.484962173756749E-3  
 2.010000000000000E10   -3.223846056412354E-4   4.602665922876617E-3  
 2.010200000000000E10    5.844728518162429E-4   4.468901632851903E-3  
 2.010400000000000E10    1.304191868721581E-3   4.132270510212630E-3  
 2.010600000000000E10    1.865345478314646E-3   3.715886605075665E-3  
 2.010800000000000E10    2.330867098376094E-3   3.299670861152466E-3  
 2.011000000000000E10    2.751893517197160E-3   2.922473118904932E-3  
 2.011200000000000E10    3.192197144368794E-3   2.532581958743464E-3  
 2.011400000000000E10    3.623536566594317E-3   2.042890618336790E-3  
 2.011600000000000E10    4.003056973686497E-3   1.402363015833185E-3  
 2.011800000000000E10    4.237851070493093E-3   5.727755439988964E-4  
 2.012000000000000E10    4.231033789246908E-3  -2.442259594070852E-4  
 2.012200000000000E10    4.032874232686965E-3  -9.404226295351066E-4  
 2.012400000000000E10    3.796987317947081E-3  -1.509889430910687E-3  
 2.012600000000000E10    3.554196356615597E-3  -2.065445803328123E-3  
 2.012800000000000E10    3.188993579635221E-3  -2.700258624153557E-3  
 2.013000000000000E10    2.659439794343624E-3  -3.280721477390011E-3  
 2.013200000000000E10    2.009846643763192E-3  -3.672890290387987E-3  
 2.013400000000000E10    1.380446738728280E-3  -3.923795894056621E-3  
 2.013600000000000E10    6.809082325862208E-4  -4.137969993576102E-3  
 2.013800000000000E10   -1.234032410018984E-4  -4.234191907930032E-3  
 2.014000000000000E10   -9.330503380025734E-4  -4.121134645945619E-3  
 2.014200000000000E10   -1.628988806671873E-3  -3.786046729603238E-3  
 2.014400000000000E10   -2.135276500760375E-3  -3.366188233365677E-3  
 2.014600000000000E10   -2.608374097487993E-3  -2.983635388230407E-3  
 2.014800000000000E10   -3.079480585477358E-3  -2.527489680451928E-3  
 2.015000000000000E10   -3.441525101968291E-3  -1.970922588773164E-3  
 2.015200000000000E10   -3.672938223797905E-3  -1.419672772188675E-3  
 2.015400000000000E10   -3.870888273020893E-3  -8.559134250330460E-4  
 2.015600000000000E10   -4.032935155747237E-3  -1.890892504859110E-4  
 2.015800000000000E10   -4.083472953672395E-3   5.232722334632720E-4  
 2.016000000000000E10   -3.991888284131334E-3   1.257711596530192E-3  
 2.016200000000000E10   -3.759975608346271E-3   1.948314248450070E-3  
 2.016400000000000E10   -3.369535306093012E-3   2.628467980879570E-3  
 2.016600000000000E10   -2.805520048357332E-3   3.262920253392724E-3  
 2.016800000000000E10   -2.137290098255983E-3   3.740484085616200E-3  
 2.017000000000000E10   -1.405596664106405E-3   4.043115502215708E-3  
 2.017200000000000E10   -6.120474793499819E-4   4.164640199577000E-3  
 2.017400000000000E10    1.569316819046218E-4   4.064528618406490E-3  
 2.017600000000000E10    8.012914834659042E-4   3.845036809750423E-3  
 2.017800000000000E10    1.296642832860443E-3   3.609934908916615E-3  
 2.018000000000000E10    1.739355013035085E-3   3.420792498008766E-3  
 2.018200000000000E10    2.226701450875267E-3   3.210991258836456E-3  
 2.018400000000000E10    2.771736843197189E-3   2.908708195205886E-3  
 2.018600000000000E10    3.319719935663873E-3   2.479046347470564E-3  
 2.018800000000000E10    3.826504149723324E-3   1.947723278285238E-3  
 2.019000000000000E10    4.260558169335127E-3   1.288442139000222E-3  
 2.019200000000000E10    4.529254062584153E-3   4.448956254689567E-4  
 2.019400000000000E10    4.590190462231514E-3  -4.765847414001869E-4  
 2.019600000000000E10    4.464841997749154E-3  -1.412683356756444E-3  
 2.019800000000000E10    4.057539230281557E-3  -2.297611365769320E-3  
 2.020000000000000E10    3.459429127880883E-3  -2.992619922261977E-3  
 2.020200000000000E10    2.732604896312450E-3  -3.468406751728905E-3  
 2.020400000000000E10    2.011458947104805E-3  -3.759054272577412E-3  
 2.020600000000000E10    1.395980357058316E-3  -3.964141687692562E-3  
 2.020800000000000E10    7.284020237555659E-4  -4.106106029616462E-3  
 2.021000000000000E10    8.110019511067972E-5  -4.056738589894134E-3  
 2.021200000000000E10   -3.895457333850641E-4  -4.000935427568578E-3  
 2.021400000000000E10   -9.534038404968603E-4  -4.093917372249405E-3  
 2.021600000000000E10   -1.749648282844804E-3  -4.072178680250430E-3  
 2.021800000000000E10   -2.582855147037487E-3  -3.757649860172361E-3  
 2.022000000000000E10   -3.257946811670078E-3  -3.210402564279766E-3  
 2.022200000000000E10   -3.789436225415258E-3  -2.540185704536031E-3  
 2.022400000000000E10   -4.211088048424495E-3  -1.822956609673829E-3  
 2.022600000000000E10   -4.529093762039526E-3  -1.033569908884849E-3  
 2.022800000000000E10   -4.644000233982695E-3  -1.917912610643640E-4  
 2.023000000000000E10   -4.564640959226546E-3   6.479299778153224E-4  
 2.023200000000000E10   -4.369002906797232E-3   1.440040894626897E-3  
 2.023400000000000E10   -4.047745972902442E-3   2.195281674127275E-3  
 2.023600000000000E10   -3.585637521205678E-3   2.847705805796839E-3  
 2.023800000000000E10   -3.054803391581271E-3   3.396873497461648E-3  
 2.024000000000000E10   -2.430803106078273E-3   3.891864504067251E-3  
 2.024200000000000E10   -1.659310729445990E-3   4.278081856330727E-3  
 2.024400000000000E10   -8.460149332332913E-4   4.466295548917827E-3  
 2.024600000000000E10   -1.052518935376824E-4   4.533451801710169E-3  
 2.024800000000000E10    6.799507196781844E-4   4.481181734214718E-3  
 2.025000000000000E10    1.458751506252606E-3   4.241724588636141E-3  
 2.025200000000000E10    2.133819616664155E-3   3.911399903396767E-3  
 2.025400000000000E10    2.735019376915363E-3   3.501827880326245E-3  
 2.025600000000000E10    3.281354530495995E-3   3.011123498579787E-3  
 2.025800000000000E10    3.713695455051254E-3   2.426015458418509E-3  
 2.026000000000000E10    4.075710793934120E-3   1.766869551578821E-3  
 2.026200000000000E10    4.347888632091108E-3   1.016377500850524E-3  
 2.026400000000000E10    4.460714284115982E-3   2.516092509299578E-4  
 2.026600000000000E10    4.475800830242321E-3  -5.153736045465274E-4  
 2.026800000000000E10    4.334859898766127E-3  -1.325768267701346E-3  
 2.027000000000000E10    3.982852895288066E-3  -2.126394320708612E-3  
 2.027200000000000E10    3.438658898297713E-3  -2.767579615645019E-3  
 2.027400000000000E10    2.874172046404991E-3  -3.210133251086369E-3  
 2.027600000000000E10    2.284029978729877E-3  -3.551361855280437E-3  
 2.027800000000000E10    1.679817266827411E-3  -3.749786242804349E-3  
 2.028000000000000E10    1.140059622525862E-3  -3.900156912121754E-3  
 2.028200000000000E10    5.760463004943306E-4  -4.093055095937517E-3  
 2.028400000000000E10   -9.772081114687103E-5  -4.233700261593111E-3  
 2.028600000000000E10   -8.310280894044282E-4  -4.224793989318635E-3  
 2.028800000000000E10   -1.579718021369336E-3  -4.047296650002523E-3  
 2.029000000000000E10   -2.245226057644919E-3  -3.754117118899899E-3  
 2.029200000000000E10   -2.891901594015613E-3  -3.399948717895973E-3  
 2.029400000000000E10   -3.536310252913661E-3  -2.869587783498590E-3  
 2.029600000000000E10   -4.059910511697639E-3  -2.122199088105081E-3  
 2.029800000000000E10   -4.291185902224647E-3  -1.242309891611123E-3  
 2.030000000000000E10   -4.290893549337187E-3  -4.637508864855632E-4  
 2.030200000000000E10   -4.259159715669882E-3   2.004889082192317E-4  
 2.030400000000000E10   -4.186008399574723E-3   9.087385255709263E-4  
 2.030600000000000E10   -3.911690129189458E-3   1.634041256551083E-3  
 2.030800000000000E10   -3.505054859390843E-3   2.247285595117712E-3  
 2.031000000000000E10   -3.043889061360019E-3   2.727133416428917E-3  
 2.031200000000000E10   -2.569632590345947E-3   3.097584604289491E-3  
 2.031400000000000E10   -2.116778140136428E-3   3.443005563760246E-3  
 2.031600000000000E10   -1.588692126408557E-3   3.794275892039938E-3  
 2.031800000000000E10   -9.098898278311695E-4   4.039459668268516E-3  
 2.032000000000000E10   -2.134855863697628E-4   4.146741440619339E-3  
 2.032200000000000E10    4.864776647868165E-4   4.161567798980470E-3  
 2.032400000000000E10    1.235199913980417E-3   4.001327504790982E-3  
 2.032600000000000E10    1.912580589369062E-3   3.696555560148118E-3  
 2.032800000000000E10    2.523934834640581E-3   3.303478172033597E-3  
 2.033000000000000E10    3.049409563112775E-3   2.788365155519773E-3  
 2.033200000000000E10    3.441448648241752E-3   2.247722666143390E-3  
 2.033400000000000E10    3.789403782429274E-3   1.661034633880750E-3  
 2.033600000000000E10    3.932784940020292E-3   1.297720155579042E-3  
 2.033800000000000E10    4.096772554311365E-3   9.713389824164665E-5  
 2.034000000000000E10    3.955437957956897E-3  -6.627468365903776E-4  
 2.034200000000000E10    3.659745242347014E-3  -1.315042725764215E-3  
 2.034400000000000E10    3.243458179427396E-3  -1.852757969119974E-3  
 2.034600000000000E10    2.806929637651140E-3  -2.232972000737066E-3  
 2.034800000000000E10    2.434050718920283E-3  -2.539640641292182E-3  
 2.035000000000000E10    2.085901085869889E-3  -2.861027638408751E-3  
 2.035200000000000E10    1.639263177436198E-3  -3.204778666558212E-3  
 2.035400000000000E10    1.091122078716970E-3  -3.446805993202354E-3  
 2.035600000000000E10    5.126705714415207E-4  -3.567669269487017E-3  
 2.035800000000000E10   -7.205378461388180E-5  -3.629556407676742E-3  
 2.036000000000000E10   -6.917358901631472E-4  -3.594480667631200E-3  
 2.036200000000000E10   -1.287921457819702E-3  -3.424707698585934E-3  
 2.036400000000000E10   -1.905070134886989E-3  -3.187202751720823E-3  
 2.036600000000000E10   -2.520696467953762E-3  -2.779673755268563E-3  
 2.036800000000000E10   -2.993420247417787E-3  -2.166480525423593E-3  
 2.037000000000000E10   -3.226883425818059E-3  -1.481108626143800E-3  
 2.037200000000000E10   -3.264460184730192E-3  -8.845643618013788E-4  
 2.037400000000000E10   -3.213404126871577E-3  -3.844226032367107E-4  
 2.037600000000000E10   -3.169844420473456E-3   4.193421429044227E-5  
 2.037800000000000E10   -3.170501202183926E-3   4.742681839284890E-4  
 2.038000000000000E10   -3.095914134487449E-3   9.564931998834199E-4  
 2.038200000000000E10   -2.895078300824198E-3   1.446244818993956E-3  
 2.038400000000000E10   -2.659880814866887E-3   1.896183570816255E-3  
 2.038600000000000E10   -2.333405338526692E-3   2.361174910463424E-3  
 2.038800000000000E10   -1.882482221859810E-3   2.754551277078167E-3  
 2.039000000000000E10   -1.373888381925477E-3   3.043199920022684E-3  
 2.039200000000000E10   -7.774579715282646E-4   3.211287822796669E-3  
 2.039400000000000E10   -1.825585000436378E-4   3.206794840042238E-3  
 2.039600000000000E10    3.177159926480395E-4   3.181884771427562E-3  
 2.039800000000000E10    8.556236193894790E-4   3.105266002455244E-3  
 2.040000000000000E10    1.373279306543186E-3   2.846016936625044E-3  
 2.040200000000000E10    1.769715873141287E-3   2.544263966090273E-3  
 2.040400000000000E10    2.147927625419059E-3   2.237686550114381E-3  
 2.040600000000000E10    2.491988560736732E-3   1.836161097557641E-3  
 2.040800000000000E10    2.742660644851288E-3   1.403976565728984E-3  
 2.041000000000000E10    2.963863042041415E-3   9.308536280686259E-4  
 2.041200000000000E10    3.055906603534404E-3   3.763987407471061E-4  
 2.041400000000000E10    3.050808427824712E-3  -1.689876658974192E-4  
 2.041600000000000E10    2.997077831906485E-3  -7.123505244407145E-4  
 2.041800000000000E10    2.786613492019199E-3  -1.278585665226903E-3  
 2.042000000000000E10    2.415495862371821E-3  -1.760376024217088E-3  
 2.042200000000000E10    1.945406865374542E-3  -2.089903134672516E-3  
 2.042400000000000E10    1.478500389723958E-3  -2.248312611086869E-3  
 2.042600000000000E10    1.099986556453684E-3  -2.323183238720943E-3  
 2.042800000000000E10    7.477915978036178E-4  -2.362122733352913E-3  
 2.043000000000000E10    4.501668168634268E-4  -2.345094595242430E-3  
 2.043200000000000E10    1.898909384016342E-4  -2.354989138742288E-3  
 2.043400000000000E10   -1.032361486464846E-4  -2.432495183138936E-3  
 2.043600000000000E10   -4.605460363926957E-4  -2.504341150039938E-3  
 2.043800000000000E10   -9.270216258809952E-4  -2.506305841123494E-3  
 2.044000000000000E10   -1.461963397795680E-3  -2.362579598815905E-3  
 2.044200000000000E10   -1.951245670570942E-3  -2.045140361198734E-3  
 2.044400000000000E10   -2.359284010405342E-3  -1.576094533634898E-3  
 2.044600000000000E10   -2.574309386665561E-3  -9.480607959369022E-4  
 2.044800000000000E10   -2.487685054218696E-3  -3.471430031766679E-4  
 2.045000000000000E10   -2.237221026800788E-3   1.084135649840771E-6  
 2.045200000000000E10   -2.096137810889402E-3   1.970201256533332E-4  
 2.045400000000000E10   -2.044448738250836E-3   4.180704434871782E-4  
 2.045600000000000E10   -1.989839557336007E-3   6.431625809121893E-4  
 2.045800000000000E10   -1.948602462126088E-3   9.297445261230073E-4  
 2.046000000000000E10   -1.808438197625303E-3   1.284898201735698E-3  
 2.046200000000000E10   -1.573920173286902E-3   1.576299206622006E-3  
 2.046400000000000E10   -1.303026986350555E-3   1.837266939634711E-3  
 2.046600000000000E10   -9.363795610991741E-4   2.049074034923266E-3  
 2.046800000000000E10   -5.465568155395212E-4   2.105201260136909E-3  
 2.047000000000000E10   -2.103708897932403E-4   2.063182201773051E-3  
 2.047200000000000E10    8.610482116846880E-5   1.992684682647204E-3  
 2.047400000000000E10    2.862875234362490E-4   1.921899124228783E-3  
 2.047600000000000E10    4.903320167999362E-4   1.922750205985834E-3  
 2.047800000000000E10    8.185088992360291E-4   1.908767352804327E-3  
 2.048000000000000E10    1.167557173535044E-3   1.776543408517301E-3  
 2.048200000000000E10    1.452629657561887E-3   1.549904479035809E-3  
 2.048400000000000E10    1.672687427688835E-3   1.275724882773534E-3  
 2.048600000000000E10    1.817298865754449E-3   1.001652001993493E-3  
 2.048800000000000E10    1.918586229219450E-3   7.431052309947680E-4  
 2.049000000000000E10    1.993316156720674E-3   4.655176678091795E-4  
 2.049200000000000E10    2.033206587274072E-3   2.115049870486406E-4  
 2.049400000000000E10    2.079630683563313E-3  -9.894644794362838E-6  
 2.049600000000000E10    2.139280780138057E-3  -2.845806358794111E-4  
 2.049800000000000E10    2.222864678773431E-3  -5.934309164529722E-4  
 2.050000000000000E10    2.292748119053527E-3  -1.008664002477234E-3  
 2.050200000000000E10    2.238245737459128E-3  -1.573700155514779E-3  
 2.050400000000000E10    1.940579987188549E-3  -2.188475483476564E-3  
 2.050600000000000E10    1.405381065804833E-3  -2.680698609930069E-3  
 2.050800000000000E10    6.860821891610546E-4  -2.938076924655296E-3  
 2.051000000000000E10   -6.674099263233045E-5  -2.910178868529299E-3  
 2.051200000000000E10   -6.588492425131792E-4  -2.625590691404272E-3  
 2.051400000000000E10   -1.010351159912630E-3  -2.232659826584069E-3  
 2.051600000000000E10   -1.185956425435933E-3  -1.925793883137773E-3  
 2.051800000000000E10   -1.344314377770257E-3  -1.761735844284051E-3  
 2.052000000000000E10   -1.593350924344527E-3  -1.587441775070144E-3  
 2.052200000000000E10   -1.814449558115024E-3  -1.277414248267442E-3  
 2.052400000000000E10   -1.906815842043134E-3  -9.818934177243969E-4  
 2.052600000000000E10   -1.935493792196422E-3  -7.637196389092096E-4  
 2.052800000000000E10   -2.033335575929732E-3  -5.986017142441661E-4  
 2.053000000000000E10   -2.222080291497978E-3  -3.668701635729216E-4  
 2.053200000000000E10   -2.372095122772419E-3  -5.975697856562198E-5  
 2.053400000000000E10   -2.511042641636766E-3   3.284155861099698E-4  
 2.053600000000000E10   -2.588454037023241E-3   8.757866249772350E-4  
 2.053800000000000E10   -2.452742489468721E-3   1.507428992604799E-3  
 2.054000000000000E10   -2.048339208476859E-3   2.065006306264627E-3  
 2.054200000000000E10   -1.515152252857945E-3   2.427664421567763E-3  
 2.054400000000000E10   -9.684893460714340E-4   2.609803836693060E-3  
 2.054600000000000E10   -4.065643743048480E-4   2.635363511426888E-3  
 2.054800000000000E10    1.277383707854548E-4   2.540853335387974E-3  
 2.055000000000000E10    5.356065396922775E-4   2.286904945647643E-3  
 2.055200000000000E10    7.195659767483735E-4   2.000430357401018E-3  
 2.055400000000000E10    8.085029292660057E-4   1.887576767136133E-3  
 2.055600000000000E10    9.887983530008624E-4   1.904354176346075E-3  
