#  HZ   S   RI   R     50.00 
! Rohde & Schwarz ZVA40 4Ports - Version 3.90 - 1145.1110k42 SN: 100403
! Date: 2023-10-03 11:30:29
! Measurement: S12 
! 
 2.000000000000000E10   -1.743469188955647E-3  -4.332079293413295E-3  
 2.000200000000000E10   -2.459508763557231E-3  -3.989945096826113E-3  
 2.000400000000000E10   -3.058514816479551E-3  -3.479366492549027E-3  
 2.000600000000000E10   -3.481309317673246E-3  -2.898235382788160E-3  
 2.000800000000000E10   -3.788230052493789E-3  -2.329977824249201E-3  
 2.001000000000000E10   -4.136646545871541E-3  -1.814120173178338E-3  
 2.001200000000000E10   -4.563765410609820E-3  -1.182261919085350E-3  
 2.001400000000000E10   -4.844626549769332E-3  -3.547842012873541E-4  
 2.001600000000000E10   -4.833896040778470E-3   5.784856728967970E-4  
 2.001800000000000E10   -4.601718892377836E-3   1.429093423885880E-3  
 2.002000000000000E10   -4.284008871763945E-3   2.214450113199376E-3  
 2.002200000000000E10   -3.832067388834225E-3   2.967319899687061E-3  
 2.002400000000000E10   -3.276061301154119E-3   3.599852642596321E-3  
 2.002600000000000E10   -2.534780039072589E-3   4.095502646157036E-3  
 2.002800000000000E10   -1.721156416115938E-3   4.409070592373610E-3  
 2.003000000000000E10   -8.944666004498250E-4   4.549563086281220E-3  
 2.003200000000000E10   -2.034518245771459E-4   4.536569825615045E-3  
 2.003400000000000E10    4.146815163376570E-4   4.473770451214579E-3  
 2.003600000000000E10    1.075708346130947E-3   4.361032646287372E-3  
 2.003800000000000E10    1.776970690116287E-3   4.159756487718335E-3  
 2.004000000000000E10    2.465509205918621E-3   3.850143376944794E-3  
 2.004200000000000E10    3.081380881162154E-3   3.431973909890211E-3  
 2.004400000000000E10    3.609745901215960E-3   2.890874855910187E-3  
 2.004600000000000E10    4.019072003386639E-3   2.213018566921905E-3  
 2.004800000000000E10    4.292022781791511E-3   1.540104681798430E-3  
 2.005000000000000E10    4.552638002981743E-3   8.672812600033703E-4  
 2.005200000000000E10    4.698159552558706E-3   1.438136931500156E-4  
 2.005400000000000E10    4.695790750836886E-3  -5.937960134663930E-4  
 2.005600000000000E10    4.586360365566281E-3  -1.375564762080709E-3  
 2.005800000000000E10    4.352381642631911E-3  -2.180934047188472E-3  
 2.006000000000000E10    3.972393529558624E-3  -2.962430585520687E-3  
 2.006200000000000E10    3.446281439176313E-3  -3.660106031155145E-3  
 2.006400000000000E10    2.722756902652759E-3  -4.235549812653551E-3  
 2.006600000000000E10    1.858439391340923E-3  -4.667496964059495E-3  
 2.006800000000000E10    9.768165182322264E-4  -4.895353206881771E-3  
 2.007000000000000E10    1.202091036786981E-4  -4.997432352630078E-3  
 2.007200000000000E10   -7.396003994573323E-4  -4.897369123581383E-3  
 2.007400000000000E10   -1.538233926381778E-3  -4.617920835260993E-3  
 2.007600000000000E10   -2.260000246611459E-3  -4.229418967885000E-3  
 2.007800000000000E10   -2.870486868131492E-3  -3.762019522212170E-3  
 2.008000000000000E10   -3.352852512357964E-3  -3.285572251856880E-3  
 2.008200000000000E10   -3.763937779391806E-3  -2.808867686393637E-3  
 2.008400000000000E10   -4.227479454129934E-3  -2.288165847184482E-3  
 2.008600000000000E10   -4.747550831072861E-3  -1.557173056493479E-3  
 2.008800000000000E10   -5.076398072695292E-3  -6.297190794376312E-4  
 2.009000000000000E10   -5.142409578655606E-3   3.046815130531927E-4  
 2.009200000000000E10   -5.025832862075833E-3   1.188273778771637E-3  
 2.009400000000000E10   -4.789746590648537E-3   2.096920032744055E-3  
 2.009600000000000E10   -4.333608939001958E-3   3.081790809692057E-3  
 2.009800000000000E10   -3.563755838614372E-3   3.878223908099312E-3  
 2.010000000000000E10   -2.691313727862305E-3   4.324189628715869E-3  
 2.010200000000000E10   -1.813937107928925E-3   4.556056715686013E-3  
 2.010400000000000E10   -1.017748097958112E-3   4.617933425362464E-3  
 2.010600000000000E10   -3.067179069923306E-4   4.628755290199210E-3  
 2.010800000000000E10    3.448990259871439E-4   4.636878268448292E-3  
 2.011000000000000E10    1.038815908099490E-3   4.609452146622870E-3  
 2.011200000000000E10    1.838660065981525E-3   4.465231361488502E-3  
 2.011400000000000E10    2.692848547465272E-3   4.100176040083170E-3  
 2.011600000000000E10    3.465255739650241E-3   3.493012817300581E-3  
 2.011800000000000E10    3.978539948110227E-3   2.733710170206097E-3  
 2.012000000000000E10    4.224170482269040E-3   1.977445518908402E-3  
 2.012200000000000E10    4.362169601437119E-3   1.294053353679677E-3  
 2.012400000000000E10    4.551525279465649E-3   6.420594010571088E-4  
 2.012600000000000E10    4.715794438703193E-3  -1.207810075559084E-4  
 2.012800000000000E10    4.700519317002209E-3  -9.999007279812189E-4  
 2.013000000000000E10    4.438201741625866E-3  -1.863082405179739E-3  
 2.013200000000000E10    3.977085403339179E-3  -2.640504243404225E-3  
 2.013400000000000E10    3.442625428929374E-3  -3.316125211616358E-3  
 2.013600000000000E10    2.773823716712219E-3  -3.919333616202629E-3  
 2.013800000000000E10    1.933207256822951E-3  -4.318791424372683E-3  
 2.014000000000000E10    1.040613101967783E-3  -4.410053344650402E-3  
 2.014200000000000E10    2.853708354922237E-4  -4.279685258451436E-3  
 2.014400000000000E10   -2.473032472388931E-4  -4.159351793566237E-3  
 2.014600000000000E10   -7.878394918171345E-4  -4.179409601622159E-3  
 2.014800000000000E10   -1.469869136430875E-3  -4.091551268680229E-3  
 2.015000000000000E10   -2.173875812096177E-3  -3.791285109602743E-3  
 2.015200000000000E10   -2.788915212645575E-3  -3.371391333294688E-3  
 2.015400000000000E10   -3.341590951162357E-3  -2.920563988111638E-3  
 2.015600000000000E10   -3.843085210839356E-3  -2.348409448232916E-3  
 2.015800000000000E10   -4.207257819534452E-3  -1.655878947564850E-3  
 2.016000000000000E10   -4.455796391185788E-3  -8.826257436777708E-4  
 2.016200000000000E10   -4.558664229181078E-3  -6.724974863808952E-5  
 2.016400000000000E10   -4.535332201393667E-3   7.764997749796344E-4  
 2.016600000000000E10   -4.321178352391280E-3   1.605645947468778E-3  
 2.016800000000000E10   -3.905780699655966E-3   2.346974219781934E-3  
 2.017000000000000E10   -3.347023122909445E-3   2.982440051036301E-3  
 2.017200000000000E10   -2.711814767853530E-3   3.476106087435727E-3  
 2.017400000000000E10   -2.048887385710799E-3   3.807792741874302E-3  
 2.017600000000000E10   -1.402999938431162E-3   3.959229095252577E-3  
 2.017800000000000E10   -8.348838482224556E-4   4.055873870297716E-3  
 2.018000000000000E10   -2.526749783471503E-4   4.160122868294518E-3  
 2.018200000000000E10    3.802696123279425E-4   4.221396124059404E-3  
 2.018400000000000E10    1.033072482742783E-3   4.227682309984058E-3  
 2.018600000000000E10    1.754753567554333E-3   4.149588221615113E-3  
 2.018800000000000E10    2.594842273672974E-3   3.909939503366197E-3  
 2.019000000000000E10    3.438507042894209E-3   3.410718886664621E-3  
 2.019200000000000E10    4.134144470164622E-3   2.654501607779552E-3  
 2.019400000000000E10    4.578255651587690E-3   1.765900153528761E-3  
 2.019600000000000E10    4.784967715817470E-3   7.792130517945799E-4  
 2.019800000000000E10    4.712222299228112E-3  -2.046532208623830E-4  
 2.020000000000000E10    4.430736553061893E-3  -1.028437365743297E-3  
 2.020200000000000E10    4.046713519427512E-3  -1.672558689110533E-3  
 2.020400000000000E10    3.650009407903309E-3  -2.160544946996702E-3  
 2.020600000000000E10    3.269309859239945E-3  -2.598200045112107E-3  
 2.020800000000000E10    2.840713778924611E-3  -3.042189783796117E-3  
 2.021000000000000E10    2.413806574488128E-3  -3.398719381678988E-3  
 2.021200000000000E10    2.058527613472608E-3  -3.839009820863053E-3  
 2.021400000000000E10    1.464374359110715E-3  -4.377355488638083E-3  
 2.021600000000000E10    5.603524752789075E-4  -4.762032966094989E-3  
 2.021800000000000E10   -4.692615680310324E-4  -4.831585601937992E-3  
 2.022000000000000E10   -1.405241092908438E-3  -4.626383332328664E-3  
 2.022200000000000E10   -2.198238779480259E-3  -4.270249115372146E-3  
 2.022400000000000E10   -2.895669537354951E-3  -3.799561911297066E-3  
 2.022600000000000E10   -3.528446036701402E-3  -3.210917632612918E-3  
 2.022800000000000E10   -4.050990411390862E-3  -2.517520079251241E-3  
 2.023000000000000E10   -4.433062375971565E-3  -1.747602989241757E-3  
 2.023200000000000E10   -4.673860518744698E-3  -9.339946080689078E-4  
 2.023400000000000E10   -4.728862515616197E-3  -6.269469385087075E-5  
 2.023600000000000E10   -4.606558354916397E-3   7.781560114515877E-4  
 2.023800000000000E10   -4.389004505894803E-3   1.559777318982891E-3  
 2.024000000000000E10   -4.052459072597601E-3   2.309391870059901E-3  
 2.024200000000000E10   -3.532199697844960E-3   2.951757033803949E-3  
 2.024400000000000E10   -2.930385724606890E-3   3.417420847755340E-3  
 2.024600000000000E10   -2.349391053603204E-3   3.817640357064429E-3  
 2.024800000000000E10   -1.690158055646828E-3   4.183539896513578E-3  
 2.025000000000000E10   -9.570157034667555E-4   4.421738390293387E-3  
 2.025200000000000E10   -1.898721942173628E-4   4.509709240799702E-3  
 2.025400000000000E10    5.911216247585362E-4   4.445206442916835E-3  
 2.025600000000000E10    1.330650321000980E-3   4.265152055908134E-3  
 2.025800000000000E10    2.016860724392313E-3   4.000156945376485E-3  
 2.026000000000000E10    2.669846923607919E-3   3.650286752316687E-3  
 2.026200000000000E10    3.264050275363305E-3   3.145276094545369E-3  
 2.026400000000000E10    3.734382740394385E-3   2.543980402320072E-3  
 2.026600000000000E10    4.160967741713480E-3   1.900212684025367E-3  
 2.026800000000000E10    4.491125198977966E-3   1.143101507935811E-3  
 2.027000000000000E10    4.599956140198090E-3   2.856069698248542E-4  
 2.027200000000000E10    4.479623641128894E-3  -5.145699186767971E-4  
 2.027400000000000E10    4.286649395470267E-3  -1.206144492176396E-3  
 2.027600000000000E10    4.017269859711329E-3  -1.907819338763754E-3  
 2.027800000000000E10    3.631686783154254E-3  -2.503948389656014E-3  
 2.028000000000000E10    3.237343048331915E-3  -3.021371387014235E-3  
 2.028200000000000E10    2.747640867407124E-3  -3.550928784534336E-3  
 2.028400000000000E10    2.138214599755076E-3  -4.044540571393791E-3  
 2.028600000000000E10    1.417129830871191E-3  -4.424780003588509E-3  
 2.028800000000000E10    6.067630903864350E-4  -4.641991970991648E-3  
 2.029000000000000E10   -2.199548794629260E-4  -4.700284934154263E-3  
 2.029200000000000E10   -1.072379967404737E-3  -4.623817314428312E-3  
 2.029400000000000E10   -1.941623192073571E-3  -4.345357987201877E-3  
 2.029600000000000E10   -2.722670324146748E-3  -3.837923691780479E-3  
 2.029800000000000E10   -3.268193798484627E-3  -3.203985746949912E-3  
 2.030000000000000E10   -3.652991244086513E-3  -2.602360521753629E-3  
 2.030200000000000E10   -4.035015590488911E-3  -1.956399668146063E-3  
 2.030400000000000E10   -4.322814410207449E-3  -1.198478120689591E-3  
 2.030600000000000E10   -4.391922770688931E-3  -4.198515508943712E-4  
 2.030800000000000E10   -4.288373135582165E-3   2.633972590383901E-4  
 2.031000000000000E10   -4.132335712374361E-3   8.791723392075964E-4  
 2.031200000000000E10   -3.966698414404636E-3   1.432682995477485E-3  
 2.031400000000000E10   -3.790449583902956E-3   2.053950507952660E-3  
 2.031600000000000E10   -3.486882308842960E-3   2.725593487007751E-3  
 2.031800000000000E10   -2.989888380937003E-3   3.327619827662906E-3  
 2.032000000000000E10   -2.369735717635464E-3   3.804491591398363E-3  
 2.032200000000000E10   -1.686462546112361E-3   4.210859468137778E-3  
 2.032400000000000E10   -9.219169172596327E-4   4.490012234007872E-3  
 2.032600000000000E10   -1.192397650339883E-4   4.606117632378032E-3  
 2.032800000000000E10    7.307090779283533E-4   4.578554071485996E-3  
 2.033000000000000E10    1.576448243145866E-3   4.336568958091516E-3  
 2.033200000000000E10    2.281902056118405E-3   3.923936134756164E-3  
 2.033400000000000E10    2.916643870304580E-3   3.456345112580393E-3  
 2.033600000000000E10    3.192284006487441E-3   3.161618511916863E-3  
 2.033800000000000E10    3.878763997582375E-3   2.097415306639892E-3  
 2.034000000000000E10    4.097779039983397E-3   1.296021643577627E-3  
 2.034200000000000E10    4.138704061646154E-3   5.419758715477117E-4  
 2.034400000000000E10    4.033499854375368E-3  -1.219648951923268E-4  
 2.034600000000000E10    3.840370569378138E-3  -7.046043346808466E-4  
 2.034800000000000E10    3.655566868406755E-3  -1.199428535376986E-3  
 2.035000000000000E10    3.485251675118452E-3  -1.682503114419955E-3  
 2.035200000000000E10    3.228036928232070E-3  -2.223122278573337E-3  
 2.035400000000000E10    2.862209557659097E-3  -2.733077069192573E-3  
 2.035600000000000E10    2.433421900840822E-3  -3.165891747576771E-3  
 2.035800000000000E10    1.909941331379944E-3  -3.567840438336134E-3  
 2.036000000000000E10    1.256963462327366E-3  -3.919541861654984E-3  
 2.036200000000000E10    5.327360769216386E-4  -4.151453953926211E-3  
 2.036400000000000E10   -2.818197287895062E-4  -4.210694072147211E-3  
 2.036600000000000E10   -1.108185435576296E-3  -4.032140649441216E-3  
 2.036800000000000E10   -1.790401737067711E-3  -3.661996728085258E-3  
 2.037000000000000E10   -2.317360429852098E-3  -3.197268410413354E-3  
 2.037200000000000E10   -2.716524293646216E-3  -2.712977800035367E-3  
 2.037400000000000E10   -2.999069100176847E-3  -2.238615829911497E-3  
 2.037600000000000E10   -3.237022957937034E-3  -1.817693399196422E-3  
 2.037800000000000E10   -3.532122924096055E-3  -1.342689001898247E-3  
 2.038000000000000E10   -3.784280942959918E-3  -7.597113683543825E-4  
 2.038200000000000E10   -3.901656906775855E-3  -1.225915324606898E-4  
 2.038400000000000E10   -3.929443760878511E-3   5.489623851004851E-4  
 2.038600000000000E10   -3.825929240082150E-3   1.303737569186423E-3  
 2.038800000000000E10   -3.496618846569348E-3   2.017525201490908E-3  
 2.039000000000000E10   -3.033189991213106E-3   2.586225478875417E-3  
 2.039200000000000E10   -2.492706368987759E-3   3.025140811654705E-3  
 2.039400000000000E10   -1.939676210491194E-3   3.316277422493808E-3  
 2.039600000000000E10   -1.406016358588305E-3   3.578367332617442E-3  
 2.039800000000000E10   -7.651569515777131E-4   3.796054722948207E-3  
 2.040000000000000E10   -1.082599330604555E-4   3.819425736933396E-3  
 2.040200000000000E10    4.746368913738816E-4   3.766350448131562E-3  
 2.040400000000000E10    1.111475043688660E-3   3.691657851622613E-3  
 2.040600000000000E10    1.781525758646981E-3   3.454652908085674E-3  
 2.040800000000000E10    2.367152073593052E-3   3.085245223095020E-3  
 2.041000000000000E10    2.926320208374549E-3   2.622768964135537E-3  
 2.041200000000000E10    3.360231622570644E-3   2.020964114409355E-3  
 2.041400000000000E10    3.634810508056372E-3   1.350922570391386E-3  
 2.041600000000000E10    3.807671187031601E-3   6.474945931350468E-4  
 2.041800000000000E10    3.803510124001791E-3  -1.161169802125423E-4  
 2.042000000000000E10    3.565227750826766E-3  -7.946766304990484E-4  
 2.042200000000000E10    3.220394529678204E-3  -1.353739795309526E-3  
 2.042400000000000E10    2.832802685184612E-3  -1.786019372822786E-3  
 2.042600000000000E10    2.431543457701251E-3  -2.093123987799993E-3  
 2.042800000000000E10    2.049306209233624E-3  -2.333644010057604E-3  
 2.043000000000000E10    1.715997268480284E-3  -2.527914432532810E-3  
 2.043200000000000E10    1.392548916757935E-3  -2.723673970817968E-3  
 2.043400000000000E10    1.026968389784021E-3  -2.937124533302807E-3  
 2.043600000000000E10    6.307496137365148E-4  -3.170255218046131E-3  
 2.043800000000000E10    1.276215768518375E-4  -3.370454560758339E-3  
 2.044000000000000E10   -5.411267392682257E-4  -3.451277338037337E-3  
 2.044200000000000E10   -1.298869645257515E-3  -3.341852376858394E-3  
 2.044400000000000E10   -1.990799645513848E-3  -2.943392256619754E-3  
 2.044600000000000E10   -2.464681406746860E-3  -2.325303507623850E-3  
 2.044800000000000E10   -2.664830354559753E-3  -1.676426825320555E-3  
 2.045000000000000E10   -2.656273233393828E-3  -1.229995085547368E-3  
 2.045200000000000E10   -2.702395561047726E-3  -9.148496750707705E-4  
 2.045400000000000E10   -2.835442743229646E-3  -5.589172144903354E-4  
 2.045600000000000E10   -2.916649070188956E-3  -1.712647930684465E-4  
 2.045800000000000E10   -2.965147943339414E-3   2.553617469621478E-4  
 2.046000000000000E10   -2.947735643290260E-3   7.613241754437764E-4  
 2.046200000000000E10   -2.812243058104758E-3   1.269332370375870E-3  
 2.046400000000000E10   -2.578757832654649E-3   1.759056674523486E-3  
 2.046600000000000E10   -2.182936606307825E-3   2.235525917192852E-3  
 2.046800000000000E10   -1.687552176277947E-3   2.565531405033889E-3  
 2.047000000000000E10   -1.174683868022705E-3   2.740416382611902E-3  
 2.047200000000000E10   -6.689854651793011E-4   2.800036635663775E-3  
 2.047400000000000E10   -2.775324284340497E-4   2.789646292243291E-3  
 2.047600000000000E10    6.443158498667699E-5   2.827195355806638E-3  
 2.047800000000000E10    5.297541437256668E-4   2.850679163303641E-3  
 2.048000000000000E10    1.027702069323924E-3   2.749281021317950E-3  
 2.048200000000000E10    1.483115514188453E-3   2.546638483181596E-3  
 2.048400000000000E10    1.889822620863992E-3   2.220556269296342E-3  
 2.048600000000000E10    2.197059759594225E-3   1.838999377839544E-3  
 2.048800000000000E10    2.415295060793007E-3   1.455950067826995E-3  
 2.049000000000000E10    2.576346992066613E-3   1.038104722586771E-3  
 2.049200000000000E10    2.666060554070605E-3   6.349632878684336E-4  
 2.049400000000000E10    2.724622747067500E-3   3.081354478598331E-4  
 2.049600000000000E10    2.810561425845932E-3  -4.075842433074421E-5  
 2.049800000000000E10    2.923606463742477E-3  -4.715518702545929E-4  
 2.050000000000000E10    3.003234017847313E-3  -1.002619387926879E-3  
 2.050200000000000E10    2.948968127990763E-3  -1.670842434072660E-3  
 2.050400000000000E10    2.590950957878872E-3  -2.414015354588628E-3  
 2.050600000000000E10    1.954438496829459E-3  -3.006141710405549E-3  
 2.050800000000000E10    1.132528996095061E-3  -3.305568523636019E-3  
 2.051000000000000E10    2.852381779424226E-4  -3.288617098910942E-3  
 2.051200000000000E10   -3.615945568998104E-4  -3.005438001343498E-3  
 2.051400000000000E10   -7.532569062378672E-4  -2.636982283244531E-3  
 2.051600000000000E10   -9.844151618718000E-4  -2.369165920686943E-3  
 2.051800000000000E10   -1.222702502100556E-3  -2.215581031999103E-3  
 2.052000000000000E10   -1.521452666363783E-3  -2.072889944193540E-3  
 2.052200000000000E10   -1.794489505873235E-3  -1.806377782486379E-3  
 2.052400000000000E10   -1.980164890281029E-3  -1.523802492388145E-3  
 2.052600000000000E10   -2.139971065507443E-3  -1.305697218480486E-3  
 2.052800000000000E10   -2.364554580439020E-3  -1.078337310226979E-3  
 2.053000000000000E10   -2.637514542719281E-3  -7.249692118623191E-4  
 2.053200000000000E10   -2.819395132569803E-3  -2.775569785929596E-4  
 2.053400000000000E10   -2.935215063324130E-3   2.585906465052782E-4  
 2.053600000000000E10   -2.932909617407455E-3   9.064689511433245E-4  
 2.053800000000000E10   -2.696589575390573E-3   1.570383599890327E-3  
 2.054000000000000E10   -2.232010002006536E-3   2.087810973602313E-3  
 2.054200000000000E10   -1.705454157975813E-3   2.384779543650371E-3  
 2.054400000000000E10   -1.199947907244442E-3   2.545148987943928E-3  
 2.054600000000000E10   -7.159004518244830E-4   2.590765374609166E-3  
 2.054800000000000E10   -2.699858089693374E-4   2.544553648611462E-3  
 2.055000000000000E10    8.221702645877722E-5   2.404585403079788E-3  
 2.055200000000000E10    3.282683350065512E-4   2.280687844311750E-3  
 2.055400000000000E10    5.567020659024518E-4   2.244480644111281E-3  
 2.055600000000000E10    8.699069924963019E-4   2.248357300198189E-3  
