#  HZ   S   RI   R     50.00 
! Rohde & Schwarz ZVA40 4Ports - Version 3.90 - 1145.1110k42 SN: 100403
! Date: 2023-10-03 11:29:42
! Measurement: S12 
! 
 2.000000000000000E10   -1.664239033642743E-3  -4.428745764825080E-3  
 2.000200000000000E10   -2.357382146227691E-3  -4.096548521408329E-3  
 2.000400000000000E10   -2.984263709987756E-3  -3.636055384521132E-3  
 2.000600000000000E10   -3.507713502686885E-3  -3.099049113828827E-3  
 2.000800000000000E10   -3.890408806640793E-3  -2.510171030061665E-3  
 2.001000000000000E10   -4.228212611956730E-3  -1.934881779123788E-3  
 2.001200000000000E10   -4.626191911046153E-3  -1.286445073438463E-3  
 2.001400000000000E10   -4.951051988259510E-3  -4.693516443862960E-4  
 2.001600000000000E10   -5.040466750937480E-3   4.938529746141285E-4  
 2.001800000000000E10   -4.855833757944681E-3   1.412918989512104E-3  
 2.002000000000000E10   -4.497261976616250E-3   2.260054539268216E-3  
 2.002200000000000E10   -3.976127443214258E-3   3.068018971976859E-3  
 2.002400000000000E10   -3.380943365671017E-3   3.734710781524579E-3  
 2.002600000000000E10   -2.653449747918381E-3   4.252325450242670E-3  
 2.002800000000000E10   -1.849096613349738E-3   4.616119709141829E-3  
 2.003000000000000E10   -9.396342103610989E-4   4.794937213537871E-3  
 2.003200000000000E10   -1.208041358040646E-4   4.759417708825183E-3  
 2.003400000000000E10    5.959480951315966E-4   4.654366074612847E-3  
 2.003600000000000E10    1.284741654267742E-3   4.484629741421452E-3  
 2.003800000000000E10    1.960625958249525E-3   4.211337529812699E-3  
 2.004000000000000E10    2.606490523450905E-3   3.827309115203443E-3  
 2.004200000000000E10    3.191359091067204E-3   3.357190526676952E-3  
 2.004400000000000E10    3.681022475508076E-3   2.826105182369550E-3  
 2.004600000000000E10    4.075224925246504E-3   2.223796159442929E-3  
 2.004800000000000E10    4.387958596150081E-3   1.570695075551393E-3  
 2.005000000000000E10    4.657076999407124E-3   8.355801045480703E-4  
 2.005200000000000E10    4.781187011825818E-3   2.789883109033799E-5  
 2.005400000000000E10    4.740858036610816E-3  -7.523996561455231E-4  
 2.005600000000000E10    4.602952118687056E-3  -1.528546291713913E-3  
 2.005800000000000E10    4.321701928145356E-3  -2.302874233228741E-3  
 2.006000000000000E10    3.894208085343794E-3  -3.084797222443201E-3  
 2.006200000000000E10    3.316494282679978E-3  -3.773908027344280E-3  
 2.006400000000000E10    2.580135275989219E-3  -4.323625247235652E-3  
 2.006600000000000E10    1.745053817069641E-3  -4.693356756534842E-3  
 2.006800000000000E10    8.670609892794381E-4  -4.885131337990364E-3  
 2.007000000000000E10   -1.540982554649451E-5  -4.934971858919771E-3  
 2.007200000000000E10   -8.926550206659294E-4  -4.793470173522279E-3  
 2.007400000000000E10   -1.659030073184382E-3  -4.454094744114965E-3  
 2.007600000000000E10   -2.286887193029678E-3  -4.028342095100218E-3  
 2.007800000000000E10   -2.804873916492970E-3  -3.540756439583170E-3  
 2.008000000000000E10   -3.228234972252890E-3  -3.092233962551864E-3  
 2.008200000000000E10   -3.636624819288651E-3  -2.664913664813395E-3  
 2.008400000000000E10   -4.108212388086099E-3  -2.209686493087146E-3  
 2.008600000000000E10   -4.600012519707283E-3  -1.522252392196269E-3  
 2.008800000000000E10   -4.894833753092422E-3  -6.357342224671610E-4  
 2.009000000000000E10   -4.973395675834683E-3   2.745198817811562E-4  
 2.009200000000000E10   -4.886750959687764E-3   1.166430892664249E-3  
 2.009400000000000E10   -4.657231391993939E-3   2.050500345864782E-3  
 2.009600000000000E10   -4.176169133710641E-3   2.981100774680575E-3  
 2.009800000000000E10   -3.395001835155267E-3   3.711560396132646E-3  
 2.010000000000000E10   -2.539793745166174E-3   4.115765138218801E-3  
 2.010200000000000E10   -1.762915782078549E-3   4.315191017532791E-3  
 2.010400000000000E10   -1.066905914167701E-3   4.393622296413890E-3  
 2.010600000000000E10   -4.068917958108985E-4   4.413462554415068E-3  
 2.010800000000000E10    1.955654119632931E-4   4.435219646741947E-3  
 2.011000000000000E10    8.401019645302937E-4   4.473684234889570E-3  
 2.011200000000000E10    1.608085930692377E-3   4.421667213103286E-3  
 2.011400000000000E10    2.456437856717795E-3   4.144196967697807E-3  
 2.011600000000000E10    3.272483711717306E-3   3.585613125728237E-3  
 2.011800000000000E10    3.869050837777280E-3   2.826443709502066E-3  
 2.012000000000000E10    4.180311397821815E-3   2.030496515713080E-3  
 2.012200000000000E10    4.318328039651669E-3   1.339073788754090E-3  
 2.012400000000000E10    4.459845540286215E-3   7.171319081896435E-4  
 2.012600000000000E10    4.612059815338365E-3  -1.861311762628168E-6  
 2.012800000000000E10    4.649630213087357E-3  -8.489539290571379E-4  
 2.013000000000000E10    4.458271656875258E-3  -1.719264274773499E-3  
 2.013200000000000E10    4.055265388968918E-3  -2.491592007033803E-3  
 2.013400000000000E10    3.564356119130497E-3  -3.170402341142849E-3  
 2.013600000000000E10    2.901379079385489E-3  -3.829654038849253E-3  
 2.013800000000000E10    2.053235847227000E-3  -4.284541433056196E-3  
 2.014000000000000E10    1.177899401496958E-3  -4.456728213915119E-3  
 2.014200000000000E10    3.911420218948344E-4  -4.412824150036883E-3  
 2.014400000000000E10   -2.413988571519171E-4  -4.310025626586543E-3  
 2.014600000000000E10   -9.024885733163468E-4  -4.255361113421344E-3  
 2.014800000000000E10   -1.616612339771732E-3  -4.062949283117498E-3  
 2.015000000000000E10   -2.250235320793258E-3  -3.693756569797794E-3  
 2.015200000000000E10   -2.762117026442731E-3  -3.265178589909165E-3  
 2.015400000000000E10   -3.250497971075001E-3  -2.817438553190894E-3  
 2.015600000000000E10   -3.724627584839861E-3  -2.271482669230965E-3  
 2.015800000000000E10   -4.095370450091583E-3  -1.641638956412121E-3  
 2.016000000000000E10   -4.381443546326073E-3  -9.479849594990138E-4  
 2.016200000000000E10   -4.564649321966702E-3  -1.548054815093228E-4  
 2.016400000000000E10   -4.557198896590207E-3   7.621588517428825E-4  
 2.016600000000000E10   -4.304129026692223E-3   1.636905979399604E-3  
 2.016800000000000E10   -3.867614238212506E-3   2.386498342578610E-3  
 2.017000000000000E10   -3.309921387376057E-3   2.979882906570479E-3  
 2.017200000000000E10   -2.674870313731609E-3   3.417215741204995E-3  
 2.017400000000000E10   -2.013120744204908E-3   3.734681410370051E-3  
 2.017600000000000E10   -1.375975350297436E-3   3.916937573295501E-3  
 2.017800000000000E10   -8.180021713660272E-4   4.025985124624439E-3  
 2.018000000000000E10   -2.418302469272426E-4   4.133000262771493E-3  
 2.018200000000000E10    3.892805382040226E-4   4.186787107890404E-3  
 2.018400000000000E10    1.055296786405422E-3   4.156501911994484E-3  
 2.018600000000000E10    1.757705204740719E-3   4.049691371619701E-3  
 2.018800000000000E10    2.526870876964596E-3   3.833886511899808E-3  
 2.019000000000000E10    3.332291014009604E-3   3.384808423342529E-3  
 2.019200000000000E10    4.023302553428545E-3   2.659834110764442E-3  
 2.019400000000000E10    4.509176403560021E-3   1.777947807029166E-3  
 2.019600000000000E10    4.747397162848050E-3   8.074920990987234E-4  
 2.019800000000000E10    4.701044151766433E-3  -1.449044357286766E-4  
 2.020000000000000E10    4.435743498443454E-3  -9.732545607861272E-4  
 2.020200000000000E10    4.050967576741069E-3  -1.656400988361350E-3  
 2.020400000000000E10    3.640749284790623E-3  -2.184761912320499E-3  
 2.020600000000000E10    3.276131426294646E-3  -2.632083043594052E-3  
 2.020800000000000E10    2.858313059227334E-3  -3.091561004381490E-3  
 2.021000000000000E10    2.393848874985620E-3  -3.465513034758193E-3  
 2.021200000000000E10    1.947121901644601E-3  -3.899912548216957E-3  
 2.021400000000000E10    1.288890726519404E-3  -4.400446890266958E-3  
 2.021600000000000E10    3.852862487460867E-4  -4.701143630814773E-3  
 2.021800000000000E10   -5.876275536138564E-4  -4.686920403468389E-3  
 2.022000000000000E10   -1.428194529445911E-3  -4.444259443078881E-3  
 2.022200000000000E10   -2.172717755591428E-3  -4.108393564820290E-3  
 2.022400000000000E10   -2.867967088672299E-3  -3.669583781932791E-3  
 2.022600000000000E10   -3.474450566702419E-3  -3.098301520502127E-3  
 2.022800000000000E10   -3.954664234899813E-3  -2.435805991774908E-3  
 2.023000000000000E10   -4.307018334252967E-3  -1.667313583850585E-3  
 2.023200000000000E10   -4.521339269423927E-3  -8.840256314552219E-4  
 2.023400000000000E10   -4.585649645714849E-3  -6.865061853507846E-5  
 2.023600000000000E10   -4.501532814982865E-3   7.144275263676214E-4  
 2.023800000000000E10   -4.303380898717377E-3   1.480998523119423E-3  
 2.024000000000000E10   -3.986923351745915E-3   2.229542169650948E-3  
 2.024200000000000E10   -3.482287370220379E-3   2.892522184454181E-3  
 2.024400000000000E10   -2.909018106206700E-3   3.360159902109041E-3  
 2.024600000000000E10   -2.361159211162616E-3   3.765455843811786E-3  
 2.024800000000000E10   -1.711411125682019E-3   4.145524516287778E-3  
 2.025000000000000E10   -9.500128475742209E-4   4.401684704202193E-3  
 2.025200000000000E10   -1.804771449382383E-4   4.501529193172853E-3  
 2.025400000000000E10    5.892033999164899E-4   4.461470232517631E-3  
 2.025600000000000E10    1.349710225541559E-3   4.297839098230557E-3  
 2.025800000000000E10    2.072735836177513E-3   4.028607660007698E-3  
 2.026000000000000E10    2.780318139465871E-3   3.633041702279891E-3  
 2.026200000000000E10    3.392590235711800E-3   3.071018184224765E-3  
 2.026400000000000E10    3.859403698394697E-3   2.435199511064976E-3  
 2.026600000000000E10    4.224694454697548E-3   1.724927500752664E-3  
 2.026800000000000E10    4.447943599963630E-3   8.983889064337646E-4  
 2.027000000000000E10    4.447912969798954E-3   3.987050769393574E-5  
 2.027200000000000E10    4.223691230570830E-3  -6.808920879848301E-4  
 2.027400000000000E10    3.966032441153572E-3  -1.235421596060473E-3  
 2.027600000000000E10    3.722999520875790E-3  -1.747670717088989E-3  
 2.027800000000000E10    3.480728534567688E-3  -2.254709756622712E-3  
 2.028000000000000E10    3.212422899970854E-3  -2.809131569746468E-3  
 2.028200000000000E10    2.812757217152804E-3  -3.410906944837836E-3  
 2.028400000000000E10    2.244752193628638E-3  -3.947603628384295E-3  
 2.028600000000000E10    1.521317559915284E-3  -4.354567853388964E-3  
 2.028800000000000E10    7.140763272117411E-4  -4.604001788215505E-3  
 2.029000000000000E10   -1.132534772396967E-4  -4.734549792138516E-3  
 2.029200000000000E10   -1.032608104179855E-3  -4.705769630769889E-3  
 2.029400000000000E10   -1.987891646826433E-3  -4.385763641308856E-3  
 2.029600000000000E10   -2.756586548423878E-3  -3.799029272394601E-3  
 2.029800000000000E10   -3.253556986304898E-3  -3.143414751523071E-3  
 2.030000000000000E10   -3.617436099038632E-3  -2.561434749858799E-3  
 2.030200000000000E10   -3.991844305009754E-3  -1.965804404958531E-3  
 2.030400000000000E10   -4.260439149759434E-3  -1.246890622294612E-3  
 2.030600000000000E10   -4.330815229978827E-3  -5.076072702649981E-4  
 2.030800000000000E10   -4.287716121999203E-3   1.705904495018466E-4  
 2.031000000000000E10   -4.181390162557364E-3   8.034864979520166E-4  
 2.031200000000000E10   -4.021881182712538E-3   1.401545320361577E-3  
 2.031400000000000E10   -3.836493956408015E-3   2.032112782924540E-3  
 2.031600000000000E10   -3.533375044180840E-3   2.704290302332353E-3  
 2.031800000000000E10   -3.040363900018512E-3   3.309674112609139E-3  
 2.032000000000000E10   -2.450224089746674E-3   3.794904850009415E-3  
 2.032200000000000E10   -1.800952875917709E-3   4.215870328523495E-3  
 2.032400000000000E10   -1.035034833303481E-3   4.513548997541269E-3  
 2.032600000000000E10   -2.210493047540594E-4   4.651209356746188E-3  
 2.032800000000000E10    6.305648345948646E-4   4.656817643316808E-3  
 2.033000000000000E10    1.492049557984703E-3   4.453738254529459E-3  
 2.033200000000000E10    2.262817359425955E-3   4.077162007214847E-3  
 2.033400000000000E10    2.971763644988338E-3   3.619322001382157E-3  
 2.033600000000000E10    3.287302390499800E-3   3.295250642285855E-3  
 2.033800000000000E10    4.011527048768821E-3   2.194609941431770E-3  
 2.034000000000000E10    4.260461122073509E-3   1.392924351859148E-3  
 2.034200000000000E10    4.318824538064224E-3   5.934235092286986E-4  
 2.034400000000000E10    4.199510078049369E-3  -1.364066087666692E-4  
 2.034600000000000E10    3.991147417023226E-3  -7.474142044817133E-4  
 2.034800000000000E10    3.770165386851187E-3  -1.253635342301870E-3  
 2.035000000000000E10    3.556510657761937E-3  -1.747238484245760E-3  
 2.035200000000000E10    3.301508138301197E-3  -2.299664645559258E-3  
 2.035400000000000E10    2.939934247276850E-3  -2.847925035489931E-3  
 2.035600000000000E10    2.478814528634151E-3  -3.329146929361202E-3  
 2.035800000000000E10    1.931922799148770E-3  -3.776895296242503E-3  
 2.036000000000000E10    1.234261452703288E-3  -4.151826551942914E-3  
 2.036200000000000E10    4.305613412590767E-4  -4.350963376324487E-3  
 2.036400000000000E10   -4.391687196200818E-4  -4.353078220177581E-3  
 2.036600000000000E10   -1.265046665341490E-3  -4.128548264917401E-3  
 2.036800000000000E10   -1.967036139426960E-3  -3.708166001295603E-3  
 2.037000000000000E10   -2.515199947757302E-3  -3.174549874125256E-3  
 2.037200000000000E10   -2.893237552295129E-3  -2.622579405498174E-3  
 2.037400000000000E10   -3.139343440394711E-3  -2.099426355454381E-3  
 2.037600000000000E10   -3.348124411853928E-3  -1.656873457789146E-3  
 2.037800000000000E10   -3.611667435271321E-3  -1.173000752546445E-3  
 2.038000000000000E10   -3.806594474655059E-3  -5.801317877032692E-4  
 2.038200000000000E10   -3.865320088893728E-3   5.771561094055264E-5  
 2.038400000000000E10   -3.857524091101908E-3   7.143533396258675E-4  
 2.038600000000000E10   -3.699091694283265E-3   1.437533681315405E-3  
 2.038800000000000E10   -3.324815339443309E-3   2.120316192438757E-3  
 2.039000000000000E10   -2.827835760803687E-3   2.657331819473594E-3  
 2.039200000000000E10   -2.240613732417977E-3   3.048610899390446E-3  
 2.039400000000000E10   -1.653338364256477E-3   3.248065244406462E-3  
 2.039600000000000E10   -1.158410105509339E-3   3.400261246564764E-3  
 2.039800000000000E10   -6.108723884810591E-4   3.546877065673471E-3  
 2.040000000000000E10   -4.348940934438294E-5   3.555083380046267E-3  
 2.040200000000000E10    4.706088824335624E-4   3.504691300568758E-3  
 2.040400000000000E10    1.018325429564963E-3   3.437208822341981E-3  
 2.040600000000000E10    1.617249631736842E-3   3.244539369242611E-3  
 2.040800000000000E10    2.179429737023182E-3   2.915888248632352E-3  
 2.041000000000000E10    2.686265381742959E-3   2.477312926203013E-3  
 2.041200000000000E10    3.047547717061309E-3   1.926019037556317E-3  
 2.041400000000000E10    3.285760654964381E-3   1.373591742271351E-3  
 2.041600000000000E10    3.495426046558553E-3   7.789171326698529E-4  
 2.041800000000000E10    3.568937174148031E-3   9.912362158367480E-5  
 2.042000000000000E10    3.420518435261868E-3  -5.510697417237141E-4  
 2.042200000000000E10    3.158600630100679E-3  -1.094399190387102E-3  
 2.042400000000000E10    2.835008031171230E-3  -1.520733866426680E-3  
 2.042600000000000E10    2.473276453437629E-3  -1.862383740781634E-3  
 2.042800000000000E10    2.118021353251405E-3  -2.140668798582974E-3  
 2.043000000000000E10    1.794409205171245E-3  -2.347090609233689E-3  
 2.043200000000000E10    1.508468585261316E-3  -2.534993527526105E-3  
 2.043400000000000E10    1.189196973832117E-3  -2.750824326304374E-3  
 2.043600000000000E10    8.442123157524125E-4  -2.996419013167421E-3  
 2.043800000000000E10    4.032566578610352E-4  -3.252715493241946E-3  
 2.044000000000000E10   -2.247452826446130E-4  -3.434114641061536E-3  
 2.044200000000000E10   -9.586670461835134E-4  -3.426281821534590E-3  
 2.044400000000000E10   -1.694187582298010E-3  -3.137908617241516E-3  
 2.044600000000000E10   -2.270781055644707E-3  -2.602786300014015E-3  
 2.044800000000000E10   -2.584021771326661E-3  -2.003803435299132E-3  
 2.045000000000000E10   -2.696965389919502E-3  -1.539390159046485E-3  
 2.045200000000000E10   -2.845375376098134E-3  -1.168103578190009E-3  
 2.045400000000000E10   -3.019551168782293E-3  -7.195732495919975E-4  
 2.045600000000000E10   -3.109201763032212E-3  -2.432523529191881E-4  
 2.045800000000000E10   -3.142057064299782E-3   2.532664693127892E-4  
 2.046000000000000E10   -3.090108641319805E-3   7.958563122277459E-4  
 2.046200000000000E10   -2.927694745637753E-3   1.331988045152415E-3  
 2.046400000000000E10   -2.639981314401936E-3   1.856488305040532E-3  
 2.046600000000000E10   -2.199130960636669E-3   2.329562333653923E-3  
 2.046800000000000E10   -1.688123081327865E-3   2.617300807118968E-3  
 2.047000000000000E10   -1.195510970083652E-3   2.775573413129206E-3  
 2.047200000000000E10   -7.127674826834765E-4   2.840681010167356E-3  
 2.047400000000000E10   -2.956583856656734E-4   2.842307909978209E-3  
 2.047600000000000E10    7.125898266032758E-5   2.873569502736683E-3  
 2.047800000000000E10    5.187669400280963E-4   2.905380722411253E-3  
 2.048000000000000E10    1.028766872844211E-3   2.835386984602169E-3  
 2.048200000000000E10    1.550149879659768E-3   2.628056065144915E-3  
 2.048400000000000E10    2.024624522568451E-3   2.263281925546903E-3  
 2.048600000000000E10    2.362092456745881E-3   1.808234994920592E-3  
 2.048800000000000E10    2.579812176042685E-3   1.337538059386942E-3  
 2.049000000000000E10    2.658502983481244E-3   8.695769184096546E-4  
 2.049200000000000E10    2.655366185569653E-3   4.778230687844809E-4  
 2.049400000000000E10    2.665649728711557E-3   1.798624717021421E-4  
 2.049600000000000E10    2.739695383718720E-3  -1.235607071942435E-4  
 2.049800000000000E10    2.857555393819456E-3  -5.174632188519119E-4  
 2.050000000000000E10    2.909124665031279E-3  -1.052317459619156E-3  
 2.050200000000000E10    2.793002563218276E-3  -1.704925628103040E-3  
 2.050400000000000E10    2.435443388229167E-3  -2.391153498104325E-3  
 2.050600000000000E10    1.832871068338001E-3  -2.952854640574919E-3  
 2.050800000000000E10    1.038617055638935E-3  -3.275957674270979E-3  
 2.051000000000000E10    2.025826190085219E-4  -3.258830031242084E-3  
 2.051200000000000E10   -4.564444814739680E-4  -2.947030330283775E-3  
 2.051400000000000E10   -8.245839724420675E-4  -2.551810833177081E-3  
 2.051600000000000E10   -9.960134694766668E-4  -2.256546204012853E-3  
 2.051800000000000E10   -1.155570856536980E-3  -2.118107069421698E-3  
 2.052000000000000E10   -1.433127145800326E-3  -1.990326749229873E-3  
 2.052200000000000E10   -1.737073223382511E-3  -1.739230313062392E-3  
 2.052400000000000E10   -1.943854640962349E-3  -1.448797596687520E-3  
 2.052600000000000E10   -2.093263763796400E-3  -1.188410510722962E-3  
 2.052800000000000E10   -2.269512292480579E-3  -9.632561877542349E-4  
 2.053000000000000E10   -2.489913936221490E-3  -6.466806322957079E-4  
 2.053200000000000E10   -2.649508399405965E-3  -2.529474877519533E-4  
 2.053400000000000E10   -2.770569865350370E-3   1.800980732056175E-4  
 2.053600000000000E10   -2.808265819179792E-3   7.395210710388644E-4  
 2.053800000000000E10   -2.622106595447770E-3   1.374437564259602E-3  
 2.054000000000000E10   -2.185451047908929E-3   1.861183912734743E-3  
 2.054200000000000E10   -1.726693452197921E-3   2.136915189179558E-3  
 2.054400000000000E10   -1.320010982453823E-3   2.321493777411956E-3  
 2.054600000000000E10   -9.174983672521734E-4   2.438388100859744E-3  
 2.054800000000000E10   -5.014091094145207E-4   2.493582226129042E-3  
 2.055000000000000E10   -1.207212583351604E-4   2.449920530327492E-3  
 2.055200000000000E10    1.472547651415139E-4   2.404026437067876E-3  
 2.055400000000000E10    4.146216621544833E-4   2.416997337368904E-3  
 2.055600000000000E10    7.637866656295955E-4   2.422348682389215E-3  
