#  HZ   S   RI   R     50.00 
! Rohde & Schwarz ZVA40 4Ports - Version 3.90 - 1145.1110k42 SN: 100403
! Date: 2023-10-03 11:28:58
! Measurement: S12 
! 
 2.000000000000000E10   -2.546305449127599E-3  -3.205647752447813E-3  
 2.000200000000000E10   -3.064219868615454E-3  -2.765753792230914E-3  
 2.000400000000000E10   -3.493802501233640E-3  -2.163480363648247E-3  
 2.000600000000000E10   -3.754717211618468E-3  -1.507205550880804E-3  
 2.000800000000000E10   -3.853132597596190E-3  -9.356242242372700E-4  
 2.001000000000000E10   -3.960575885426852E-3  -4.372375941458792E-4  
 2.001200000000000E10   -4.112905512253444E-3   1.726599385384125E-4  
 2.001400000000000E10   -4.161196829820121E-3   9.545544406721071E-4  
 2.001600000000000E10   -3.981175832450390E-3   1.795226992625330E-3  
 2.001800000000000E10   -3.589406155371740E-3   2.505683946641691E-3  
 2.002000000000000E10   -3.041325088153467E-3   3.113533634646440E-3  
 2.002200000000000E10   -2.349882349256933E-3   3.601657623356140E-3  
 2.002400000000000E10   -1.656853690180054E-3   3.959421068429947E-3  
 2.002600000000000E10   -9.228645437282087E-4   4.161073182376079E-3  
 2.002800000000000E10   -1.799102578338029E-4   4.212671959841693E-3  
 2.003000000000000E10    6.006728875002376E-4   4.068148385641384E-3  
 2.003200000000000E10    1.243933362679349E-3   3.741761586157445E-3  
 2.003400000000000E10    1.743049794854022E-3   3.427016678162748E-3  
 2.003600000000000E10    2.196691067958320E-3   3.116020125072496E-3  
 2.003800000000000E10    2.581279517875778E-3   2.741201395559827E-3  
 2.004000000000000E10    2.961444616731671E-3   2.341408771175293E-3  
 2.004200000000000E10    3.332369069764276E-3   1.843422606736882E-3  
 2.004400000000000E10    3.603229468780352E-3   1.277881936043685E-3  
 2.004600000000000E10    3.742497701795750E-3   6.911192508989280E-4  
 2.004800000000000E10    3.759536302912935E-3   1.331751516346107E-4  
 2.005000000000000E10    3.745576858313547E-3  -4.293327683289708E-4  
 2.005200000000000E10    3.675331361591816E-3  -1.026689120924767E-3  
 2.005400000000000E10    3.531797783288324E-3  -1.608173016539235E-3  
 2.005600000000000E10    3.313397390790928E-3  -2.176084685035878E-3  
 2.005800000000000E10    2.983825718179162E-3  -2.742623142829096E-3  
 2.006000000000000E10    2.490238392909552E-3  -3.312918190832860E-3  
 2.006200000000000E10    1.863859349539803E-3  -3.778469349246151E-3  
 2.006400000000000E10    1.150811884414267E-3  -4.097768898915362E-3  
 2.006600000000000E10    3.810330300540146E-4  -4.277104845293511E-3  
 2.006800000000000E10   -4.516591502635246E-4  -4.259015801420183E-3  
 2.007000000000000E10   -1.295466558076441E-3  -4.051168903386520E-3  
 2.007200000000000E10   -2.034444524331686E-3  -3.645449301894801E-3  
 2.007400000000000E10   -2.576278324273450E-3  -3.116475297483030E-3  
 2.007600000000000E10   -2.946524501398758E-3  -2.556655452483230E-3  
 2.007800000000000E10   -3.200268556858287E-3  -1.956144212687641E-3  
 2.008000000000000E10   -3.301864219714463E-3  -1.392446058790809E-3  
 2.008200000000000E10   -3.354335517082134E-3  -9.732033646332079E-4  
 2.008400000000000E10   -3.490661256544201E-3  -6.281484994910842E-4  
 2.008600000000000E10   -3.686821461873659E-3  -1.499872550657192E-4  
 2.008800000000000E10   -3.748658981266214E-3   5.024840575959075E-4  
 2.009000000000000E10   -3.664344181249172E-3   1.165254992996285E-3  
 2.009200000000000E10   -3.515999212309167E-3   1.787980868952510E-3  
 2.009400000000000E10   -3.300277407016652E-3   2.445764175650698E-3  
 2.009600000000000E10   -2.818378812437993E-3   3.190432853398868E-3  
 2.009800000000000E10   -2.019988847206588E-3   3.723956411704422E-3  
 2.010000000000000E10   -1.168970919766084E-3   3.929567638278744E-3  
 2.010200000000000E10   -4.148531200674673E-4   3.925989830383549E-3  
 2.010400000000000E10    2.019352545131022E-4   3.769417221508462E-3  
 2.010600000000000E10    7.018903974604644E-4   3.564795513671858E-3  
 2.010800000000000E10    1.154465345021935E-3   3.412451750288407E-3  
 2.011000000000000E10    1.666025382202165E-3   3.302210651591053E-3  
 2.011200000000000E10    2.257883807437288E-3   3.117659649478249E-3  
 2.011400000000000E10    2.861245946360775E-3   2.761561739729879E-3  
 2.011600000000000E10    3.412536946182818E-3   2.160877670609841E-3  
 2.011800000000000E10    3.758868524505769E-3   1.398407502019387E-3  
 2.012000000000000E10    3.851542996679560E-3   6.500390073698428E-4  
 2.012200000000000E10    3.781125961262503E-3   2.689446358281089E-5  
 2.012400000000000E10    3.700319315410323E-3  -4.900683103456956E-4  
 2.012600000000000E10    3.629803643159477E-3  -1.070450456743991E-3  
 2.012800000000000E10    3.457329615398690E-3  -1.751973108319497E-3  
 2.013000000000000E10    3.118763341464930E-3  -2.399204974350187E-3  
 2.013200000000000E10    2.636380209070114E-3  -2.939755114278308E-3  
 2.013400000000000E10    2.071932032934310E-3  -3.377184941559847E-3  
 2.013600000000000E10    1.391395628969703E-3  -3.721297833562634E-3  
 2.013800000000000E10    6.396608248591584E-4  -3.900232805330077E-3  
 2.014000000000000E10   -9.599334086409349E-5  -3.889765783017617E-3  
 2.014200000000000E10   -7.464054994928986E-4  -3.686794036723398E-3  
 2.014400000000000E10   -1.249766376812333E-3  -3.413464414116778E-3  
 2.014600000000000E10   -1.761064163328689E-3  -3.188585672803500E-3  
 2.014800000000000E10   -2.316966195832248E-3  -2.873302624204461E-3  
 2.015000000000000E10   -2.783607013155649E-3  -2.423469106563264E-3  
 2.015200000000000E10   -3.110969554126999E-3  -1.916105075693333E-3  
 2.015400000000000E10   -3.375283189485839E-3  -1.396695128929468E-3  
 2.015600000000000E10   -3.598414056784945E-3  -8.369704563297149E-4  
 2.015800000000000E10   -3.742147076093121E-3  -2.325613735772578E-4  
 2.016000000000000E10   -3.790299597851657E-3   4.190652333717380E-4  
 2.016200000000000E10   -3.704844051282164E-3   1.071827413577495E-3  
 2.016400000000000E10   -3.449372780497796E-3   1.770474393219676E-3  
 2.016600000000000E10   -3.051474546714698E-3   2.421999511159497E-3  
 2.016800000000000E10   -2.535800386312200E-3   2.965569668621929E-3  
 2.017000000000000E10   -1.932938068668232E-3   3.356162521896172E-3  
 2.017200000000000E10   -1.239161271555924E-3   3.599411195695953E-3  
 2.017400000000000E10   -5.470232895782425E-4   3.679342257479827E-3  
 2.017600000000000E10    7.652334188381322E-5   3.614769894974652E-3  
 2.017800000000000E10    5.781088860843469E-4   3.485468058145525E-3  
 2.018000000000000E10    1.053976376517963E-3   3.355696771500839E-3  
 2.018200000000000E10    1.522844082411425E-3   3.167600287584428E-3  
 2.018400000000000E10    1.986315621948445E-3   2.945924741158516E-3  
 2.018600000000000E10    2.462406369662028E-3   2.699424162001154E-3  
 2.018800000000000E10    2.994472868050690E-3   2.417554282640786E-3  
 2.019000000000000E10    3.605402011516286E-3   1.918550986037763E-3  
 2.019200000000000E10    4.079999890822320E-3   1.106883206600209E-3  
 2.019400000000000E10    4.284145632459794E-3   1.840102550987569E-4  
 2.019600000000000E10    4.227111903651630E-3  -7.565702278638422E-4  
 2.019800000000000E10    3.868147144439045E-3  -1.615812238823209E-3  
 2.020000000000000E10    3.317130465106464E-3  -2.272336853001221E-3  
 2.020200000000000E10    2.657699780998591E-3  -2.710775699305498E-3  
 2.020400000000000E10    2.066685536439405E-3  -2.924607718869308E-3  
 2.020600000000000E10    1.631724247191516E-3  -3.046682958180706E-3  
 2.020800000000000E10    1.211247349410882E-3  -3.197615431552684E-3  
 2.021000000000000E10    7.781146832937262E-4  -3.286880170811474E-3  
 2.021200000000000E10    4.078700513662311E-4  -3.439428787793459E-3  
 2.021400000000000E10   -1.362602777612384E-4  -3.705706364003781E-3  
 2.021600000000000E10   -8.935789163741801E-4  -3.785153442740809E-3  
 2.021800000000000E10   -1.664253903184960E-3  -3.559744810501551E-3  
 2.022000000000000E10   -2.290714238942774E-3  -3.140070869437891E-3  
 2.022200000000000E10   -2.799159657486059E-3  -2.661123061207710E-3  
 2.022400000000000E10   -3.227011973245277E-3  -2.140671765017841E-3  
 2.022600000000000E10   -3.558555732906601E-3  -1.558431491750167E-3  
 2.022800000000000E10   -3.749614713690532E-3  -9.355987062861707E-4  
 2.023000000000000E10   -3.847138467532250E-3  -2.862987723661427E-4  
 2.023200000000000E10   -3.884951388578356E-3   3.781195803269469E-4  
 2.023400000000000E10   -3.799454705720699E-3   1.093264184834689E-3  
 2.023600000000000E10   -3.527436931445092E-3   1.755273048650980E-3  
 2.023800000000000E10   -3.136313905548535E-3   2.335946265332125E-3  
 2.024000000000000E10   -2.622276265749042E-3   2.869929684280062E-3  
 2.024200000000000E10   -2.020357925456340E-3   3.255793701190456E-3  
 2.024400000000000E10   -1.463570514187953E-3   3.463034894616332E-3  
 2.024600000000000E10   -9.495590584939003E-4   3.636562509784176E-3  
 2.024800000000000E10   -3.341797622133415E-4   3.776276811819386E-3  
 2.025000000000000E10    3.373806528678095E-4   3.771246255685886E-3  
 2.025200000000000E10    9.554127032903060E-4   3.638986449251757E-3  
 2.025400000000000E10    1.496237817645809E-3   3.431493174974566E-3  
 2.025600000000000E10    1.992616227563517E-3   3.180870958776386E-3  
 2.025800000000000E10    2.508831313914723E-3   2.850007242810580E-3  
 2.026000000000000E10    3.038480593305496E-3   2.424731988597799E-3  
 2.026200000000000E10    3.515830499200542E-3   1.855629016242830E-3  
 2.026400000000000E10    3.823775950428329E-3   1.188737502678033E-3  
 2.026600000000000E10    3.977511601269614E-3   4.852774425806410E-4  
 2.026800000000000E10    3.996123855841565E-3  -2.523654114122986E-4  
 2.027000000000000E10    3.831609790385874E-3  -1.009723219020223E-3  
 2.027200000000000E10    3.466849612003124E-3  -1.623449362756938E-3  
 2.027400000000000E10    3.099820490374610E-3  -2.022456599077509E-3  
 2.027600000000000E10    2.754679685573519E-3  -2.390404027760213E-3  
 2.027800000000000E10    2.374262244291144E-3  -2.750970615809899E-3  
 2.028000000000000E10    1.996804849405624E-3  -3.136631498044288E-3  
 2.028200000000000E10    1.515126248166241E-3  -3.544143001537449E-3  
 2.028400000000000E10    9.006374504095245E-4  -3.846714672644014E-3  
 2.028600000000000E10    2.246228045637340E-4  -4.004536245455161E-3  
 2.028800000000000E10   -4.988348885456584E-4  -4.025077090863093E-3  
 2.029000000000000E10   -1.196255872922915E-3  -3.953190221462721E-3  
 2.029200000000000E10   -1.941205692236071E-3  -3.767435390065298E-3  
 2.029400000000000E10   -2.658190766211461E-3  -3.333774205573179E-3  
 2.029600000000000E10   -3.206289928107535E-3  -2.674849419337180E-3  
 2.029800000000000E10   -3.532486444592108E-3  -1.961871628063145E-3  
 2.030000000000000E10   -3.729285131909966E-3  -1.346090623108601E-3  
 2.030200000000000E10   -3.901915670728979E-3  -7.336674269610718E-4  
 2.030400000000000E10   -3.970459483012006E-3  -2.766829026240658E-5  
 2.030600000000000E10   -3.863552016102606E-3   6.700601481924547E-4  
 2.030800000000000E10   -3.625522307292732E-3   1.292755817247118E-3  
 2.031000000000000E10   -3.311487538510083E-3   1.818836071631975E-3  
 2.031200000000000E10   -2.993478163800858E-3   2.229023612690745E-3  
 2.031400000000000E10   -2.659909021868199E-3   2.634386681480173E-3  
 2.031600000000000E10   -2.236150440840442E-3   3.068743440334076E-3  
 2.031800000000000E10   -1.692724828090933E-3   3.435753849277527E-3  
 2.032000000000000E10   -1.111133446640991E-3   3.679631778073532E-3  
 2.032200000000000E10   -4.813012294758710E-4   3.840285548825323E-3  
 2.032400000000000E10    1.733951037210689E-4   3.886534935898252E-3  
 2.032600000000000E10    8.341868251366657E-4   3.850399027865979E-3  
 2.032800000000000E10    1.548067232547903E-3   3.686022740662282E-3  
 2.033000000000000E10    2.206748840111641E-3   3.341794514131767E-3  
 2.033200000000000E10    2.711712963373205E-3   2.886661362868769E-3  
 2.033400000000000E10    3.164987131539319E-3   2.394663135486621E-3  
 2.033600000000000E10    3.401102498173714E-3   2.107287251195055E-3  
 2.033800000000000E10    3.882896747256135E-3   1.034187763802891E-3  
 2.034000000000000E10    3.944299816165442E-3   2.276157852683366E-4  
 2.034200000000000E10    3.774520251210090E-3  -5.161446633455517E-4  
 2.034400000000000E10    3.463835374992572E-3  -1.142756245961344E-3  
 2.034600000000000E10    3.081309111834861E-3  -1.612361152598888E-3  
 2.034800000000000E10    2.723521144807707E-3  -1.938082378380645E-3  
 2.035000000000000E10    2.442764914537102E-3  -2.211792063956827E-3  
 2.035200000000000E10    2.141710675470991E-3  -2.536337897411468E-3  
 2.035400000000000E10    1.749115413986147E-3  -2.876595950420992E-3  
 2.035600000000000E10    1.281124782564556E-3  -3.172101783508689E-3  
 2.035800000000000E10    7.594335690589140E-4  -3.396713985475126E-3  
 2.036000000000000E10    1.692033987143796E-4  -3.501925663447675E-3  
 2.036200000000000E10   -4.450507860136346E-4  -3.520675187493549E-3  
 2.036400000000000E10   -1.131582891649026E-3  -3.440079871381139E-3  
 2.036600000000000E10   -1.811024659589209E-3  -3.131493658724207E-3  
 2.036800000000000E10   -2.341840861733129E-3  -2.652198447052528E-3  
 2.037000000000000E10   -2.677786008765300E-3  -2.084673342099529E-3  
 2.037200000000000E10   -2.839625011094742E-3  -1.510400254635807E-3  
 2.037400000000000E10   -2.893697139864535E-3  -1.032777134915469E-3  
 2.037600000000000E10   -2.956974394849422E-3  -6.668142806221214E-4  
 2.037800000000000E10   -3.056016405699430E-3  -2.785151183711550E-4  
 2.038000000000000E10   -3.093816535432398E-3   2.007381480785783E-4  
 2.038200000000000E10   -3.026299029128788E-3   7.002681190504429E-4  
 2.038400000000000E10   -2.923087699821702E-3   1.163732050630598E-3  
 2.038600000000000E10   -2.764694591018337E-3   1.676020659448832E-3  
 2.038800000000000E10   -2.442904075400697E-3   2.181738224110486E-3  
 2.039000000000000E10   -1.968561195952381E-3   2.582923957595119E-3  
 2.039200000000000E10   -1.400717867561329E-3   2.867714421432696E-3  
 2.039400000000000E10   -8.490171037717827E-4   3.009079524350387E-3  
 2.039600000000000E10   -3.734281612488293E-4   3.076553373471087E-3  
 2.039800000000000E10    1.544335268759083E-4   3.075912465444870E-3  
 2.040000000000000E10    6.610758805268065E-4   2.929106578920727E-3  
 2.040200000000000E10    1.063227859026764E-3   2.747305789617477E-3  
 2.040400000000000E10    1.478315608426469E-3   2.571833299840858E-3  
 2.040600000000000E10    1.894437983908036E-3   2.308866230449007E-3  
 2.040800000000000E10    2.210287845774014E-3   1.977421547412689E-3  
 2.041000000000000E10    2.522811302225347E-3   1.584401506539664E-3  
 2.041200000000000E10    2.778586235909183E-3   1.105796959665087E-3  
 2.041400000000000E10    2.932305896171818E-3   6.073495914964122E-4  
 2.041600000000000E10    3.029684858097707E-3   7.517966460673727E-5  
 2.041800000000000E10    2.979652815279954E-3  -5.451373044145582E-4  
 2.042000000000000E10    2.715743845328689E-3  -1.103021215969398E-3  
 2.042200000000000E10    2.335305121600812E-3  -1.515902235333658E-3  
 2.042400000000000E10    1.954064468772691E-3  -1.774761384571500E-3  
 2.042600000000000E10    1.609009128627310E-3  -1.914167622920632E-3  
 2.042800000000000E10    1.283631102400430E-3  -1.984761076415947E-3  
 2.043000000000000E10    1.020449330098927E-3  -2.039259884586949E-3  
 2.043200000000000E10    8.124046366845753E-4  -2.147450541537026E-3  
 2.043400000000000E10    5.862503190363908E-4  -2.269644149360650E-3  
 2.043600000000000E10    3.504349746278568E-4  -2.426587562594149E-3  
 2.043800000000000E10    5.465422873385251E-6  -2.635743190177981E-3  
 2.044000000000000E10   -5.131212632993904E-4  -2.775804746183165E-3  
 2.044200000000000E10   -1.153500911630230E-3  -2.746902314233191E-3  
 2.044400000000000E10   -1.793044301635230E-3  -2.468096526385642E-3  
 2.044600000000000E10   -2.244781742999216E-3  -1.925931562221161E-3  
 2.044800000000000E10   -2.395750144151626E-3  -1.304773510330253E-3  
 2.045000000000000E10   -2.370635889769521E-3  -8.674737965734102E-4  
 2.045200000000000E10   -2.375303575033207E-3  -5.906981683370693E-4  
 2.045400000000000E10   -2.438848947439297E-3  -3.071109319456428E-4  
 2.045600000000000E10   -2.492057622329873E-3  -7.317289690732128E-6  
 2.045800000000000E10   -2.577228623982749E-3   3.607918858315429E-4  
 2.046000000000000E10   -2.577932453771800E-3   8.554960828113520E-4  
 2.046200000000000E10   -2.431975806959801E-3   1.359997951011691E-3  
 2.046400000000000E10   -2.163597793651768E-3   1.805022298530848E-3  
 2.046600000000000E10   -1.753650249246462E-3   2.155052092685192E-3  
 2.046800000000000E10   -1.292801059690523E-3   2.377270571427581E-3  
 2.047000000000000E10   -8.674647075549505E-4   2.518622058064298E-3  
 2.047200000000000E10   -4.662107805617982E-4   2.572465268320140E-3  
 2.047400000000000E10   -1.014977068184691E-4   2.596481067967820E-3  
 2.047600000000000E10    2.900680628056167E-4   2.643317777525496E-3  
 2.047800000000000E10    7.639378740417738E-4   2.610694490557100E-3  
 2.048000000000000E10    1.240516002404929E-3   2.451443765887324E-3  
 2.048200000000000E10    1.682963067044815E-3   2.206180517757197E-3  
 2.048400000000000E10    2.026044947589622E-3   1.838440457818869E-3  
 2.048600000000000E10    2.246207399523737E-3   1.414275252444233E-3  
 2.048800000000000E10    2.396691903862873E-3   9.915760867757564E-4  
 2.049000000000000E10    2.455944462713820E-3   5.939181988920879E-4  
 2.049200000000000E10    2.455345110645817E-3   2.591746270349020E-4  
 2.049400000000000E10    2.455928009348336E-3  -3.519286981849921E-5  
 2.049600000000000E10    2.492179346765266E-3  -3.166796287800542E-4  
 2.049800000000000E10    2.577160832897565E-3  -6.847000389106941E-4  
 2.050000000000000E10    2.610230025041987E-3  -1.186939156154332E-3  
 2.050200000000000E10    2.501398273226288E-3  -1.776731690897802E-3  
 2.050400000000000E10    2.157683521624149E-3  -2.377101599618241E-3  
 2.050600000000000E10    1.576676208778848E-3  -2.890860371544590E-3  
 2.050800000000000E10    8.263313218686777E-4  -3.207764648659915E-3  
 2.051000000000000E10    3.859972046619227E-6  -3.229674132954744E-3  
 2.051200000000000E10   -7.306567988254959E-4  -2.928150524557741E-3  
 2.051400000000000E10   -1.178302036103919E-3  -2.455507606313921E-3  
 2.051600000000000E10   -1.363774278649578E-3  -2.047117854135088E-3  
 2.051800000000000E10   -1.481476948412572E-3  -1.792702832500692E-3  
 2.052000000000000E10   -1.658549318147571E-3  -1.591815933711643E-3  
 2.052200000000000E10   -1.826203688346770E-3  -1.322255528784921E-3  
 2.052400000000000E10   -1.898800655279631E-3  -1.019141523247976E-3  
 2.052600000000000E10   -1.917682833866113E-3  -8.129411474744112E-4  
 2.052800000000000E10   -2.038294001034013E-3  -7.115173502825201E-4  
 2.053000000000000E10   -2.279198363446343E-3  -4.961205657893494E-4  
 2.053200000000000E10   -2.458462434142461E-3  -1.240538774288359E-4  
 2.053400000000000E10   -2.580985452772843E-3   2.964055014739710E-4  
 2.053600000000000E10   -2.636598793927718E-3   8.190658294170360E-4  
 2.053800000000000E10   -2.502559569238881E-3   1.444656397560957E-3  
 2.054000000000000E10   -2.107854280045923E-3   1.979707280334867E-3  
 2.054200000000000E10   -1.596599406229310E-3   2.298413045750357E-3  
 2.054400000000000E10   -1.068162961782497E-3   2.460976869994660E-3  
 2.054600000000000E10   -6.007044971345660E-4   2.510879898765757E-3  
 2.054800000000000E10   -1.755054075562648E-4   2.481473155641630E-3  
 2.055000000000000E10    2.007086193232142E-4   2.332438234768716E-3  
 2.055200000000000E10    4.400934932040580E-4   2.173624590706127E-3  
 2.055400000000000E10    6.318569555591196E-4   2.112369360632183E-3  
 2.055600000000000E10    8.761648032641800E-4   2.080762182523347E-3  
