#  HZ   S   RI   R     50.00 
! Rohde & Schwarz ZVA40 4Ports - Version 3.90 - 1145.1110k42 SN: 100403
! Date: 2023-10-03 11:28:18
! Measurement: S12 
! 
 2.000000000000000E10   -2.401523499025239E-3  -2.993628305072586E-3  
 2.000200000000000E10   -2.813572434846450E-3  -2.578903576014219E-3  
 2.000400000000000E10   -3.170520524252896E-3  -2.062445014922156E-3  
 2.000600000000000E10   -3.454314458563372E-3  -1.491037231904489E-3  
 2.000800000000000E10   -3.589847185476512E-3  -9.366263014574847E-4  
 2.001000000000000E10   -3.674762970250514E-3  -4.897780815587828E-4  
 2.001200000000000E10   -3.815241123515147E-3  -1.712587807021378E-5  
 2.001400000000000E10   -3.919665115299049E-3   6.435776876632764E-4  
 2.001600000000000E10   -3.811097100239109E-3   1.422103093419638E-3  
 2.001800000000000E10   -3.536133776867280E-3   2.086640680553737E-3  
 2.002000000000000E10   -3.154952656822624E-3   2.689086245717826E-3  
 2.002200000000000E10   -2.594943408405891E-3   3.246996094714161E-3  
 2.002400000000000E10   -1.941054141045445E-3   3.710678192200485E-3  
 2.002600000000000E10   -1.204373396898586E-3   4.013622886742708E-3  
 2.002800000000000E10   -4.671197389985470E-4   4.172878236406380E-3  
 2.003000000000000E10    3.174914314446075E-4   4.113419084913202E-3  
 2.003200000000000E10    9.759010518556117E-4   3.830966280980243E-3  
 2.003400000000000E10    1.481820915446238E-3   3.521423105633369E-3  
 2.003600000000000E10    1.943929483079248E-3   3.254168942846634E-3  
 2.003800000000000E10    2.377656253951568E-3   2.969480593930240E-3  
 2.004000000000000E10    2.793437956521909E-3   2.621832700377262E-3  
 2.004200000000000E10    3.204462075330042E-3   2.174371961262767E-3  
 2.004400000000000E10    3.586447858079165E-3   1.630024773206700E-3  
 2.004600000000000E10    3.874234536110803E-3   1.008684203649561E-3  
 2.004800000000000E10    4.008122236916313E-3   3.824852900396327E-4  
 2.005000000000000E10    4.060568805370066E-3  -2.753839933710104E-4  
 2.005200000000000E10    3.971425997507242E-3  -9.764832470359075E-4  
 2.005400000000000E10    3.754502196830733E-3  -1.636575183106794E-3  
 2.005600000000000E10    3.498522616508935E-3  -2.265213652410441E-3  
 2.005800000000000E10    3.132546225700666E-3  -2.867501539488634E-3  
 2.006000000000000E10    2.599664386016904E-3  -3.425370289564685E-3  
 2.006200000000000E10    1.936580614980173E-3  -3.882531093916408E-3  
 2.006400000000000E10    1.159917188083960E-3  -4.198184857765834E-3  
 2.006600000000000E10    3.766600922163990E-4  -4.360324289235804E-3  
 2.006800000000000E10   -4.151552426197601E-4  -4.339008281628291E-3  
 2.007000000000000E10   -1.203614895025061E-3  -4.143247458462914E-3  
 2.007200000000000E10   -1.937587456605225E-3  -3.778857722257575E-3  
 2.007400000000000E10   -2.542626983658584E-3  -3.291944067718255E-3  
 2.007600000000000E10   -3.009128108344697E-3  -2.744399295705888E-3  
 2.007800000000000E10   -3.308523592918560E-3  -2.140343999835077E-3  
 2.008000000000000E10   -3.464247350132576E-3  -1.566990903854646E-3  
 2.008200000000000E10   -3.576518596943331E-3  -1.053191406686825E-3  
 2.008400000000000E10   -3.749410906392667E-3  -6.002940332379055E-4  
 2.008600000000000E10   -3.942465806310929E-3  -3.399678314087427E-5  
 2.008800000000000E10   -3.971730013964354E-3   6.592250817144911E-4  
 2.009000000000000E10   -3.810886034948959E-3   1.357768645027170E-3  
 2.009200000000000E10   -3.542462924357366E-3   2.010648449261983E-3  
 2.009400000000000E10   -3.227041930788094E-3   2.656894649758383E-3  
 2.009600000000000E10   -2.706304968645175E-3   3.335299962027758E-3  
 2.009800000000000E10   -1.912395741480093E-3   3.803856550129476E-3  
 2.010000000000000E10   -1.066321571771469E-3   3.973693500652359E-3  
 2.010200000000000E10   -3.068957952631604E-4   3.955291911821675E-3  
 2.010400000000000E10    3.163089158651592E-4   3.814752998382406E-3  
 2.010600000000000E10    8.287275343684964E-4   3.616503879634871E-3  
 2.010800000000000E10    1.281490260562687E-3   3.439661296498445E-3  
 2.011000000000000E10    1.782151171937585E-3   3.264164897026840E-3  
 2.011200000000000E10    2.352750799791129E-3   3.026116234077900E-3  
 2.011400000000000E10    2.932969437636160E-3   2.634396405752611E-3  
 2.011600000000000E10    3.430991761248421E-3   2.048533634041195E-3  
 2.011800000000000E10    3.741554001829140E-3   1.306111385390439E-3  
 2.012000000000000E10    3.818269318866510E-3   5.384040285005339E-4  
 2.012200000000000E10    3.731635200825555E-3  -9.078969715456306E-5  
 2.012400000000000E10    3.655967587191198E-3  -5.828944569522585E-4  
 2.012600000000000E10    3.603285307892495E-3  -1.120460361966657E-3  
 2.012800000000000E10    3.432451928448346E-3  -1.761919823130248E-3  
 2.013000000000000E10    3.100258091257679E-3  -2.411846925194065E-3  
 2.013200000000000E10    2.600750575462977E-3  -2.978216356563348E-3  
 2.013400000000000E10    2.013131872647339E-3  -3.410925407445541E-3  
 2.013600000000000E10    1.321541675780383E-3  -3.736801850781949E-3  
 2.013800000000000E10    5.220918855802329E-4  -3.871797385660035E-3  
 2.014000000000000E10   -2.285216393863300E-4  -3.791516543262535E-3  
 2.014200000000000E10   -8.383503580396927E-4  -3.552973623973904E-3  
 2.014400000000000E10   -1.252852216431940E-3  -3.295141229130052E-3  
 2.014600000000000E10   -1.688394764507259E-3  -3.119614656531701E-3  
 2.014800000000000E10   -2.225911969112026E-3  -2.843974408245197E-3  
 2.015000000000000E10   -2.713488121689470E-3  -2.405762715541103E-3  
 2.015200000000000E10   -3.044668783399243E-3  -1.906332909129560E-3  
 2.015400000000000E10   -3.310638247057796E-3  -1.417322821604709E-3  
 2.015600000000000E10   -3.513423501755352E-3  -8.572981460019948E-4  
 2.015800000000000E10   -3.638639494224832E-3  -2.615162327991264E-4  
 2.016000000000000E10   -3.719558318456015E-3   3.582757937558066E-4  
 2.016200000000000E10   -3.687040630245099E-3   1.020959834999371E-3  
 2.016400000000000E10   -3.458215579114579E-3   1.709946827894008E-3  
 2.016600000000000E10   -3.045960967601450E-3   2.313729168640243E-3  
 2.016800000000000E10   -2.538016988654380E-3   2.808438622634168E-3  
 2.017000000000000E10   -1.981519956003737E-3   3.181554635779726E-3  
 2.017200000000000E10   -1.393893737932322E-3   3.429466254871201E-3  
 2.017400000000000E10   -7.888806500920544E-4   3.559576071522855E-3  
 2.017600000000000E10   -1.906369773981472E-4   3.575617076691103E-3  
 2.017800000000000E10    3.435735157432242E-4   3.557733087627977E-3  
 2.018000000000000E10    8.862450874100130E-4   3.516524262657320E-3  
 2.018200000000000E10    1.425477874430794E-3   3.392110984013589E-3  
 2.018400000000000E10    1.953265069190551E-3   3.187367485629188E-3  
 2.018600000000000E10    2.496880591260615E-3   2.895964982195033E-3  
 2.018800000000000E10    3.072355882506128E-3   2.542911666548915E-3  
 2.019000000000000E10    3.660833376839206E-3   2.010239210600655E-3  
 2.019200000000000E10    4.120962125145728E-3   1.224149686836258E-3  
 2.019400000000000E10    4.326660255039180E-3   3.143433097176496E-4  
 2.019600000000000E10    4.303217072177817E-3  -6.414446419242908E-4  
 2.019800000000000E10    4.005217269338944E-3  -1.538104450985514E-3  
 2.020000000000000E10    3.518275761355957E-3  -2.248158178257722E-3  
 2.020200000000000E10    2.907246782409925E-3  -2.750764014544311E-3  
 2.020400000000000E10    2.274971360478688E-3  -3.052265685120667E-3  
 2.020600000000000E10    1.735750447820734E-3  -3.239396795699442E-3  
 2.020800000000000E10    1.213591830391023E-3  -3.404837498372352E-3  
 2.021000000000000E10    7.183370180428030E-4  -3.452808716920792E-3  
 2.021200000000000E10    3.316426537586032E-4  -3.517222720094854E-3  
 2.021400000000000E10   -1.692294263867316E-4  -3.716808864501892E-3  
 2.021600000000000E10   -8.977970918985429E-4  -3.825973339930729E-3  
 2.021800000000000E10   -1.718726862842838E-3  -3.661751246976632E-3  
 2.022000000000000E10   -2.390633682133975E-3  -3.263813814286281E-3  
 2.022200000000000E10   -2.917498005209146E-3  -2.766883992417544E-3  
 2.022400000000000E10   -3.365829293788584E-3  -2.180924397651796E-3  
 2.022600000000000E10   -3.710415490247586E-3  -1.521891655607356E-3  
 2.022800000000000E10   -3.905277268064244E-3  -8.442100650561906E-4  
 2.023000000000000E10   -3.965099014479806E-3  -1.417803152300487E-4  
 2.023200000000000E10   -3.914646657735662E-3   5.600674258958963E-4  
 2.023400000000000E10   -3.724740775026106E-3   1.269246882724541E-3  
 2.023600000000000E10   -3.401176995356326E-3   1.878172090208089E-3  
 2.023800000000000E10   -3.037759163244455E-3   2.393365811763539E-3  
 2.024000000000000E10   -2.578680472517456E-3   2.878200392135316E-3  
 2.024200000000000E10   -1.986249276712813E-3   3.235946271430564E-3  
 2.024400000000000E10   -1.404497436144286E-3   3.435024146542505E-3  
 2.024600000000000E10   -8.891689056461609E-4   3.604690104516016E-3  
 2.024800000000000E10   -2.896364431190132E-4   3.755242287836694E-3  
 2.025000000000000E10    3.775629038163634E-4   3.747503462902926E-3  
 2.025200000000000E10    9.959913635005555E-4   3.583834084026792E-3  
 2.025400000000000E10    1.548525282285280E-3   3.383642191895181E-3  
 2.025600000000000E10    2.093401664212622E-3   3.130300479285696E-3  
 2.025800000000000E10    2.602523684294688E-3   2.774219485689645E-3  
 2.026000000000000E10    3.048286738770980E-3   2.317007924257606E-3  
 2.026200000000000E10    3.440375129381816E-3   1.756326580006216E-3  
 2.026400000000000E10    3.703240512145891E-3   1.116534496692044E-3  
 2.026600000000000E10    3.849613402659695E-3   4.686421770774932E-4  
 2.026800000000000E10    3.887417777958844E-3  -2.219093190365972E-4  
 2.027000000000000E10    3.738546442171490E-3  -9.357171581575167E-4  
 2.027200000000000E10    3.418423683830986E-3  -1.516490868568697E-3  
 2.027400000000000E10    3.115572052559367E-3  -1.979332257717572E-3  
 2.027600000000000E10    2.809483359602315E-3  -2.410687583809098E-3  
 2.027800000000000E10    2.455984906258959E-3  -2.810116434745767E-3  
 2.028000000000000E10    2.050137311151183E-3  -3.212358293778919E-3  
 2.028200000000000E10    1.510141223358611E-3  -3.614254226839102E-3  
 2.028400000000000E10    8.485499851371128E-4  -3.896508314129380E-3  
 2.028600000000000E10    1.335055239906069E-4  -4.016071971919802E-3  
 2.028800000000000E10   -5.702334240561835E-4  -3.980188975455585E-3  
 2.029000000000000E10   -1.236495807663434E-3  -3.841910631982265E-3  
 2.029200000000000E10   -1.944894617837337E-3  -3.629912001391253E-3  
 2.029400000000000E10   -2.646162847263946E-3  -3.230628807580582E-3  
 2.029600000000000E10   -3.213403798225854E-3  -2.634470532130864E-3  
 2.029800000000000E10   -3.546606697556046E-3  -1.937938905838463E-3  
 2.030000000000000E10   -3.713793147148358E-3  -1.299255574984407E-3  
 2.030200000000000E10   -3.874774211672722E-3  -7.007503849712926E-4  
 2.030400000000000E10   -3.955647401097748E-3   3.130915165119974E-6  
 2.030600000000000E10   -3.828130489974111E-3   7.224873643954872E-4  
 2.030800000000000E10   -3.542166186013708E-3   1.320522619169895E-3  
 2.031000000000000E10   -3.199086722883362E-3   1.814511095829032E-3  
 2.031200000000000E10   -2.871094797565430E-3   2.213995334588819E-3  
 2.031400000000000E10   -2.565775308068152E-3   2.619206129262845E-3  
 2.031600000000000E10   -2.172318200960204E-3   3.056098465566282E-3  
 2.031800000000000E10   -1.619548791226138E-3   3.389678981707053E-3  
 2.032000000000000E10   -1.038550744178119E-3   3.611559263878951E-3  
 2.032200000000000E10   -4.254376830498654E-4   3.776847833284626E-3  
 2.032400000000000E10    2.428504072600777E-4   3.815195678422849E-3  
 2.032600000000000E10    8.912725693166809E-4   3.740659949404222E-3  
 2.032800000000000E10    1.570572817905082E-3   3.548517987063086E-3  
 2.033000000000000E10    2.215380418217845E-3   3.169272922807271E-3  
 2.033200000000000E10    2.696259378421087E-3   2.695110954206299E-3  
 2.033400000000000E10    3.084812244331396E-3   2.197876055207518E-3  
 2.033600000000000E10    3.207575193502838E-3   1.925454781114780E-3  
 2.033800000000000E10    3.557555118782653E-3   9.589299507853059E-4  
 2.034000000000000E10    3.616963659792587E-3   3.016787937937167E-4  
 2.034200000000000E10    3.522725818954685E-3  -3.280560941439709E-4  
 2.034400000000000E10    3.302353313537660E-3  -8.635579207394687E-4  
 2.034600000000000E10    3.054112075241628E-3  -1.288768813807380E-3  
 2.034800000000000E10    2.819018378094943E-3  -1.686328840959404E-3  
 2.035000000000000E10    2.565002448304936E-3  -2.091504141895308E-3  
 2.035200000000000E10    2.242227973140501E-3  -2.494041411275114E-3  
 2.035400000000000E10    1.847147122370425E-3  -2.819636672804202E-3  
 2.035600000000000E10    1.411176071053854E-3  -3.068460393007155E-3  
 2.035800000000000E10    9.319646309854258E-4  -3.309667248416831E-3  
 2.036000000000000E10    3.698954732735055E-4  -3.498837515642798E-3  
 2.036200000000000E10   -2.674731231645975E-4  -3.582674613291467E-3  
 2.036400000000000E10   -9.761138892456615E-4  -3.536235842922772E-3  
 2.036600000000000E10   -1.678943000216451E-3  -3.245252175946479E-3  
 2.036800000000000E10   -2.245504598788642E-3  -2.757906965497468E-3  
 2.037000000000000E10   -2.631088115136933E-3  -2.226886382602432E-3  
 2.037200000000000E10   -2.869959756800974E-3  -1.699011022638944E-3  
 2.037400000000000E10   -2.962561953743851E-3  -1.215475913206184E-3  
 2.037600000000000E10   -3.038931379301681E-3  -8.124833046976065E-4  
 2.037800000000000E10   -3.162660437670572E-3  -3.836073533252435E-4  
 2.038000000000000E10   -3.224062112470469E-3   1.277275852636969E-4  
 2.038200000000000E10   -3.194025114040685E-3   6.577959068602435E-4  
 2.038400000000000E10   -3.091026244133160E-3   1.194717418574901E-3  
 2.038600000000000E10   -2.857527367908646E-3   1.764551969245076E-3  
 2.038800000000000E10   -2.488017194317999E-3   2.290510572493076E-3  
 2.039000000000000E10   -2.020693280630642E-3   2.714580373355636E-3  
 2.039200000000000E10   -1.461862357919691E-3   3.007538832241187E-3  
 2.039400000000000E10   -8.836558877697423E-4   3.119998516652872E-3  
 2.039600000000000E10   -3.793942477959381E-4   3.169735591789639E-3  
 2.039800000000000E10    1.693202247460485E-4   3.170306578761450E-3  
 2.040000000000000E10    7.014203605380047E-4   3.041738437281715E-3  
 2.040200000000000E10    1.170192543348229E-3   2.857980628808340E-3  
 2.040400000000000E10    1.630225986311282E-3   2.598600789766621E-3  
 2.040600000000000E10    2.016860569171884E-3   2.221119305532840E-3  
 2.040800000000000E10    2.293615507099916E-3   1.850923437073275E-3  
 2.041000000000000E10    2.552714250567887E-3   1.471101422794163E-3  
 2.041200000000000E10    2.747407157181038E-3   1.050764377901538E-3  
 2.041400000000000E10    2.891817138771769E-3   5.977112493753710E-4  
 2.041600000000000E10    2.991959780316662E-3   7.925247795086493E-5  
 2.041800000000000E10    2.943938485933124E-3  -5.039599706867227E-4  
 2.042000000000000E10    2.705562575202850E-3  -1.036752084339107E-3  
 2.042200000000000E10    2.371108107682732E-3  -1.444571724816881E-3  
 2.042400000000000E10    1.976925715873087E-3  -1.723465971062305E-3  
 2.042600000000000E10    1.643845854603030E-3  -1.884170579379080E-3  
 2.042800000000000E10    1.351066330378806E-3  -2.013838453287328E-3  
 2.043000000000000E10    1.086366677622277E-3  -2.109378929836331E-3  
 2.043200000000000E10    8.419591597177918E-4  -2.197130867797468E-3  
 2.043400000000000E10    6.098433449450466E-4  -2.330498200737768E-3  
 2.043600000000000E10    3.330902825971996E-4  -2.512056449497188E-3  
 2.043800000000000E10   -6.732674955856058E-5  -2.699535469421082E-3  
 2.044000000000000E10   -6.123787326807226E-4  -2.788501860642875E-3  
 2.044200000000000E10   -1.223978004418314E-3  -2.683229304643141E-3  
 2.044400000000000E10   -1.820253285889824E-3  -2.350691705942154E-3  
 2.044600000000000E10   -2.245255720077290E-3  -1.802701520285121E-3  
 2.044800000000000E10   -2.375957124901039E-3  -1.232862334560465E-3  
 2.045000000000000E10   -2.327116051067909E-3  -8.493108605896985E-4  
 2.045200000000000E10   -2.340041928821140E-3  -5.718344236137691E-4  
 2.045400000000000E10   -2.402881643286458E-3  -2.689690510056540E-4  
 2.045600000000000E10   -2.423668806268662E-3   4.442341149249979E-5  
 2.045800000000000E10   -2.477010746520979E-3   3.821362403902674E-4  
 2.046000000000000E10   -2.490423973304806E-3   8.105560210188508E-4  
 2.046200000000000E10   -2.356259135046491E-3   1.292540096781320E-3  
 2.046400000000000E10   -2.080124587303511E-3   1.757993315415526E-3  
 2.046600000000000E10   -1.659466057187981E-3   2.105623578514766E-3  
 2.046800000000000E10   -1.250388018821401E-3   2.270191243884188E-3  
 2.047000000000000E10   -8.770899687617743E-4   2.389950289701422E-3  
 2.047200000000000E10   -5.043321731069161E-4   2.461695448598928E-3  
 2.047400000000000E10   -1.641917005380728E-4   2.505865724136432E-3  
 2.047600000000000E10    2.041628850511862E-4   2.579132646874145E-3  
 2.047800000000000E10    6.748241031783876E-4   2.598990117096239E-3  
 2.048000000000000E10    1.168676548533970E-3   2.458612917474023E-3  
 2.048200000000000E10    1.607065326189278E-3   2.196322772996846E-3  
 2.048400000000000E10    1.985688974080539E-3   1.848658451948453E-3  
 2.048600000000000E10    2.258634781120001E-3   1.444495675429978E-3  
 2.048800000000000E10    2.422825485053990E-3   1.018730419067045E-3  
 2.049000000000000E10    2.489177372168612E-3   5.811101851846886E-4  
 2.049200000000000E10    2.463357005682257E-3   2.021245303762111E-4  
 2.049400000000000E10    2.407563557089479E-3  -1.055416818147663E-4  
 2.049600000000000E10    2.389063386039602E-3  -3.930081212375727E-4  
 2.049800000000000E10    2.419730915722472E-3  -6.922940805519898E-4  
 2.050000000000000E10    2.458705127032267E-3  -1.096140895107830E-3  
 2.050200000000000E10    2.399304812705076E-3  -1.660246501193831E-3  
 2.050400000000000E10    2.099628137700536E-3  -2.293600269627792E-3  
 2.050600000000000E10    1.535936133694594E-3  -2.816566352353052E-3  
 2.050800000000000E10    7.717693181432510E-4  -3.083794670938342E-3  
 2.051000000000000E10   -7.108341782845363E-7  -3.028747375571618E-3  
 2.051200000000000E10   -5.850769887695573E-4  -2.722525417252823E-3  
 2.051400000000000E10   -9.453654034856571E-4  -2.344889747392801E-3  
 2.051600000000000E10   -1.135938026925066E-3  -2.051846193218673E-3  
 2.051800000000000E10   -1.293985755182803E-3  -1.873980332338424E-3  
 2.052000000000000E10   -1.529033899445225E-3  -1.697632898059157E-3  
 2.052200000000000E10   -1.766920779590254E-3  -1.442624557832325E-3  
 2.052400000000000E10   -1.913588545802567E-3  -1.172313574460094E-3  
 2.052600000000000E10   -1.997133346136522E-3  -9.444680634058185E-4  
 2.052800000000000E10   -2.144250923905660E-3  -7.685098723784366E-4  
 2.053000000000000E10   -2.362192349715366E-3  -5.004185950383544E-4  
 2.053200000000000E10   -2.523066907155294E-3  -1.232680505954368E-4  
 2.053400000000000E10   -2.637600724550862E-3   3.153011787583604E-4  
 2.053600000000000E10   -2.666693577473915E-3   8.507100347843437E-4  
 2.053800000000000E10   -2.493562478641118E-3   1.451670049896671E-3  
 2.054000000000000E10   -2.075232099741697E-3   1.969959328158035E-3  
 2.054200000000000E10   -1.592252364692589E-3   2.274669387757227E-3  
 2.054400000000000E10   -1.124116285980024E-3   2.440057151640455E-3  
 2.054600000000000E10   -6.573739099419781E-4   2.514716781054934E-3  
 2.054800000000000E10   -2.181795587401010E-4   2.492038420987902E-3  
 2.055000000000000E10    1.359064271026809E-4   2.383611208103873E-3  
 2.055200000000000E10    3.972483272836716E-4   2.267823994366659E-3  
 2.055400000000000E10    6.328713584311859E-4   2.231983976714589E-3  
 2.055600000000000E10    9.144153230375164E-4   2.211637234453250E-3  
