#  HZ   S   RI   R     50.00 
! Rohde & Schwarz ZVA40 4Ports - Version 3.90 - 1145.1110k42 SN: 100403
! Date: 2023-10-03 11:27:43
! Measurement: S12 
! 
 2.000000000000000E10   -2.472277239171995E-3  -3.031127787206644E-3  
 2.000200000000000E10   -2.908201491529192E-3  -2.600692232702801E-3  
 2.000400000000000E10   -3.217115966649152E-3  -2.056493998769625E-3  
 2.000600000000000E10   -3.436733387916545E-3  -1.475863651671436E-3  
 2.000800000000000E10   -3.536840003949625E-3  -9.618829224362143E-4  
 2.001000000000000E10   -3.655021803246604E-3  -5.495136394057666E-4  
 2.001200000000000E10   -3.836647133101468E-3  -5.820292938517889E-5  
 2.001400000000000E10   -3.935595298829822E-3   6.381602171682007E-4  
 2.001600000000000E10   -3.768393588769767E-3   1.440962102482625E-3  
 2.001800000000000E10   -3.441385795465774E-3   2.099246995374101E-3  
 2.002000000000000E10   -3.045222354064018E-3   2.665009953219582E-3  
 2.002200000000000E10   -2.523556225185777E-3   3.166669442168909E-3  
 2.002400000000000E10   -1.906510097561059E-3   3.596804432432961E-3  
 2.002600000000000E10   -1.175089661652843E-3   3.889187799628686E-3  
 2.002800000000000E10   -4.390281313213946E-4   4.034301846713564E-3  
 2.003000000000000E10    3.306744332758733E-4   3.967615968352299E-3  
 2.003200000000000E10    9.643948273330836E-4   3.675137071605819E-3  
 2.003400000000000E10    1.463405378335328E-3   3.348125337427598E-3  
 2.003600000000000E10    1.898712728655449E-3   3.063604784669516E-3  
 2.003800000000000E10    2.321881227724163E-3   2.778178822525122E-3  
 2.004000000000000E10    2.713761766682621E-3   2.456366645034265E-3  
 2.004200000000000E10    3.095940979956478E-3   2.032075757103294E-3  
 2.004400000000000E10    3.440218874149852E-3   1.504456532406218E-3  
 2.004600000000000E10    3.700726728794384E-3   8.978157276920057E-4  
 2.004800000000000E10    3.826519218560907E-3   2.957249931950858E-4  
 2.005000000000000E10    3.883028262076371E-3  -3.031728987547535E-4  
 2.005200000000000E10    3.837367068447266E-3  -9.574754318843286E-4  
 2.005400000000000E10    3.656009329988818E-3  -1.613820943245550E-3  
 2.005600000000000E10    3.402717164315192E-3  -2.254728725134039E-3  
 2.005800000000000E10    3.036807814360033E-3  -2.851067429960326E-3  
 2.006000000000000E10    2.535685833635522E-3  -3.388831823098439E-3  
 2.006200000000000E10    1.911516220849238E-3  -3.812758430240699E-3  
 2.006400000000000E10    1.186707450140176E-3  -4.129797237476817E-3  
 2.006600000000000E10    4.209738947310267E-4  -4.310132021567336E-3  
 2.006800000000000E10   -3.490874149986072E-4  -4.289058508512415E-3  
 2.007000000000000E10   -1.061620459500931E-3  -4.117608432554537E-3  
 2.007200000000000E10   -1.741248017671392E-3  -3.837181669142512E-3  
 2.007400000000000E10   -2.378265330292009E-3  -3.450707716430411E-3  
 2.007600000000000E10   -2.937451096964471E-3  -2.959233516091366E-3  
 2.007800000000000E10   -3.311543642071847E-3  -2.337464229146272E-3  
 2.008000000000000E10   -3.462924021238715E-3  -1.727791551937476E-3  
 2.008200000000000E10   -3.546404221129638E-3  -1.236511267905618E-3  
 2.008400000000000E10   -3.733672560940003E-3  -8.239022450360620E-4  
 2.008600000000000E10   -3.957810633482389E-3  -2.683407571712900E-4  
 2.008800000000000E10   -4.025719329760767E-3   4.225858443353418E-4  
 2.009000000000000E10   -3.915461245924234E-3   1.098650945982908E-3  
 2.009200000000000E10   -3.730934969850897E-3   1.765691310190309E-3  
 2.009400000000000E10   -3.475740097785070E-3   2.496503514847086E-3  
 2.009600000000000E10   -2.984873355469771E-3   3.263524293692576E-3  
 2.009800000000000E10   -2.212906161461164E-3   3.823152001671218E-3  
 2.010000000000000E10   -1.334603068154351E-3   4.083598779951349E-3  
 2.010200000000000E10   -4.773025485732950E-4   4.146448980418989E-3  
 2.010400000000000E10    2.645635674671661E-4   4.020387600003570E-3  
 2.010600000000000E10    8.489217560301409E-4   3.797868508155700E-3  
 2.010800000000000E10    1.342431735534819E-3   3.589529466504853E-3  
 2.011000000000000E10    1.885273281116913E-3   3.390595443362808E-3  
 2.011200000000000E10    2.506726366801211E-3   3.116126979965671E-3  
 2.011400000000000E10    3.129951437406335E-3   2.649775588379047E-3  
 2.011600000000000E10    3.620076743471955E-3   2.021559241032343E-3  
 2.011800000000000E10    3.889068110305587E-3   1.243432947825411E-3  
 2.012000000000000E10    3.906237852564197E-3   4.938159128622280E-4  
 2.012200000000000E10    3.809474213163794E-3  -1.000653843490269E-4  
 2.012400000000000E10    3.781740835373417E-3  -5.713192125161489E-4  
 2.012600000000000E10    3.786278836843041E-3  -1.130612536885396E-3  
 2.012800000000000E10    3.626642918306185E-3  -1.831393375601850E-3  
 2.013000000000000E10    3.252245301817671E-3  -2.521378787257422E-3  
 2.013200000000000E10    2.731638129823554E-3  -3.099476139601551E-3  
 2.013400000000000E10    2.166451981153201E-3  -3.558365613751022E-3  
 2.013600000000000E10    1.469676559618502E-3  -3.944875551732603E-3  
 2.013800000000000E10    6.165961960595056E-4  -4.128577498098215E-3  
 2.014000000000000E10   -2.320089837959120E-4  -4.059081402733739E-3  
 2.014200000000000E10   -9.412897598389308E-4  -3.751953552120630E-3  
 2.014400000000000E10   -1.389013176473479E-3  -3.398232475314060E-3  
 2.014600000000000E10   -1.812446741732183E-3  -3.141125549136857E-3  
 2.014800000000000E10   -2.321530383563152E-3  -2.794373947207207E-3  
 2.015000000000000E10   -2.785012614625840E-3  -2.305159741943634E-3  
 2.015200000000000E10   -3.075667398257388E-3  -1.761430707748658E-3  
 2.015400000000000E10   -3.275846964737148E-3  -1.266949867576729E-3  
 2.015600000000000E10   -3.432518943431385E-3  -7.125911688041173E-4  
 2.015800000000000E10   -3.510472028412753E-3  -1.254049318420045E-4  
 2.016000000000000E10   -3.521303148986197E-3   4.970908422241517E-4  
 2.016200000000000E10   -3.413482178232553E-3   1.105560715609219E-3  
 2.016400000000000E10   -3.177605589483808E-3   1.710874933956398E-3  
 2.016600000000000E10   -2.790369892515887E-3   2.277463953367170E-3  
 2.016800000000000E10   -2.297491559551822E-3   2.760678696457619E-3  
 2.017000000000000E10   -1.733591357521989E-3   3.135504272915883E-3  
 2.017200000000000E10   -1.115507005001016E-3   3.389676593037115E-3  
 2.017400000000000E10   -4.559780045607945E-4   3.471284685081539E-3  
 2.017600000000000E10    1.560600674251256E-4   3.392563049141089E-3  
 2.017800000000000E10    6.536941739650053E-4   3.261034730476915E-3  
 2.018000000000000E10    1.102099821753340E-3   3.138060753383203E-3  
 2.018200000000000E10    1.536050125853055E-3   2.976351345739800E-3  
 2.018400000000000E10    1.935926619572221E-3   2.768777368337284E-3  
 2.018600000000000E10    2.366757514760082E-3   2.536590708373690E-3  
 2.018800000000000E10    2.879530961774750E-3   2.258143623439987E-3  
 2.019000000000000E10    3.425343646265475E-3   1.803559485397497E-3  
 2.019200000000000E10    3.863128890961777E-3   1.124513331932924E-3  
 2.019400000000000E10    4.110149268842775E-3   3.168291874362134E-4  
 2.019600000000000E10    4.159908345038141E-3  -5.956178180367491E-4  
 2.019800000000000E10    3.900505797822535E-3  -1.493779537095516E-3  
 2.020000000000000E10    3.409164713373707E-3  -2.182524418458343E-3  
 2.020200000000000E10    2.800066110298590E-3  -2.655646703378470E-3  
 2.020400000000000E10    2.189563187759048E-3  -2.918576315781217E-3  
 2.020600000000000E10    1.665413008864831E-3  -3.084822891303051E-3  
 2.020800000000000E10    1.175107542183940E-3  -3.195375629505258E-3  
 2.021000000000000E10    7.560352886808508E-4  -3.204721362433500E-3  
 2.021200000000000E10    4.749774873935055E-4  -3.274426729429836E-3  
 2.021400000000000E10    5.642078954055993E-5  -3.524937092062133E-3  
 2.021600000000000E10   -6.477649382568530E-4  -3.700144037052437E-3  
 2.021800000000000E10   -1.431226668545954E-3  -3.565548283887315E-3  
 2.022000000000000E10   -2.044411462352232E-3  -3.199446187527092E-3  
 2.022200000000000E10   -2.506346102619981E-3  -2.769602408034750E-3  
 2.022400000000000E10   -2.913675667649067E-3  -2.319260868301362E-3  
 2.022600000000000E10   -3.304831709505783E-3  -1.826626156675227E-3  
 2.022800000000000E10   -3.611965196920030E-3  -1.268336011878686E-3  
 2.023000000000000E10   -3.809442916126163E-3  -6.279111056542600E-4  
 2.023200000000000E10   -3.877299938373912E-3   4.937277314897030E-5  
 2.023400000000000E10   -3.853633062753045E-3   7.691672215537158E-4  
 2.023600000000000E10   -3.680148656353539E-3   1.480529820661486E-3  
 2.023800000000000E10   -3.396984750266981E-3   2.140214324664371E-3  
 2.024000000000000E10   -2.948768014364221E-3   2.772435537297969E-3  
 2.024200000000000E10   -2.291238018782971E-3   3.267048418314921E-3  
 2.024400000000000E10   -1.611593994311989E-3   3.533915504468261E-3  
 2.024600000000000E10   -1.036011680017835E-3   3.692041349562782E-3  
 2.024800000000000E10   -4.401154802497017E-4   3.838039181528637E-3  
 2.025000000000000E10    2.119589462156988E-4   3.850282871244867E-3  
 2.025200000000000E10    8.518269097283024E-4   3.754361774082538E-3  
 2.025400000000000E10    1.486465573471821E-3   3.593141190063807E-3  
 2.025600000000000E10    2.106376567188605E-3   3.350084483692492E-3  
 2.025800000000000E10    2.677079376385168E-3   2.982206705865669E-3  
 2.026000000000000E10    3.201454935342442E-3   2.479784153286874E-3  
 2.026200000000000E10    3.640521510308724E-3   1.834917265956325E-3  
 2.026400000000000E10    3.910980779493666E-3   1.149236052124589E-3  
 2.026600000000000E10    4.070037812063540E-3   4.692492854959666E-4  
 2.026800000000000E10    4.115056016562898E-3  -2.514319573414087E-4  
 2.027000000000000E10    3.978617233511659E-3  -1.007170847582597E-3  
 2.027200000000000E10    3.654022157813112E-3  -1.688376823612662E-3  
 2.027400000000000E10    3.266207695605211E-3  -2.220789220666996E-3  
 2.027600000000000E10    2.865932341435074E-3  -2.658743641258758E-3  
 2.027800000000000E10    2.428933641769820E-3  -3.004941462688609E-3  
 2.028000000000000E10    1.972717000171542E-3  -3.355270593691572E-3  
 2.028200000000000E10    1.419470261747915E-3  -3.731450275805446E-3  
 2.028400000000000E10    7.769481701500440E-4  -3.996557124924881E-3  
 2.028600000000000E10    6.920507120760446E-5  -4.123931089531125E-3  
 2.028800000000000E10   -6.635170494620171E-4  -4.100126973180860E-3  
 2.029000000000000E10   -1.401416366678421E-3  -3.955168919752778E-3  
 2.029200000000000E10   -2.159298676422533E-3  -3.653796783498961E-3  
 2.029400000000000E10   -2.827894212793053E-3  -3.159814787292738E-3  
 2.029600000000000E10   -3.306208008808303E-3  -2.506893429974164E-3  
 2.029800000000000E10   -3.545787993151649E-3  -1.789511178539675E-3  
 2.030000000000000E10   -3.659660261078382E-3  -1.169868951870336E-3  
 2.030200000000000E10   -3.801267732072760E-3  -5.963024569037199E-4  
 2.030400000000000E10   -3.881947729552603E-3   6.788080699388285E-5  
 2.030600000000000E10   -3.748398202321964E-3   7.485695403172739E-4  
 2.030800000000000E10   -3.480016009560155E-3   1.334714543729745E-3  
 2.031000000000000E10   -3.157303510463717E-3   1.850137241288192E-3  
 2.031200000000000E10   -2.822029062282341E-3   2.264529610351648E-3  
 2.031400000000000E10   -2.515427590014390E-3   2.666465058508847E-3  
 2.031600000000000E10   -2.096538707889893E-3   3.069924182017093E-3  
 2.031800000000000E10   -1.521958045397000E-3   3.372898509289012E-3  
 2.032000000000000E10   -9.363354931091086E-4   3.572718973306042E-3  
 2.032200000000000E10   -3.429167015753963E-4   3.719658268914547E-3  
 2.032400000000000E10    2.857409025985104E-4   3.733944791702577E-3  
 2.032600000000000E10    8.876948462178311E-4   3.647512819526005E-3  
 2.032800000000000E10    1.537924290370242E-3   3.491169034307938E-3  
 2.033000000000000E10    2.183496975052504E-3   3.169997451527988E-3  
 2.033200000000000E10    2.690892491236697E-3   2.718562815039430E-3  
 2.033400000000000E10    3.082362155970416E-3   2.231984908037164E-3  
 2.033600000000000E10    3.211614569465136E-3   1.962037085854437E-3  
 2.033800000000000E10    3.591894344599160E-3   9.821053963717948E-4  
 2.034000000000000E10    3.676877687627703E-3   2.990734382937836E-4  
 2.034200000000000E10    3.581637881673229E-3  -3.458400893622987E-4  
 2.034400000000000E10    3.337805837760738E-3  -8.891735514798375E-4  
 2.034600000000000E10    3.061217402487442E-3  -1.328612572835460E-3  
 2.034800000000000E10    2.809335296559665E-3  -1.735470504902396E-3  
 2.035000000000000E10    2.561774170946008E-3  -2.129037798393840E-3  
 2.035200000000000E10    2.252953785276156E-3  -2.536909611619734E-3  
 2.035400000000000E10    1.827777228260666E-3  -2.888540613729461E-3  
 2.035600000000000E10    1.307334578423589E-3  -3.143979362959480E-3  
 2.035800000000000E10    7.699859554212497E-4  -3.326232714670492E-3  
 2.036000000000000E10    2.132156877462282E-4  -3.446679358244126E-3  
 2.036200000000000E10   -3.708607566048518E-4  -3.472263424622792E-3  
 2.036400000000000E10   -1.012114112345893E-3  -3.377065919109701E-3  
 2.036600000000000E10   -1.678700057249287E-3  -3.091351663762773E-3  
 2.036800000000000E10   -2.213432924982942E-3  -2.637513502167515E-3  
 2.037000000000000E10   -2.567182214539728E-3  -2.135323208216348E-3  
 2.037200000000000E10   -2.772129655321256E-3  -1.650903026147942E-3  
 2.037400000000000E10   -2.864217701839444E-3  -1.194782517735421E-3  
 2.037600000000000E10   -2.976902243163851E-3  -8.215509329198138E-4  
 2.037800000000000E10   -3.144155106978652E-3  -3.974600432779825E-4  
 2.038000000000000E10   -3.235484574013103E-3   1.192061179518746E-4  
 2.038200000000000E10   -3.173898270261693E-3   6.239196698089350E-4  
 2.038400000000000E10   -3.070967887056831E-3   1.124157356155783E-3  
 2.038600000000000E10   -2.896793456863106E-3   1.705567230309510E-3  
 2.038800000000000E10   -2.572227850050470E-3   2.262632974802896E-3  
 2.039000000000000E10   -2.115780800971905E-3   2.722522077139146E-3  
 2.039200000000000E10   -1.531108952253873E-3   3.030887336389703E-3  
 2.039400000000000E10   -9.084041244752799E-4   3.161079474483376E-3  
 2.039600000000000E10   -3.680706481926466E-4   3.208414019073970E-3  
 2.039800000000000E10    1.709518914993416E-4   3.201703365639221E-3  
 2.040000000000000E10    6.446296997356839E-4   3.065990652015181E-3  
 2.040200000000000E10    1.064730798078264E-3   2.894088614410089E-3  
 2.040400000000000E10    1.518020228149347E-3   2.677917874268728E-3  
 2.040600000000000E10    1.951300730227413E-3   2.363064697150279E-3  
 2.040800000000000E10    2.295421988323883E-3   2.009318422894051E-3  
 2.041000000000000E10    2.591853656656581E-3   1.611728734267807E-3  
 2.041200000000000E10    2.811615967571184E-3   1.120340906911426E-3  
 2.041400000000000E10    2.930279996499052E-3   6.115100746054525E-4  
 2.041600000000000E10    3.016336869885341E-3   1.070944575828581E-4  
 2.041800000000000E10    2.995683058498451E-3  -4.559651453387176E-4  
 2.042000000000000E10    2.787221372587446E-3  -9.800099205789100E-4  
 2.042200000000000E10    2.431344074185616E-3  -1.440099840063924E-3  
 2.042400000000000E10    2.010876430704454E-3  -1.736272326210675E-3  
 2.042600000000000E10    1.643079110237276E-3  -1.887943267960240E-3  
 2.042800000000000E10    1.355144205319201E-3  -1.977495688163205E-3  
 2.043000000000000E10    1.119132737203697E-3  -2.034093911564093E-3  
 2.043200000000000E10    9.125858145754464E-4  -2.141097267330797E-3  
 2.043400000000000E10    6.462335917109878E-4  -2.338994280032722E-3  
 2.043600000000000E10    3.177390525830381E-4  -2.531521729435082E-3  
 2.043800000000000E10   -8.433036912911011E-5  -2.676089771413877E-3  
 2.044000000000000E10   -5.977683884586082E-4  -2.707922839801069E-3  
 2.044200000000000E10   -1.162700760350735E-3  -2.592948521199970E-3  
 2.044400000000000E10   -1.714374372781611E-3  -2.294235264905441E-3  
 2.044600000000000E10   -2.115983446991003E-3  -1.820136203695043E-3  
 2.044800000000000E10   -2.266088506367840E-3  -1.308592310876666E-3  
 2.045000000000000E10   -2.258498477462081E-3  -9.189830326912121E-4  
 2.045200000000000E10   -2.288304070976598E-3  -6.389629277601885E-4  
 2.045400000000000E10   -2.386054006853590E-3  -3.225826669087703E-4  
 2.045600000000000E10   -2.451803724936866E-3   1.359238816758640E-5  
 2.045800000000000E10   -2.480876609039160E-3   3.749307758465157E-4  
 2.046000000000000E10   -2.430413662812408E-3   8.216871086646011E-4  
 2.046200000000000E10   -2.274951725094407E-3   1.281453034967000E-3  
 2.046400000000000E10   -2.015520498030072E-3   1.701040249490352E-3  
 2.046600000000000E10   -1.663332957383476E-3   2.025148538113745E-3  
 2.046800000000000E10   -1.276447687780968E-3   2.217373497393213E-3  
 2.047000000000000E10   -8.786709254814519E-4   2.353814600127531E-3  
 2.047200000000000E10   -4.542760653737473E-4   2.429343961225248E-3  
 2.047400000000000E10   -9.521578523376382E-5   2.429105611633004E-3  
 2.047600000000000E10    2.066322464807057E-4   2.449673485516766E-3  
 2.047800000000000E10    5.894774803891778E-4   2.439433973236585E-3  
 2.048000000000000E10    1.015217943163014E-3   2.330264096711705E-3  
 2.048200000000000E10    1.418600653666129E-3   2.148497878447359E-3  
 2.048400000000000E10    1.785267614414571E-3   1.904915270889983E-3  
 2.048600000000000E10    2.076918667435279E-3   1.594894033868188E-3  
 2.048800000000000E10    2.288897447058081E-3   1.194466713149055E-3  
 2.049000000000000E10    2.373865086953214E-3   7.673583768112702E-4  
 2.049200000000000E10    2.379022929587482E-3   4.388705484517333E-4  
 2.049400000000000E10    2.437387725315345E-3   2.221292954435527E-4  
 2.049600000000000E10    2.573303820818295E-3  -3.207088952932944E-5  
 2.049800000000000E10    2.709661869125234E-3  -4.262905140309653E-4  
 2.050000000000000E10    2.793487172895744E-3  -9.712005935229914E-4  
 2.050200000000000E10    2.730688862042663E-3  -1.638922952460470E-3  
 2.050400000000000E10    2.422804869481443E-3  -2.354923894421922E-3  
 2.050600000000000E10    1.809486762884959E-3  -2.926614782255557E-3  
 2.050800000000000E10    9.999689516714879E-4  -3.228666493669153E-3  
 2.051000000000000E10    1.714340830437356E-4  -3.208327650402983E-3  
 2.051200000000000E10   -4.834446775436655E-4  -2.916041451195876E-3  
 2.051400000000000E10   -8.652873026827972E-4  -2.525475798864608E-3  
 2.051600000000000E10   -1.047456419285111E-3  -2.208872189469360E-3  
 2.051800000000000E10   -1.246722347539976E-3  -2.038731885050642E-3  
 2.052000000000000E10   -1.545619182173669E-3  -1.864788231704339E-3  
 2.052200000000000E10   -1.832965686687349E-3  -1.597859353447954E-3  
 2.052400000000000E10   -2.012938811489738E-3  -1.303562519347502E-3  
 2.052600000000000E10   -2.122165803383622E-3  -1.023877782885123E-3  
 2.052800000000000E10   -2.276036787755144E-3  -7.852433280973341E-4  
 2.053000000000000E10   -2.495985978317482E-3  -4.663694474593174E-4  
 2.053200000000000E10   -2.656332099304340E-3  -6.257135523080734E-5  
 2.053400000000000E10   -2.749986181978459E-3   3.960561709705580E-4  
 2.053600000000000E10   -2.745987856070753E-3   9.755277898404059E-4  
 2.053800000000000E10   -2.533534254280874E-3   1.643911992878090E-3  
 2.054000000000000E10   -2.046442061754657E-3   2.199965810840145E-3  
 2.054200000000000E10   -1.480722327049776E-3   2.484273435662926E-3  
 2.054400000000000E10   -9.430056634749989E-4   2.584980993336182E-3  
 2.054600000000000E10   -4.575988946103112E-4   2.576695826985402E-3  
 2.054800000000000E10   -5.254044088270562E-5   2.516135136470383E-3  
 2.055000000000000E10    2.645440209214289E-4   2.426718318558954E-3  
 2.055200000000000E10    5.203015081164785E-4   2.368924032643806E-3  
 2.055400000000000E10    8.007369491409650E-4   2.318579841543127E-3  
 2.055600000000000E10    1.161389762857630E-3   2.249459583703199E-3  
