#  HZ   S   RI   R     50.00 
! Rohde & Schwarz ZVA40 4Ports - Version 3.90 - 1145.1110k42 SN: 100403
! Date: 2023-10-03 11:26:51
! Measurement: S12 
! 
 2.000000000000000E10   -2.125929561999355E-3  -2.755745590009072E-3  
 2.000200000000000E10   -2.523403633922461E-3  -2.447387561922579E-3  
 2.000400000000000E10   -2.844408263716801E-3  -2.022970741836991E-3  
 2.000600000000000E10   -3.064745934603453E-3  -1.532986206807381E-3  
 2.000800000000000E10   -3.205380124641668E-3  -1.062009817970449E-3  
 2.001000000000000E10   -3.388661484966062E-3  -6.545263585929641E-4  
 2.001200000000000E10   -3.634515682181704E-3  -2.040438705656693E-4  
 2.001400000000000E10   -3.809437862838861E-3   4.285025120992598E-4  
 2.001600000000000E10   -3.728322127121099E-3   1.226924344947094E-3  
 2.001800000000000E10   -3.403351012686337E-3   1.949050736809035E-3  
 2.002000000000000E10   -2.982445474169811E-3   2.536417058872159E-3  
 2.002200000000000E10   -2.472857192518964E-3   3.030907542831859E-3  
 2.002400000000000E10   -1.895380019566711E-3   3.410664728148975E-3  
 2.002600000000000E10   -1.207984398490914E-3   3.673012151838944E-3  
 2.002800000000000E10   -4.804963305872318E-4   3.810015619146052E-3  
 2.003000000000000E10    2.533270142169540E-4   3.778781388299885E-3  
 2.003200000000000E10    8.214762208718855E-4   3.542330020218475E-3  
 2.003400000000000E10    1.260464541506743E-3   3.269770106975250E-3  
 2.003600000000000E10    1.679869634559217E-3   3.015396538776933E-3  
 2.003800000000000E10    2.116439543058905E-3   2.743318042652720E-3  
 2.004000000000000E10    2.531827802083804E-3   2.432002883343172E-3  
 2.004200000000000E10    2.889782558252782E-3   2.023186664951682E-3  
 2.004400000000000E10    3.144169702489742E-3   1.539234314382138E-3  
 2.004600000000000E10    3.349587168935457E-3   1.014990863819519E-3  
 2.004800000000000E10    3.516837538683734E-3   4.960419557444415E-4  
 2.005000000000000E10    3.649838471884836E-3  -7.128885640799160E-5  
 2.005200000000000E10    3.618355930510741E-3  -6.818744634688209E-4  
 2.005400000000000E10    3.432808121965256E-3  -1.244029550958778E-3  
 2.005600000000000E10    3.221887119742946E-3  -1.781433016356894E-3  
 2.005800000000000E10    2.978906949499139E-3  -2.342423722109616E-3  
 2.006000000000000E10    2.610801140406005E-3  -2.913140600792482E-3  
 2.006200000000000E10    2.079825083736653E-3  -3.397470875739010E-3  
 2.006400000000000E10    1.365799662358139E-3  -3.763101720002024E-3  
 2.006600000000000E10    5.930562873961167E-4  -3.970458994355100E-3  
 2.006800000000000E10   -1.629656656521158E-4  -4.007464372495443E-3  
 2.007000000000000E10   -8.845401157954625E-4  -3.874133158965735E-3  
 2.007200000000000E10   -1.548986097245857E-3  -3.562416659990027E-3  
 2.007400000000000E10   -2.111415162207291E-3  -3.110191343091583E-3  
 2.007600000000000E10   -2.554805095617970E-3  -2.611571926730896E-3  
 2.007800000000000E10   -2.836739554342051E-3  -2.085112193369387E-3  
 2.008000000000000E10   -2.940570239031328E-3  -1.628757661894547E-3  
 2.008200000000000E10   -3.030602139930544E-3  -1.281478203672134E-3  
 2.008400000000000E10   -3.269417158715090E-3  -9.402989739467825E-4  
 2.008600000000000E10   -3.583372488173316E-3  -4.097363430577419E-4  
 2.008800000000000E10   -3.710404653562073E-3   2.532795662900679E-4  
 2.009000000000000E10   -3.632841722794460E-3   8.765181498755339E-4  
 2.009200000000000E10   -3.481002126862545E-3   1.478771659940359E-3  
 2.009400000000000E10   -3.265822230581456E-3   2.137252321244513E-3  
 2.009600000000000E10   -2.849402403412962E-3   2.878318154617163E-3  
 2.009800000000000E10   -2.147037222590528E-3   3.402940964387585E-3  
 2.010000000000000E10   -1.396736502839030E-3   3.604494789308666E-3  
 2.010200000000000E10   -6.869461829582454E-4   3.661881684835373E-3  
 2.010400000000000E10   -6.081583945501268E-5   3.627456567506977E-3  
 2.010600000000000E10    4.636237384375844E-4   3.542955533635838E-3  
 2.010800000000000E10    9.341160426636845E-4   3.462294734623513E-3  
 2.011000000000000E10    1.468110865522406E-3   3.340525480769115E-3  
 2.011200000000000E10    2.091813236551643E-3   3.101716826980314E-3  
 2.011400000000000E10    2.722961016558878E-3   2.669894690299599E-3  
 2.011600000000000E10    3.205937820145623E-3   2.088451039413979E-3  
 2.011800000000000E10    3.467686345931066E-3   1.422637492924193E-3  
 2.012000000000000E10    3.515256663646412E-3   7.512855902601633E-4  
 2.012200000000000E10    3.472321817206810E-3   1.911954829587176E-4  
 2.012400000000000E10    3.501572414328165E-3  -2.849207368344951E-4  
 2.012600000000000E10    3.561413552757706E-3  -8.368854020020845E-4  
 2.012800000000000E10    3.445466749423755E-3  -1.503425372913940E-3  
 2.013000000000000E10    3.105693443107262E-3  -2.167546939595369E-3  
 2.013200000000000E10    2.617675551393457E-3  -2.739112993794275E-3  
 2.013400000000000E10    2.074041908775522E-3  -3.202018129673822E-3  
 2.013600000000000E10    1.426299469576145E-3  -3.561734900246433E-3  
 2.013800000000000E10    6.613245985083620E-4  -3.719307723696586E-3  
 2.014000000000000E10   -1.249250072823960E-4  -3.646298920076510E-3  
 2.014200000000000E10   -7.887435629063216E-4  -3.386235821785199E-3  
 2.014400000000000E10   -1.212483468856433E-3  -3.098602643343832E-3  
 2.014600000000000E10   -1.595678939503223E-3  -2.898149033280189E-3  
 2.014800000000000E10   -2.037023323484593E-3  -2.595106206849647E-3  
 2.015000000000000E10   -2.412136489862707E-3  -2.145321421716133E-3  
 2.015200000000000E10   -2.666832427896651E-3  -1.713280829528171E-3  
 2.015400000000000E10   -2.887129036272750E-3  -1.357894786537736E-3  
 2.015600000000000E10   -3.110167539751334E-3  -9.402331077865492E-4  
 2.015800000000000E10   -3.275273038158692E-3  -4.072563578767526E-4  
 2.016000000000000E10   -3.365982449402720E-3   2.100179552765556E-4  
 2.016200000000000E10   -3.336432037315497E-3   8.368741236090540E-4  
 2.016400000000000E10   -3.160523198000751E-3   1.440000723675660E-3  
 2.016600000000000E10   -2.843630391866766E-3   1.980372057813738E-3  
 2.016800000000000E10   -2.403763509949539E-3   2.450402255012911E-3  
 2.017000000000000E10   -1.870510579899352E-3   2.843122331448544E-3  
 2.017200000000000E10   -1.256982378619474E-3   3.092193685724964E-3  
 2.017400000000000E10   -6.926430682958307E-4   3.142477105153196E-3  
 2.017600000000000E10   -2.077442304391238E-4   3.054522873772454E-3  
 2.017800000000000E10    1.740093058987939E-4   2.957147722412284E-3  
 2.018000000000000E10    5.202394725233624E-4   2.958621896818710E-3  
 2.018200000000000E10    9.299764314325289E-4   3.023206080988418E-3  
 2.018400000000000E10    1.438863007754180E-3   3.007978869701733E-3  
 2.018600000000000E10    2.016587463617632E-3   2.850537626226069E-3  
 2.018800000000000E10    2.660898911410276E-3   2.546502197728543E-3  
 2.019000000000000E10    3.300573552264967E-3   1.998703074047473E-3  
 2.019200000000000E10    3.735705967724263E-3   1.228523310350538E-3  
 2.019400000000000E10    3.895016839352165E-3   3.771230694837869E-4  
 2.019600000000000E10    3.810466163688236E-3  -5.248702800001014E-4  
 2.019800000000000E10    3.448792204352809E-3  -1.327714891414400E-3  
 2.020000000000000E10    2.960560248336859E-3  -1.873513563907871E-3  
 2.020200000000000E10    2.450290037349726E-3  -2.180193656281312E-3  
 2.020400000000000E10    2.013239676109803E-3  -2.322283639561064E-3  
 2.020600000000000E10    1.691484030474116E-3  -2.480559137270407E-3  
 2.020800000000000E10    1.341053974573259E-3  -2.706262072233997E-3  
 2.021000000000000E10    9.738358979423841E-4  -2.846451803903889E-3  
 2.021200000000000E10    6.930732875851601E-4  -3.006070587830044E-3  
 2.021400000000000E10    2.484534500136113E-4  -3.263657743019271E-3  
 2.021600000000000E10   -4.387467288998543E-4  -3.415901330778751E-3  
 2.021800000000000E10   -1.172314250914556E-3  -3.326830041207711E-3  
 2.022000000000000E10   -1.808480327994920E-3  -3.066632478908012E-3  
 2.022200000000000E10   -2.327643259171658E-3  -2.676919961171877E-3  
 2.022400000000000E10   -2.748533660821893E-3  -2.193824298020621E-3  
 2.022600000000000E10   -3.082010849980723E-3  -1.639794363302980E-3  
 2.022800000000000E10   -3.305813007309665E-3  -1.082503975085424E-3  
 2.023000000000000E10   -3.439633787030914E-3  -5.193864215268858E-4  
 2.023200000000000E10   -3.471820143821800E-3   6.625416643019057E-5  
 2.023400000000000E10   -3.387121518177015E-3   6.968365493997044E-4  
 2.023600000000000E10   -3.212861704291324E-3   1.273348762695927E-3  
 2.023800000000000E10   -3.004366713058618E-3   1.808946524888523E-3  
 2.024000000000000E10   -2.670699702729107E-3   2.365531329901069E-3  
 2.024200000000000E10   -2.133907184939939E-3   2.804009552370497E-3  
 2.024400000000000E10   -1.547260595094643E-3   3.047663843979745E-3  
 2.024600000000000E10   -1.046428426241679E-3   3.220696939316430E-3  
 2.024800000000000E10   -5.271313218553188E-4   3.383546914338085E-3  
 2.025000000000000E10    3.820400747391982E-5   3.425037358032824E-3  
 2.025200000000000E10    6.119530229281191E-4   3.327210356170933E-3  
 2.025400000000000E10    1.157009216703843E-3   3.160081843082859E-3  
 2.025600000000000E10    1.665951465179861E-3   2.981729412627687E-3  
 2.025800000000000E10    2.170076313018493E-3   2.720293231546082E-3  
 2.026000000000000E10    2.611866972980247E-3   2.347071741328196E-3  
 2.026200000000000E10    3.005481439109877E-3   1.870024760077428E-3  
 2.026400000000000E10    3.326970166929159E-3   1.289964263105129E-3  
 2.026600000000000E10    3.566486357592446E-3   6.623590272111597E-4  
 2.026800000000000E10    3.650894579228489E-3  -3.208283808895812E-5  
 2.027000000000000E10    3.479664250365134E-3  -7.563116574571796E-4  
 2.027200000000000E10    3.120330798558493E-3  -1.325210268942663E-3  
 2.027400000000000E10    2.801510791865335E-3  -1.709227707455464E-3  
 2.027600000000000E10    2.531589300145584E-3  -2.077629645987426E-3  
 2.027800000000000E10    2.218413519301288E-3  -2.388839150008596E-3  
 2.028000000000000E10    1.914231268566394E-3  -2.699124102706833E-3  
 2.028200000000000E10    1.497235247834659E-3  -3.048561403236579E-3  
 2.028400000000000E10    9.642897965194882E-4  -3.356088376354902E-3  
 2.028600000000000E10    3.587449985841834E-4  -3.555936872031647E-3  
 2.028800000000000E10   -2.846709809959733E-4  -3.590853535091130E-3  
 2.029000000000000E10   -9.513684345309628E-4  -3.497939939139251E-3  
 2.029200000000000E10   -1.654290729738895E-3  -3.281996085273999E-3  
 2.029400000000000E10   -2.289315364649328E-3  -2.873399713624714E-3  
 2.029600000000000E10   -2.740358273640521E-3  -2.313937870172378E-3  
 2.029800000000000E10   -2.941921285311443E-3  -1.721216177418368E-3  
 2.030000000000000E10   -3.021785309116659E-3  -1.254809831571861E-3  
 2.030200000000000E10   -3.177098480509326E-3  -8.247874388777855E-4  
 2.030400000000000E10   -3.330340205572945E-3  -2.858118764510466E-4  
 2.030600000000000E10   -3.307488298526518E-3   2.873198175587244E-4  
 2.030800000000000E10   -3.138420634822530E-3   8.027569837331652E-4  
 2.031000000000000E10   -2.911045680727059E-3   1.279791062046226E-3  
 2.031200000000000E10   -2.679539808942151E-3   1.668037143880847E-3  
 2.031400000000000E10   -2.474673459337021E-3   2.069757852718664E-3  
 2.031600000000000E10   -2.180464427780222E-3   2.488351000641538E-3  
 2.031800000000000E10   -1.751610128220493E-3   2.832335556010283E-3  
 2.032000000000000E10   -1.262106509197028E-3   3.092832692780000E-3  
 2.032200000000000E10   -7.311231094995063E-4   3.308128113302675E-3  
 2.032400000000000E10   -1.590442820829426E-4   3.421801384806695E-3  
 2.032600000000000E10    4.295041951601904E-4   3.406244139436158E-3  
 2.032800000000000E10    1.065117247122888E-3   3.271298916098267E-3  
 2.033000000000000E10    1.659461236252247E-3   2.999825507532729E-3  
 2.033200000000000E10    2.145145070229355E-3   2.660046547168383E-3  
 2.033400000000000E10    2.587091111589546E-3   2.275846911969867E-3  
 2.033600000000000E10    2.779784806862229E-3   2.037004572473498E-3  
 2.033800000000000E10    3.201067015536345E-3   1.130532594531805E-3  
 2.034000000000000E10    3.272382076829672E-3   4.580370580476667E-4  
 2.034200000000000E10    3.177096050638905E-3  -1.281375618957639E-4  
 2.034400000000000E10    2.968612628118921E-3  -5.982184965631048E-4  
 2.034600000000000E10    2.690167407746668E-3  -9.754385627660550E-4  
 2.034800000000000E10    2.436637135851101E-3  -1.274496793589812E-3  
 2.035000000000000E10    2.251968301311442E-3  -1.547476570907628E-3  
 2.035200000000000E10    2.063202458039049E-3  -1.854200780376363E-3  
 2.035400000000000E10    1.826853931636201E-3  -2.146363534309246E-3  
 2.035600000000000E10    1.543294038113836E-3  -2.434727712821814E-3  
 2.035800000000000E10    1.174363119857302E-3  -2.734489988060400E-3  
 2.036000000000000E10    7.048746678257676E-4  -2.994319270729038E-3  
 2.036200000000000E10    1.532218618191005E-4  -3.158605191856624E-3  
 2.036400000000000E10   -4.727538371336007E-4  -3.145263611756787E-3  
 2.036600000000000E10   -1.083107838127379E-3  -2.912168653582227E-3  
 2.036800000000000E10   -1.557599951478618E-3  -2.567884255461242E-3  
 2.037000000000000E10   -1.915274281342181E-3  -2.201841643018794E-3  
 2.037200000000000E10   -2.169090580892723E-3  -1.822419123007407E-3  
 2.037400000000000E10   -2.316551293541559E-3  -1.459683136393627E-3  
 2.037600000000000E10   -2.459193695788828E-3  -1.155177223756756E-3  
 2.037800000000000E10   -2.667838527433912E-3  -8.112902749701570E-4  
 2.038000000000000E10   -2.814309269097853E-3  -3.666740163313724E-4  
 2.038200000000000E10   -2.826568202035111E-3   7.250789645628108E-5  
 2.038400000000000E10   -2.784825120803444E-3   4.959497018717229E-4  
 2.038600000000000E10   -2.708902928418645E-3   9.898569520156633E-4  
 2.038800000000000E10   -2.517686737126407E-3   1.485066286215383E-3  
 2.039000000000000E10   -2.212378142761841E-3   1.905149755301912E-3  
 2.039200000000000E10   -1.833255449214131E-3   2.218326501004061E-3  
 2.039400000000000E10   -1.429356968532405E-3   2.422550811965034E-3  
 2.039600000000000E10   -1.060131563586586E-3   2.617436628827036E-3  
 2.039800000000000E10   -6.167365105366604E-4   2.806046916317547E-3  
 2.040000000000000E10   -1.779981201836541E-4   2.847137532308085E-3  
 2.040200000000000E10    2.120830790080330E-4   2.870212519855656E-3  
 2.040400000000000E10    7.147320180675284E-4   2.875587572401137E-3  
 2.040600000000000E10    1.282112834852480E-3   2.735548510902213E-3  
 2.040800000000000E10    1.762130817996315E-3   2.459504883046504E-3  
 2.041000000000000E10    2.175108995288611E-3   2.123029518358931E-3  
 2.041200000000000E10    2.510362469549042E-3   1.701678384149087E-3  
 2.041400000000000E10    2.774206302492830E-3   1.229582552763599E-3  
 2.041600000000000E10    3.002009634311798E-3   7.062674607361052E-4  
 2.041800000000000E10    3.090699972707488E-3   8.850739004067434E-5  
 2.042000000000000E10    2.966262105998005E-3  -5.042356970229420E-4  
 2.042200000000000E10    2.684502745499459E-3  -1.029540514458477E-3  
 2.042400000000000E10    2.320259660980646E-3  -1.410897733517175E-3  
 2.042600000000000E10    1.984695262954007E-3  -1.637436060518517E-3  
 2.042800000000000E10    1.708439626029612E-3  -1.815166199338381E-3  
 2.043000000000000E10    1.455653700287695E-3  -1.960384081225122E-3  
 2.043200000000000E10    1.215197398890684E-3  -2.102393160646958E-3  
 2.043400000000000E10    9.611613536828463E-4  -2.272976584418259E-3  
 2.043600000000000E10    6.976954534998617E-4  -2.500906109487937E-3  
 2.043800000000000E10    3.105119480837689E-4  -2.753507575871032E-3  
 2.044000000000000E10   -2.636362056783497E-4  -2.875635533597428E-3  
 2.044200000000000E10   -9.004649988360276E-4  -2.796719557847138E-3  
 2.044400000000000E10   -1.503768249092923E-3  -2.512063364471490E-3  
 2.044600000000000E10   -1.934616091093931E-3  -2.034862676190803E-3  
 2.044800000000000E10   -2.097234528496433E-3  -1.528321737097768E-3  
 2.045000000000000E10   -2.093523914193727E-3  -1.176804801882264E-3  
 2.045200000000000E10   -2.156041089230727E-3  -9.661362230501794E-4  
 2.045400000000000E10   -2.306256871555507E-3  -7.244289070348651E-4  
 2.045600000000000E10   -2.475108618851859E-3  -4.238007140322876E-4  
 2.045800000000000E10   -2.629862040465261E-3  -2.691222375369948E-5  
 2.046000000000000E10   -2.650500445745487E-3   4.857845652087711E-4  
 2.046200000000000E10   -2.531638348843029E-3   1.009958793328684E-3  
 2.046400000000000E10   -2.290915729432011E-3   1.482320588212384E-3  
 2.046600000000000E10   -1.933435241139874E-3   1.856496539867556E-3  
 2.046800000000000E10   -1.549879653827736E-3   2.094257642120246E-3  
 2.047000000000000E10   -1.162366025579074E-3   2.244133174557377E-3  
 2.047200000000000E10   -8.051831480268958E-4   2.314834072687683E-3  
 2.047400000000000E10   -5.285625587698503E-4   2.387285631134677E-3  
 2.047600000000000E10   -2.257725244379361E-4   2.537979372612243E-3  
 2.047800000000000E10    2.313811605539434E-4   2.630966029478690E-3  
 2.048000000000000E10    7.519891771579875E-4   2.564953816403087E-3  
 2.048200000000000E10    1.230299447896917E-3   2.382644936020789E-3  
 2.048400000000000E10    1.629215903262083E-3   2.106525994637989E-3  
 2.048600000000000E10    1.929063297743016E-3   1.782521757837615E-3  
 2.048800000000000E10    2.149530466063401E-3   1.427964716019117E-3  
 2.049000000000000E10    2.305033361853518E-3   1.062227225260725E-3  
 2.049200000000000E10    2.411780119087900E-3   7.239320483576093E-4  
 2.049400000000000E10    2.502901236231558E-3   4.132288696633369E-4  
 2.049600000000000E10    2.586985440012605E-3   8.982062514525469E-5  
 2.049800000000000E10    2.679903512445007E-3  -2.943338892650657E-4  
 2.050000000000000E10    2.749923320579125E-3  -8.037653234269887E-4  
 2.050200000000000E10    2.701787538673162E-3  -1.420923111071128E-3  
 2.050400000000000E10    2.434343311345443E-3  -2.093117939952163E-3  
 2.050600000000000E10    1.898004255667636E-3  -2.657225427367254E-3  
 2.050800000000000E10    1.178882918857161E-3  -2.969423179618187E-3  
 2.051000000000000E10    4.501079444853981E-4  -3.018889653806886E-3  
 2.051200000000000E10   -1.694703114855222E-4  -2.841034245872755E-3  
 2.051400000000000E10   -5.790975324257658E-4  -2.534808928277267E-3  
 2.051600000000000E10   -8.359465629740048E-4  -2.253826557171872E-3  
 2.051800000000000E10   -1.040730881217269E-3  -2.065457467855924E-3  
 2.052000000000000E10   -1.283295127781637E-3  -1.908809214891721E-3  
 2.052200000000000E10   -1.525431194959722E-3  -1.710522187386981E-3  
 2.052400000000000E10   -1.715281716195307E-3  -1.508742582853960E-3  
 2.052600000000000E10   -1.885790612602247E-3  -1.320439501983639E-3  
 2.052800000000000E10   -2.123365231402556E-3  -1.138090240815080E-3  
 2.053000000000000E10   -2.409851810906405E-3  -8.514153068298820E-4  
 2.053200000000000E10   -2.628026902867260E-3  -4.796208303571208E-4  
 2.053400000000000E10   -2.804013157891945E-3  -2.460504996177351E-5  
 2.053600000000000E10   -2.877128053717162E-3   5.731503937897415E-4  
 2.053800000000000E10   -2.734930303384677E-3   1.249391104117680E-3  
 2.054000000000000E10   -2.340326922152330E-3   1.826500000313324E-3  
 2.054200000000000E10   -1.848956059334884E-3   2.181376980180726E-3  
 2.054400000000000E10   -1.357091613757758E-3   2.377850138639778E-3  
 2.054600000000000E10   -8.873090745858206E-4   2.473240336901490E-3  
 2.054800000000000E10   -4.452433815099483E-4   2.471309602682176E-3  
 2.055000000000000E10   -1.076809863594395E-4   2.382880598000048E-3  
 2.055200000000000E10    1.145631632489275E-4   2.290035717748873E-3  
 2.055400000000000E10    3.270115108093163E-4   2.273976735755373E-3  
 2.055600000000000E10    6.113674464336609E-4   2.299058029750063E-3  
