#  HZ   S   RI   R     50.00 
! Rohde & Schwarz ZVA40 4Ports - Version 3.90 - 1145.1110k42 SN: 100403
! Date: 2023-10-03 11:33:41
! Measurement: S12 
! 
 2.000000000000000E10   -4.990760213982913E-3  -1.011001659746937E-3  
 2.000200000000000E10   -5.103407617382430E-3  -1.611155732664176E-4  
 2.000400000000000E10   -5.024358555444598E-3   7.747611222087326E-4  
 2.000600000000000E10   -4.725763085585686E-3   1.629050052149889E-3  
 2.000800000000000E10   -4.271149347869703E-3   2.288282756912120E-3  
 2.001000000000000E10   -3.832183749541457E-3   2.794440045239933E-3  
 2.001200000000000E10   -3.456421406295749E-3   3.328357771452931E-3  
 2.001400000000000E10   -3.010746632001283E-3   3.957902845915086E-3  
 2.001600000000000E10   -2.316627812422352E-3   4.572173879470355E-3  
 2.001800000000000E10   -1.452028849104673E-3   4.960724945973468E-3  
 2.002000000000000E10   -5.197153519407882E-4   5.117916139877506E-3  
 2.002200000000000E10    4.674861294556594E-4   5.084944176085202E-3  
 2.002400000000000E10    1.364543952082319E-3   4.941023874705957E-3  
 2.002600000000000E10    2.227230874223658E-3   4.604828641692430E-3  
 2.002800000000000E10    2.990055355001931E-3   4.095759484227058E-3  
 2.003000000000000E10    3.653748757148415E-3   3.401767778681753E-3  
 2.003200000000000E10    4.102407667187997E-3   2.623295391346386E-3  
 2.003400000000000E10    4.371394771208735E-3   1.892871141468210E-3  
 2.003600000000000E10    4.541643234084786E-3   1.184936497866372E-3  
 2.003800000000000E10    4.595617809689340E-3   4.721764801357541E-4  
 2.004000000000000E10    4.569821795563639E-3  -2.204064798274043E-4  
 2.004200000000000E10    4.489557702600221E-3  -9.584199180136678E-4  
 2.004400000000000E10    4.274328463469391E-3  -1.668818948939903E-3  
 2.004600000000000E10    3.940859019043454E-3  -2.328876132881384E-3  
 2.004800000000000E10    3.469478767250240E-3  -2.886707408721617E-3  
 2.005000000000000E10    2.980642931903771E-3  -3.384563709712692E-3  
 2.005200000000000E10    2.436009968665463E-3  -3.880603693103718E-3  
 2.005400000000000E10    1.810280160610507E-3  -4.264618109129830E-3  
 2.005600000000000E10    1.108560831872401E-3  -4.548141347635308E-3  
 2.005800000000000E10    3.493233320855157E-4  -4.709677885711930E-3  
 2.006000000000000E10   -4.822168604148851E-4  -4.763970007820998E-3  
 2.006200000000000E10   -1.353100583210220E-3  -4.665259128137504E-3  
 2.006400000000000E10   -2.202826152544147E-3  -4.364436176134114E-3  
 2.006600000000000E10   -2.957353670219029E-3  -3.858726279074212E-3  
 2.006800000000000E10   -3.558198668430618E-3  -3.213940955767478E-3  
 2.007000000000000E10   -4.043395274583205E-3  -2.511262169314756E-3  
 2.007200000000000E10   -4.424926002774342E-3  -1.769357815062927E-3  
 2.007400000000000E10   -4.633036465096621E-3  -9.680028256017395E-4  
 2.007600000000000E10   -4.665498506783704E-3  -1.454496046385935E-4  
 2.007800000000000E10   -4.545667225977889E-3   6.849919338020739E-4  
 2.008000000000000E10   -4.245024065222638E-3   1.438524898854487E-3  
 2.008200000000000E10   -3.844133457513871E-3   2.016108684287764E-3  
 2.008400000000000E10   -3.516965496848211E-3   2.461167175989645E-3  
 2.008600000000000E10   -3.176071637965463E-3   2.998367765412471E-3  
 2.008800000000000E10   -2.607520091933785E-3   3.566205030146205E-3  
 2.009000000000000E10   -1.929118490582447E-3   3.935958569248518E-3  
 2.009200000000000E10   -1.307641465021412E-3   4.151849662540137E-3  
 2.009400000000000E10   -7.566607946725449E-4   4.331423101923717E-3  
 2.009600000000000E10   -8.371193770370963E-5   4.585735672326000E-3  
 2.009800000000000E10    8.478335063203161E-4   4.700203086996889E-3  
 2.010000000000000E10    1.808086263567761E-3   4.473581490463313E-3  
 2.010200000000000E10    2.645721268138768E-3   3.983631862304462E-3  
 2.010400000000000E10    3.262844612178060E-3   3.350950659678123E-3  
 2.010600000000000E10    3.700956926439648E-3   2.647114722173155E-3  
 2.010800000000000E10    4.013178962064379E-3   1.957333183927853E-3  
 2.011000000000000E10    4.235128440928680E-3   1.309612140714846E-3  
 2.011200000000000E10    4.406718755669801E-3   6.728384242806998E-4  
 2.011400000000000E10    4.501274154510028E-3  -2.487410592162454E-5  
 2.011600000000000E10    4.502275607974074E-3  -8.112142763652460E-4  
 2.011800000000000E10    4.346646931896240E-3  -1.667416121316269E-3  
 2.012000000000000E10    3.950638656308990E-3  -2.448902830458534E-3  
 2.012200000000000E10    3.382302536111740E-3  -3.044010545299561E-3  
 2.012400000000000E10    2.821366949420837E-3  -3.472192549250193E-3  
 2.012600000000000E10    2.281396345085936E-3  -3.877584322321195E-3  
 2.012800000000000E10    1.635623831347919E-3  -4.303985677751495E-3  
 2.013000000000000E10    8.768010963570833E-4  -4.630820635982134E-3  
 2.013200000000000E10    3.393812088980657E-5  -4.744547045571201E-3  
 2.013400000000000E10   -7.837940744745237E-4  -4.671057921914776E-3  
 2.013600000000000E10   -1.610758809234810E-3  -4.518576627482235E-3  
 2.013800000000000E10   -2.460738891206774E-3  -4.214403679433429E-3  
 2.014000000000000E10   -3.242510802078027E-3  -3.704024360940597E-3  
 2.014200000000000E10   -3.881017941935564E-3  -2.980829285526718E-3  
 2.014400000000000E10   -4.255265411403445E-3  -2.139606547576410E-3  
 2.014600000000000E10   -4.488400563045785E-3  -1.368346668630379E-3  
 2.014800000000000E10   -4.633271348099283E-3  -6.059536711818735E-4  
 2.015000000000000E10   -4.641927772971952E-3   1.778713783017866E-4  
 2.015200000000000E10   -4.481677868529971E-3   9.028991651261388E-4  
 2.015400000000000E10   -4.258780090575233E-3   1.560125499963760E-3  
 2.015600000000000E10   -4.013422307454878E-3   2.226646529671587E-3  
 2.015800000000000E10   -3.677560223473444E-3   2.890068258699260E-3  
 2.016000000000000E10   -3.201861469144071E-3   3.536293297477160E-3  
 2.016200000000000E10   -2.582328460167772E-3   4.098651781218288E-3  
 2.016400000000000E10   -1.813470853067199E-3   4.567960909579272E-3  
 2.016600000000000E10   -9.581354665167540E-4   4.904421644262327E-3  
 2.016800000000000E10   -5.492994324289791E-5   5.096076981934869E-3  
 2.017000000000000E10    9.146905267024760E-4   5.071373294211097E-3  
 2.017200000000000E10    1.910910103757533E-3   4.776912666627288E-3  
 2.017400000000000E10    2.770857557792355E-3   4.223595775755836E-3  
 2.017600000000000E10    3.412965078619712E-3   3.546765853110472E-3  
 2.017800000000000E10    3.848058772330851E-3   2.844975623129695E-3  
 2.018000000000000E10    4.142215762885265E-3   2.168469151114056E-3  
 2.018200000000000E10    4.370696905908394E-3   1.500805290875796E-3  
 2.018400000000000E10    4.571074918832309E-3   8.288927305846213E-4  
 2.018600000000000E10    4.709065719335168E-3   1.089372183483692E-4  
 2.018800000000000E10    4.757409248455072E-3  -6.316206942565373E-4  
 2.019000000000000E10    4.703407158592234E-3  -1.421804623218414E-3  
 2.019200000000000E10    4.449082320027146E-3  -2.290429630788204E-3  
 2.019400000000000E10    4.026905363310635E-3  -3.101420209363656E-3  
 2.019600000000000E10    3.479109346912600E-3  -3.858990044574496E-3  
 2.019800000000000E10    2.680745429968761E-3  -4.516703703291256E-3  
 2.020000000000000E10    1.734249233440669E-3  -4.933720713274347E-3  
 2.020200000000000E10    7.147288961726943E-4  -5.126897579082001E-3  
 2.020400000000000E10   -2.692464477149770E-4  -5.086021273638364E-3  
 2.020600000000000E10   -1.115452147514364E-3  -4.894324532353585E-3  
 2.020800000000000E10   -1.915588073811874E-3  -4.569292838834687E-3  
 2.021000000000000E10   -2.635495300278252E-3  -4.053698639948796E-3  
 2.021200000000000E10   -3.104856387240652E-3  -3.485230605382427E-3  
 2.021400000000000E10   -3.546379796907675E-3  -3.055669258084195E-3  
 2.021600000000000E10   -4.076188890102470E-3  -2.534206930754914E-3  
 2.021800000000000E10   -4.512863682100067E-3  -1.803255999276852E-3  
 2.022000000000000E10   -4.737961117500140E-3  -9.619678042967013E-4  
 2.022200000000000E10   -4.817613848933468E-3  -1.354118594238650E-4  
 2.022400000000000E10   -4.799494772781562E-3   6.538714816862787E-4  
 2.022600000000000E10   -4.667317609728119E-3   1.440824347226249E-3  
 2.022800000000000E10   -4.404756292286847E-3   2.213130296886336E-3  
 2.023000000000000E10   -3.980308541177233E-3   2.959311356262109E-3  
 2.023200000000000E10   -3.422435163232832E-3   3.639996827890477E-3  
 2.023400000000000E10   -2.736386969501590E-3   4.219558998298499E-3  
 2.023600000000000E10   -1.938461351932751E-3   4.605517142026882E-3  
 2.023800000000000E10   -1.135650605400220E-3   4.824868207912387E-3  
 2.024000000000000E10   -2.896847464949077E-4   4.972061556246546E-3  
 2.024200000000000E10    6.167883970372288E-4   4.971373952741241E-3  
 2.024400000000000E10    1.472504499057929E-3   4.754882271367091E-3  
 2.024600000000000E10    2.212180658301086E-3   4.425609357839014E-3  
 2.024800000000000E10    2.928755783625408E-3   3.993598215373947E-3  
 2.025000000000000E10    3.578544416131430E-3   3.413394179747061E-3  
 2.025200000000000E10    4.080852257938666E-3   2.749706448895144E-3  
 2.025400000000000E10    4.450642705009676E-3   2.040877992885165E-3  
 2.025600000000000E10    4.723199033810769E-3   1.310177203440280E-3  
 2.025800000000000E10    4.893837197695250E-3   5.024228188249479E-4  
 2.026000000000000E10    4.931395850431773E-3  -3.321273162541337E-4  
 2.026200000000000E10    4.845275739092886E-3  -1.174779230855222E-3  
 2.026400000000000E10    4.596989291409652E-3  -1.975269503833979E-3  
 2.026600000000000E10    4.230525689544502E-3  -2.729429374736401E-3  
 2.026800000000000E10    3.741707960373642E-3  -3.458434862464115E-3  
 2.027000000000000E10    3.062981149227716E-3  -4.166702383462295E-3  
 2.027200000000000E10    2.152323352034997E-3  -4.653368196967576E-3  
 2.027400000000000E10    1.257469907782420E-3  -4.816066536960411E-3  
 2.027600000000000E10    4.368395922579056E-4  -4.857156471705731E-3  
 2.027800000000000E10   -3.774177788233638E-4  -4.768477137671945E-3  
 2.028000000000000E10   -1.093033114793124E-3  -4.607428560884279E-3  
 2.028200000000000E10   -1.778644289717906E-3  -4.400389596681905E-3  
 2.028400000000000E10   -2.471864390198464E-3  -4.090459568908921E-3  
 2.028600000000000E10   -3.124031522828672E-3  -3.633742347175693E-3  
 2.028800000000000E10   -3.682240145280958E-3  -3.063267691888744E-3  
 2.029000000000000E10   -4.146265900797315E-3  -2.452014525777396E-3  
 2.029200000000000E10   -4.569494976075712E-3  -1.791260777225281E-3  
 2.029400000000000E10   -4.933601291275319E-3  -9.658050315201653E-4  
 2.029600000000000E10   -5.089306393293320E-3   6.217368228797930E-5  
 2.029800000000000E10   -4.902475956183526E-3   1.099186416220978E-3  
 2.030000000000000E10   -4.509135925521454E-3   1.913066743585615E-3  
 2.030200000000000E10   -4.087927837476687E-3   2.569441534118888E-3  
 2.030400000000000E10   -3.589865101938263E-3   3.231166111719278E-3  
 2.030600000000000E10   -2.892920632421235E-3   3.820269299602067E-3  
 2.030800000000000E10   -2.102815353507061E-3   4.188280949300087E-3  
 2.031000000000000E10   -1.314980100069977E-3   4.356425295779367E-3  
 2.031200000000000E10   -5.973276996950586E-4   4.362746722490332E-3  
 2.031400000000000E10    4.254002016279159E-5   4.323432992361946E-3  
 2.031600000000000E10    7.020622063543143E-4   4.289604275038949E-3  
 2.031800000000000E10    1.429424407018096E-3   4.138533123711378E-3  
 2.032000000000000E10    2.072478267996584E-3   3.836065513530264E-3  
 2.032200000000000E10    2.648249234038371E-3   3.452838556611060E-3  
 2.032400000000000E10    3.196334506580491E-3   2.958110217464927E-3  
 2.032600000000000E10    3.653592895716429E-3   2.383444435250613E-3  
 2.032800000000000E10    4.026844338686378E-3   1.723717150772796E-3  
 2.033000000000000E10    4.248585868166921E-3   9.831090451988542E-4  
 2.033200000000000E10    4.303018395777470E-3   2.708804339492395E-4  
 2.033400000000000E10    4.316613411553849E-3  -4.526572266053179E-4  
 2.033600000000000E10    4.310159645054812E-3  -8.947663928991484E-4  
 2.033800000000000E10    3.868032376178437E-3  -2.117269876539524E-3  
 2.034000000000000E10    3.337754152232299E-3  -2.783671691208895E-3  
 2.034200000000000E10    2.670531201371808E-3  -3.287236387324003E-3  
 2.034400000000000E10    1.933431607832051E-3  -3.594888241984594E-3  
 2.034600000000000E10    1.230316715211504E-3  -3.710818045807106E-3  
 2.034800000000000E10    6.178512581463123E-4  -3.713768679809608E-3  
 2.035000000000000E10    9.281390952377546E-5  -3.660335150880763E-3  
 2.035200000000000E10   -4.407805261305638E-4  -3.597809944623783E-3  
 2.035400000000000E10   -1.018579405399017E-3  -3.451745704184345E-3  
 2.035600000000000E10   -1.548356515999286E-3  -3.227523743623386E-3  
 2.035800000000000E10   -2.038901691888402E-3  -2.968567049843662E-3  
 2.036000000000000E10   -2.517160792823560E-3  -2.620061396701653E-3  
 2.036200000000000E10   -2.936549539344363E-3  -2.164077947928030E-3  
 2.036400000000000E10   -3.309914612291772E-3  -1.636348575652566E-3  
 2.036600000000000E10   -3.595313209649407E-3  -9.901125363453672E-4  
 2.036800000000000E10   -3.673579072418773E-3  -2.541339817531637E-4  
 2.037000000000000E10   -3.539217817079690E-3   4.365792236417349E-4  
 2.037200000000000E10   -3.275602900733551E-3   1.026671934573923E-3  
 2.037400000000000E10   -2.943261644377570E-3   1.519874862199765E-3  
 2.037600000000000E10   -2.590306747106859E-3   1.893686318919523E-3  
 2.037800000000000E10   -2.238757537539911E-3   2.213827791382318E-3  
 2.038000000000000E10   -1.841026395674289E-3   2.492486757950651E-3  
 2.038200000000000E10   -1.400506386912807E-3   2.701000603674739E-3  
 2.038400000000000E10   -9.708109334755093E-4   2.851185351495206E-3  
 2.038600000000000E10   -5.110809780703283E-4   2.964155975568258E-3  
 2.038800000000000E10   -2.854234302339540E-5   2.992925351991514E-3  
 2.039000000000000E10    4.594693237766165E-4   2.932737607301937E-3  
 2.039200000000000E10    9.598459237841546E-4   2.805321382496644E-3  
 2.039400000000000E10    1.442829585335229E-3   2.576930359304871E-3  
 2.039600000000000E10    1.822994543342955E-3   2.278755315475994E-3  
 2.039800000000000E10    2.170421723506334E-3   1.920871157774035E-3  
 2.040000000000000E10    2.409576432618462E-3   1.459549692815837E-3  
 2.040200000000000E10    2.520772677351848E-3   1.034214743413031E-3  
 2.040400000000000E10    2.608192794277897E-3   6.547509009926869E-4  
 2.040600000000000E10    2.677100451870097E-3   2.363098024988525E-4  
 2.040800000000000E10    2.650615480372016E-3  -1.819967116188994E-4  
 2.041000000000000E10    2.577852561242051E-3  -6.110424701883286E-4  
 2.041200000000000E10    2.460780487407321E-3  -1.050161147478646E-3  
 2.041400000000000E10    2.268680839879830E-3  -1.476712517704769E-3  
 2.041600000000000E10    1.977881304574786E-3  -1.894274531047286E-3  
 2.041800000000000E10    1.541882737562705E-3  -2.256945407960886E-3  
 2.042000000000000E10    1.014211654870047E-3  -2.463188255205751E-3  
 2.042200000000000E10    4.858305012335841E-4  -2.515986098988373E-3  
 2.042400000000000E10   -9.318416939802539E-7  -2.436365225110893E-3  
 2.042600000000000E10   -4.043539322734478E-4  -2.257817396089251E-3  
 2.042800000000000E10   -7.393603460334334E-4  -1.993906632479695E-3  
 2.043000000000000E10   -9.626823960355036E-4  -1.686044254363227E-3  
 2.043200000000000E10   -1.043118631329250E-3  -1.442018913588039E-3  
 2.043400000000000E10   -1.068554157506169E-3  -1.294772232664220E-3  
 2.043600000000000E10   -1.116086928645310E-3  -1.240464963628279E-3  
 2.043800000000000E10   -1.294983170041240E-3  -1.228184488107577E-3  
 2.044000000000000E10   -1.570234687446996E-3  -1.112936402349101E-3  
 2.044200000000000E10   -1.865000964176876E-3  -8.848909882219210E-4  
 2.044400000000000E10   -2.149873188938256E-3  -4.880298539869672E-4  
 2.044600000000000E10   -2.216690952924115E-3   8.581517395663311E-5  
 2.044800000000000E10   -1.961572121621834E-3   6.479308315276824E-4  
 2.045000000000000E10   -1.553553770250285E-3   9.215981311475239E-4  
 2.045200000000000E10   -1.275886190813725E-3   9.647327860426388E-4  
 2.045400000000000E10   -1.117007996611021E-3   9.855608783524345E-4  
 2.045600000000000E10   -1.014474286398862E-3   1.033353655208132E-3  
 2.045800000000000E10   -9.470915171766172E-4   1.142780685992797E-3  
 2.046000000000000E10   -8.255855071093935E-4   1.304592603794587E-3  
 2.046200000000000E10   -6.300896265325539E-4   1.435465574620959E-3  
 2.046400000000000E10   -4.139326665159546E-4   1.520630029708515E-3  
 2.046600000000000E10   -1.689675540726540E-4   1.558612442839845E-3  
 2.046800000000000E10    9.929678977911225E-5   1.542386722486513E-3  
 2.047000000000000E10    3.606905110818507E-4   1.481617815263661E-3  
 2.047200000000000E10    5.528186102984129E-4   1.343810874796300E-3  
 2.047400000000000E10    6.370601362123351E-4   1.211262451783743E-3  
 2.047600000000000E10    7.175290209735618E-4   1.177334596035013E-3  
 2.047800000000000E10    9.133237209975906E-4   1.153769719638620E-3  
 2.048000000000000E10    1.126205166341898E-3   1.040554849752857E-3  
 2.048200000000000E10    1.310144344137775E-3   8.665811677210401E-4  
 2.048400000000000E10    1.458164206763477E-3   6.341681033114180E-4  
 2.048600000000000E10    1.493508950519709E-3   3.461443988339010E-4  
 2.048800000000000E10    1.451617088111371E-3   1.201827952531914E-4  
 2.049000000000000E10    1.413591650176656E-3  -2.942400919611244E-5  
 2.049200000000000E10    1.405345570629486E-3  -1.312211527055084E-4  
 2.049400000000000E10    1.436446577793470E-3  -2.463302736021119E-4  
 2.049600000000000E10    1.484091668159782E-3  -4.079864176427141E-4  
 2.049800000000000E10    1.547010539295037E-3  -6.007780184405915E-4  
 2.050000000000000E10    1.638714159424934E-3  -8.644504188042550E-4  
 2.050200000000000E10    1.671849413671427E-3  -1.290810426674140E-3  
 2.050400000000000E10    1.490623897148503E-3  -1.810368114541987E-3  
 2.050600000000000E10    1.036121229710126E-3  -2.275569577137997E-3  
 2.050800000000000E10    3.694039489211584E-4  -2.513043421470089E-3  
 2.051000000000000E10   -2.907532170978318E-4  -2.436097133559762E-3  
 2.051200000000000E10   -7.802016923870939E-4  -2.124486910754148E-3  
 2.051400000000000E10   -1.013103158954807E-3  -1.748959180312577E-3  
 2.051600000000000E10   -1.079431364174795E-3  -1.511296766154745E-3  
 2.051800000000000E10   -1.182267021238344E-3  -1.426633655806475E-3  
 2.052000000000000E10   -1.406538081757817E-3  -1.313889676555531E-3  
 2.052200000000000E10   -1.600972802182775E-3  -1.072779346694365E-3  
 2.052400000000000E10   -1.695406213575216E-3  -8.133750575606104E-4  
 2.052600000000000E10   -1.753032374207253E-3  -6.154774361933915E-4  
 2.052800000000000E10   -1.888221325237810E-3  -4.730597742039849E-4  
 2.053000000000000E10   -2.077335080729775E-3  -2.241470627515451E-4  
 2.053200000000000E10   -2.195397049855487E-3   1.141589566009597E-4  
 2.053400000000000E10   -2.262666899090012E-3   5.009676244276588E-4  
 2.053600000000000E10   -2.274651517286713E-3   9.639017229301880E-4  
 2.053800000000000E10   -2.119220494304175E-3   1.494183672166625E-3  
 2.054000000000000E10   -1.753377700856899E-3   1.940481255497830E-3  
 2.054200000000000E10   -1.300617700362187E-3   2.215440816211480E-3  
 2.054400000000000E10   -8.073661973653937E-4   2.379833666009852E-3  
 2.054600000000000E10   -3.209835078091545E-4   2.421904171322599E-3  
 2.054800000000000E10    1.128727245812138E-4   2.345835399112584E-3  
 2.055000000000000E10    4.450216868541629E-4   2.157328388780172E-3  
 2.055200000000000E10    6.353266682349330E-4   1.980778390403700E-3  
 2.055400000000000E10    7.842991480971745E-4   1.920769350419258E-3  
 2.055600000000000E10    1.011199120972536E-3   1.914515664490561E-3  
