#  HZ   S   RI   R     50.00 
! Rohde & Schwarz ZVA40 4Ports - Version 3.90 - 1145.1110k42 SN: 100403
! Date: 2023-10-03 11:37:56
! Measurement: S12 
! 
 2.000000000000000E10   -4.450093075219128E-3  -4.936122040143582E-4  
 2.000200000000000E10   -4.476369444832758E-3   1.757136471698889E-4  
 2.000400000000000E10   -4.360501206031552E-3   8.846215011241536E-4  
 2.000600000000000E10   -4.088225188078705E-3   1.581568891803424E-3  
 2.000800000000000E10   -3.688387020870492E-3   2.164946636185050E-3  
 2.001000000000000E10   -3.335538096036072E-3   2.592135367363140E-3  
 2.001200000000000E10   -3.077409687210565E-3   3.017792150516202E-3  
 2.001400000000000E10   -2.728802548652446E-3   3.587121825182328E-3  
 2.001600000000000E10   -2.081444737053028E-3   4.210882371774426E-3  
 2.001800000000000E10   -1.223688207877179E-3   4.655006272649325E-3  
 2.002000000000000E10   -3.194839023139880E-4   4.848422948271036E-3  
 2.002200000000000E10    6.099739543127794E-4   4.788833515097698E-3  
 2.002400000000000E10    1.469402828391780E-3   4.592261208152331E-3  
 2.002600000000000E10    2.291809327693449E-3   4.206589026445592E-3  
 2.002800000000000E10    3.008352161419613E-3   3.709118571822290E-3  
 2.003000000000000E10    3.624455287569651E-3   3.070176277240670E-3  
 2.003200000000000E10    4.017106533326485E-3   2.295726582545925E-3  
 2.003400000000000E10    4.191354434523318E-3   1.488361524900905E-3  
 2.003600000000000E10    4.238306199786841E-3   7.416819032557586E-4  
 2.003800000000000E10    4.217362824689460E-3   9.554444841342050E-5  
 2.004000000000000E10    4.152406110531755E-3  -4.585946649226740E-4  
 2.004200000000000E10    4.040684637234168E-3  -1.023024859562240E-3  
 2.004400000000000E10    3.859138055877002E-3  -1.637073000892997E-3  
 2.004600000000000E10    3.570322947645629E-3  -2.276895559151416E-3  
 2.004800000000000E10    3.166128079303437E-3  -2.829852953760161E-3  
 2.005000000000000E10    2.729290182253829E-3  -3.289437870046607E-3  
 2.005200000000000E10    2.191592844341088E-3  -3.704371637906189E-3  
 2.005400000000000E10    1.574889278142817E-3  -4.025170889993509E-3  
 2.005600000000000E10    8.998593979480643E-4  -4.334407944784121E-3  
 2.005800000000000E10    1.408291834566087E-4  -4.542866480295306E-3  
 2.006000000000000E10   -6.835167209997223E-4  -4.549842120872604E-3  
 2.006200000000000E10   -1.487304525518859E-3  -4.383146607627472E-3  
 2.006400000000000E10   -2.296805174814330E-3  -4.062072184212782E-3  
 2.006600000000000E10   -3.076809656771797E-3  -3.571942155421884E-3  
 2.006800000000000E10   -3.698735756592618E-3  -2.909893644283767E-3  
 2.007000000000000E10   -4.123383581086442E-3  -2.142137011375141E-3  
 2.007200000000000E10   -4.368069012545878E-3  -1.291045440464384E-3  
 2.007400000000000E10   -4.411838431325224E-3  -4.188366195497414E-4  
 2.007600000000000E10   -4.321160657262362E-3   3.551835812955957E-4  
 2.007800000000000E10   -4.074809175950510E-3   1.051763771101832E-3  
 2.008000000000000E10   -3.686868370062223E-3   1.600406016223133E-3  
 2.008200000000000E10   -3.282147692516447E-3   2.002172581679016E-3  
 2.008400000000000E10   -3.003854485642579E-3   2.342396372653269E-3  
 2.008600000000000E10   -2.783296940227350E-3   2.796206140407810E-3  
 2.008800000000000E10   -2.391240481908123E-3   3.318027179274295E-3  
 2.009000000000000E10   -1.830178692385003E-3   3.719432779622299E-3  
 2.009200000000000E10   -1.229204927329664E-3   4.008163973965027E-3  
 2.009400000000000E10   -5.875589386387557E-4   4.312728014257220E-3  
 2.009600000000000E10    2.233829862369156E-4   4.589196467013271E-3  
 2.009800000000000E10    1.231285756350392E-3   4.569061514404085E-3  
 2.010000000000000E10    2.183647360652685E-3   4.154391000392261E-3  
 2.010200000000000E10    2.954084012243483E-3   3.514155805869787E-3  
 2.010400000000000E10    3.466394911002782E-3   2.766030090343622E-3  
 2.010600000000000E10    3.730782687112138E-3   2.037906864037117E-3  
 2.010800000000000E10    3.846273792010767E-3   1.398844273622941E-3  
 2.011000000000000E10    3.924543365698171E-3   8.304975581941783E-4  
 2.011200000000000E10    4.046432346243550E-3   2.724783299965095E-4  
 2.011400000000000E10    4.177958290610049E-3  -3.567209113734188E-4  
 2.011600000000000E10    4.199336679583348E-3  -1.109953568730917E-3  
 2.011800000000000E10    3.956451468790571E-3  -1.952510473697826E-3  
 2.012000000000000E10    3.400854766368866E-3  -2.689222546501292E-3  
 2.012200000000000E10    2.710604436557602E-3  -3.145877970382571E-3  
 2.012400000000000E10    2.155286182338993E-3  -3.380992104885755E-3  
 2.012600000000000E10    1.698542972681699E-3  -3.632265263823448E-3  
 2.012800000000000E10    1.155824189212311E-3  -3.912019836543887E-3  
 2.013000000000000E10    4.725058280638661E-4  -4.149733473443324E-3  
 2.013200000000000E10   -2.935813800259321E-4  -4.238655428505607E-3  
 2.013400000000000E10   -9.906760382431528E-4  -4.179237876087427E-3  
 2.013600000000000E10   -1.696377414865074E-3  -4.049010557570944E-3  
 2.013800000000000E10   -2.479324953768541E-3  -3.753077937290073E-3  
 2.014000000000000E10   -3.232440971596926E-3  -3.206136722669558E-3  
 2.014200000000000E10   -3.810227477785063E-3  -2.444230701291451E-3  
 2.014400000000000E10   -4.067005175683234E-3  -1.625581756579104E-3  
 2.014600000000000E10   -4.143037057171266E-3  -9.051457012969037E-4  
 2.014800000000000E10   -4.170157170544068E-3  -2.130444567969621E-4  
 2.015000000000000E10   -4.112994695013321E-3   4.950143176958794E-4  
 2.015200000000000E10   -3.938902859334593E-3   1.114092154980258E-3  
 2.015400000000000E10   -3.746253032996147E-3   1.639985173285284E-3  
 2.015600000000000E10   -3.504773369058967E-3   2.196767117345223E-3  
 2.015800000000000E10   -3.177304484846968E-3   2.771137049421668E-3  
 2.016000000000000E10   -2.733456031246870E-3   3.375539081861024E-3  
 2.016200000000000E10   -2.135446299453853E-3   3.898128091047208E-3  
 2.016400000000000E10   -1.406072647552248E-3   4.251334988684566E-3  
 2.016600000000000E10   -6.148669506526657E-4   4.462350315103929E-3  
 2.016800000000000E10    2.611522488425382E-4   4.557898888985316E-3  
 2.017000000000000E10    1.167020635437910E-3   4.453750879124360E-3  
 2.017200000000000E10    2.013317309319973E-3   4.114164211959751E-3  
 2.017400000000000E10    2.687072088183077E-3   3.573972999152763E-3  
 2.017600000000000E10    3.160115728085792E-3   2.928038602005001E-3  
 2.017800000000000E10    3.457940692357995E-3   2.315131611087256E-3  
 2.018000000000000E10    3.688074812224066E-3   1.764799644998103E-3  
 2.018200000000000E10    3.866367809543456E-3   1.227034286043986E-3  
 2.018400000000000E10    3.981235799276168E-3   6.956055876798928E-4  
 2.018600000000000E10    4.086676760818120E-3   1.289822985536712E-4  
 2.018800000000000E10    4.190554290458009E-3  -5.074152873863502E-4  
 2.019000000000000E10    4.226326787223419E-3  -1.220642968460366E-3  
 2.019200000000000E10    4.093668147645615E-3  -1.995252747157658E-3  
 2.019400000000000E10    3.768185101863411E-3  -2.786168750996391E-3  
 2.019600000000000E10    3.256079568355172E-3  -3.577264413858454E-3  
 2.019800000000000E10    2.466240578710481E-3  -4.264082707878617E-3  
 2.020000000000000E10    1.531845993465848E-3  -4.651976611327243E-3  
 2.020200000000000E10    5.869298798239066E-4  -4.736497877510610E-3  
 2.020400000000000E10   -2.762995702343890E-4  -4.608598951664236E-3  
 2.020600000000000E10   -1.031278343698769E-3  -4.381304348094597E-3  
 2.020800000000000E10   -1.716846367344260E-3  -4.084975510421727E-3  
 2.021000000000000E10   -2.275892490245127E-3  -3.685546280057342E-3  
 2.021200000000000E10   -2.673292713653711E-3  -3.316219482156966E-3  
 2.021400000000000E10   -3.149598172900302E-3  -3.010326530784369E-3  
 2.021600000000000E10   -3.751251501617609E-3  -2.560637106567070E-3  
 2.021800000000000E10   -4.298682428068586E-3  -1.874418002208350E-3  
 2.022000000000000E10   -4.595743819933247E-3  -1.070947675206871E-3  
 2.022200000000000E10   -4.698359907639248E-3  -2.524384957117339E-4  
 2.022400000000000E10   -4.673471329388796E-3   5.724686823129930E-4  
 2.022600000000000E10   -4.537492904260204E-3   1.391780541140448E-3  
 2.022800000000000E10   -4.269206085828720E-3   2.165535740830281E-3  
 2.023000000000000E10   -3.848799159405409E-3   2.875399258401659E-3  
 2.023200000000000E10   -3.320307858909170E-3   3.503130662634418E-3  
 2.023400000000000E10   -2.675703062710387E-3   4.063875621391668E-3  
 2.023600000000000E10   -1.917655467642127E-3   4.513354713304176E-3  
 2.023800000000000E10   -1.122248992841277E-3   4.814576961238076E-3  
 2.024000000000000E10   -2.535649745604369E-4   5.001177321429607E-3  
 2.024200000000000E10    7.357064750976861E-4   4.967240357978477E-3  
 2.024400000000000E10    1.670135581796920E-3   4.648153204470873E-3  
 2.024600000000000E10    2.394641361509760E-3   4.218106830699577E-3  
 2.024800000000000E10    3.034523213972097E-3   3.739750409429825E-3  
 2.025000000000000E10    3.593826649227629E-3   3.132180233175557E-3  
 2.025200000000000E10    3.997832122776244E-3   2.454807619667716E-3  
 2.025400000000000E10    4.313713129333876E-3   1.749057107156626E-3  
 2.025600000000000E10    4.557458597614810E-3   1.027287721323471E-3  
 2.025800000000000E10    4.671288240287039E-3   2.911560813016776E-4  
 2.026000000000000E10    4.665958539893230E-3  -4.568047728820670E-4  
 2.026200000000000E10    4.575718228739721E-3  -1.271232289986478E-3  
 2.026400000000000E10    4.322389692619996E-3  -2.078613033518195E-3  
 2.026600000000000E10    3.922382973272492E-3  -2.822814414415647E-3  
 2.026800000000000E10    3.370775073697722E-3  -3.472821131624558E-3  
 2.027000000000000E10    2.677019150858676E-3  -4.012726626738355E-3  
 2.027200000000000E10    1.852726667291589E-3  -4.383910568086086E-3  
 2.027400000000000E10    1.029808182027881E-3  -4.559477187555146E-3  
 2.027600000000000E10    2.565235373805519E-4  -4.611971494914205E-3  
 2.027800000000000E10   -5.062705970852188E-4  -4.520669303558491E-3  
 2.028000000000000E10   -1.214359317802721E-3  -4.322218053318836E-3  
 2.028200000000000E10   -1.886618616818278E-3  -4.071466900684216E-3  
 2.028400000000000E10   -2.536072447482083E-3  -3.741873109161303E-3  
 2.028600000000000E10   -3.137472879003596E-3  -3.280298534297833E-3  
 2.028800000000000E10   -3.637570189312101E-3  -2.685301264541017E-3  
 2.029000000000000E10   -3.994952783816392E-3  -2.044597295699297E-3  
 2.029200000000000E10   -4.291944688668958E-3  -1.378321895134394E-3  
 2.029400000000000E10   -4.527261773883193E-3  -6.034670794313704E-4  
 2.029600000000000E10   -4.564333724340907E-3   2.624945568472700E-4  
 2.029800000000000E10   -4.316616079045667E-3   1.124308289339145E-3  
 2.030000000000000E10   -3.916123036847071E-3   1.790380312336816E-3  
 2.030200000000000E10   -3.562795558806371E-3   2.333370201220667E-3  
 2.030400000000000E10   -3.170817159116269E-3   2.900751092022768E-3  
 2.030600000000000E10   -2.592088766740980E-3   3.411388007441053E-3  
 2.030800000000000E10   -1.906973637502503E-3   3.736132790369016E-3  
 2.031000000000000E10   -1.201999347863926E-3   3.906801342964172E-3  
 2.031200000000000E10   -5.550885797236805E-4   3.897824462641169E-3  
 2.031400000000000E10   -5.115523769442613E-5   3.843306960469043E-3  
 2.031600000000000E10    4.409236048727676E-4   3.841509042238748E-3  
 2.031800000000000E10    1.077185876460539E-3   3.779018616855697E-3  
 2.032000000000000E10    1.730299369363045E-3   3.561892676063710E-3  
 2.032200000000000E10    2.293186313990090E-3   3.249509389408761E-3  
 2.032400000000000E10    2.789777582856241E-3   2.839960778752963E-3  
 2.032600000000000E10    3.214411428888087E-3   2.378357686447325E-3  
 2.032800000000000E10    3.607413265854121E-3   1.856487878184352E-3  
 2.033000000000000E10    3.937831838373786E-3   1.217761227895541E-3  
 2.033200000000000E10    4.127656592539063E-3   5.223961025303989E-4  
 2.033400000000000E10    4.218043328297359E-3  -1.900793056477226E-4  
 2.033600000000000E10    4.221891846369815E-3  -6.125576306927811E-4  
 2.033800000000000E10    3.876316800920500E-3  -1.862644174791597E-3  
 2.034000000000000E10    3.401257347798458E-3  -2.637061678494017E-3  
 2.034200000000000E10    2.729819130359425E-3  -3.215662057132081E-3  
 2.034400000000000E10    1.964554432089682E-3  -3.571933264740639E-3  
 2.034600000000000E10    1.197088507642211E-3  -3.686488235231352E-3  
 2.034800000000000E10    5.345603373522561E-4  -3.616175519440461E-3  
 2.035000000000000E10    4.694609729254068E-5  -3.510057374283121E-3  
 2.035200000000000E10   -4.185347362956102E-4  -3.458285919839034E-3  
 2.035400000000000E10   -9.470845365689862E-4  -3.317362577137020E-3  
 2.035600000000000E10   -1.432065175052871E-3  -3.060307353734971E-3  
 2.035800000000000E10   -1.840891256169589E-3  -2.819983495606317E-3  
 2.036000000000000E10   -2.303702739515791E-3  -2.568100751550110E-3  
 2.036200000000000E10   -2.755917539751089E-3  -2.180279594742590E-3  
 2.036400000000000E10   -3.169505391269923E-3  -1.672856138881158E-3  
 2.036600000000000E10   -3.480385307705513E-3  -1.017101009859255E-3  
 2.036800000000000E10   -3.587045310134138E-3  -2.463099921846556E-4  
 2.037000000000000E10   -3.440237491977988E-3   4.842811171396602E-4  
 2.037200000000000E10   -3.102678348551746E-3   1.046192687849894E-3  
 2.037400000000000E10   -2.699916164770171E-3   1.440517677649580E-3  
 2.037600000000000E10   -2.360926742699963E-3   1.696131282692982E-3  
 2.037800000000000E10   -2.108902989507274E-3   1.957225320101889E-3  
 2.038000000000000E10   -1.819652811348162E-3   2.233180286431755E-3  
 2.038200000000000E10   -1.451068760447756E-3   2.470323608981239E-3  
 2.038400000000000E10   -1.080310752580839E-3   2.649734253753667E-3  
 2.038600000000000E10   -6.654948703254816E-4   2.848806230489303E-3  
 2.038800000000000E10   -1.334270723250315E-4   2.992026076686603E-3  
 2.039000000000000E10    4.335738938405283E-4   2.960634064274255E-3  
 2.039200000000000E10    9.652773776367585E-4   2.762806575952305E-3  
 2.039400000000000E10    1.434369017025111E-3   2.448960802414351E-3  
 2.039600000000000E10    1.772356943951713E-3   2.102242532634625E-3  
 2.039800000000000E10    2.036368431247495E-3   1.743603838366215E-3  
 2.040000000000000E10    2.214594450951727E-3   1.341632019762916E-3  
 2.040200000000000E10    2.278750348422263E-3   9.825740708038211E-4  
 2.040400000000000E10    2.354877242059620E-3   6.840683851839492E-4  
 2.040600000000000E10    2.441848464379157E-3   3.312751241200776E-4  
 2.040800000000000E10    2.484027718849205E-3  -2.264643828513928E-5  
 2.041000000000000E10    2.511896486221641E-3  -4.246622793962835E-4  
 2.041200000000000E10    2.406468088911088E-3  -9.094096603803339E-4  
 2.041400000000000E10    2.171185962786829E-3  -1.323114899504516E-3  
 2.041600000000000E10    1.924446520947472E-3  -1.653995666721905E-3  
 2.041800000000000E10    1.609131637788206E-3  -1.986011802391322E-3  
 2.042000000000000E10    1.187498258702733E-3  -2.238351851701737E-3  
 2.042200000000000E10    7.103458090029933E-4  -2.359091209385682E-3  
 2.042400000000000E10    2.365630492999184E-4  -2.350046325268017E-3  
 2.042600000000000E10   -1.818392430087207E-4  -2.243098035385764E-3  
 2.042800000000000E10   -5.121392249647115E-4  -2.034263599112078E-3  
 2.043000000000000E10   -7.096632185426576E-4  -1.779268288777934E-3  
 2.043200000000000E10   -8.171793478713545E-4  -1.621723084503578E-3  
 2.043400000000000E10   -9.566483958796772E-4  -1.553424961726975E-3  
 2.043600000000000E10   -1.118447816999698E-3  -1.501401873408921E-3  
 2.043800000000000E10   -1.350134218767010E-3  -1.459806726348621E-3  
 2.044000000000000E10   -1.687711596281992E-3  -1.331013920544474E-3  
 2.044200000000000E10   -2.034966342358126E-3  -1.046105184488826E-3  
 2.044400000000000E10   -2.321266862391322E-3  -5.530862361882573E-4  
 2.044600000000000E10   -2.356319834857627E-3   7.115172505749528E-5  
 2.044800000000000E10   -2.058548714827609E-3   6.041782132039468E-4  
 2.045000000000000E10   -1.657889190095443E-3   8.277988979696401E-4  
 2.045200000000000E10   -1.436089415586105E-3   8.851986365496286E-4  
 2.045400000000000E10   -1.338543409171204E-3   9.771648501218470E-4  
 2.045600000000000E10   -1.224267274934661E-3   1.097703762180000E-3  
 2.045800000000000E10   -1.126720061249755E-3   1.244015280260808E-3  
 2.046000000000000E10   -9.995767786340030E-4   1.432451535947621E-3  
 2.046200000000000E10   -7.959487826425446E-4   1.620359641189377E-3  
 2.046400000000000E10   -4.967559297155176E-4   1.783552868464203E-3  
 2.046600000000000E10   -1.393930205840324E-4   1.808481911818187E-3  
 2.046800000000000E10    1.511262051752527E-4   1.716581475058640E-3  
 2.047000000000000E10    3.898307245604142E-4   1.629847321762807E-3  
 2.047200000000000E10    6.109998082845577E-4   1.518349245156127E-3  
 2.047400000000000E10    7.456184291556754E-4   1.384557086836409E-3  
 2.047600000000000E10    8.611114333487221E-4   1.335511014244899E-3  
 2.047800000000000E10    1.087317747684817E-3   1.292562720158862E-3  
 2.048000000000000E10    1.333633105753473E-3   1.147660987313699E-3  
 2.048200000000000E10    1.548590845669862E-3   9.283139370381832E-4  
 2.048400000000000E10    1.702725870051870E-3   6.532537173134862E-4  
 2.048600000000000E10    1.754885694632928E-3   3.697427422998267E-4  
 2.048800000000000E10    1.789481767142813E-3   8.809092617378124E-5  
 2.049000000000000E10    1.753193166762315E-3  -2.231700092562716E-4  
 2.049200000000000E10    1.645402370572642E-3  -4.627653429957314E-4  
 2.049400000000000E10    1.553790971498799E-3  -6.033672209553145E-4  
 2.049600000000000E10    1.516629273451313E-3  -7.389610551332159E-4  
 2.049800000000000E10    1.526877930801776E-3  -9.246294416866646E-4  
 2.050000000000000E10    1.542081638170338E-3  -1.190190207799552E-3  
 2.050200000000000E10    1.503655022976023E-3  -1.591085184675952E-3  
 2.050400000000000E10    1.252672635018826E-3  -2.074418623966200E-3  
 2.050600000000000E10    7.542136634044627E-4  -2.458679032753463E-3  
 2.050800000000000E10    9.940996231442251E-5  -2.634635307239714E-3  
 2.051000000000000E10   -5.855061851131420E-4  -2.541984483185742E-3  
 2.051200000000000E10   -1.122594746347103E-3  -2.191782282251451E-3  
 2.051400000000000E10   -1.390784797776077E-3  -1.746369198102642E-3  
 2.051600000000000E10   -1.484784163983056E-3  -1.409965657836034E-3  
 2.051800000000000E10   -1.551037606852198E-3  -1.196861288648237E-3  
 2.052000000000000E10   -1.682512664788023E-3  -9.976178105851568E-4  
 2.052200000000000E10   -1.774712409651666E-3  -7.386013770613960E-4  
 2.052400000000000E10   -1.782005372526194E-3  -5.062689651148739E-4  
 2.052600000000000E10   -1.799498684704304E-3  -3.392561953256114E-4  
 2.052800000000000E10   -1.907738257647941E-3  -2.008128902633433E-4  
 2.053000000000000E10   -2.090613021411830E-3   4.992833803246163E-5  
 2.053200000000000E10   -2.188723120424483E-3   4.253632052698070E-4  
 2.053400000000000E10   -2.203472786479526E-3   8.459314854850097E-4  
 2.053600000000000E10   -2.116504263270785E-3   1.329225505253783E-3  
 2.053800000000000E10   -1.846471314180505E-3   1.844775418888916E-3  
 2.054000000000000E10   -1.362780824786535E-3   2.219613693240616E-3  
 2.054200000000000E10   -8.459450996101456E-4   2.353649526075633E-3  
 2.054400000000000E10   -3.964902781363991E-4   2.363689019586201E-3  
 2.054600000000000E10    2.305720974820565E-5   2.308505173358653E-3  
 2.054800000000000E10    3.905432660960489E-4   2.186169873716103E-3  
 2.055000000000000E10    6.595767335966231E-4   2.015264722070208E-3  
 2.055200000000000E10    8.588130176239821E-4   1.844417993669157E-3  
 2.055400000000000E10    1.033468715225657E-3   1.751283485511387E-3  
 2.055600000000000E10    1.266024950719266E-3   1.656213145772065E-3  
