#  HZ   S   RI   R     50.00 
! Rohde & Schwarz ZVA40 4Ports - Version 3.90 - 1145.1110k42 SN: 100403
! Date: 2023-10-03 11:39:24
! Measurement: S12 
! 
 2.000000000000000E10   -4.332849261477406E-3  -5.627989964444697E-4  
 2.000200000000000E10   -4.329307568202049E-3   8.168561225268349E-5  
 2.000400000000000E10   -4.242705646902323E-3   7.254433168535249E-4  
 2.000600000000000E10   -4.079713112456196E-3   1.375259771184237E-3  
 2.000800000000000E10   -3.781409893920761E-3   1.993471421703788E-3  
 2.001000000000000E10   -3.405524598848489E-3   2.526656503179743E-3  
 2.001200000000000E10   -3.034674390046685E-3   3.025812272235384E-3  
 2.001400000000000E10   -2.619256228093564E-3   3.535493492597232E-3  
 2.001600000000000E10   -2.011873949043177E-3   4.036179424642966E-3  
 2.001800000000000E10   -1.294437129004502E-3   4.357287464778365E-3  
 2.002000000000000E10   -5.424679910913570E-4   4.535470238346377E-3  
 2.002200000000000E10    2.628408358389237E-4   4.581123768685409E-3  
 2.002400000000000E10    1.016773598234135E-3   4.543714288530159E-3  
 2.002600000000000E10    1.810023259302532E-3   4.364503306095248E-3  
 2.002800000000000E10    2.575628396215631E-3   4.038063355112150E-3  
 2.003000000000000E10    3.346638831620416E-3   3.516793455123718E-3  
 2.003200000000000E10    3.954165106363319E-3   2.816231533264121E-3  
 2.003400000000000E10    4.365279994629048E-3   2.027570853515724E-3  
 2.003600000000000E10    4.576371838971053E-3   1.197586757314886E-3  
 2.003800000000000E10    4.626881342703178E-3   3.925455650774601E-4  
 2.004000000000000E10    4.558295804869246E-3  -3.556078790333468E-4  
 2.004200000000000E10    4.417358966613258E-3  -1.073093049337421E-3  
 2.004400000000000E10    4.173999727002265E-3  -1.771158453962409E-3  
 2.004600000000000E10    3.797486068014010E-3  -2.438629135190521E-3  
 2.004800000000000E10    3.297782224246566E-3  -2.992684567738095E-3  
 2.005000000000000E10    2.783275821625635E-3  -3.461696311003633E-3  
 2.005200000000000E10    2.215025147400153E-3  -3.886255579368201E-3  
 2.005400000000000E10    1.600982819649357E-3  -4.204502334979213E-3  
 2.005600000000000E10    9.339784622698288E-4  -4.470465279379745E-3  
 2.005800000000000E10    1.719318808884256E-4  -4.653296329908902E-3  
 2.006000000000000E10   -6.909890680280688E-4  -4.709006764316633E-3  
 2.006200000000000E10   -1.594904358901176E-3  -4.542660376309982E-3  
 2.006400000000000E10   -2.420861610314913E-3  -4.126934507102878E-3  
 2.006600000000000E10   -3.119545732912275E-3  -3.551795808483422E-3  
 2.006800000000000E10   -3.663021599712932E-3  -2.880715681699875E-3  
 2.007000000000000E10   -4.071538543535603E-3  -2.191331697466933E-3  
 2.007200000000000E10   -4.378589881974974E-3  -1.452031804041730E-3  
 2.007400000000000E10   -4.525351591040324E-3  -6.612103862147549E-4  
 2.007600000000000E10   -4.538451884815723E-3   1.514322271018668E-4  
 2.007800000000000E10   -4.365671661762913E-3   9.657284273639507E-4  
 2.008000000000000E10   -4.010907788243559E-3   1.655983416662540E-3  
 2.008200000000000E10   -3.573022029696056E-3   2.164718473652079E-3  
 2.008400000000000E10   -3.224088678159464E-3   2.554136273784586E-3  
 2.008600000000000E10   -2.893366508852737E-3   3.068994500754793E-3  
 2.008800000000000E10   -2.354537956071673E-3   3.633885379926659E-3  
 2.009000000000000E10   -1.668682685524318E-3   3.991192764384144E-3  
 2.009200000000000E10   -1.033012884565526E-3   4.169830207333521E-3  
 2.009400000000000E10   -4.372943219129445E-4   4.354174639799714E-3  
 2.009600000000000E10    3.229897170339102E-4   4.548925090075276E-3  
 2.009800000000000E10    1.262154570999153E-3   4.537052101237171E-3  
 2.010000000000000E10    2.191207863183485E-3   4.195334303572223E-3  
 2.010200000000000E10    2.970630946902582E-3   3.598318337520332E-3  
 2.010400000000000E10    3.523054429226452E-3   2.853346318811362E-3  
 2.010600000000000E10    3.849701335032782E-3   2.071279286475922E-3  
 2.010800000000000E10    4.001870297217443E-3   1.367191321297009E-3  
 2.011000000000000E10    4.075938352832089E-3   7.576956196305815E-4  
 2.011200000000000E10    4.141392853157021E-3   1.625663465762766E-4  
 2.011400000000000E10    4.157808810518480E-3  -4.928405394843768E-4  
 2.011600000000000E10    4.075536067471092E-3  -1.203321445054938E-3  
 2.011800000000000E10    3.841978793871808E-3  -1.959453250660941E-3  
 2.012000000000000E10    3.392611434798182E-3  -2.622295268753797E-3  
 2.012200000000000E10    2.779194096356263E-3  -3.092726796037621E-3  
 2.012400000000000E10    2.219381546716632E-3  -3.392561663655036E-3  
 2.012600000000000E10    1.736914250355812E-3  -3.680372458342233E-3  
 2.012800000000000E10    1.190934476462756E-3  -4.010077824609147E-3  
 2.013000000000000E10    5.282501348389176E-4  -4.277986807771672E-3  
 2.013200000000000E10   -2.719659563427055E-4  -4.370057679436826E-3  
 2.013400000000000E10   -1.054011055348832E-3  -4.289811091888467E-3  
 2.013600000000000E10   -1.846721717788850E-3  -4.094378154632854E-3  
 2.013800000000000E10   -2.638910221579818E-3  -3.709246476330324E-3  
 2.014000000000000E10   -3.289524629643118E-3  -3.102551700179408E-3  
 2.014200000000000E10   -3.740428978531266E-3  -2.341952685117262E-3  
 2.014400000000000E10   -3.947365922669387E-3  -1.610965552785791E-3  
 2.014600000000000E10   -4.090692293197838E-3  -9.959480505333180E-4  
 2.014800000000000E10   -4.225129678408489E-3  -3.845059362464344E-4  
 2.015000000000000E10   -4.264559757746297E-3   3.051666315087337E-4  
 2.015200000000000E10   -4.168609674606059E-3   1.018857425308706E-3  
 2.015400000000000E10   -3.991966342760458E-3   1.692879243673366E-3  
 2.015600000000000E10   -3.714851511895289E-3   2.390830906935864E-3  
 2.015800000000000E10   -3.280476281810323E-3   3.036144068809572E-3  
 2.016000000000000E10   -2.721873563311902E-3   3.599449080978463E-3  
 2.016200000000000E10   -2.057973288264080E-3   4.074426037316890E-3  
 2.016400000000000E10   -1.252027113496522E-3   4.441165480256817E-3  
 2.016600000000000E10   -3.924145195115772E-4   4.610801748011584E-3  
 2.016800000000000E10    4.490071706068531E-4   4.590673860806374E-3  
 2.017000000000000E10    1.270508366337989E-3   4.381562439425861E-3  
 2.017200000000000E10    2.022087029296399E-3   4.028458323582640E-3  
 2.017400000000000E10    2.681193424871674E-3   3.553366699589440E-3  
 2.017600000000000E10    3.217256030090798E-3   2.966660825121734E-3  
 2.017800000000000E10    3.572358554344119E-3   2.318625479223736E-3  
 2.018000000000000E10    3.810575309519967E-3   1.682644810550559E-3  
 2.018200000000000E10    3.942912680177410E-3   1.054439945203931E-3  
 2.018400000000000E10    4.009466356724317E-3   5.029730867439260E-4  
 2.018600000000000E10    4.076643364021072E-3  -2.157831845523358E-5  
 2.018800000000000E10    4.151249108951033E-3  -5.949851675936379E-4  
 2.019000000000000E10    4.171415697783232E-3  -1.299041698479818E-3  
 2.019200000000000E10    3.994233210651596E-3  -2.111570686849272E-3  
 2.019400000000000E10    3.609115137132230E-3  -2.857900523569113E-3  
 2.019600000000000E10    3.106120585774382E-3  -3.526264565916341E-3  
 2.019800000000000E10    2.401719436072457E-3  -4.150933976986527E-3  
 2.020000000000000E10    1.522198079418345E-3  -4.615061347269351E-3  
 2.020200000000000E10    5.050416271213764E-4  -4.788915735933885E-3  
 2.020400000000000E10   -4.228035946136606E-4  -4.670547097231504E-3  
 2.020600000000000E10   -1.163842648060786E-3  -4.395721187056215E-3  
 2.020800000000000E10   -1.841597201555600E-3  -4.042061338960021E-3  
 2.021000000000000E10   -2.410858570609564E-3  -3.559029488651841E-3  
 2.021200000000000E10   -2.763006344644560E-3  -3.124814394309565E-3  
 2.021400000000000E10   -3.164082538497485E-3  -2.827348719339496E-3  
 2.021600000000000E10   -3.711279337926780E-3  -2.393195552199527E-3  
 2.021800000000000E10   -4.205804162969192E-3  -1.689470493821082E-3  
 2.022000000000000E10   -4.449686558664213E-3  -8.615405675322739E-4  
 2.022200000000000E10   -4.508009002210550E-3  -8.463456703602903E-5  
 2.022400000000000E10   -4.474220084555356E-3   6.300633914055832E-4  
 2.022600000000000E10   -4.362343666776096E-3   1.359464606431163E-3  
 2.022800000000000E10   -4.116217490791540E-3   2.109014110087797E-3  
 2.023000000000000E10   -3.697243182816440E-3   2.840012745977736E-3  
 2.023200000000000E10   -3.142831467643933E-3   3.459214327718925E-3  
 2.023400000000000E10   -2.478365444313781E-3   3.946637740519680E-3  
 2.023600000000000E10   -1.755593062872872E-3   4.271511942792086E-3  
 2.023800000000000E10   -1.031677280322729E-3   4.504817290760486E-3  
 2.024000000000000E10   -2.482084918157830E-4   4.663712166847639E-3  
 2.024200000000000E10    5.962782974906818E-4   4.653148629047253E-3  
 2.024400000000000E10    1.367366309335203E-3   4.403123724055880E-3  
 2.024600000000000E10    1.984601547182711E-3   4.096277793984355E-3  
 2.024800000000000E10    2.625571598333341E-3   3.768653810070253E-3  
 2.025000000000000E10    3.254614965875208E-3   3.319213822208070E-3  
 2.025200000000000E10    3.795732807276058E-3   2.747651132076611E-3  
 2.025400000000000E10    4.224123186029403E-3   2.057541966622259E-3  
 2.025600000000000E10    4.535436624500120E-3   1.304026503391840E-3  
 2.025800000000000E10    4.737903036315133E-3   5.046589189370014E-4  
 2.026000000000000E10    4.829883954867170E-3  -3.315185837700596E-4  
 2.026200000000000E10    4.730739889459478E-3  -1.206528684296818E-3  
 2.026400000000000E10    4.412075521907321E-3  -2.012667249037344E-3  
 2.026600000000000E10    3.981278387162789E-3  -2.741034352508041E-3  
 2.026800000000000E10    3.448694441352546E-3  -3.386997402197234E-3  
 2.027000000000000E10    2.800875248525430E-3  -3.966400560773450E-3  
 2.027200000000000E10    1.986506287249978E-3  -4.366814216345917E-3  
 2.027400000000000E10    1.162393528100012E-3  -4.539189452052485E-3  
 2.027600000000000E10    3.854640667724861E-4  -4.591234028339386E-3  
 2.027800000000000E10   -3.620360497914163E-4  -4.546684540670228E-3  
 2.028000000000000E10   -1.028602750236054E-3  -4.428671764922731E-3  
 2.028200000000000E10   -1.706004801010828E-3  -4.261077065480713E-3  
 2.028400000000000E10   -2.433482750123482E-3  -3.975608475207363E-3  
 2.028600000000000E10   -3.126939111906622E-3  -3.484988329288217E-3  
 2.028800000000000E10   -3.663457487422375E-3  -2.852589265661843E-3  
 2.029000000000000E10   -4.025103104657229E-3  -2.208378197579288E-3  
 2.029200000000000E10   -4.334969624279090E-3  -1.559658816808628E-3  
 2.029400000000000E10   -4.623470523245174E-3  -7.979538439727033E-4  
 2.029600000000000E10   -4.747293395116742E-3   1.300311067794093E-4  
 2.029800000000000E10   -4.573167617904184E-3   1.042043311624891E-3  
 2.030000000000000E10   -4.221792166109807E-3   1.734758899719627E-3  
 2.030200000000000E10   -3.899295552760179E-3   2.336877024514072E-3  
 2.030400000000000E10   -3.475664798630241E-3   3.025136140669571E-3  
 2.030600000000000E10   -2.818139235454578E-3   3.638067127515873E-3  
 2.030800000000000E10   -2.040160963610735E-3   4.022017147185074E-3  
 2.031000000000000E10   -1.241578138433397E-3   4.173166480743224E-3  
 2.031200000000000E10   -5.406403025169570E-4   4.169271988679230E-3  
 2.031400000000000E10    8.764620401456744E-5   4.128388899527951E-3  
 2.031600000000000E10    7.037996748508312E-4   4.092010617670086E-3  
 2.031800000000000E10    1.339502874071951E-3   3.958178244324194E-3  
 2.032000000000000E10    1.955223817343790E-3   3.707547772698749E-3  
 2.032200000000000E10    2.559233195274885E-3   3.357226330855931E-3  
 2.032400000000000E10    3.117334410939137E-3   2.879645715663095E-3  
 2.032600000000000E10    3.570488398250791E-3   2.309805250807125E-3  
 2.032800000000000E10    3.919993087442385E-3   1.657903272037705E-3  
 2.033000000000000E10    4.152667766183983E-3   9.072292955408311E-4  
 2.033200000000000E10    4.195494416319294E-3   1.483759864371408E-4  
 2.033400000000000E10    4.163487676393103E-3  -5.792305577707328E-4  
 2.033600000000000E10    4.129181127351376E-3  -9.521240983618263E-4  
 2.033800000000000E10    3.674936032405607E-3  -2.078046111022065E-3  
 2.034000000000000E10    3.176740698378395E-3  -2.705410614402758E-3  
 2.034200000000000E10    2.548760539035739E-3  -3.204533074304094E-3  
 2.034400000000000E10    1.836478100790654E-3  -3.520049629043099E-3  
 2.034600000000000E10    1.126728634304011E-3  -3.616626874578221E-3  
 2.034800000000000E10    5.205113535608959E-4  -3.555077950205700E-3  
 2.035000000000000E10    2.524443900458411E-5  -3.469936546789092E-3  
 2.035200000000000E10   -4.720533425477047E-4  -3.402467012221431E-3  
 2.035400000000000E10   -9.954070246973893E-4  -3.289837194721641E-3  
 2.035600000000000E10   -1.470954025187243E-3  -3.094366507282780E-3  
 2.035800000000000E10   -1.928961577100887E-3  -2.859531852911101E-3  
 2.036000000000000E10   -2.416411431989184E-3  -2.528465292588981E-3  
 2.036200000000000E10   -2.834631555518251E-3  -2.082828840493788E-3  
 2.036400000000000E10   -3.175115388139715E-3  -1.574724610825932E-3  
 2.036600000000000E10   -3.431400488257225E-3  -9.650822188475251E-4  
 2.036800000000000E10   -3.525765727699540E-3  -2.639864504561518E-4  
 2.037000000000000E10   -3.405400373639516E-3   4.468594719425856E-4  
 2.037200000000000E10   -3.136657577950830E-3   1.059998301099296E-3  
 2.037400000000000E10   -2.769923446998920E-3   1.513675284962871E-3  
 2.037600000000000E10   -2.396201275082098E-3   1.818470720109749E-3  
 2.037800000000000E10   -2.070703221783962E-3   2.082015922362054E-3  
 2.038000000000000E10   -1.732678934471843E-3   2.347761819737010E-3  
 2.038200000000000E10   -1.341294485753701E-3   2.569369773414952E-3  
 2.038400000000000E10   -9.465585484307399E-4   2.732357214331444E-3  
 2.038600000000000E10   -4.801873249191516E-4   2.883445419785050E-3  
 2.038800000000000E10    7.873608707019162E-5   2.907827306814768E-3  
 2.039000000000000E10    6.141573432143089E-4   2.764465669629935E-3  
 2.039200000000000E10    1.043085201447945E-3   2.542056813031252E-3  
 2.039400000000000E10    1.384663394146404E-3   2.267008989382490E-3  
 2.039600000000000E10    1.635391489361172E-3   2.003261030444669E-3  
 2.039800000000000E10    1.914512621882705E-3   1.738683133742508E-3  
 2.040000000000000E10    2.165548046360965E-3   1.388690116769278E-3  
 2.040200000000000E10    2.312515974389735E-3   1.010210517747903E-3  
 2.040400000000000E10    2.418836337272768E-3   6.423402354149955E-4  
 2.040600000000000E10    2.471832920693689E-3   2.247324245004559E-4  
 2.040800000000000E10    2.423542017048156E-3  -1.877174302389454E-4  
 2.041000000000000E10    2.335812364716405E-3  -5.850697397599342E-4  
 2.041200000000000E10    2.164433070711424E-3  -9.616551623265778E-4  
 2.041400000000000E10    1.926084201392017E-3  -1.261468945117093E-3  
 2.041600000000000E10    1.690515546978992E-3  -1.494479806875281E-3  
 2.041800000000000E10    1.433809190114708E-3  -1.750959852353935E-3  
 2.042000000000000E10    1.110482880454741E-3  -1.950634522708478E-3  
 2.042200000000000E10    7.438479066125038E-4  -2.063545658552077E-3  
 2.042400000000000E10    3.692881147776743E-4  -2.100687810323305E-3  
 2.042600000000000E10    2.511380814582854E-5  -2.055525010808107E-3  
 2.042800000000000E10   -3.100457887975844E-4  -1.950936271222654E-3  
 2.043000000000000E10   -5.679031009891828E-4  -1.779206824362462E-3  
 2.043200000000000E10   -7.100130314938725E-4  -1.604819473419569E-3  
 2.043400000000000E10   -8.008628070388957E-4  -1.467053055544787E-3  
 2.043600000000000E10   -8.966161547527638E-4  -1.424162655804353E-3  
 2.043800000000000E10   -1.088459856727701E-3  -1.442552833059044E-3  
 2.044000000000000E10   -1.383683260495740E-3  -1.382925513165969E-3  
 2.044200000000000E10   -1.725151768402645E-3  -1.207831581583086E-3  
 2.044400000000000E10   -2.060291248109238E-3  -8.574062512819599E-4  
 2.044600000000000E10   -2.228000043190005E-3  -3.179952341999951E-4  
 2.044800000000000E10   -2.133024859322626E-3   2.091724456454639E-4  
 2.045000000000000E10   -1.891130253810574E-3   5.184007401831081E-4  
 2.045200000000000E10   -1.735992749785016E-3   6.439372786481716E-4  
 2.045400000000000E10   -1.676792987438356E-3   8.245206281347318E-4  
 2.045600000000000E10   -1.569687453512516E-3   1.083225363945979E-3  
 2.045800000000000E10   -1.418960891537553E-3   1.325386251541384E-3  
 2.046000000000000E10   -1.208747448227196E-3   1.564808508933143E-3  
 2.046200000000000E10   -9.375861572837574E-4   1.775656496232123E-3  
 2.046400000000000E10   -6.079181653654410E-4   1.925863032401712E-3  
 2.046600000000000E10   -2.286971092546060E-4   1.988642929512778E-3  
 2.046800000000000E10    1.308253324370729E-4   1.965722661281442E-3  
 2.047000000000000E10    4.379419796025082E-4   1.881181390346661E-3  
 2.047200000000000E10    6.995420517790834E-4   1.721989698305634E-3  
 2.047400000000000E10    8.858310412270604E-4   1.536677019486641E-3  
 2.047600000000000E10    1.032267032438361E-3   1.428139700703783E-3  
 2.047800000000000E10    1.224263262199123E-3   1.326911940446331E-3  
 2.048000000000000E10    1.449033698457995E-3   1.169793358084137E-3  
 2.048200000000000E10    1.668790315082412E-3   9.360382617968654E-4  
 2.048400000000000E10    1.832081027972846E-3   6.102782977388505E-4  
 2.048600000000000E10    1.900268152333152E-3   2.641443523900284E-4  
 2.048800000000000E10    1.903431492938120E-3  -5.194228382337049E-5  
 2.049000000000000E10    1.831280835041846E-3  -3.411984953233100E-4  
 2.049200000000000E10    1.703421300691035E-3  -5.611890688377583E-4  
 2.049400000000000E10    1.616250533886530E-3  -7.271227623726944E-4  
 2.049600000000000E10    1.570856537853862E-3  -9.127244731284863E-4  
 2.049800000000000E10    1.509164590790960E-3  -1.141021091399002E-3  
 2.050000000000000E10    1.425540385146936E-3  -1.419953224364163E-3  
 2.050200000000000E10    1.258779721001140E-3  -1.762471545522136E-3  
 2.050400000000000E10    9.137640396753948E-4  -2.129987569203900E-3  
 2.050600000000000E10    4.067348516086278E-4  -2.385675636936486E-3  
 2.050800000000000E10   -1.760734400401513E-4  -2.444723066241469E-3  
 2.051000000000000E10   -7.585717586478519E-4  -2.265833827011564E-3  
 2.051200000000000E10   -1.167285369628650E-3  -1.865442080515219E-3  
 2.051400000000000E10   -1.294878976890978E-3  -1.444027945974175E-3  
 2.051600000000000E10   -1.271913398666607E-3  -1.184597157263830E-3  
 2.051800000000000E10   -1.308898171294987E-3  -1.095017809190868E-3  
 2.052000000000000E10   -1.471311970682884E-3  -9.793427680837520E-4  
 2.052200000000000E10   -1.611115853589626E-3  -7.440564775965925E-4  
 2.052400000000000E10   -1.671144109288300E-3  -5.049879488788178E-4  
 2.052600000000000E10   -1.697969407326094E-3  -3.255877915459375E-4  
 2.052800000000000E10   -1.795155418760799E-3  -1.877304115803355E-4  
 2.053000000000000E10   -1.952084002694414E-3   6.288285195621960E-5  
 2.053200000000000E10   -2.021264276225810E-3   3.895242799096454E-4  
 2.053400000000000E10   -2.034041001518936E-3   7.273937664627110E-4  
 2.053600000000000E10   -1.970768216307517E-3   1.155006766813681E-3  
 2.053800000000000E10   -1.723108567400939E-3   1.605744554120818E-3  
 2.054000000000000E10   -1.299901212922033E-3   1.915650962518505E-3  
 2.054200000000000E10   -8.851827401092945E-4   2.040634391668403E-3  
 2.054400000000000E10   -5.350290847235120E-4   2.105303752569505E-3  
 2.054600000000000E10   -1.848289749533352E-4   2.145434611902377E-3  
 2.054800000000000E10    1.921367629957213E-4   2.118643879154582E-3  
 2.055000000000000E10    5.314355808810366E-4   1.976483573355241E-3  
 2.055200000000000E10    7.118377403390629E-4   1.796466766937096E-3  
 2.055400000000000E10    8.228700536153752E-4   1.697990238482570E-3  
 2.055600000000000E10    9.819194631375098E-4   1.680157913389489E-3  
