#  HZ   S   RI   R     50.00 
! Rohde & Schwarz ZVA40 4Ports - Version 3.90 - 1145.1110k42 SN: 100403
! Date: 2023-10-03 11:39:54
! Measurement: S12 
! 
 2.000000000000000E10   -6.405165250827043E-4  -3.170247120713747E-3  
 2.000200000000000E10   -1.166495975296669E-3  -3.043223957151727E-3  
 2.000400000000000E10   -1.665059097663120E-3  -2.777962747064454E-3  
 2.000600000000000E10   -2.078971523722565E-3  -2.435993541170050E-3  
 2.000800000000000E10   -2.381997476159423E-3  -2.120817011153257E-3  
 2.001000000000000E10   -2.733623738297158E-3  -1.866589196854168E-3  
 2.001200000000000E10   -3.182145603070106E-3  -1.498596691009071E-3  
 2.001400000000000E10   -3.583523220624086E-3  -8.993921758331083E-4  
 2.001600000000000E10   -3.773352596908808E-3  -1.020053476639549E-4  
 2.001800000000000E10   -3.703242547258184E-3   6.510153481805767E-4  
 2.002000000000000E10   -3.488462685641868E-3   1.319339455760740E-3  
 2.002200000000000E10   -3.145354006577421E-3   1.963153300392959E-3  
 2.002400000000000E10   -2.715718432295102E-3   2.523360515220298E-3  
 2.002600000000000E10   -2.147880667406652E-3   2.966516901290527E-3  
 2.002800000000000E10   -1.553341138383581E-3   3.261711232847086E-3  
 2.003000000000000E10   -8.901635128832252E-4   3.408796110845827E-3  
 2.003200000000000E10   -3.210626934930959E-4   3.359263021222972E-3  
 2.003400000000000E10    1.643683283839858E-4   3.272999560943357E-3  
 2.003600000000000E10    5.976942139332770E-4   3.175180922779772E-3  
 2.003800000000000E10    1.017643725154577E-3   3.084139665588737E-3  
 2.004000000000000E10    1.478864613023621E-3   2.966243825438950E-3  
 2.004200000000000E10    1.988307822978607E-3   2.737490581003605E-3  
 2.004400000000000E10    2.444850789659002E-3   2.375695785438573E-3  
 2.004600000000000E10    2.835077940727826E-3   1.966091873193229E-3  
 2.004800000000000E10    3.144433721899987E-3   1.505872713298434E-3  
 2.005000000000000E10    3.414666081813199E-3   9.806417791103877E-4  
 2.005200000000000E10    3.574172914442089E-3   3.817563809678650E-4  
 2.005400000000000E10    3.604607596234592E-3  -2.292894586120114E-4  
 2.005600000000000E10    3.574871061438765E-3  -8.395750817187407E-4  
 2.005800000000000E10    3.443924425583747E-3  -1.480943588022557E-3  
 2.006000000000000E10    3.168833390292195E-3  -2.140405053203857E-3  
 2.006200000000000E10    2.718391164240462E-3  -2.729936442510398E-3  
 2.006400000000000E10    2.142825370861425E-3  -3.211117797979602E-3  
 2.006600000000000E10    1.467315924215924E-3  -3.587295542712565E-3  
 2.006800000000000E10    7.292283957617151E-4  -3.741013101750503E-3  
 2.007000000000000E10    1.379910018941802E-5  -3.714763223090106E-3  
 2.007200000000000E10   -6.307021464669595E-4  -3.543963880036717E-3  
 2.007400000000000E10   -1.188978324299333E-3  -3.312430956780359E-3  
 2.007600000000000E10   -1.715230022522587E-3  -2.979322759158634E-3  
 2.007800000000000E10   -2.089257541767977E-3  -2.518674764023335E-3  
 2.008000000000000E10   -2.267372061463970E-3  -2.136574937375608E-3  
 2.008200000000000E10   -2.457849396806625E-3  -1.891338516509644E-3  
 2.008400000000000E10   -2.832320501544962E-3  -1.667961771427482E-3  
 2.008600000000000E10   -3.256636904552579E-3  -1.187719663398134E-3  
 2.008800000000000E10   -3.473796924852112E-3  -5.421308300423402E-4  
 2.009000000000000E10   -3.513172380971136E-3   1.044801918194733E-4  
 2.009200000000000E10   -3.453262745299274E-3   7.333974871370529E-4  
 2.009400000000000E10   -3.321524243801832E-3   1.370549904768942E-3  
 2.009600000000000E10   -2.994961726168792E-3   2.082407017479892E-3  
 2.009800000000000E10   -2.382915156582992E-3   2.641889835811324E-3  
 2.010000000000000E10   -1.697265422316613E-3   2.885102492722649E-3  
 2.010200000000000E10   -1.095345524070716E-3   2.946729521715531E-3  
 2.010400000000000E10   -6.308990349579189E-4   2.893900490124469E-3  
 2.010600000000000E10   -3.170974960085005E-4   2.835691958251927E-3  
 2.010800000000000E10   -1.647755400174192E-5   2.878487342968584E-3  
 2.011000000000000E10    3.808457673854989E-4   2.957534846953220E-3  
 2.011200000000000E10    9.051372676535891E-4   2.990930867208927E-3  
 2.011400000000000E10    1.512618222342873E-3   2.856394810671056E-3  
 2.011600000000000E10    2.109447985680567E-3   2.513434591323689E-3  
 2.011800000000000E10    2.522116440727755E-3   1.964686585038349E-3  
 2.012000000000000E10    2.715193623400949E-3   1.422358124896332E-3  
 2.012200000000000E10    2.824024185193358E-3   9.678674697944965E-4  
 2.012400000000000E10    2.962214682527163E-3   5.731360568595982E-4  
 2.012600000000000E10    3.089414116133143E-3   8.533765045555171E-5  
 2.012800000000000E10    3.066544990158744E-3  -4.926795954816043E-4  
 2.013000000000000E10    2.912715336100923E-3  -1.055447479572009E-3  
 2.013200000000000E10    2.647464198094827E-3  -1.561374256939248E-3  
 2.013400000000000E10    2.319880640479150E-3  -2.013033411155145E-3  
 2.013600000000000E10    1.874882965003727E-3  -2.421061654954597E-3  
 2.013800000000000E10    1.295218748661379E-3  -2.679254506128254E-3  
 2.014000000000000E10    7.195368547130515E-4  -2.728826297378099E-3  
 2.014200000000000E10    2.704329467464790E-4  -2.636269536904163E-3  
 2.014400000000000E10   -2.225914364249481E-5  -2.571611363371766E-3  
 2.014600000000000E10   -3.526065535239738E-4  -2.576414901004346E-3  
 2.014800000000000E10   -7.667029858566822E-4  -2.510892511862848E-3  
 2.015000000000000E10   -1.171767004524116E-3  -2.330071620505165E-3  
 2.015200000000000E10   -1.490490998279441E-3  -2.101187413144443E-3  
 2.015400000000000E10   -1.809250813460461E-3  -1.892260668143906E-3  
 2.015600000000000E10   -2.107697495914720E-3  -1.606232314198106E-3  
 2.015800000000000E10   -2.388915762788168E-3  -1.269143113556008E-3  
 2.016000000000000E10   -2.650055749755767E-3  -8.496336328486602E-4  
 2.016200000000000E10   -2.830774281863813E-3  -3.623997677264184E-4  
 2.016400000000000E10   -2.879861104129642E-3   1.879920012099858E-4  
 2.016600000000000E10   -2.775589254236332E-3   7.527497277974532E-4  
 2.016800000000000E10   -2.524146629083488E-3   1.275660711582060E-3  
 2.017000000000000E10   -2.161789771721319E-3   1.660790423759156E-3  
 2.017200000000000E10   -1.779298466216359E-3   1.948332293304029E-3  
 2.017400000000000E10   -1.406114703665177E-3   2.130684546298451E-3  
 2.017600000000000E10   -1.047725849612444E-3   2.220593737783256E-3  
 2.017800000000000E10   -7.789194997813967E-4   2.299915774966832E-3  
 2.018000000000000E10   -5.000996407707809E-4   2.440670332698911E-3  
 2.018200000000000E10   -1.863327574769587E-4   2.581699208046000E-3  
 2.018400000000000E10    1.872073173419469E-4   2.707446330330438E-3  
 2.018600000000000E10    6.761466308186452E-4   2.815925818005646E-3  
 2.018800000000000E10    1.314362161792815E-3   2.798413305922791E-3  
 2.019000000000000E10    2.000526680300633E-3   2.526673264111634E-3  
 2.019200000000000E10    2.562712024276455E-3   2.010922741006922E-3  
 2.019400000000000E10    2.918331952834571E-3   1.365044335317281E-3  
 2.019600000000000E10    3.093842537728725E-3   6.528713749031779E-4  
 2.019800000000000E10    3.025760451607683E-3  -4.823660034431937E-5  
 2.020000000000000E10    2.780080238288200E-3  -5.930901086820222E-4  
 2.020200000000000E10    2.448767268409332E-3  -9.358796329858403E-4  
 2.020400000000000E10    2.178224010599984E-3  -1.119631627160642E-3  
 2.020600000000000E10    2.030733981411214E-3  -1.305029210117128E-3  
 2.020800000000000E10    1.874690401126390E-3  -1.543903067983963E-3  
 2.021000000000000E10    1.761846537529319E-3  -1.765026176279342E-3  
 2.021200000000000E10    1.699450568089055E-3  -2.112195439015826E-3  
 2.021400000000000E10    1.388741031944476E-3  -2.650467791008177E-3  
 2.021600000000000E10    7.608556253318158E-4  -3.073006713141998E-3  
 2.021800000000000E10    2.819903575409963E-5  -3.209716821503309E-3  
 2.022000000000000E10   -6.276620616618958E-4  -3.108909198393425E-3  
 2.022200000000000E10   -1.169793863987757E-3  -2.889083534548129E-3  
 2.022400000000000E10   -1.648264467129829E-3  -2.606275068871953E-3  
 2.022600000000000E10   -2.078152097830618E-3  -2.260133546466629E-3  
 2.022800000000000E10   -2.458903938531876E-3  -1.852519663602666E-3  
 2.023000000000000E10   -2.746759267109964E-3  -1.373950685201972E-3  
 2.023200000000000E10   -2.920261161677816E-3  -8.519343811915154E-4  
 2.023400000000000E10   -3.003017597452358E-3  -2.917625242844224E-4  
 2.023600000000000E10   -2.978443357817553E-3   2.227038111649799E-4  
 2.023800000000000E10   -2.940981364291576E-3   7.021766181828249E-4  
 2.024000000000000E10   -2.806940469545899E-3   1.262771681434027E-3  
 2.024200000000000E10   -2.460940396068273E-3   1.774944740140604E-3  
 2.024400000000000E10   -2.037598009876632E-3   2.090712836771100E-3  
 2.024600000000000E10   -1.692074700258672E-3   2.340787107607833E-3  
 2.024800000000000E10   -1.318919528448196E-3   2.599817830034428E-3  
 2.025000000000000E10   -8.864154396751139E-4   2.773155510011647E-3  
 2.025200000000000E10   -4.203411291301665E-4   2.882446067545701E-3  
 2.025400000000000E10    5.075184566926006E-5   2.931936557784125E-3  
 2.025600000000000E10    5.320539327200365E-4   2.947203504542510E-3  
 2.025800000000000E10    1.044908792849768E-3   2.887804371615251E-3  
 2.026000000000000E10    1.568329292004583E-3   2.720289811905888E-3  
 2.026200000000000E10    2.075625238595186E-3   2.413238381484041E-3  
 2.026400000000000E10    2.507373638865021E-3   2.008494826171685E-3  
 2.026600000000000E10    2.910230869289350E-3   1.514546486928507E-3  
 2.026800000000000E10    3.169059969001899E-3   9.012778647485432E-4  
 2.027000000000000E10    3.200213657692075E-3   2.279314945486409E-4  
 2.027200000000000E10    3.027472032785968E-3  -3.491382769964360E-4  
 2.027400000000000E10    2.851085444153459E-3  -7.488692041348530E-4  
 2.027600000000000E10    2.698944847064990E-3  -1.130944225695674E-3  
 2.027800000000000E10    2.524195989179943E-3  -1.478683962314217E-3  
 2.028000000000000E10    2.370118844771275E-3  -1.865442186869957E-3  
 2.028200000000000E10    2.103492557243617E-3  -2.328843033562104E-3  
 2.028400000000000E10    1.663464919181058E-3  -2.771399121869494E-3  
 2.028600000000000E10    1.132950945584863E-3  -3.092080035626337E-3  
 2.028800000000000E10    5.363708111905942E-4  -3.264622426488334E-3  
 2.029000000000000E10   -8.665403098954509E-5  -3.333208858276959E-3  
 2.029200000000000E10   -7.713970607491555E-4  -3.294526599347592E-3  
 2.029400000000000E10   -1.465851290116984E-3  -3.025388552082910E-3  
 2.029600000000000E10   -1.970653922331554E-3  -2.541085256746522E-3  
 2.029800000000000E10   -2.234200015664101E-3  -2.018349529761408E-3  
 2.030000000000000E10   -2.365982711867050E-3  -1.630735281785881E-3  
 2.030200000000000E10   -2.554131249241807E-3  -1.262978452292306E-3  
 2.030400000000000E10   -2.729684424897035E-3  -8.112522881236618E-4  
 2.030600000000000E10   -2.761785009944881E-3  -3.584518207288865E-4  
 2.030800000000000E10   -2.697051528634297E-3   4.967257808419635E-5  
 2.031000000000000E10   -2.594719744390912E-3   4.056059276788600E-4  
 2.031200000000000E10   -2.519991930091271E-3   6.940375401259021E-4  
 2.031400000000000E10   -2.505919059600543E-3   1.017270165633548E-3  
 2.031600000000000E10   -2.440008748736647E-3   1.431456646295610E-3  
 2.031800000000000E10   -2.220217233385753E-3   1.892463424829422E-3  
 2.032000000000000E10   -1.874700111026565E-3   2.260051098548704E-3  
 2.032200000000000E10   -1.463430390382807E-3   2.581588889437694E-3  
 2.032400000000000E10   -1.016850716917327E-3   2.829268781675233E-3  
 2.032600000000000E10   -5.288307179903819E-4   2.995052271419102E-3  
 2.032800000000000E10    3.707348864904984E-5   3.060136568146172E-3  
 2.033000000000000E10    5.868925277523146E-4   3.003957595124290E-3  
 2.033200000000000E10    1.080834944904955E-3   2.877261791447247E-3  
 2.033400000000000E10    1.583638346616041E-3   2.699206333124528E-3  
 2.033600000000000E10    1.850983235743587E-3   2.535690079201703E-3  
 2.033800000000000E10    2.456147163347514E-3   1.834064851411515E-3  
 2.034000000000000E10    2.646188268920890E-3   1.266841384306274E-3  
 2.034200000000000E10    2.701400865421251E-3   7.612278331416073E-4  
 2.034400000000000E10    2.634051385232144E-3   3.460038311055137E-4  
 2.034600000000000E10    2.519635500869265E-3   4.043072031991971E-5  
 2.034800000000000E10    2.501303209336820E-3  -1.977629909998979E-4  
 2.035000000000000E10    2.596484971474166E-3  -4.954843035968090E-4  
 2.035200000000000E10    2.632800049872862E-3  -9.433951409947542E-4  
 2.035400000000000E10    2.512789581453911E-3  -1.425324460595019E-3  
 2.035600000000000E10    2.296820351922954E-3  -1.849599963019568E-3  
 2.035800000000000E10    1.993929786193702E-3  -2.287110650084085E-3  
 2.036000000000000E10    1.528767498072099E-3  -2.698521655811756E-3  
 2.036200000000000E10    9.867406182887931E-4  -2.965755821033209E-3  
 2.036400000000000E10    3.753114756869359E-4  -3.070428062023388E-3  
 2.036600000000000E10   -2.405507262597826E-4  -3.002559826536864E-3  
 2.036800000000000E10   -7.766051868977096E-4  -2.806008258765495E-3  
 2.037000000000000E10   -1.180445176066348E-3  -2.521233624537234E-3  
 2.037200000000000E10   -1.445539873438301E-3  -2.236130216193420E-3  
 2.037400000000000E10   -1.622516498038615E-3  -2.027163368270353E-3  
 2.037600000000000E10   -1.839039657540895E-3  -1.907589560788539E-3  
 2.037800000000000E10   -2.208445367782756E-3  -1.716283477704834E-3  
 2.038000000000000E10   -2.596834527880506E-3  -1.382380801563462E-3  
 2.038200000000000E10   -2.883002256836605E-3  -9.432600194553811E-4  
 2.038400000000000E10   -3.087952784780000E-3  -4.077219992824313E-4  
 2.038600000000000E10   -3.170489324946647E-3   2.610176048215686E-4  
 2.038800000000000E10   -3.009952691004233E-3   9.105342690384500E-4  
 2.039000000000000E10   -2.747196031527387E-3   1.394569244304741E-3  
 2.039200000000000E10   -2.456384512630326E-3   1.807698587611042E-3  
 2.039400000000000E10   -2.119142622514456E-3   2.172415886350252E-3  
 2.039600000000000E10   -1.714825819901846E-3   2.489797227705519E-3  
 2.039800000000000E10   -1.219401282637760E-3   2.754036595837938E-3  
 2.040000000000000E10   -7.540948680360561E-4   2.846311855440339E-3  
 2.040200000000000E10   -3.800799981777178E-4   2.891842482818498E-3  
 2.040400000000000E10    6.171140733015453E-5   2.982282329833618E-3  
 2.040600000000000E10    6.016184041207588E-4   3.006475874119335E-3  
 2.040800000000000E10    1.160769279252876E-3   2.931143226170982E-3  
 2.041000000000000E10    1.761772643981709E-3   2.698052295104221E-3  
 2.041200000000000E10    2.261614099282910E-3   2.280538108337809E-3  
 2.041400000000000E10    2.604134346323985E-3   1.796540968051112E-3  
 2.041600000000000E10    2.886515058990982E-3   1.252230274042598E-3  
 2.041800000000000E10    3.036289631078641E-3   6.416361925571607E-4  
 2.042000000000000E10    2.980641718884861E-3   8.826848406223926E-5  
 2.042200000000000E10    2.830133342218620E-3  -4.109636388926043E-4  
 2.042400000000000E10    2.603350500403731E-3  -8.380806108039839E-4  
 2.042600000000000E10    2.357088244968543E-3  -1.154109309599908E-3  
 2.042800000000000E10    2.119152901556205E-3  -1.391806389653573E-3  
 2.043000000000000E10    1.939373530654444E-3  -1.610237928279848E-3  
 2.043200000000000E10    1.772220009351494E-3  -1.837459651546346E-3  
 2.043400000000000E10    1.582744751229055E-3  -2.102989280872323E-3  
 2.043600000000000E10    1.364053257189139E-3  -2.476809623961648E-3  
 2.043800000000000E10    9.893372836005357E-4  -2.895996121137783E-3  
 2.044000000000000E10    3.596455908673643E-4  -3.201401223325068E-3  
 2.044200000000000E10   -4.070984098318689E-4  -3.262039032523279E-3  
 2.044400000000000E10   -1.140133430318976E-3  -3.050511306220735E-3  
 2.044600000000000E10   -1.703780092712906E-3  -2.613398039506542E-3  
 2.044800000000000E10   -2.018123822010778E-3  -2.097648904762335E-3  
 2.045000000000000E10   -2.151214164095345E-3  -1.723786604728688E-3  
 2.045200000000000E10   -2.324151246015121E-3  -1.462293323129416E-3  
 2.045400000000000E10   -2.580305751137160E-3  -1.110228921148788E-3  
 2.045600000000000E10   -2.795856204573755E-3  -7.007714636899807E-4  
 2.045800000000000E10   -2.963578742411402E-3  -2.079286312908625E-4  
 2.046000000000000E10   -2.998471078980301E-3   4.060933036574473E-4  
 2.046200000000000E10   -2.828611569755056E-3   1.026832347701269E-3  
 2.046400000000000E10   -2.494489946575077E-3   1.528802586512433E-3  
 2.046600000000000E10   -2.070835782904868E-3   1.886278589221615E-3  
 2.046800000000000E10   -1.663775545441442E-3   2.094585974528282E-3  
 2.047000000000000E10   -1.303856161905936E-3   2.236920193320623E-3  
 2.047200000000000E10   -9.359668065034958E-4   2.335945696190552E-3  
 2.047400000000000E10   -6.122242193669081E-4   2.410772196189673E-3  
 2.047600000000000E10   -3.311041849277293E-4   2.526578752117025E-3  
 2.047800000000000E10    7.312510772155493E-5   2.632585681836914E-3  
 2.048000000000000E10    5.586545513425437E-4   2.629225444117631E-3  
 2.048200000000000E10    1.038476182320328E-3   2.516977739071957E-3  
 2.048400000000000E10    1.484681714188170E-3   2.293520503573948E-3  
 2.048600000000000E10    1.841332280525455E-3   1.974546022851158E-3  
 2.048800000000000E10    2.118414595585179E-3   1.644944901474648E-3  
 2.049000000000000E10    2.324262608049645E-3   1.266044396389690E-3  
 2.049200000000000E10    2.472458614243402E-3   8.806731827833035E-4  
 2.049400000000000E10    2.604317834117899E-3   5.427278832670439E-4  
 2.049600000000000E10    2.717345685663599E-3   1.676959908325915E-4  
 2.049800000000000E10    2.813186099821771E-3  -2.564509685961875E-4  
 2.050000000000000E10    2.897404496454530E-3  -7.758069011658706E-4  
 2.050200000000000E10    2.862514384711782E-3  -1.436238586730152E-3  
 2.050400000000000E10    2.565485226956231E-3  -2.151308995154169E-3  
 2.050600000000000E10    2.019932717774754E-3  -2.754337844197397E-3  
 2.050800000000000E10    1.259287448461961E-3  -3.121493522215773E-3  
 2.051000000000000E10    4.138138147364199E-4  -3.166838825024941E-3  
 2.051200000000000E10   -2.540162440035838E-4  -2.927589195745963E-3  
 2.051400000000000E10   -6.515898405470783E-4  -2.594993423877491E-3  
 2.051600000000000E10   -9.047419708049685E-4  -2.325947637911196E-3  
 2.051800000000000E10   -1.164904648989991E-3  -2.157879415554581E-3  
 2.052000000000000E10   -1.476377158218788E-3  -1.968576753925946E-3  
 2.052200000000000E10   -1.731665951579258E-3  -1.670855619185777E-3  
 2.052400000000000E10   -1.861285754582949E-3  -1.403815591604346E-3  
 2.052600000000000E10   -1.979618678214374E-3  -1.231188342596094E-3  
 2.052800000000000E10   -2.233054402663752E-3  -1.054724605098643E-3  
 2.053000000000000E10   -2.547503267932270E-3  -6.810645702191526E-4  
 2.053200000000000E10   -2.714246175148421E-3  -1.947739575472143E-4  
 2.053400000000000E10   -2.750832647844046E-3   2.700458819701992E-4  
 2.053600000000000E10   -2.725100532794992E-3   8.219455765491284E-4  
 2.053800000000000E10   -2.542306720796559E-3   1.438067712890053E-3  
 2.054000000000000E10   -2.125752236073216E-3   1.955023440704854E-3  
 2.054200000000000E10   -1.618133991508297E-3   2.266247334234693E-3  
 2.054400000000000E10   -1.127094176977321E-3   2.422465416775258E-3  
 2.054600000000000E10   -6.597872114205665E-4   2.441833304517247E-3  
 2.054800000000000E10   -2.546116178294782E-4   2.387085679435620E-3  
 2.055000000000000E10    4.511895154050930E-5   2.313084279497465E-3  
 2.055200000000000E10    2.869222549230068E-4   2.261708982081877E-3  
 2.055400000000000E10    5.462182172643090E-4   2.234919126042062E-3  
 2.055600000000000E10    8.808652077008177E-4   2.190927931762956E-3  
