#  HZ   S   RI   R     50.00 
! Rohde & Schwarz ZVA40 4Ports - Version 3.90 - 1145.1110k42 SN: 100403
! Date: 2023-10-03 11:41:16
! Measurement: S12 
! 
 2.000000000000000E10    1.051475037569123E-4  -5.689668124196707E-3  
 2.000200000000000E10   -7.713426876077314E-4  -5.670244242122145E-3  
 2.000400000000000E10   -1.651554914582291E-3  -5.401101434764304E-3  
 2.000600000000000E10   -2.398444983510324E-3  -4.985801225965038E-3  
 2.000800000000000E10   -3.049757791522109E-3  -4.577045587615835E-3  
 2.001000000000000E10   -3.766940794540225E-3  -4.207033842204162E-3  
 2.001200000000000E10   -4.561043574394268E-3  -3.696756354061726E-3  
 2.001400000000000E10   -5.251986578244855E-3  -2.903875889095628E-3  
 2.001600000000000E10   -5.717318769498373E-3  -1.876600773683117E-3  
 2.001800000000000E10   -5.996760820257076E-3  -8.408586741827523E-4  
 2.002000000000000E10   -6.159742006365165E-3   2.160116478585729E-4  
 2.002200000000000E10   -6.081717393510504E-3   1.393427187002000E-3  
 2.002400000000000E10   -5.740039021834548E-3   2.512683215217642E-3  
 2.002600000000000E10   -5.079064288257082E-3   3.539925696972160E-3  
 2.002800000000000E10   -4.274263995251170E-3   4.325916875659685E-3  
 2.003000000000000E10   -3.427713764486490E-3   4.895469748679503E-3  
 2.003200000000000E10   -2.603098471292560E-3   5.301283741438831E-3  
 2.003400000000000E10   -1.708851013344104E-3   5.575467280491636E-3  
 2.003600000000000E10   -7.829330437586725E-4   5.716964021831016E-3  
 2.003800000000000E10    1.100749738983678E-4   5.803308035764430E-3  
 2.004000000000000E10    1.013129712427380E-3   5.808934138190967E-3  
 2.004200000000000E10    1.955912304743205E-3   5.625233123147930E-3  
 2.004400000000000E10    2.875631123229310E-3   5.238730494898779E-3  
 2.004600000000000E10    3.730438356460245E-3   4.699720920603953E-3  
 2.004800000000000E10    4.518767910791033E-3   4.082963997383177E-3  
 2.005000000000000E10    5.240657148353848E-3   3.304905993978919E-3  
 2.005200000000000E10    5.769761785128971E-3   2.355029185612997E-3  
 2.005400000000000E10    6.074442907615945E-3   1.317604679188887E-3  
 2.005600000000000E10    6.261251429900712E-3   2.272673428021257E-4  
 2.005800000000000E10    6.291737337309271E-3  -8.930572614729130E-4  
 2.006000000000000E10    6.078415050136824E-3  -2.045387577518453E-3  
 2.006200000000000E10    5.547057233612847E-3  -3.120192309358606E-3  
 2.006400000000000E10    4.774821582997656E-3  -3.994700159693575E-3  
 2.006600000000000E10    3.925684925720648E-3  -4.668428775291017E-3  
 2.006800000000000E10    3.110913640279094E-3  -5.173790360582464E-3  
 2.007000000000000E10    2.268583177485400E-3  -5.600883872650657E-3  
 2.007200000000000E10    1.299715261722421E-3  -5.863673266391328E-3  
 2.007400000000000E10    2.780865445261661E-4  -5.949941572997675E-3  
 2.007600000000000E10   -7.594666547245451E-4  -5.881929574649275E-3  
 2.007800000000000E10   -1.663149794402682E-3  -5.611709037358747E-3  
 2.008000000000000E10   -2.377886092290282E-3  -5.281538311622026E-3  
 2.008200000000000E10   -3.119163807297563E-3  -4.946230220849868E-3  
 2.008400000000000E10   -3.986669198414426E-3  -4.547250641072974E-3  
 2.008600000000000E10   -4.921241979586122E-3  -3.838673920980023E-3  
 2.008800000000000E10   -5.611459304935035E-3  -2.868884697234558E-3  
 2.009000000000000E10   -6.019148078781587E-3  -1.863722328706012E-3  
 2.009200000000000E10   -6.291174985192442E-3  -7.589903026301828E-4  
 2.009400000000000E10   -6.373716391806986E-3   4.690891745454277E-4  
 2.009600000000000E10   -6.171591723636714E-3   1.741762011438424E-3  
 2.009800000000000E10   -5.630124969706860E-3   2.834531285995503E-3  
 2.010000000000000E10   -4.885818349358477E-3   3.663042666574504E-3  
 2.010200000000000E10   -4.020618211569979E-3   4.315709603237518E-3  
 2.010400000000000E10   -3.200855793109463E-3   4.738490781344382E-3  
 2.010600000000000E10   -2.466516689983783E-3   5.074889330124415E-3  
 2.010800000000000E10   -1.744113194204315E-3   5.388834962138424E-3  
 2.011000000000000E10   -9.228208592379997E-4   5.626052117872018E-3  
 2.011200000000000E10    1.247228036295433E-5   5.768118253736585E-3  
 2.011400000000000E10    1.035914356808788E-3   5.802480434929884E-3  
 2.011600000000000E10    2.132289953828778E-3   5.633304625703598E-3  
 2.011800000000000E10    3.140254880382140E-3   5.130050525667123E-3  
 2.012000000000000E10    3.890526044056005E-3   4.400348221814192E-3  
 2.012200000000000E10    4.492580982637995E-3   3.656518915783108E-3  
 2.012400000000000E10    5.081072530168811E-3   2.890983628063107E-3  
 2.012600000000000E10    5.584335288055886E-3   2.017285960818423E-3  
 2.012800000000000E10    5.873025647927951E-3   9.579043468908858E-4  
 2.013000000000000E10    5.837789978142139E-3  -1.542265598811669E-4  
 2.013200000000000E10    5.602227397447016E-3  -1.146244586525876E-3  
 2.013400000000000E10    5.332260841020832E-3  -2.025773452686859E-3  
 2.013600000000000E10    4.975379174460232E-3  -2.920158034949391E-3  
 2.013800000000000E10    4.363918676972389E-3  -3.755706549265687E-3  
 2.014000000000000E10    3.512438881084507E-3  -4.402538606276115E-3  
 2.014200000000000E10    2.620627784549638E-3  -4.803595409073212E-3  
 2.014400000000000E10    1.848967056031580E-3  -5.079723578406338E-3  
 2.014600000000000E10    1.085286590638628E-3  -5.325054554383696E-3  
 2.014800000000000E10    2.248049449580894E-4  -5.415283787397691E-3  
 2.015000000000000E10   -6.834542957985383E-4  -5.349598618017303E-3  
 2.015200000000000E10   -1.565957387311407E-3  -5.193892716901538E-3  
 2.015400000000000E10   -2.450813441594810E-3  -4.945248227428508E-3  
 2.015600000000000E10   -3.284909282408563E-3  -4.493239329966867E-3  
 2.015800000000000E10   -4.001194634187369E-3  -3.872347840418419E-3  
 2.016000000000000E10   -4.646041229321266E-3  -3.066006340776329E-3  
 2.016200000000000E10   -5.121740248100258E-3  -2.176521561556944E-3  
 2.016400000000000E10   -5.422487027115293E-3  -1.240541730191053E-3  
 2.016600000000000E10   -5.509902044762801E-3  -2.739565291752418E-4  
 2.016800000000000E10   -5.382369157432775E-3   6.631699873617402E-4  
 2.017000000000000E10   -5.117254118998479E-3   1.565623584341396E-3  
 2.017200000000000E10   -4.736908228585014E-3   2.388966548613009E-3  
 2.017400000000000E10   -4.281878459876703E-3   3.086579357055419E-3  
 2.017600000000000E10   -3.764789445141768E-3   3.667385877903413E-3  
 2.017800000000000E10   -3.191054243893352E-3   4.224370262459105E-3  
 2.018000000000000E10   -2.487271397524042E-3   4.775785116685762E-3  
 2.018200000000000E10   -1.652598813647566E-3   5.231949558228623E-3  
 2.018400000000000E10   -7.461566775519816E-4   5.527940814463814E-3  
 2.018600000000000E10    2.428180329989567E-4   5.623047676995213E-3  
 2.018800000000000E10    1.306928347876686E-3   5.541527856509259E-3  
 2.019000000000000E10    2.405866471774601E-3   5.213713325146172E-3  
 2.019200000000000E10    3.357293693647710E-3   4.606799573212127E-3  
 2.019400000000000E10    4.059676253409298E-3   3.865534899595343E-3  
 2.019600000000000E10    4.610629252123613E-3   3.063374828478253E-3  
 2.019800000000000E10    5.029514598671669E-3   2.106631237921524E-3  
 2.020000000000000E10    5.181515986030854E-3   1.141051790550535E-3  
 2.020200000000000E10    5.132899700123587E-3   3.334075691434268E-4  
 2.020400000000000E10    5.065255896130830E-3  -3.467543786506595E-4  
 2.020600000000000E10    4.971666859439863E-3  -1.081691215527647E-3  
 2.020800000000000E10    4.752030222458237E-3  -1.896257753725406E-3  
 2.021000000000000E10    4.437161322085210E-3  -2.624192867244100E-3  
 2.021200000000000E10    4.147099583973120E-3  -3.345383963559146E-3  
 2.021400000000000E10    3.662839598010904E-3  -4.159885245938729E-3  
 2.021600000000000E10    2.825761518590613E-3  -4.907463487513640E-3  
 2.021800000000000E10    1.778959522288247E-3  -5.396889384697986E-3  
 2.022000000000000E10    7.402063620472213E-4  -5.643928072840712E-3  
 2.022200000000000E10   -2.970330785086126E-4  -5.701134906920755E-3  
 2.022400000000000E10   -1.320917054401412E-3  -5.502306062866141E-3  
 2.022600000000000E10   -2.302999064947168E-3  -5.086029672788249E-3  
 2.022800000000000E10   -3.139351672826358E-3  -4.525127728688129E-3  
 2.023000000000000E10   -3.850107564142457E-3  -3.911794424861854E-3  
 2.023200000000000E10   -4.479533136120917E-3  -3.175054751566531E-3  
 2.023400000000000E10   -4.908316590489797E-3  -2.280195306894588E-3  
 2.023600000000000E10   -5.113793784223590E-3  -1.373106464283702E-3  
 2.023800000000000E10   -5.229211216907443E-3  -5.284082313372904E-4  
 2.024000000000000E10   -5.279438472410412E-3   3.506220265630817E-4  
 2.024200000000000E10   -5.097441984639493E-3   1.214634940419116E-3  
 2.024400000000000E10   -4.774917934641795E-3   1.976003214992859E-3  
 2.024600000000000E10   -4.424154631977465E-3   2.741222462421399E-3  
 2.024800000000000E10   -3.941745824973893E-3   3.518989502256852E-3  
 2.025000000000000E10   -3.306333671243471E-3   4.187827941352203E-3  
 2.025200000000000E10   -2.564365075855160E-3   4.699701937720364E-3  
 2.025400000000000E10   -1.670654375899445E-3   5.085333595397297E-3  
 2.025600000000000E10   -6.803853852662869E-4   5.291795714493888E-3  
 2.025800000000000E10    2.443961695664459E-4   5.300445309667676E-3  
 2.026000000000000E10    1.135462987018221E-3   5.150386143797710E-3  
 2.026200000000000E10    1.918338325426535E-3   4.799988086300868E-3  
 2.026400000000000E10    2.635451493623816E-3   4.418275405273394E-3  
 2.026600000000000E10    3.405516688355510E-3   3.930105856493300E-3  
 2.026800000000000E10    4.074950863457758E-3   3.275885085724755E-3  
 2.027000000000000E10    4.511389720403118E-3   2.493907234711964E-3  
 2.027200000000000E10    4.711508980871720E-3   1.736694790227454E-3  
 2.027400000000000E10    4.902857275288783E-3   1.032316496733714E-3  
 2.027600000000000E10    5.073839091454392E-3   2.581505644532930E-4  
 2.027800000000000E10    5.155286142303621E-3  -5.342596926277987E-4  
 2.028000000000000E10    5.162181804117598E-3  -1.359534609407463E-3  
 2.028200000000000E10    4.975831348816922E-3  -2.335168938669894E-3  
 2.028400000000000E10    4.461672162798085E-3  -3.346852210844741E-3  
 2.028600000000000E10    3.713187721362453E-3  -4.162955017369472E-3  
 2.028800000000000E10    2.865613380699982E-3  -4.724369907498728E-3  
 2.029000000000000E10    2.046996172816481E-3  -5.103105391709157E-3  
 2.029200000000000E10    1.117466427213340E-3  -5.410518014320622E-3  
 2.029400000000000E10    1.862537590815556E-5  -5.496928123412310E-3  
 2.029600000000000E10   -1.012471674102140E-3  -5.281352018362578E-3  
 2.029800000000000E10   -1.792724451257123E-3  -4.900583681179051E-3  
 2.030000000000000E10   -2.407359453723019E-3  -4.515890888639807E-3  
 2.030200000000000E10   -3.077816318743575E-3  -4.090765519872492E-3  
 2.030400000000000E10   -3.763577153469310E-3  -3.517259978746743E-3  
 2.030600000000000E10   -4.291994152245699E-3  -2.806395476247058E-3  
 2.030800000000000E10   -4.625809258194986E-3  -2.100867926384564E-3  
 2.031000000000000E10   -4.830852927019199E-3  -1.414145590208563E-3  
 2.031200000000000E10   -5.017053916544459E-3  -7.189653280628042E-4  
 2.031400000000000E10   -5.242687874232178E-3   6.209459423085545E-5  
 2.031600000000000E10   -5.383427668776778E-3   9.922602287217701E-4  
 2.031800000000000E10   -5.210385272670308E-3   2.017125152453872E-3  
 2.032000000000000E10   -4.742509466998372E-3   2.967109021236316E-3  
 2.032200000000000E10   -4.105176086778995E-3   3.800338062308269E-3  
 2.032400000000000E10   -3.332628900139236E-3   4.510556853571792E-3  
 2.032600000000000E10   -2.467977900609926E-3   5.034109727008108E-3  
 2.032800000000000E10   -1.538855364304726E-3   5.359747320597555E-3  
 2.033000000000000E10   -5.476279500411986E-4   5.466834314305474E-3  
 2.033200000000000E10    4.101142403669656E-4   5.426818068012779E-3  
 2.033400000000000E10    1.387942027599540E-3   5.266098748248669E-3  
 2.033600000000000E10    1.817112795744138E-3   5.032738584473178E-3  
 2.033800000000000E10    2.968970470613352E-3   4.220659160457644E-3  
 2.034000000000000E10    3.480765439661933E-3   3.566835593018267E-3  
 2.034200000000000E10    3.899798877997164E-3   2.943074485907952E-3  
 2.034400000000000E10    4.241811651966455E-3   2.339457273828211E-3  
 2.034600000000000E10    4.517482127994299E-3   1.779984797776482E-3  
 2.034800000000000E10    4.817617982396006E-3   1.194528059711979E-3  
 2.035000000000000E10    5.105187978457522E-3   4.560941956753349E-4  
 2.035200000000000E10    5.267050427695116E-3  -4.842313305463321E-4  
 2.035400000000000E10    5.200329248184039E-3  -1.462543775603451E-3  
 2.035600000000000E10    4.934933111301543E-3  -2.362603545878773E-3  
 2.035800000000000E10    4.474827186147005E-3  -3.252255572236063E-3  
 2.036000000000000E10    3.773721072960784E-3  -4.075890613926782E-3  
 2.036200000000000E10    2.939702235852127E-3  -4.732525999439352E-3  
 2.036400000000000E10    2.000594824943462E-3  -5.204380070215758E-3  
 2.036600000000000E10    9.768313489693368E-4  -5.411254541005618E-3  
 2.036800000000000E10   -2.997445453392748E-5  -5.348968037898526E-3  
 2.037000000000000E10   -9.353219525727594E-4  -5.089214554539433E-3  
 2.037200000000000E10   -1.666441043827361E-3  -4.777556860152587E-3  
 2.037400000000000E10   -2.260222361296600E-3  -4.472668593128523E-3  
 2.037600000000000E10   -2.856733030237166E-3  -4.171877541797766E-3  
 2.037800000000000E10   -3.572438673955607E-3  -3.745673345056949E-3  
 2.038000000000000E10   -4.285090752405886E-3  -3.136154290081726E-3  
 2.038200000000000E10   -4.878107757296092E-3  -2.344428644986984E-3  
 2.038400000000000E10   -5.305729547722473E-3  -1.462683473989644E-3  
 2.038600000000000E10   -5.490638695105360E-3  -4.146094919027140E-4  
 2.038800000000000E10   -5.370608651665627E-3   6.206895254931794E-4  
 2.039000000000000E10   -5.107675518058701E-3   1.519664167713972E-3  
 2.039200000000000E10   -4.801230079689880E-3   2.317253112172087E-3  
 2.039400000000000E10   -4.404252308800266E-3   3.071897605687012E-3  
 2.039600000000000E10   -3.839601866073079E-3   3.829647269513872E-3  
 2.039800000000000E10   -3.034437009144897E-3   4.526607353056288E-3  
 2.040000000000000E10   -2.097136987787155E-3   4.983043378609935E-3  
 2.040200000000000E10   -1.169757878718277E-3   5.231723884971422E-3  
 2.040400000000000E10   -2.527201014109543E-4   5.323753623222865E-3  
 2.040600000000000E10    6.843499787565735E-4   5.254417611860936E-3  
 2.040800000000000E10    1.616224706931799E-3   5.023277962557329E-3  
 2.041000000000000E10    2.518016502928035E-3   4.623359925814986E-3  
 2.041200000000000E10    3.287225510396156E-3   4.054555675175824E-3  
 2.041400000000000E10    3.875572751793597E-3   3.341051496933272E-3  
 2.041600000000000E10    4.328943645282661E-3   2.525818258247994E-3  
 2.041800000000000E10    4.610991737816805E-3   1.648330572348686E-3  
 2.042000000000000E10    4.707038983196757E-3   8.367218751241857E-4  
 2.042200000000000E10    4.681220674818314E-3   6.025057487415417E-5  
 2.042400000000000E10    4.503701227130714E-3  -6.489593953894520E-4  
 2.042600000000000E10    4.287735024398125E-3  -1.285216312591033E-3  
 2.042800000000000E10    4.017284030761617E-3  -1.933661801165637E-3  
 2.043000000000000E10    3.674334472758167E-3  -2.532625769230503E-3  
 2.043200000000000E10    3.272010927536974E-3  -3.048146448247595E-3  
 2.043400000000000E10    2.789404478935916E-3  -3.533634566989395E-3  
 2.043600000000000E10    2.215889736688064E-3  -4.025945963085066E-3  
 2.043800000000000E10    1.497504930874264E-3  -4.482510350184677E-3  
 2.044000000000000E10    6.186146552122579E-4  -4.805708338541014E-3  
 2.044200000000000E10   -3.792969553076007E-4  -4.866629948172673E-3  
 2.044400000000000E10   -1.380203383756273E-3  -4.585407277638162E-3  
 2.044600000000000E10   -2.177313157000844E-3  -4.010501564882789E-3  
 2.044800000000000E10   -2.674616778407384E-3  -3.378205593491411E-3  
 2.045000000000000E10   -2.987796308495749E-3  -2.898998498157771E-3  
 2.045200000000000E10   -3.312480474971695E-3  -2.456166999943463E-3  
 2.045400000000000E10   -3.641795936144061E-3  -1.913806486782837E-3  
 2.045600000000000E10   -3.927324668584783E-3  -1.318257060591822E-3  
 2.045800000000000E10   -4.166977238599902E-3  -6.605262888227533E-4  
 2.046000000000000E10   -4.275910487329520E-3   8.804519121092458E-5  
 2.046200000000000E10   -4.172151672573370E-3   8.654677859553494E-4  
 2.046400000000000E10   -3.903591648939952E-3   1.614553593731497E-3  
 2.046600000000000E10   -3.474445369692497E-3   2.277780465068825E-3  
 2.046800000000000E10   -2.980551213876886E-3   2.798553507338152E-3  
 2.047000000000000E10   -2.431521177820770E-3   3.198302885586465E-3  
 2.047200000000000E10   -1.808660076126273E-3   3.450333629447369E-3  
 2.047400000000000E10   -1.203283906143941E-3   3.609190088478320E-3  
 2.047600000000000E10   -6.249846077098708E-4   3.743023901924859E-3  
 2.047800000000000E10   -2.985728205776132E-6   3.818302869474815E-3  
 2.048000000000000E10    6.421105325348492E-4   3.728001824016741E-3  
 2.048200000000000E10    1.227488014042194E-3   3.501670607538135E-3  
 2.048400000000000E10    1.749340332699595E-3   3.195417231454710E-3  
 2.048600000000000E10    2.196321755440699E-3   2.868476533618423E-3  
 2.048800000000000E10    2.602786535719111E-3   2.523704788383143E-3  
 2.049000000000000E10    2.925693546134381E-3   2.084897578130534E-3  
 2.049200000000000E10    3.176752920549962E-3   1.624699762481966E-3  
 2.049400000000000E10    3.447856892038275E-3   1.157776760167362E-3  
 2.049600000000000E10    3.697423540331700E-3   6.058727941521801E-4  
 2.049800000000000E10    3.862457344147527E-3   1.529901199341740E-5  
 2.050000000000000E10    3.971749709712135E-3  -6.628903778798787E-4  
 2.050200000000000E10    3.923715851097196E-3  -1.489470836442010E-3  
 2.050400000000000E10    3.593199049915981E-3  -2.392101834562642E-3  
 2.050600000000000E10    2.975825711877810E-3  -3.191735563845731E-3  
 2.050800000000000E10    2.109439508920467E-3  -3.709016994423705E-3  
 2.051000000000000E10    1.143766939352600E-3  -3.854196300201210E-3  
 2.051200000000000E10    3.301683927592994E-4  -3.691581365318946E-3  
 2.051400000000000E10   -2.146829690361672E-4  -3.411909959129530E-3  
 2.051600000000000E10   -5.827359819244364E-4  -3.219639425407406E-3  
 2.051800000000000E10   -9.763937236534227E-4  -3.110502116428114E-3  
 2.052000000000000E10   -1.485784318194621E-3  -2.904911833113911E-3  
 2.052200000000000E10   -1.902538101637253E-3  -2.517256339621029E-3  
 2.052400000000000E10   -2.122670644894242E-3  -2.160879622363015E-3  
 2.052600000000000E10   -2.319148445593906E-3  -1.949963174231443E-3  
 2.052800000000000E10   -2.626601212807460E-3  -1.714966545904769E-3  
 2.053000000000000E10   -2.976338632036875E-3  -1.295644222229811E-3  
 2.053200000000000E10   -3.220294970145196E-3  -7.662087704779375E-4  
 2.053400000000000E10   -3.393725960595925E-3  -2.109958807040254E-4  
 2.053600000000000E10   -3.471356555014665E-3   4.274828789215306E-4  
 2.053800000000000E10   -3.338497692581129E-3   1.125607681230723E-3  
 2.054000000000000E10   -2.979757752913384E-3   1.766352833789072E-3  
 2.054200000000000E10   -2.527134030206520E-3   2.228248099807972E-3  
 2.054400000000000E10   -2.076277588379145E-3   2.588240878173599E-3  
 2.054600000000000E10   -1.554741151918324E-3   2.845522484822590E-3  
 2.054800000000000E10   -9.927101006420951E-4   2.929459187995505E-3  
 2.055000000000000E10   -5.049647836670004E-4   2.890924756403691E-3  
 2.055200000000000E10   -1.396706847802386E-4   2.848359882647609E-3  
 2.055400000000000E10    1.750644310779962E-4   2.877141912410289E-3  
 2.055600000000000E10    5.426726197639918E-4   2.919605803779430E-3  
