#  HZ   S   RI   R     50.00 
! Rohde & Schwarz ZVA40 4Ports - Version 3.90 - 1145.1110k42 SN: 100403
! Date: 2023-10-03 11:41:50
! Measurement: S12 
! 
 2.000000000000000E10    2.124939767523802E-4  -5.755009509071157E-3  
 2.000200000000000E10   -7.660491427947066E-4  -5.770299416955239E-3  
 2.000400000000000E10   -1.733196728264936E-3  -5.519820664675884E-3  
 2.000600000000000E10   -2.541658362189745E-3  -5.122665045667946E-3  
 2.000800000000000E10   -3.250371687758117E-3  -4.695563519626489E-3  
 2.001000000000000E10   -4.006332321161474E-3  -4.240947666313546E-3  
 2.001200000000000E10   -4.813683535443781E-3  -3.618100238389072E-3  
 2.001400000000000E10   -5.515028837562344E-3  -2.727860607850699E-3  
 2.001600000000000E10   -5.948557070008033E-3  -1.639112262457702E-3  
 2.001800000000000E10   -6.148220988473408E-3  -5.169755047658621E-4  
 2.002000000000000E10   -6.160892109260149E-3   6.460721761183699E-4  
 2.002200000000000E10   -5.890605718265347E-3   1.850285489733021E-3  
 2.002400000000000E10   -5.400096750415770E-3   2.858555950454356E-3  
 2.002600000000000E10   -4.724724614923752E-3   3.667203263943026E-3  
 2.002800000000000E10   -3.966403429476936E-3   4.326265086822305E-3  
 2.003000000000000E10   -3.157300828599636E-3   4.836623096999564E-3  
 2.003200000000000E10   -2.353078820800156E-3   5.197916030423877E-3  
 2.003400000000000E10   -1.529926343614029E-3   5.435826297113557E-3  
 2.003600000000000E10   -6.879688194596475E-4   5.565714539477120E-3  
 2.003800000000000E10    1.897284781551679E-4   5.615685008650210E-3  
 2.004000000000000E10    1.066755146983965E-3   5.577341239485476E-3  
 2.004200000000000E10    1.957801989866076E-3   5.425310636192194E-3  
 2.004400000000000E10    2.847451653423501E-3   5.110117578074153E-3  
 2.004600000000000E10    3.672568245365481E-3   4.581535194805008E-3  
 2.004800000000000E10    4.402264429509273E-3   3.966141043713799E-3  
 2.005000000000000E10    5.107888359760429E-3   3.231478837767134E-3  
 2.005200000000000E10    5.663845624866678E-3   2.324057168062823E-3  
 2.005400000000000E10    6.015644472000409E-3   1.341681195894417E-3  
 2.005600000000000E10    6.217370097191983E-3   2.365749906734162E-4  
 2.005800000000000E10    6.212502217817086E-3  -9.457608347149269E-4  
 2.006000000000000E10    5.911352911987055E-3  -2.104669464407144E-3  
 2.006200000000000E10    5.377439833763573E-3  -3.100428195601261E-3  
 2.006400000000000E10    4.665676182434884E-3  -3.908446532915589E-3  
 2.006600000000000E10    3.876955357644662E-3  -4.529106764145840E-3  
 2.006800000000000E10    3.107831810520572E-3  -5.043557005715960E-3  
 2.007000000000000E10    2.245960055769962E-3  -5.517684526879479E-3  
 2.007200000000000E10    1.302937666575114E-3  -5.772125786515299E-3  
 2.007400000000000E10    3.489329854032186E-4  -5.865430005216672E-3  
 2.007600000000000E10   -6.640047470199658E-4  -5.823704419818558E-3  
 2.007800000000000E10   -1.630091891670025E-3  -5.574249081819515E-3  
 2.008000000000000E10   -2.404164747093563E-3  -5.242261081290099E-3  
 2.008200000000000E10   -3.140851277513085E-3  -4.888570016640940E-3  
 2.008400000000000E10   -3.939814750611047E-3  -4.451683021070046E-3  
 2.008600000000000E10   -4.761615687590324E-3  -3.771599040102260E-3  
 2.008800000000000E10   -5.434194562473784E-3  -2.871663988004497E-3  
 2.009000000000000E10   -5.891389081277598E-3  -1.915035783715638E-3  
 2.009200000000000E10   -6.212859322535404E-3  -8.761061019160682E-4  
 2.009400000000000E10   -6.307789308513390E-3   3.339882114008184E-4  
 2.009600000000000E10   -6.088822137242484E-3   1.624866476408954E-3  
 2.009800000000000E10   -5.534331475235063E-3   2.718954395939723E-3  
 2.010000000000000E10   -4.828279780476919E-3   3.507509249848901E-3  
 2.010200000000000E10   -4.069942296885047E-3   4.101687404154628E-3  
 2.010400000000000E10   -3.332422830647341E-3   4.523208370593228E-3  
 2.010600000000000E10   -2.653986054622097E-3   4.908855895247357E-3  
 2.010800000000000E10   -1.939263522486996E-3   5.308670670162013E-3  
 2.011000000000000E10   -1.119532845167006E-3   5.644574014033065E-3  
 2.011200000000000E10   -1.757669523624232E-4   5.830385026602466E-3  
 2.011400000000000E10    8.575389388787711E-4   5.826630434136333E-3  
 2.011600000000000E10    1.951219318549574E-3   5.642702090151517E-3  
 2.011800000000000E10    2.983379910734517E-3   5.196351276273713E-3  
 2.012000000000000E10    3.768229382802491E-3   4.540768894654366E-3  
 2.012200000000000E10    4.370540748407812E-3   3.859516917325465E-3  
 2.012400000000000E10    4.998922698705654E-3   3.155961359655600E-3  
 2.012600000000000E10    5.590983511259159E-3   2.270863572549489E-3  
 2.012800000000000E10    5.983662331637779E-3   1.187585358921852E-3  
 2.013000000000000E10    6.049359769180970E-3   4.820561136714080E-5  
 2.013200000000000E10    5.843338464605221E-3  -1.016184549640726E-3  
 2.013400000000000E10    5.560460299207474E-3  -1.981418896006582E-3  
 2.013600000000000E10    5.149791695545486E-3  -2.957453781646895E-3  
 2.013800000000000E10    4.521226935824495E-3  -3.845455607882253E-3  
 2.014000000000000E10    3.672825942896767E-3  -4.515810392475055E-3  
 2.014200000000000E10    2.769785867084140E-3  -4.930930712294800E-3  
 2.014400000000000E10    1.936156032491981E-3  -5.218363746448801E-3  
 2.014600000000000E10    1.112150190754529E-3  -5.456341873210522E-3  
 2.014800000000000E10    2.415780596762757E-4  -5.595154870577433E-3  
 2.015000000000000E10   -6.838915776173919E-4  -5.550698733624118E-3  
 2.015200000000000E10   -1.643716774443970E-3  -5.373771049450210E-3  
 2.015400000000000E10   -2.597656606892009E-3  -5.014106654274611E-3  
 2.015600000000000E10   -3.393863488770562E-3  -4.469393850246698E-3  
 2.015800000000000E10   -4.043147215090785E-3  -3.868053819593273E-3  
 2.016000000000000E10   -4.649656945494591E-3  -3.169552796738752E-3  
 2.016200000000000E10   -5.163255567305987E-3  -2.315467988129384E-3  
 2.016400000000000E10   -5.507690556071423E-3  -1.348480327848207E-3  
 2.016600000000000E10   -5.652389632836905E-3  -3.400858524715367E-4  
 2.016800000000000E10   -5.576891939581177E-3   6.466915408425309E-4  
 2.017000000000000E10   -5.310697360309187E-3   1.584627447120938E-3  
 2.017200000000000E10   -4.901583415720567E-3   2.455215423977302E-3  
 2.017400000000000E10   -4.413505395253500E-3   3.216779969034740E-3  
 2.017600000000000E10   -3.845823583779512E-3   3.870309347769729E-3  
 2.017800000000000E10   -3.218708784078007E-3   4.413112791048156E-3  
 2.018000000000000E10   -2.511160718392075E-3   4.936201250709502E-3  
 2.018200000000000E10   -1.659899701387334E-3   5.417287775119882E-3  
 2.018400000000000E10   -6.456027895407637E-4   5.732180907126563E-3  
 2.018600000000000E10    4.470006596544229E-4   5.790830566835257E-3  
 2.018800000000000E10    1.529606532041030E-3   5.589471899984796E-3  
 2.019000000000000E10    2.567688210142984E-3   5.147521234588859E-3  
 2.019200000000000E10    3.442410468756233E-3   4.546158573371761E-3  
 2.019400000000000E10    4.190985797502009E-3   3.833090895097013E-3  
 2.019600000000000E10    4.757056944072247E-3   2.976442595230945E-3  
 2.019800000000000E10    5.083512877010638E-3   2.022004104219377E-3  
 2.020000000000000E10    5.207514562816532E-3   1.083775883379542E-3  
 2.020200000000000E10    5.159577814701164E-3   2.763019353697468E-4  
 2.020400000000000E10    5.109545993216245E-3  -4.279308343007241E-4  
 2.020600000000000E10    5.025733986662494E-3  -1.183749295851607E-3  
 2.020800000000000E10    4.742701480418077E-3  -2.016286104112680E-3  
 2.021000000000000E10    4.348656835241451E-3  -2.731218097593498E-3  
 2.021200000000000E10    4.035224913860914E-3  -3.415847717450910E-3  
 2.021400000000000E10    3.549077660190287E-3  -4.254545993459078E-3  
 2.021600000000000E10    2.687654159043307E-3  -4.974033856005581E-3  
 2.021800000000000E10    1.657622761415019E-3  -5.362255176828232E-3  
 2.022000000000000E10    6.638519102305083E-4  -5.532742702160721E-3  
 2.022200000000000E10   -3.126798051029995E-4  -5.586588462055834E-3  
 2.022400000000000E10   -1.290342580803015E-3  -5.466195656975479E-3  
 2.022600000000000E10   -2.253960246036267E-3  -5.108996961311794E-3  
 2.022800000000000E10   -3.133821720832293E-3  -4.558603802442919E-3  
 2.023000000000000E10   -3.903615995551701E-3  -3.913148674240084E-3  
 2.023200000000000E10   -4.574025262515119E-3  -3.130713877279634E-3  
 2.023400000000000E10   -4.993116626814929E-3  -2.185177425911397E-3  
 2.023600000000000E10   -5.118890625229221E-3  -1.288731829665693E-3  
 2.023800000000000E10   -5.182395568462435E-3  -4.969933742145652E-4  
 2.024000000000000E10   -5.225217952910397E-3   3.543263807875553E-4  
 2.024200000000000E10   -5.080936746786774E-3   1.214847135369057E-3  
 2.024400000000000E10   -4.803587803272186E-3   1.961719776492244E-3  
 2.024600000000000E10   -4.463297521902456E-3   2.723841720985042E-3  
 2.024800000000000E10   -3.971483230728795E-3   3.534532088878347E-3  
 2.025000000000000E10   -3.292506488821941E-3   4.241786845442322E-3  
 2.025200000000000E10   -2.491642608893691E-3   4.784578555206091E-3  
 2.025400000000000E10   -1.601865651649366E-3   5.126022498042864E-3  
 2.025600000000000E10   -6.534733412856306E-4   5.286236063657720E-3  
 2.025800000000000E10    2.992398839984319E-4   5.286921678041972E-3  
 2.026000000000000E10    1.220982899762874E-3   5.106936036436647E-3  
 2.026200000000000E10    1.992809387889725E-3   4.734452198730943E-3  
 2.026400000000000E10    2.622700112377420E-3   4.338177559138449E-3  
 2.026600000000000E10    3.323272730074363E-3   3.902085116822963E-3  
 2.026800000000000E10    4.024046283491232E-3   3.302981924656549E-3  
 2.027000000000000E10    4.547714974363278E-3   2.519340944234972E-3  
 2.027200000000000E10    4.811014514416456E-3   1.734824376870637E-3  
 2.027400000000000E10    5.018994079925765E-3   1.020403419345342E-3  
 2.027600000000000E10    5.175925515316151E-3   2.118312632650667E-4  
 2.027800000000000E10    5.192920617345307E-3  -6.306200247993809E-4  
 2.028000000000000E10    5.157559402976876E-3  -1.471633088694495E-3  
 2.028200000000000E10    4.958517004356341E-3  -2.409566722718286E-3  
 2.028400000000000E10    4.458135907986651E-3  -3.358356631648394E-3  
 2.028600000000000E10    3.729977846191622E-3  -4.175009251928624E-3  
 2.028800000000000E10    2.877934982448265E-3  -4.787320909262808E-3  
 2.029000000000000E10    2.002023442153946E-3  -5.221052750669144E-3  
 2.029200000000000E10    1.022978612497725E-3  -5.519315341694488E-3  
 2.029400000000000E10   -5.731429135064696E-5  -5.552987510591379E-3  
 2.029600000000000E10   -1.064667176386273E-3  -5.291305108708733E-3  
 2.029800000000000E10   -1.830527014214040E-3  -4.909407088740005E-3  
 2.030000000000000E10   -2.471030566174491E-3  -4.589786580591291E-3  
 2.030200000000000E10   -3.181782749447006E-3  -4.163887501222853E-3  
 2.030400000000000E10   -3.883809130063948E-3  -3.523587292336204E-3  
 2.030600000000000E10   -4.382788013942816E-3  -2.757536003044175E-3  
 2.030800000000000E10   -4.702891826767613E-3  -2.025512515647728E-3  
 2.031000000000000E10   -4.935706977123096E-3  -1.316855691752776E-3  
 2.031200000000000E10   -5.135719882853238E-3  -6.063030184718011E-4  
 2.031400000000000E10   -5.278344749024621E-3   2.287587603298304E-4  
 2.031600000000000E10   -5.302473431292140E-3   1.130334695191755E-3  
 2.031800000000000E10   -5.133877335875123E-3   2.071726265259915E-3  
 2.032000000000000E10   -4.746543278020841E-3   2.974408943160081E-3  
 2.032200000000000E10   -4.148210094160873E-3   3.844168609192159E-3  
 2.032400000000000E10   -3.346503732358048E-3   4.577326674566225E-3  
 2.032600000000000E10   -2.432628727322560E-3   5.129794699404344E-3  
 2.032800000000000E10   -1.448376022313756E-3   5.449017251117363E-3  
 2.033000000000000E10   -4.561156268737475E-4   5.554944380289979E-3  
 2.033200000000000E10    5.150426198573163E-4   5.505619599357432E-3  
 2.033400000000000E10    1.508402847972365E-3   5.281582813893940E-3  
 2.033600000000000E10    1.943879381374077E-3   5.001844194384269E-3  
 2.033800000000000E10    3.061538268984468E-3   4.193048475793115E-3  
 2.034000000000000E10    3.541905772124912E-3   3.584200616948951E-3  
 2.034200000000000E10    3.985030467357533E-3   2.966903762339994E-3  
 2.034400000000000E10    4.376004018855316E-3   2.307505967716376E-3  
 2.034600000000000E10    4.650820104152333E-3   1.651653489615354E-3  
 2.034800000000000E10    4.904047580274904E-3   1.013093248561577E-3  
 2.035000000000000E10    5.156841422258704E-3   2.660488883711766E-4  
 2.035200000000000E10    5.257794047119442E-3  -6.755920821214440E-4  
 2.035400000000000E10    5.093138716701005E-3  -1.655986089903264E-3  
 2.035600000000000E10    4.741986621355202E-3  -2.528298229416028E-3  
 2.035800000000000E10    4.256912702579558E-3  -3.301404209600555E-3  
 2.036000000000000E10    3.596681299515897E-3  -4.023929661208833E-3  
 2.036200000000000E10    2.804063369784459E-3  -4.629452655344835E-3  
 2.036400000000000E10    1.880219801225596E-3  -5.073027351848138E-3  
 2.036600000000000E10    9.100340438983693E-4  -5.242621871056381E-3  
 2.036800000000000E10    1.037853624798173E-5  -5.209585921953858E-3  
 2.037000000000000E10   -8.125364684131871E-4  -5.048535442278710E-3  
 2.037200000000000E10   -1.558626164038332E-3  -4.814671404245827E-3  
 2.037400000000000E10   -2.261809748884889E-3  -4.533429756576633E-3  
 2.037600000000000E10   -2.950082932610387E-3  -4.205698676315355E-3  
 2.037800000000000E10   -3.665740006706782E-3  -3.718109729550319E-3  
 2.038000000000000E10   -4.321700789862210E-3  -3.028558041141541E-3  
 2.038200000000000E10   -4.845601650253859E-3  -2.218964664886395E-3  
 2.038400000000000E10   -5.216686009072965E-3  -1.331397820907979E-3  
 2.038600000000000E10   -5.386732311712371E-3  -3.457376679526298E-4  
 2.038800000000000E10   -5.301358758897326E-3   6.414716624953774E-4  
 2.039000000000000E10   -5.042622124569284E-3   1.536957209607886E-3  
 2.039200000000000E10   -4.677534936984749E-3   2.352544399737208E-3  
 2.039400000000000E10   -4.207678190949891E-3   3.075239053111018E-3  
 2.039600000000000E10   -3.659746368174200E-3   3.703829277605739E-3  
 2.039800000000000E10   -2.976727025169466E-3   4.308397927677926E-3  
 2.040000000000000E10   -2.146982208446220E-3   4.788755916380956E-3  
 2.040200000000000E10   -1.272907272199698E-3   5.110222627811227E-3  
 2.040400000000000E10   -3.408451868583345E-4   5.290427394671206E-3  
 2.040600000000000E10    6.180343751358674E-4   5.261794468502940E-3  
 2.040800000000000E10    1.538583333316593E-3   5.044614171816244E-3  
 2.041000000000000E10    2.415586484274195E-3   4.657529386473291E-3  
 2.041200000000000E10    3.178613892767901E-3   4.128426301902460E-3  
 2.041400000000000E10    3.838087225125896E-3   3.486193291107078E-3  
 2.041600000000000E10    4.385616486593162E-3   2.675844045976798E-3  
 2.041800000000000E10    4.738350824257475E-3   1.721923720999909E-3  
 2.042000000000000E10    4.829529787839196E-3   7.791882359284771E-4  
 2.042200000000000E10    4.724857886034398E-3  -7.267042711185993E-5  
 2.042400000000000E10    4.477940545773801E-3  -7.758768488089613E-4  
 2.042600000000000E10    4.221374565666474E-3  -1.357123671088046E-3  
 2.042800000000000E10    3.933188401990468E-3  -1.926016252211951E-3  
 2.043000000000000E10    3.622728808104624E-3  -2.475451471077072E-3  
 2.043200000000000E10    3.246476704162764E-3  -3.013793292834803E-3  
 2.043400000000000E10    2.760820427081652E-3  -3.497613450213348E-3  
 2.043600000000000E10    2.211265248694906E-3  -3.944808462013802E-3  
 2.043800000000000E10    1.540215059333010E-3  -4.393528732988570E-3  
 2.044000000000000E10    6.659878540013768E-4  -4.727355198773706E-3  
 2.044200000000000E10   -3.106597229625662E-4  -4.815562294773115E-3  
 2.044400000000000E10   -1.273381131425224E-3  -4.595534048146673E-3  
 2.044600000000000E10   -2.073018026917621E-3  -4.098799154392364E-3  
 2.044800000000000E10   -2.616135811686148E-3  -3.515413352920686E-3  
 2.045000000000000E10   -3.013266207374357E-3  -3.023335411224837E-3  
 2.045200000000000E10   -3.389388776993679E-3  -2.535139138660865E-3  
 2.045400000000000E10   -3.720985630665113E-3  -1.938237048352115E-3  
 2.045600000000000E10   -3.939540378381442E-3  -1.300746700036581E-3  
 2.045800000000000E10   -4.125327147819378E-3  -6.612839901612865E-4  
 2.046000000000000E10   -4.224492714130952E-3   4.773636994938033E-5  
 2.046200000000000E10   -4.199039800391522E-3   8.017432855810097E-4  
 2.046400000000000E10   -3.990286880713187E-3   1.572812111174435E-3  
 2.046600000000000E10   -3.568564211075874E-3   2.276525625752078E-3  
 2.046800000000000E10   -3.031371902950384E-3   2.817984204739332E-3  
 2.047000000000000E10   -2.483158153884205E-3   3.199389230252968E-3  
 2.047200000000000E10   -1.924565573579368E-3   3.489316173794646E-3  
 2.047400000000000E10   -1.304519325379788E-3   3.713098311520838E-3  
 2.047600000000000E10   -6.459320630924203E-4   3.868187720208994E-3  
 2.047800000000000E10    3.223705973568153E-5   3.910227342405254E-3  
 2.048000000000000E10    6.991353196402392E-4   3.800419268462762E-3  
 2.048200000000000E10    1.309924083474426E-3   3.582121769863147E-3  
 2.048400000000000E10    1.850454044746764E-3   3.263025116290392E-3  
 2.048600000000000E10    2.326250705799019E-3   2.897224458003486E-3  
 2.048800000000000E10    2.736776567029733E-3   2.464865219353894E-3  
 2.049000000000000E10    3.025442065763070E-3   1.980413227158105E-3  
 2.049200000000000E10    3.206888371848583E-3   1.504550294168754E-3  
 2.049400000000000E10    3.401150846462927E-3   1.052064180121194E-3  
 2.049600000000000E10    3.604279448749659E-3   5.396214543042683E-4  
 2.049800000000000E10    3.755088527629405E-3  -3.340499393676440E-5  
 2.050000000000000E10    3.847770151440745E-3  -6.932274497367076E-4  
 2.050200000000000E10    3.801179808323031E-3  -1.477926500992459E-3  
 2.050400000000000E10    3.506699482116987E-3  -2.322266700413125E-3  
 2.050600000000000E10    2.910596703719578E-3  -3.098184725752584E-3  
 2.050800000000000E10    2.075130477789100E-3  -3.611142985683717E-3  
 2.051000000000000E10    1.165597314405957E-3  -3.770359722828424E-3  
 2.051200000000000E10    3.568850634447127E-4  -3.607883661364517E-3  
 2.051400000000000E10   -1.656114638288632E-4  -3.329376440012345E-3  
 2.051600000000000E10   -5.083980605029214E-4  -3.142287831086620E-3  
 2.051800000000000E10   -8.731254600678330E-4  -3.069272753495125E-3  
 2.052000000000000E10   -1.350617626923378E-3  -2.943508939265654E-3  
 2.052200000000000E10   -1.813777887699321E-3  -2.647122549307016E-3  
 2.052400000000000E10   -2.148766901321066E-3  -2.307165385350402E-3  
 2.052600000000000E10   -2.429631167884778E-3  -2.008904550615469E-3  
 2.052800000000000E10   -2.741509602968524E-3  -1.710737193072284E-3  
 2.053000000000000E10   -3.061475999722327E-3  -1.252492186958315E-3  
 2.053200000000000E10   -3.257752594503540E-3  -7.069435007985177E-4  
 2.053400000000000E10   -3.382121491602358E-3  -1.488282267265827E-4  
 2.053600000000000E10   -3.434878567026721E-3   4.660692935476058E-4  
 2.053800000000000E10   -3.310912159375019E-3   1.148811482571434E-3  
 2.054000000000000E10   -2.962768891320369E-3   1.767266478481484E-3  
 2.054200000000000E10   -2.528213533676333E-3   2.236465265238543E-3  
 2.054400000000000E10   -2.031445810801270E-3   2.603458048039933E-3  
 2.054600000000000E10   -1.466119716541819E-3   2.816684598701052E-3  
 2.054800000000000E10   -9.437711236791479E-4   2.851411297825384E-3  
 2.055000000000000E10   -5.220582106518618E-4   2.786695192579502E-3  
 2.055200000000000E10   -2.226981079033583E-4   2.761125343242361E-3  
 2.055400000000000E10    6.427837698864120E-5   2.846627128253013E-3  
 2.055600000000000E10    4.712529735564956E-4   2.955224206901076E-3  
