#  HZ   S   RI   R     50.00 
! Rohde & Schwarz ZVA40 4Ports - Version 3.90 - 1145.1110k42 SN: 100403
! Date: 2023-10-03 11:42:43
! Measurement: S12 
! 
 2.000000000000000E10    4.325873233328110E-4  -5.599354675476566E-3  
 2.000200000000000E10   -4.930179880538175E-4  -5.669554578592626E-3  
 2.000400000000000E10   -1.474457058036095E-3  -5.487675130857853E-3  
 2.000600000000000E10   -2.306176930160067E-3  -5.177603524806814E-3  
 2.000800000000000E10   -3.069906547251675E-3  -4.827890248103030E-3  
 2.001000000000000E10   -3.850469555429839E-3  -4.370266975980606E-3  
 2.001200000000000E10   -4.651085002186858E-3  -3.723604432134717E-3  
 2.001400000000000E10   -5.353964846044657E-3  -2.887196789031902E-3  
 2.001600000000000E10   -5.849577189488299E-3  -1.909037569054851E-3  
 2.001800000000000E10   -6.143052416466515E-3  -8.845937058881478E-4  
 2.002000000000000E10   -6.256493138065064E-3   2.362263412017198E-4  
 2.002200000000000E10   -6.101945227341643E-3   1.502446530371475E-3  
 2.002400000000000E10   -5.718793725755848E-3   2.613695699591267E-3  
 2.002600000000000E10   -5.137902236095181E-3   3.550869413678355E-3  
 2.002800000000000E10   -4.421501955086435E-3   4.337814711264255E-3  
 2.003000000000000E10   -3.563229017603545E-3   4.980252371572051E-3  
 2.003200000000000E10   -2.648436746065632E-3   5.470373265353250E-3  
 2.003400000000000E10   -1.714838139325718E-3   5.828162409947733E-3  
 2.003600000000000E10   -7.358587410688064E-4   6.007309941720571E-3  
 2.003800000000000E10    2.407544920577403E-4   5.999146816953098E-3  
 2.004000000000000E10    1.190943357921800E-3   5.847409129939944E-3  
 2.004200000000000E10    2.125085824947237E-3   5.623619924893473E-3  
 2.004400000000000E10    3.051368048253619E-3   5.271830925633633E-3  
 2.004600000000000E10    3.895249850128168E-3   4.726638707021873E-3  
 2.004800000000000E10    4.642347145994260E-3   4.047374618565473E-3  
 2.005000000000000E10    5.339090664460949E-3   3.207350096094265E-3  
 2.005200000000000E10    5.852164263710564E-3   2.238026076598178E-3  
 2.005400000000000E10    6.185113850965668E-3   1.278766892264011E-3  
 2.005600000000000E10    6.402057237202617E-3   1.821526673987965E-4  
 2.005800000000000E10    6.356445405586268E-3  -1.017612210137640E-3  
 2.006000000000000E10    6.035558258493743E-3  -2.223814144891537E-3  
 2.006200000000000E10    5.470519475332259E-3  -3.276642855571070E-3  
 2.006400000000000E10    4.738904323060940E-3  -4.088028725006699E-3  
 2.006600000000000E10    3.930648320274038E-3  -4.714534836418836E-3  
 2.006800000000000E10    3.105537700485975E-3  -5.242007529677311E-3  
 2.007000000000000E10    2.185947388226604E-3  -5.721434262876281E-3  
 2.007200000000000E10    1.174486194806243E-3  -5.999376196337582E-3  
 2.007400000000000E10    1.851167550736032E-4  -6.063385032991202E-3  
 2.007600000000000E10   -8.236415058550706E-4  -5.953837582772530E-3  
 2.007800000000000E10   -1.795791747784357E-3  -5.662172089940237E-3  
 2.008000000000000E10   -2.633961789509274E-3  -5.282847651514253E-3  
 2.008200000000000E10   -3.410572371035509E-3  -4.872855860663295E-3  
 2.008400000000000E10   -4.198510023485487E-3  -4.380966776238426E-3  
 2.008600000000000E10   -5.015506821113482E-3  -3.641740029961362E-3  
 2.008800000000000E10   -5.681783374812868E-3  -2.626800162280784E-3  
 2.009000000000000E10   -6.051844062567249E-3  -1.529269550884825E-3  
 2.009200000000000E10   -6.202379695749211E-3  -4.647874323423156E-4  
 2.009400000000000E10   -6.187134548837757E-3   6.231338223116666E-4  
 2.009600000000000E10   -5.926236117434969E-3   1.804026529296405E-3  
 2.009800000000000E10   -5.355867078152214E-3   2.876842139603058E-3  
 2.010000000000000E10   -4.622750059000137E-3   3.668268482342608E-3  
 2.010200000000000E10   -3.814234703955522E-3   4.235868438035864E-3  
 2.010400000000000E10   -3.015744477824726E-3   4.585925853761381E-3  
 2.010600000000000E10   -2.285582207932823E-3   4.836979849118388E-3  
 2.010800000000000E10   -1.614373325324261E-3   5.103228094416514E-3  
 2.011000000000000E10   -9.209746518843032E-4   5.368262249593137E-3  
 2.011200000000000E10   -1.009370209857603E-4   5.581815096591850E-3  
 2.011400000000000E10    8.744148526976936E-4   5.597277067279743E-3  
 2.011600000000000E10    1.904372391750876E-3   5.403188827597065E-3  
 2.011800000000000E10    2.887549073293561E-3   4.971267130425193E-3  
 2.012000000000000E10    3.642154685049146E-3   4.335105409577428E-3  
 2.012200000000000E10    4.178591860159312E-3   3.674177138648407E-3  
 2.012400000000000E10    4.719394389463305E-3   3.025778920922444E-3  
 2.012600000000000E10    5.291196483152885E-3   2.235300330169224E-3  
 2.012800000000000E10    5.719518405864392E-3   1.222559152201677E-3  
 2.013000000000000E10    5.826361768652874E-3   1.295179718897684E-4  
 2.013200000000000E10    5.636303382829874E-3  -8.605569007005468E-4  
 2.013400000000000E10    5.379598808126072E-3  -1.746610496403964E-3  
 2.013600000000000E10    5.054843941619122E-3  -2.657738926249399E-3  
 2.013800000000000E10    4.526802992118608E-3  -3.544886049396769E-3  
 2.014000000000000E10    3.771270780513685E-3  -4.256777829440779E-3  
 2.014200000000000E10    2.926080417723506E-3  -4.717754930211807E-3  
 2.014400000000000E10    2.115662510548968E-3  -5.068691719492032E-3  
 2.014600000000000E10    1.264078817579420E-3  -5.377214034030468E-3  
 2.014800000000000E10    3.781662846389878E-4  -5.514081732327801E-3  
 2.015000000000000E10   -4.982611816232726E-4  -5.482859873124725E-3  
 2.015200000000000E10   -1.391492604370011E-3  -5.366822720003227E-3  
 2.015400000000000E10   -2.353963023434881E-3  -5.117663542582911E-3  
 2.015600000000000E10   -3.240888054892728E-3  -4.655551205584665E-3  
 2.015800000000000E10   -3.993288976036841E-3  -4.069462891882708E-3  
 2.016000000000000E10   -4.681432943545866E-3  -3.318164022371113E-3  
 2.016200000000000E10   -5.210075113508437E-3  -2.409989084212930E-3  
 2.016400000000000E10   -5.547067163887707E-3  -1.383180804301529E-3  
 2.016600000000000E10   -5.646452127568762E-3  -3.734070901354630E-4  
 2.016800000000000E10   -5.575462769517684E-3   5.472397914160151E-4  
 2.017000000000000E10   -5.362908010957419E-3   1.446141354996451E-3  
 2.017200000000000E10   -5.034374588632903E-3   2.329032883477310E-3  
 2.017400000000000E10   -4.590712263490316E-3   3.174545464715289E-3  
 2.017600000000000E10   -3.990849991685447E-3   3.894105831490746E-3  
 2.017800000000000E10   -3.329520329350123E-3   4.469200127485972E-3  
 2.018000000000000E10   -2.568565556250605E-3   5.007641899702236E-3  
 2.018200000000000E10   -1.665734416237983E-3   5.462459196555027E-3  
 2.018400000000000E10   -6.751686587561797E-4   5.733991909864141E-3  
 2.018600000000000E10    3.303685455502552E-4   5.805788868310031E-3  
 2.018800000000000E10    1.374424643596106E-3   5.712701417812350E-3  
 2.019000000000000E10    2.471528385876996E-3   5.386003933141752E-3  
 2.019200000000000E10    3.475149157322913E-3   4.793615570989411E-3  
 2.019400000000000E10    4.295627209032147E-3   4.033776159195130E-3  
 2.019600000000000E10    4.914864190612679E-3   3.134418071013849E-3  
 2.019800000000000E10    5.300367377514458E-3   2.113017465329036E-3  
 2.020000000000000E10    5.451436735183737E-3   1.071804180576508E-3  
 2.020200000000000E10    5.376613785133318E-3   1.396888179786948E-4  
 2.020400000000000E10    5.246536534110951E-3  -6.150294094319636E-4  
 2.020600000000000E10    5.100404588819900E-3  -1.354510982620526E-3  
 2.020800000000000E10    4.811512344658621E-3  -2.156601115915572E-3  
 2.021000000000000E10    4.423768577690969E-3  -2.877392247510852E-3  
 2.021200000000000E10    4.094241505082498E-3  -3.607610342142637E-3  
 2.021400000000000E10    3.549904550076942E-3  -4.470085968558558E-3  
 2.021600000000000E10    2.612928894382936E-3  -5.202721235238845E-3  
 2.021800000000000E10    1.481053796922597E-3  -5.578177356364306E-3  
 2.022000000000000E10    4.022394566496820E-4  -5.691815539427991E-3  
 2.022200000000000E10   -6.165445562827674E-4  -5.651140411158281E-3  
 2.022400000000000E10   -1.586896232271820E-3  -5.420745942557669E-3  
 2.022600000000000E10   -2.519696173852179E-3  -4.975499583354581E-3  
 2.022800000000000E10   -3.327666268273882E-3  -4.379310388378646E-3  
 2.023000000000000E10   -4.008839395541100E-3  -3.705845705957877E-3  
 2.023200000000000E10   -4.582384675971152E-3  -2.926014796849877E-3  
 2.023400000000000E10   -4.935670994728069E-3  -2.028535480453890E-3  
 2.023600000000000E10   -5.065734442630056E-3  -1.168860270595753E-3  
 2.023800000000000E10   -5.132271601615375E-3  -3.542884508761772E-4  
 2.024000000000000E10   -5.130844282699221E-3   4.683123648055511E-4  
 2.024200000000000E10   -4.990544310031237E-3   1.249803053866689E-3  
 2.024400000000000E10   -4.758668992545748E-3   2.001703568301145E-3  
 2.024600000000000E10   -4.424742135552713E-3   2.818170920543281E-3  
 2.024800000000000E10   -3.877762216430756E-3   3.640335040749531E-3  
 2.025000000000000E10   -3.160813016579353E-3   4.286619267376608E-3  
 2.025200000000000E10   -2.346693074384345E-3   4.750844382454830E-3  
 2.025400000000000E10   -1.458715971314000E-3   5.039008056415330E-3  
 2.025600000000000E10   -5.292452036052438E-4   5.153077428416952E-3  
 2.025800000000000E10    3.335817493407302E-4   5.115551439041096E-3  
 2.026000000000000E10    1.149622826461408E-3   4.967055385050829E-3  
 2.026200000000000E10    1.873190760029933E-3   4.666480199345714E-3  
 2.026400000000000E10    2.525616702604503E-3   4.333743528528102E-3  
 2.026600000000000E10    3.263045746235200E-3   3.942512573651327E-3  
 2.026800000000000E10    3.970010010640563E-3   3.367378566138171E-3  
 2.027000000000000E10    4.496472903025249E-3   2.603437965199229E-3  
 2.027200000000000E10    4.777385638605176E-3   1.816752520983909E-3  
 2.027400000000000E10    5.007518930628958E-3   1.077670580515860E-3  
 2.027600000000000E10    5.197290528504324E-3   2.530773125738367E-4  
 2.027800000000000E10    5.253912978748113E-3  -5.977680111867319E-4  
 2.028000000000000E10    5.225891109417987E-3  -1.470801497161879E-3  
 2.028200000000000E10    4.986678976412296E-3  -2.466916130595063E-3  
 2.028400000000000E10    4.433385861094720E-3  -3.439172110692771E-3  
 2.028600000000000E10    3.692409514215749E-3  -4.188235132445279E-3  
 2.028800000000000E10    2.910268252500844E-3  -4.736153987608085E-3  
 2.029000000000000E10    2.091239390457854E-3  -5.175497166337178E-3  
 2.029200000000000E10    1.119199700446593E-3  -5.497077838306933E-3  
 2.029400000000000E10    2.720053228664637E-5  -5.590569555621457E-3  
 2.029600000000000E10   -9.834348686890287E-4  -5.408441203305262E-3  
 2.029800000000000E10   -1.772932734133469E-3  -5.081445933032183E-3  
 2.030000000000000E10   -2.497518909405227E-3  -4.781733404982974E-3  
 2.030200000000000E10   -3.362796789633088E-3  -4.344774958190851E-3  
 2.030400000000000E10   -4.171559600535122E-3  -3.612803919969028E-3  
 2.030600000000000E10   -4.647408301631610E-3  -2.723158733850276E-3  
 2.030800000000000E10   -4.870182378485861E-3  -1.957626162966859E-3  
 2.031000000000000E10   -5.063078096021473E-3  -1.233853822777148E-3  
 2.031200000000000E10   -5.241241047365799E-3  -4.500210757794648E-4  
 2.031400000000000E10   -5.364887387618239E-3   4.318132428854797E-4  
 2.031600000000000E10   -5.332503985199664E-3   1.350674972727650E-3  
 2.031800000000000E10   -5.051627492631782E-3   2.278193402192230E-3  
 2.032000000000000E10   -4.601127745913258E-3   3.144113866252051E-3  
 2.032200000000000E10   -3.986871908629629E-3   3.994540399545997E-3  
 2.032400000000000E10   -3.146786878935595E-3   4.699969681462756E-3  
 2.032600000000000E10   -2.214796414767458E-3   5.138275441579491E-3  
 2.032800000000000E10   -1.258923343014846E-3   5.372072798065812E-3  
 2.033000000000000E10   -2.850669108229640E-4   5.411315400827938E-3  
 2.033200000000000E10    6.571495706702243E-4   5.334363213583153E-3  
 2.033400000000000E10    1.580324424948130E-3   5.108431410887605E-3  
 2.033600000000000E10    1.917013764350748E-3   4.808868749120844E-3  
 2.033800000000000E10    2.951039115365580E-3   4.050976075538638E-3  
 2.034000000000000E10    3.501892763423761E-3   3.523983417745727E-3  
 2.034200000000000E10    4.001867093161179E-3   2.923132950409389E-3  
 2.034400000000000E10    4.388975180731512E-3   2.264732315776096E-3  
 2.034600000000000E10    4.654209347970693E-3   1.619903934609774E-3  
 2.034800000000000E10    4.897885488292564E-3   9.501719901936108E-4  
 2.035000000000000E10    5.132472362951855E-3   1.515200453951242E-4  
 2.035200000000000E10    5.212647303816223E-3  -8.361715913957192E-4  
 2.035400000000000E10    4.988915110658472E-3  -1.794333840862162E-3  
 2.035600000000000E10    4.566902660768587E-3  -2.592540144874358E-3  
 2.035800000000000E10    4.061754827422125E-3  -3.339986772939502E-3  
 2.036000000000000E10    3.412277695489090E-3  -4.043301059615343E-3  
 2.036200000000000E10    2.621911689370810E-3  -4.607746088225779E-3  
 2.036400000000000E10    1.734626016660053E-3  -4.987063355851199E-3  
 2.036600000000000E10    8.035966182231076E-4  -5.128659442097808E-3  
 2.036800000000000E10   -7.973671706351201E-5  -5.054466757892705E-3  
 2.037000000000000E10   -8.802322928080866E-4  -4.898580103545401E-3  
 2.037200000000000E10   -1.599265946604220E-3  -4.701572416710511E-3  
 2.037400000000000E10   -2.270703818150816E-3  -4.427962905800147E-3  
 2.037600000000000E10   -2.990762757735305E-3  -4.072439161209781E-3  
 2.037800000000000E10   -3.757510736676647E-3  -3.526662190831861E-3  
 2.038000000000000E10   -4.370710868081807E-3  -2.769604244809828E-3  
 2.038200000000000E10   -4.773287112161580E-3  -1.934834457972229E-3  
 2.038400000000000E10   -5.007792407945719E-3  -1.058324145291139E-3  
 2.038600000000000E10   -5.038835353566787E-3  -1.381788880980410E-4  
 2.038800000000000E10   -4.901156136037883E-3   7.310776246439497E-4  
 2.039000000000000E10   -4.687566921467522E-3   1.497915875044012E-3  
 2.039200000000000E10   -4.377900051727217E-3   2.198323967709463E-3  
 2.039400000000000E10   -3.928180068248401E-3   2.868019191954485E-3  
 2.039600000000000E10   -3.419860843913975E-3   3.475688253203599E-3  
 2.039800000000000E10   -2.804961845991605E-3   4.038910107464825E-3  
 2.040000000000000E10   -2.089195183397812E-3   4.486937842373986E-3  
 2.040200000000000E10   -1.305806725535067E-3   4.824894390341064E-3  
 2.040400000000000E10   -4.165167840645140E-4   4.995891768791917E-3  
 2.040600000000000E10    5.137209757518623E-4   4.960971780949170E-3  
 2.040800000000000E10    1.420105113782020E-3   4.772546956001364E-3  
 2.041000000000000E10    2.236225951267522E-3   4.385179399278920E-3  
 2.041200000000000E10    2.905372054020994E-3   3.848786069149221E-3  
 2.041400000000000E10    3.468024504175525E-3   3.232342176668254E-3  
 2.041600000000000E10    3.923696881627719E-3   2.562272905682524E-3  
 2.041800000000000E10    4.238993123005080E-3   1.840362540894637E-3  
 2.042000000000000E10    4.413702902709874E-3   1.120797928073923E-3  
 2.042200000000000E10    4.456736708880085E-3   3.843315725632533E-4  
 2.042400000000000E10    4.389076528173906E-3  -3.038644837452836E-4  
 2.042600000000000E10    4.302876020317952E-3  -9.841818835321862E-4  
 2.042800000000000E10    4.101913707875053E-3  -1.684683879047878E-3  
 2.043000000000000E10    3.759755614048844E-3  -2.297176915765147E-3  
 2.043200000000000E10    3.333608962886741E-3  -2.847404451082641E-3  
 2.043400000000000E10    2.864967795939726E-3  -3.351507479432251E-3  
 2.043600000000000E10    2.341983035980981E-3  -3.824564473082622E-3  
 2.043800000000000E10    1.709279928111123E-3  -4.269518672944710E-3  
 2.044000000000000E10    9.146520145498064E-4  -4.599633724371225E-3  
 2.044200000000000E10   -6.787460299741534E-6  -4.731503269278710E-3  
 2.044400000000000E10   -9.813608820626798E-4  -4.597068511317542E-3  
 2.044600000000000E10   -1.811953091422870E-3  -4.179782443009164E-3  
 2.044800000000000E10   -2.367901989477284E-3  -3.661584281535061E-3  
 2.045000000000000E10   -2.781393097468304E-3  -3.179029366116466E-3  
 2.045200000000000E10   -3.202416491407303E-3  -2.756273057771686E-3  
 2.045400000000000E10   -3.654470944148585E-3  -2.261196040843495E-3  
 2.045600000000000E10   -4.049336066308582E-3  -1.641364824678366E-3  
 2.045800000000000E10   -4.334498424880177E-3  -9.212396778319600E-4  
 2.046000000000000E10   -4.437963411196638E-3  -9.873147297903524E-5  
 2.046200000000000E10   -4.353498145094748E-3   7.324847819114971E-4  
 2.046400000000000E10   -4.109108573354690E-3   1.533941193311303E-3  
 2.046600000000000E10   -3.688376799317790E-3   2.212072433252271E-3  
 2.046800000000000E10   -3.151302130072697E-3   2.719377752953045E-3  
 2.047000000000000E10   -2.609304838465075E-3   3.108872833696229E-3  
 2.047200000000000E10   -2.097717703822158E-3   3.440169401949756E-3  
 2.047400000000000E10   -1.551178568560217E-3   3.758847848569722E-3  
 2.047600000000000E10   -9.058108835944853E-4   4.016261476900720E-3  
 2.047800000000000E10   -1.896517994428444E-4   4.105684343618131E-3  
 2.048000000000000E10    5.321336923063630E-4   4.050413014390219E-3  
 2.048200000000000E10    1.250101559998568E-3   3.881830028392406E-3  
 2.048400000000000E10    1.903471878036060E-3   3.575955785872270E-3  
 2.048600000000000E10    2.443869552218620E-3   3.139241175043853E-3  
 2.048800000000000E10    2.872488133747269E-3   2.622403092337428E-3  
 2.049000000000000E10    3.194493241608143E-3   2.091775521819975E-3  
 2.049200000000000E10    3.447358787764984E-3   1.604641138560641E-3  
 2.049400000000000E10    3.696603100716210E-3   1.104217313456161E-3  
 2.049600000000000E10    3.902165870730279E-3   5.144371628117415E-4  
 2.049800000000000E10    4.013048166815391E-3  -1.484809473955548E-4  
 2.050000000000000E10    4.022683768146078E-3  -8.973263543283132E-4  
 2.050200000000000E10    3.902250528143941E-3  -1.705112255757116E-3  
 2.050400000000000E10    3.559159713801105E-3  -2.555234637494686E-3  
 2.050600000000000E10    2.862707680137254E-3  -3.310674674992944E-3  
 2.050800000000000E10    1.915775153713125E-3  -3.769724908641276E-3  
 2.051000000000000E10    9.779452864624898E-4  -3.852292743929252E-3  
 2.051200000000000E10    2.127539882328124E-4  -3.635667097743279E-3  
 2.051400000000000E10   -2.525496734219983E-4  -3.310310820102263E-3  
 2.051600000000000E10   -5.450949430707154E-4  -3.116390648692725E-3  
 2.051800000000000E10   -8.935716296373695E-4  -3.053670036204068E-3  
 2.052000000000000E10   -1.365474753422900E-3  -2.963472052320164E-3  
 2.052200000000000E10   -1.852729629893853E-3  -2.716947065229402E-3  
 2.052400000000000E10   -2.222739077659915E-3  -2.352950570399685E-3  
 2.052600000000000E10   -2.520559923799993E-3  -1.983277193546571E-3  
 2.052800000000000E10   -2.844248650166295E-3  -1.614736675748548E-3  
 2.053000000000000E10   -3.144265101731989E-3  -1.136286385882447E-3  
 2.053200000000000E10   -3.308146012517712E-3  -5.991062426790137E-4  
 2.053400000000000E10   -3.410739122809452E-3  -5.148350841027648E-5  
 2.053600000000000E10   -3.424626658191529E-3   6.026693393664105E-4  
 2.053800000000000E10   -3.234893398804001E-3   1.318350317408887E-3  
 2.054000000000000E10   -2.827587644780369E-3   1.898991202728616E-3  
 2.054200000000000E10   -2.360325702370256E-3   2.276871199125555E-3  
 2.054400000000000E10   -1.862661060762167E-3   2.556565369061605E-3  
 2.054600000000000E10   -1.343303740430823E-3   2.756069261013481E-3  
 2.054800000000000E10   -8.271110168401414E-4   2.827007079175041E-3  
 2.055000000000000E10   -3.995898801175502E-4   2.741764844759318E-3  
 2.055200000000000E10   -1.296026683929894E-4   2.643380311237258E-3  
 2.055400000000000E10    9.614269398193546E-5   2.635220929964948E-3  
 2.055600000000000E10    4.162311206864953E-4   2.726914994456947E-3  
