#  HZ   S   RI   R     50.00 
! Rohde & Schwarz ZVA40 4Ports - Version 3.90 - 1145.1110k42 SN: 100403
! Date: 2023-10-03 11:43:27
! Measurement: S12 
! 
 2.000000000000000E10    3.973512775925805E-4  -5.910972420724086E-3  
 2.000200000000000E10   -6.101598817981597E-4  -6.014892808449122E-3  
 2.000400000000000E10   -1.684462418779731E-3  -5.854199295518576E-3  
 2.000600000000000E10   -2.671818398399118E-3  -5.502058532272961E-3  
 2.000800000000000E10   -3.553281259366577E-3  -4.987816263082220E-3  
 2.001000000000000E10   -4.394255877460963E-3  -4.348025967677435E-3  
 2.001200000000000E10   -5.203471392577078E-3  -3.541626887005053E-3  
 2.001400000000000E10   -5.848025512180211E-3  -2.535030452741517E-3  
 2.001600000000000E10   -6.209532810766021E-3  -1.379673867946330E-3  
 2.001800000000000E10   -6.282477139460821E-3  -2.631132234388066E-4  
 2.002000000000000E10   -6.170804278902067E-3   8.564749660752255E-4  
 2.002200000000000E10   -5.833686323675477E-3   2.004426102050477E-3  
 2.002400000000000E10   -5.311929137894402E-3   2.962654830175050E-3  
 2.002600000000000E10   -4.634030048310022E-3   3.707773282112164E-3  
 2.002800000000000E10   -3.917286373720861E-3   4.302265777907990E-3  
 2.003000000000000E10   -3.113542508080970E-3   4.807834404256242E-3  
 2.003200000000000E10   -2.336015812707720E-3   5.189673647422483E-3  
 2.003400000000000E10   -1.557753700188097E-3   5.491659602863186E-3  
 2.003600000000000E10   -7.353228212184746E-4   5.700357637747571E-3  
 2.003800000000000E10    1.846759078034666E-4   5.803077079263735E-3  
 2.004000000000000E10    1.169911094216837E-3   5.738399934345558E-3  
 2.004200000000000E10    2.121623056469324E-3   5.482811498007289E-3  
 2.004400000000000E10    2.987801376155314E-3   5.081719006009309E-3  
 2.004600000000000E10    3.752333215541310E-3   4.532140219745078E-3  
 2.004800000000000E10    4.433613195785403E-3   3.913754626050776E-3  
 2.005000000000000E10    5.148268212782749E-3   3.167203110125330E-3  
 2.005200000000000E10    5.705464786539475E-3   2.227283318607528E-3  
 2.005400000000000E10    6.035214071564470E-3   1.266969155152271E-3  
 2.005600000000000E10    6.258392712262311E-3   2.275241245508459E-4  
 2.005800000000000E10    6.258760050031139E-3  -9.431362563146304E-4  
 2.006000000000000E10    5.978420215808316E-3  -2.144260248629216E-3  
 2.006200000000000E10    5.432237957224802E-3  -3.168308613017018E-3  
 2.006400000000000E10    4.727308069252307E-3  -3.987738069284846E-3  
 2.006600000000000E10    3.923915947477023E-3  -4.646969453236204E-3  
 2.006800000000000E10    3.073629701832011E-3  -5.179416807943290E-3  
 2.007000000000000E10    2.157816079870603E-3  -5.647771779079865E-3  
 2.007200000000000E10    1.151610229072380E-3  -5.897459712017467E-3  
 2.007400000000000E10    1.697539261874260E-4  -5.946375044453660E-3  
 2.007600000000000E10   -8.206331102108515E-4  -5.826889134851503E-3  
 2.007800000000000E10   -1.754325918025441E-3  -5.530298296592118E-3  
 2.008000000000000E10   -2.531841877319011E-3  -5.156849631694733E-3  
 2.008200000000000E10   -3.239101793525029E-3  -4.783088157390371E-3  
 2.008400000000000E10   -4.009735023165927E-3  -4.337273112693687E-3  
 2.008600000000000E10   -4.796630110775616E-3  -3.609917014492332E-3  
 2.008800000000000E10   -5.387419518543248E-3  -2.694489598205245E-3  
 2.009000000000000E10   -5.778329308938098E-3  -1.779234352993009E-3  
 2.009200000000000E10   -6.111434925301577E-3  -8.366041332425805E-4  
 2.009400000000000E10   -6.298673609386625E-3   2.979178875929067E-4  
 2.009600000000000E10   -6.157153809190165E-3   1.602367561218548E-3  
 2.009800000000000E10   -5.629109029002764E-3   2.781514679139227E-3  
 2.010000000000000E10   -4.867300023267299E-3   3.671240659407628E-3  
 2.010200000000000E10   -4.021591161964117E-3   4.297652735984253E-3  
 2.010400000000000E10   -3.207731351003419E-3   4.693055289717001E-3  
 2.010600000000000E10   -2.485826640263384E-3   5.008246036775319E-3  
 2.010800000000000E10   -1.787285002833807E-3   5.378783502282552E-3  
 2.011000000000000E10   -9.416417645600935E-4   5.743786307442704E-3  
 2.011200000000000E10    9.286845423407668E-5   5.937283812665646E-3  
 2.011400000000000E10    1.227318231637279E-3   5.809888577111710E-3  
 2.011600000000000E10    2.285639079931526E-3   5.436419584087016E-3  
 2.011800000000000E10    3.167971827802652E-3   4.850287358334036E-3  
 2.012000000000000E10    3.801359076420835E-3   4.191556870707392E-3  
 2.012200000000000E10    4.318702345093092E-3   3.568605755536278E-3  
 2.012400000000000E10    4.905435158928604E-3   2.913208390919515E-3  
 2.012600000000000E10    5.477842259692190E-3   2.050261041954344E-3  
 2.012800000000000E10    5.812976561072800E-3   9.774886514347645E-4  
 2.013000000000000E10    5.843558032525544E-3  -1.015740976813336E-4  
 2.013200000000000E10    5.642330854625247E-3  -1.095893894851116E-3  
 2.013400000000000E10    5.349464409835178E-3  -2.029845689388890E-3  
 2.013600000000000E10    4.900282582291115E-3  -2.968333917382507E-3  
 2.013800000000000E10    4.226459667408540E-3  -3.774141306402507E-3  
 2.014000000000000E10    3.399985207152772E-3  -4.340503313061264E-3  
 2.014200000000000E10    2.582922718706139E-3  -4.664591490578505E-3  
 2.014400000000000E10    1.881443590707617E-3  -4.922803842037181E-3  
 2.014600000000000E10    1.143226375584893E-3  -5.209677651478554E-3  
 2.014800000000000E10    3.000651730546430E-4  -5.384334679233072E-3  
 2.015000000000000E10   -5.782911806212118E-4  -5.361945667292601E-3  
 2.015200000000000E10   -1.444257837490259E-3  -5.234076733482473E-3  
 2.015400000000000E10   -2.363511510653261E-3  -4.983034427565190E-3  
 2.015600000000000E10   -3.211352787337002E-3  -4.520904686715868E-3  
 2.015800000000000E10   -3.955222493796437E-3  -3.931554537381471E-3  
 2.016000000000000E10   -4.622096546500186E-3  -3.188100994139175E-3  
 2.016200000000000E10   -5.142334664677397E-3  -2.323804213377981E-3  
 2.016400000000000E10   -5.512943106163064E-3  -1.338834259199140E-3  
 2.016600000000000E10   -5.646902125006841E-3  -3.223199236356182E-4  
 2.016800000000000E10   -5.575759186880825E-3   6.532639000610806E-4  
 2.017000000000000E10   -5.344439407143697E-3   1.599349910795781E-3  
 2.017200000000000E10   -4.943673619655548E-3   2.529291677530165E-3  
 2.017400000000000E10   -4.362754822697169E-3   3.342620531143046E-3  
 2.017600000000000E10   -3.651528216806459E-3   3.942199769993256E-3  
 2.017800000000000E10   -2.967747051935690E-3   4.382695100143736E-3  
 2.018000000000000E10   -2.248714594630364E-3   4.807287183256797E-3  
 2.018200000000000E10   -1.430790825390522E-3   5.181103473368251E-3  
 2.018400000000000E10   -5.475052892529395E-4   5.404048616549483E-3  
 2.018600000000000E10    3.810222257060908E-4   5.481314362475166E-3  
 2.018800000000000E10    1.367105084850833E-3   5.382092767337591E-3  
 2.019000000000000E10    2.353733667046016E-3   5.046205071985355E-3  
 2.019200000000000E10    3.233664919173828E-3   4.507483310859513E-3  
 2.019400000000000E10    3.963060156775662E-3   3.832125303300995E-3  
 2.019600000000000E10    4.557020140144929E-3   3.040723968297244E-3  
 2.019800000000000E10    4.962093277293959E-3   2.099585043910293E-3  
 2.020000000000000E10    5.130497215568653E-3   1.133539042734530E-3  
 2.020200000000000E10    5.101500814895571E-3   2.816724659225410E-4  
 2.020400000000000E10    5.018005268303333E-3  -4.453069205614337E-4  
 2.020600000000000E10    4.899015213236397E-3  -1.165901759156475E-3  
 2.020800000000000E10    4.628004833917928E-3  -1.910841237627154E-3  
 2.021000000000000E10    4.313157670153881E-3  -2.527812541818914E-3  
 2.021200000000000E10    4.114393162092677E-3  -3.203753183630330E-3  
 2.021400000000000E10    3.676643261662973E-3  -4.085853368181874E-3  
 2.021600000000000E10    2.837631196059563E-3  -4.863179329046865E-3  
 2.021800000000000E10    1.772808986083593E-3  -5.311918295459983E-3  
 2.022000000000000E10    7.831340089417352E-4  -5.497766422958655E-3  
 2.022200000000000E10   -1.668338750109629E-4  -5.583880572683282E-3  
 2.022400000000000E10   -1.167844937838338E-3  -5.537496994674943E-3  
 2.022600000000000E10   -2.199173695120363E-3  -5.247028906726176E-3  
 2.022800000000000E10   -3.152724392827095E-3  -4.718204276107345E-3  
 2.023000000000000E10   -3.967799757963714E-3  -4.027822428601393E-3  
 2.023200000000000E10   -4.628386653177901E-3  -3.192664848433601E-3  
 2.023400000000000E10   -5.025619704184341E-3  -2.204019938492113E-3  
 2.023600000000000E10   -5.134489163066503E-3  -1.270354312936557E-3  
 2.023800000000000E10   -5.183650807328064E-3  -4.370251776834514E-4  
 2.024000000000000E10   -5.173011723169942E-3   4.147586098693910E-4  
 2.024200000000000E10   -4.970423699023180E-3   1.241434408627727E-3  
 2.024400000000000E10   -4.674481101518061E-3   1.943127529546159E-3  
 2.024600000000000E10   -4.347604118793468E-3   2.657569007787072E-3  
 2.024800000000000E10   -3.891218695099708E-3   3.387868444630762E-3  
 2.025000000000000E10   -3.289525779424075E-3   4.023462108531852E-3  
 2.025200000000000E10   -2.595817983541408E-3   4.547952921532187E-3  
 2.025400000000000E10   -1.776227333732410E-3   4.931240652998289E-3  
 2.025600000000000E10   -8.652834379815578E-4   5.179640538070673E-3  
 2.025800000000000E10    4.693598757400236E-5   5.252038887529462E-3  
 2.026000000000000E10    9.339710576804702E-4   5.149634434255186E-3  
 2.026200000000000E10    1.749280271016889E-3   4.895172748760677E-3  
 2.026400000000000E10    2.500015552397128E-3   4.581778626429079E-3  
 2.026600000000000E10    3.293422984971125E-3   4.144588939523624E-3  
 2.026800000000000E10    4.034599082337486E-3   3.532978447361126E-3  
 2.027000000000000E10    4.609351707507431E-3   2.724355825418492E-3  
 2.027200000000000E10    4.896936667968094E-3   1.878085491580912E-3  
 2.027400000000000E10    5.105847400831589E-3   1.115711549595918E-3  
 2.027600000000000E10    5.298365091468082E-3   2.589019861239020E-4  
 2.027800000000000E10    5.334683688196504E-3  -6.352682392411855E-4  
 2.028000000000000E10    5.248030636137651E-3  -1.563468416232938E-3  
 2.028200000000000E10    4.948174954610475E-3  -2.551780887132074E-3  
 2.028400000000000E10    4.347693548756250E-3  -3.466765482530550E-3  
 2.028600000000000E10    3.590530994704661E-3  -4.152386748220450E-3  
 2.028800000000000E10    2.804381284218880E-3  -4.644573654657530E-3  
 2.029000000000000E10    2.020931658967410E-3  -5.042396669770465E-3  
 2.029200000000000E10    1.113423535795768E-3  -5.348584292755452E-3  
 2.029400000000000E10    7.860881736700389E-5  -5.437488339979341E-3  
 2.029600000000000E10   -8.821607104583105E-4  -5.257835651943345E-3  
 2.029800000000000E10   -1.642089946494427E-3  -4.950563544062554E-3  
 2.030000000000000E10   -2.328713415880447E-3  -4.653586741582848E-3  
 2.030200000000000E10   -3.081081581681416E-3  -4.267220057685067E-3  
 2.030400000000000E10   -3.831960944987742E-3  -3.677047590759618E-3  
 2.030600000000000E10   -4.359976388514042E-3  -2.926608883879251E-3  
 2.030800000000000E10   -4.715098292325383E-3  -2.209272732912207E-3  
 2.031000000000000E10   -5.000243193389458E-3  -1.472277625716855E-3  
 2.031200000000000E10   -5.216116010912776E-3  -6.920616164010156E-4  
 2.031400000000000E10   -5.374727914408770E-3   1.734327577449019E-4  
 2.031600000000000E10   -5.389760731271020E-3   1.088085460741027E-3  
 2.031800000000000E10   -5.179318013014618E-3   2.011696839659119E-3  
 2.032000000000000E10   -4.812535467661090E-3   2.885584693609013E-3  
 2.032200000000000E10   -4.308808709920189E-3   3.756438177883810E-3  
 2.032400000000000E10   -3.585475678038267E-3   4.557673813614213E-3  
 2.032600000000000E10   -2.687638332308443E-3   5.184193946605112E-3  
 2.032800000000000E10   -1.666658652808380E-3   5.591129090774943E-3  
 2.033000000000000E10   -5.915755496567322E-4   5.748861670540072E-3  
 2.033200000000000E10    4.686599731715512E-4   5.734702417006096E-3  
 2.033400000000000E10    1.541944894721203E-3   5.532260225326927E-3  
 2.033600000000000E10    2.008185601206842E-3   5.220056781660260E-3  
 2.033800000000000E10    3.201154514825271E-3   4.340445053660208E-3  
 2.034000000000000E10    3.757646819001731E-3   3.689699766030651E-3  
 2.034200000000000E10    4.213322753109683E-3   3.027833857355111E-3  
 2.034400000000000E10    4.583488695645406E-3   2.324771656321339E-3  
 2.034600000000000E10    4.854935290360893E-3   1.618784669798190E-3  
 2.034800000000000E10    5.072716330350550E-3   8.949072719666603E-4  
 2.035000000000000E10    5.260149597615740E-3   8.727801392569186E-5  
 2.035200000000000E10    5.316035873774026E-3  -8.782748280978408E-4  
 2.035400000000000E10    5.114641851159158E-3  -1.853167392704406E-3  
 2.035600000000000E10    4.717134675126017E-3  -2.715739542273460E-3  
 2.035800000000000E10    4.177909827342740E-3  -3.519493502990148E-3  
 2.036000000000000E10    3.462106972518895E-3  -4.229708856408611E-3  
 2.036200000000000E10    2.634266152816975E-3  -4.753903980240410E-3  
 2.036400000000000E10    1.735654044436452E-3  -5.119318435727447E-3  
 2.036600000000000E10    7.957897219450479E-4  -5.255738733175361E-3  
 2.036800000000000E10   -1.044514259617391E-4  -5.205557779351503E-3  
 2.037000000000000E10   -9.124276701096494E-4  -5.049704528057282E-3  
 2.037200000000000E10   -1.664177773313390E-3  -4.854342440304198E-3  
 2.037400000000000E10   -2.386606100049836E-3  -4.579952584556592E-3  
 2.037600000000000E10   -3.123690428810172E-3  -4.231638183104404E-3  
 2.037800000000000E10   -3.905641438186537E-3  -3.714604510201349E-3  
 2.038000000000000E10   -4.597627874003885E-3  -2.978996597920304E-3  
 2.038200000000000E10   -5.099515258162110E-3  -2.070005957244171E-3  
 2.038400000000000E10   -5.382630721102527E-3  -1.102886455892413E-3  
 2.038600000000000E10   -5.443042828299014E-3  -9.732958314549412E-5  
 2.038800000000000E10   -5.318633729109058E-3   8.812558982394820E-4  
 2.039000000000000E10   -5.055161325238002E-3   1.771564295021012E-3  
 2.039200000000000E10   -4.649399590023138E-3   2.603746599943182E-3  
 2.039400000000000E10   -4.100703513594690E-3   3.336138166717174E-3  
 2.039600000000000E10   -3.483986404413979E-3   3.961034251353992E-3  
 2.039800000000000E10   -2.742858181052186E-3   4.519219424023674E-3  
 2.040000000000000E10   -1.881742496388378E-3   4.918287950855347E-3  
 2.040200000000000E10   -9.938394463977515E-4   5.148381983608376E-3  
 2.040400000000000E10   -5.500478149725154E-5   5.210632366346725E-3  
 2.040600000000000E10    8.836395831571686E-4   5.075600118962704E-3  
 2.040800000000000E10    1.783982724135305E-3   4.782254071791232E-3  
 2.041000000000000E10    2.568093450441037E-3   4.289828246620335E-3  
 2.041200000000000E10    3.155830934252821E-3   3.711725389699877E-3  
 2.041400000000000E10    3.671118230731400E-3   3.126316226696895E-3  
 2.041600000000000E10    4.146925432400571E-3   2.454238759790674E-3  
 2.041800000000000E10    4.494435677051913E-3   1.649563146157214E-3  
 2.042000000000000E10    4.628380760550499E-3   8.020666665052652E-4  
 2.042200000000000E10    4.554069336549736E-3  -1.439792335818141E-5  
 2.042400000000000E10    4.330663941800594E-3  -6.928675898557736E-4  
 2.042600000000000E10    4.132076086085521E-3  -1.282631932688808E-3  
 2.042800000000000E10    3.885835311433048E-3  -1.907431675742070E-3  
 2.043000000000000E10    3.536329432218164E-3  -2.492687765531886E-3  
 2.043200000000000E10    3.091548684478542E-3  -3.002989528424763E-3  
 2.043400000000000E10    2.595287123924973E-3  -3.438884858042003E-3  
 2.043600000000000E10    2.095038722338224E-3  -3.853089736636590E-3  
 2.043800000000000E10    1.461200646044296E-3  -4.293529426012143E-3  
 2.044000000000000E10    6.178157356636669E-4  -4.608841049542399E-3  
 2.044200000000000E10   -3.425003755923913E-4  -4.646222314072981E-3  
 2.044400000000000E10   -1.273559923801157E-3  -4.374680172560024E-3  
 2.044600000000000E10   -1.991978685521050E-3  -3.882742696729156E-3  
 2.044800000000000E10   -2.453573004997991E-3  -3.387091695733461E-3  
 2.045000000000000E10   -2.828276957626696E-3  -2.957631451549171E-3  
 2.045200000000000E10   -3.229220354653620E-3  -2.531874910525886E-3  
 2.045400000000000E10   -3.630353942697431E-3  -2.012985919452744E-3  
 2.045600000000000E10   -3.947376250576827E-3  -1.398892613288797E-3  
 2.045800000000000E10   -4.186755822350582E-3  -7.044519922972003E-4  
 2.046000000000000E10   -4.248849978601492E-3   9.443965416407374E-5  
 2.046200000000000E10   -4.093735116637416E-3   8.772128760343259E-4  
 2.046400000000000E10   -3.779164092891195E-3   1.594732488206600E-3  
 2.046600000000000E10   -3.338313049257354E-3   2.161097879533047E-3  
 2.046800000000000E10   -2.870006170583729E-3   2.549993848704078E-3  
 2.047000000000000E10   -2.417811750215881E-3   2.874987955883514E-3  
 2.047200000000000E10   -1.969791925799700E-3   3.178112800980424E-3  
 2.047400000000000E10   -1.485170785015748E-3   3.451439517515678E-3  
 2.047600000000000E10   -9.212376848783024E-4   3.697492906616795E-3  
 2.047800000000000E10   -2.766778321798753E-4   3.834017745023709E-3  
 2.048000000000000E10    3.791152220075652E-4   3.801140776134016E-3  
 2.048200000000000E10    1.023755809090986E-3   3.652521365977548E-3  
 2.048400000000000E10    1.650002236006621E-3   3.406888345417418E-3  
 2.048600000000000E10    2.168666991048758E-3   3.052423498305826E-3  
 2.048800000000000E10    2.601811486974727E-3   2.607621899288562E-3  
 2.049000000000000E10    2.940136830057995E-3   2.135653836353694E-3  
 2.049200000000000E10    3.195056042139545E-3   1.684524031229501E-3  
 2.049400000000000E10    3.483135405536972E-3   1.227334243774322E-3  
 2.049600000000000E10    3.734233556315303E-3   6.697995201569557E-4  
 2.049800000000000E10    3.901634902842804E-3   3.198967735645259E-5  
 2.050000000000000E10    3.951806462956248E-3  -7.107666295516179E-4  
 2.050200000000000E10    3.824736787880093E-3  -1.541692032018838E-3  
 2.050400000000000E10    3.474938459004518E-3  -2.356931937996436E-3  
 2.050600000000000E10    2.858781224162675E-3  -3.058625129338953E-3  
 2.050800000000000E10    2.041318049987802E-3  -3.516683274489127E-3  
 2.051000000000000E10    1.192638898458056E-3  -3.689845058101196E-3  
 2.051200000000000E10    4.325059233923203E-4  -3.585829569118811E-3  
 2.051400000000000E10   -1.113749282394340E-4  -3.353134524882024E-3  
 2.051600000000000E10   -4.692261184876164E-4  -3.172262545882000E-3  
 2.051800000000000E10   -8.296858293671209E-4  -3.077386041965198E-3  
 2.052000000000000E10   -1.304037851729879E-3  -2.948654861545857E-3  
 2.052200000000000E10   -1.766548230439241E-3  -2.694131935843163E-3  
 2.052400000000000E10   -2.111198202373437E-3  -2.386238943371508E-3  
 2.052600000000000E10   -2.408244141182046E-3  -2.069478304079378E-3  
 2.052800000000000E10   -2.720550128063303E-3  -1.749910109526950E-3  
 2.053000000000000E10   -3.046153803114539E-3  -1.358116787202932E-3  
 2.053200000000000E10   -3.306816998915173E-3  -8.572547388964415E-4  
 2.053400000000000E10   -3.519278994106033E-3  -3.107600661431566E-4  
 2.053600000000000E10   -3.658785815293223E-3   3.506044900680053E-4  
 2.053800000000000E10   -3.589657529107767E-3   1.133954199174718E-3  
 2.054000000000000E10   -3.257948545923020E-3   1.903945831639439E-3  
 2.054200000000000E10   -2.754599100300743E-3   2.498282361085768E-3  
 2.054400000000000E10   -2.128258942522937E-3   2.924471340475627E-3  
 2.054600000000000E10   -1.436658088623742E-3   3.171000388209467E-3  
 2.054800000000000E10   -7.497099821777716E-4   3.201966363660716E-3  
 2.055000000000000E10   -1.941989835302840E-4   3.012650373196345E-3  
 2.055200000000000E10    1.091676915817561E-4   2.825598238197006E-3  
 2.055400000000000E10    3.662830761944255E-4   2.808209790353790E-3  
 2.055600000000000E10    7.347416665899442E-4   2.809217449760548E-3  
