#  HZ   S   RI   R     50.00 
! Rohde & Schwarz ZVA40 4Ports - Version 3.90 - 1145.1110k42 SN: 100403
! Date: 2023-10-03 11:44:44
! Measurement: S12 
! 
 2.000000000000000E10    6.994083394399949E-4  -6.411298695537780E-3  
 2.000200000000000E10   -3.195958496588800E-4  -6.470671596212520E-3  
 2.000400000000000E10   -1.434433597346975E-3  -6.276386703743980E-3  
 2.000600000000000E10   -2.448728325328341E-3  -5.911128078069952E-3  
 2.000800000000000E10   -3.342472896393803E-3  -5.484947193138026E-3  
 2.001000000000000E10   -4.213578757588511E-3  -5.011409227908762E-3  
 2.001200000000000E10   -5.138664178688218E-3  -4.313842824625749E-3  
 2.001400000000000E10   -5.959183495077823E-3  -3.289822799464067E-3  
 2.001600000000000E10   -6.485438233034480E-3  -2.064814441837370E-3  
 2.001800000000000E10   -6.703867939197356E-3  -8.958457770791872E-4  
 2.002000000000000E10   -6.707835252638217E-3   2.560022134006162E-4  
 2.002200000000000E10   -6.464130831537425E-3   1.483683918464791E-3  
 2.002400000000000E10   -6.054071123125377E-3   2.585765250303128E-3  
 2.002600000000000E10   -5.475116824662245E-3   3.561142168042285E-3  
 2.002800000000000E10   -4.789709199771838E-3   4.377189971920517E-3  
 2.003000000000000E10   -3.985528963514501E-3   5.029210820794106E-3  
 2.003200000000000E10   -3.122625139507431E-3   5.564213782134984E-3  
 2.003400000000000E10   -2.155683951935283E-3   6.023577949101175E-3  
 2.003600000000000E10   -1.146765718995421E-3   6.318896663961588E-3  
 2.003800000000000E10   -1.213992167052951E-4   6.441346283450172E-3  
 2.004000000000000E10    9.131881740392636E-4   6.366394218747263E-3  
 2.004200000000000E10    1.961439313298023E-3   6.114923567683609E-3  
 2.004400000000000E10    2.974716972352730E-3   5.719613577066749E-3  
 2.004600000000000E10    3.883468332114044E-3   5.165472850893384E-3  
 2.004800000000000E10    4.673206230142603E-3   4.515434632560721E-3  
 2.005000000000000E10    5.398073923532610E-3   3.675198191087003E-3  
 2.005200000000000E10    5.936745278261327E-3   2.671171376412666E-3  
 2.005400000000000E10    6.305909750086292E-3   1.669622082435699E-3  
 2.005600000000000E10    6.600150872987731E-3   6.182038945283879E-4  
 2.005800000000000E10    6.680724659451733E-3  -5.455916473659239E-4  
 2.006000000000000E10    6.427164672425501E-3  -1.779530227563724E-3  
 2.006200000000000E10    5.892087584706370E-3  -2.850078675826943E-3  
 2.006400000000000E10    5.297807252241506E-3  -3.711932312904133E-3  
 2.006600000000000E10    4.655905706049116E-3  -4.484130552521459E-3  
 2.006800000000000E10    3.914224449545146E-3  -5.161873427116210E-3  
 2.007000000000000E10    2.994747246029201E-3  -5.787218558705516E-3  
 2.007200000000000E10    1.905551214736921E-3  -6.216997660144613E-3  
 2.007400000000000E10    8.312887339680284E-4  -6.423171989067838E-3  
 2.007600000000000E10   -2.269625364095663E-4  -6.464421404180704E-3  
 2.007800000000000E10   -1.274044194293243E-3  -6.275943066510890E-3  
 2.008000000000000E10   -2.211799672632306E-3  -5.926837368557853E-3  
 2.008200000000000E10   -3.117855051877323E-3  -5.558777324579381E-3  
 2.008400000000000E10   -4.055556754961059E-3  -5.118048232462672E-3  
 2.008600000000000E10   -4.955430515110493E-3  -4.401083138805849E-3  
 2.008800000000000E10   -5.627746831763675E-3  -3.441323069165702E-3  
 2.009000000000000E10   -6.068600479651382E-3  -2.447761500392247E-3  
 2.009200000000000E10   -6.453970705883372E-3  -1.469093198129149E-3  
 2.009400000000000E10   -6.782698013854250E-3  -3.710616341171166E-4  
 2.009600000000000E10   -6.841171343155482E-3   9.493073168279673E-4  
 2.009800000000000E10   -6.459324551677264E-3   2.226515293673233E-3  
 2.010000000000000E10   -5.832011311280507E-3   3.313336279933100E-3  
 2.010200000000000E10   -5.051640241786287E-3   4.233470428045150E-3  
 2.010400000000000E10   -4.255033822523223E-3   4.865826969897307E-3  
 2.010600000000000E10   -3.472703474539298E-3   5.393191965089904E-3  
 2.010800000000000E10   -2.601465917433854E-3   5.878025407178535E-3  
 2.011000000000000E10   -1.630067915862633E-3   6.310310904626495E-3  
 2.011200000000000E10   -5.271161154033272E-4   6.617712495089682E-3  
 2.011400000000000E10    6.487010741019967E-4   6.648464663023200E-3  
 2.011600000000000E10    1.797602261865029E-3   6.416634415034895E-3  
 2.011800000000000E10    2.883203431136079E-3   5.949215377094570E-3  
 2.012000000000000E10    3.844415872461266E-3   5.364079062861425E-3  
 2.012200000000000E10    4.718369631855577E-3   4.664396211780884E-3  
 2.012400000000000E10    5.480387041138278E-3   3.844656110568731E-3  
 2.012600000000000E10    6.085434100694128E-3   2.848040691956326E-3  
 2.012800000000000E10    6.502378007604017E-3   1.669594961977392E-3  
 2.013000000000000E10    6.669213236482056E-3   4.364813966849061E-4  
 2.013200000000000E10    6.581157342427308E-3  -7.332132706694581E-4  
 2.013400000000000E10    6.310290915684569E-3  -1.809518706674377E-3  
 2.013600000000000E10    5.861206376856125E-3  -2.841086109617242E-3  
 2.013800000000000E10    5.245767844220003E-3  -3.828162318785434E-3  
 2.014000000000000E10    4.417526794390546E-3  -4.684800730535278E-3  
 2.014200000000000E10    3.519770232270713E-3  -5.240925087559003E-3  
 2.014400000000000E10    2.689933197365867E-3  -5.633956011108779E-3  
 2.014600000000000E10    1.779287510241072E-3  -6.041878196238369E-3  
 2.014800000000000E10    7.025012660219715E-4  -6.314080381007108E-3  
 2.015000000000000E10   -4.254632911869084E-4  -6.355379156216429E-3  
 2.015200000000000E10   -1.493613800482342E-3  -6.182197533133958E-3  
 2.015400000000000E10   -2.523565742497643E-3  -5.829739832767735E-3  
 2.015600000000000E10   -3.485447761637193E-3  -5.259843543171883E-3  
 2.015800000000000E10   -4.336620905195122E-3  -4.581408799384480E-3  
 2.016000000000000E10   -5.117486886404179E-3  -3.806387884887281E-3  
 2.016200000000000E10   -5.747006016059055E-3  -2.873284000627421E-3  
 2.016400000000000E10   -6.130586688717208E-3  -1.757309319347971E-3  
 2.016600000000000E10   -6.271942380677771E-3  -5.959422980797375E-4  
 2.016800000000000E10   -6.196350497366103E-3   5.244658181995706E-4  
 2.017000000000000E10   -5.925712882782575E-3   1.549799896397249E-3  
 2.017200000000000E10   -5.485070024237589E-3   2.464742503232427E-3  
 2.017400000000000E10   -4.910641746526516E-3   3.257172018358553E-3  
 2.017600000000000E10   -4.246685602184800E-3   3.918475350709978E-3  
 2.017800000000000E10   -3.646995372104425E-3   4.455598019477394E-3  
 2.018000000000000E10   -3.050987651847579E-3   5.031187690932443E-3  
 2.018200000000000E10   -2.295798837655673E-3   5.606384896155861E-3  
 2.018400000000000E10   -1.307942594091098E-3   6.068373202449747E-3  
 2.018600000000000E10   -1.484239915885997E-4   6.323676487361945E-3  
 2.018800000000000E10    1.080594767160990E-3   6.307941516516386E-3  
 2.019000000000000E10    2.239254010082395E-3   6.002952862117026E-3  
 2.019200000000000E10    3.279896565126601E-3   5.448380347203326E-3  
 2.019400000000000E10    4.232604763712045E-3   4.700003140088585E-3  
 2.019600000000000E10    5.023419098169716E-3   3.768411163171685E-3  
 2.019800000000000E10    5.554323705534141E-3   2.706782857852954E-3  
 2.020000000000000E10    5.783855018240434E-3   1.636236168754598E-3  
 2.020200000000000E10    5.743243231403608E-3   6.355211888957355E-4  
 2.020400000000000E10    5.623021128552932E-3  -1.994750956639648E-4  
 2.020600000000000E10    5.536321222920110E-3  -9.993011394895063E-4  
 2.020800000000000E10    5.326832817108543E-3  -1.819652531089054E-3  
 2.021000000000000E10    5.040003797384325E-3  -2.519246087306076E-3  
 2.021200000000000E10    4.783891451855501E-3  -3.308375848940125E-3  
 2.021400000000000E10    4.261472227948684E-3  -4.303599759522412E-3  
 2.021600000000000E10    3.381063376932785E-3  -5.164398915237851E-3  
 2.021800000000000E10    2.349503010649372E-3  -5.706793438919166E-3  
 2.022000000000000E10    1.339401985104713E-3  -5.971268905947606E-3  
 2.022200000000000E10    2.995691611431539E-4  -6.132594344240649E-3  
 2.022400000000000E10   -8.231512447646648E-4  -6.146858256586172E-3  
 2.022600000000000E10   -1.955361390072439E-3  -5.917210494064623E-3  
 2.022800000000000E10   -2.953111332047869E-3  -5.470423717741614E-3  
 2.023000000000000E10   -3.831192419898731E-3  -4.863042384386063E-3  
 2.023200000000000E10   -4.642039158002095E-3  -4.095567959464259E-3  
 2.023400000000000E10   -5.309836059394810E-3  -3.161953839783868E-3  
 2.023600000000000E10   -5.768300568753923E-3  -2.141033161293578E-3  
 2.023800000000000E10   -5.996377517779670E-3  -1.103782095015049E-3  
 2.024000000000000E10   -6.028990623437697E-3  -3.635824463412130E-5  
 2.024200000000000E10   -5.839481794585785E-3   9.931944853936634E-4  
 2.024400000000000E10   -5.553819032178985E-3   1.880400809804323E-3  
 2.024600000000000E10   -5.239825281831954E-3   2.745369500997994E-3  
 2.024800000000000E10   -4.719753335747454E-3   3.619016872511970E-3  
 2.025000000000000E10   -4.001084956581947E-3   4.346736775780166E-3  
 2.025200000000000E10   -3.228749838416224E-3   4.937126283982287E-3  
 2.025400000000000E10   -2.378079246867586E-3   5.444895407115973E-3  
 2.025600000000000E10   -1.438723230320547E-3   5.814779342876541E-3  
 2.025800000000000E10   -4.474997166889134E-4   5.979199704058746E-3  
 2.026000000000000E10    6.008470685359229E-4   5.967459882851001E-3  
 2.026200000000000E10    1.618825739973949E-3   5.771619957630282E-3  
 2.026400000000000E10    2.565595511071109E-3   5.474821698886377E-3  
 2.026600000000000E10    3.523491512708091E-3   5.007324740290642E-3  
 2.026800000000000E10    4.382648177582910E-3   4.298790892655099E-3  
 2.027000000000000E10    5.048335943784979E-3   3.384275137688276E-3  
 2.027200000000000E10    5.480034069882499E-3   2.429388472120519E-3  
 2.027400000000000E10    5.764847328127535E-3   1.534221736990192E-3  
 2.027600000000000E10    5.927439710056342E-3   6.345041781767376E-4  
 2.027800000000000E10    5.983919888320898E-3  -2.640260855615553E-4  
 2.028000000000000E10    6.018455985381649E-3  -1.252120119278078E-3  
 2.028200000000000E10    5.857112334558258E-3  -2.381431050943556E-3  
 2.028400000000000E10    5.403506690291344E-3  -3.507570303217681E-3  
 2.028600000000000E10    4.665803923099130E-3  -4.488609058575498E-3  
 2.028800000000000E10    3.719526713851978E-3  -5.239905668767515E-3  
 2.029000000000000E10    2.707117280267455E-3  -5.807167884928209E-3  
 2.029200000000000E10    1.624553179782298E-3  -6.225560257142342E-3  
 2.029400000000000E10    4.548289806633775E-4  -6.419215075395726E-3  
 2.029600000000000E10   -7.293146896969391E-4  -6.284188617158820E-3  
 2.029800000000000E10   -1.749556899691622E-3  -5.906101643901182E-3  
 2.030000000000000E10   -2.612457921107610E-3  -5.499654742716640E-3  
 2.030200000000000E10   -3.494300362136629E-3  -5.041994033726278E-3  
 2.030400000000000E10   -4.322503210493813E-3  -4.379354658778068E-3  
 2.030600000000000E10   -4.951206984481326E-3  -3.554608983298143E-3  
 2.030800000000000E10   -5.440247762534354E-3  -2.672692191683584E-3  
 2.031000000000000E10   -5.809966250564214E-3  -1.735441938594536E-3  
 2.031200000000000E10   -6.061012925649132E-3  -7.981551310944338E-4  
 2.031400000000000E10   -6.207956587550819E-3   2.024981233127484E-4  
 2.031600000000000E10   -6.163942282674490E-3   1.279463612095074E-3  
 2.031800000000000E10   -5.838787786800553E-3   2.415285928657762E-3  
 2.032000000000000E10   -5.276015528512222E-3   3.407052097221216E-3  
 2.032200000000000E10   -4.606091331138656E-3   4.241371682534616E-3  
 2.032400000000000E10   -3.810333208767353E-3   4.943169084274108E-3  
 2.032600000000000E10   -2.896684532364210E-3   5.498437435124760E-3  
 2.032800000000000E10   -1.899774971038655E-3   5.947563659261776E-3  
 2.033000000000000E10   -7.892825373413939E-4   6.247172201121296E-3  
 2.033200000000000E10    3.522216273402726E-4   6.292875976888119E-3  
 2.033400000000000E10    1.496082572783861E-3   6.078871087757527E-3  
 2.033600000000000E10    2.034620140437727E-3   5.763738985276885E-3  
 2.033800000000000E10    3.408417528219246E-3   4.849740062598830E-3  
 2.034000000000000E10    4.029017209109885E-3   4.146347512249594E-3  
 2.034200000000000E10    4.529146080905641E-3   3.459670391209700E-3  
 2.034400000000000E10    4.972587546540632E-3   2.733391442301649E-3  
 2.034600000000000E10    5.345264139274756E-3   1.912112106327658E-3  
 2.034800000000000E10    5.624527525570658E-3   1.031032099423034E-3  
 2.035000000000000E10    5.815216874772753E-3   1.216502480221809E-4  
 2.035200000000000E10    5.831967746080072E-3  -9.170292587778362E-4  
 2.035400000000000E10    5.558760198592036E-3  -1.971238870518627E-3  
 2.035600000000000E10    5.083438526425097E-3  -2.895468009497833E-3  
 2.035800000000000E10    4.501811418406390E-3  -3.709479855994384E-3  
 2.036000000000000E10    3.790083660364704E-3  -4.407500986147811E-3  
 2.036200000000000E10    2.990178211971566E-3  -4.958568002890658E-3  
 2.036400000000000E10    2.065196090067427E-3  -5.394140499885436E-3  
 2.036600000000000E10    1.031847519765574E-3  -5.634536863201195E-3  
 2.036800000000000E10    2.756077716454726E-5  -5.632850720926569E-3  
 2.037000000000000E10   -8.531495156973877E-4  -5.459546266744535E-3  
 2.037200000000000E10   -1.638996138892792E-3  -5.215277878084669E-3  
 2.037400000000000E10   -2.413366541818336E-3  -4.920906525243213E-3  
 2.037600000000000E10   -3.240283501024048E-3  -4.547589820706183E-3  
 2.037800000000000E10   -4.060049696515004E-3  -3.965447587823428E-3  
 2.038000000000000E10   -4.705060842550464E-3  -3.197058966314352E-3  
 2.038200000000000E10   -5.161343263117253E-3  -2.291025611123553E-3  
 2.038400000000000E10   -5.435383085299422E-3  -1.338318386977470E-3  
 2.038600000000000E10   -5.546837406991809E-3  -3.668497859810790E-4  
 2.038800000000000E10   -5.491901258075679E-3   5.721105197961960E-4  
 2.039000000000000E10   -5.287377508702102E-3   1.439769644531663E-3  
 2.039200000000000E10   -4.947585985064507E-3   2.271536961887722E-3  
 2.039400000000000E10   -4.514766512093722E-3   3.066995543324286E-3  
 2.039600000000000E10   -3.999429565198996E-3   3.818653394571609E-3  
 2.039800000000000E10   -3.296272639461138E-3   4.513174260931987E-3  
 2.040000000000000E10   -2.437832204762984E-3   4.984074358448939E-3  
 2.040200000000000E10   -1.578373282595917E-3   5.305383940813719E-3  
 2.040400000000000E10   -6.264513078214671E-4   5.550663331868473E-3  
 2.040600000000000E10    4.139717558347103E-4   5.611489319966899E-3  
 2.040800000000000E10    1.429681683442107E-3   5.447031222973710E-3  
 2.041000000000000E10    2.424432896077633E-3   5.042270412323652E-3  
 2.041200000000000E10    3.272942388085304E-3   4.420499058647289E-3  
 2.041400000000000E10    3.941656857797946E-3   3.701979147822217E-3  
 2.041600000000000E10    4.477901384234428E-3   2.917227775065436E-3  
 2.041800000000000E10    4.818426307152820E-3   2.029666073482346E-3  
 2.042000000000000E10    4.947943112778444E-3   1.161856848436097E-3  
 2.042200000000000E10    4.949117993453035E-3   3.309487451419787E-4  
 2.042400000000000E10    4.841801227518807E-3  -4.270973214362231E-4  
 2.042600000000000E10    4.699557002081916E-3  -1.105222876908051E-3  
 2.042800000000000E10    4.482143506821659E-3  -1.776566875546619E-3  
 2.043000000000000E10    4.213595176460567E-3  -2.471530370207297E-3  
 2.043200000000000E10    3.807515966602498E-3  -3.220050578454027E-3  
 2.043400000000000E10    3.208473609346483E-3  -3.902736930521550E-3  
 2.043600000000000E10    2.487820262710254E-3  -4.441092911831759E-3  
 2.043800000000000E10    1.640618291545522E-3  -4.855990013176645E-3  
 2.044000000000000E10    6.603328252418174E-4  -5.085833750113294E-3  
 2.044200000000000E10   -3.390057967475582E-4  -5.047343981762728E-3  
 2.044400000000000E10   -1.253601788819112E-3  -4.783397298996096E-3  
 2.044600000000000E10   -2.007185352138347E-3  -4.343796279971247E-3  
 2.044800000000000E10   -2.591670206230548E-3  -3.804940937293901E-3  
 2.045000000000000E10   -3.051133912608580E-3  -3.286379855126143E-3  
 2.045200000000000E10   -3.452335104898171E-3  -2.796353444595028E-3  
 2.045400000000000E10   -3.861178997559129E-3  -2.288736618572364E-3  
 2.045600000000000E10   -4.228939578213074E-3  -1.675859460158757E-3  
 2.045800000000000E10   -4.531779326498509E-3  -9.411787657343127E-4  
 2.046000000000000E10   -4.679558746930626E-3  -7.488387011646948E-5  
 2.046200000000000E10   -4.598131368833560E-3   8.054424197999417E-4  
 2.046400000000000E10   -4.357492637441115E-3   1.606201175255356E-3  
 2.046600000000000E10   -3.951892084269612E-3   2.329281884831963E-3  
 2.046800000000000E10   -3.428180244992729E-3   2.949461866929024E-3  
 2.047000000000000E10   -2.805669516049050E-3   3.474650111187388E-3  
 2.047200000000000E10   -2.135575481655974E-3   3.847233942468410E-3  
 2.047400000000000E10   -1.454568205021874E-3   4.098571267806822E-3  
 2.047600000000000E10   -7.329856636244115E-4   4.251212278312004E-3  
 2.047800000000000E10    3.203391154076801E-5   4.274623330544543E-3  
 2.048000000000000E10    7.711400954846157E-4   4.137017436463525E-3  
 2.048200000000000E10    1.439248582486201E-3   3.894808477963563E-3  
 2.048400000000000E10    1.998762789837741E-3   3.554690775840923E-3  
 2.048600000000000E10    2.495493757090083E-3   3.183338368587472E-3  
 2.048800000000000E10    2.988774553631191E-3   2.733016291771222E-3  
 2.049000000000000E10    3.403736252544655E-3   2.174293906945322E-3  
 2.049200000000000E10    3.680857709022584E-3   1.563798321445507E-3  
 2.049400000000000E10    3.849730507850096E-3   9.729949265925421E-4  
 2.049600000000000E10    3.948122366434999E-3   3.576452576520819E-4  
 2.049800000000000E10    3.996516646886314E-3  -2.467233064601681E-4  
 2.050000000000000E10    4.063164280658520E-3  -9.348037096464801E-4  
 2.050200000000000E10    3.982254217758224E-3  -1.775210960423229E-3  
 2.050400000000000E10    3.589052387892648E-3  -2.649098893420564E-3  
 2.050600000000000E10    2.879158697194524E-3  -3.395968694584790E-3  
 2.050800000000000E10    1.974182401749272E-3  -3.843060056506484E-3  
 2.051000000000000E10    1.049461873696634E-3  -3.963566333469418E-3  
 2.051200000000000E10    2.673913399188745E-4  -3.801179342661743E-3  
 2.051400000000000E10   -2.981098032924585E-4  -3.525783488940862E-3  
 2.051600000000000E10   -7.387909400104374E-4  -3.293128934240452E-3  
 2.051800000000000E10   -1.150573565003773E-3  -3.079585058407651E-3  
 2.052000000000000E10   -1.537177966114272E-3  -2.846953933368679E-3  
 2.052200000000000E10   -1.873631737436409E-3  -2.585586746809660E-3  
 2.052400000000000E10   -2.190896413392491E-3  -2.304856225641238E-3  
 2.052600000000000E10   -2.494210730893193E-3  -2.007719025843673E-3  
 2.052800000000000E10   -2.833208646970215E-3  -1.687512763223991E-3  
 2.053000000000000E10   -3.161858068779111E-3  -1.233259362548038E-3  
 2.053200000000000E10   -3.373710223025194E-3  -7.031006173713617E-4  
 2.053400000000000E10   -3.532679372087674E-3  -1.129222575855238E-4  
 2.053600000000000E10   -3.568013871295585E-3   6.038753328741426E-4  
 2.053800000000000E10   -3.360826039203892E-3   1.331718884304994E-3  
 2.054000000000000E10   -2.977995089841663E-3   1.928151343707685E-3  
 2.054200000000000E10   -2.515682277994024E-3   2.376624745213323E-3  
 2.054400000000000E10   -1.993742456694168E-3   2.729830746021536E-3  
 2.054600000000000E10   -1.418272317904566E-3   2.959095778081704E-3  
 2.054800000000000E10   -8.523478506874569E-4   3.029633382404293E-3  
 2.055000000000000E10   -3.756078890378208E-4   2.958644698891375E-3  
 2.055200000000000E10   -8.155506630255698E-6   2.857146793286558E-3  
 2.055400000000000E10    2.999601387677508E-4   2.829920517763606E-3  
 2.055600000000000E10    6.933865628929603E-4   2.842677343222830E-3  
