#  HZ   S   RI   R     50.00 
! Rohde & Schwarz ZVA40 4Ports - Version 3.90 - 1145.1110k42 SN: 100403
! Date: 2023-10-03 11:47:10
! Measurement: S12 
! 
 2.000000000000000E10    8.419993661206080E-4  -6.213035882899056E-3  
 2.000200000000000E10   -8.011742178451293E-5  -6.277693211342451E-3  
 2.000400000000000E10   -1.062688108729084E-3  -6.191521911755389E-3  
 2.000600000000000E10   -1.999008055362437E-3  -5.994529216147868E-3  
 2.000800000000000E10   -2.903366309050241E-3  -5.723079971187277E-3  
 2.001000000000000E10   -3.915195778748137E-3  -5.308262894596951E-3  
 2.001200000000000E10   -4.959777388491750E-3  -4.612038044235958E-3  
 2.001400000000000E10   -5.844865741645113E-3  -3.634265891310794E-3  
 2.001600000000000E10   -6.436335664518455E-3  -2.441569130844725E-3  
 2.001800000000000E10   -6.718649787621366E-3  -1.256954137603810E-3  
 2.002000000000000E10   -6.781667516923246E-3  -6.500999752236645E-5  
 2.002200000000000E10   -6.627477699729765E-3   1.215096185110326E-3  
 2.002400000000000E10   -6.270819481600215E-3   2.345840294305006E-3  
 2.002600000000000E10   -5.697934986034662E-3   3.311913400129588E-3  
 2.002800000000000E10   -5.054226461338041E-3   4.105827949343273E-3  
 2.003000000000000E10   -4.299812978938406E-3   4.863143110946742E-3  
 2.003200000000000E10   -3.442521462860852E-3   5.533908959478140E-3  
 2.003400000000000E10   -2.473533012685769E-3   6.053128889129487E-3  
 2.003600000000000E10   -1.458167909058156E-3   6.387803807026811E-3  
 2.003800000000000E10   -3.810417773719464E-4   6.559483379263571E-3  
 2.004000000000000E10    7.484502728200622E-4   6.507984069348487E-3  
 2.004200000000000E10    1.812948509015971E-3   6.248452028052676E-3  
 2.004400000000000E10    2.740548736772236E-3   5.873647650680793E-3  
 2.004600000000000E10    3.607003041255622E-3   5.422457052325762E-3  
 2.004800000000000E10    4.494393278879148E-3   4.868421669083614E-3  
 2.005000000000000E10    5.402232267330459E-3   4.066183674436661E-3  
 2.005200000000000E10    6.103898088137310E-3   3.026995368094909E-3  
 2.005400000000000E10    6.539728130317397E-3   1.939905251169371E-3  
 2.005600000000000E10    6.816726551609645E-3   8.223623441198820E-4  
 2.005800000000000E10    6.928852535094377E-3  -3.797839924601125E-4  
 2.006000000000000E10    6.750522330863242E-3  -1.712089575493686E-3  
 2.006200000000000E10    6.242641081090696E-3  -2.899588548497838E-3  
 2.006400000000000E10    5.539380468106197E-3  -3.843426902743954E-3  
 2.006600000000000E10    4.746129190158330E-3  -4.587284484763205E-3  
 2.006800000000000E10    3.932848411761685E-3  -5.208875432058618E-3  
 2.007000000000000E10    3.040612497033529E-3  -5.807978480502412E-3  
 2.007200000000000E10    2.043899953549291E-3  -6.227603998541097E-3  
 2.007400000000000E10    1.037607772885190E-3  -6.467790728043996E-3  
 2.007600000000000E10   -4.001559238284607E-5  -6.536843416131575E-3  
 2.007800000000000E10   -1.087575606185437E-3  -6.400042477949168E-3  
 2.008000000000000E10   -2.023647361101560E-3  -6.171454008622672E-3  
 2.008200000000000E10   -2.969227121843968E-3  -5.921379427345080E-3  
 2.008400000000000E10   -4.006405780666774E-3  -5.523910464282022E-3  
 2.008600000000000E10   -5.068605282792339E-3  -4.743860988521283E-3  
 2.008800000000000E10   -5.911985831910079E-3  -3.675901888651245E-3  
 2.009000000000000E10   -6.447028656156712E-3  -2.534397449459375E-3  
 2.009200000000000E10   -6.788680945051674E-3  -1.399380348933240E-3  
 2.009400000000000E10   -6.945402160240913E-3  -1.811764176423305E-4  
 2.009600000000000E10   -6.819450859854252E-3   1.157225500562309E-3  
 2.009800000000000E10   -6.333107145986073E-3   2.354782939900035E-3  
 2.010000000000000E10   -5.699636115704054E-3   3.258689688978556E-3  
 2.010200000000000E10   -5.027010519471434E-3   4.014592376296168E-3  
 2.010400000000000E10   -4.325847279418399E-3   4.616892292957616E-3  
 2.010600000000000E10   -3.607073758533340E-3   5.204768259262230E-3  
 2.010800000000000E10   -2.806918859412825E-3   5.804355555202491E-3  
 2.011000000000000E10   -1.879417255555314E-3   6.328103787921094E-3  
 2.011200000000000E10   -7.800067678657305E-4   6.683201391111923E-3  
 2.011400000000000E10    4.465343958100328E-4   6.771676299840580E-3  
 2.011600000000000E10    1.712665388671061E-3   6.604756757525015E-3  
 2.011800000000000E10    2.907948387372825E-3   6.154620611787211E-3  
 2.012000000000000E10    3.864372361819318E-3   5.501557693437294E-3  
 2.012200000000000E10    4.668417231490215E-3   4.775693289429686E-3  
 2.012400000000000E10    5.433326357124765E-3   3.935467296590408E-3  
 2.012600000000000E10    6.073076743632556E-3   2.934320234797067E-3  
 2.012800000000000E10    6.549602587143949E-3   1.778965955312697E-3  
 2.013000000000000E10    6.734712095356282E-3   5.564289957997792E-4  
 2.013200000000000E10    6.629745487445668E-3  -6.061592124931423E-4  
 2.013400000000000E10    6.385947945585222E-3  -1.703862069220639E-3  
 2.013600000000000E10    5.996365163383293E-3  -2.776843443926838E-3  
 2.013800000000000E10    5.396902061033029E-3  -3.777507755813408E-3  
 2.014000000000000E10    4.591516719234211E-3  -4.593319742491952E-3  
 2.014200000000000E10    3.688562816629807E-3  -5.152225120705956E-3  
 2.014400000000000E10    2.839022379276562E-3  -5.584787974065102E-3  
 2.014600000000000E10    1.981910596958098E-3  -6.022748077449240E-3  
 2.014800000000000E10    9.801658833353427E-4  -6.365357231302764E-3  
 2.015000000000000E10   -1.343836823106818E-4  -6.468338110012774E-3  
 2.015200000000000E10   -1.225839639197529E-3  -6.357314254812621E-3  
 2.015400000000000E10   -2.328469466854945E-3  -6.084781605750324E-3  
 2.015600000000000E10   -3.363380720264014E-3  -5.586345352370431E-3  
 2.015800000000000E10   -4.261326240260661E-3  -4.941290503160821E-3  
 2.016000000000000E10   -5.084950120452746E-3  -4.109494198389628E-3  
 2.016200000000000E10   -5.711506563526246E-3  -3.085420096155119E-3  
 2.016400000000000E10   -6.096153238351332E-3  -1.971853928594494E-3  
 2.016600000000000E10   -6.281666187454522E-3  -8.885649199609036E-4  
 2.016800000000000E10   -6.267135847865800E-3   1.660542774415162E-4  
 2.017000000000000E10   -6.050634985490714E-3   1.179977685908707E-3  
 2.017200000000000E10   -5.699915822917297E-3   2.115689544294628E-3  
 2.017400000000000E10   -5.264132588319941E-3   2.987241105142016E-3  
 2.017600000000000E10   -4.697698432906176E-3   3.758484923085313E-3  
 2.017800000000000E10   -4.085008210192124E-3   4.411523931740244E-3  
 2.018000000000000E10   -3.371349650860570E-3   5.056732178976139E-3  
 2.018200000000000E10   -2.484653412398917E-3   5.665636305225853E-3  
 2.018400000000000E10   -1.466217585896821E-3   6.120038931660448E-3  
 2.018600000000000E10   -3.367669885420460E-4   6.367824712975159E-3  
 2.018800000000000E10    8.630557129458514E-4   6.377868831479624E-3  
 2.019000000000000E10    2.077803064574614E-3   6.096852845569821E-3  
 2.019200000000000E10    3.208603416741999E-3   5.510582582864129E-3  
 2.019400000000000E10    4.097887323479411E-3   4.732487734729125E-3  
 2.019600000000000E10    4.787783287925486E-3   3.878907231545007E-3  
 2.019800000000000E10    5.262251155749884E-3   2.888386451098839E-3  
 2.020000000000000E10    5.512353027078473E-3   1.914601948365201E-3  
 2.020200000000000E10    5.644127881775300E-3   1.054615593647562E-3  
 2.020400000000000E10    5.791181376502840E-3   2.398656647584839E-4  
 2.020600000000000E10    5.882455076286455E-3  -6.775746142123769E-4  
 2.020800000000000E10    5.720480373934096E-3  -1.701460211296325E-3  
 2.021000000000000E10    5.371011310705433E-3  -2.632912219628508E-3  
 2.021200000000000E10    5.036399124857085E-3  -3.523183058096488E-3  
 2.021400000000000E10    4.468332309229875E-3  -4.533401040797249E-3  
 2.021600000000000E10    3.521528402573349E-3  -5.395157003982200E-3  
 2.021800000000000E10    2.357403736239599E-3  -5.923548696079741E-3  
 2.022000000000000E10    1.227058727512665E-3  -6.180044413072829E-3  
 2.022200000000000E10    1.285016379695685E-4  -6.293051513946720E-3  
 2.022400000000000E10   -9.703817777335645E-4  -6.240185269695006E-3  
 2.022600000000000E10   -2.073190080139924E-3  -5.975846408141985E-3  
 2.022800000000000E10   -3.090997939400468E-3  -5.458817518327708E-3  
 2.023000000000000E10   -3.980705652523925E-3  -4.811848548275453E-3  
 2.023200000000000E10   -4.777929216715290E-3  -4.059347502289363E-3  
 2.023400000000000E10   -5.422219881258998E-3  -3.123150471551920E-3  
 2.023600000000000E10   -5.803680754508135E-3  -2.036020082111160E-3  
 2.023800000000000E10   -5.967354689391307E-3  -9.381565650534116E-4  
 2.024000000000000E10   -5.939907296618195E-3   1.296548342244574E-4  
 2.024200000000000E10   -5.672972936781101E-3   1.075931756475504E-3  
 2.024400000000000E10   -5.327122820610250E-3   1.820017715893042E-3  
 2.024600000000000E10   -5.052406300595146E-3   2.529858223473033E-3  
 2.024800000000000E10   -4.696972438214739E-3   3.375499290816579E-3  
 2.025000000000000E10   -4.120489220238395E-3   4.240504672957792E-3  
 2.025200000000000E10   -3.348437175269665E-3   4.949424381333369E-3  
 2.025400000000000E10   -2.404364469794580E-3   5.448359898349018E-3  
 2.025600000000000E10   -1.386074896867353E-3   5.750922882860459E-3  
 2.025800000000000E10   -3.719246644637387E-4   5.893730627441848E-3  
 2.026000000000000E10    6.690176834789233E-4   5.854561206321291E-3  
 2.026200000000000E10    1.594039937768730E-3   5.616805389707472E-3  
 2.026400000000000E10    2.452066892551051E-3   5.328112184127541E-3  
 2.026600000000000E10    3.384045273479489E-3   4.890631660129186E-3  
 2.026800000000000E10    4.247556141589159E-3   4.238894582944521E-3  
 2.027000000000000E10    4.925204946854968E-3   3.409912654509147E-3  
 2.027200000000000E10    5.336395223383551E-3   2.529995993101671E-3  
 2.027400000000000E10    5.627585827936362E-3   1.689488952117110E-3  
 2.027600000000000E10    5.869228818258388E-3   7.900559576228262E-4  
 2.027800000000000E10    6.012689747652155E-3  -1.406600171725990E-4  
 2.028000000000000E10    6.095476804968017E-3  -1.127611878787938E-3  
 2.028200000000000E10    5.995138703535002E-3  -2.286323524413654E-3  
 2.028400000000000E10    5.521265255218304E-3  -3.487934801083657E-3  
 2.028600000000000E10    4.716578284623447E-3  -4.511252942460555E-3  
 2.028800000000000E10    3.775528741333589E-3  -5.270461879532647E-3  
 2.029000000000000E10    2.775347532911433E-3  -5.825455978880695E-3  
 2.029200000000000E10    1.655264050458317E-3  -6.159390593062582E-3  
 2.029400000000000E10    4.850946751963578E-4  -6.238750429295096E-3  
 2.029600000000000E10   -5.936972824942873E-4  -6.068368580330302E-3  
 2.029800000000000E10   -1.469664637827211E-3  -5.754103217227960E-3  
 2.030000000000000E10   -2.260641074153009E-3  -5.465312619452124E-3  
 2.030200000000000E10   -3.130902251642612E-3  -5.095649504873121E-3  
 2.030400000000000E10   -3.977812240245167E-3  -4.491303794453910E-3  
 2.030600000000000E10   -4.665189715861171E-3  -3.736940137812018E-3  
 2.030800000000000E10   -5.196216947364587E-3  -2.950508035374461E-3  
 2.031000000000000E10   -5.596843088206687E-3  -2.088761540635685E-3  
 2.031200000000000E10   -5.879605056740988E-3  -1.166468645721950E-3  
 2.031400000000000E10   -6.074715819623737E-3  -1.603330377371476E-4  
 2.031600000000000E10   -6.108819127634721E-3   8.936413128308402E-4  
 2.031800000000000E10   -5.872244774191468E-3   1.985393352461634E-3  
 2.032000000000000E10   -5.442547514160843E-3   2.937330096891081E-3  
 2.032200000000000E10   -4.915095049381993E-3   3.823159179178838E-3  
 2.032400000000000E10   -4.241152436552961E-3   4.689839933021570E-3  
 2.032600000000000E10   -3.405592427301555E-3   5.493027181077151E-3  
 2.032800000000000E10   -2.331483321563329E-3   6.114768720933318E-3  
 2.033000000000000E10   -1.096750762641292E-3   6.437647259897657E-3  
 2.033200000000000E10    1.619662524504231E-4   6.486831439865961E-3  
 2.033400000000000E10    1.396555383114811E-3   6.269548847167582E-3  
 2.033600000000000E10    1.905293242695431E-3   5.940402990184081E-3  
 2.033800000000000E10    3.282684260795330E-3   5.079105582640128E-3  
 2.034000000000000E10    3.931223593054363E-3   4.409173848452392E-3  
 2.034200000000000E10    4.493942685471273E-3   3.710534067157610E-3  
 2.034400000000000E10    4.974578064578919E-3   2.979192414240521E-3  
 2.034600000000000E10    5.387334888915957E-3   2.216231989110878E-3  
 2.034800000000000E10    5.702272816388696E-3   1.380074422886986E-3  
 2.035000000000000E10    5.913562727747141E-3   4.506934409742647E-4  
 2.035200000000000E10    5.984604301184049E-3  -6.026644766313473E-4  
 2.035400000000000E10    5.826207791903505E-3  -1.664260599221804E-3  
 2.035600000000000E10    5.470125550795117E-3  -2.631936067094406E-3  
 2.035800000000000E10    4.987747017524125E-3  -3.558110080682385E-3  
 2.036000000000000E10    4.281140794908560E-3  -4.464883190568215E-3  
 2.036200000000000E10    3.350523056140469E-3  -5.202394680200537E-3  
 2.036400000000000E10    2.280473878699137E-3  -5.706559556225936E-3  
 2.036600000000000E10    1.159493682078189E-3  -5.916352826458069E-3  
 2.036800000000000E10    7.356697523515143E-5  -5.853075056946205E-3  
 2.037000000000000E10   -9.020524304992532E-4  -5.621615435100265E-3  
 2.037200000000000E10   -1.724356582767710E-3  -5.331359654205082E-3  
 2.037400000000000E10   -2.492329421924588E-3  -5.006802090110235E-3  
 2.037600000000000E10   -3.266535587263881E-3  -4.609068941876845E-3  
 2.037800000000000E10   -4.055474666349683E-3  -4.069759409851683E-3  
 2.038000000000000E10   -4.764572935707776E-3  -3.332806110129129E-3  
 2.038200000000000E10   -5.335680766744011E-3  -2.445454140090280E-3  
 2.038400000000000E10   -5.713951911915233E-3  -1.480033027617560E-3  
 2.038600000000000E10   -5.915544720159638E-3  -4.280912427570855E-4  
 2.038800000000000E10   -5.890644126698192E-3   7.268791302555690E-4  
 2.039000000000000E10   -5.605364764500180E-3   1.799953779504623E-3  
 2.039200000000000E10   -5.131340746618349E-3   2.698159911727280E-3  
 2.039400000000000E10   -4.585542601107816E-3   3.464626522021898E-3  
 2.039600000000000E10   -3.993870811191975E-3   4.162965727579080E-3  
 2.039800000000000E10   -3.215766753311511E-3   4.816726177792859E-3  
 2.040000000000000E10   -2.304364757520366E-3   5.274902046140698E-3  
 2.040200000000000E10   -1.389625679161170E-3   5.564335221999591E-3  
 2.040400000000000E10   -4.190336733217133E-4   5.702383563290408E-3  
 2.040600000000000E10    6.153849118826106E-4   5.655436408648521E-3  
 2.040800000000000E10    1.630614824983993E-3   5.434385247896484E-3  
 2.041000000000000E10    2.572353411879805E-3   4.998318230112394E-3  
 2.041200000000000E10    3.367471149375226E-3   4.392291240992002E-3  
 2.041400000000000E10    4.021792250030019E-3   3.691618615347479E-3  
 2.041600000000000E10    4.561358574133965E-3   2.879696070320077E-3  
 2.041800000000000E10    4.932636550317208E-3   1.958880998930078E-3  
 2.042000000000000E10    5.068688032527765E-3   1.042121771240124E-3  
 2.042200000000000E10    5.004462653794039E-3   1.959979471629831E-4  
 2.042400000000000E10    4.836877376806957E-3  -5.563228659872196E-4  
 2.042600000000000E10    4.674800619896916E-3  -1.281968560817157E-3  
 2.042800000000000E10    4.426491032871936E-3  -2.034938790731960E-3  
 2.043000000000000E10    4.051882353967723E-3  -2.765089006128687E-3  
 2.043200000000000E10    3.530701288930428E-3  -3.473957911432710E-3  
 2.043400000000000E10    2.841231499419169E-3  -4.042294238590533E-3  
 2.043600000000000E10    2.097422119092059E-3  -4.452304029262361E-3  
 2.043800000000000E10    1.309513682097105E-3  -4.775211444975418E-3  
 2.044000000000000E10    4.501993474902667E-4  -4.951459338405619E-3  
 2.044200000000000E10   -4.770275705528481E-4  -4.947768495544608E-3  
 2.044400000000000E10   -1.443858502754643E-3  -4.689956124136110E-3  
 2.044600000000000E10   -2.243632651911474E-3  -4.177354097964220E-3  
 2.044800000000000E10   -2.771388552508053E-3  -3.579069291137988E-3  
 2.045000000000000E10   -3.158161801826440E-3  -3.050347899351224E-3  
 2.045200000000000E10   -3.515766568504918E-3  -2.559569779277584E-3  
 2.045400000000000E10   -3.830815944245753E-3  -2.040234265021152E-3  
 2.045600000000000E10   -4.138896230286287E-3  -1.485831500893390E-3  
 2.045800000000000E10   -4.436887697213227E-3  -8.430223686356146E-4  
 2.046000000000000E10   -4.605860322897818E-3  -4.765418917587441E-5  
 2.046200000000000E10   -4.541613558238304E-3   8.488233441222506E-4  
 2.046400000000000E10   -4.235129343506732E-3   1.716012385225407E-3  
 2.046600000000000E10   -3.755714442511952E-3   2.411763376360875E-3  
 2.046800000000000E10   -3.202751721542927E-3   2.971055149963057E-3  
 2.047000000000000E10   -2.576542460578092E-3   3.402573151375961E-3  
 2.047200000000000E10   -1.924306549488303E-3   3.688572181595697E-3  
 2.047400000000000E10   -1.286016574508890E-3   3.879214800825274E-3  
 2.047600000000000E10   -6.494257429522682E-4   4.004074792366153E-3  
 2.047800000000000E10   -1.598755876824007E-5   4.033667633286966E-3  
 2.048000000000000E10    6.517639490028407E-4   3.941304217104191E-3  
 2.048200000000000E10    1.302538169432938E-3   3.729420541613191E-3  
 2.048400000000000E10    1.886486874916304E-3   3.441673234955949E-3  
 2.048600000000000E10    2.429923212247683E-3   3.096737278004488E-3  
 2.048800000000000E10    2.942292278425561E-3   2.628625356189815E-3  
 2.049000000000000E10    3.327338194566561E-3   2.042813857522920E-3  
 2.049200000000000E10    3.543043948916926E-3   1.431763323058409E-3  
 2.049400000000000E10    3.683298834841009E-3   8.741656115658031E-4  
 2.049600000000000E10    3.762255552121336E-3   3.402820079771366E-4  
 2.049800000000000E10    3.816995712250104E-3  -1.735073215788788E-4  
 2.050000000000000E10    3.876074521951838E-3  -7.885896434064634E-4  
 2.050200000000000E10    3.812202059859296E-3  -1.555944508355525E-3  
 2.050400000000000E10    3.512968470192987E-3  -2.371739463903654E-3  
 2.050600000000000E10    2.933697895733295E-3  -3.125117749642627E-3  
 2.050800000000000E10    2.111463499956845E-3  -3.652957650361422E-3  
 2.051000000000000E10    1.197923072556287E-3  -3.848115876202047E-3  
 2.051200000000000E10    3.710750797274811E-4  -3.722235554668271E-3  
 2.051400000000000E10   -1.892234781903594E-4  -3.443014279099895E-3  
 2.051600000000000E10   -5.670247181249715E-4  -3.210383401263828E-3  
 2.051800000000000E10   -9.460256285505532E-4  -3.044620762797602E-3  
 2.052000000000000E10   -1.363377055199242E-3  -2.851352371551373E-3  
 2.052200000000000E10   -1.775642773596409E-3  -2.559577393701967E-3  
 2.052400000000000E10   -2.093616068179225E-3  -2.233841059798444E-3  
 2.052600000000000E10   -2.347937512016039E-3  -1.928250828504931E-3  
 2.052800000000000E10   -2.624930512091076E-3  -1.638721013556660E-3  
 2.053000000000000E10   -2.928083661920680E-3  -1.263695209930985E-3  
 2.053200000000000E10   -3.200913368390851E-3  -7.994453649806941E-4  
 2.053400000000000E10   -3.424847935452874E-3  -2.472708553492946E-4  
 2.053600000000000E10   -3.505699086451420E-3   4.525655545696709E-4  
 2.053800000000000E10   -3.335466283591993E-3   1.207621620082653E-3  
 2.054000000000000E10   -2.924639984597395E-3   1.841023572962042E-3  
 2.054200000000000E10   -2.449523884642088E-3   2.263642013946801E-3  
 2.054400000000000E10   -1.963615101290706E-3   2.572591028486689E-3  
 2.054600000000000E10   -1.471897732339984E-3   2.777971709607008E-3  
 2.054800000000000E10   -9.899219012255839E-4   2.875526033249903E-3  
 2.055000000000000E10   -5.498808718079495E-4   2.905872032437244E-3  
 2.055200000000000E10   -1.613816931228625E-4   2.894016321932460E-3  
 2.055400000000000E10    1.655670546622585E-4   2.874306250754515E-3  
 2.055600000000000E10    5.479687810473053E-4   2.878176657781925E-3  
