#  HZ   S   RI   R     50.00 
! Rohde & Schwarz ZVA40 4Ports - Version 3.90 - 1145.1110k42 SN: 100403
! Date: 2023-10-03 11:48:32
! Measurement: S12 
! 
 2.000000000000000E10    5.098147810735729E-4  -5.322460257620724E-3  
 2.000200000000000E10   -3.646150282382920E-4  -5.336358056714138E-3  
 2.000400000000000E10   -1.209747514767963E-3  -5.161102999139716E-3  
 2.000600000000000E10   -1.937122966657267E-3  -4.883426850960580E-3  
 2.000800000000000E10   -2.580768721937030E-3  -4.606400547480143E-3  
 2.001000000000000E10   -3.346388886487227E-3  -4.298781590927163E-3  
 2.001200000000000E10   -4.206891154387484E-3  -3.767451558859996E-3  
 2.001400000000000E10   -4.957387902210525E-3  -3.010226620568170E-3  
 2.001600000000000E10   -5.496712671707810E-3  -2.041284566929127E-3  
 2.001800000000000E10   -5.774318010626753E-3  -1.011984427114604E-3  
 2.002000000000000E10   -5.858450317410408E-3   6.815541650055058E-5  
 2.002200000000000E10   -5.730326925576837E-3   1.208885749629527E-3  
 2.002400000000000E10   -5.385178509225817E-3   2.226984921704840E-3  
 2.002600000000000E10   -4.835839463788787E-3   3.063309943464436E-3  
 2.002800000000000E10   -4.229767753938098E-3   3.734931300888643E-3  
 2.003000000000000E10   -3.519717465948176E-3   4.371697249833817E-3  
 2.003200000000000E10   -2.750869205129552E-3   4.909982801311547E-3  
 2.003400000000000E10   -1.887856945280492E-3   5.293418446348773E-3  
 2.003600000000000E10   -9.801847929203954E-4   5.458940953062273E-3  
 2.003800000000000E10   -1.225961612273054E-4   5.471972219737961E-3  
 2.004000000000000E10    7.203610191397645E-4   5.431022587013834E-3  
 2.004200000000000E10    1.563489981812000E-3   5.303187129076249E-3  
 2.004400000000000E10    2.385492241125048E-3   5.053376221316465E-3  
 2.004600000000000E10    3.169731265738791E-3   4.663475720142878E-3  
 2.004800000000000E10    3.924766331221219E-3   4.160761666472680E-3  
 2.005000000000000E10    4.689837938151611E-3   3.506669380851550E-3  
 2.005200000000000E10    5.333925102963860E-3   2.687964510793488E-3  
 2.005400000000000E10    5.806872897126057E-3   1.775431646505532E-3  
 2.005600000000000E10    6.141152169647409E-3   7.306022898661963E-4  
 2.005800000000000E10    6.275437858507590E-3  -4.590283421782294E-4  
 2.006000000000000E10    6.079772286071088E-3  -1.771821283999785E-3  
 2.006200000000000E10    5.519058032214275E-3  -2.888282243576315E-3  
 2.006400000000000E10    4.779541962722570E-3  -3.700270883761991E-3  
 2.006600000000000E10    4.000049498346117E-3  -4.343655753742766E-3  
 2.006800000000000E10    3.186853197230785E-3  -4.874136413872979E-3  
 2.007000000000000E10    2.322896291720279E-3  -5.318842259132201E-3  
 2.007200000000000E10    1.400108055361075E-3  -5.558791133448666E-3  
 2.007400000000000E10    5.054364446550609E-4  -5.626042178015650E-3  
 2.007600000000000E10   -3.869080819752942E-4  -5.578955072035761E-3  
 2.007800000000000E10   -1.227058899979809E-3  -5.408997681957704E-3  
 2.008000000000000E10   -2.007102766246708E-3  -5.186651867848856E-3  
 2.008200000000000E10   -2.779078155319080E-3  -4.941837540195313E-3  
 2.008400000000000E10   -3.650675648478447E-3  -4.583873383608866E-3  
 2.008600000000000E10   -4.565186499629492E-3  -3.885180269724425E-3  
 2.008800000000000E10   -5.254339708452240E-3  -2.909764831448779E-3  
 2.009000000000000E10   -5.627995788085241E-3  -1.911978004500270E-3  
 2.009200000000000E10   -5.842379121868699E-3  -9.541579818261076E-4  
 2.009400000000000E10   -5.935358090533152E-3   6.102904121184517E-5  
 2.009600000000000E10   -5.821628777747169E-3   1.187348087249255E-3  
 2.009800000000000E10   -5.410712091597143E-3   2.211951765657208E-3  
 2.010000000000000E10   -4.846397402155915E-3   3.033663683720394E-3  
 2.010200000000000E10   -4.183133857117759E-3   3.702516253623698E-3  
 2.010400000000000E10   -3.490736503958886E-3   4.185776306707183E-3  
 2.010600000000000E10   -2.832558187138704E-3   4.596703530599674E-3  
 2.010800000000000E10   -2.181670171450134E-3   5.029550540824364E-3  
 2.011000000000000E10   -1.411085353336401E-3   5.428290144068960E-3  
 2.011200000000000E10   -4.792314706899134E-4   5.691783462455612E-3  
 2.011400000000000E10    5.605115499893595E-4   5.730052047443611E-3  
 2.011600000000000E10    1.621386661470213E-3   5.536216311156750E-3  
 2.011800000000000E10    2.568949447990752E-3   5.140876817160552E-3  
 2.012000000000000E10    3.357383730119946E-3   4.606698869647068E-3  
 2.012200000000000E10    4.038093260914824E-3   3.971250147133331E-3  
 2.012400000000000E10    4.669109882533919E-3   3.254632126355982E-3  
 2.012600000000000E10    5.219758942401336E-3   2.411276444125875E-3  
 2.012800000000000E10    5.597116937285956E-3   1.423591966338364E-3  
 2.013000000000000E10    5.704583031021887E-3   3.916320910556587E-4  
 2.013200000000000E10    5.595868562612637E-3  -5.716493893644693E-4  
 2.013400000000000E10    5.400355169434607E-3  -1.478636666074579E-3  
 2.013600000000000E10    5.060797229547193E-3  -2.407508131898480E-3  
 2.013800000000000E10    4.516426404869116E-3  -3.247478557175693E-3  
 2.014000000000000E10    3.809195793705223E-3  -3.883921633256071E-3  
 2.014200000000000E10    3.073117750363402E-3  -4.308942699643934E-3  
 2.014400000000000E10    2.448633037231587E-3  -4.665095054395038E-3  
 2.014600000000000E10    1.778798015431766E-3  -5.104492165516189E-3  
 2.014800000000000E10    9.118964950220639E-4  -5.440333794894411E-3  
 2.015000000000000E10   -3.682420059771242E-5  -5.563110935237306E-3  
 2.015200000000000E10   -9.931674885368092E-4  -5.534619943779193E-3  
 2.015400000000000E10   -2.010518638992016E-3  -5.330842327510502E-3  
 2.015600000000000E10   -2.953026239633744E-3  -4.891294037440310E-3  
 2.015800000000000E10   -3.773520832858336E-3  -4.299605972375032E-3  
 2.016000000000000E10   -4.523442902912697E-3  -3.533941630366041E-3  
 2.016200000000000E10   -5.074885449613687E-3  -2.599222901748655E-3  
 2.016400000000000E10   -5.369108089786254E-3  -1.602250895819363E-3  
 2.016600000000000E10   -5.463911703339330E-3  -6.794920694197955E-4  
 2.016800000000000E10   -5.451412147117986E-3   1.834044315605022E-4  
 2.017000000000000E10   -5.331710205171948E-3   1.064589252856411E-3  
 2.017200000000000E10   -5.066422659351871E-3   1.921058822147273E-3  
 2.017400000000000E10   -4.685303943668619E-3   2.701719098919888E-3  
 2.017600000000000E10   -4.215279818271046E-3   3.399168877046050E-3  
 2.017800000000000E10   -3.690171768359933E-3   4.053526960405304E-3  
 2.018000000000000E10   -3.013000378017257E-3   4.724170403256093E-3  
 2.018200000000000E10   -2.157880467604156E-3   5.317130614715962E-3  
 2.018400000000000E10   -1.154827955753807E-3   5.706929802940584E-3  
 2.018600000000000E10   -7.193131669838396E-5   5.860077510415404E-3  
 2.018800000000000E10    1.054020564037341E-3   5.799126035223405E-3  
 2.019000000000000E10    2.165685042761910E-3   5.467469361323266E-3  
 2.019200000000000E10    3.121113858795093E-3   4.858877147651382E-3  
 2.019400000000000E10    3.838607650480153E-3   4.165121888810838E-3  
 2.019600000000000E10    4.453131584105669E-3   3.395752018363572E-3  
 2.019800000000000E10    4.879841000347595E-3   2.476942423662102E-3  
 2.020000000000000E10    5.081228451964297E-3   1.611170117501860E-3  
 2.020200000000000E10    5.194984962818800E-3   8.418976672764088E-4  
 2.020400000000000E10    5.303240864089242E-3   1.046189533362961E-4  
 2.020600000000000E10    5.355172175454137E-3  -7.545108250112355E-4  
 2.020800000000000E10    5.169927924411533E-3  -1.711681587219147E-3  
 2.021000000000000E10    4.820960056450632E-3  -2.523561761381082E-3  
 2.021200000000000E10    4.519246823303862E-3  -3.280729897619214E-3  
 2.021400000000000E10    4.032876385651805E-3  -4.191992844650407E-3  
 2.021600000000000E10    3.165108286833138E-3  -5.032894667237997E-3  
 2.021800000000000E10    2.046905719548648E-3  -5.582770378685292E-3  
 2.022000000000000E10    9.316701138748526E-4  -5.785627457324738E-3  
 2.022200000000000E10   -9.530726423196748E-5  -5.798817583486255E-3  
 2.022400000000000E10   -1.089913629708283E-3  -5.697696521464322E-3  
 2.022600000000000E10   -2.143482654642912E-3  -5.408890861557958E-3  
 2.022800000000000E10   -3.086189515198823E-3  -4.874921208362521E-3  
 2.023000000000000E10   -3.892103336567497E-3  -4.223664141731498E-3  
 2.023200000000000E10   -4.580561893727677E-3  -3.444324034829567E-3  
 2.023400000000000E10   -5.079224222788105E-3  -2.503208425125959E-3  
 2.023600000000000E10   -5.340117800198956E-3  -1.487631796295812E-3  
 2.023800000000000E10   -5.397754957048614E-3  -5.304752611900094E-4  
 2.024000000000000E10   -5.312926227939718E-3   3.749417597578874E-4  
 2.024200000000000E10   -5.040463152123087E-3   1.193828834795658E-3  
 2.024400000000000E10   -4.727995488792658E-3   1.849527945052143E-3  
 2.024600000000000E10   -4.466758075135726E-3   2.514536995555700E-3  
 2.024800000000000E10   -4.118308689399267E-3   3.272207427976861E-3  
 2.025000000000000E10   -3.591215381697741E-3   4.034722057159669E-3  
 2.025200000000000E10   -2.849935516600072E-3   4.677298812218655E-3  
 2.025400000000000E10   -1.939144442547803E-3   5.143711441139013E-3  
 2.025600000000000E10   -9.412472675278509E-4   5.436763799760813E-3  
 2.025800000000000E10    7.758290316646541E-5   5.475477459208098E-3  
 2.026000000000000E10    1.022322935535124E-3   5.286153296675580E-3  
 2.026200000000000E10    1.826386943310040E-3   4.953926440650298E-3  
 2.026400000000000E10    2.588960143771989E-3   4.590742313015608E-3  
 2.026600000000000E10    3.365876923464700E-3   4.089064962219126E-3  
 2.026800000000000E10    4.029582214346271E-3   3.420524888407486E-3  
 2.027000000000000E10    4.482692211038537E-3   2.636542727733836E-3  
 2.027200000000000E10    4.717890799827415E-3   1.892740073625320E-3  
 2.027400000000000E10    4.957555827719194E-3   1.237224862209441E-3  
 2.027600000000000E10    5.217528436332941E-3   4.813125871558801E-4  
 2.027800000000000E10    5.355445806075027E-3  -3.489122756923562E-4  
 2.028000000000000E10    5.396786600029396E-3  -1.251987272149159E-3  
 2.028200000000000E10    5.238143336257817E-3  -2.298160930405612E-3  
 2.028400000000000E10    4.747862082526640E-3  -3.370846914886325E-3  
 2.028600000000000E10    3.957057095788144E-3  -4.271015875547389E-3  
 2.028800000000000E10    3.031720674631221E-3  -4.878105285267036E-3  
 2.029000000000000E10    2.097384656354050E-3  -5.279855624439172E-3  
 2.029200000000000E10    1.077704232209075E-3  -5.535243613714422E-3  
 2.029400000000000E10    3.298321826150644E-5  -5.557268214078598E-3  
 2.029600000000000E10   -8.903167506587911E-4  -5.360869823000682E-3  
 2.029800000000000E10   -1.662884084335356E-3  -5.052759099383782E-3  
 2.030000000000000E10   -2.377448051615998E-3  -4.750899211676033E-3  
 2.030200000000000E10   -3.135766730540329E-3  -4.356169854693208E-3  
 2.030400000000000E10   -3.867805073106731E-3  -3.744771333273363E-3  
 2.030600000000000E10   -4.415870638403261E-3  -3.001246273655583E-3  
 2.030800000000000E10   -4.788115660855432E-3  -2.246657004119990E-3  
 2.031000000000000E10   -5.061927561958632E-3  -1.449309408745188E-3  
 2.031200000000000E10   -5.259870540028738E-3  -6.563995905898880E-4  
 2.031400000000000E10   -5.399638223519297E-3   1.845848418730541E-4  
 2.031600000000000E10   -5.428340015817940E-3   1.095462619200533E-3  
 2.031800000000000E10   -5.209622507983888E-3   2.071274076530963E-3  
 2.032000000000000E10   -4.795527442093986E-3   2.947026593495667E-3  
 2.032200000000000E10   -4.246063587934147E-3   3.754812054175103E-3  
 2.032400000000000E10   -3.567479047809303E-3   4.468400652209918E-3  
 2.032600000000000E10   -2.772451159946713E-3   5.098327172253236E-3  
 2.032800000000000E10   -1.769127169003089E-3   5.584604790963141E-3  
 2.033000000000000E10   -6.144983998649283E-4   5.831294969000199E-3  
 2.033200000000000E10    5.340456709633640E-4   5.781439414684788E-3  
 2.033400000000000E10    1.569126590362026E-3   5.454815452757442E-3  
 2.033600000000000E10    1.952908691708689E-3   5.148329858288721E-3  
 2.033800000000000E10    3.134464790446707E-3   4.356345087059855E-3  
 2.034000000000000E10    3.727431837354362E-3   3.708927613326613E-3  
 2.034200000000000E10    4.180310822931337E-3   3.013340632695660E-3  
 2.034400000000000E10    4.486380162200442E-3   2.323412574988640E-3  
 2.034600000000000E10    4.706023565642996E-3   1.678732154821908E-3  
 2.034800000000000E10    4.942880742205883E-3   1.021166465728095E-3  
 2.035000000000000E10    5.183286757932769E-3   2.723333842974777E-4  
 2.035200000000000E10    5.307608410532093E-3  -6.272267509987694E-4  
 2.035400000000000E10    5.208701573680213E-3  -1.597896908168440E-3  
 2.035600000000000E10    4.881243267453012E-3  -2.523219146777267E-3  
 2.035800000000000E10    4.405989903772688E-3  -3.376448900657304E-3  
 2.036000000000000E10    3.744583470562911E-3  -4.180302291556642E-3  
 2.036200000000000E10    2.903222629547488E-3  -4.825433417234892E-3  
 2.036400000000000E10    1.922505128737770E-3  -5.242129373881552E-3  
 2.036600000000000E10    8.848771965993500E-4  -5.381947371786760E-3  
 2.036800000000000E10   -7.454594549050890E-5  -5.294767173903960E-3  
 2.037000000000000E10   -8.858380936960013E-4  -5.066982614175406E-3  
 2.037200000000000E10   -1.549414844815562E-3  -4.826779218597545E-3  
 2.037400000000000E10   -2.213337780608807E-3  -4.609806664334036E-3  
 2.037600000000000E10   -2.966678954292964E-3  -4.344630704755769E-3  
 2.037800000000000E10   -3.814470149392700E-3  -3.885846061884989E-3  
 2.038000000000000E10   -4.608058744328627E-3  -3.161542715481771E-3  
 2.038200000000000E10   -5.160034938864870E-3  -2.190902544599441E-3  
 2.038400000000000E10   -5.416828397385501E-3  -1.156166785132186E-3  
 2.038600000000000E10   -5.481313701351117E-3  -1.059367754755335E-4  
 2.038800000000000E10   -5.294450052818399E-3   9.046564098551043E-4  
 2.039000000000000E10   -4.947406946922895E-3   1.736910996475706E-3  
 2.039200000000000E10   -4.520634718147325E-3   2.461782202446534E-3  
 2.039400000000000E10   -4.043311288833252E-3   3.113797503627010E-3  
 2.039600000000000E10   -3.517118443585473E-3   3.735510250093577E-3  
 2.039800000000000E10   -2.821223333156036E-3   4.327214495451363E-3  
 2.040000000000000E10   -2.021750688184927E-3   4.732836698998272E-3  
 2.040200000000000E10   -1.215208754414854E-3   4.960180570681890E-3  
 2.040400000000000E10   -3.698146618172572E-4   5.108662794723556E-3  
 2.040600000000000E10    5.306892393783518E-4   5.152475939672671E-3  
 2.040800000000000E10    1.450214210184820E-3   5.019489945958794E-3  
 2.041000000000000E10    2.372560513861202E-3   4.655269647224083E-3  
 2.041200000000000E10    3.174694266492203E-3   4.091757349669934E-3  
 2.041400000000000E10    3.809654631042555E-3   3.416797422148564E-3  
 2.041600000000000E10    4.318620227737192E-3   2.629756930364687E-3  
 2.041800000000000E10    4.659689267246444E-3   1.774290853961842E-3  
 2.042000000000000E10    4.802646977757967E-3   9.204313075629834E-4  
 2.042200000000000E10    4.757656434113965E-3   4.366468563625576E-5  
 2.042400000000000E10    4.556550960527895E-3  -7.161203797699679E-4  
 2.042600000000000E10    4.334184847036262E-3  -1.347450342569730E-3  
 2.042800000000000E10    4.065796330479193E-3  -1.974799529430859E-3  
 2.043000000000000E10    3.723031559522138E-3  -2.611832716214804E-3  
 2.043200000000000E10    3.256496335207313E-3  -3.220038290170057E-3  
 2.043400000000000E10    2.629396180840738E-3  -3.719675849065369E-3  
 2.043600000000000E10    1.975259651648410E-3  -4.082291622726639E-3  
 2.043800000000000E10    1.297610209691396E-3  -4.373094613123456E-3  
 2.044000000000000E10    5.087122855776991E-4  -4.566529041363134E-3  
 2.044200000000000E10   -3.746530439210252E-4  -4.610876725227745E-3  
 2.044400000000000E10   -1.266616347740278E-3  -4.401400340376078E-3  
 2.044600000000000E10   -1.992873387572206E-3  -3.957495271561691E-3  
 2.044800000000000E10   -2.525035467251768E-3  -3.437462153580087E-3  
 2.045000000000000E10   -2.928156670136952E-3  -2.955560374108178E-3  
 2.045200000000000E10   -3.291999150849419E-3  -2.486527173055543E-3  
 2.045400000000000E10   -3.620339744367902E-3  -1.956051097676894E-3  
 2.045600000000000E10   -3.909824496526042E-3  -1.419271487616187E-3  
 2.045800000000000E10   -4.195186148547097E-3  -7.748329957349250E-4  
 2.046000000000000E10   -4.318240995484370E-3   3.701955664624101E-5  
 2.046200000000000E10   -4.212604553933129E-3   8.672016448582765E-4  
 2.046400000000000E10   -3.937215377565152E-3   1.594098477428894E-3  
 2.046600000000000E10   -3.541013073567072E-3   2.211950521019322E-3  
 2.046800000000000E10   -3.090103820863146E-3   2.725106931326014E-3  
 2.047000000000000E10   -2.603896689474767E-3   3.195090644797426E-3  
 2.047200000000000E10   -2.010051436998226E-3   3.589279366151235E-3  
 2.047400000000000E10   -1.374879872058461E-3   3.877377752674583E-3  
 2.047600000000000E10   -6.796027717674957E-4   4.047745976735045E-3  
 2.047800000000000E10    4.987417223337278E-5   4.061381482047800E-3  
 2.048000000000000E10    7.544061870394666E-4   3.960907884677988E-3  
 2.048200000000000E10    1.449581977255919E-3   3.754519578644340E-3  
 2.048400000000000E10    2.073710792939420E-3   3.388051231058292E-3  
 2.048600000000000E10    2.557054722543668E-3   2.923897203103996E-3  
 2.048800000000000E10    2.976499535258354E-3   2.429647351051739E-3  
 2.049000000000000E10    3.292006670416874E-3   1.866428869960393E-3  
 2.049200000000000E10    3.474828560066260E-3   1.291829461726234E-3  
 2.049400000000000E10    3.605908058859684E-3   7.892498835622347E-4  
 2.049600000000000E10    3.687915389345568E-3   2.694519090805387E-4  
 2.049800000000000E10    3.758430989735105E-3  -2.684131705555721E-4  
 2.050000000000000E10    3.841437422382979E-3  -9.045347694974440E-4  
 2.050200000000000E10    3.802451779376027E-3  -1.697521734361848E-3  
 2.050400000000000E10    3.470786329772738E-3  -2.577491084481647E-3  
 2.050600000000000E10    2.814695785213033E-3  -3.360676987349620E-3  
 2.050800000000000E10    1.890574640847375E-3  -3.859101834902425E-3  
 2.051000000000000E10    9.074942201640413E-4  -3.985651239844753E-3  
 2.051200000000000E10    7.593594677422923E-5  -3.800022677391952E-3  
 2.051400000000000E10   -4.880739516797074E-4  -3.469414431256829E-3  
 2.051600000000000E10   -8.981931138277791E-4  -3.207123237604529E-3  
 2.051800000000000E10   -1.297008835446136E-3  -3.005591180911403E-3  
 2.052000000000000E10   -1.717849331333038E-3  -2.766798126775726E-3  
 2.052200000000000E10   -2.100225279314651E-3  -2.416428115310861E-3  
 2.052400000000000E10   -2.380977620451171E-3  -2.033410769208898E-3  
 2.052600000000000E10   -2.599340820409082E-3  -1.681027501350108E-3  
 2.052800000000000E10   -2.826384377930268E-3  -1.330312870350885E-3  
 2.053000000000000E10   -3.063151592756680E-3  -9.295470368714981E-4  
 2.053200000000000E10   -3.258616263966686E-3  -4.567639933853054E-4  
 2.053400000000000E10   -3.397275032590569E-3   1.235947670858967E-4  
 2.053600000000000E10   -3.396397574379305E-3   8.222686154135492E-4  
 2.053800000000000E10   -3.205863115044288E-3   1.515945921261094E-3  
 2.054000000000000E10   -2.803141900832639E-3   2.130791751874818E-3  
 2.054200000000000E10   -2.258292439589162E-3   2.597500196439617E-3  
 2.054400000000000E10   -1.669042740868014E-3   2.894439587921456E-3  
 2.054600000000000E10   -1.055969799190392E-3   3.033202006424099E-3  
 2.054800000000000E10   -4.787645392539555E-4   3.027011881823894E-3  
 2.055000000000000E10   -1.720642826568773E-5   2.892280796565760E-3  
 2.055200000000000E10    3.226867601718110E-4   2.738728751370937E-3  
 2.055400000000000E10    6.384857100963502E-4   2.651506270293469E-3  
 2.055600000000000E10    1.015617863568305E-3   2.584143168074482E-3  
