#  HZ   S   RI   R     50.00 
! Rohde & Schwarz ZVA40 4Ports - Version 3.90 - 1145.1110k42 SN: 100403
! Date: 2023-10-03 11:49:13
! Measurement: S12 
! 
 2.000000000000000E10    3.447400630210285E-4  -5.209247840361463E-3  
 2.000200000000000E10   -4.032305344784012E-4  -5.240844614389870E-3  
 2.000400000000000E10   -1.171457913221309E-3  -5.130109377205372E-3  
 2.000600000000000E10   -1.935397365337445E-3  -4.914720628962473E-3  
 2.000800000000000E10   -2.692764961264200E-3  -4.630336710424335E-3  
 2.001000000000000E10   -3.496998041454289E-3  -4.266563026855390E-3  
 2.001200000000000E10   -4.303023460562583E-3  -3.703932001910828E-3  
 2.001400000000000E10   -4.969472910656974E-3  -2.897541409496357E-3  
 2.001600000000000E10   -5.420074160038322E-3  -1.898434966009248E-3  
 2.001800000000000E10   -5.667557957133761E-3  -8.928869178311694E-4  
 2.002000000000000E10   -5.798340136944145E-3   1.078697449109448E-4  
 2.002200000000000E10   -5.706245148623432E-3   1.205307414272318E-3  
 2.002400000000000E10   -5.359413654164032E-3   2.232203622245126E-3  
 2.002600000000000E10   -4.744306258443330E-3   3.110244266550851E-3  
 2.002800000000000E10   -4.097192030813959E-3   3.755884150181104E-3  
 2.003000000000000E10   -3.465383054895534E-3   4.305633992232659E-3  
 2.003200000000000E10   -2.787186203662444E-3   4.773455085577789E-3  
 2.003400000000000E10   -1.992079179251084E-3   5.170545730463885E-3  
 2.003600000000000E10   -1.072698022687325E-3   5.448251445260313E-3  
 2.003800000000000E10   -1.337914824640999E-4   5.577319888053118E-3  
 2.004000000000000E10    7.932868234261320E-4   5.560236482846517E-3  
 2.004200000000000E10    1.680992849826537E-3   5.334601461611413E-3  
 2.004400000000000E10    2.483517647272459E-3   4.952454646290453E-3  
 2.004600000000000E10    3.211914027040756E-3   4.483172118111894E-3  
 2.004800000000000E10    3.879890328756085E-3   4.017107464649060E-3  
 2.005000000000000E10    4.578110951654338E-3   3.449132622874998E-3  
 2.005200000000000E10    5.177858199372337E-3   2.660056533015989E-3  
 2.005400000000000E10    5.601764070215049E-3   1.759950028456472E-3  
 2.005600000000000E10    5.949733071719057E-3   7.573119903638684E-4  
 2.005800000000000E10    6.156952413557857E-3  -3.528831239910452E-4  
 2.006000000000000E10    6.042684514627413E-3  -1.581221361886020E-3  
 2.006200000000000E10    5.558839240283878E-3  -2.699344910474287E-3  
 2.006400000000000E10    4.827719630190621E-3  -3.586074742661031E-3  
 2.006600000000000E10    4.036077677651689E-3  -4.268073114669986E-3  
 2.006800000000000E10    3.266930933696805E-3  -4.761310966892376E-3  
 2.007000000000000E10    2.477567556693598E-3  -5.192443124811959E-3  
 2.007200000000000E10    1.574443295356576E-3  -5.471146182605515E-3  
 2.007400000000000E10    6.381092750450114E-4  -5.603036274098689E-3  
 2.007600000000000E10   -2.793154002305258E-4  -5.615196018307298E-3  
 2.007800000000000E10   -1.107883421893887E-3  -5.492564980630522E-3  
 2.008000000000000E10   -1.860147492994589E-3  -5.322134001525465E-3  
 2.008200000000000E10   -2.687771658033685E-3  -5.105571493644406E-3  
 2.008400000000000E10   -3.642835076553403E-3  -4.760520360260099E-3  
 2.008600000000000E10   -4.633521626668948E-3  -4.081567887354781E-3  
 2.008800000000000E10   -5.358850824888107E-3  -3.099934258325785E-3  
 2.009000000000000E10   -5.763016416932699E-3  -2.053055368984739E-3  
 2.009200000000000E10   -5.989718958045599E-3  -9.889663498917666E-4  
 2.009400000000000E10   -6.101741076067643E-3   1.290556158184902E-4  
 2.009600000000000E10   -5.974965290752827E-3   1.329909445269516E-3  
 2.009800000000000E10   -5.480183115987867E-3   2.371991363664468E-3  
 2.010000000000000E10   -4.808489371229102E-3   3.158199161084162E-3  
 2.010200000000000E10   -4.094655228847707E-3   3.752405393040843E-3  
 2.010400000000000E10   -3.484944493889257E-3   4.189921491261986E-3  
 2.010600000000000E10   -2.914962686460328E-3   4.655472744532206E-3  
 2.010800000000000E10   -2.212711126991996E-3   5.139577478446343E-3  
 2.011000000000000E10   -1.331582950014207E-3   5.503237592401329E-3  
 2.011200000000000E10   -3.345255326065753E-4   5.711402726808081E-3  
 2.011400000000000E10    6.940931715588604E-4   5.741215207510525E-3  
 2.011600000000000E10    1.694923102924670E-3   5.569351405871136E-3  
 2.011800000000000E10    2.641877245709852E-3   5.184356054222144E-3  
 2.012000000000000E10    3.456011750838823E-3   4.605314297670568E-3  
 2.012200000000000E10    4.177413622124328E-3   3.961502608877641E-3  
 2.012400000000000E10    4.856106635459044E-3   3.229347713015698E-3  
 2.012600000000000E10    5.389261714838170E-3   2.320984464690641E-3  
 2.012800000000000E10    5.677022022643576E-3   1.264417505202194E-3  
 2.013000000000000E10    5.701431176728673E-3   2.087069776650794E-4  
 2.013200000000000E10    5.587326880130503E-3  -7.590373624461118E-4  
 2.013400000000000E10    5.414236336946487E-3  -1.689333084936219E-3  
 2.013600000000000E10    5.048205006729674E-3  -2.649452261350774E-3  
 2.013800000000000E10    4.378478542936069E-3  -3.491953455118670E-3  
 2.014000000000000E10    3.560252470412741E-3  -4.082139271001021E-3  
 2.014200000000000E10    2.792209171241632E-3  -4.438448128186995E-3  
 2.014400000000000E10    2.154025930428395E-3  -4.691015325348687E-3  
 2.014600000000000E10    1.503585186717963E-3  -4.995617015218294E-3  
 2.014800000000000E10    6.929771409852914E-4  -5.228289420268050E-3  
 2.015000000000000E10   -1.982726470386196E-4  -5.331795731628383E-3  
 2.015200000000000E10   -1.106965657392586E-3  -5.334575712266896E-3  
 2.015400000000000E10   -2.080515673797992E-3  -5.158057522580580E-3  
 2.015600000000000E10   -2.987954618961172E-3  -4.695403044698416E-3  
 2.015800000000000E10   -3.744808801760277E-3  -4.087972058052267E-3  
 2.016000000000000E10   -4.443331069692419E-3  -3.353384185444426E-3  
 2.016200000000000E10   -4.983002388918842E-3  -2.527570222607918E-3  
 2.016400000000000E10   -5.338750244980610E-3  -1.570814073568693E-3  
 2.016600000000000E10   -5.436680193438575E-3  -5.513557989615947E-4  
 2.016800000000000E10   -5.335361507065871E-3   4.124076178952776E-4  
 2.017000000000000E10   -5.090244924994531E-3   1.292392059608742E-3  
 2.017200000000000E10   -4.758052217463653E-3   2.031792015596121E-3  
 2.017400000000000E10   -4.385668749886531E-3   2.668880210775469E-3  
 2.017600000000000E10   -3.966644897850024E-3   3.261644246608571E-3  
 2.017800000000000E10   -3.526773053669820E-3   3.880641285192084E-3  
 2.018000000000000E10   -2.951491908687685E-3   4.565622657537460E-3  
 2.018200000000000E10   -2.133724831596569E-3   5.187253657452487E-3  
 2.018400000000000E10   -1.133529064073055E-3   5.556476906079938E-3  
 2.018600000000000E10   -6.508233572175310E-5   5.667389508474757E-3  
 2.018800000000000E10    1.033678312389249E-3   5.617251498969618E-3  
 2.019000000000000E10    2.080338903599315E-3   5.334439790911146E-3  
 2.019200000000000E10    3.014205351333928E-3   4.819573817291746E-3  
 2.019400000000000E10    3.771753731632123E-3   4.151823688988333E-3  
 2.019600000000000E10    4.422334591961570E-3   3.381444106775302E-3  
 2.019800000000000E10    4.892111014298819E-3   2.462849279658662E-3  
 2.020000000000000E10    5.103097400731511E-3   1.574295262495677E-3  
 2.020200000000000E10    5.169894287569656E-3   7.665472286235956E-4  
 2.020400000000000E10    5.182185606962002E-3  -1.322666920950049E-5  
 2.020600000000000E10    5.131083885552707E-3  -8.573091084448000E-4  
 2.020800000000000E10    4.904444605388024E-3  -1.727795646594907E-3  
 2.021000000000000E10    4.566166032519606E-3  -2.417925659015223E-3  
 2.021200000000000E10    4.319359203455626E-3  -3.069383221574956E-3  
 2.021400000000000E10    3.922977174321812E-3  -3.920731186452840E-3  
 2.021600000000000E10    3.145726320023338E-3  -4.779282232953443E-3  
 2.021800000000000E10    2.138825659467667E-3  -5.333172364367380E-3  
 2.022000000000000E10    1.136884063102857E-3  -5.584254550437133E-3  
 2.022200000000000E10    1.487128772876329E-4  -5.670869481508379E-3  
 2.022400000000000E10   -8.710120455361903E-4  -5.604231229948777E-3  
 2.022600000000000E10   -1.909423533275172E-3  -5.366264704476905E-3  
 2.022800000000000E10   -2.856689807096566E-3  -4.943153976152341E-3  
 2.023000000000000E10   -3.718026266950700E-3  -4.365179463531133E-3  
 2.023200000000000E10   -4.474529530853033E-3  -3.583488408131181E-3  
 2.023400000000000E10   -5.021447143344968E-3  -2.627123707767438E-3  
 2.023600000000000E10   -5.298669312011313E-3  -1.621864429950990E-3  
 2.023800000000000E10   -5.382294559644328E-3  -6.756483409036365E-4  
 2.024000000000000E10   -5.331697390863190E-3   2.176635489040227E-4  
 2.024200000000000E10   -5.078813578519557E-3   1.056312035803718E-3  
 2.024400000000000E10   -4.762841974971472E-3   1.770819213965701E-3  
 2.024600000000000E10   -4.515980473823018E-3   2.443280855745629E-3  
 2.024800000000000E10   -4.187163362210549E-3   3.190564793638058E-3  
 2.025000000000000E10   -3.665663646879020E-3   3.945722089459499E-3  
 2.025200000000000E10   -2.937325371291351E-3   4.608207934156613E-3  
 2.025400000000000E10   -2.028574856619041E-3   5.115326407744930E-3  
 2.025600000000000E10   -1.055917370616010E-3   5.399482548926716E-3  
 2.025800000000000E10   -7.680054976070233E-5   5.469364045118845E-3  
 2.026000000000000E10    8.920308642296328E-4   5.314356233510707E-3  
 2.026200000000000E10    1.765388529747725E-3   4.979798966949738E-3  
 2.026400000000000E10    2.545541885343415E-3   4.589189188899818E-3  
 2.026600000000000E10    3.285215313856801E-3   4.098117765453127E-3  
 2.026800000000000E10    3.882184503944936E-3   3.481384090803288E-3  
 2.027000000000000E10    4.335622768849134E-3   2.785367899815794E-3  
 2.027200000000000E10    4.645503402032234E-3   2.073128078201855E-3  
 2.027400000000000E10    4.938216397055874E-3   1.442129344299988E-3  
 2.027600000000000E10    5.237728547028922E-3   7.039269268581715E-4  
 2.027800000000000E10    5.432026753960937E-3  -1.267013188529139E-4  
 2.028000000000000E10    5.513290667699443E-3  -1.085386206223457E-3  
 2.028200000000000E10    5.371709543935679E-3  -2.233506482163514E-3  
 2.028400000000000E10    4.866940003854257E-3  -3.376831171206303E-3  
 2.028600000000000E10    4.061994194570515E-3  -4.277167979765822E-3  
 2.028800000000000E10    3.129145432332600E-3  -4.872287985765273E-3  
 2.029000000000000E10    2.207106660568604E-3  -5.260488915222663E-3  
 2.029200000000000E10    1.240333900097068E-3  -5.536035462110131E-3  
 2.029400000000000E10    2.236025325988454E-4  -5.614096885202109E-3  
 2.029600000000000E10   -7.291017208006924E-4  -5.447953059855435E-3  
 2.029800000000000E10   -1.493285884390827E-3  -5.142446400390731E-3  
 2.030000000000000E10   -2.233211114933646E-3  -4.885394816045409E-3  
 2.030200000000000E10   -3.082245191628183E-3  -4.558031343751485E-3  
 2.030400000000000E10   -3.932279137963499E-3  -3.973976174300469E-3  
 2.030600000000000E10   -4.549438409783222E-3  -3.192849422770519E-3  
 2.030800000000000E10   -4.980674082482303E-3  -2.382319127381952E-3  
 2.031000000000000E10   -5.284928354538150E-3  -1.521292000284626E-3  
 2.031200000000000E10   -5.472152959555388E-3  -6.705558108579782E-4  
 2.031400000000000E10   -5.584499471027543E-3   2.458324780929144E-4  
 2.031600000000000E10   -5.536563987671226E-3   1.191008327252887E-3  
 2.031800000000000E10   -5.227482946658577E-3   2.182835264614335E-3  
 2.032000000000000E10   -4.776714731835658E-3   3.068371287857493E-3  
 2.032200000000000E10   -4.212495784654663E-3   3.887865209469089E-3  
 2.032400000000000E10   -3.476755158906734E-3   4.591310000116075E-3  
 2.032600000000000E10   -2.628617152502692E-3   5.154910186926524E-3  
 2.032800000000000E10   -1.641416012447466E-3   5.557881530236316E-3  
 2.033000000000000E10   -5.922266928892997E-4   5.730349501525915E-3  
 2.033200000000000E10    4.531605195047128E-4   5.722361634037010E-3  
 2.033400000000000E10    1.484840332219998E-3   5.481269572758013E-3  
 2.033600000000000E10    1.907415105961263E-3   5.157908579955499E-3  
 2.033800000000000E10    3.099826656074988E-3   4.328234207436995E-3  
 2.034000000000000E10    3.681346636127543E-3   3.704126243031135E-3  
 2.034200000000000E10    4.125406655172507E-3   3.048972916547899E-3  
 2.034400000000000E10    4.433419589919073E-3   2.409026190569556E-3  
 2.034600000000000E10    4.719371183051004E-3   1.823426646835826E-3  
 2.034800000000000E10    5.070665765001819E-3   1.185594191257325E-3  
 2.035000000000000E10    5.401513349540808E-3   3.806407362895294E-4  
 2.035200000000000E10    5.540796641812281E-3  -6.297996992038357E-4  
 2.035400000000000E10    5.395147225095167E-3  -1.653225687159984E-3  
 2.035600000000000E10    5.019342147365765E-3  -2.615412352261720E-3  
 2.035800000000000E10    4.503265350919080E-3  -3.549971686745132E-3  
 2.036000000000000E10    3.755987113065742E-3  -4.414927438591366E-3  
 2.036200000000000E10    2.816468408262289E-3  -5.048672099494273E-3  
 2.036400000000000E10    1.740858312351284E-3  -5.426373660426450E-3  
 2.036600000000000E10    6.429059172256126E-4  -5.486362682724441E-3  
 2.036800000000000E10   -2.803182152867387E-4  -5.293914962008045E-3  
 2.037000000000000E10   -1.025983197097149E-3  -5.011270391858287E-3  
 2.037200000000000E10   -1.616397320672318E-3  -4.753098702403131E-3  
 2.037400000000000E10   -2.213278888828225E-3  -4.522736546479994E-3  
 2.037600000000000E10   -2.933592061270719E-3  -4.261982799680145E-3  
 2.037800000000000E10   -3.747451602032892E-3  -3.861753770184738E-3  
 2.038000000000000E10   -4.532133039363005E-3  -3.240900562593231E-3  
 2.038200000000000E10   -5.174759516699447E-3  -2.354679948270873E-3  
 2.038400000000000E10   -5.580508926262459E-3  -1.303049968555570E-3  
 2.038600000000000E10   -5.711474352412755E-3  -1.834974774047388E-4  
 2.038800000000000E10   -5.542877216443972E-3   9.072940555159694E-4  
 2.039000000000000E10   -5.178488446054636E-3   1.832387147091881E-3  
 2.039200000000000E10   -4.696933880310368E-3   2.590788718037032E-3  
 2.039400000000000E10   -4.168765205476020E-3   3.281091426119761E-3  
 2.039600000000000E10   -3.614232754679743E-3   3.964597876701091E-3  
 2.039800000000000E10   -2.875161400340774E-3   4.619044717401266E-3  
 2.040000000000000E10   -1.966745816861038E-3   5.062544597657743E-3  
 2.040200000000000E10   -1.026136287557030E-3   5.290565322394725E-3  
 2.040400000000000E10   -9.092825415858965E-5   5.337576140408164E-3  
 2.040600000000000E10    8.304652335398177E-4   5.241298875598996E-3  
 2.040800000000000E10    1.721973233442340E-3   5.000694120233811E-3  
 2.041000000000000E10    2.555009322585883E-3   4.603232498522159E-3  
 2.041200000000000E10    3.309194878157643E-3   4.037502049295991E-3  
 2.041400000000000E10    3.957949578762054E-3   3.351634411417224E-3  
 2.041600000000000E10    4.482330064530727E-3   2.531726818738712E-3  
 2.041800000000000E10    4.806739761045686E-3   1.601528087458401E-3  
 2.042000000000000E10    4.891855969887090E-3   6.827328578327542E-4  
 2.042200000000000E10    4.769698509739505E-3  -1.389661036362803E-4  
 2.042400000000000E10    4.550944686073949E-3  -8.069344740188509E-4  
 2.042600000000000E10    4.362518485221598E-3  -1.415540309002002E-3  
 2.042800000000000E10    4.115718503103213E-3  -2.079815526182453E-3  
 2.043000000000000E10    3.716113942640800E-3  -2.751717766470932E-3  
 2.043200000000000E10    3.178587743874502E-3  -3.353732008555974E-3  
 2.043400000000000E10    2.573109809654179E-3  -3.813847925307022E-3  
 2.043600000000000E10    1.956088485679141E-3  -4.203879860816179E-3  
 2.043800000000000E10    1.236076289960356E-3  -4.560294543841372E-3  
 2.044000000000000E10    3.746876469382120E-4  -4.786101290611206E-3  
 2.044200000000000E10   -5.659447784570081E-4  -4.784684852455502E-3  
 2.044400000000000E10   -1.545073645603326E-3  -4.507818949167376E-3  
 2.044600000000000E10   -2.322269525999825E-3  -3.947585864268520E-3  
 2.044800000000000E10   -2.779271505359147E-3  -3.307657842351883E-3  
 2.045000000000000E10   -3.099261619219626E-3  -2.776030459682699E-3  
 2.045200000000000E10   -3.421192273014674E-3  -2.279671642032487E-3  
 2.045400000000000E10   -3.700163034308288E-3  -1.749318593216163E-3  
 2.045600000000000E10   -3.965702364911085E-3  -1.192503345750824E-3  
 2.045800000000000E10   -4.213125962350104E-3  -5.115509481617699E-4  
 2.046000000000000E10   -4.289225726905797E-3   2.901188153946014E-4  
 2.046200000000000E10   -4.131816500039013E-3   1.087500312779513E-3  
 2.046400000000000E10   -3.794793427611392E-3   1.802668272931543E-3  
 2.046600000000000E10   -3.335779024012111E-3   2.374294420911206E-3  
 2.046800000000000E10   -2.824890634251966E-3   2.810297930544174E-3  
 2.047000000000000E10   -2.293959096143092E-3   3.195827568156852E-3  
 2.047200000000000E10   -1.748241134919226E-3   3.505550618110984E-3  
 2.047400000000000E10   -1.168386678694299E-3   3.741282305714709E-3  
 2.047600000000000E10   -5.264956874910880E-4   3.918138367158396E-3  
 2.047800000000000E10    1.844914858574393E-4   3.951903380867508E-3  
 2.048000000000000E10    8.893034774465142E-4   3.793319040495489E-3  
 2.048200000000000E10    1.521290504132156E-3   3.494541005541882E-3  
 2.048400000000000E10    2.055632786963273E-3   3.098202774439146E-3  
 2.048600000000000E10    2.460226252744044E-3   2.656796015799046E-3  
 2.048800000000000E10    2.779795029373081E-3   2.173987726025560E-3  
 2.049000000000000E10    2.976829487899388E-3   1.696348677527298E-3  
 2.049200000000000E10    3.088792544548159E-3   1.302999621084719E-3  
 2.049400000000000E10    3.285972901654465E-3   9.466606834730894E-4  
 2.049600000000000E10    3.540537768491993E-3   4.822693094697402E-4  
 2.049800000000000E10    3.770666929927689E-3  -8.184598414960353E-5  
 2.050000000000000E10    3.899831600763180E-3  -7.745554170536775E-4  
 2.050200000000000E10    3.856959200843618E-3  -1.604258945142782E-3  
 2.050400000000000E10    3.511984729104572E-3  -2.524298020742006E-3  
 2.050600000000000E10    2.794708297760399E-3  -3.352421422109560E-3  
 2.050800000000000E10    1.810670739764141E-3  -3.876265707529254E-3  
 2.051000000000000E10    7.939262345812664E-4  -3.983354696107132E-3  
 2.051200000000000E10   -3.580654865126471E-5  -3.729197921024429E-3  
 2.051400000000000E10   -5.477924024927673E-4  -3.343036251694517E-3  
 2.051600000000000E10   -8.897115648896607E-4  -3.058486911295741E-3  
 2.051800000000000E10   -1.228163687132851E-3  -2.831442738641744E-3  
 2.052000000000000E10   -1.581595736314302E-3  -2.564883256262100E-3  
 2.052200000000000E10   -1.885454299756223E-3  -2.236690268748337E-3  
 2.052400000000000E10   -2.094650459993217E-3  -1.915901804480840E-3  
 2.052600000000000E10   -2.272955374792218E-3  -1.691983038283609E-3  
 2.052800000000000E10   -2.582392370742229E-3  -1.508545359010222E-3  
 2.053000000000000E10   -2.955716456872998E-3  -1.151226952465044E-3  
 2.053200000000000E10   -3.228690621822521E-3  -6.087893292445828E-4  
 2.053400000000000E10   -3.375500552701178E-3   4.217979976264932E-5  
 2.053600000000000E10   -3.356902359950322E-3   7.717677939648707E-4  
 2.053800000000000E10   -3.112041253458571E-3   1.446941220718954E-3  
 2.054000000000000E10   -2.698777252118345E-3   1.972548456655609E-3  
 2.054200000000000E10   -2.233017261864411E-3   2.319230827399426E-3  
 2.054400000000000E10   -1.744170194595225E-3   2.584219159972337E-3  
 2.054600000000000E10   -1.211749208677146E-3   2.787262192685847E-3  
 2.054800000000000E10   -6.747018433762370E-4   2.855418888093145E-3  
 2.055000000000000E10   -2.174090046470089E-4   2.788018116175577E-3  
 2.055200000000000E10    1.041653384971950E-4   2.694905304384453E-3  
 2.055400000000000E10    3.942016725583623E-4   2.682229745443221E-3  
 2.055600000000000E10    7.634612201299106E-4   2.695480861735565E-3  
