#  HZ   S   RI   R     50.00 
! Rohde & Schwarz ZVA40 4Ports - Version 3.90 - 1145.1110k42 SN: 100403
! Date: 2023-10-03 11:50:27
! Measurement: S12 
! 
 2.000000000000000E10   -7.356166757677717E-4  -3.681243224828332E-3  
 2.000200000000000E10   -1.193972800306424E-3  -3.523546426246564E-3  
 2.000400000000000E10   -1.655622601026187E-3  -3.364507721185133E-3  
 2.000600000000000E10   -2.153801533428056E-3  -3.145470913430607E-3  
 2.000800000000000E10   -2.627454758449286E-3  -2.839197516786280E-3  
 2.001000000000000E10   -3.112109766031305E-3  -2.467310806322429E-3  
 2.001200000000000E10   -3.596547180441795E-3  -1.966666917454590E-3  
 2.001400000000000E10   -3.967280715221057E-3  -1.331898733042181E-3  
 2.001600000000000E10   -4.157580547379676E-3  -5.901703434237453E-4  
 2.001800000000000E10   -4.182840809570971E-3   1.137313959555252E-4  
 2.002000000000000E10   -4.175525857135654E-3   8.159737809802648E-4  
 2.002200000000000E10   -4.033237393876470E-3   1.653745688532514E-3  
 2.002400000000000E10   -3.662424722548437E-3   2.447195601201168E-3  
 2.002600000000000E10   -3.045179312013918E-3   3.053865869771000E-3  
 2.002800000000000E10   -2.391886448970548E-3   3.398851707094798E-3  
 2.003000000000000E10   -1.804335150626247E-3   3.645148274868176E-3  
 2.003200000000000E10   -1.239904987246350E-3   3.857345242674152E-3  
 2.003400000000000E10   -6.519235429112559E-4   3.971984877285582E-3  
 2.003600000000000E10   -7.843543419396693E-5   4.023486938051604E-3  
 2.003800000000000E10    5.705814433491066E-4   4.069259252261233E-3  
 2.004000000000000E10    1.314570765114493E-3   3.943464942966347E-3  
 2.004200000000000E10    1.967330877151755E-3   3.635054126519848E-3  
 2.004400000000000E10    2.500796017961370E-3   3.245680403240301E-3  
 2.004600000000000E10    2.926601140104511E-3   2.813563121620704E-3  
 2.004800000000000E10    3.298580931085680E-3   2.407598912853886E-3  
 2.005000000000000E10    3.741827138044216E-3   1.936192900218346E-3  
 2.005200000000000E10    4.110559562428131E-3   1.317997165541682E-3  
 2.005400000000000E10    4.340721587478011E-3   6.311284593754896E-4  
 2.005600000000000E10    4.483430094465063E-3  -1.291778740037612E-4  
 2.005800000000000E10    4.485705763929421E-3  -9.876516069871962E-4  
 2.006000000000000E10    4.239860818617875E-3  -1.888615872572970E-3  
 2.006200000000000E10    3.775915450037078E-3  -2.660526488735169E-3  
 2.006400000000000E10    3.156661142215685E-3  -3.244567524503779E-3  
 2.006600000000000E10    2.505472352452301E-3  -3.649945767527378E-3  
 2.006800000000000E10    1.874222980674219E-3  -3.944829778952732E-3  
 2.007000000000000E10    1.211325775969912E-3  -4.199259224589225E-3  
 2.007200000000000E10    4.996437583705066E-4  -4.319628010745403E-3  
 2.007400000000000E10   -2.099719186608801E-4  -4.284581117745903E-3  
 2.007600000000000E10   -8.754029382813586E-4  -4.153466524763240E-3  
 2.007800000000000E10   -1.489844384465229E-3  -3.934010242422422E-3  
 2.008000000000000E10   -2.029211708792934E-3  -3.713108219758229E-3  
 2.008200000000000E10   -2.616820477501110E-3  -3.480701991874311E-3  
 2.008400000000000E10   -3.273988108116168E-3  -3.149691891546051E-3  
 2.008600000000000E10   -3.964503830367769E-3  -2.554008366402101E-3  
 2.008800000000000E10   -4.468002718769843E-3  -1.690599502547196E-3  
 2.009000000000000E10   -4.667115518478333E-3  -7.658527939821836E-4  
 2.009200000000000E10   -4.626767364916979E-3   6.997317527916663E-5  
 2.009400000000000E10   -4.523129340399196E-3   8.532124662047459E-4  
 2.009600000000000E10   -4.276222514885444E-3   1.693026839617502E-3  
 2.009800000000000E10   -3.805207778458243E-3   2.437455157093980E-3  
 2.010000000000000E10   -3.206674794287042E-3   2.990136405935994E-3  
 2.010200000000000E10   -2.583957579055871E-3   3.335095898903631E-3  
 2.010400000000000E10   -2.100978348473157E-3   3.559649464915749E-3  
 2.010600000000000E10   -1.616168314487570E-3   3.868445184909636E-3  
 2.010800000000000E10   -9.936009688923757E-4   4.191941995587614E-3  
 2.011000000000000E10   -2.375248240477285E-4   4.363631036270549E-3  
 2.011200000000000E10    5.307177456820178E-4   4.333896493470229E-3  
 2.011400000000000E10    1.265301489857612E-3   4.171846710421421E-3  
 2.011600000000000E10    1.978532057600441E-3   3.899927061327078E-3  
 2.011800000000000E10    2.663004901950007E-3   3.501958084396191E-3  
 2.012000000000000E10    3.214088553148840E-3   2.960360082970174E-3  
 2.012200000000000E10    3.655744992472508E-3   2.407343799455299E-3  
 2.012400000000000E10    4.085151219947471E-3   1.779064311887380E-3  
 2.012600000000000E10    4.393165706898328E-3   9.863651724083835E-4  
 2.012800000000000E10    4.487310449972198E-3   9.531864957858089E-5  
 2.013000000000000E10    4.322708256680657E-3  -7.246625027619302E-4  
 2.013200000000000E10    4.050976251838385E-3  -1.409355253498588E-3  
 2.013400000000000E10    3.753914592649650E-3  -2.060714910772664E-3  
 2.013600000000000E10    3.312920539260464E-3  -2.731918064118536E-3  
 2.013800000000000E10    2.681606845861232E-3  -3.277308436938459E-3  
 2.014000000000000E10    1.987723931152788E-3  -3.597675538104442E-3  
 2.014200000000000E10    1.316305538811894E-3  -3.734974363059910E-3  
 2.014400000000000E10    7.719662411276389E-4  -3.777714739381164E-3  
 2.014600000000000E10    2.253568262925978E-4  -3.880323669700712E-3  
 2.014800000000000E10   -4.081634580399152E-4  -3.881320046881835E-3  
 2.015000000000000E10   -1.013771298824361E-3  -3.751934712959661E-3  
 2.015200000000000E10   -1.602747348240680E-3  -3.593789542921716E-3  
 2.015400000000000E10   -2.245762350934524E-3  -3.318823304855161E-3  
 2.015600000000000E10   -2.816825613586439E-3  -2.884816981990029E-3  
 2.015800000000000E10   -3.304086073681161E-3  -2.376225164712028E-3  
 2.016000000000000E10   -3.747977057678833E-3  -1.728265184081263E-3  
 2.016200000000000E10   -3.995036516614535E-3  -9.658018092590351E-4  
 2.016400000000000E10   -4.030775899688403E-3  -1.783328973235459E-4  
 2.016600000000000E10   -3.897340657810370E-3   5.410471219672926E-4  
 2.016800000000000E10   -3.642030551822650E-3   1.166411973018613E-3  
 2.017000000000000E10   -3.302790250422227E-3   1.680944697000086E-3  
 2.017200000000000E10   -2.956970620693432E-3   2.082406793272606E-3  
 2.017400000000000E10   -2.625704130709723E-3   2.470086915073572E-3  
 2.017600000000000E10   -2.258757603596206E-3   2.815253817027918E-3  
 2.017800000000000E10   -1.912108251687002E-3   3.164417300097369E-3  
 2.018000000000000E10   -1.462480747485879E-3   3.594944831328812E-3  
 2.018200000000000E10   -7.882645672739107E-4   3.965717559266422E-3  
 2.018400000000000E10    2.050943752423063E-5   4.122230414025210E-3  
 2.018600000000000E10    8.386027852625207E-4   4.033145917303585E-3  
 2.018800000000000E10    1.584894157497695E-3   3.789715313663085E-3  
 2.019000000000000E10    2.251695600096827E-3   3.417022638367835E-3  
 2.019200000000000E10    2.812666301098135E-3   2.890993970342809E-3  
 2.019400000000000E10    3.225059369234024E-3   2.315987729363971E-3  
 2.019600000000000E10    3.552387227062827E-3   1.730266919670006E-3  
 2.019800000000000E10    3.798759706249392E-3   1.063542039547530E-3  
 2.020000000000000E10    3.869716086666341E-3   3.706554535138249E-4  
 2.020200000000000E10    3.799108253722942E-3  -2.707472584141349E-4  
 2.020400000000000E10    3.691622375131206E-3  -8.666316711309333E-4  
 2.020600000000000E10    3.483734455787474E-3  -1.466363715870237E-3  
 2.020800000000000E10    3.126119013392816E-3  -2.009458072414553E-3  
 2.021000000000000E10    2.752496981648384E-3  -2.360183538662063E-3  
 2.021200000000000E10    2.524680570112887E-3  -2.726982882315363E-3  
 2.021400000000000E10    2.183246008051491E-3  -3.296825689850031E-3  
 2.021600000000000E10    1.521988383804759E-3  -3.835337840158631E-3  
 2.021800000000000E10    6.895767938759592E-4  -4.087738442683110E-3  
 2.022000000000000E10   -6.936242870223295E-5  -4.111651115602365E-3  
 2.022200000000000E10   -7.992863732700548E-4  -4.062483863284191E-3  
 2.022400000000000E10   -1.557521703135636E-3  -3.848896749938528E-3  
 2.022600000000000E10   -2.249993194170573E-3  -3.466986335331092E-3  
 2.022800000000000E10   -2.806121285107953E-3  -2.987098768008528E-3  
 2.023000000000000E10   -3.278961698352187E-3  -2.445701354493698E-3  
 2.023200000000000E10   -3.702483752190516E-3  -1.777828606362972E-3  
 2.023400000000000E10   -3.910761843952868E-3  -1.008928376163736E-3  
 2.023600000000000E10   -3.907493238026897E-3  -2.705917706609601E-4  
 2.023800000000000E10   -3.779120777768118E-3   3.495371870317118E-4  
 2.024000000000000E10   -3.634209986086245E-3   9.116378000557975E-4  
 2.024200000000000E10   -3.409111518757764E-3   1.450866197787777E-3  
 2.024400000000000E10   -3.135909783412462E-3   1.914713613654453E-3  
 2.024600000000000E10   -2.861801362423986E-3   2.382304208974044E-3  
 2.024800000000000E10   -2.490207509793066E-3   2.867527262963079E-3  
 2.025000000000000E10   -1.990036314560308E-3   3.310742986354012E-3  
 2.025200000000000E10   -1.394343700397898E-3   3.642797909883990E-3  
 2.025400000000000E10   -7.228997354913091E-4   3.867054064930590E-3  
 2.025600000000000E10   -1.176070428401646E-5   3.937930075658693E-3  
 2.025800000000000E10    6.736542197392772E-4   3.865187866958204E-3  
 2.026000000000000E10    1.331279118959275E-3   3.681061159888352E-3  
 2.026200000000000E10    1.931469896118398E-3   3.387086895397968E-3  
 2.026400000000000E10    2.490287224106767E-3   3.000651934632549E-3  
 2.026600000000000E10    2.961279936479750E-3   2.502915820244838E-3  
 2.026800000000000E10    3.302400146990463E-3   1.933840112070795E-3  
 2.027000000000000E10    3.503533554504868E-3   1.317037247914683E-3  
 2.027200000000000E10    3.567095130199084E-3   7.745056042309713E-4  
 2.027400000000000E10    3.632258856669069E-3   3.140642501993743E-4  
 2.027600000000000E10    3.712698731019542E-3  -1.629834143925648E-4  
 2.027800000000000E10    3.796895965933800E-3  -6.935210700181349E-4  
 2.028000000000000E10    3.854217456170807E-3  -1.357778505836096E-3  
 2.028200000000000E10    3.687375345853744E-3  -2.202636277717021E-3  
 2.028400000000000E10    3.186035668477417E-3  -2.999567409494409E-3  
 2.028600000000000E10    2.479495584136910E-3  -3.538762417587418E-3  
 2.028800000000000E10    1.746398189829456E-3  -3.833051736432094E-3  
 2.029000000000000E10    1.116410686841442E-3  -4.018944877855204E-3  
 2.029200000000000E10    4.434584725122141E-4  -4.209973487175174E-3  
 2.029400000000000E10   -3.520865340962903E-4  -4.268251342216024E-3  
 2.029600000000000E10   -1.139893041302761E-3  -4.073074380694717E-3  
 2.029800000000000E10   -1.722112517907388E-3  -3.746388583547540E-3  
 2.030000000000000E10   -2.219644064704577E-3  -3.474323993065843E-3  
 2.030200000000000E10   -2.832606874613299E-3  -3.156137221527321E-3  
 2.030400000000000E10   -3.429767761931375E-3  -2.599561724949766E-3  
 2.030600000000000E10   -3.804849133033444E-3  -1.898477595575430E-3  
 2.030800000000000E10   -4.008193155405699E-3  -1.225276268087328E-3  
 2.031000000000000E10   -4.138946326242553E-3  -5.511484277020727E-4  
 2.031200000000000E10   -4.181462512524040E-3   1.206600098629241E-4  
 2.031400000000000E10   -4.143433162459622E-3   8.029740333936558E-4  
 2.031600000000000E10   -4.000477130628295E-3   1.486716149547310E-3  
 2.031800000000000E10   -3.704612229571299E-3   2.117205678519828E-3  
 2.032000000000000E10   -3.359943542077586E-3   2.689488232135773E-3  
 2.032200000000000E10   -2.943044200677563E-3   3.298555017897377E-3  
 2.032400000000000E10   -2.337408976422416E-3   3.846447500917647E-3  
 2.032600000000000E10   -1.586945809389430E-3   4.241682933988395E-3  
 2.032800000000000E10   -7.719390904875819E-4   4.480348175598516E-3  
 2.033000000000000E10    8.829525527458086E-5   4.564966540783644E-3  
 2.033200000000000E10    9.637608072134081E-4   4.470259089160850E-3  
 2.033400000000000E10    1.797174142363171E-3   4.134377136964490E-3  
 2.033600000000000E10    2.091776458891454E-3   3.824891548396813E-3  
 2.033800000000000E10    2.903255504659481E-3   3.058570557860314E-3  
 2.034000000000000E10    3.307387750181887E-3   2.500892884132487E-3  
 2.034200000000000E10    3.615551093524253E-3   1.885043405410317E-3  
 2.034400000000000E10    3.741362770260485E-3   1.247696354295369E-3  
 2.034600000000000E10    3.760193181396635E-3   7.295018079242221E-4  
 2.034800000000000E10    3.858790456972741E-3   2.705218174486180E-4  
 2.035000000000000E10    3.992978397204920E-3  -2.972760447408763E-4  
 2.035200000000000E10    4.007813296522256E-3  -9.923941559261747E-4  
 2.035400000000000E10    3.856705674142750E-3  -1.698846092309665E-3  
 2.035600000000000E10    3.574080411689702E-3  -2.359320280245609E-3  
 2.035800000000000E10    3.173569208700900E-3  -3.024204030495000E-3  
 2.036000000000000E10    2.586224168125127E-3  -3.668205459015789E-3  
 2.036200000000000E10    1.791564450185332E-3  -4.147851511974027E-3  
 2.036400000000000E10    8.727056254563786E-4  -4.376061364180513E-3  
 2.036600000000000E10   -2.293820768870690E-5  -4.288044827127899E-3  
 2.036800000000000E10   -7.312006459364461E-4  -4.001347537807845E-3  
 2.037000000000000E10   -1.240538053766445E-3  -3.678824821556057E-3  
 2.037200000000000E10   -1.644303797985669E-3  -3.428827686649230E-3  
 2.037400000000000E10   -2.046831607542657E-3  -3.227132829596047E-3  
 2.037600000000000E10   -2.532164937023212E-3  -2.982392967506140E-3  
 2.037800000000000E10   -3.072311929254621E-3  -2.625124253056668E-3  
 2.038000000000000E10   -3.603322526302051E-3  -2.146022790973937E-3  
 2.038200000000000E10   -4.039861572285494E-3  -1.469574372836009E-3  
 2.038400000000000E10   -4.311642678523506E-3  -6.716667795208870E-4  
 2.038600000000000E10   -4.373098602863374E-3   1.923097092744515E-4  
 2.038800000000000E10   -4.212674184667844E-3   1.029229218450686E-3  
 2.039000000000000E10   -3.888069065632644E-3   1.743663593919741E-3  
 2.039200000000000E10   -3.462109999317263E-3   2.299654047453293E-3  
 2.039400000000000E10   -3.038492510785108E-3   2.751561261161610E-3  
 2.039600000000000E10   -2.619436165938775E-3   3.232492478909317E-3  
 2.039800000000000E10   -2.038483779566984E-3   3.763728197319089E-3  
 2.040000000000000E10   -1.255780492943746E-3   4.095246463462160E-3  
 2.040200000000000E10   -4.641143809917763E-4   4.176108942677578E-3  
 2.040400000000000E10    2.662563821542319E-4   4.135659999317594E-3  
 2.040600000000000E10    9.625107739810591E-4   3.995044191402418E-3  
 2.040800000000000E10    1.609465051269918E-3   3.748315921122278E-3  
 2.041000000000000E10    2.214660807685168E-3   3.415747071374898E-3  
 2.041200000000000E10    2.749713336083073E-3   2.970743691548705E-3  
 2.041400000000000E10    3.205672734313542E-3   2.441992741768007E-3  
 2.041600000000000E10    3.614409550748491E-3   1.807838837892094E-3  
 2.041800000000000E10    3.851035101063274E-3   1.063757670905303E-3  
 2.042000000000000E10    3.847341070434562E-3   3.414385298836149E-4  
 2.042200000000000E10    3.708795687459686E-3  -3.111041258779113E-4  
 2.042400000000000E10    3.493679273459647E-3  -8.362534313669635E-4  
 2.042600000000000E10    3.313614633279267E-3  -1.266048889158777E-3  
 2.042800000000000E10    3.125788833670043E-3  -1.742692629772204E-3  
 2.043000000000000E10    2.836839304547067E-3  -2.227984868955833E-3  
 2.043200000000000E10    2.458488672143884E-3  -2.636630346791612E-3  
 2.043400000000000E10    2.043084560514049E-3  -3.014736713979532E-3  
 2.043600000000000E10    1.540603189453207E-3  -3.388620249030216E-3  
 2.043800000000000E10    9.472758716179266E-4  -3.682071299947523E-3  
 2.044000000000000E10    2.509677940031031E-4  -3.849646387000879E-3  
 2.044200000000000E10   -5.442507444294515E-4  -3.865465883993441E-3  
 2.044400000000000E10   -1.348828090596254E-3  -3.625282526223197E-3  
 2.044600000000000E10   -1.962745527702350E-3  -3.121974145027775E-3  
 2.044800000000000E10   -2.280354172129322E-3  -2.579574628422658E-3  
 2.045000000000000E10   -2.460320402557652E-3  -2.202022872451279E-3  
 2.045200000000000E10   -2.684397760916639E-3  -1.896162965783367E-3  
 2.045400000000000E10   -2.964036349483111E-3  -1.545477248900743E-3  
 2.045600000000000E10   -3.273198553533466E-3  -1.131688322251042E-3  
 2.045800000000000E10   -3.543102734342770E-3  -5.796053446829319E-4  
 2.046000000000000E10   -3.658211729661734E-3   1.161551664592009E-4  
 2.046200000000000E10   -3.583203552773706E-3   8.468101258148200E-4  
 2.046400000000000E10   -3.325476845795358E-3   1.503480128357532E-3  
 2.046600000000000E10   -2.952467106903593E-3   2.045594207528565E-3  
 2.046800000000000E10   -2.504974025888024E-3   2.482228213921189E-3  
 2.047000000000000E10   -2.017520307735713E-3   2.798229067896803E-3  
 2.047200000000000E10   -1.541310132274197E-3   3.014603931525792E-3  
 2.047400000000000E10   -1.112589306474008E-3   3.226179405356999E-3  
 2.047600000000000E10   -6.001252439562922E-4   3.472991710252785E-3  
 2.047800000000000E10    6.070868780457037E-5   3.589426512243572E-3  
 2.048000000000000E10    7.762686323581471E-4   3.499177060331460E-3  
 2.048200000000000E10    1.411637731103434E-3   3.233857383882558E-3  
 2.048400000000000E10    1.931828886477484E-3   2.852359415825319E-3  
 2.048600000000000E10    2.334272178510825E-3   2.437782051317670E-3  
 2.048800000000000E10    2.643085447036558E-3   1.974717662152317E-3  
 2.049000000000000E10    2.817738947837993E-3   1.493311840695915E-3  
 2.049200000000000E10    2.937217829404054E-3   1.107122240312122E-3  
 2.049400000000000E10    3.132837548576020E-3   7.859053223876766E-4  
 2.049600000000000E10    3.362690279674200E-3   3.509986024625876E-4  
 2.049800000000000E10    3.529416845628510E-3  -2.348377316526172E-4  
 2.050000000000000E10    3.590614948835638E-3  -9.182019879248131E-4  
 2.050200000000000E10    3.492160726131665E-3  -1.707806665864256E-3  
 2.050400000000000E10    3.141173230553115E-3  -2.533106857703792E-3  
 2.050600000000000E10    2.501178110294320E-3  -3.270007782029333E-3  
 2.050800000000000E10    1.588390881402625E-3  -3.751925917135345E-3  
 2.051000000000000E10    5.627141605752211E-4  -3.844864649215231E-3  
 2.051200000000000E10   -2.881101229124600E-4  -3.558446127162488E-3  
 2.051400000000000E10   -7.956205410192963E-4  -3.129360955898409E-3  
 2.051600000000000E10   -1.102863392723655E-3  -2.783308538642747E-3  
 2.051800000000000E10   -1.392917310888017E-3  -2.525380045106566E-3  
 2.052000000000000E10   -1.706443990028843E-3  -2.270741715889286E-3  
 2.052200000000000E10   -1.990662551381522E-3  -1.920271923558580E-3  
 2.052400000000000E10   -2.129298514100137E-3  -1.575459010416159E-3  
 2.052600000000000E10   -2.221953244534908E-3  -1.338533660465921E-3  
 2.052800000000000E10   -2.427504009877642E-3  -1.145296281686536E-3  
 2.053000000000000E10   -2.732760755828134E-3  -8.238634737036019E-4  
 2.053200000000000E10   -2.975349685315181E-3  -3.279204425376117E-4  
 2.053400000000000E10   -3.046785739974843E-3   2.436470779314362E-4  
 2.053600000000000E10   -2.947896701732168E-3   8.357047875135863E-4  
 2.053800000000000E10   -2.719166740361188E-3   1.364401420923295E-3  
 2.054000000000000E10   -2.387523944317191E-3   1.829691248497477E-3  
 2.054200000000000E10   -1.972547818527178E-3   2.203972820468523E-3  
 2.054400000000000E10   -1.515551250324481E-3   2.439574786910305E-3  
 2.054600000000000E10   -1.072366946135406E-3   2.584023323530952E-3  
 2.054800000000000E10   -6.437456726820933E-4   2.656216327859848E-3  
 2.055000000000000E10   -2.479052644856792E-4   2.680002237428670E-3  
 2.055200000000000E10    1.190562826296729E-4   2.678260526240424E-3  
 2.055400000000000E10    4.795520799234510E-4   2.633022937785696E-3  
 2.055600000000000E10    8.685647949783340E-4   2.592948394724065E-3  
