#  HZ   S   RI   R     50.00 
! Rohde & Schwarz ZVA40 4Ports - Version 3.90 - 1145.1110k42 SN: 100403
! Date: 2023-10-03 11:51:06
! Measurement: S12 
! 
 2.000000000000000E10   -6.286855916389162E-4  -3.753117509876137E-3  
 2.000200000000000E10   -1.178156606059660E-3  -3.666543074090172E-3  
 2.000400000000000E10   -1.764522149675974E-3  -3.436155324042948E-3  
 2.000600000000000E10   -2.290632368789779E-3  -3.096836110301040E-3  
 2.000800000000000E10   -2.734578343936139E-3  -2.734020567947516E-3  
 2.001000000000000E10   -3.151680058282283E-3  -2.338144083127932E-3  
 2.001200000000000E10   -3.537743248873287E-3  -1.865445058447895E-3  
 2.001400000000000E10   -3.881623882248447E-3  -1.286726039661854E-3  
 2.001600000000000E10   -4.120429857047621E-3  -5.744578062418711E-4  
 2.001800000000000E10   -4.189202872415384E-3   1.663022230786737E-4  
 2.002000000000000E10   -4.134199444066596E-3   8.761631842288708E-4  
 2.002200000000000E10   -3.939220216125250E-3   1.644571294525156E-3  
 2.002400000000000E10   -3.576808100290321E-3   2.357267835005015E-3  
 2.002600000000000E10   -3.061558611484038E-3   2.940107240445084E-3  
 2.002800000000000E10   -2.527344549350717E-3   3.380825320534684E-3  
 2.003000000000000E10   -1.954238952344491E-3   3.740056883543731E-3  
 2.003200000000000E10   -1.306759249591441E-3   4.023512859863264E-3  
 2.003400000000000E10   -5.814540825128832E-4   4.173104202857724E-3  
 2.003600000000000E10    1.518928857640950E-4   4.169980081281176E-3  
 2.003800000000000E10    8.127578853250102E-4   4.038108219565065E-3  
 2.004000000000000E10    1.393047122595211E-3   3.837034856486652E-3  
 2.004200000000000E10    1.942951792713117E-3   3.569524459264897E-3  
 2.004400000000000E10    2.464916220762664E-3   3.259826106605707E-3  
 2.004600000000000E10    2.972460800298938E-3   2.883797106160610E-3  
 2.004800000000000E10    3.442540437121083E-3   2.477502001932374E-3  
 2.005000000000000E10    3.937714853910385E-3   1.949403801484517E-3  
 2.005200000000000E10    4.314531830863820E-3   1.211125209617118E-3  
 2.005400000000000E10    4.496113604141607E-3   4.205322216471864E-4  
 2.005600000000000E10    4.574819640428932E-3  -3.997291507268394E-4  
 2.005800000000000E10    4.505539778620005E-3  -1.258573408618018E-3  
 2.006000000000000E10    4.187556708024608E-3  -2.136536848006977E-3  
 2.006200000000000E10    3.641140138454460E-3  -2.871609508508334E-3  
 2.006400000000000E10    2.981322860621193E-3  -3.411557749603634E-3  
 2.006600000000000E10    2.302957672832741E-3  -3.771639549759804E-3  
 2.006800000000000E10    1.683432000896169E-3  -4.013921358381157E-3  
 2.007000000000000E10    1.022705851398685E-3  -4.213473500890865E-3  
 2.007200000000000E10    3.023630912745527E-4  -4.293878786955719E-3  
 2.007400000000000E10   -3.968621571806984E-4  -4.254869392348661E-3  
 2.007600000000000E10   -1.083304131127618E-3  -4.120178175745188E-3  
 2.007800000000000E10   -1.680344420795640E-3  -3.856177027854655E-3  
 2.008000000000000E10   -2.171325557692736E-3  -3.569573086375992E-3  
 2.008200000000000E10   -2.693065079963870E-3  -3.296316903153504E-3  
 2.008400000000000E10   -3.281855731512662E-3  -2.967527515634343E-3  
 2.008600000000000E10   -3.911321361859640E-3  -2.439419376767344E-3  
 2.008800000000000E10   -4.403788596391678E-3  -1.681068463733903E-3  
 2.009000000000000E10   -4.648320428613160E-3  -8.158028875995014E-4  
 2.009200000000000E10   -4.733621677452768E-3   3.761458096791844E-5  
 2.009400000000000E10   -4.716502554300759E-3   9.274341648927442E-4  
 2.009600000000000E10   -4.487594037696168E-3   1.890258298738412E-3  
 2.009800000000000E10   -3.915596132477125E-3   2.725001372810868E-3  
 2.010000000000000E10   -3.200018735326551E-3   3.282430150580628E-3  
 2.010200000000000E10   -2.476094014666699E-3   3.644996865962943E-3  
 2.010400000000000E10   -1.839130806426207E-3   3.832198722563960E-3  
 2.010600000000000E10   -1.276669687488013E-3   3.989450305838277E-3  
 2.010800000000000E10   -6.808629496609448E-4   4.133495329706758E-3  
 2.011000000000000E10   -2.932295238780271E-5   4.227106321465087E-3  
 2.011200000000000E10    6.895167947125932E-4   4.217401336602591E-3  
 2.011400000000000E10    1.418866820771385E-3   4.052221947522076E-3  
 2.011600000000000E10    2.088643757074520E-3   3.760063236027404E-3  
 2.011800000000000E10    2.712648706855598E-3   3.332244275413730E-3  
 2.012000000000000E10    3.239450389864269E-3   2.777161982117428E-3  
 2.012200000000000E10    3.623304759255714E-3   2.164537785574794E-3  
 2.012400000000000E10    3.940041452922203E-3   1.553680777929172E-3  
 2.012600000000000E10    4.180375831546608E-3   8.608618475220823E-4  
 2.012800000000000E10    4.249868793757978E-3   6.766952423344331E-5  
 2.013000000000000E10    4.137851487569236E-3  -6.968071490215759E-4  
 2.013200000000000E10    3.897642544298261E-3  -1.386685115802619E-3  
 2.013400000000000E10    3.590028491561060E-3  -2.024237471805127E-3  
 2.013600000000000E10    3.138660668843875E-3  -2.622776966610993E-3  
 2.013800000000000E10    2.538016316032520E-3  -3.096234450047767E-3  
 2.014000000000000E10    1.880775774932570E-3  -3.385562337590038E-3  
 2.014200000000000E10    1.290138112381101E-3  -3.492678481119651E-3  
 2.014400000000000E10    8.094544518152597E-4  -3.567446161199500E-3  
 2.014600000000000E10    3.034275076869462E-4  -3.662115031922306E-3  
 2.014800000000000E10   -2.843601520268108E-4  -3.710077790957359E-3  
 2.015000000000000E10   -8.992480062362222E-4  -3.639854249302988E-3  
 2.015200000000000E10   -1.477866140366705E-3  -3.492085418353478E-3  
 2.015400000000000E10   -2.080554672930804E-3  -3.264236738215443E-3  
 2.015600000000000E10   -2.669448886687557E-3  -2.848257258948353E-3  
 2.015800000000000E10   -3.157422343200004E-3  -2.311602855722110E-3  
 2.016000000000000E10   -3.535625110897754E-3  -1.691151901872622E-3  
 2.016200000000000E10   -3.773131545771052E-3  -1.013251086179581E-3  
 2.016400000000000E10   -3.818847549458345E-3  -3.044824083594399E-4  
 2.016600000000000E10   -3.715501253113703E-3   3.291109686769132E-4  
 2.016800000000000E10   -3.567388755510804E-3   8.980426290589903E-4  
 2.017000000000000E10   -3.372172505974218E-3   1.433177993425893E-3  
 2.017200000000000E10   -3.118180833687937E-3   1.949571142042125E-3  
 2.017400000000000E10   -2.767492956654342E-3   2.418449191652515E-3  
 2.017600000000000E10   -2.327232776830594E-3   2.811687662162715E-3  
 2.017800000000000E10   -1.906209215694280E-3   3.143730556109438E-3  
 2.018000000000000E10   -1.444325092490073E-3   3.494218354009920E-3  
 2.018200000000000E10   -8.752253962922153E-4   3.802314400672914E-3  
 2.018400000000000E10   -2.067309399501904E-4   3.986073433663007E-3  
 2.018600000000000E10    5.400528510411581E-4   4.044695636602464E-3  
 2.018800000000000E10    1.325748377928028E-3   3.944212777747049E-3  
 2.019000000000000E10    2.075776975187991E-3   3.645683768101865E-3  
 2.019200000000000E10    2.693072194233537E-3   3.155865482296105E-3  
 2.019400000000000E10    3.174166790106231E-3   2.623418639241546E-3  
 2.019600000000000E10    3.633639068101292E-3   2.030419634172210E-3  
 2.019800000000000E10    3.962497295880760E-3   1.279705423965222E-3  
 2.020000000000000E10    4.050225674830102E-3   5.041902056998678E-4  
 2.020200000000000E10    3.944521235233104E-3  -1.637520278260733E-4  
 2.020400000000000E10    3.800524743618789E-3  -7.279153602818649E-4  
 2.020600000000000E10    3.669503360503802E-3  -1.307781764168155E-3  
 2.020800000000000E10    3.424303416438677E-3  -1.893683328051810E-3  
 2.021000000000000E10    3.100294740525661E-3  -2.356490974004070E-3  
 2.021200000000000E10    2.817730471077893E-3  -2.819076016614283E-3  
 2.021400000000000E10    2.384262633751388E-3  -3.419491393422640E-3  
 2.021600000000000E10    1.707546572476902E-3  -3.946579596096719E-3  
 2.021800000000000E10    8.917708980367969E-4  -4.245733980227401E-3  
 2.022000000000000E10    9.569260361819978E-5  -4.308282725375008E-3  
 2.022200000000000E10   -6.648051181670141E-4  -4.228055045974476E-3  
 2.022400000000000E10   -1.429042692675635E-3  -4.029625880152540E-3  
 2.022600000000000E10   -2.149266251190394E-3  -3.691002786918371E-3  
 2.022800000000000E10   -2.744893224358007E-3  -3.225592370317490E-3  
 2.023000000000000E10   -3.228391322341782E-3  -2.693271807705363E-3  
 2.023200000000000E10   -3.655986041175547E-3  -2.052659944941600E-3  
 2.023400000000000E10   -3.932719144763218E-3  -1.304902351909766E-3  
 2.023600000000000E10   -4.013345852770188E-3  -5.808272743942561E-4  
 2.023800000000000E10   -3.988487395906339E-3   6.316405947641386E-5  
 2.024000000000000E10   -3.883458880914583E-3   6.803908381024721E-4  
 2.024200000000000E10   -3.693478949436987E-3   1.291609709840958E-3  
 2.024400000000000E10   -3.440510033181421E-3   1.855771445358793E-3  
 2.024600000000000E10   -3.171139939998588E-3   2.386741641977871E-3  
 2.024800000000000E10   -2.817155034453781E-3   2.940601393304490E-3  
 2.025000000000000E10   -2.285217512743893E-3   3.468472795147035E-3  
 2.025200000000000E10   -1.590686729522767E-3   3.902405629762345E-3  
 2.025400000000000E10   -8.074402425403673E-4   4.166809341835756E-3  
 2.025600000000000E10    1.722601626641808E-5   4.235183009532868E-3  
 2.025800000000000E10    7.934763389467090E-4   4.092408240669304E-3  
 2.026000000000000E10    1.497934874216164E-3   3.772487950131849E-3  
 2.026200000000000E10    2.061028412922665E-3   3.386563293773820E-3  
 2.026400000000000E10    2.548430002880870E-3   3.012410339175000E-3  
 2.026600000000000E10    3.048059271855487E-3   2.569068300848206E-3  
 2.026800000000000E10    3.437722688195883E-3   1.997714741500440E-3  
 2.027000000000000E10    3.692838380596152E-3   1.334975253687137E-3  
 2.027200000000000E10    3.774092869005270E-3   6.950315760655537E-4  
 2.027400000000000E10    3.836724777809448E-3   1.661085364132844E-4  
 2.027600000000000E10    3.875765216502327E-3  -4.165462817548326E-4  
 2.027800000000000E10    3.816658950031356E-3  -1.044840344952213E-3  
 2.028000000000000E10    3.671724012949401E-3  -1.718023684117253E-3  
 2.028200000000000E10    3.389996381614496E-3  -2.426125945661355E-3  
 2.028400000000000E10    2.899211184639071E-3  -3.098105097672454E-3  
 2.028600000000000E10    2.230050585543116E-3  -3.581522739733811E-3  
 2.028800000000000E10    1.518519043370530E-3  -3.826250684344107E-3  
 2.029000000000000E10    8.907666865356820E-4  -3.986680164450297E-3  
 2.029200000000000E10    2.286807740111491E-4  -4.155652994221009E-3  
 2.029400000000000E10   -5.446877934176613E-4  -4.173316147730307E-3  
 2.029600000000000E10   -1.282146924899684E-3  -3.925018883482726E-3  
 2.029800000000000E10   -1.837290353486660E-3  -3.546709669064041E-3  
 2.030000000000000E10   -2.304967397961904E-3  -3.246039057288457E-3  
 2.030200000000000E10   -2.840836428933674E-3  -2.909240692302033E-3  
 2.030400000000000E10   -3.335763838280131E-3  -2.411301903150700E-3  
 2.030600000000000E10   -3.667505975398753E-3  -1.818150135309056E-3  
 2.030800000000000E10   -3.907164136223771E-3  -1.223611541920238E-3  
 2.031000000000000E10   -4.106466209998837E-3  -5.848256858169206E-4  
 2.031200000000000E10   -4.221730296396548E-3   8.631700661175678E-5  
 2.031400000000000E10   -4.214323729414632E-3   7.893039750073243E-4  
 2.031600000000000E10   -4.064489156007767E-3   1.474908302986512E-3  
 2.031800000000000E10   -3.784601619743087E-3   2.169549146115228E-3  
 2.032000000000000E10   -3.425416700472987E-3   2.809731643302022E-3  
 2.032200000000000E10   -2.951767261105556E-3   3.439082358791321E-3  
 2.032400000000000E10   -2.310651216517996E-3   3.964759478414501E-3  
 2.032600000000000E10   -1.539136045957330E-3   4.363097181474722E-3  
 2.032800000000000E10   -6.606521740279818E-4   4.605955840950764E-3  
 2.033000000000000E10    2.817925565910560E-4   4.625713228489515E-3  
 2.033200000000000E10    1.138490090077674E-3   4.397487095384687E-3  
 2.033400000000000E10    1.859653827354864E-3   3.993118750966258E-3  
 2.033600000000000E10    2.092098075620555E-3   3.656061254096804E-3  
 2.033800000000000E10    2.829689187584100E-3   2.884275745600462E-3  
 2.034000000000000E10    3.115368403356385E-3   2.384532639687812E-3  
 2.034200000000000E10    3.335985105001816E-3   1.924013503378740E-3  
 2.034400000000000E10    3.517281652117769E-3   1.477029295293270E-3  
 2.034600000000000E10    3.702911988107695E-3   1.016229347981237E-3  
 2.034800000000000E10    3.956752898240531E-3   5.215961082959203E-4  
 2.035000000000000E10    4.191113653144351E-3  -1.387205120408908E-4  
 2.035200000000000E10    4.214229614094452E-3  -9.464308580694102E-4  
 2.035400000000000E10    3.984696766430582E-3  -1.734003027970041E-3  
 2.035600000000000E10    3.615626108108296E-3  -2.421584575333529E-3  
 2.035800000000000E10    3.157887133528238E-3  -3.048663708829770E-3  
 2.036000000000000E10    2.557729008711047E-3  -3.612524114066253E-3  
 2.036200000000000E10    1.852083739962567E-3  -4.003359108335443E-3  
 2.036400000000000E10    1.062309666950670E-3  -4.247055182026492E-3  
 2.036600000000000E10    2.443576565753945E-4  -4.331317333573545E-3  
 2.036800000000000E10   -5.540697128270512E-4  -4.211367228654801E-3  
 2.037000000000000E10   -1.186212024616975E-3  -3.938762971234543E-3  
 2.037200000000000E10   -1.702383087292590E-3  -3.675035770154662E-3  
 2.037400000000000E10   -2.245633785302441E-3  -3.418400581857121E-3  
 2.037600000000000E10   -2.827737368298350E-3  -3.076283614737569E-3  
 2.037800000000000E10   -3.401151728919811E-3  -2.578432956296537E-3  
 2.038000000000000E10   -3.835038230237034E-3  -1.951585795419912E-3  
 2.038200000000000E10   -4.119530440894543E-3  -1.227982406918373E-3  
 2.038400000000000E10   -4.278031902180778E-3  -4.637438859963032E-4  
 2.038600000000000E10   -4.312678154006050E-3   3.564045387233987E-4  
 2.038800000000000E10   -4.106870559216650E-3   1.159744194915725E-3  
 2.039000000000000E10   -3.751892708586874E-3   1.782450630950431E-3  
 2.039200000000000E10   -3.353286948468951E-3   2.308478208120775E-3  
 2.039400000000000E10   -2.938611682987324E-3   2.795749249074746E-3  
 2.039600000000000E10   -2.496753672689752E-3   3.280669933667890E-3  
 2.039800000000000E10   -1.915269759828570E-3   3.719322650727851E-3  
 2.040000000000000E10   -1.221124578646764E-3   3.965527923018845E-3  
 2.040200000000000E10   -5.220656360810002E-4   4.074311073593520E-3  
 2.040400000000000E10    1.736589135058845E-4   4.090265957293688E-3  
 2.040600000000000E10    8.575675741734881E-4   4.017899709719199E-3  
 2.040800000000000E10    1.520220815480032E-3   3.852978659172853E-3  
 2.041000000000000E10    2.175016035498293E-3   3.548187712483384E-3  
 2.041200000000000E10    2.792511945935312E-3   3.119927796500701E-3  
 2.041400000000000E10    3.335094786490556E-3   2.593098268671721E-3  
 2.041600000000000E10    3.781288413813821E-3   1.955520762648020E-3  
 2.041800000000000E10    4.071107220456557E-3   1.209341666523230E-3  
 2.042000000000000E10    4.145546816289425E-3   4.171051507539772E-4  
 2.042200000000000E10    4.047215088374086E-3  -3.453109977137367E-4  
 2.042400000000000E10    3.833460492185421E-3  -1.011101800637941E-3  
 2.042600000000000E10    3.582422750898534E-3  -1.593203926286488E-3  
 2.042800000000000E10    3.219277546223667E-3  -2.144618158194203E-3  
 2.043000000000000E10    2.746670144713588E-3  -2.617112291907823E-3  
 2.043200000000000E10    2.227163166497593E-3  -2.986262742154025E-3  
 2.043400000000000E10    1.701259817410674E-3  -3.224644456403675E-3  
 2.043600000000000E10    1.256873956191595E-3  -3.394816553703061E-3  
 2.043800000000000E10    7.842826329309631E-4  -3.607561725571200E-3  
 2.044000000000000E10    1.559284051095515E-4  -3.790458327987128E-3  
 2.044200000000000E10   -5.942583148781625E-4  -3.833343602578950E-3  
 2.044400000000000E10   -1.373591319726849E-3  -3.639967387749090E-3  
 2.044600000000000E10   -2.010089879924501E-3  -3.196044773277310E-3  
 2.044800000000000E10   -2.419018065901819E-3  -2.631620848896327E-3  
 2.045000000000000E10   -2.672480246811002E-3  -2.131832832539524E-3  
 2.045200000000000E10   -2.870289660576317E-3  -1.714926963258121E-3  
 2.045400000000000E10   -3.046277099875389E-3  -1.328119206138783E-3  
 2.045600000000000E10   -3.245654472805284E-3  -9.438329488383953E-4  
 2.045800000000000E10   -3.466361288533168E-3  -4.292845066326360E-4  
 2.046000000000000E10   -3.555363268350010E-3   2.305360844561451E-4  
 2.046200000000000E10   -3.462618406586074E-3   8.909038216289547E-4  
 2.046400000000000E10   -3.248778145967259E-3   1.474182000728669E-3  
 2.046600000000000E10   -2.918263767949409E-3   1.998514178450461E-3  
 2.046800000000000E10   -2.509405543268831E-3   2.441581959525744E-3  
 2.047000000000000E10   -2.058247268130934E-3   2.832744512017127E-3  
 2.047200000000000E10   -1.557333821741244E-3   3.167475375381333E-3  
 2.047400000000000E10   -9.818923901076671E-4   3.401870709947415E-3  
 2.047600000000000E10   -3.531354789932569E-4   3.518031547880836E-3  
 2.047800000000000E10    3.024972716553344E-4   3.484997087744652E-3  
 2.048000000000000E10    9.253768991954901E-4   3.335666937615585E-3  
 2.048200000000000E10    1.479173079133034E-3   3.087807015550358E-3  
 2.048400000000000E10    1.938695062158837E-3   2.732740430575279E-3  
 2.048600000000000E10    2.298029872623307E-3   2.331288712513116E-3  
 2.048800000000000E10    2.591211210798335E-3   1.893116721745443E-3  
 2.049000000000000E10    2.805801988061932E-3   1.447573429215010E-3  
 2.049200000000000E10    2.961882588419098E-3   1.054809277842718E-3  
 2.049400000000000E10    3.128217757438069E-3   6.712129882847270E-4  
 2.049600000000000E10    3.278047881192632E-3   1.939702585029106E-4  
 2.049800000000000E10    3.369034061001407E-3  -3.615540454457342E-4  
 2.050000000000000E10    3.392767385338192E-3  -9.914580215182570E-4  
 2.050200000000000E10    3.273757243597950E-3  -1.682334260463163E-3  
 2.050400000000000E10    2.922722664489239E-3  -2.396085368538345E-3  
 2.050600000000000E10    2.329723823263690E-3  -3.009044159962624E-3  
 2.050800000000000E10    1.541907864588279E-3  -3.387729318260595E-3  
 2.051000000000000E10    7.373125710593607E-4  -3.479611292412436E-3  
 2.051200000000000E10    6.101449657257440E-5  -3.336264967435488E-3  
 2.051400000000000E10   -4.266335777679666E-4  -3.069563915401146E-3  
 2.051600000000000E10   -7.821474013056744E-4  -2.838755664588125E-3  
 2.051800000000000E10   -1.111618467365150E-3  -2.699647055662893E-3  
 2.052000000000000E10   -1.501379219849629E-3  -2.541553444677481E-3  
 2.052200000000000E10   -1.876355614513159E-3  -2.250687771097378E-3  
 2.052400000000000E10   -2.145973801681841E-3  -1.892109944795569E-3  
 2.052600000000000E10   -2.340965335153871E-3  -1.577708171680570E-3  
 2.052800000000000E10   -2.578845213132877E-3  -1.293259457236639E-3  
 2.053000000000000E10   -2.861007478915983E-3  -9.201479929119902E-4  
 2.053200000000000E10   -3.053774056887186E-3  -4.427129450185156E-4  
 2.053400000000000E10   -3.152806423949424E-3   1.311362518916010E-4  
 2.053600000000000E10   -3.134806942263688E-3   7.755051612750525E-4  
 2.053800000000000E10   -2.938904118275753E-3   1.397614475098197E-3  
 2.054000000000000E10   -2.571544316769750E-3   1.933306895403399E-3  
 2.054200000000000E10   -2.087545667395548E-3   2.326751696980662E-3  
 2.054400000000000E10   -1.580801309534797E-3   2.577565610408783E-3  
 2.054600000000000E10   -1.077468532861935E-3   2.724403075666891E-3  
 2.054800000000000E10   -5.928106170527087E-4   2.786581507987447E-3  
 2.055000000000000E10   -1.555862348781105E-4   2.758172573521733E-3  
 2.055200000000000E10    2.432310607724099E-4   2.659165464272654E-3  
 2.055400000000000E10    6.023657947985663E-4   2.535796870856926E-3  
 2.055600000000000E10    9.268443509763868E-4   2.424519310739857E-3  
