#  HZ   S   RI   R     50.00 
! Rohde & Schwarz ZVA40 4Ports - Version 3.90 - 1145.1110k42 SN: 100403
! Date: 2023-10-03 11:51:41
! Measurement: S12 
! 
 2.000000000000000E10   -1.284570196057084E-3  -3.541157253224541E-3  
 2.000200000000000E10   -1.788067997916154E-3  -3.314843306455899E-3  
 2.000400000000000E10   -2.288853672022621E-3  -2.950451259190838E-3  
 2.000600000000000E10   -2.727247395173267E-3  -2.487650658521388E-3  
 2.000800000000000E10   -3.045807808154712E-3  -2.032850213624813E-3  
 2.001000000000000E10   -3.316864336806316E-3  -1.611972908937821E-3  
 2.001200000000000E10   -3.566731396993554E-3  -1.129724969225073E-3  
 2.001400000000000E10   -3.781818457085778E-3  -5.215179796020191E-4  
 2.001600000000000E10   -3.837436385866669E-3   2.102141149441229E-4  
 2.001800000000000E10   -3.717609715682490E-3   8.388917065329023E-4  
 2.002000000000000E10   -3.550210027714019E-3   1.369547176485261E-3  
 2.002200000000000E10   -3.296275692129578E-3   1.952207862847933E-3  
 2.002400000000000E10   -2.934781506795574E-3   2.539826255222714E-3  
 2.002600000000000E10   -2.431353252312100E-3   3.076169001697391E-3  
 2.002800000000000E10   -1.860570080612821E-3   3.464108867639745E-3  
 2.003000000000000E10   -1.242271827154414E-3   3.679773295988088E-3  
 2.003200000000000E10   -6.089917733334006E-4   3.781282067022942E-3  
 2.003400000000000E10    4.605422199583024E-5   3.783692709273763E-3  
 2.003600000000000E10    6.549942384784420E-4   3.709731606283674E-3  
 2.003800000000000E10    1.224773591039357E-3   3.555677374135014E-3  
 2.004000000000000E10    1.732889515416766E-3   3.294446117555102E-3  
 2.004200000000000E10    2.182194618163286E-3   2.927045182635387E-3  
 2.004400000000000E10    2.558876863784261E-3   2.548530232161284E-3  
 2.004600000000000E10    2.915545176990607E-3   2.201346016523463E-3  
 2.004800000000000E10    3.277324812693729E-3   1.875394295590619E-3  
 2.005000000000000E10    3.700436963872226E-3   1.405179966241122E-3  
 2.005200000000000E10    3.998946053562342E-3   6.735467640855523E-4  
 2.005400000000000E10    4.092591021347930E-3  -7.772921202963010E-5  
 2.005600000000000E10    4.088385375561538E-3  -8.002771474248558E-4  
 2.005800000000000E10    3.957181841273000E-3  -1.502594375913894E-3  
 2.006000000000000E10    3.624194413768473E-3  -2.245242112419672E-3  
 2.006200000000000E10    3.068799687618459E-3  -2.884495503234643E-3  
 2.006400000000000E10    2.436980329177998E-3  -3.321651671150769E-3  
 2.006600000000000E10    1.848283767079314E-3  -3.604094161548549E-3  
 2.006800000000000E10    1.295167694075240E-3  -3.789299616107235E-3  
 2.007000000000000E10    7.062409530152326E-4  -3.950784914195538E-3  
 2.007200000000000E10    2.647308536796591E-5  -4.045384780814251E-3  
 2.007400000000000E10   -6.753314454625878E-4  -4.045167144525935E-3  
 2.007600000000000E10   -1.369774910724825E-3  -3.889730639962687E-3  
 2.007800000000000E10   -1.951778143713320E-3  -3.564992591876676E-3  
 2.008000000000000E10   -2.438377571740636E-3  -3.187881351483089E-3  
 2.008200000000000E10   -2.921404084190726E-3  -2.823872345120267E-3  
 2.008400000000000E10   -3.452885059501838E-3  -2.439985732996354E-3  
 2.008600000000000E10   -3.991102661799502E-3  -1.857927064756277E-3  
 2.008800000000000E10   -4.340370271906809E-3  -1.030727011513793E-3  
 2.009000000000000E10   -4.425325758617234E-3  -1.625708084450000E-4  
 2.009200000000000E10   -4.380570828086801E-3   6.539688221420404E-4  
 2.009400000000000E10   -4.255461092624400E-3   1.455268908843950E-3  
 2.009600000000000E10   -3.936240803105413E-3   2.294366282445413E-3  
 2.009800000000000E10   -3.298337433349204E-3   3.016801990775599E-3  
 2.010000000000000E10   -2.509302269943335E-3   3.474411287310499E-3  
 2.010200000000000E10   -1.753671849318953E-3   3.708411111599870E-3  
 2.010400000000000E10   -1.140103554698052E-3   3.747054022150460E-3  
 2.010600000000000E10   -6.457900475382944E-4   3.743463730508531E-3  
 2.010800000000000E10   -1.633382381879966E-4   3.760725811675744E-3  
 2.011000000000000E10    3.698967899523538E-4   3.841376009707650E-3  
 2.011200000000000E10    1.054718823137659E-3   3.880496731855804E-3  
 2.011400000000000E10    1.782462018093577E-3   3.706524571127914E-3  
 2.011600000000000E10    2.442071542005848E-3   3.330480988585839E-3  
 2.011800000000000E10    3.004375345039148E-3   2.780516433564050E-3  
 2.012000000000000E10    3.423543388230934E-3   2.181811594507761E-3  
 2.012200000000000E10    3.741116254348998E-3   1.616586318791465E-3  
 2.012400000000000E10    4.055449100970119E-3   1.010967401304731E-3  
 2.012600000000000E10    4.229249104995420E-3   2.287864734642898E-4  
 2.012800000000000E10    4.173375942088940E-3  -6.578024261182658E-4  
 2.013000000000000E10    3.878579259401670E-3  -1.471019345680597E-3  
 2.013200000000000E10    3.442296844527678E-3  -2.070044788221519E-3  
 2.013400000000000E10    3.027649191035717E-3  -2.528841331325196E-3  
 2.013600000000000E10    2.544687034700204E-3  -3.008072687037014E-3  
 2.013800000000000E10    1.888105645775795E-3  -3.445798565668089E-3  
 2.014000000000000E10    1.143120927736163E-3  -3.654328640550375E-3  
 2.014200000000000E10    5.115379462949932E-4  -3.611095948144794E-3  
 2.014400000000000E10    3.309507459797952E-5  -3.516357909474109E-3  
 2.014600000000000E10   -4.608250154113329E-4  -3.465845723877903E-3  
 2.014800000000000E10   -1.003038250254812E-3  -3.369498316681496E-3  
 2.015000000000000E10   -1.545251735175650E-3  -3.184857278096456E-3  
 2.015200000000000E10   -2.030604070535413E-3  -2.932629142715424E-3  
 2.015400000000000E10   -2.521692042204518E-3  -2.565884152082382E-3  
 2.015600000000000E10   -2.928168642231160E-3  -2.038521416209363E-3  
 2.015800000000000E10   -3.231705519957123E-3  -1.528142778961747E-3  
 2.016000000000000E10   -3.509771665213285E-3  -9.992717963608880E-4  
 2.016200000000000E10   -3.677815569702674E-3  -3.720312498545456E-4  
 2.016400000000000E10   -3.640360129928148E-3   3.343113575182442E-4  
 2.016600000000000E10   -3.441470795897423E-3   9.907415347967161E-4  
 2.016800000000000E10   -3.171338967082126E-3   1.555867859645298E-3  
 2.017000000000000E10   -2.819535037916568E-3   2.040142340033695E-3  
 2.017200000000000E10   -2.373169400487785E-3   2.403354030792360E-3  
 2.017400000000000E10   -1.907836956282457E-3   2.666072885471362E-3  
 2.017600000000000E10   -1.455783938851070E-3   2.858202154230741E-3  
 2.017800000000000E10   -1.099970489222970E-3   3.047544190108225E-3  
 2.018000000000000E10   -7.152532149727147E-4   3.279439949740967E-3  
 2.018200000000000E10   -1.995210245863914E-4   3.463039364389800E-3  
 2.018400000000000E10    4.202302338348496E-4   3.527356639366460E-3  
 2.018600000000000E10    1.078620139095519E-3   3.470087777478276E-3  
 2.018800000000000E10    1.745603508660915E-3   3.298743653835522E-3  
 2.019000000000000E10    2.391252804685522E-3   2.941427398817959E-3  
 2.019200000000000E10    2.905412025197789E-3   2.365983600072839E-3  
 2.019400000000000E10    3.254389355855960E-3   1.747054823984703E-3  
 2.019600000000000E10    3.554493300961676E-3   1.136896252218220E-3  
 2.019800000000000E10    3.736831972168552E-3   4.267163081008390E-4  
 2.020000000000000E10    3.662742001728879E-3  -3.097103706548094E-4  
 2.020200000000000E10    3.356879387326815E-3  -9.327287595995048E-4  
 2.020400000000000E10    3.038785161657466E-3  -1.366035598847601E-3  
 2.020600000000000E10    2.790960690213575E-3  -1.752317201829067E-3  
 2.020800000000000E10    2.472165307995898E-3  -2.115473608244901E-3  
 2.021000000000000E10    2.124885209249678E-3  -2.337092240513475E-3  
 2.021200000000000E10    1.911228846034242E-3  -2.608140352768479E-3  
 2.021400000000000E10    1.604872833316525E-3  -3.077853048496225E-3  
 2.021600000000000E10    1.053255288516758E-3  -3.550225049602213E-3  
 2.021800000000000E10    3.118519002951130E-4  -3.806991519889346E-3  
 2.022000000000000E10   -4.331853857298417E-4  -3.770309440032752E-3  
 2.022200000000000E10   -1.119384710263047E-3  -3.617405744821386E-3  
 2.022400000000000E10   -1.790700980496628E-3  -3.389423066336248E-3  
 2.022600000000000E10   -2.449047613751006E-3  -2.996127517824924E-3  
 2.022800000000000E10   -2.928414269936858E-3  -2.446734553409948E-3  
 2.023000000000000E10   -3.254086745006067E-3  -1.861830992210243E-3  
 2.023200000000000E10   -3.558774763304327E-3  -1.218720033109464E-3  
 2.023400000000000E10   -3.721253989540317E-3  -4.833823811538794E-4  
 2.023600000000000E10   -3.653617489531085E-3   2.143488810462360E-4  
 2.023800000000000E10   -3.454634143660466E-3   8.079914690892179E-4  
 2.024000000000000E10   -3.206372304164150E-3   1.331587218576008E-3  
 2.024200000000000E10   -2.903642615786305E-3   1.811132085061184E-3  
 2.024400000000000E10   -2.591142862069387E-3   2.146600417930771E-3  
 2.024600000000000E10   -2.375577050433667E-3   2.475957446559160E-3  
 2.024800000000000E10   -2.057421598928395E-3   2.929958877050214E-3  
 2.025000000000000E10   -1.501267318855281E-3   3.392160964991760E-3  
 2.025200000000000E10   -8.271314889296063E-4   3.677086171659607E-3  
 2.025400000000000E10   -1.349799086138201E-4   3.831774375780865E-3  
 2.025600000000000E10    6.109290256130476E-4   3.829035976970638E-3  
 2.025800000000000E10    1.363311036213957E-3   3.585528418490733E-3  
 2.026000000000000E10    1.987708585888700E-3   3.162066322854824E-3  
 2.026200000000000E10    2.401221914354850E-3   2.692130230436171E-3  
 2.026400000000000E10    2.722442331206468E-3   2.324317030056759E-3  
 2.026600000000000E10    3.081246348166908E-3   1.903255961628424E-3  
 2.026800000000000E10    3.393176925817022E-3   1.326315173948253E-3  
 2.027000000000000E10    3.568484085715480E-3   6.506003954672014E-4  
 2.027200000000000E10    3.540741262474547E-3   2.674108664332720E-5  
 2.027400000000000E10    3.460959074328896E-3  -4.552590873101037E-4  
 2.027600000000000E10    3.361493556035890E-3  -9.587204312319281E-4  
 2.027800000000000E10    3.193333244848031E-3  -1.479396234369941E-3  
 2.028000000000000E10    3.011075219277431E-3  -2.006682860492557E-3  
 2.028200000000000E10    2.738085713375498E-3  -2.604705893814012E-3  
 2.028400000000000E10    2.222949406132102E-3  -3.168739516426016E-3  
 2.028600000000000E10    1.512564641113083E-3  -3.507675430564969E-3  
 2.028800000000000E10    8.145042919312364E-4  -3.619088023831999E-3  
 2.029000000000000E10    2.509571155921246E-4  -3.668338077625743E-3  
 2.029200000000000E10   -3.232664247560833E-4  -3.725074136767675E-3  
 2.029400000000000E10   -9.890221602593861E-4  -3.630954901584321E-3  
 2.029600000000000E10   -1.629809271199284E-3  -3.332327447693658E-3  
 2.029800000000000E10   -2.101128593225170E-3  -2.945210948517478E-3  
 2.030000000000000E10   -2.487405280893048E-3  -2.631984280284357E-3  
 2.030200000000000E10   -2.941918861189927E-3  -2.274061708400647E-3  
 2.030400000000000E10   -3.327077685820836E-3  -1.715476978225289E-3  
 2.030600000000000E10   -3.524719435652649E-3  -1.051121085226812E-3  
 2.030800000000000E10   -3.590590251540697E-3  -4.434724040846858E-4  
 2.031000000000000E10   -3.602347198735785E-3   1.031985793141994E-4  
 2.031200000000000E10   -3.554055553481535E-3   6.247970417866277E-4  
 2.031400000000000E10   -3.445674742882451E-3   1.156585575598810E-3  
 2.031600000000000E10   -3.301700094231854E-3   1.698420025166814E-3  
 2.031800000000000E10   -3.059857042023430E-3   2.263130240694241E-3  
 2.032000000000000E10   -2.746751281881222E-3   2.800502055497082E-3  
 2.032200000000000E10   -2.293264001814856E-3   3.338514404647329E-3  
 2.032400000000000E10   -1.606428318794955E-3   3.748814247686555E-3  
 2.032600000000000E10   -8.740269178007212E-4   4.000589303258393E-3  
 2.032800000000000E10   -9.244806332625793E-5   4.167313704750052E-3  
 2.033000000000000E10    7.485523151613222E-4   4.117502279027746E-3  
 2.033200000000000E10    1.539082361247253E-3   3.803908342012653E-3  
 2.033400000000000E10    2.222742876727824E-3   3.307982606606351E-3  
 2.033600000000000E10    2.407147704313199E-3   2.921652531734219E-3  
 2.033800000000000E10    2.906749145714222E-3   2.112367906159273E-3  
 2.034000000000000E10    3.055741079151631E-3   1.645297398445783E-3  
 2.034200000000000E10    3.132984197388093E-3   1.186457673881065E-3  
 2.034400000000000E10    3.164657564074905E-3   7.307409886615696E-4  
 2.034600000000000E10    3.215118690773294E-3   3.553081815307788E-4  
 2.034800000000000E10    3.352974817432740E-3  -2.531290374463426E-5  
 2.035000000000000E10    3.458567851878427E-3  -5.436446334459578E-4  
 2.035200000000000E10    3.391601464331703E-3  -1.180446331596209E-3  
 2.035400000000000E10    3.183837169436393E-3  -1.790556845393170E-3  
 2.035600000000000E10    2.905784010956133E-3  -2.360186505096931E-3  
 2.035800000000000E10    2.525774805151202E-3  -2.923366691296300E-3  
 2.036000000000000E10    1.943002808494149E-3  -3.403051928789528E-3  
 2.036200000000000E10    1.238473156398093E-3  -3.693538588575192E-3  
 2.036400000000000E10    4.806586377391662E-4  -3.847842604887707E-3  
 2.036600000000000E10   -2.803094609623293E-4  -3.811478666547272E-3  
 2.036800000000000E10   -9.052390599174910E-4  -3.545220872318304E-3  
 2.037000000000000E10   -1.366521994997230E-3  -3.203462878311122E-3  
 2.037200000000000E10   -1.741910892262779E-3  -2.913640906896305E-3  
 2.037400000000000E10   -2.101559743837074E-3  -2.657369951959010E-3  
 2.037600000000000E10   -2.491408708953747E-3  -2.414662425440771E-3  
 2.037800000000000E10   -2.922224553508891E-3  -2.090166607457731E-3  
 2.038000000000000E10   -3.336500074645436E-3  -1.597251993155590E-3  
 2.038200000000000E10   -3.648155041176964E-3  -9.383110553716070E-4  
 2.038400000000000E10   -3.816987499939624E-3  -2.071968973959211E-4  
 2.038600000000000E10   -3.777153194985456E-3   5.266294185141171E-4  
 2.038800000000000E10   -3.514596416304509E-3   1.173091733276292E-3  
 2.039000000000000E10   -3.171098504767374E-3   1.665509422309697E-3  
 2.039200000000000E10   -2.848141283417742E-3   2.082475486935841E-3  
 2.039400000000000E10   -2.552585305508089E-3   2.473474169770877E-3  
 2.039600000000000E10   -2.263976131669350E-3   2.899546736713361E-3  
 2.039800000000000E10   -1.793146896589962E-3   3.376952639815433E-3  
 2.040000000000000E10   -1.115632122727456E-3   3.727504276429062E-3  
 2.040200000000000E10   -3.442911267349566E-4   3.914024473892318E-3  
 2.040400000000000E10    4.278160696331826E-4   3.891222273792934E-3  
 2.040600000000000E10    1.093321173727788E-3   3.682572403232809E-3  
 2.040800000000000E10    1.695562977585252E-3   3.390051821177757E-3  
 2.041000000000000E10    2.244535687000112E-3   3.017054137739319E-3  
 2.041200000000000E10    2.734295092523098E-3   2.564074575073190E-3  
 2.041400000000000E10    3.139643395250595E-3   2.043359283426846E-3  
 2.041600000000000E10    3.435149073117862E-3   1.437476215263208E-3  
 2.041800000000000E10    3.551448428037543E-3   7.577929451751213E-4  
 2.042000000000000E10    3.548783112179351E-3   1.262281879529905E-4  
 2.042200000000000E10    3.455457062012068E-3  -4.397142566395579E-4  
 2.042400000000000E10    3.317024084497934E-3  -9.120804456028123E-4  
 2.042600000000000E10    3.157533886325029E-3  -1.395945213045235E-3  
 2.042800000000000E10    2.879616476733376E-3  -1.917235561887976E-3  
 2.043000000000000E10    2.492188674363274E-3  -2.366155963736000E-3  
 2.043200000000000E10    2.065403283470207E-3  -2.710892741257946E-3  
 2.043400000000000E10    1.648872060252837E-3  -2.954504685476423E-3  
 2.043600000000000E10    1.253550777349759E-3  -3.167554451566604E-3  
 2.043800000000000E10    7.709287628703926E-4  -3.443231185277304E-3  
 2.044000000000000E10    1.252187007425905E-4  -3.676757354427268E-3  
 2.044200000000000E10   -6.037645960330137E-4  -3.776242749558555E-3  
 2.044400000000000E10   -1.441147484540664E-3  -3.610007439015641E-3  
 2.044600000000000E10   -2.171603402260829E-3  -3.087236873667550E-3  
 2.044800000000000E10   -2.578847851880171E-3  -2.430968693698998E-3  
 2.045000000000000E10   -2.743512935315569E-3  -1.881059267799612E-3  
 2.045200000000000E10   -2.853291868059724E-3  -1.474551684050649E-3  
 2.045400000000000E10   -2.966745972150455E-3  -1.097017437806008E-3  
 2.045600000000000E10   -3.088827701975351E-3  -6.960154278203845E-4  
 2.045800000000000E10   -3.239593511723258E-3  -2.005706596214118E-4  
 2.046000000000000E10   -3.297411733203465E-3   3.774591637516602E-4  
 2.046200000000000E10   -3.212456694907613E-3   9.719115181791563E-4  
 2.046400000000000E10   -2.953254255569644E-3   1.541770710092452E-3  
 2.046600000000000E10   -2.570277735314988E-3   2.012816007697472E-3  
 2.046800000000000E10   -2.171194068742572E-3   2.353856762595199E-3  
 2.047000000000000E10   -1.784514816891816E-3   2.651232915620009E-3  
 2.047200000000000E10   -1.370644507308801E-3   2.896297714431529E-3  
 2.047400000000000E10   -8.827748458349596E-4   3.072606330668485E-3  
 2.047600000000000E10   -3.510738261630414E-4   3.177585718394430E-3  
 2.047800000000000E10    1.908112721206703E-4   3.224156262284077E-3  
 2.048000000000000E10    7.529106913824325E-4   3.183027531054837E-3  
 2.048200000000000E10    1.311035382699360E-3   2.983392380108988E-3  
 2.048400000000000E10    1.794299826508871E-3   2.643740339273656E-3  
 2.048600000000000E10    2.172472714274018E-3   2.267826572750454E-3  
 2.048800000000000E10    2.483642108186528E-3   1.873925664565630E-3  
 2.049000000000000E10    2.700242843409932E-3   1.454911237858512E-3  
 2.049200000000000E10    2.825979565925621E-3   1.063530518742347E-3  
 2.049400000000000E10    2.988988499122638E-3   6.626810085166385E-4  
 2.049600000000000E10    3.115999658971473E-3   1.676949382440567E-4  
 2.049800000000000E10    3.173077427264717E-3  -3.133688954188040E-4  
 2.050000000000000E10    3.211344687130165E-3  -8.162978402752844E-4  
 2.050200000000000E10    3.167676566927522E-3  -1.449999196834311E-3  
 2.050400000000000E10    2.932035985092322E-3  -2.193996079128098E-3  
 2.050600000000000E10    2.405892436703046E-3  -2.910959568840486E-3  
 2.050800000000000E10    1.590960896229027E-3  -3.421403510771968E-3  
 2.051000000000000E10    6.627954577130301E-4  -3.541867171103756E-3  
 2.051200000000000E10   -1.396472884893969E-4  -3.286866781612237E-3  
 2.051400000000000E10   -6.316847111857325E-4  -2.908183175518557E-3  
 2.051600000000000E10   -9.212335744113835E-4  -2.630133837185525E-3  
 2.051800000000000E10   -1.169046908789487E-3  -2.459160716238398E-3  
 2.052000000000000E10   -1.473692198352958E-3  -2.277509524935374E-3  
 2.052200000000000E10   -1.793563163287386E-3  -2.026867638859484E-3  
 2.052400000000000E10   -2.048532840692335E-3  -1.725425465135939E-3  
 2.052600000000000E10   -2.220112770036967E-3  -1.461608788102038E-3  
 2.052800000000000E10   -2.428529439149080E-3  -1.248348784563994E-3  
 2.053000000000000E10   -2.691494188857852E-3  -9.177184504180873E-4  
 2.053200000000000E10   -2.904232850091325E-3  -4.747096035215590E-4  
 2.053400000000000E10   -3.078494048504918E-3   6.920670421095566E-5  
 2.053600000000000E10   -3.118394606712240E-3   7.250381577587515E-4  
 2.053800000000000E10   -2.883808885666508E-3   1.392705146119827E-3  
 2.054000000000000E10   -2.431048149311985E-3   1.923029582637052E-3  
 2.054200000000000E10   -1.949183375540155E-3   2.259386625761787E-3  
 2.054400000000000E10   -1.492932042175973E-3   2.479844528284890E-3  
 2.054600000000000E10   -1.053330410892765E-3   2.625172423129833E-3  
 2.054800000000000E10   -5.875648197683472E-4   2.691525086346600E-3  
 2.055000000000000E10   -1.153214139372317E-4   2.639057537264847E-3  
 2.055200000000000E10    2.515999459083779E-4   2.539764649959074E-3  
 2.055400000000000E10    5.612695434441170E-4   2.502695847026728E-3  
 2.055600000000000E10    9.011210921151497E-4   2.462110344182562E-3  
