#  HZ   S   RI   R     50.00 
! Rohde & Schwarz ZVA40 4Ports - Version 3.90 - 1145.1110k42 SN: 100403
! Date: 2023-10-03 11:52:21
! Measurement: S12 
! 
 2.000000000000000E10   -7.548944839207388E-4  -3.550405157040116E-3  
 2.000200000000000E10   -1.360858536187422E-3  -3.551450971927908E-3  
 2.000400000000000E10   -2.037133926663686E-3  -3.316472586313332E-3  
 2.000600000000000E10   -2.595819222430388E-3  -2.870944285489343E-3  
 2.000800000000000E10   -2.995479213832706E-3  -2.351111206398518E-3  
 2.001000000000000E10   -3.347284272658053E-3  -1.865950624320518E-3  
 2.001200000000000E10   -3.682773534415497E-3  -1.325793620371432E-3  
 2.001400000000000E10   -3.955196459881134E-3  -6.492759480520533E-4  
 2.001600000000000E10   -3.999127454503820E-3   1.710263669439075E-4  
 2.001800000000000E10   -3.815294114044971E-3   8.903388084878250E-4  
 2.002000000000000E10   -3.590920077705825E-3   1.489833277581191E-3  
 2.002200000000000E10   -3.287614719873226E-3   2.098210337054399E-3  
 2.002400000000000E10   -2.868108779053997E-3   2.618775375325371E-3  
 2.002600000000000E10   -2.350348125522336E-3   3.004011982637975E-3  
 2.002800000000000E10   -1.811265255565997E-3   3.298512901420947E-3  
 2.003000000000000E10   -1.275016848618786E-3   3.508694487175456E-3  
 2.003200000000000E10   -7.694195438590315E-4   3.659983363899368E-3  
 2.003400000000000E10   -2.351462643235681E-4   3.773886124017063E-3  
 2.003600000000000E10    3.871513989805762E-4   3.806781066857555E-3  
 2.003800000000000E10    1.013623783364892E-3   3.734980028605572E-3  
 2.004000000000000E10    1.618414173006184E-3   3.587248097001403E-3  
 2.004200000000000E10    2.218644600361586E-3   3.328693211423579E-3  
 2.004400000000000E10    2.759990696277884E-3   2.946369643150657E-3  
 2.004600000000000E10    3.218581925870644E-3   2.442618547421363E-3  
 2.004800000000000E10    3.600653235076203E-3   1.931453735947057E-3  
 2.005000000000000E10    3.980831639772213E-3   1.347253400901402E-3  
 2.005200000000000E10    4.220719880389947E-3   6.164663311749422E-4  
 2.005400000000000E10    4.257263839934712E-3  -1.118611079517804E-4  
 2.005600000000000E10    4.204178004767057E-3  -8.549880176023754E-4  
 2.005800000000000E10    4.083757857895561E-3  -1.618457621791297E-3  
 2.006000000000000E10    3.769345400441025E-3  -2.452936816822600E-3  
 2.006200000000000E10    3.163032112988058E-3  -3.146851383563546E-3  
 2.006400000000000E10    2.415857484771146E-3  -3.593927154455472E-3  
 2.006600000000000E10    1.658795785193366E-3  -3.835801336983289E-3  
 2.006800000000000E10    9.896867882667319E-4  -3.922831405092170E-3  
 2.007000000000000E10    3.749425113373609E-4  -3.957296635403678E-3  
 2.007200000000000E10   -2.175505760533270E-4  -3.912896245580029E-3  
 2.007400000000000E10   -7.820223443020411E-4  -3.808028237135322E-3  
 2.007600000000000E10   -1.396874707468130E-3  -3.658893354306067E-3  
 2.007800000000000E10   -1.992266530309011E-3  -3.394110171400287E-3  
 2.008000000000000E10   -2.475240957681780E-3  -3.052934133275240E-3  
 2.008200000000000E10   -2.915422664955258E-3  -2.670200274291414E-3  
 2.008400000000000E10   -3.372100466448400E-3  -2.218356907919601E-3  
 2.008600000000000E10   -3.793931031530654E-3  -1.627213709677259E-3  
 2.008800000000000E10   -4.068332224118489E-3  -9.117257173380092E-4  
 2.009000000000000E10   -4.159110339565410E-3  -1.938496584275358E-4  
 2.009200000000000E10   -4.129746928811073E-3   4.938725577193072E-4  
 2.009400000000000E10   -4.029472203304371E-3   1.200469223678940E-3  
 2.009600000000000E10   -3.806892316788436E-3   1.995203093867059E-3  
 2.009800000000000E10   -3.337338627143591E-3   2.703073003363830E-3  
 2.010000000000000E10   -2.729461821554988E-3   3.202612485943570E-3  
 2.010200000000000E10   -2.037069402393644E-3   3.541932958695624E-3  
 2.010400000000000E10   -1.405886068284788E-3   3.705962492084062E-3  
 2.010600000000000E10   -8.516759434887382E-4   3.813656055609938E-3  
 2.010800000000000E10   -3.158663296037251E-4   3.913946993028125E-3  
 2.011000000000000E10    2.840697607435114E-4   4.002725921088348E-3  
 2.011200000000000E10    9.978628411233701E-4   3.961685725867198E-3  
 2.011400000000000E10    1.727731135259900E-3   3.748727720920687E-3  
 2.011600000000000E10    2.412625924787588E-3   3.401425468769891E-3  
 2.011800000000000E10    2.990112113938840E-3   2.904434343455015E-3  
 2.012000000000000E10    3.402805387007970E-3   2.326543529138521E-3  
 2.012200000000000E10    3.723420521796302E-3   1.715940009388659E-3  
 2.012400000000000E10    4.039185794277324E-3   1.051868618190013E-3  
 2.012600000000000E10    4.206165688595286E-3   2.786356565559766E-4  
 2.012800000000000E10    4.151902954887462E-3  -5.386579464862330E-4  
 2.013000000000000E10    3.906122426053992E-3  -1.285060117003957E-3  
 2.013200000000000E10    3.527875135963162E-3  -1.932073229302963E-3  
 2.013400000000000E10    3.106558264267666E-3  -2.502513980423963E-3  
 2.013600000000000E10    2.593685096750657E-3  -3.001737442833406E-3  
 2.013800000000000E10    1.963299862971461E-3  -3.395072331100151E-3  
 2.014000000000000E10    1.234409890861975E-3  -3.573873339013921E-3  
 2.014200000000000E10    5.827990912452893E-4  -3.558651975321550E-3  
 2.014400000000000E10    7.801989300383462E-5  -3.510690673633859E-3  
 2.014600000000000E10   -4.256817898109418E-4  -3.470475345643031E-3  
 2.014800000000000E10   -9.559139208350745E-4  -3.331851524611314E-3  
 2.015000000000000E10   -1.436057526411282E-3  -3.087236985771193E-3  
 2.015200000000000E10   -1.871075576033306E-3  -2.851049674467908E-3  
 2.015400000000000E10   -2.334219515668574E-3  -2.579753468227056E-3  
 2.015600000000000E10   -2.737389230686758E-3  -2.197525360518032E-3  
 2.015800000000000E10   -3.085194121080417E-3  -1.783588017268038E-3  
 2.016000000000000E10   -3.438844750807794E-3  -1.253171228907175E-3  
 2.016200000000000E10   -3.695063637914482E-3  -5.985783020689808E-4  
 2.016400000000000E10   -3.769433444917754E-3   1.095885446476233E-4  
 2.016600000000000E10   -3.672429800240531E-3   8.138063044666694E-4  
 2.016800000000000E10   -3.410465325470324E-3   1.461160761580147E-3  
 2.017000000000000E10   -3.034919552091096E-3   2.023904580036524E-3  
 2.017200000000000E10   -2.580712023363622E-3   2.491410459495253E-3  
 2.017400000000000E10   -2.099398928866895E-3   2.839947981690919E-3  
 2.017600000000000E10   -1.618928344989265E-3   3.055752056685311E-3  
 2.017800000000000E10   -1.185803756083328E-3   3.240806292052623E-3  
 2.018000000000000E10   -6.817549475710149E-4   3.464788905586358E-3  
 2.018200000000000E10   -8.060815188973381E-5   3.602915383116515E-3  
 2.018400000000000E10    5.551884144855044E-4   3.620910458266736E-3  
 2.018600000000000E10    1.195732327350588E-3   3.488389257755545E-3  
 2.018800000000000E10    1.820653362234158E-3   3.224143948130034E-3  
 2.019000000000000E10    2.421323632545494E-3   2.850643781669163E-3  
 2.019200000000000E10    2.909244365852189E-3   2.340742516227895E-3  
 2.019400000000000E10    3.265936867575403E-3   1.783922323267217E-3  
 2.019600000000000E10    3.506606970741242E-3   1.169580047846668E-3  
 2.019800000000000E10    3.613538074272651E-3   4.857953301527435E-4  
 2.020000000000000E10    3.589602411483173E-3  -1.739851814582599E-4  
 2.020200000000000E10    3.410619536966638E-3  -7.486099385897872E-4  
 2.020400000000000E10    3.167849344511827E-3  -1.211750446128901E-3  
 2.020600000000000E10    2.932947620542513E-3  -1.623257477250364E-3  
 2.020800000000000E10    2.636366532425638E-3  -2.063606555263202E-3  
 2.021000000000000E10    2.314178342068637E-3  -2.392663508308707E-3  
 2.021200000000000E10    2.105453327574112E-3  -2.748028030274091E-3  
 2.021400000000000E10    1.754429346571366E-3  -3.239209487758302E-3  
 2.021600000000000E10    1.145046601002967E-3  -3.661107220169571E-3  
 2.021800000000000E10    3.996819065866510E-4  -3.903422711624040E-3  
 2.022000000000000E10   -3.537072717100038E-4  -3.951336843547999E-3  
 2.022200000000000E10   -1.077710935432050E-3  -3.866469763495304E-3  
 2.022400000000000E10   -1.772848660712717E-3  -3.648539289349208E-3  
 2.022600000000000E10   -2.483210802354195E-3  -3.274081102399915E-3  
 2.022800000000000E10   -3.112422586936091E-3  -2.721130080452120E-3  
 2.023000000000000E10   -3.596001063232070E-3  -2.062229844913991E-3  
 2.023200000000000E10   -3.925935692947221E-3  -1.290359568816644E-3  
 2.023400000000000E10   -3.998264618631867E-3  -4.692587471153174E-4  
 2.023600000000000E10   -3.869984385178046E-3   2.681737251232672E-4  
 2.023800000000000E10   -3.655974485876936E-3   8.721408214316601E-4  
 2.024000000000000E10   -3.417456238013175E-3   1.404587416564701E-3  
 2.024200000000000E10   -3.100761738433331E-3   1.897940481150592E-3  
 2.024400000000000E10   -2.726164680940134E-3   2.295429119840264E-3  
 2.024600000000000E10   -2.371602027711493E-3   2.677128081106477E-3  
 2.024800000000000E10   -1.957440205539267E-3   3.103087725186790E-3  
 2.025000000000000E10   -1.432723995229161E-3   3.456929905547037E-3  
 2.025200000000000E10   -8.514812086812325E-4   3.690758219885606E-3  
 2.025400000000000E10   -1.910416715502463E-4   3.839185996050085E-3  
 2.025600000000000E10    5.697777259801688E-4   3.865819924545509E-3  
 2.025800000000000E10    1.323038858740970E-3   3.661763906064962E-3  
 2.026000000000000E10    1.932681365697472E-3   3.278882251362558E-3  
 2.026200000000000E10    2.390095989944207E-3   2.840699610748777E-3  
 2.026400000000000E10    2.787008571128051E-3   2.393373227850707E-3  
 2.026600000000000E10    3.178779510091301E-3   1.880952338170674E-3  
 2.026800000000000E10    3.474818189042035E-3   1.302025392996492E-3  
 2.027000000000000E10    3.594164736568928E-3   6.501475581899285E-4  
 2.027200000000000E10    3.530250137878789E-3   8.047368127908730E-5  
 2.027400000000000E10    3.487366346504402E-3  -3.662879545892658E-4  
 2.027600000000000E10    3.489197404296310E-3  -8.773573812235285E-4  
 2.027800000000000E10    3.404405131867087E-3  -1.467109532785361E-3  
 2.028000000000000E10    3.195583311564945E-3  -2.087939530611038E-3  
 2.028200000000000E10    2.785138311554437E-3  -2.701540443080444E-3  
 2.028400000000000E10    2.192816127919489E-3  -3.213824066161006E-3  
 2.028600000000000E10    1.535523307716681E-3  -3.545787633845100E-3  
 2.028800000000000E10    8.840779709215795E-4  -3.702545391947583E-3  
 2.029000000000000E10    3.033604600070114E-4  -3.763393567944015E-3  
 2.029200000000000E10   -3.023603575355891E-4  -3.800529969373236E-3  
 2.029400000000000E10   -1.000741884733240E-3  -3.722814549864443E-3  
 2.029600000000000E10   -1.654664977212195E-3  -3.450540118609314E-3  
 2.029800000000000E10   -2.145174261251534E-3  -3.072798821247287E-3  
 2.030000000000000E10   -2.537367546379015E-3  -2.715489939200106E-3  
 2.030200000000000E10   -2.978761697670928E-3  -2.310980706372195E-3  
 2.030400000000000E10   -3.406573026613505E-3  -1.744535596420368E-3  
 2.030600000000000E10   -3.653259723688718E-3  -1.094028978884496E-3  
 2.030800000000000E10   -3.733676927233184E-3  -4.726797945935417E-4  
 2.031000000000000E10   -3.699448339089200E-3   1.101645478532494E-4  
 2.031200000000000E10   -3.630256504510288E-3   6.398528068395401E-4  
 2.031400000000000E10   -3.555088071152568E-3   1.170149530042653E-3  
 2.031600000000000E10   -3.424450108367536E-3   1.734111785750698E-3  
 2.031800000000000E10   -3.148951843656876E-3   2.297633034349592E-3  
 2.032000000000000E10   -2.780878847395933E-3   2.805663376218743E-3  
 2.032200000000000E10   -2.318475378194341E-3   3.341668716597337E-3  
 2.032400000000000E10   -1.707324383055999E-3   3.822501386619277E-3  
 2.032600000000000E10   -9.757327131444107E-4   4.158180793402373E-3  
 2.032800000000000E10   -1.625065859924589E-4   4.314966844739738E-3  
 2.033000000000000E10    7.036122001914515E-4   4.267978861376092E-3  
 2.033200000000000E10    1.513375624738358E-3   4.033349005988351E-3  
 2.033400000000000E10    2.253691941775658E-3   3.621207360454180E-3  
 2.033600000000000E10    2.527812814891891E-3   3.265053965151310E-3  
 2.033800000000000E10    3.190745090789818E-3   2.351796642566721E-3  
 2.034000000000000E10    3.417850230579024E-3   1.671880280978426E-3  
 2.034200000000000E10    3.502839831290422E-3   1.023873889439360E-3  
 2.034400000000000E10    3.477084096866074E-3   4.698877337095501E-4  
 2.034600000000000E10    3.395882072961993E-3   3.172346973938318E-5  
 2.034800000000000E10    3.348751536880930E-3  -3.723702177888266E-4  
 2.035000000000000E10    3.332177099461357E-3  -8.211377447608999E-4  
 2.035200000000000E10    3.239660998116489E-3  -1.339412923833287E-3  
 2.035400000000000E10    3.059796747510081E-3  -1.845958064896641E-3  
 2.035600000000000E10    2.810868227647411E-3  -2.338573172757472E-3  
 2.035800000000000E10    2.435204961026709E-3  -2.870443647865344E-3  
 2.036000000000000E10    1.859059484020152E-3  -3.364041982287611E-3  
 2.036200000000000E10    1.157064624648128E-3  -3.706000167531548E-3  
 2.036400000000000E10    3.879447866455411E-4  -3.846916749521539E-3  
 2.036600000000000E10   -3.530256023320059E-4  -3.737963097928852E-3  
 2.036800000000000E10   -9.755187547179285E-4  -3.451058666946160E-3  
 2.037000000000000E10   -1.414893169163002E-3  -3.128356257177614E-3  
 2.037200000000000E10   -1.759253450910803E-3  -2.868634433037153E-3  
 2.037400000000000E10   -2.114972789530401E-3  -2.648186042077012E-3  
 2.037600000000000E10   -2.511267093251701E-3  -2.381651041408380E-3  
 2.037800000000000E10   -2.951689849228219E-3  -1.982754635348641E-3  
 2.038000000000000E10   -3.336024539614166E-3  -1.472473924945075E-3  
 2.038200000000000E10   -3.617377348106217E-3  -8.462748222949881E-4  
 2.038400000000000E10   -3.740354441106320E-3  -1.769448855258008E-4  
 2.038600000000000E10   -3.682544886100072E-3   5.275035143346975E-4  
 2.038800000000000E10   -3.468147694581637E-3   1.175672402260480E-3  
 2.039000000000000E10   -3.179333552166268E-3   1.698194157884077E-3  
 2.039200000000000E10   -2.857857504514633E-3   2.157584108688214E-3  
 2.039400000000000E10   -2.487013478659921E-3   2.560010731772140E-3  
 2.039600000000000E10   -2.090578786683856E-3   2.928848990618631E-3  
 2.039800000000000E10   -1.590184738031692E-3   3.331802190384932E-3  
 2.040000000000000E10   -9.590234538471258E-4   3.640287598870971E-3  
 2.040200000000000E10   -2.820476890553471E-4   3.796142983008867E-3  
 2.040400000000000E10    4.388493058892589E-4   3.786971007853195E-3  
 2.040600000000000E10    1.141935229059999E-3   3.613037065844294E-3  
 2.040800000000000E10    1.777754751620469E-3   3.305168546460294E-3  
 2.041000000000000E10    2.322812116256467E-3   2.864414024063283E-3  
 2.041200000000000E10    2.712188090232236E-3   2.345596250422575E-3  
 2.041400000000000E10    2.960293286445517E-3   1.835827810551834E-3  
 2.041600000000000E10    3.205834430883881E-3   1.329199751597588E-3  
 2.041800000000000E10    3.405447575022226E-3   7.081404673280540E-4  
 2.042000000000000E10    3.397968908150991E-3   6.939947302776597E-5  
 2.042200000000000E10    3.243721029893668E-3  -4.638599456046467E-4  
 2.042400000000000E10    3.043507950173485E-3  -9.158182699509242E-4  
 2.042600000000000E10    2.848906244185788E-3  -1.299568507992835E-3  
 2.042800000000000E10    2.634308361275881E-3  -1.685606108771430E-3  
 2.043000000000000E10    2.390482428449172E-3  -2.058883404566182E-3  
 2.043200000000000E10    2.088147931283823E-3  -2.411184289182226E-3  
 2.043400000000000E10    1.704375651940980E-3  -2.737151364002515E-3  
 2.043600000000000E10    1.280782610626409E-3  -3.057004469964240E-3  
 2.043800000000000E10    7.517533398371329E-4  -3.359780879691244E-3  
 2.044000000000000E10    1.087974322689223E-4  -3.537520973218812E-3  
 2.044200000000000E10   -6.252543621317105E-4  -3.545209515356908E-3  
 2.044400000000000E10   -1.401151896937302E-3  -3.335203682244928E-3  
 2.044600000000000E10   -2.029038090431304E-3  -2.846807569127392E-3  
 2.044800000000000E10   -2.355081193080103E-3  -2.250660047004069E-3  
 2.045000000000000E10   -2.489195636439103E-3  -1.809327949390367E-3  
 2.045200000000000E10   -2.634602866170031E-3  -1.468636272302657E-3  
 2.045400000000000E10   -2.831190764145167E-3  -1.075836812594423E-3  
 2.045600000000000E10   -3.011260017821635E-3  -6.423797156592763E-4  
 2.045800000000000E10   -3.153362613240326E-3  -1.312503108810806E-4  
 2.046000000000000E10   -3.164997626164998E-3   4.550623890719618E-4  
 2.046200000000000E10   -3.011465572786553E-3   1.043478949685340E-3  
 2.046400000000000E10   -2.745397776986162E-3   1.565823581552616E-3  
 2.046600000000000E10   -2.364039222744328E-3   1.988084512521271E-3  
 2.046800000000000E10   -1.952234280502631E-3   2.284327254596132E-3  
 2.047000000000000E10   -1.555418832813977E-3   2.482483422176706E-3  
 2.047200000000000E10   -1.167261845828897E-3   2.622827042446093E-3  
 2.047400000000000E10   -7.993817497562204E-4   2.770253267415144E-3  
 2.047600000000000E10   -3.927521298734334E-4   2.961709000239218E-3  
 2.047800000000000E10    1.291000015852559E-4   3.082247882115621E-3  
 2.048000000000000E10    7.121483428852150E-4   3.036933183601058E-3  
 2.048200000000000E10    1.283907913602889E-3   2.853231978844162E-3  
 2.048400000000000E10    1.769054711244449E-3   2.546953373692102E-3  
 2.048600000000000E10    2.140858469323980E-3   2.164189574412174E-3  
 2.048800000000000E10    2.417479477891768E-3   1.760818732522980E-3  
 2.049000000000000E10    2.578294042635847E-3   1.362065202556551E-3  
 2.049200000000000E10    2.737309749203700E-3   1.015378543848379E-3  
 2.049400000000000E10    2.964724277801536E-3   6.231944900247511E-4  
 2.049600000000000E10    3.127678530290723E-3   1.241259874573357E-4  
 2.049800000000000E10    3.183624422591594E-3  -4.034583775878505E-4  
 2.050000000000000E10    3.177250105956639E-3  -9.796650804303310E-4  
 2.050200000000000E10    3.059334613175857E-3  -1.666135340066696E-3  
 2.050400000000000E10    2.694497074655913E-3  -2.364721364790091E-3  
 2.050600000000000E10    2.105420196635856E-3  -2.933824797057444E-3  
 2.050800000000000E10    1.374418334173108E-3  -3.270187009884804E-3  
 2.051000000000000E10    5.784613852113210E-4  -3.355397058098957E-3  
 2.051200000000000E10   -1.255008405173107E-4  -3.172721351600356E-3  
 2.051400000000000E10   -6.081416806275095E-4  -2.858630010720205E-3  
 2.051600000000000E10   -8.837293738637260E-4  -2.605470190583556E-3  
 2.051800000000000E10   -1.136400430739202E-3  -2.446194162109384E-3  
 2.052000000000000E10   -1.484827655884955E-3  -2.297497112993841E-3  
 2.052200000000000E10   -1.835771103355068E-3  -2.034974198236510E-3  
 2.052400000000000E10   -2.086672449001560E-3  -1.706653356517631E-3  
 2.052600000000000E10   -2.256637344274808E-3  -1.428566446217398E-3  
 2.052800000000000E10   -2.476123032263584E-3  -1.170361272266342E-3  
 2.053000000000000E10   -2.744027835972332E-3  -8.062455669493865E-4  
 2.053200000000000E10   -2.939728916519218E-3  -3.274053545923111E-4  
 2.053400000000000E10   -3.047138478399979E-3   2.065861912409741E-4  
 2.053600000000000E10   -3.032661724352727E-3   8.038361233452129E-4  
 2.053800000000000E10   -2.830845295210128E-3   1.415697836179149E-3  
 2.054000000000000E10   -2.455721962852059E-3   1.951288086948572E-3  
 2.054200000000000E10   -1.995825187165152E-3   2.319687968809848E-3  
 2.054400000000000E10   -1.512919660416191E-3   2.574325935846126E-3  
 2.054600000000000E10   -1.004991319927353E-3   2.724819187143887E-3  
 2.054800000000000E10   -4.930928892766437E-4   2.762821166672641E-3  
 2.055000000000000E10   -5.839998953484205E-5   2.679589506307686E-3  
 2.055200000000000E10    2.535125596397039E-4   2.585180854010914E-3  
 2.055400000000000E10    5.384992734805026E-4   2.570507039005558E-3  
 2.055600000000000E10    8.911629362652700E-4   2.549780687938134E-3  
