#  HZ   S   RI   R     50.00 
! Rohde & Schwarz ZVA40 4Ports - Version 3.90 - 1145.1110k42 SN: 100403
! Date: 2023-10-03 11:53:24
! Measurement: S12 
! 
 2.000000000000000E10   -8.993246269205380E-4  -3.515916178002954E-3  
 2.000200000000000E10   -1.441760958793263E-3  -3.428128409992766E-3  
 2.000400000000000E10   -2.099077514786688E-3  -3.179439403875559E-3  
 2.000600000000000E10   -2.651616922338252E-3  -2.715383915023671E-3  
 2.000800000000000E10   -2.959302988731199E-3  -2.226989388603855E-3  
 2.001000000000000E10   -3.235680283978582E-3  -1.859275192988140E-3  
 2.001200000000000E10   -3.613477400331586E-3  -1.394252732603087E-3  
 2.001400000000000E10   -3.921696217730641E-3  -7.169405472706315E-4  
 2.001600000000000E10   -4.000017833378580E-3   6.069116116796743E-5  
 2.001800000000000E10   -3.909872068713109E-3   7.242521107265797E-4  
 2.002000000000000E10   -3.746348338339616E-3   1.350612534830968E-3  
 2.002200000000000E10   -3.446929036053243E-3   2.017642858576168E-3  
 2.002400000000000E10   -3.072354701106196E-3   2.622302914797156E-3  
 2.002600000000000E10   -2.583499859880518E-3   3.164927052609899E-3  
 2.002800000000000E10   -2.009791589376551E-3   3.556483968471488E-3  
 2.003000000000000E10   -1.365376959761812E-3   3.812499680659838E-3  
 2.003200000000000E10   -6.900028847330424E-4   3.979808495690426E-3  
 2.003400000000000E10    1.565388972974488E-5   4.029765397448232E-3  
 2.003600000000000E10    6.979861699855303E-4   3.942205139470321E-3  
 2.003800000000000E10    1.286944508104137E-3   3.731603406507660E-3  
 2.004000000000000E10    1.823356620863908E-3   3.481409745290876E-3  
 2.004200000000000E10    2.395255551501005E-3   3.130305454962784E-3  
 2.004400000000000E10    2.910483456044286E-3   2.706232980859501E-3  
 2.004600000000000E10    3.340396711050912E-3   2.200914331263414E-3  
 2.004800000000000E10    3.627803219758251E-3   1.667461146738519E-3  
 2.005000000000000E10    3.879836475890544E-3   1.089409756888118E-3  
 2.005200000000000E10    4.052279068639985E-3   4.087117677382021E-4  
 2.005400000000000E10    4.102272119511058E-3  -2.739495297040170E-4  
 2.005600000000000E10    4.079994314384682E-3  -9.718989884411848E-4  
 2.005800000000000E10    3.911618367527370E-3  -1.699917872125904E-3  
 2.006000000000000E10    3.530128789996660E-3  -2.437977025423337E-3  
 2.006200000000000E10    2.946300647669921E-3  -3.068073678554760E-3  
 2.006400000000000E10    2.282239858888918E-3  -3.505231536648892E-3  
 2.006600000000000E10    1.608155616041687E-3  -3.755650750395877E-3  
 2.006800000000000E10    1.011278325070938E-3  -3.853987065937232E-3  
 2.007000000000000E10    4.263537800094734E-4  -3.955109838258338E-3  
 2.007200000000000E10   -2.713030316280546E-4  -4.011312551382516E-3  
 2.007400000000000E10   -9.669989101692208E-4  -3.887705056479684E-3  
 2.007600000000000E10   -1.579805514430283E-3  -3.640801438854801E-3  
 2.007800000000000E10   -2.104403295864662E-3  -3.270109511773896E-3  
 2.008000000000000E10   -2.521946776175389E-3  -2.860481842179542E-3  
 2.008200000000000E10   -2.906439532698305E-3  -2.485859569989973E-3  
 2.008400000000000E10   -3.365485782355622E-3  -2.106240709070807E-3  
 2.008600000000000E10   -3.805343475606707E-3  -1.521710853989202E-3  
 2.008800000000000E10   -4.019826995553795E-3  -7.836928427288379E-4  
 2.009000000000000E10   -4.027311000283119E-3  -7.319344405442720E-5  
 2.009200000000000E10   -4.001798694608389E-3   5.664579997149607E-4  
 2.009400000000000E10   -3.995191944004210E-3   1.248043716057307E-3  
 2.009600000000000E10   -3.775923167941747E-3   2.077403305857270E-3  
 2.009800000000000E10   -3.221542246777703E-3   2.808603302886089E-3  
 2.010000000000000E10   -2.517481972635897E-3   3.294382356452170E-3  
 2.010200000000000E10   -1.809372786535985E-3   3.602948065640198E-3  
 2.010400000000000E10   -1.156725321413467E-3   3.729177035253357E-3  
 2.010600000000000E10   -5.685476827676651E-4   3.747004230886146E-3  
 2.010800000000000E10   -4.078245814930092E-5   3.712141696639635E-3  
 2.011000000000000E10    4.973499044017109E-4   3.698911052197218E-3  
 2.011200000000000E10    1.108642098390394E-3   3.647957911232004E-3  
 2.011400000000000E10    1.717946190318024E-3   3.476450271490548E-3  
 2.011600000000000E10    2.333467524429715E-3   3.197981777635438E-3  
 2.011800000000000E10    2.943195290518580E-3   2.680086720458888E-3  
 2.012000000000000E10    3.338995691457833E-3   2.010566061707559E-3  
 2.012200000000000E10    3.560286204985999E-3   1.387718284537119E-3  
 2.012400000000000E10    3.734303276158042E-3   8.270457512009200E-4  
 2.012600000000000E10    3.844384414454301E-3   2.038340823707620E-4  
 2.012800000000000E10    3.818122756288008E-3  -5.181619759511066E-4  
 2.013000000000000E10    3.604057908954996E-3  -1.243447225230436E-3  
 2.013200000000000E10    3.238843659076978E-3  -1.822903683340108E-3  
 2.013400000000000E10    2.861287720777371E-3  -2.242945548560885E-3  
 2.013600000000000E10    2.485320489439700E-3  -2.639937136943142E-3  
 2.013800000000000E10    2.004628397386383E-3  -3.060267522448192E-3  
 2.014000000000000E10    1.374021301873856E-3  -3.394617793943595E-3  
 2.014200000000000E10    7.238596833000581E-4  -3.494176530727635E-3  
 2.014400000000000E10    2.129824411154173E-4  -3.474611081872826E-3  
 2.014600000000000E10   -2.994829415843857E-4  -3.485655446571333E-3  
 2.014800000000000E10   -9.015967284708665E-4  -3.407917175166034E-3  
 2.015000000000000E10   -1.513356502443828E-3  -3.209944081458229E-3  
 2.015200000000000E10   -2.050913628880625E-3  -2.905192741848253E-3  
 2.015400000000000E10   -2.526656491681933E-3  -2.466976547751714E-3  
 2.015600000000000E10   -2.832967003255531E-3  -1.912466362463656E-3  
 2.015800000000000E10   -3.005722330676185E-3  -1.434841831387193E-3  
 2.016000000000000E10   -3.221800775025730E-3  -1.010596275726264E-3  
 2.016200000000000E10   -3.429508880125704E-3  -4.916831611707393E-4  
 2.016400000000000E10   -3.485777191127892E-3   1.311281294975844E-4  
 2.016600000000000E10   -3.378605228607302E-3   7.316767026808251E-4  
 2.016800000000000E10   -3.187612026791882E-3   1.298689279118898E-3  
 2.017000000000000E10   -2.937781779716413E-3   1.834464940690884E-3  
 2.017200000000000E10   -2.571491308993212E-3   2.315268274051724E-3  
 2.017400000000000E10   -2.107965897906710E-3   2.689474736581798E-3  
 2.017600000000000E10   -1.582124460212611E-3   2.943413064780611E-3  
 2.017800000000000E10   -1.111405875740780E-3   3.126228581769047E-3  
 2.018000000000000E10   -6.645656734084090E-4   3.299445698589639E-3  
 2.018200000000000E10   -1.472725888123495E-4   3.444184799230209E-3  
 2.018400000000000E10    4.168395373401129E-4   3.477574351968037E-3  
 2.018600000000000E10    1.038105985908597E-3   3.419818718814189E-3  
 2.018800000000000E10    1.695726799813134E-3   3.241780076037955E-3  
 2.019000000000000E10    2.320118239839320E-3   2.910686889663339E-3  
 2.019200000000000E10    2.837038728305035E-3   2.427770118056625E-3  
 2.019400000000000E10    3.224549547734637E-3   1.844231780894377E-3  
 2.019600000000000E10    3.545440397121841E-3   1.202005526499340E-3  
 2.019800000000000E10    3.754865628218761E-3   4.571974999702502E-4  
 2.020000000000000E10    3.718770410934533E-3  -3.326042480896124E-4  
 2.020200000000000E10    3.392942172164719E-3  -9.995711389584124E-4  
 2.020400000000000E10    2.989393891766667E-3  -1.429826797296604E-3  
 2.020600000000000E10    2.686806480158811E-3  -1.752337505523530E-3  
 2.020800000000000E10    2.413849760260847E-3  -2.108471114533367E-3  
 2.021000000000000E10    2.090638158497987E-3  -2.397100691235176E-3  
 2.021200000000000E10    1.835338404850552E-3  -2.663720916542742E-3  
 2.021400000000000E10    1.461986814522081E-3  -3.055251419061313E-3  
 2.021600000000000E10    8.653478666760580E-4  -3.400622453126643E-3  
 2.021800000000000E10    2.230227870583164E-4  -3.541791751221927E-3  
 2.022000000000000E10   -3.672122644881407E-4  -3.556067986344850E-3  
 2.022200000000000E10   -9.491383054949068E-4  -3.489741460523672E-3  
 2.022400000000000E10   -1.569932951867857E-3  -3.346422402602104E-3  
 2.022600000000000E10   -2.255592150268732E-3  -3.063488820636715E-3  
 2.022800000000000E10   -2.868457041956761E-3  -2.580585001312473E-3  
 2.023000000000000E10   -3.310726722702384E-3  -1.958638985848262E-3  
 2.023200000000000E10   -3.577197988138155E-3  -1.290970951905129E-3  
 2.023400000000000E10   -3.710439627024311E-3  -5.566966622912637E-4  
 2.023600000000000E10   -3.668349322483496E-3   1.506367255017351E-4  
 2.023800000000000E10   -3.501860519733143E-3   7.406148296366964E-4  
 2.024000000000000E10   -3.285151889064798E-3   1.221496443678108E-3  
 2.024200000000000E10   -3.042739091647996E-3   1.667303602314658E-3  
 2.024400000000000E10   -2.784146116701542E-3   2.124825458007831E-3  
 2.024600000000000E10   -2.481371017724828E-3   2.623688214010111E-3  
 2.024800000000000E10   -1.992832071630767E-3   3.121169680660522E-3  
 2.025000000000000E10   -1.357188030077076E-3   3.445017712052774E-3  
 2.025200000000000E10   -7.011460709489055E-4   3.558108557222618E-3  
 2.025400000000000E10   -9.608537880854715E-5   3.583439461955870E-3  
 2.025600000000000E10    4.938363692619735E-4   3.590367656822006E-3  
 2.025800000000000E10    1.112002187356767E-3   3.484128008562106E-3  
 2.026000000000000E10    1.684594226794111E-3   3.216892394616649E-3  
 2.026200000000000E10    2.166645903209294E-3   2.857132581993938E-3  
 2.026400000000000E10    2.601991252352794E-3   2.477621461299283E-3  
 2.026600000000000E10    3.037753868503152E-3   2.029421868630582E-3  
 2.026800000000000E10    3.393574048661524E-3   1.470439610312934E-3  
 2.027000000000000E10    3.588224950901889E-3   7.967106885863124E-4  
 2.027200000000000E10    3.562770240629713E-3   1.249889614377430E-4  
 2.027400000000000E10    3.479293185389705E-3  -4.281872889906583E-4  
 2.027600000000000E10    3.343498937923600E-3  -9.530670897759223E-4  
 2.027800000000000E10    3.148143904076682E-3  -1.374182446549336E-3  
 2.028000000000000E10    3.009934581954171E-3  -1.792075780772225E-3  
 2.028200000000000E10    2.763439883926401E-3  -2.326324409632772E-3  
 2.028400000000000E10    2.351788648714622E-3  -2.833694719743950E-3  
 2.028600000000000E10    1.860585960525054E-3  -3.232780714622803E-3  
 2.028800000000000E10    1.284520818713915E-3  -3.548015021132651E-3  
 2.029000000000000E10    6.778110314540015E-4  -3.728782395935721E-3  
 2.029200000000000E10    3.147304205749942E-5  -3.862011944875121E-3  
 2.029400000000000E10   -7.128533066457347E-4  -3.871986935674041E-3  
 2.029600000000000E10   -1.437089302473598E-3  -3.669216927071965E-3  
 2.029800000000000E10   -1.983721257635841E-3  -3.310656795899074E-3  
 2.030000000000000E10   -2.426537357408692E-3  -2.990549292277407E-3  
 2.030200000000000E10   -2.961501177331364E-3  -2.646775217726827E-3  
 2.030400000000000E10   -3.512326101944955E-3  -2.055948876120426E-3  
 2.030600000000000E10   -3.787281155517256E-3  -1.294848069341647E-3  
 2.030800000000000E10   -3.813040434141403E-3  -6.236756884458441E-4  
 2.031000000000000E10   -3.785885896326767E-3  -4.284868514837902E-5  
 2.031200000000000E10   -3.781866722015871E-3   4.886508115170594E-4  
 2.031400000000000E10   -3.781987440392928E-3   1.107231092949708E-3  
 2.031600000000000E10   -3.632266229639451E-3   1.769922962584706E-3  
 2.031800000000000E10   -3.310742141265009E-3   2.388504790832048E-3  
 2.032000000000000E10   -2.906101298759933E-3   2.953304193431029E-3  
 2.032200000000000E10   -2.384188378022777E-3   3.511980063868343E-3  
 2.032400000000000E10   -1.705479782281651E-3   3.947153152828968E-3  
 2.032600000000000E10   -9.559048167257398E-4   4.224967590912626E-3  
 2.032800000000000E10   -9.641154341537643E-5   4.338119437711107E-3  
 2.033000000000000E10    7.919753250596978E-4   4.202934844350375E-3  
 2.033200000000000E10    1.526066572060464E-3   3.921848256140947E-3  
 2.033400000000000E10    2.179437291084065E-3   3.539537726384071E-3  
 2.033600000000000E10    2.416572611158093E-3   3.250869844729702E-3  
 2.033800000000000E10    3.112620165295624E-3   2.418602514943039E-3  
 2.034000000000000E10    3.386236494407059E-3   1.803749051220991E-3  
 2.034200000000000E10    3.531624019766848E-3   1.184129652015313E-3  
 2.034400000000000E10    3.531391171876480E-3   6.315256447393310E-4  
 2.034600000000000E10    3.476489740596326E-3   2.000124579892684E-4  
 2.034800000000000E10    3.498027161522596E-3  -2.301371013918133E-4  
 2.035000000000000E10    3.546268480864388E-3  -7.662784558272473E-4  
 2.035200000000000E10    3.462996894355726E-3  -1.415010261418367E-3  
 2.035400000000000E10    3.204418139325248E-3  -2.006569722046455E-3  
 2.035600000000000E10    2.864787898336848E-3  -2.516968417222853E-3  
 2.035800000000000E10    2.452228149330175E-3  -3.030808340689099E-3  
 2.036000000000000E10    1.873709744325391E-3  -3.490055669788962E-3  
 2.036200000000000E10    1.185258307183782E-3  -3.803697018021788E-3  
 2.036400000000000E10    4.363701898708113E-4  -3.943812257299821E-3  
 2.036600000000000E10   -3.090400950053730E-4  -3.842499814237710E-3  
 2.036800000000000E10   -9.461595823436425E-4  -3.581136085644917E-3  
 2.037000000000000E10   -1.430591451935470E-3  -3.287668201934409E-3  
 2.037200000000000E10   -1.831514734981789E-3  -3.031244949886093E-3  
 2.037400000000000E10   -2.221803724144896E-3  -2.799249280037152E-3  
 2.037600000000000E10   -2.689565126611679E-3  -2.522936358151061E-3  
 2.037800000000000E10   -3.173585886273671E-3  -2.108599835385879E-3  
 2.038000000000000E10   -3.615139457569631E-3  -1.557174324126983E-3  
 2.038200000000000E10   -3.948158222354121E-3  -8.362597371968960E-4  
 2.038400000000000E10   -4.033277501110678E-3  -4.189884849539444E-5  
 2.038600000000000E10   -3.892615653091559E-3   7.450744526943675E-4  
 2.038800000000000E10   -3.611564265426111E-3   1.445398558172639E-3  
 2.039000000000000E10   -3.236616107945642E-3   2.021318611999353E-3  
 2.039200000000000E10   -2.803208056354413E-3   2.495607438807686E-3  
 2.039400000000000E10   -2.314968776233771E-3   2.868387692918380E-3  
 2.039600000000000E10   -1.831659710862571E-3   3.177715879347590E-3  
 2.039800000000000E10   -1.271157598778330E-3   3.441939190788954E-3  
 2.040000000000000E10   -6.440552479708224E-4   3.590494592639584E-3  
 2.040200000000000E10   -6.986956146580205E-5   3.602610754401044E-3  
 2.040400000000000E10    4.774207827048722E-4   3.546701433757941E-3  
 2.040600000000000E10    1.077381682720173E-3   3.435649296820717E-3  
 2.040800000000000E10    1.685638394620684E-3   3.230462851071800E-3  
 2.041000000000000E10    2.260394765202094E-3   2.867291491754630E-3  
 2.041200000000000E10    2.698069895376210E-3   2.379491304357847E-3  
 2.041400000000000E10    3.014365616426976E-3   1.874176242078344E-3  
 2.041600000000000E10    3.298546903318277E-3   1.348506879164941E-3  
 2.041800000000000E10    3.494053380563856E-3   7.100297737418227E-4  
 2.042000000000000E10    3.498250092552216E-3   5.859735062619656E-5  
 2.042200000000000E10    3.353465960740492E-3  -5.105336140668779E-4  
 2.042400000000000E10    3.122568596154451E-3  -9.912623489206590E-4  
 2.042600000000000E10    2.891035172743378E-3  -1.445497429274299E-3  
 2.042800000000000E10    2.580870882849451E-3  -1.851347714869513E-3  
 2.043000000000000E10    2.256774024485990E-3  -2.132188916827242E-3  
 2.043200000000000E10    2.014123619085661E-3  -2.405158977058751E-3  
 2.043400000000000E10    1.719775924424607E-3  -2.776858448568318E-3  
 2.043600000000000E10    1.266295642212585E-3  -3.160697537370855E-3  
 2.043800000000000E10    6.803922782031199E-4  -3.449116341976656E-3  
 2.044000000000000E10   -5.153557409627193E-6  -3.597570402133796E-3  
 2.044200000000000E10   -7.288872643753336E-4  -3.560440381988884E-3  
 2.044400000000000E10   -1.473619831139567E-3  -3.300310353989955E-3  
 2.044600000000000E10   -2.110547472343401E-3  -2.811226993799210E-3  
 2.044800000000000E10   -2.475516473943437E-3  -2.204567232790093E-3  
 2.045000000000000E10   -2.624360396078340E-3  -1.669646029498566E-3  
 2.045200000000000E10   -2.692720990765978E-3  -1.246188997929157E-3  
 2.045400000000000E10   -2.779404072228957E-3  -8.901182704398202E-4  
 2.045600000000000E10   -2.873896974725304E-3  -5.315982669816112E-4  
 2.045800000000000E10   -2.992846563251483E-3  -1.199989683637223E-4  
 2.046000000000000E10   -3.038985611594938E-3   3.957052529720521E-4  
 2.046200000000000E10   -2.937395660275663E-3   9.268256555380370E-4  
 2.046400000000000E10   -2.722499366090806E-3   1.432904369991135E-3  
 2.046600000000000E10   -2.413847009409909E-3   1.890281862061885E-3  
 2.046800000000000E10   -2.033747094510882E-3   2.241715167959531E-3  
 2.047000000000000E10   -1.601567362538643E-3   2.524305997347391E-3  
 2.047200000000000E10   -1.143443018749908E-3   2.697125930959980E-3  
 2.047400000000000E10   -7.325137568706717E-4   2.791425213217735E-3  
 2.047600000000000E10   -3.235783129908938E-4   2.875240795590260E-3  
 2.047800000000000E10    1.329368436320995E-4   2.931946819579160E-3  
 2.048000000000000E10    6.141483533644566E-4   2.889274921337212E-3  
 2.048200000000000E10    1.080719475996577E-3   2.754159176860143E-3  
 2.048400000000000E10    1.547366669573994E-3   2.546543893576773E-3  
 2.048600000000000E10    1.962048587975679E-3   2.256696603985297E-3  
 2.048800000000000E10    2.301584273852684E-3   1.880833525555553E-3  
 2.049000000000000E10    2.532351365381921E-3   1.485982987408837E-3  
 2.049200000000000E10    2.722951376603710E-3   1.126597234461871E-3  
 2.049400000000000E10    2.942953353609752E-3   7.374746901742011E-4  
 2.049600000000000E10    3.094283717305021E-3   2.558988010234855E-4  
 2.049800000000000E10    3.198999946040136E-3  -2.218248541962735E-4  
 2.050000000000000E10    3.260447229776118E-3  -7.865538786130924E-4  
 2.050200000000000E10    3.201973960838384E-3  -1.480893637226136E-3  
 2.050400000000000E10    2.934929776798796E-3  -2.259764932440939E-3  
 2.050600000000000E10    2.354222996574310E-3  -2.956131266223060E-3  
 2.050800000000000E10    1.519119224718048E-3  -3.378496738150716E-3  
 2.051000000000000E10    6.631222376772375E-4  -3.448988983614578E-3  
 2.051200000000000E10   -1.624276989820865E-5  -3.264046213762076E-3  
 2.051400000000000E10   -5.039567283044260E-4  -3.006827629481753E-3  
 2.051600000000000E10   -8.757296794404587E-4  -2.785462066876116E-3  
 2.051800000000000E10   -1.232591819845968E-3  -2.573658505247699E-3  
 2.052000000000000E10   -1.589971331500069E-3  -2.289951804818379E-3  
 2.052200000000000E10   -1.860326268123808E-3  -1.949725043097580E-3  
 2.052400000000000E10   -2.029914193338266E-3  -1.652985198975162E-3  
 2.052600000000000E10   -2.164845872256491E-3  -1.419825712218881E-3  
 2.052800000000000E10   -2.390673608277683E-3  -1.214829670196330E-3  
 2.053000000000000E10   -2.676859575634202E-3  -8.753268306867946E-4  
 2.053200000000000E10   -2.883344198818560E-3  -4.449404250071557E-4  
 2.053400000000000E10   -3.040421107369993E-3   4.837381345202668E-5  
 2.053600000000000E10   -3.098061420368376E-3   6.531414282680663E-4  
 2.053800000000000E10   -2.933946222549787E-3   1.307535670801170E-3  
 2.054000000000000E10   -2.559178370844435E-3   1.865675578031827E-3  
 2.054200000000000E10   -2.139892239399531E-3   2.268186046017541E-3  
 2.054400000000000E10   -1.677176259734013E-3   2.596432550085916E-3  
 2.054600000000000E10   -1.124540964762370E-3   2.830612042021972E-3  
 2.054800000000000E10   -5.332167256037119E-4   2.876382381482809E-3  
 2.055000000000000E10   -5.605057554526460E-5   2.729804996677019E-3  
 2.055200000000000E10    2.399819408041098E-4   2.575400156072445E-3  
 2.055400000000000E10    4.733519507916990E-4   2.545764971593464E-3  
 2.055600000000000E10    8.015894003350428E-4   2.576930060361823E-3  
