#  HZ   S   RI   R     50.00 
! Rohde & Schwarz ZVA40 4Ports - Version 3.90 - 1145.1110k42 SN: 100403
! Date: 2023-10-03 11:57:13
! Measurement: S12 
! 
 2.000000000000000E10   -2.536713516797017E-3  -2.251328776535593E-3  
 2.000200000000000E10   -2.972803243074378E-3  -1.818167678411381E-3  
 2.000400000000000E10   -3.284098278342738E-3  -1.210999154499815E-3  
 2.000600000000000E10   -3.378219341997196E-3  -5.679364700703301E-4  
 2.000800000000000E10   -3.278373665877699E-3  -6.440346646959422E-5  
 2.001000000000000E10   -3.223502885841539E-3   3.031753863837023E-4  
 2.001200000000000E10   -3.278503379055053E-3   7.639933021072254E-4  
 2.001400000000000E10   -3.269665019550912E-3   1.374641773501726E-3  
 2.001600000000000E10   -3.014654351656412E-3   2.037461612319934E-3  
 2.001800000000000E10   -2.595190893646601E-3   2.555442192439701E-3  
 2.002000000000000E10   -2.087128744045444E-3   2.985687842733126E-3  
 2.002200000000000E10   -1.448090814197096E-3   3.325757833098066E-3  
 2.002400000000000E10   -8.341944003567121E-4   3.513669052808987E-3  
 2.002600000000000E10   -2.283497442176209E-4   3.572813074253960E-3  
 2.002800000000000E10    3.537333318496948E-4   3.514562118338583E-3  
 2.003000000000000E10    9.538144613705597E-4   3.360500321269997E-3  
 2.003200000000000E10    1.508210079689525E-3   3.109021205902202E-3  
 2.003400000000000E10    1.990923291680356E-3   2.788230147920498E-3  
 2.003600000000000E10    2.359175414232785E-3   2.389931990618119E-3  
 2.003800000000000E10    2.624417276381016E-3   1.963596148109792E-3  
 2.004000000000000E10    2.848981236093595E-3   1.556414037537908E-3  
 2.004200000000000E10    3.094836776317270E-3   1.112592842689216E-3  
 2.004400000000000E10    3.270225766126389E-3   6.061756500491390E-4  
 2.004600000000000E10    3.301934888765258E-3   6.167409316041290E-5  
 2.004800000000000E10    3.197912165105589E-3  -4.042788713388605E-4  
 2.005000000000000E10    3.122005607506110E-3  -8.428733766657673E-4  
 2.005200000000000E10    3.038467781232423E-3  -1.350327808185083E-3  
 2.005400000000000E10    2.880953752150854E-3  -1.845284567926135E-3  
 2.005600000000000E10    2.620436608873114E-3  -2.349170200483279E-3  
 2.005800000000000E10    2.229325884674639E-3  -2.851766144182273E-3  
 2.006000000000000E10    1.666166704334575E-3  -3.315714665717958E-3  
 2.006200000000000E10    9.687049150695600E-4  -3.629762503038710E-3  
 2.006400000000000E10    2.460996051455001E-4  -3.703861173487618E-3  
 2.006600000000000E10   -3.973266937387010E-4  -3.599130650420146E-3  
 2.006800000000000E10   -9.422101008875708E-4  -3.412347410860458E-3  
 2.007000000000000E10   -1.498900734933173E-3  -3.230564823228514E-3  
 2.007200000000000E10   -2.100485625494124E-3  -2.942006035026965E-3  
 2.007400000000000E10   -2.584816578811416E-3  -2.484195802772139E-3  
 2.007600000000000E10   -2.900355573122701E-3  -1.941246550341121E-3  
 2.007800000000000E10   -3.089554713264783E-3  -1.365905849579901E-3  
 2.008000000000000E10   -3.180658152845621E-3  -8.812999669481606E-4  
 2.008200000000000E10   -3.279835794731689E-3  -4.618916738716393E-4  
 2.008400000000000E10   -3.422772849108948E-3  -2.545567976108998E-5  
 2.008600000000000E10   -3.505034956682489E-3   5.773443560050840E-4  
 2.008800000000000E10   -3.349862187916851E-3   1.277165992513800E-3  
 2.009000000000000E10   -3.007710696388399E-3   1.874718536905158E-3  
 2.009200000000000E10   -2.664571378216536E-3   2.309412143253230E-3  
 2.009400000000000E10   -2.354598544737317E-3   2.741542546428608E-3  
 2.009600000000000E10   -1.849607987851876E-3   3.251497931420722E-3  
 2.009800000000000E10   -1.096535766138268E-3   3.609707914369465E-3  
 2.010000000000000E10   -3.337982583646337E-4   3.711492218593307E-3  
 2.010200000000000E10    3.745271198308436E-4   3.648109894708331E-3  
 2.010400000000000E10    1.021851390882540E-3   3.409857670067515E-3  
 2.010600000000000E10    1.528196919591911E-3   3.032495117578937E-3  
 2.010800000000000E10    1.888450476582404E-3   2.654595446194151E-3  
 2.011000000000000E10    2.203713015005483E-3   2.370428861168677E-3  
 2.011200000000000E10    2.572976702067935E-3   2.090763316147377E-3  
 2.011400000000000E10    2.938326660911610E-3   1.694510735262221E-3  
 2.011600000000000E10    3.272656479081336E-3   1.162229004505746E-3  
 2.011800000000000E10    3.511986629756370E-3   4.553221350498064E-4  
 2.012000000000000E10    3.485862794236392E-3  -2.533256736841431E-4  
 2.012200000000000E10    3.288993373352253E-3  -7.907185380619190E-4  
 2.012400000000000E10    3.133248819155806E-3  -1.253713875055947E-3  
 2.012600000000000E10    2.937602057135748E-3  -1.787063564762821E-3  
 2.012800000000000E10    2.583783122471985E-3  -2.346429587705943E-3  
 2.013000000000000E10    2.105828326716713E-3  -2.824144296102809E-3  
 2.013200000000000E10    1.537183108349907E-3  -3.144473505917993E-3  
 2.013400000000000E10    9.605945003332651E-4  -3.336843989459883E-3  
 2.013600000000000E10    3.181601535903855E-4  -3.475814984296290E-3  
 2.013800000000000E10   -3.802000626967007E-4  -3.479970634093481E-3  
 2.014000000000000E10   -1.041723280555514E-3  -3.319316225213259E-3  
 2.014200000000000E10   -1.608349753362325E-3  -2.972695956055193E-3  
 2.014400000000000E10   -2.007039120281563E-3  -2.539243344703002E-3  
 2.014600000000000E10   -2.342746338509381E-3  -2.162056907676723E-3  
 2.014800000000000E10   -2.678959141453455E-3  -1.726151220449368E-3  
 2.015000000000000E10   -2.880729372716613E-3  -1.203498772258611E-3  
 2.015200000000000E10   -2.932274155829751E-3  -7.329905506725512E-4  
 2.015400000000000E10   -2.976181005371738E-3  -3.035688487029110E-4  
 2.015600000000000E10   -3.006116766227085E-3   1.554116575073404E-4  
 2.015800000000000E10   -3.009873970292908E-3   6.176750452720162E-4  
 2.016000000000000E10   -2.965900971297436E-3   1.140190871459252E-3  
 2.016200000000000E10   -2.775526644191890E-3   1.691936531879611E-3  
 2.016400000000000E10   -2.408186370437896E-3   2.226448957699726E-3  
 2.016600000000000E10   -1.914489363410877E-3   2.653262019029656E-3  
 2.016800000000000E10   -1.374572372563511E-3   2.927893811366706E-3  
 2.017000000000000E10   -8.496276400945010E-4   3.076509089338171E-3  
 2.017200000000000E10   -2.814197275302609E-4   3.150241788021904E-3  
 2.017400000000000E10    2.946361724673087E-4   3.108860797725302E-3  
 2.017600000000000E10    8.245709186754561E-4   2.944319374189906E-3  
 2.017800000000000E10    1.226518304273742E-3   2.717502890742386E-3  
 2.018000000000000E10    1.565953334493228E-3   2.491086153875633E-3  
 2.018200000000000E10    1.898199023132114E-3   2.244909667947799E-3  
 2.018400000000000E10    2.233712155300363E-3   2.006126883272363E-3  
 2.018600000000000E10    2.629661956860777E-3   1.695342160875058E-3  
 2.018800000000000E10    3.000803555608491E-3   1.255939713812118E-3  
 2.019000000000000E10    3.268333317377236E-3   6.714741080112767E-4  
 2.019200000000000E10    3.359205124641684E-3  -9.817990754422470E-6  
 2.019400000000000E10    3.283632987540405E-3  -6.610056360565837E-4  
 2.019600000000000E10    3.123612233484867E-3  -1.246897892822705E-3  
 2.019800000000000E10    2.838697570308389E-3  -1.799987618516318E-3  
 2.020000000000000E10    2.444011889671491E-3  -2.286003705814215E-3  
 2.020200000000000E10    1.925582464769054E-3  -2.678073980029167E-3  
 2.020400000000000E10    1.386659107278312E-3  -2.910296223477675E-3  
 2.020600000000000E10    9.077529800450240E-4  -3.055766670720650E-3  
 2.020800000000000E10    3.639956046277799E-4  -3.137756919294126E-3  
 2.021000000000000E10   -1.893263782562359E-4  -3.028289986958291E-3  
 2.021200000000000E10   -5.424018357292748E-4  -2.869062112588104E-3  
 2.021400000000000E10   -8.862421448490698E-4  -2.880901327888151E-3  
 2.021600000000000E10   -1.409089011817261E-3  -2.856067895368049E-3  
 2.021800000000000E10   -1.949494195187309E-3  -2.601452498212560E-3  
 2.022000000000000E10   -2.386533250567211E-3  -2.203503328174946E-3  
 2.022200000000000E10   -2.735919711296287E-3  -1.744009251929871E-3  
 2.022400000000000E10   -3.005599060424173E-3  -1.297046708592070E-3  
 2.022600000000000E10   -3.235798829589015E-3  -8.220906443325408E-4  
 2.022800000000000E10   -3.392464052681366E-3  -2.591145288426588E-4  
 2.023000000000000E10   -3.431832677823976E-3   3.714005338505233E-4  
 2.023200000000000E10   -3.371987260292976E-3   1.025504477811397E-3  
 2.023400000000000E10   -3.160504684611052E-3   1.701320808499653E-3  
 2.023600000000000E10   -2.749750802653685E-3   2.280936362119635E-3  
 2.023800000000000E10   -2.242211003331736E-3   2.698573451208153E-3  
 2.024000000000000E10   -1.691731873105072E-3   3.007312491791648E-3  
 2.024200000000000E10   -1.108711584444338E-3   3.213957536247635E-3  
 2.024400000000000E10   -5.973954368044146E-4   3.290363521007272E-3  
 2.024600000000000E10   -1.429580395963983E-4   3.359594241816894E-3  
 2.024800000000000E10    4.446020855823697E-4   3.412752172402497E-3  
 2.025000000000000E10    1.135992236781625E-3   3.282615144906978E-3  
 2.025200000000000E10    1.700657031489907E-3   2.964760168214088E-3  
 2.025400000000000E10    2.091875900891297E-3   2.633403088585749E-3  
 2.025600000000000E10    2.469708373008708E-3   2.320992508047198E-3  
 2.025800000000000E10    2.872260662041022E-3   1.906430344601943E-3  
 2.026000000000000E10    3.226808646939113E-3   1.343658113780601E-3  
 2.026200000000000E10    3.454036857365582E-3   7.221548478227667E-4  
 2.026400000000000E10    3.512173085901453E-3   9.250090055195459E-5  
 2.026600000000000E10    3.427297656842097E-3  -5.188877135786690E-4  
 2.026800000000000E10    3.253612447905627E-3  -1.094923282504613E-3  
 2.027000000000000E10    2.987225109772612E-3  -1.669525049865727E-3  
 2.027200000000000E10    2.590822580044346E-3  -2.154577797820437E-3  
 2.027400000000000E10    2.163285953254632E-3  -2.485546796034578E-3  
 2.027600000000000E10    1.704748997155613E-3  -2.735239712633857E-3  
 2.027800000000000E10    1.215860899314233E-3  -2.881947881829592E-3  
 2.028000000000000E10    7.865752847398926E-4  -3.004379228104944E-3  
 2.028200000000000E10    3.452009505615283E-4  -3.116019760975193E-3  
 2.028400000000000E10   -1.012753360974699E-4  -3.164215028395849E-3  
 2.028600000000000E10   -5.706947212061489E-4  -3.142157345000956E-3  
 2.028800000000000E10   -1.084919651460531E-3  -3.065870056281426E-3  
 2.029000000000000E10   -1.598905717356154E-3  -2.918967768608686E-3  
 2.029200000000000E10   -2.125384285087878E-3  -2.710729236657053E-3  
 2.029400000000000E10   -2.698059276829695E-3  -2.345437495694566E-3  
 2.029600000000000E10   -3.145879100681129E-3  -1.724864667459086E-3  
 2.029800000000000E10   -3.316530430515710E-3  -9.775968033447352E-4  
 2.030000000000000E10   -3.296893693005925E-3  -4.010552019666528E-4  
 2.030200000000000E10   -3.316444530380464E-3   5.848543192103070E-5  
 2.030400000000000E10   -3.302158506469615E-3   6.154409802323324E-4  
 2.030600000000000E10   -3.107540311026088E-3   1.218682307997829E-3  
 2.030800000000000E10   -2.790572807455975E-3   1.745670927983590E-3  
 2.031000000000000E10   -2.392170615736983E-3   2.166584119090839E-3  
 2.031200000000000E10   -1.970190248248999E-3   2.430069893317499E-3  
 2.031400000000000E10   -1.604128233093222E-3   2.634622699572144E-3  
 2.031600000000000E10   -1.190664632334048E-3   2.849145082754323E-3  
 2.031800000000000E10   -7.298265816005068E-4   3.012812364557746E-3  
 2.032000000000000E10   -2.643547581904752E-4   3.112846287606164E-3  
 2.032200000000000E10    2.300240367233232E-4   3.172890027660484E-3  
 2.032400000000000E10    7.853131693058401E-4   3.123620217436075E-3  
 2.032600000000000E10    1.344552586514334E-3   2.961697461229170E-3  
 2.032800000000000E10    1.911146400831078E-3   2.690956021744672E-3  
 2.033000000000000E10    2.370834370707104E-3   2.264338842527980E-3  
 2.033200000000000E10    2.671828053684698E-3   1.815529894377572E-3  
 2.033400000000000E10    2.949520276759756E-3   1.332586503425417E-3  
 2.033600000000000E10    3.061238414095652E-3   9.985275703753170E-4  
 2.033800000000000E10    3.155285448783854E-3   3.576550680083809E-5  
 2.034000000000000E10    2.985883571542238E-3  -5.661181496157324E-4  
 2.034200000000000E10    2.650274640902244E-3  -1.026616370770442E-3  
 2.034400000000000E10    2.266446786737185E-3  -1.326998010333960E-3  
 2.034600000000000E10    1.943224253431883E-3  -1.490772937824349E-3  
 2.034800000000000E10    1.767933168748729E-3  -1.606045541224493E-3  
 2.035000000000000E10    1.669532957164870E-3  -1.803270486836285E-3  
 2.035200000000000E10    1.501470727722106E-3  -2.099913000084450E-3  
 2.035400000000000E10    1.157548247749658E-3  -2.407730369546307E-3  
 2.035600000000000E10    7.109949453887167E-4  -2.617130123732921E-3  
 2.035800000000000E10    2.583188878552904E-4  -2.734431735366400E-3  
 2.036000000000000E10   -2.150148922939682E-4  -2.770153421714433E-3  
 2.036200000000000E10   -7.253554020465362E-4  -2.715340761508696E-3  
 2.036400000000000E10   -1.280231476219726E-3  -2.514731125211132E-3  
 2.036600000000000E10   -1.745104800912313E-3  -2.127424086889940E-3  
 2.036800000000000E10   -2.016343203831889E-3  -1.663678767899274E-3  
 2.037000000000000E10   -2.101536850740084E-3  -1.241635859194014E-3  
 2.037200000000000E10   -2.098849867259770E-3  -9.113699231304445E-4  
 2.037400000000000E10   -2.107304236972999E-3  -6.560575078396110E-4  
 2.037600000000000E10   -2.209656622416669E-3  -4.513862697549410E-4  
 2.037800000000000E10   -2.356898611914801E-3  -1.744087356709925E-4  
 2.038000000000000E10   -2.429948006954622E-3   2.215926347630015E-4  
 2.038200000000000E10   -2.360272833525583E-3   6.708262303961629E-4  
 2.038400000000000E10   -2.214131651341466E-3   1.073034418413393E-3  
 2.038600000000000E10   -2.032198178274008E-3   1.441377682026236E-3  
 2.038800000000000E10   -1.786082688385598E-3   1.795852792210397E-3  
 2.039000000000000E10   -1.434256809901584E-3   2.084143488222046E-3  
 2.039200000000000E10   -1.001323421663938E-3   2.258817099011791E-3  
 2.039400000000000E10   -5.713216087315232E-4   2.342255903594452E-3  
 2.039600000000000E10   -2.218412469687012E-4   2.358200832746606E-3  
 2.039800000000000E10    1.177041855974785E-4   2.360003182104954E-3  
 2.040000000000000E10    4.848069485803282E-4   2.276895177488015E-3  
 2.040200000000000E10    8.024508914423517E-4   2.147134937204176E-3  
 2.040400000000000E10    1.121441462870550E-3   2.039157376983632E-3  
 2.040600000000000E10    1.486857828910275E-3   1.885865984416845E-3  
 2.040800000000000E10    1.833396616764878E-3   1.635159271614645E-3  
 2.041000000000000E10    2.114246158626835E-3   1.263944751522996E-3  
 2.041200000000000E10    2.282703309402953E-3   8.079351621599479E-4  
 2.041400000000000E10    2.335344228844973E-3   3.944294190941959E-4  
 2.041600000000000E10    2.354384596052034E-3   3.514864804523080E-5  
 2.041800000000000E10    2.308123042060903E-3  -3.700032710070264E-4  
 2.042000000000000E10    2.147813353320873E-3  -7.651138136326880E-4  
 2.042200000000000E10    1.901542675101412E-3  -1.103787402451851E-3  
 2.042400000000000E10    1.621671034398761E-3  -1.329844410784175E-3  
 2.042600000000000E10    1.384763796053653E-3  -1.474530572315681E-3  
 2.042800000000000E10    1.170471181424874E-3  -1.566988904513317E-3  
 2.043000000000000E10    9.672223055027479E-4  -1.623538027796000E-3  
 2.043200000000000E10    8.184622491892576E-4  -1.739053125908428E-3  
 2.043400000000000E10    6.530556588405577E-4  -1.921429953394798E-3  
 2.043600000000000E10    4.304959035519414E-4  -2.126909188468863E-3  
 2.043800000000000E10    7.599824105308930E-5  -2.322313060858817E-3  
 2.044000000000000E10   -4.404941749400033E-4  -2.416186558468515E-3  
 2.044200000000000E10   -1.011314882037060E-3  -2.304382154664385E-3  
 2.044400000000000E10   -1.508136100706802E-3  -2.016324798713230E-3  
 2.044600000000000E10   -1.845105348055255E-3  -1.576502824525397E-3  
 2.044800000000000E10   -1.946406596722222E-3  -1.113188112715441E-3  
 2.045000000000000E10   -1.912811734785156E-3  -7.822925645847831E-4  
 2.045200000000000E10   -1.946114605856071E-3  -5.792701856900054E-4  
 2.045400000000000E10   -2.036419897678785E-3  -3.522317845371791E-4  
 2.045600000000000E10   -2.097204730964799E-3  -1.010299925832908E-4  
 2.045800000000000E10   -2.178184970426380E-3   2.167209076441394E-4  
 2.046000000000000E10   -2.174447841216671E-3   6.353427786622785E-4  
 2.046200000000000E10   -2.026457223588977E-3   1.041166749923389E-3  
 2.046400000000000E10   -1.818576819660712E-3   1.371165390818831E-3  
 2.046600000000000E10   -1.552959913656177E-3   1.642827774188514E-3  
 2.046800000000000E10   -1.257948837541964E-3   1.832066331057463E-3  
 2.047000000000000E10   -9.543122950460973E-4   2.016555246755236E-3  
 2.047200000000000E10   -6.381729952269203E-4   2.134232705175387E-3  
 2.047400000000000E10   -3.564888068084543E-4   2.206700375566799E-3  
 2.047600000000000E10   -4.991689517184857E-5   2.289371604268505E-3  
 2.047800000000000E10    3.556741237230293E-4   2.350932070844908E-3  
 2.048000000000000E10    8.154460872537541E-4   2.302920838002888E-3  
 2.048200000000000E10    1.263777360981854E-3   2.127322368962571E-3  
 2.048400000000000E10    1.637430400082993E-3   1.844701578678367E-3  
 2.048600000000000E10    1.897840277420866E-3   1.479078914468089E-3  
 2.048800000000000E10    2.057997585371372E-3   1.091662470815992E-3  
 2.049000000000000E10    2.112427820925523E-3   7.509913509334751E-4  
 2.049200000000000E10    2.150367202546412E-3   5.195699031726650E-4  
 2.049400000000000E10    2.245792227673290E-3   3.108754565230915E-4  
 2.049600000000000E10    2.364728847309048E-3   7.329598099612247E-6  
 2.049800000000000E10    2.465445251588612E-3  -3.509476913196075E-4  
 2.050000000000000E10    2.547468259657219E-3  -7.888933946953422E-4  
 2.050200000000000E10    2.546627218522060E-3  -1.356117425113406E-3  
 2.050400000000000E10    2.344632116932070E-3  -1.996798459338267E-3  
 2.050600000000000E10    1.858909695507609E-3  -2.592498543244290E-3  
 2.050800000000000E10    1.135751823172873E-3  -3.001806140009861E-3  
 2.051000000000000E10    3.379239216948309E-4  -3.087451715988142E-3  
 2.051200000000000E10   -3.244536441972158E-4  -2.867301162690007E-3  
 2.051400000000000E10   -7.671550225590413E-4  -2.516578599958795E-3  
 2.051600000000000E10   -1.024324511511913E-3  -2.213958788162356E-3  
 2.051800000000000E10   -1.219763379481421E-3  -2.010879425245078E-3  
 2.052000000000000E10   -1.461762434449073E-3  -1.828510832266349E-3  
 2.052200000000000E10   -1.671773281723864E-3  -1.591141453039653E-3  
 2.052400000000000E10   -1.809635908318625E-3  -1.361036264057819E-3  
 2.052600000000000E10   -1.958035715422574E-3  -1.171838582061558E-3  
 2.052800000000000E10   -2.199525261727074E-3  -1.000620922347114E-3  
 2.053000000000000E10   -2.496575500397076E-3  -6.981786126168688E-4  
 2.053200000000000E10   -2.684710200158024E-3  -2.444758181470103E-4  
 2.053400000000000E10   -2.771639571089518E-3   2.625806236209090E-4  
 2.053600000000000E10   -2.755615585553876E-3   8.270187401314956E-4  
 2.053800000000000E10   -2.546511942441531E-3   1.418693712784747E-3  
 2.054000000000000E10   -2.161750818739437E-3   1.899915503016041E-3  
 2.054200000000000E10   -1.716821394421273E-3   2.183916015915870E-3  
 2.054400000000000E10   -1.266448175348086E-3   2.356810544123069E-3  
 2.054600000000000E10   -8.395487239484681E-4   2.472999053451505E-3  
 2.054800000000000E10   -4.433260506225957E-4   2.528622110574845E-3  
 2.055000000000000E10   -8.332917668131041E-5   2.476126655989898E-3  
 2.055200000000000E10    1.851017491071804E-4   2.396532623110076E-3  
 2.055400000000000E10    4.563116155812628E-4   2.430332382241538E-3  
 2.055600000000000E10    8.450487493000804E-4   2.465144019517716E-3  
