#  HZ   S   RI   R     50.00 
! Rohde & Schwarz ZVA40 4Ports - Version 3.90 - 1145.1110k42 SN: 100403
! Date: 2023-10-03 11:58:22
! Measurement: S12 
! 
 2.000000000000000E10   -2.191783429157955E-3  -2.898958192586348E-3  
 2.000200000000000E10   -2.695712996761740E-3  -2.615826954651210E-3  
 2.000400000000000E10   -3.167932258091040E-3  -2.120061191143813E-3  
 2.000600000000000E10   -3.432832413962411E-3  -1.485635602651279E-3  
 2.000800000000000E10   -3.506024049043104E-3  -8.988935496071700E-4  
 2.001000000000000E10   -3.602273009119579E-3  -4.267380403981396E-4  
 2.001200000000000E10   -3.780754829216520E-3   1.096449678125619E-4  
 2.001400000000000E10   -3.870487730536196E-3   7.807283136234793E-4  
 2.001600000000000E10   -3.707071113756594E-3   1.538899341989079E-3  
 2.001800000000000E10   -3.347881368280929E-3   2.193006596321033E-3  
 2.002000000000000E10   -2.897232865776729E-3   2.772413608100680E-3  
 2.002200000000000E10   -2.307819191044496E-3   3.247279113296558E-3  
 2.002400000000000E10   -1.709236682933054E-3   3.560606447726857E-3  
 2.002600000000000E10   -1.064448591528668E-3   3.755898257993438E-3  
 2.002800000000000E10   -3.963073758325069E-4   3.860383512981145E-3  
 2.003000000000000E10    2.983842240172198E-4   3.861711452496641E-3  
 2.003200000000000E10    9.328782354355044E-4   3.745182917487842E-3  
 2.003400000000000E10    1.528995090026271E-3   3.515070997017586E-3  
 2.003600000000000E10    2.072785012309015E-3   3.155782209410344E-3  
 2.003800000000000E10    2.512238790384598E-3   2.725601751058374E-3  
 2.004000000000000E10    2.871686276508335E-3   2.285754443203778E-3  
 2.004200000000000E10    3.167460275882925E-3   1.821082553906757E-3  
 2.004400000000000E10    3.377211872304296E-3   1.292985129561046E-3  
 2.004600000000000E10    3.464677876988311E-3   7.484479976909949E-4  
 2.004800000000000E10    3.537297723124977E-3   2.851637035757764E-4  
 2.005000000000000E10    3.676620248797132E-3  -2.416860069511861E-4  
 2.005200000000000E10    3.695854701584688E-3  -8.885067230791867E-4  
 2.005400000000000E10    3.525802595425904E-3  -1.508552779409069E-3  
 2.005600000000000E10    3.274996468889309E-3  -2.098108311241240E-3  
 2.005800000000000E10    2.929421256721756E-3  -2.687692340394413E-3  
 2.006000000000000E10    2.417200380062432E-3  -3.236921975550093E-3  
 2.006200000000000E10    1.793461351620931E-3  -3.626681226133197E-3  
 2.006400000000000E10    1.089305178561237E-3  -3.830196068587679E-3  
 2.006600000000000E10    4.028436734289345E-4  -3.906023987557418E-3  
 2.006800000000000E10   -2.493377384028318E-4  -3.908088085828005E-3  
 2.007000000000000E10   -8.958551571359515E-4  -3.854967949819970E-3  
 2.007200000000000E10   -1.551837631627734E-3  -3.666515533961816E-3  
 2.007400000000000E10   -2.160292699427149E-3  -3.343807139583392E-3  
 2.007600000000000E10   -2.726444342162139E-3  -2.921483217865045E-3  
 2.007800000000000E10   -3.177239513599579E-3  -2.356402946774055E-3  
 2.008000000000000E10   -3.436726474858545E-3  -1.798801652995157E-3  
 2.008200000000000E10   -3.647434568308570E-3  -1.290775813955676E-3  
 2.008400000000000E10   -3.891399296943421E-3  -7.121244676836572E-4  
 2.008600000000000E10   -4.048539400330665E-3   3.197024873940544E-5  
 2.008800000000000E10   -3.962488896730874E-3   8.253218034098363E-4  
 2.009000000000000E10   -3.713913236020341E-3   1.472577245699035E-3  
 2.009200000000000E10   -3.427536557371051E-3   2.016005416711172E-3  
 2.009400000000000E10   -3.132896014937649E-3   2.603029806373848E-3  
 2.009600000000000E10   -2.651285127173236E-3   3.267935008661431E-3  
 2.009800000000000E10   -1.917389917106909E-3   3.750615100732741E-3  
 2.010000000000000E10   -1.138352206908166E-3   3.946700311599323E-3  
 2.010200000000000E10   -3.818197299461858E-4   3.984060075226023E-3  
 2.010400000000000E10    3.322528260289318E-4   3.869863882384919E-3  
 2.010600000000000E10    9.554807552320446E-4   3.631705556202819E-3  
 2.010800000000000E10    1.423682511588674E-3   3.369497376735564E-3  
 2.011000000000000E10    1.865854141888795E-3   3.135757857105799E-3  
 2.011200000000000E10    2.343281123350248E-3   2.864603993747338E-3  
 2.011400000000000E10    2.830806786171449E-3   2.495251705203160E-3  
 2.011600000000000E10    3.308344747365257E-3   2.014283927295495E-3  
 2.011800000000000E10    3.688018332109040E-3   1.386165141737388E-3  
 2.012000000000000E10    3.844340280112294E-3   6.672002944267460E-4  
 2.012200000000000E10    3.834855874977363E-3   4.593375796289772E-6  
 2.012400000000000E10    3.808012786953722E-3  -6.375868055957980E-4  
 2.012600000000000E10    3.682167608474876E-3  -1.322854689701840E-3  
 2.012800000000000E10    3.406767006158645E-3  -1.979588821277391E-3  
 2.013000000000000E10    2.997244550145151E-3  -2.568149982296207E-3  
 2.013200000000000E10    2.484624328689627E-3  -3.079381828874718E-3  
 2.013400000000000E10    1.893418501878595E-3  -3.495165773517924E-3  
 2.013600000000000E10    1.219427047791764E-3  -3.831953554770645E-3  
 2.013800000000000E10    4.325338544462014E-4  -4.010158349518424E-3  
 2.014000000000000E10   -4.027740031704997E-4  -3.945739201074582E-3  
 2.014200000000000E10   -1.139300239393143E-3  -3.639262232837486E-3  
 2.014400000000000E10   -1.648821272990770E-3  -3.235875174725129E-3  
 2.014600000000000E10   -2.051661479470815E-3  -2.922546141493468E-3  
 2.014800000000000E10   -2.491304964218059E-3  -2.565910620039996E-3  
 2.015000000000000E10   -2.877789926082816E-3  -2.079163186459078E-3  
 2.015200000000000E10   -3.139934240966852E-3  -1.557844133334763E-3  
 2.015400000000000E10   -3.353172102598129E-3  -1.028292637065421E-3  
 2.015600000000000E10   -3.467461988214910E-3  -4.610226728183069E-4  
 2.015800000000000E10   -3.482676887263855E-3   1.001544649760170E-4  
 2.016000000000000E10   -3.453711237482451E-3   6.763385802817842E-4  
 2.016200000000000E10   -3.328771879436609E-3   1.272134337700720E-3  
 2.016400000000000E10   -3.108637007873184E-3   1.882875421555874E-3  
 2.016600000000000E10   -2.725877480029508E-3   2.474518780263118E-3  
 2.016800000000000E10   -2.172464691677396E-3   2.928069835804679E-3  
 2.017000000000000E10   -1.560513568283232E-3   3.223123399678756E-3  
 2.017200000000000E10   -9.290701285705983E-4   3.380683081132579E-3  
 2.017400000000000E10   -3.184896658812822E-4   3.395742446437111E-3  
 2.017600000000000E10    2.316159273808202E-4   3.296409989419728E-3  
 2.017800000000000E10    6.803554162256604E-4   3.147388955026314E-3  
 2.018000000000000E10    1.107201142593023E-3   3.013016035159430E-3  
 2.018200000000000E10    1.532931472922181E-3   2.853894778699787E-3  
 2.018400000000000E10    1.964614956559223E-3   2.697454104314984E-3  
 2.018600000000000E10    2.467245375162658E-3   2.458326139107899E-3  
 2.018800000000000E10    3.003449299959122E-3   2.062584540841204E-3  
 2.019000000000000E10    3.448900298134965E-3   1.469630937747382E-3  
 2.019200000000000E10    3.719760493064920E-3   7.585306223596873E-4  
 2.019400000000000E10    3.803137172427443E-3   2.646596885263279E-6  
 2.019600000000000E10    3.725294161725928E-3  -7.485089957265668E-4  
 2.019800000000000E10    3.482230789499519E-3  -1.491512584408033E-3  
 2.020000000000000E10    3.057195948735800E-3  -2.158335769365048E-3  
 2.020200000000000E10    2.467512817087549E-3  -2.631794681404660E-3  
 2.020400000000000E10    1.880977938043667E-3  -2.872113253415367E-3  
 2.020600000000000E10    1.390912243808953E-3  -3.036503099410991E-3  
 2.020800000000000E10    8.707141293856650E-4  -3.168165390552194E-3  
 2.021000000000000E10    3.747444852818679E-4  -3.137050009689030E-3  
 2.021200000000000E10    5.269386830475952E-5  -3.093457823895195E-3  
 2.021400000000000E10   -3.213533688980489E-4  -3.214034723278917E-3  
 2.021600000000000E10   -9.234098467492947E-4  -3.278981877007970E-3  
 2.021800000000000E10   -1.586789884719492E-3  -3.109068802362424E-3  
 2.022000000000000E10   -2.160889148298237E-3  -2.774110627303153E-3  
 2.022200000000000E10   -2.645568499617555E-3  -2.340805317263729E-3  
 2.022400000000000E10   -3.014868803690245E-3  -1.838689340841899E-3  
 2.022600000000000E10   -3.325991867179121E-3  -1.279909494275480E-3  
 2.022800000000000E10   -3.502197267579628E-3  -6.604502473405943E-4  
 2.023000000000000E10   -3.533517484794613E-3  -5.455842271916439E-5  
 2.023200000000000E10   -3.498348085508671E-3   5.289899418130517E-4  
 2.023400000000000E10   -3.368003638806167E-3   1.156340788670436E-3  
 2.023600000000000E10   -3.087547225417731E-3   1.755693083755488E-3  
 2.023800000000000E10   -2.703739643487850E-3   2.249853231334760E-3  
 2.024000000000000E10   -2.262850884164190E-3   2.676951460379326E-3  
 2.024200000000000E10   -1.727485218671737E-3   2.995360789268658E-3  
 2.024400000000000E10   -1.219880847651282E-3   3.194124317141596E-3  
 2.024600000000000E10   -7.518260268333519E-4   3.368793144523178E-3  
 2.024800000000000E10   -1.638216445702891E-4   3.538887542499989E-3  
 2.025000000000000E10    5.195219088403256E-4   3.528306059493328E-3  
 2.025200000000000E10    1.135934441764322E-3   3.318407314105167E-3  
 2.025400000000000E10    1.653962797358816E-3   3.041780435905597E-3  
 2.025600000000000E10    2.127932079918223E-3   2.751216907514099E-3  
 2.025800000000000E10    2.601921176077959E-3   2.367319889872531E-3  
 2.026000000000000E10    3.014454339274470E-3   1.859162990176292E-3  
 2.026200000000000E10    3.307303658077195E-3   1.260806656913993E-3  
 2.026400000000000E10    3.437999020802019E-3   6.172476641051932E-4  
 2.026600000000000E10    3.439930233138580E-3   6.846257522817227E-7  
 2.026800000000000E10    3.327173327475235E-3  -5.854727624179681E-4  
 2.027000000000000E10    3.094894087149038E-3  -1.132719882729429E-3  
 2.027200000000000E10    2.752810348699123E-3  -1.563771735635345E-3  
 2.027400000000000E10    2.442895670501907E-3  -1.879470739053723E-3  
 2.027600000000000E10    2.144311899664226E-3  -2.186446485144121E-3  
 2.027800000000000E10    1.791034702981972E-3  -2.443602236769634E-3  
 2.028000000000000E10    1.468006728423967E-3  -2.657988470875555E-3  
 2.028200000000000E10    1.120109575294694E-3  -2.924707246783340E-3  
 2.028400000000000E10    6.804559200162782E-4  -3.163952926564733E-3  
 2.028600000000000E10    1.580953613023509E-4  -3.337264492141980E-3  
 2.028800000000000E10   -4.527807066125083E-4  -3.395123231903087E-3  
 2.029000000000000E10   -1.095748792494429E-3  -3.295571543276311E-3  
 2.029200000000000E10   -1.708081545434708E-3  -3.060176114862164E-3  
 2.029400000000000E10   -2.286392698110438E-3  -2.693861984521335E-3  
 2.029600000000000E10   -2.750377748506489E-3  -2.136237692248858E-3  
 2.029800000000000E10   -2.967133859379424E-3  -1.511898383291232E-3  
 2.030000000000000E10   -3.046356414640208E-3  -1.037861492174367E-3  
 2.030200000000000E10   -3.161417932629034E-3  -6.010724902785396E-4  
 2.030400000000000E10   -3.243446125890371E-3  -7.516018565554448E-5  
 2.030600000000000E10   -3.173862003295879E-3   4.631944940666910E-4  
 2.030800000000000E10   -2.999056671044709E-3   9.450461330283205E-4  
 2.031000000000000E10   -2.768071948976061E-3   1.372964418907133E-3  
 2.031200000000000E10   -2.545148801104523E-3   1.734574342629424E-3  
 2.031400000000000E10   -2.310505841088332E-3   2.119439708666853E-3  
 2.031600000000000E10   -1.982104629680606E-3   2.518681964526574E-3  
 2.031800000000000E10   -1.539698441190944E-3   2.857798931798266E-3  
 2.032000000000000E10   -1.035671202569372E-3   3.112616123815562E-3  
 2.032200000000000E10   -4.804397805271970E-4   3.262021699575363E-3  
 2.032400000000000E10    8.229004922696610E-5   3.277245201860314E-3  
 2.032600000000000E10    5.969222301594271E-4   3.196574224412074E-3  
 2.032800000000000E10    1.104989313279037E-3   3.060912575434756E-3  
 2.033000000000000E10    1.610064453640838E-3   2.867275251098621E-3  
 2.033200000000000E10    2.107239707752511E-3   2.607175583065845E-3  
 2.033400000000000E10    2.617004942608837E-3   2.198491573195767E-3  
 2.033600000000000E10    2.838265587702210E-3   1.866150157307677E-3  
 2.033800000000000E10    3.171738245765921E-3   8.957041700566075E-4  
 2.034000000000000E10    3.132871245781397E-3   2.982272708322853E-4  
 2.034200000000000E10    3.000102526174836E-3  -1.768573051833054E-4  
 2.034400000000000E10    2.816034253847636E-3  -5.743258203707498E-4  
 2.034600000000000E10    2.613544182414994E-3  -8.521369790635361E-4  
 2.034800000000000E10    2.522821282324048E-3  -1.098802832765850E-3  
 2.035000000000000E10    2.483400415606153E-3  -1.467829039837752E-3  
 2.035200000000000E10    2.323618848566656E-3  -1.950271621656915E-3  
 2.035400000000000E10    1.969333548374750E-3  -2.389566412333537E-3  
 2.035600000000000E10    1.512544575998169E-3  -2.736723679980195E-3  
 2.035800000000000E10    1.008977425100719E-3  -2.996315817452140E-3  
 2.036000000000000E10    4.787281641368698E-4  -3.160016332396571E-3  
 2.036200000000000E10   -8.085602050055007E-5  -3.229742964591694E-3  
 2.036400000000000E10   -7.042243654902933E-4  -3.173593586931626E-3  
 2.036600000000000E10   -1.316307379898650E-3  -2.919243740630739E-3  
 2.036800000000000E10   -1.788747910824087E-3  -2.514133807616654E-3  
 2.037000000000000E10   -2.077879376973911E-3  -2.075253209720056E-3  
 2.037200000000000E10   -2.245019077909766E-3  -1.679732921291833E-3  
 2.037400000000000E10   -2.369458663541778E-3  -1.343545593022381E-3  
 2.037600000000000E10   -2.525902925243165E-3  -1.048415128923493E-3  
 2.037800000000000E10   -2.727562093095463E-3  -7.150337239439934E-4  
 2.038000000000000E10   -2.895929859261270E-3  -2.810157864946688E-4  
 2.038200000000000E10   -2.952774995248075E-3   2.116803978109894E-4  
 2.038400000000000E10   -2.898153846071643E-3   7.270689368144507E-4  
 2.038600000000000E10   -2.754173603736692E-3   1.263566306550746E-3  
 2.038800000000000E10   -2.482552811457419E-3   1.767641618951327E-3  
 2.039000000000000E10   -2.080970820338454E-3   2.163647768881034E-3  
 2.039200000000000E10   -1.610694798054519E-3   2.423862308654705E-3  
 2.039400000000000E10   -1.162569179418095E-3   2.565361369677164E-3  
 2.039600000000000E10   -8.206395331747188E-4   2.688132930707968E-3  
 2.039800000000000E10   -4.161824393201114E-4   2.876280496517818E-3  
 2.040000000000000E10    1.070912831094990E-4   2.941601863705818E-3  
 2.040200000000000E10    5.873024900570328E-4   2.853170120628712E-3  
 2.040400000000000E10    1.048722336022758E-3   2.713050362711520E-3  
 2.040600000000000E10    1.501333600852961E-3   2.524002463798280E-3  
 2.040800000000000E10    1.914161248822455E-3   2.261193101236850E-3  
 2.041000000000000E10    2.302559900361999E-3   1.895639711967957E-3  
 2.041200000000000E10    2.628952178552195E-3   1.413863093339275E-3  
 2.041400000000000E10    2.816097940214806E-3   8.651394192934220E-4  
 2.041600000000000E10    2.888518106767241E-3   3.370284350778632E-4  
 2.041800000000000E10    2.854717725795913E-3  -1.974133742300587E-4  
 2.042000000000000E10    2.667504377134236E-3  -6.629009946697841E-4  
 2.042200000000000E10    2.416944398579222E-3  -1.058328168087260E-3  
 2.042400000000000E10    2.132331601769468E-3  -1.372732784035673E-3  
 2.042600000000000E10    1.882283850630493E-3  -1.597398551422413E-3  
 2.042800000000000E10    1.625619962363056E-3  -1.778931982159891E-3  
 2.043000000000000E10    1.382930807907272E-3  -1.934982048646536E-3  
 2.043200000000000E10    1.145799046405304E-3  -2.128400845614113E-3  
 2.043400000000000E10    8.448485829752445E-4  -2.325824484872965E-3  
 2.043600000000000E10    5.288330347990089E-4  -2.519055180550542E-3  
 2.043800000000000E10    1.295829565437830E-4  -2.715202166273455E-3  
 2.044000000000000E10   -4.283423114418524E-4  -2.792655381109612E-3  
 2.044200000000000E10   -1.052718182715277E-3  -2.665501832387146E-3  
 2.044400000000000E10   -1.619071718362839E-3  -2.332872952576037E-3  
 2.044600000000000E10   -1.974142265770539E-3  -1.844988687446824E-3  
 2.044800000000000E10   -2.088123242612238E-3  -1.346518121728743E-3  
 2.045000000000000E10   -2.098397360424753E-3  -9.947059773782524E-4  
 2.045200000000000E10   -2.135381082440784E-3  -7.372821413877387E-4  
 2.045400000000000E10   -2.206267582045661E-3  -4.878648388613430E-4  
 2.045600000000000E10   -2.288919120429107E-3  -2.579494448806976E-4  
 2.045800000000000E10   -2.437666607560751E-3   4.600754547016235E-5  
 2.046000000000000E10   -2.504760661035960E-3   5.202735328678917E-4  
 2.046200000000000E10   -2.381576687948388E-3   1.039523591091972E-3  
 2.046400000000000E10   -2.130725078951614E-3   1.470270790849571E-3  
 2.046600000000000E10   -1.804245668923322E-3   1.801326889602215E-3  
 2.046800000000000E10   -1.420829850421460E-3   2.048315557961663E-3  
 2.047000000000000E10   -1.010214393946952E-3   2.220422345685002E-3  
 2.047200000000000E10   -6.197342055527793E-4   2.261096488017543E-3  
 2.047400000000000E10   -3.336604880772669E-4   2.260963944143352E-3  
 2.047600000000000E10   -8.477590987846877E-5   2.304978473226966E-3  
 2.047800000000000E10    2.423535441738312E-4   2.366148334939355E-3  
 2.048000000000000E10    6.592651652344676E-4   2.346048562752980E-3  
 2.048200000000000E10    1.093340951397463E-3   2.227252441239946E-3  
 2.048400000000000E10    1.469865219989493E-3   2.014986774021829E-3  
 2.048600000000000E10    1.775314879063287E-3   1.705713930861726E-3  
 2.048800000000000E10    2.000905490008953E-3   1.341053852409033E-3  
 2.049000000000000E10    2.104136006285747E-3   1.002346500351933E-3  
 2.049200000000000E10    2.181084694363821E-3   7.684231774571042E-4  
 2.049400000000000E10    2.351691699184386E-3   5.450271706694715E-4  
 2.049600000000000E10    2.502142848377979E-3   2.197460549880670E-4  
 2.049800000000000E10    2.611108193242992E-3  -1.386078615330827E-4  
 2.050000000000000E10    2.721897240176245E-3  -6.046804260278558E-4  
 2.050200000000000E10    2.760966411895223E-3  -1.192006174716409E-3  
 2.050400000000000E10    2.600572689976773E-3  -1.857746533336647E-3  
 2.050600000000000E10    2.143857215910598E-3  -2.532886105509084E-3  
 2.050800000000000E10    1.415018029625953E-3  -3.002061807538993E-3  
 2.051000000000000E10    6.156751180332109E-4  -3.122108565919378E-3  
 2.051200000000000E10   -3.960843722229639E-5  -2.963887694303269E-3  
 2.051400000000000E10   -4.839882560729705E-4  -2.713590463692392E-3  
 2.051600000000000E10   -7.813000881952453E-4  -2.487524418321289E-3  
 2.051800000000000E10   -1.045286166769119E-3  -2.329329500135816E-3  
 2.052000000000000E10   -1.397085689399162E-3  -2.182692522183061E-3  
 2.052200000000000E10   -1.723105598091620E-3  -1.922200412351501E-3  
 2.052400000000000E10   -1.925364645473935E-3  -1.604129176552373E-3  
 2.052600000000000E10   -2.082633806024621E-3  -1.359895111728506E-3  
 2.052800000000000E10   -2.360631042033618E-3  -1.161655129427895E-3  
 2.053000000000000E10   -2.695686071766196E-3  -7.938475651310091E-4  
 2.053200000000000E10   -2.891727056308293E-3  -2.732645909957313E-4  
 2.053400000000000E10   -2.952385777147649E-3   2.653784403163526E-4  
 2.053600000000000E10   -2.898297286994847E-3   8.373231897245588E-4  
 2.053800000000000E10   -2.689203862560752E-3   1.421759799007832E-3  
 2.054000000000000E10   -2.336850070774004E-3   1.935009413433296E-3  
 2.054200000000000E10   -1.873535837081296E-3   2.267311263921453E-3  
 2.054400000000000E10   -1.377638693852925E-3   2.495775910462311E-3  
 2.054600000000000E10   -8.758339444520298E-4   2.628098466192131E-3  
 2.054800000000000E10   -3.980104143179402E-4   2.648020548355065E-3  
 2.055000000000000E10   -5.833565039750032E-7   2.540011140000490E-3  
 2.055200000000000E10    2.475297555357418E-4   2.423460233128733E-3  
 2.055400000000000E10    4.697963703182285E-4   2.418753762878938E-3  
 2.055600000000000E10    8.236009758368229E-4   2.431417801014987E-3  
