#  HZ   S   RI   R     50.00 
! Rohde & Schwarz ZVA40 4Ports - Version 3.90 - 1145.1110k42 SN: 100403
! Date: 2023-10-03 12:02:56
! Measurement: S12 
! 
 2.000000000000000E10   -1.694568950268958E-3  -3.422890191920746E-3  
 2.000200000000000E10   -2.310608134225563E-3  -3.173620989086268E-3  
 2.000400000000000E10   -2.875281494961661E-3  -2.739469526496566E-3  
 2.000600000000000E10   -3.256617846933229E-3  -2.192590333935288E-3  
 2.000800000000000E10   -3.483351992650165E-3  -1.653192297521013E-3  
 2.001000000000000E10   -3.718083804864207E-3  -1.151305285604372E-3  
 2.001200000000000E10   -4.018291342359635E-3  -5.632494770300885E-4  
 2.001400000000000E10   -4.222712399047099E-3   1.736323197909781E-4  
 2.001600000000000E10   -4.144225275304951E-3   1.042898977175355E-3  
 2.001800000000000E10   -3.778557192511214E-3   1.806813313763727E-3  
 2.002000000000000E10   -3.305608809086276E-3   2.432835963842126E-3  
 2.002200000000000E10   -2.783743043740591E-3   2.941601975809461E-3  
 2.002400000000000E10   -2.270609286993190E-3   3.332370190800708E-3  
 2.002600000000000E10   -1.693388297693965E-3   3.597417843447608E-3  
 2.002800000000000E10   -1.092307901952738E-3   3.795832174220756E-3  
 2.003000000000000E10   -3.990414207456289E-4   3.915236710950181E-3  
 2.003200000000000E10    2.205461588110431E-4   3.894655695070088E-3  
 2.003400000000000E10    7.907899519152665E-4   3.807305634297707E-3  
 2.003600000000000E10    1.369425220656450E-3   3.604685680733787E-3  
 2.003800000000000E10    1.903919856650410E-3   3.316479030835592E-3  
 2.004000000000000E10    2.430093451690527E-3   3.030061350997400E-3  
 2.004200000000000E10    2.967661068441324E-3   2.658505510124896E-3  
 2.004400000000000E10    3.402450314527493E-3   2.147117721629732E-3  
 2.004600000000000E10    3.687532929082712E-3   1.530863711162022E-3  
 2.004800000000000E10    3.866443324282215E-3   9.208038811468417E-4  
 2.005000000000000E10    4.022047418043202E-3   2.701969743263621E-4  
 2.005200000000000E10    4.049369369713981E-3  -4.050455521073561E-4  
 2.005400000000000E10    3.931910420457522E-3  -1.018093394426008E-3  
 2.005600000000000E10    3.764761105915647E-3  -1.664441797514389E-3  
 2.005800000000000E10    3.483077238118392E-3  -2.363121289368949E-3  
 2.006000000000000E10    3.036405169692489E-3  -3.072788516335466E-3  
 2.006200000000000E10    2.381469927912141E-3  -3.617158909845684E-3  
 2.006400000000000E10    1.631378456317809E-3  -3.894514846902939E-3  
 2.006600000000000E10    9.030314007153114E-4  -3.990037815162430E-3  
 2.006800000000000E10    2.547720830562744E-4  -3.999058358417250E-3  
 2.007000000000000E10   -3.410330236987154E-4  -3.984794020652771E-3  
 2.007200000000000E10   -9.383413635976154E-4  -3.906920141207032E-3  
 2.007400000000000E10   -1.562632511105435E-3  -3.702015015239150E-3  
 2.007600000000000E10   -2.208100818672482E-3  -3.368013345831891E-3  
 2.007800000000000E10   -2.779882151150593E-3  -2.879221095807023E-3  
 2.008000000000000E10   -3.147589586054286E-3  -2.373469294980168E-3  
 2.008200000000000E10   -3.408370551043823E-3  -1.926583585754773E-3  
 2.008400000000000E10   -3.710147847111027E-3  -1.470235511258153E-3  
 2.008600000000000E10   -4.051741896726100E-3  -8.450051220593814E-4  
 2.008800000000000E10   -4.244922838507244E-3  -5.395520727486453E-5  
 2.009000000000000E10   -4.203164927017542E-3   7.388006032007621E-4  
 2.009200000000000E10   -4.004740506916503E-3   1.437370500090406E-3  
 2.009400000000000E10   -3.717634280752621E-3   2.117632526076503E-3  
 2.009600000000000E10   -3.270253892643033E-3   2.891777715657229E-3  
 2.009800000000000E10   -2.574763134305860E-3   3.522889099348291E-3  
 2.010000000000000E10   -1.786736210946132E-3   3.861275639522959E-3  
 2.010200000000000E10   -1.000548043161815E-3   3.970278812181436E-3  
 2.010400000000000E10   -2.801808065815289E-4   3.886314445278712E-3  
 2.010600000000000E10    2.962546924310219E-4   3.728672764321536E-3  
 2.010800000000000E10    7.473969800443747E-4   3.614327850188186E-3  
 2.011000000000000E10    1.206942928816986E-3   3.507446828240782E-3  
 2.011200000000000E10    1.716279283878796E-3   3.351229426945434E-3  
 2.011400000000000E10    2.311257254562261E-3   3.110890860243897E-3  
 2.011600000000000E10    2.980786027892689E-3   2.685822052076276E-3  
 2.011800000000000E10    3.511386061156238E-3   2.044154956281461E-3  
 2.012000000000000E10    3.749591683577976E-3   1.315172093368515E-3  
 2.012200000000000E10    3.778803676803723E-3   6.459924927050319E-4  
 2.012400000000000E10    3.803312324309423E-3   6.511070827355632E-5  
 2.012600000000000E10    3.843939581449018E-3  -5.501652025778629E-4  
 2.012800000000000E10    3.772055057601797E-3  -1.243806275953021E-3  
 2.013000000000000E10    3.484385355410201E-3  -1.936678717165818E-3  
 2.013200000000000E10    3.002364866803458E-3  -2.533330674064748E-3  
 2.013400000000000E10    2.463542065801628E-3  -3.016898816704383E-3  
 2.013600000000000E10    1.854973911296255E-3  -3.426942566156756E-3  
 2.013800000000000E10    1.165719238615791E-3  -3.660840778554112E-3  
 2.014000000000000E10    4.597602111724333E-4  -3.677451316221261E-3  
 2.014200000000000E10   -1.636824957210065E-4  -3.530862882020482E-3  
 2.014400000000000E10   -5.994992830825074E-4  -3.373375234343572E-3  
 2.014600000000000E10   -1.019741247557564E-3  -3.342435131838293E-3  
 2.014800000000000E10   -1.570965288448389E-3  -3.246526596032911E-3  
 2.015000000000000E10   -2.148566712958762E-3  -2.954764150795930E-3  
 2.015200000000000E10   -2.657335188331796E-3  -2.528178313011189E-3  
 2.015400000000000E10   -3.117802506887619E-3  -2.045575931760264E-3  
 2.015600000000000E10   -3.473612416627599E-3  -1.483547254063097E-3  
 2.015800000000000E10   -3.704891853425422E-3  -8.512402318395032E-4  
 2.016000000000000E10   -3.813299755738290E-3  -1.275093198296137E-4  
 2.016200000000000E10   -3.747597903036226E-3   6.189704218729872E-4  
 2.016400000000000E10   -3.517146216544473E-3   1.303260391405611E-3  
 2.016600000000000E10   -3.173569320804544E-3   1.881573622310419E-3  
 2.016800000000000E10   -2.730775659007055E-3   2.350276919587711E-3  
 2.017000000000000E10   -2.232043621601698E-3   2.726067849262446E-3  
 2.017200000000000E10   -1.667588385810823E-3   3.035337195651215E-3  
 2.017400000000000E10   -1.104894035242866E-3   3.183578914261343E-3  
 2.017600000000000E10   -6.262238833041471E-4   3.212440643965463E-3  
 2.017800000000000E10   -2.216598405977022E-4   3.226608934777755E-3  
 2.018000000000000E10    2.529820284294540E-4   3.263009036603718E-3  
 2.018200000000000E10    7.709422361473612E-4   3.247614280194229E-3  
 2.018400000000000E10    1.284650577243740E-3   3.133926020337292E-3  
 2.018600000000000E10    1.763507036814168E-3   2.938762902178699E-3  
 2.018800000000000E10    2.247740020170625E-3   2.704700742514781E-3  
 2.019000000000000E10    2.812534596564041E-3   2.348384000705900E-3  
 2.019200000000000E10    3.337248702774998E-3   1.799511598181670E-3  
 2.019400000000000E10    3.697552936680524E-3   1.125803875541430E-3  
 2.019600000000000E10    3.870227989269261E-3   3.528761631452743E-4  
 2.019800000000000E10    3.790831656114740E-3  -4.558390334110570E-4  
 2.020000000000000E10    3.523795767744750E-3  -1.149457489876192E-3  
 2.020200000000000E10    3.152543460421357E-3  -1.670277372784453E-3  
 2.020400000000000E10    2.796917633486935E-3  -2.035773638060984E-3  
 2.020600000000000E10    2.478420383722326E-3  -2.381660124677935E-3  
 2.020800000000000E10    2.050442619674644E-3  -2.754350940202490E-3  
 2.021000000000000E10    1.596211707276971E-3  -3.020303519327700E-3  
 2.021200000000000E10    1.228355472033591E-3  -3.285151411905701E-3  
 2.021400000000000E10    7.426057357260568E-4  -3.629721456816720E-3  
 2.021600000000000E10    2.773948330690881E-5  -3.853756037575228E-3  
 2.021800000000000E10   -7.918204107597748E-4  -3.814823370725837E-3  
 2.022000000000000E10   -1.514488082367605E-3  -3.571648334647403E-3  
 2.022200000000000E10   -2.114594339128630E-3  -3.239969898268213E-3  
 2.022400000000000E10   -2.636094807566684E-3  -2.830616810738489E-3  
 2.022600000000000E10   -3.113939639548829E-3  -2.294578304928211E-3  
 2.022800000000000E10   -3.459084931370101E-3  -1.655832834162370E-3  
 2.023000000000000E10   -3.683247959908145E-3  -1.022814047223900E-3  
 2.023200000000000E10   -3.835262009230110E-3  -3.881005582059763E-4  
 2.023400000000000E10   -3.851578677257086E-3   3.348419283420412E-4  
 2.023600000000000E10   -3.670667993755621E-3   1.020613043097618E-3  
 2.023800000000000E10   -3.393574134895096E-3   1.628157488691310E-3  
 2.024000000000000E10   -3.048468496144555E-3   2.181661480543331E-3  
 2.024200000000000E10   -2.582146674049674E-3   2.625130579726380E-3  
 2.024400000000000E10   -2.107178205969157E-3   2.910972598733174E-3  
 2.024600000000000E10   -1.683258500387088E-3   3.202607754594934E-3  
 2.024800000000000E10   -1.169398462940238E-3   3.562330670746757E-3  
 2.025000000000000E10   -5.018734876181424E-4   3.808251584960540E-3  
 2.025200000000000E10    2.045206486703440E-4   3.857596231233559E-3  
 2.025400000000000E10    8.942555330038348E-4   3.753679065769654E-3  
 2.025600000000000E10    1.587037949960817E-3   3.513149684295059E-3  
 2.025800000000000E10    2.210413528330349E-3   3.089916573285505E-3  
 2.026000000000000E10    2.626203055160098E-3   2.576948258519909E-3  
 2.026200000000000E10    2.892973186034296E-3   2.102668267778225E-3  
 2.026400000000000E10    3.134802529979268E-3   1.639216754551011E-3  
 2.026600000000000E10    3.377241456168302E-3   1.135739178776189E-3  
 2.026800000000000E10    3.583478143461693E-3   5.910212955909011E-4  
 2.027000000000000E10    3.695573643378822E-3  -2.745231554231231E-5  
 2.027200000000000E10    3.613204338852271E-3  -6.612979758093939E-4  
 2.027400000000000E10    3.457030177944237E-3  -1.223096805107262E-3  
 2.027600000000000E10    3.217509832739095E-3  -1.799959801482382E-3  
 2.027800000000000E10    2.882892148063323E-3  -2.281838217405258E-3  
 2.028000000000000E10    2.524505400984192E-3  -2.710118564995535E-3  
 2.028200000000000E10    2.059524533925233E-3  -3.133827242655335E-3  
 2.028400000000000E10    1.490591029222641E-3  -3.478902656538988E-3  
 2.028600000000000E10    8.527149789805675E-4  -3.732075509442776E-3  
 2.028800000000000E10    1.778772817982108E-4  -3.850245546480573E-3  
 2.029000000000000E10   -4.518453030341110E-4  -3.836429778509487E-3  
 2.029200000000000E10   -1.102381625160989E-3  -3.758594968620642E-3  
 2.029400000000000E10   -1.815248308070924E-3  -3.530391908745155E-3  
 2.029600000000000E10   -2.461636140022749E-3  -3.088913311790906E-3  
 2.029800000000000E10   -2.894189680156149E-3  -2.520830353239069E-3  
 2.030000000000000E10   -3.162114122123630E-3  -2.006088107548378E-3  
 2.030200000000000E10   -3.411931523271366E-3  -1.491620902397475E-3  
 2.030400000000000E10   -3.649388253113923E-3  -8.860679406580735E-4  
 2.030600000000000E10   -3.735296500064893E-3  -2.390823070460034E-4  
 2.030800000000000E10   -3.703547492163417E-3   3.768846893504861E-4  
 2.031000000000000E10   -3.554366155309074E-3   9.619670109478414E-4  
 2.031200000000000E10   -3.349359443319249E-3   1.471185274882081E-3  
 2.031400000000000E10   -3.125805580229671E-3   1.996147193382552E-3  
 2.031600000000000E10   -2.793713648125162E-3   2.523687239851297E-3  
 2.031800000000000E10   -2.345508343919560E-3   2.954173424959551E-3  
 2.032000000000000E10   -1.822610559620331E-3   3.290410926795485E-3  
 2.032200000000000E10   -1.241398477972842E-3   3.575657206920930E-3  
 2.032400000000000E10   -6.111821484533542E-4   3.763343092560033E-3  
 2.032600000000000E10    2.287899648460248E-5   3.871690171460311E-3  
 2.032800000000000E10    7.392734570865647E-4   3.875375187806326E-3  
 2.033000000000000E10    1.480308605679943E-3   3.659058373743370E-3  
 2.033200000000000E10    2.114714166425445E-3   3.287070002521814E-3  
 2.033400000000000E10    2.656029686791662E-3   2.833753424685127E-3  
 2.033600000000000E10    2.845093622274789E-3   2.534508176239921E-3  
 2.033800000000000E10    3.324863440529616E-3   1.583510226524079E-3  
 2.034000000000000E10    3.421190237902382E-3   9.477753652098739E-4  
 2.034200000000000E10    3.409271131350119E-3   3.380357813489635E-4  
 2.034400000000000E10    3.286749457963456E-3  -1.872043866580812E-4  
 2.034600000000000E10    3.130012160213090E-3  -5.664092745131780E-4  
 2.034800000000000E10    3.048336501290769E-3  -8.964501486596780E-4  
 2.035000000000000E10    3.002326547478637E-3  -1.322466911702061E-3  
 2.035200000000000E10    2.856614758019095E-3  -1.859554578262715E-3  
 2.035400000000000E10    2.555143197331532E-3  -2.354583766219425E-3  
 2.035600000000000E10    2.154419644172361E-3  -2.773682331022474E-3  
 2.035800000000000E10    1.678650291855045E-3  -3.128127169070973E-3  
 2.036000000000000E10    1.089509488888269E-3  -3.420740426345556E-3  
 2.036200000000000E10    4.232846233522359E-4  -3.606057547630720E-3  
 2.036400000000000E10   -2.875599387119076E-4  -3.631515247333381E-3  
 2.036600000000000E10   -9.544836529703053E-4  -3.451955685805944E-3  
 2.036800000000000E10   -1.520948198531973E-3  -3.122334578361961E-3  
 2.037000000000000E10   -1.934202843529667E-3  -2.746942271995876E-3  
 2.037200000000000E10   -2.253826411532951E-3  -2.392170013698899E-3  
 2.037400000000000E10   -2.535209818570703E-3  -2.061863524701309E-3  
 2.037600000000000E10   -2.832125317604270E-3  -1.731949060706905E-3  
 2.037800000000000E10   -3.145290455309514E-3  -1.283542340747828E-3  
 2.038000000000000E10   -3.396332766975702E-3  -7.095819383710165E-4  
 2.038200000000000E10   -3.514142554644266E-3  -7.986312670097651E-5  
 2.038400000000000E10   -3.499439207515047E-3   5.418961601084628E-4  
 2.038600000000000E10   -3.352739736092864E-3   1.166479207897260E-3  
 2.038800000000000E10   -3.071078145301637E-3   1.774640597207587E-3  
 2.039000000000000E10   -2.677501481095398E-3   2.263136340282214E-3  
 2.039200000000000E10   -2.222548394153516E-3   2.642301618363019E-3  
 2.039400000000000E10   -1.767520746791069E-3   2.896152784541986E-3  
 2.039600000000000E10   -1.341754813494598E-3   3.150023548737353E-3  
 2.039800000000000E10   -7.447682063808136E-4   3.412063909050676E-3  
 2.040000000000000E10   -5.893109446782389E-5   3.473089683088072E-3  
 2.040200000000000E10    5.367746947471191E-4   3.376220580029452E-3  
 2.040400000000000E10    1.075855148726224E-3   3.221779254000680E-3  
 2.040600000000000E10    1.611454120584200E-3   2.995819422519870E-3  
 2.040800000000000E10    2.105954620573256E-3   2.664255047285999E-3  
 2.041000000000000E10    2.530138836138778E-3   2.228848739630647E-3  
 2.041200000000000E10    2.823369091744592E-3   1.746484235124548E-3  
 2.041400000000000E10    3.019693298955207E-3   1.265669685650479E-3  
 2.041600000000000E10    3.190220796422643E-3   7.229284368984310E-4  
 2.041800000000000E10    3.235745781250759E-3   1.105024915168430E-4  
 2.042000000000000E10    3.132977853471667E-3  -4.344944806947707E-4  
 2.042200000000000E10    2.958679655106900E-3  -9.217798166597884E-4  
 2.042400000000000E10    2.709113696682049E-3  -1.344042158984568E-3  
 2.042600000000000E10    2.424617671626218E-3  -1.710495697391898E-3  
 2.042800000000000E10    2.096828461314241E-3  -2.028772253888073E-3  
 2.043000000000000E10    1.779608207145407E-3  -2.268234233337421E-3  
 2.043200000000000E10    1.492748774277668E-3  -2.489059893299401E-3  
 2.043400000000000E10    1.140908625574760E-3  -2.704272765298317E-3  
 2.043600000000000E10    7.564034226729916E-4  -2.909761807524864E-3  
 2.043800000000000E10    2.992511730508902E-4  -3.129181937877964E-3  
 2.044000000000000E10   -2.934998677422603E-4  -3.271770094417864E-3  
 2.044200000000000E10   -9.804407241006878E-4  -3.252976717726317E-3  
 2.044400000000000E10   -1.701438878547906E-3  -2.992941546656283E-3  
 2.044600000000000E10   -2.275937231096589E-3  -2.464775910118112E-3  
 2.044800000000000E10   -2.563616976624838E-3  -1.851063526384993E-3  
 2.045000000000000E10   -2.667233155304451E-3  -1.367832715105679E-3  
 2.045200000000000E10   -2.731365045348620E-3  -9.691936314611893E-4  
 2.045400000000000E10   -2.795231338866331E-3  -5.696772340466671E-4  
 2.045600000000000E10   -2.864097262284270E-3  -1.707244181163311E-4  
 2.045800000000000E10   -2.921889510212673E-3   2.746307665779849E-4  
 2.046000000000000E10   -2.880601611931199E-3   7.952273604862485E-4  
 2.046200000000000E10   -2.699881766198410E-3   1.305939059095158E-3  
 2.046400000000000E10   -2.409431269898275E-3   1.763809354469916E-3  
 2.046600000000000E10   -2.041986926435781E-3   2.141255071892599E-3  
 2.046800000000000E10   -1.632328894000823E-3   2.439310777081568E-3  
 2.047000000000000E10   -1.179237745092883E-3   2.667734890969263E-3  
 2.047200000000000E10   -6.619319955697630E-4   2.759043546968405E-3  
 2.047400000000000E10   -1.844932761023190E-4   2.746625872397865E-3  
 2.047600000000000E10    2.128361486456139E-4   2.706306526598371E-3  
 2.047800000000000E10    6.150486785631030E-4   2.639941063445108E-3  
 2.048000000000000E10    9.956997071887241E-4   2.514251045031864E-3  
 2.048200000000000E10    1.399892084817920E-3   2.356269534815241E-3  
 2.048400000000000E10    1.807049638304262E-3   2.086153749755963E-3  
 2.048600000000000E10    2.114325422609662E-3   1.716695780532412E-3  
 2.048800000000000E10    2.301721652555797E-3   1.307910342735273E-3  
 2.049000000000000E10    2.374007547688154E-3   9.542891474003778E-4  
 2.049200000000000E10    2.450476299948347E-3   6.550080574083109E-4  
 2.049400000000000E10    2.591815087254401E-3   3.310012258158101E-4  
 2.049600000000000E10    2.715474115339695E-3  -5.224834513896504E-5  
 2.049800000000000E10    2.782404474500153E-3  -4.780301903259516E-4  
 2.050000000000000E10    2.808496103058627E-3  -9.845991994047332E-4  
 2.050200000000000E10    2.715472810338309E-3  -1.591141145952322E-3  
 2.050400000000000E10    2.405401531974843E-3  -2.214122626838493E-3  
 2.050600000000000E10    1.882322342422458E-3  -2.752985627057008E-3  
 2.050800000000000E10    1.174312115095004E-3  -3.081297777869084E-3  
 2.051000000000000E10    4.240670931284075E-4  -3.121029467747352E-3  
 2.051200000000000E10   -2.306614092329839E-4  -2.936922907714307E-3  
 2.051400000000000E10   -6.641155751249581E-4  -2.655413401324624E-3  
 2.051600000000000E10   -9.450572427868109E-4  -2.427503150416377E-3  
 2.051800000000000E10   -1.223177660578563E-3  -2.258895312861344E-3  
 2.052000000000000E10   -1.551661867487394E-3  -2.054403711363306E-3  
 2.052200000000000E10   -1.819263147707615E-3  -1.752026899384312E-3  
 2.052400000000000E10   -1.994033657405296E-3  -1.449199420698907E-3  
 2.052600000000000E10   -2.112933172970827E-3  -1.212916447620057E-3  
 2.052800000000000E10   -2.289077758582102E-3  -1.022370753487871E-3  
 2.053000000000000E10   -2.555424675207447E-3  -6.790982493210907E-4  
 2.053200000000000E10   -2.742541039845458E-3  -2.140219092656661E-4  
 2.053400000000000E10   -2.828624389812719E-3   2.807726757313459E-4  
 2.053600000000000E10   -2.829634664971152E-3   8.328361091790378E-4  
 2.053800000000000E10   -2.656206942772792E-3   1.455110977806243E-3  
 2.054000000000000E10   -2.281678893695367E-3   1.986311734251586E-3  
 2.054200000000000E10   -1.781327319388956E-3   2.354122091797583E-3  
 2.054400000000000E10   -1.247046853093730E-3   2.566067720360962E-3  
 2.054600000000000E10   -7.438473496873530E-4   2.624625630423795E-3  
 2.054800000000000E10   -2.635008275342163E-4   2.577115813224220E-3  
 2.055000000000000E10    1.470476699192480E-4   2.429543373485406E-3  
 2.055200000000000E10    3.914762114786923E-4   2.285187533642683E-3  
 2.055400000000000E10    5.966146357277018E-4   2.245473502962678E-3  
 2.055600000000000E10    8.994957013918019E-4   2.232054383551449E-3  
