#  HZ   S   RI   R     50.00 
! Rohde & Schwarz ZVA40 4Ports - Version 3.90 - 1145.1110k42 SN: 100403
! Date: 2023-10-03 12:04:26
! Measurement: S12 
! 
 2.000000000000000E10   -1.842139372142193E-3  -3.400459506169514E-3  
 2.000200000000000E10   -2.344525278327458E-3  -3.102591810288069E-3  
 2.000400000000000E10   -2.820811280405816E-3  -2.662582024012083E-3  
 2.000600000000000E10   -3.188618789369494E-3  -2.157313335273001E-3  
 2.000800000000000E10   -3.442817942503795E-3  -1.659737192784195E-3  
 2.001000000000000E10   -3.677436998573903E-3  -1.195702053618008E-3  
 2.001200000000000E10   -3.953776425785489E-3  -6.421376838935195E-4  
 2.001400000000000E10   -4.157127950478484E-3   1.031223416506646E-4  
 2.001600000000000E10   -4.120434979321781E-3   9.520382197849731E-4  
 2.001800000000000E10   -3.865766543090160E-3   1.691261339461270E-3  
 2.002000000000000E10   -3.497188902218586E-3   2.324109057677381E-3  
 2.002200000000000E10   -2.995831564206769E-3   2.929076218954576E-3  
 2.002400000000000E10   -2.403711920236180E-3   3.457088057917578E-3  
 2.002600000000000E10   -1.691387832613179E-3   3.800866886812412E-3  
 2.002800000000000E10   -9.924485915869382E-4   3.937653027313912E-3  
 2.003000000000000E10   -3.239608112504177E-4   3.935695125686902E-3  
 2.003200000000000E10    2.954142878872607E-4   3.854915330094504E-3  
 2.003400000000000E10    8.773110630163166E-4   3.731710888031457E-3  
 2.003600000000000E10    1.447634685232684E-3   3.536430394483938E-3  
 2.003800000000000E10    1.943336816987506E-3   3.252909464163730E-3  
 2.004000000000000E10    2.387104357627255E-3   2.936080675917092E-3  
 2.004200000000000E10    2.846455146892020E-3   2.543328315548507E-3  
 2.004400000000000E10    3.239595394489574E-3   2.083657527871338E-3  
 2.004600000000000E10    3.556733922228034E-3   1.558484302626716E-3  
 2.004800000000000E10    3.789061864401088E-3   1.020764952876180E-3  
 2.005000000000000E10    3.983213914052389E-3   3.826076935194893E-4  
 2.005200000000000E10    4.011026451387156E-3  -3.490717804927471E-4  
 2.005400000000000E10    3.911906146202927E-3  -1.002516558704277E-3  
 2.005600000000000E10    3.754933525658684E-3  -1.664318967852052E-3  
 2.005800000000000E10    3.476868363465241E-3  -2.333552119563575E-3  
 2.006000000000000E10    2.994825508744445E-3  -2.995329388750741E-3  
 2.006200000000000E10    2.322003673647106E-3  -3.516414849501518E-3  
 2.006400000000000E10    1.564955735510147E-3  -3.799462949650155E-3  
 2.006600000000000E10    8.763016947476126E-4  -3.861616624312269E-3  
 2.006800000000000E10    3.086272014497585E-4  -3.808944437215910E-3  
 2.007000000000000E10   -2.241336790766469E-4  -3.774601963268203E-3  
 2.007200000000000E10   -7.872147022826991E-4  -3.723535439528433E-3  
 2.007400000000000E10   -1.359961893880901E-3  -3.605469992315328E-3  
 2.007600000000000E10   -1.953778434889736E-3  -3.409504640364537E-3  
 2.007800000000000E10   -2.536955528122224E-3  -3.057276226442170E-3  
 2.008000000000000E10   -3.007244623415633E-3  -2.563263634564700E-3  
 2.008200000000000E10   -3.361613164874324E-3  -2.047004077560556E-3  
 2.008400000000000E10   -3.703683976911837E-3  -1.564425938003869E-3  
 2.008600000000000E10   -4.024726240953179E-3  -9.451798209345637E-4  
 2.008800000000000E10   -4.153969358468866E-3  -1.798983822134036E-4  
 2.009000000000000E10   -4.099507574681883E-3   5.695201351629272E-4  
 2.009200000000000E10   -3.966797884829619E-3   1.259217199719983E-3  
 2.009400000000000E10   -3.758250798938084E-3   1.966633316543368E-3  
 2.009600000000000E10   -3.347197978722829E-3   2.718458837473099E-3  
 2.009800000000000E10   -2.675797011312328E-3   3.290499132241548E-3  
 2.010000000000000E10   -1.977056609811606E-3   3.608188747117918E-3  
 2.010200000000000E10   -1.309593751405676E-3   3.825432649687117E-3  
 2.010400000000000E10   -6.663361787048664E-4   3.913735223497138E-3  
 2.010600000000000E10   -6.885907400211170E-5   3.894220876656933E-3  
 2.010800000000000E10    5.049358350569728E-4   3.822864774890520E-3  
 2.011000000000000E10    1.094460730256950E-3   3.733861720028484E-3  
 2.011200000000000E10    1.709671153537469E-3   3.577767865571344E-3  
 2.011400000000000E10    2.340684368930482E-3   3.326525112591041E-3  
 2.011600000000000E10    2.989913345556016E-3   2.887775011958532E-3  
 2.011800000000000E10    3.497523554589278E-3   2.226071251142357E-3  
 2.012000000000000E10    3.765451422904009E-3   1.530650987312842E-3  
 2.012200000000000E10    3.917488269507885E-3   9.120015893131497E-4  
 2.012400000000000E10    4.086312579198017E-3   2.970596296456930E-4  
 2.012600000000000E10    4.159965770848004E-3  -4.511096889877486E-4  
 2.012800000000000E10    3.989355264944428E-3  -1.287447383489322E-3  
 2.013000000000000E10    3.606029484352028E-3  -2.004377604289740E-3  
 2.013200000000000E10    3.139725708069257E-3  -2.555365593713007E-3  
 2.013400000000000E10    2.696773790420942E-3  -3.022723839859721E-3  
 2.013600000000000E10    2.130128187414857E-3  -3.501217740438419E-3  
 2.013800000000000E10    1.392962375115373E-3  -3.865953609577300E-3  
 2.014000000000000E10    5.827196212600412E-4  -3.983058466541547E-3  
 2.014200000000000E10   -1.134852743380629E-4  -3.873828430602581E-3  
 2.014400000000000E10   -6.394752388946529E-4  -3.712723977334890E-3  
 2.014600000000000E10   -1.196528490299336E-3  -3.589101259332197E-3  
 2.014800000000000E10   -1.805627303209478E-3  -3.352608137913509E-3  
 2.015000000000000E10   -2.349605436011413E-3  -2.987850810987531E-3  
 2.015200000000000E10   -2.816201564223494E-3  -2.584585810747044E-3  
 2.015400000000000E10   -3.264790386490432E-3  -2.096806077953475E-3  
 2.015600000000000E10   -3.622249720250200E-3  -1.484978106160315E-3  
 2.015800000000000E10   -3.854820200092631E-3  -7.859675291304787E-4  
 2.016000000000000E10   -3.927122738304331E-3  -3.142788791367900E-5  
 2.016200000000000E10   -3.811725237073354E-3   6.641154213417552E-4  
 2.016400000000000E10   -3.578647534236497E-3   1.292367320634241E-3  
 2.016600000000000E10   -3.262625938212431E-3   1.873231947100089E-3  
 2.016800000000000E10   -2.875333321338267E-3   2.403653353268718E-3  
 2.017000000000000E10   -2.410507266536172E-3   2.867324769289957E-3  
 2.017200000000000E10   -1.821875514715543E-3   3.243412126867492E-3  
 2.017400000000000E10   -1.170916196798193E-3   3.435287423385883E-3  
 2.017600000000000E10   -5.644109070640242E-4   3.459508973461243E-3  
 2.017800000000000E10   -8.556701159025662E-5   3.410665447720224E-3  
 2.018000000000000E10    3.590352062917786E-4   3.413959423562995E-3  
 2.018200000000000E10    8.778267735500397E-4   3.406398004081883E-3  
 2.018400000000000E10    1.456570230930308E-3   3.281512579386250E-3  
 2.018600000000000E10    2.041478744811482E-3   3.019357137497009E-3  
 2.018800000000000E10    2.579116552815210E-3   2.657990031703203E-3  
 2.019000000000000E10    3.073192537865706E-3   2.212582455005175E-3  
 2.019200000000000E10    3.477783954161921E-3   1.618926294067484E-3  
 2.019400000000000E10    3.756550379258432E-3   9.485843589954815E-4  
 2.019600000000000E10    3.917710861352124E-3   2.154876193445590E-4  
 2.019800000000000E10    3.866873284870829E-3  -5.675534240579532E-4  
 2.020000000000000E10    3.619023414765612E-3  -1.280728213052139E-3  
 2.020200000000000E10    3.196360523249081E-3  -1.860987225455451E-3  
 2.020400000000000E10    2.745238477709117E-3  -2.286410335750308E-3  
 2.020600000000000E10    2.328172642277715E-3  -2.638946615021538E-3  
 2.020800000000000E10    1.842263531238761E-3  -2.953901136707929E-3  
 2.021000000000000E10    1.349785549129233E-3  -3.126380545443591E-3  
 2.021200000000000E10    9.635209779967959E-4  -3.278938472776870E-3  
 2.021400000000000E10    4.929796315407680E-4  -3.548039244142948E-3  
 2.021600000000000E10   -1.849814284525317E-4  -3.728231639359837E-3  
 2.021800000000000E10   -9.138480484209681E-4  -3.649282228937488E-3  
 2.022000000000000E10   -1.516891334401329E-3  -3.399098754779977E-3  
 2.022200000000000E10   -2.052890861199962E-3  -3.104144575097311E-3  
 2.022400000000000E10   -2.607725879729346E-3  -2.752614175946809E-3  
 2.022600000000000E10   -3.152567453475462E-3  -2.234686758185243E-3  
 2.022800000000000E10   -3.537134014437965E-3  -1.556329207816794E-3  
 2.023000000000000E10   -3.704597863058250E-3  -8.485569556841605E-4  
 2.023200000000000E10   -3.743906482410284E-3  -1.843456945304449E-4  
 2.023400000000000E10   -3.694029386948657E-3   4.698381095227821E-4  
 2.023600000000000E10   -3.524150776987275E-3   1.060024245906575E-3  
 2.023800000000000E10   -3.316178271133039E-3   1.600120527048906E-3  
 2.024000000000000E10   -3.021946504574132E-3   2.142710616973079E-3  
 2.024200000000000E10   -2.564769364709472E-3   2.648788351956526E-3  
 2.024400000000000E10   -2.040221042540155E-3   3.002891452109189E-3  
 2.024600000000000E10   -1.550137075411593E-3   3.288614968941720E-3  
 2.024800000000000E10   -9.831640514384175E-4   3.537149180048778E-3  
 2.025000000000000E10   -3.459388361438926E-4   3.661879326826261E-3  
 2.025200000000000E10    2.865182644727836E-4   3.677319238008357E-3  
 2.025400000000000E10    9.150718005351080E-4   3.602071248431817E-3  
 2.025600000000000E10    1.558488170202408E-3   3.404735998583981E-3  
 2.025800000000000E10    2.135755893785829E-3   3.032942785433045E-3  
 2.026000000000000E10    2.571272686767726E-3   2.541609536741435E-3  
 2.026200000000000E10    2.871865170927328E-3   2.058291786212336E-3  
 2.026400000000000E10    3.123803481022701E-3   1.598949410469720E-3  
 2.026600000000000E10    3.372206979281741E-3   1.100238699345263E-3  
 2.026800000000000E10    3.542581153458652E-3   5.338462680451756E-4  
 2.027000000000000E10    3.594029643055466E-3  -1.172429674400597E-4  
 2.027200000000000E10    3.455129538283305E-3  -7.283443198424340E-4  
 2.027400000000000E10    3.272959534193815E-3  -1.209610565795483E-3  
 2.027600000000000E10    3.085790385986552E-3  -1.677945858430992E-3  
 2.027800000000000E10    2.830846456488894E-3  -2.102862633937211E-3  
 2.028000000000000E10    2.555102776782013E-3  -2.566925554685755E-3  
 2.028200000000000E10    2.140443901427918E-3  -3.070614248928098E-3  
 2.028400000000000E10    1.573010389463126E-3  -3.485589788329822E-3  
 2.028600000000000E10    9.086306270119955E-4  -3.757026060886774E-3  
 2.028800000000000E10    2.077060469920621E-4  -3.869251491800871E-3  
 2.029000000000000E10   -4.654137926452139E-4  -3.861971682420484E-3  
 2.029200000000000E10   -1.162958121571092E-3  -3.767091815394385E-3  
 2.029400000000000E10   -1.884090777394581E-3  -3.501105858128012E-3  
 2.029600000000000E10   -2.484773538638780E-3  -3.030545736467581E-3  
 2.029800000000000E10   -2.880307026552382E-3  -2.466190341906048E-3  
 2.030000000000000E10   -3.170196881034860E-3  -1.974663087799226E-3  
 2.030200000000000E10   -3.479185971189981E-3  -1.464707653302654E-3  
 2.030400000000000E10   -3.701233727581524E-3  -7.935313193162009E-4  
 2.030600000000000E10   -3.679158370137031E-3  -9.139082945177599E-5  
 2.030800000000000E10   -3.532545166780000E-3   4.584720145543049E-4  
 2.031000000000000E10   -3.371465933957586E-3   9.407803508234614E-4  
 2.031200000000000E10   -3.211890137466936E-3   1.378736317870610E-3  
 2.031400000000000E10   -3.058535058373287E-3   1.859443263656656E-3  
 2.031600000000000E10   -2.790054950265237E-3   2.395549383773296E-3  
 2.031800000000000E10   -2.339923190941781E-3   2.878352536900360E-3  
 2.032000000000000E10   -1.838900899100635E-3   3.218112030514965E-3  
 2.032200000000000E10   -1.313151806064042E-3   3.526414025942853E-3  
 2.032400000000000E10   -7.006392949318261E-4   3.738951886555663E-3  
 2.032600000000000E10   -6.105974736985645E-5   3.861494856760090E-3  
 2.032800000000000E10    6.705979762000987E-4   3.874055052429070E-3  
 2.033000000000000E10    1.400478664256724E-3   3.673324114240614E-3  
 2.033200000000000E10    2.033077677665853E-3   3.342227840704131E-3  
 2.033400000000000E10    2.608938044925899E-3   2.904484646371854E-3  
 2.033600000000000E10    2.833665512433207E-3   2.555838225547362E-3  
 2.033800000000000E10    3.318381490024888E-3   1.589079493840720E-3  
 2.034000000000000E10    3.417190164327622E-3   9.725177258161116E-4  
 2.034200000000000E10    3.407624386319960E-3   4.119624385184804E-4  
 2.034400000000000E10    3.314255820127365E-3  -8.887390230270681E-5  
 2.034600000000000E10    3.203152589798894E-3  -4.956233979886927E-4  
 2.034800000000000E10    3.144872840493918E-3  -8.537036346639565E-4  
 2.035000000000000E10    3.134309805722700E-3  -1.303405697848418E-3  
 2.035200000000000E10    2.989837186939923E-3  -1.878774132763530E-3  
 2.035400000000000E10    2.652045330722575E-3  -2.420817044805046E-3  
 2.035600000000000E10    2.195523497016158E-3  -2.889211473549590E-3  
 2.035800000000000E10    1.655124479985256E-3  -3.285091606049259E-3  
 2.036000000000000E10    1.021546740688522E-3  -3.561360609177271E-3  
 2.036200000000000E10    3.296530952484543E-4  -3.703799069985564E-3  
 2.036400000000000E10   -4.195799342540588E-4  -3.669518595101473E-3  
 2.036600000000000E10   -1.080862834279276E-3  -3.413392173379292E-3  
 2.036800000000000E10   -1.571594474457756E-3  -3.053796333893214E-3  
 2.037000000000000E10   -1.929633829593199E-3  -2.707868233829001E-3  
 2.037200000000000E10   -2.237489510235596E-3  -2.380287217229237E-3  
 2.037400000000000E10   -2.533506311729183E-3  -2.029027361537756E-3  
 2.037600000000000E10   -2.839582900367218E-3  -1.678888608391087E-3  
 2.037800000000000E10   -3.165231365135607E-3  -1.223320775251422E-3  
 2.038000000000000E10   -3.385758930012400E-3  -6.430389806570740E-4  
 2.038200000000000E10   -3.447407905449286E-3  -2.163841283483502E-5  
 2.038400000000000E10   -3.400422129665077E-3   5.683830707839887E-4  
 2.038600000000000E10   -3.268471079660051E-3   1.157086609897239E-3  
 2.038800000000000E10   -2.997617915640643E-3   1.736940245466008E-3  
 2.039000000000000E10   -2.597790475888753E-3   2.191565292714923E-3  
 2.039200000000000E10   -2.124662965214179E-3   2.495847038786721E-3  
 2.039400000000000E10   -1.710311031072504E-3   2.702363758106475E-3  
 2.039600000000000E10   -1.356756669630147E-3   2.951824695538776E-3  
 2.039800000000000E10   -8.567527890849262E-4   3.237832228388684E-3  
 2.040000000000000E10   -2.452626665924779E-4   3.380875407867594E-3  
 2.040200000000000E10    3.559230036320694E-4   3.373620111817196E-3  
 2.040400000000000E10    9.555408420662086E-4   3.264367295843032E-3  
 2.040600000000000E10    1.537670972067173E-3   3.024307757983974E-3  
 2.040800000000000E10    2.008547592494223E-3   2.694397009219285E-3  
 2.041000000000000E10    2.396280109813368E-3   2.309721265057171E-3  
 2.041200000000000E10    2.733073185807393E-3   1.862024132415285E-3  
 2.041400000000000E10    3.002079617646006E-3   1.368192846622364E-3  
 2.041600000000000E10    3.191821892274383E-3   7.962115629242712E-4  
 2.041800000000000E10    3.254811679024572E-3   1.718090261644569E-4  
 2.042000000000000E10    3.149065502378860E-3  -4.119701212111079E-4  
 2.042200000000000E10    2.933580267392559E-3  -9.173386411189483E-4  
 2.042400000000000E10    2.652237919032758E-3  -1.336613704484922E-3  
 2.042600000000000E10    2.378931841065671E-3  -1.670954194218840E-3  
 2.042800000000000E10    2.091474829667053E-3  -1.958444816589264E-3  
 2.043000000000000E10    1.785786704585692E-3  -2.187748258519504E-3  
 2.043200000000000E10    1.495287627165700E-3  -2.433296698318036E-3  
 2.043400000000000E10    1.119767493901798E-3  -2.673079558636672E-3  
 2.043600000000000E10    7.072771909462725E-4  -2.848740922930985E-3  
 2.043800000000000E10    2.590710675217395E-4  -3.029216888625130E-3  
 2.044000000000000E10   -3.141352923351260E-4  -3.140459725357317E-3  
 2.044200000000000E10   -9.764187263589309E-4  -3.077808201290024E-3  
 2.044400000000000E10   -1.638469984754920E-3  -2.786963143282467E-3  
 2.044600000000000E10   -2.128644426709708E-3  -2.284816868695212E-3  
 2.044800000000000E10   -2.346057804117417E-3  -1.723572792899278E-3  
 2.045000000000000E10   -2.409325225600674E-3  -1.273572771166118E-3  
 2.045200000000000E10   -2.450824143181061E-3  -9.357569319552478E-4  
 2.045400000000000E10   -2.494838675139127E-3  -6.142388792122128E-4  
 2.045600000000000E10   -2.567902785139504E-3  -3.264261406765860E-4  
 2.045800000000000E10   -2.690482286759365E-3   4.509648228407307E-5  
 2.046000000000000E10   -2.718777096841807E-3   5.359089894530674E-4  
 2.046200000000000E10   -2.606333747943059E-3   1.029187615064008E-3  
 2.046400000000000E10   -2.404358419072297E-3   1.508486822224510E-3  
 2.046600000000000E10   -2.075139778079810E-3   1.934257377640425E-3  
 2.046800000000000E10   -1.643211494579360E-3   2.221611187574856E-3  
 2.047000000000000E10   -1.205761171015049E-3   2.407817736291040E-3  
 2.047200000000000E10   -7.948113230264022E-4   2.491600110115093E-3  
 2.047400000000000E10   -4.339111317811465E-4   2.521889879264765E-3  
 2.047600000000000E10   -9.852437515179684E-5   2.542535348990817E-3  
 2.047800000000000E10    2.486050020875324E-4   2.582553963832282E-3  
 2.048000000000000E10    6.602211976797540E-4   2.585194269080222E-3  
 2.048200000000000E10    1.128721436813336E-3   2.494520964790826E-3  
 2.048400000000000E10    1.574845431246048E-3   2.272967473362331E-3  
 2.048600000000000E10    1.943027058811744E-3   1.962760098301518E-3  
 2.048800000000000E10    2.234467716289708E-3   1.575080689364745E-3  
 2.049000000000000E10    2.420756474344267E-3   1.171833323889677E-3  
 2.049200000000000E10    2.542039827892074E-3   8.159478663547356E-4  
 2.049400000000000E10    2.660474518635943E-3   4.660112008647879E-4  
 2.049600000000000E10    2.771916448564074E-3   8.809267159516888E-5  
 2.049800000000000E10    2.875422254020786E-3  -3.271611792935105E-4  
 2.050000000000000E10    2.955291489208187E-3  -8.429696174039518E-4  
 2.050200000000000E10    2.902615910258006E-3  -1.502491267869410E-3  
 2.050400000000000E10    2.605177554083459E-3  -2.188473796173011E-3  
 2.050600000000000E10    2.061176300623719E-3  -2.759706295083887E-3  
 2.050800000000000E10    1.331469606044760E-3  -3.130046803113303E-3  
 2.051000000000000E10    5.764040965184477E-4  -3.214086224842403E-3  
 2.051200000000000E10   -6.130018435349623E-5  -3.063496164862573E-3  
 2.051400000000000E10   -5.116112717789495E-4  -2.812446370996811E-3  
 2.051600000000000E10   -8.228861893538709E-4  -2.633929626303323E-3  
 2.051800000000000E10   -1.156219544268593E-3  -2.512405623601359E-3  
 2.052000000000000E10   -1.565740147697521E-3  -2.328729834752503E-3  
 2.052200000000000E10   -1.917669848527438E-3  -2.004158309442394E-3  
 2.052400000000000E10   -2.124688018941217E-3  -1.665868092167341E-3  
 2.052600000000000E10   -2.267185063963687E-3  -1.374539076983009E-3  
 2.052800000000000E10   -2.475116453650925E-3  -1.150438176858940E-3  
 2.053000000000000E10   -2.771872156127184E-3  -8.293231223410940E-4  
 2.053200000000000E10   -3.009594887793985E-3  -3.262292294594874E-4  
 2.053400000000000E10   -3.137804096403682E-3   2.468097840010384E-4  
 2.053600000000000E10   -3.115704961489013E-3   9.025054528193986E-4  
 2.053800000000000E10   -2.892282067073716E-3   1.546277476325172E-3  
 2.054000000000000E10   -2.486502372280315E-3   2.088030837591232E-3  
 2.054200000000000E10   -2.023311947000984E-3   2.458481534878597E-3  
 2.054400000000000E10   -1.509541785057036E-3   2.721082654862125E-3  
 2.054600000000000E10   -9.624072750110504E-4   2.879992199279828E-3  
 2.054800000000000E10   -4.195296755319255E-4   2.900796341652304E-3  
 2.055000000000000E10    4.835520322266360E-5   2.788324900730341E-3  
 2.055200000000000E10    3.702334677340624E-4   2.650471889977286E-3  
 2.055400000000000E10    6.562635973728275E-4   2.612779747671736E-3  
 2.055600000000000E10    1.034854978817389E-3   2.589685189894136E-3  
