#  HZ   S   RI   R     50.00 
! Rohde & Schwarz ZVA40 4Ports - Version 3.90 - 1145.1110k42 SN: 100403
! Date: 2023-10-03 12:07:20
! Measurement: S12 
! 
 2.000000000000000E10   -2.755526491926975E-5  -4.295816739883137E-4  
 2.000200000000000E10    6.596266058733346E-6  -1.220461404214061E-4  
 2.000400000000000E10    2.865049916888691E-4   5.021730477757821E-5  
 2.000600000000000E10    6.403934245032294E-4  -1.963153337985406E-5  
 2.000800000000000E10    9.469759210737216E-4  -3.737767574084164E-4  
 2.001000000000000E10    9.537743322585745E-4  -9.606835622064494E-4  
 2.001200000000000E10    5.300553381891439E-4  -1.468870590475423E-3  
 2.001400000000000E10   -1.037110080317318E-4  -1.590750766573129E-3  
 2.001600000000000E10   -6.097477485632731E-4  -1.382058024992821E-3  
 2.001800000000000E10   -8.969365951122234E-4  -1.021564114597385E-3  
 2.002000000000000E10   -9.399031448453942E-4  -6.687671692041612E-4  
 2.002200000000000E10   -8.408510992820894E-4  -4.687265878870946E-4  
 2.002400000000000E10   -7.581151914092955E-4  -4.423034401110339E-4  
 2.002600000000000E10   -7.898592351314924E-4  -5.444787114996601E-4  
 2.002800000000000E10   -1.066582549052934E-3  -6.093966615110361E-4  
 2.003000000000000E10   -1.438286910006018E-3  -4.253214628314945E-4  
 2.003200000000000E10   -1.724004870522078E-3  -1.938787601021533E-5  
 2.003400000000000E10   -1.794099096312291E-3   5.636955288031864E-4  
 2.003600000000000E10   -1.547438467645811E-3   1.142109205290951E-3  
 2.003800000000000E10   -1.075993292033672E-3   1.508649399814507E-3  
 2.004000000000000E10   -5.338951984109979E-4   1.599960386994536E-3  
 2.004200000000000E10   -1.253436504932190E-4   1.415982665666552E-3  
 2.004400000000000E10    7.884441705148976E-6   1.214073203435099E-3  
 2.004600000000000E10    3.276055617283823E-5   1.150107899404786E-3  
 2.004800000000000E10    7.709104425480797E-5   1.254655136209395E-3  
 2.005000000000000E10    3.436051936457969E-4   1.392091361426369E-3  
 2.005200000000000E10    6.890380237665442E-4   1.341375371406752E-3  
 2.005400000000000E10    1.011695031559578E-3   1.191709958085859E-3  
 2.005600000000000E10    1.305511997391780E-3   9.090107223191472E-4  
 2.005800000000000E10    1.452707827815579E-3   5.059558380809096E-4  
 2.006000000000000E10    1.408129279432749E-3   9.454741720455113E-5  
 2.006200000000000E10    1.201541723545503E-3  -1.774607328654923E-4  
 2.006400000000000E10    1.003110423442666E-3  -2.641338063835132E-4  
 2.006600000000000E10    9.130227888278939E-4  -2.712469517805235E-4  
 2.006800000000000E10    9.087714284692927E-4  -3.035403712635378E-4  
 2.007000000000000E10    9.355936673711297E-4  -4.528363028334247E-4  
 2.007200000000000E10    8.352210818513954E-4  -6.458710219400625E-4  
 2.007400000000000E10    6.468918528062879E-4  -7.603249029704819E-4  
 2.007600000000000E10    4.722986131026928E-4  -7.473589416972743E-4  
 2.007800000000000E10    4.028981536437102E-4  -6.781274978830308E-4  
 2.008000000000000E10    4.261343780887762E-4  -6.537766420040970E-4  
 2.008200000000000E10    5.293237217874440E-4  -7.428707990415947E-4  
 2.008400000000000E10    5.064930602977123E-4  -1.025224126082052E-3  
 2.008600000000000E10    2.506107805486493E-4  -1.252309225189189E-3  
 2.008800000000000E10   -5.403824181687218E-5  -1.290715743649613E-3  
 2.009000000000000E10   -2.834297720929264E-4  -1.258210296294204E-3  
 2.009200000000000E10   -5.318216388803666E-4  -1.230154143370412E-3  
 2.009400000000000E10   -8.031186923660615E-4  -1.078310724416817E-3  
 2.009600000000000E10   -9.423865596073922E-4  -8.102626500961684E-4  
 2.009800000000000E10   -9.042720301766640E-4  -6.335322050964116E-4  
 2.010000000000000E10   -8.839750878029953E-4  -6.283163416406347E-4  
 2.010200000000000E10   -1.020913452116980E-3  -7.048512558901200E-4  
 2.010400000000000E10   -1.352473045699298E-3  -6.700910614906915E-4  
 2.010600000000000E10   -1.713546674215684E-3  -3.929112000925536E-4  
 2.010800000000000E10   -1.960862531430192E-3   8.559332652819448E-5  
 2.011000000000000E10   -2.023698098060710E-3   7.308071944862604E-4  
 2.011200000000000E10   -1.697684901214584E-3   1.429016982136225E-3  
 2.011400000000000E10   -1.056981406657508E-3   1.821628827774139E-3  
 2.011600000000000E10   -3.792910687884110E-4   1.859570271335543E-3  
 2.011800000000000E10    1.617826745603924E-4   1.582222900146412E-3  
 2.012000000000000E10    3.382209871671404E-4   1.153128566565337E-3  
 2.012200000000000E10    2.276792785980636E-4   9.501689497415943E-4  
 2.012400000000000E10    2.062580369292172E-4   1.006298571290380E-3  
 2.012600000000000E10    3.277672114092167E-4   1.065652696760716E-3  
 2.012800000000000E10    5.136430673128754E-4   1.090703980514297E-3  
 2.013000000000000E10    7.860837051541443E-4   1.077998317433176E-3  
 2.013200000000000E10    1.141336561111665E-3   9.007839899924067E-4  
 2.013400000000000E10    1.434882158517010E-3   4.706415433988528E-4  
 2.013600000000000E10    1.407374075993344E-3  -1.308741473756662E-4  
 2.013800000000000E10    9.906836828492858E-4  -5.863728885607864E-4  
 2.014000000000000E10    4.293934174778838E-4  -6.181640265923408E-4  
 2.014200000000000E10    7.391793419460387E-5  -2.812496300234839E-4  
 2.014400000000000E10    1.338866945675195E-4   1.408788221952920E-4  
 2.014600000000000E10    4.635742850411960E-4   2.884033138225614E-4  
 2.014800000000000E10    7.524678108489349E-4   1.619318198343670E-4  
 2.015000000000000E10    8.959774794574414E-4  -8.567321074898011E-5  
 2.015200000000000E10    9.076811838895084E-4  -3.762843035575417E-4  
 2.015400000000000E10    7.637871205116865E-4  -6.371785313132462E-4  
 2.015600000000000E10    5.073053503615989E-4  -7.771699240914099E-4  
 2.015800000000000E10    2.702394450790491E-4  -7.309369458299545E-4  
 2.016000000000000E10    2.059329913377210E-4  -5.856764985731355E-4  
 2.016200000000000E10    3.006850968597940E-4  -5.618978024425883E-4  
 2.016400000000000E10    3.444895275471801E-4  -7.108371420246032E-4  
 2.016600000000000E10    2.459885942732433E-4  -9.071356250421594E-4  
 2.016800000000000E10    2.887588221643388E-5  -1.027022945453172E-3  
 2.017000000000000E10   -1.850440468708123E-4  -1.047033838134397E-3  
 2.017200000000000E10   -3.758356755564887E-4  -1.049545839325422E-3  
 2.017400000000000E10   -5.912738830644500E-4  -1.034600617088102E-3  
 2.017600000000000E10   -8.697478096345786E-4  -9.673392158691532E-4  
 2.017800000000000E10   -1.154982105449394E-3  -7.724810124340434E-4  
 2.018000000000000E10   -1.343162402648617E-3  -4.827051619671423E-4  
 2.018200000000000E10   -1.472611445933581E-3  -1.795343813244944E-4  
 2.018400000000000E10   -1.550032088912472E-3   2.166680663962055E-4  
 2.018600000000000E10   -1.466940187297210E-3   7.105066863544010E-4  
 2.018800000000000E10   -1.130584222092121E-3   1.123420212900749E-3  
 2.019000000000000E10   -6.796729867346585E-4   1.342144695593527E-3  
 2.019200000000000E10   -2.090729437811576E-4   1.356552307562972E-3  
 2.019400000000000E10    1.825006280948098E-4   1.183958327466691E-3  
 2.019600000000000E10    4.528023645333532E-4   9.242657925588667E-4  
 2.019800000000000E10    5.801925909946915E-4   5.725605857420576E-4  
 2.020000000000000E10    4.744479051118510E-4   2.604229720654311E-4  
 2.020200000000000E10    2.248083441776948E-4   1.449814821912528E-4  
 2.020400000000000E10    6.999605533632416E-5   2.930189937749809E-4  
 2.020600000000000E10    1.697848789195565E-4   4.400745922423624E-4  
 2.020800000000000E10    3.311129888364425E-4   4.128462190877785E-4  
 2.021000000000000E10    4.253402563605320E-4   3.348631144035608E-4  
 2.021200000000000E10    5.354503001500336E-4   1.965934217743645E-4  
 2.021400000000000E10    4.871842641107463E-4  -8.539397579928240E-5  
 2.021600000000000E10    1.803237882322046E-4  -2.078940758817933E-4  
 2.021800000000000E10   -9.655636892636757E-5  -2.406155612401629E-6  
 2.022000000000000E10   -7.773100784376128E-5   3.729795129469562E-4  
 2.022200000000000E10    2.710969549500280E-4   6.003631860949099E-4  
 2.022400000000000E10    6.612775743835503E-4   4.762944666220359E-4  
 2.022600000000000E10    8.431982994941927E-4   1.759063544105394E-4  
 2.022800000000000E10    8.703420516448442E-4  -1.096451890555693E-4  
 2.023000000000000E10    8.012938520146742E-4  -3.704230378692349E-4  
 2.023200000000000E10    6.360891663158934E-4  -5.522935362360269E-4  
 2.023400000000000E10    4.541660740937072E-4  -6.430546615134788E-4  
 2.023600000000000E10    3.100074762995873E-4  -6.940357464676102E-4  
 2.023800000000000E10    1.416607998113182E-4  -7.018273765290226E-4  
 2.024000000000000E10    3.920949065003596E-5  -6.394017513634431E-4  
 2.024200000000000E10    4.103046844479482E-5  -6.546305289871440E-4  
 2.024400000000000E10   -6.043954245224423E-5  -8.100214116792713E-4  
 2.024600000000000E10   -3.883433107855834E-4  -8.697133205175676E-4  
 2.024800000000000E10   -6.869454712917408E-4  -6.651883336922361E-4  
 2.025000000000000E10   -8.263739226903354E-4  -3.856200524347110E-4  
 2.025200000000000E10   -8.301777200324945E-4  -7.516008271421825E-5  
 2.025400000000000E10   -6.608748980970296E-4   1.508763541803799E-4  
 2.025600000000000E10   -4.768430738261453E-4   2.190978859154577E-4  
 2.025800000000000E10   -3.507877559901251E-4   1.905218410279809E-4  
 2.026000000000000E10   -3.239238059096453E-4   1.353632014124068E-4  
 2.026200000000000E10   -3.719445570216825E-4   1.086532364651147E-4  
 2.026400000000000E10   -4.665798979759631E-4   1.729727863911884E-4  
 2.026600000000000E10   -4.825497615254588E-4   3.678818412245838E-4  
 2.026800000000000E10   -3.371519495784823E-4   5.092311659137961E-4  
 2.027000000000000E10   -1.958713508900945E-4   5.360547435918341E-4  
 2.027200000000000E10   -1.164997738669626E-4   5.525316185041987E-4  
 2.027400000000000E10    1.277964151490273E-5   6.226169881065963E-4  
 2.027600000000000E10    2.265761636576995E-4   5.903682085099044E-4  
 2.027800000000000E10    3.750413975298957E-4   4.265027603617422E-4  
 2.028000000000000E10    3.656124646551218E-4   2.282549189489887E-4  
 2.028200000000000E10    2.384448377631122E-4   1.950099869174193E-4  
 2.028400000000000E10    2.442892717361382E-4   2.714413858484477E-4  
 2.028600000000000E10    3.357689668148481E-4   2.911952485899545E-4  
 2.028800000000000E10    4.574209893622471E-4   2.631270994984166E-4  
 2.029000000000000E10    5.924076648187583E-4   1.155334013876402E-4  
 2.029200000000000E10    5.854449506538610E-4  -9.932717539076867E-5  
 2.029400000000000E10    4.851967743080524E-4  -2.546070566124939E-4  
 2.029600000000000E10    3.047905079761727E-4  -3.022671843171810E-4  
 2.029800000000000E10    2.108564394465821E-4  -1.946489959394697E-4  
 2.030000000000000E10    2.916086340081637E-4  -1.179764504841943E-4  
 2.030200000000000E10    4.124709618433069E-4  -2.029506544608416E-4  
 2.030400000000000E10    4.146858528083950E-4  -3.590022086562521E-4  
 2.030600000000000E10    3.502002639126861E-4  -4.814549832156412E-4  
 2.030800000000000E10    2.663947417642232E-4  -5.839385902854028E-4  
 2.031000000000000E10    1.715564662676857E-4  -6.593214520425710E-4  
 2.031200000000000E10    5.133513574643682E-5  -8.127317630202960E-4  
 2.031400000000000E10   -2.821858689896073E-4  -8.699509694620417E-4  
 2.031600000000000E10   -5.392425098559924E-4  -6.426592353145006E-4  
 2.031800000000000E10   -5.233856672593566E-4  -4.136521731399829E-4  
 2.032000000000000E10   -4.464331346012101E-4  -3.975272152779832E-4  
 2.032200000000000E10   -5.044188259893822E-4  -4.773122275731079E-4  
 2.032400000000000E10   -7.258535586987381E-4  -5.385935504886288E-4  
 2.032600000000000E10   -1.068225220984055E-3  -3.638531812207981E-4  
 2.032800000000000E10   -1.239983239901011E-3   3.989921754897230E-5  
 2.033000000000000E10   -1.168111339211464E-3   4.589155130950666E-4  
 2.033200000000000E10   -9.551314524961291E-4   7.780807122967587E-4  
 2.033400000000000E10   -6.702104346240285E-4   9.855158622721558E-4  
 2.033600000000000E10   -4.414155005684330E-4   1.046168673956008E-3  
 2.033800000000000E10    1.531827688773371E-5   1.030481394587292E-3  
 2.034000000000000E10    2.498691497344731E-4   8.101081540290682E-4  
 2.034200000000000E10    2.675664382641791E-4   5.703344768672079E-4  
 2.034400000000000E10    1.703995857732716E-4   4.709817553197759E-4  
 2.034600000000000E10    7.974528179383251E-5   5.254993512709108E-4  
 2.034800000000000E10    1.198545554264759E-4   6.932676554209105E-4  
 2.035000000000000E10    3.574434031853108E-4   8.476237115381218E-4  
 2.035200000000000E10    7.258918658071371E-4   8.022687182313315E-4  
 2.035400000000000E10    1.009060828774064E-3   5.371667664601572E-4  
 2.035600000000000E10    1.133962034213322E-3   1.572834605920232E-4  
 2.035800000000000E10    1.066544356204018E-3  -2.389237854879833E-4  
 2.036000000000000E10    8.123345410071867E-4  -5.370987497304602E-4  
 2.036200000000000E10    5.070012994110584E-4  -6.452629265064995E-4  
 2.036400000000000E10    2.276929816515703E-4  -6.242330742275550E-4  
 2.036600000000000E10    1.606745153939874E-5  -4.966895988521477E-4  
 2.036800000000000E10   -1.132406156372141E-4  -2.977875690838254E-4  
 2.037000000000000E10   -8.006616904081225E-5  -3.912759617647950E-5  
 2.037200000000000E10    1.590750799988638E-4   9.145809626379223E-5  
 2.037400000000000E10    3.770783476755713E-4  -1.396128242992779E-5  
 2.037600000000000E10    4.396279282109054E-4  -1.921716919039480E-4  
 2.037800000000000E10    4.081018322958025E-4  -3.313628721689047E-4  
 2.038000000000000E10    3.379200287680660E-4  -4.281275108008198E-4  
 2.038200000000000E10    2.973645362847796E-4  -4.753914114122314E-4  
 2.038400000000000E10    3.019369129712383E-4  -5.967085361825648E-4  
 2.038600000000000E10    1.711507265335294E-4  -7.887856659686400E-4  
 2.038800000000000E10   -5.911565501635240E-5  -8.547045182678160E-4  
 2.039000000000000E10   -2.385084959247184E-4  -8.526345676121614E-4  
 2.039200000000000E10   -4.561620956304035E-4  -8.513760705547479E-4  
 2.039400000000000E10   -6.865243367091926E-4  -7.420605893626259E-4  
 2.039600000000000E10   -8.645567275514758E-4  -5.697954459012384E-4  
 2.039800000000000E10   -9.693517047842897E-4  -3.327017874215488E-4  
 2.040000000000000E10   -9.740970606260279E-4  -1.390501595408380E-4  
 2.040200000000000E10   -1.030567438445158E-3   4.116682248422874E-6  
 2.040400000000000E10   -1.081666525418836E-3   2.738222742832646E-4  
 2.040600000000000E10   -9.835614495117358E-4   5.785461118513788E-4  
 2.040800000000000E10   -7.768718965558544E-4   8.022996911744554E-4  
 2.041000000000000E10   -5.332468836395830E-4   9.455480246321748E-4  
 2.041200000000000E10   -2.604642714787689E-4   1.037995835455756E-3  
 2.041400000000000E10    7.871440283014198E-5   1.020449343033963E-3  
 2.041600000000000E10    4.098748947769680E-4   7.887777346358809E-4  
 2.041800000000000E10    4.908894307273269E-4   3.448372558017987E-4  
 2.042000000000000E10    1.860218983859307E-4   5.496118629471986E-5  
 2.042200000000000E10   -1.865444387981875E-4   1.552991215484562E-4  
 2.042400000000000E10   -3.283979798046252E-4   5.040838667708967E-4  
 2.042600000000000E10   -1.848680791833128E-4   9.045987842707999E-4  
 2.042800000000000E10    2.514341160551542E-4   1.151250821917698E-3  
 2.043000000000000E10    7.927592011617015E-4   1.073771488369891E-3  
 2.043200000000000E10    1.174267967817960E-3   6.989806252359241E-4  
 2.043400000000000E10    1.298896153457463E-3   2.450955410798391E-4  
 2.043600000000000E10    1.260903413855919E-3  -1.647067159259071E-4  
 2.043800000000000E10    1.068950027089428E-3  -5.495040052294456E-4  
 2.044000000000000E10    7.150919711286272E-4  -7.705480632096255E-4  
 2.044200000000000E10    3.684972589663058E-4  -7.701340428967443E-4  
 2.044400000000000E10    1.435926164116676E-4  -6.297334200806089E-4  
 2.044600000000000E10    7.891328870620649E-5  -4.673730700569987E-4  
 2.044800000000000E10    9.924454045378501E-5  -3.945339650036423E-4  
 2.045000000000000E10    1.155193221401768E-4  -4.062538932043094E-4  
 2.045200000000000E10    4.619242476851300E-5  -4.411653251197466E-4  
 2.045400000000000E10   -1.481275264975719E-5  -3.594573268114969E-4  
 2.045600000000000E10    4.246769997364566E-5  -3.322319039229856E-4  
 2.045800000000000E10    5.416356011496479E-5  -3.916948227453288E-4  
 2.046000000000000E10    1.487874315999863E-5  -4.490129940677435E-4  
 2.046200000000000E10   -6.359458886975148E-5  -4.953214299382160E-4  
 2.046400000000000E10   -1.524603118283537E-4  -4.982589938056966E-4  
 2.046600000000000E10   -2.201994858397585E-4  -5.035869652163928E-4  
 2.046800000000000E10   -3.468501597159991E-4  -5.175292004693163E-4  
 2.047000000000000E10   -4.811474990910265E-4  -4.470994269164900E-4  
 2.047200000000000E10   -5.724400829489309E-4  -3.623146471067298E-4  
 2.047400000000000E10   -6.761850888357947E-4  -2.338680858008081E-4  
 2.047600000000000E10   -6.962684996391613E-4  -4.374605557839257E-5  
 2.047800000000000E10   -6.257263227814326E-4   8.308419071707048E-5  
 2.048000000000000E10   -5.871878798913074E-4   1.281123749558228E-4  
 2.048200000000000E10   -6.142832528523826E-4   1.996972407343694E-4  
 2.048400000000000E10   -6.206996622495353E-4   3.447818237839750E-4  
 2.048600000000000E10   -5.425383030712881E-4   4.889378712202113E-4  
 2.048800000000000E10   -4.281992883921636E-4   6.001908181200702E-4  
 2.049000000000000E10   -3.023037053127256E-4   6.520839179521082E-4  
 2.049200000000000E10   -2.198521650387664E-4   6.996538895354780E-4  
 2.049400000000000E10   -8.328482578724141E-5   8.120233068001216E-4  
 2.049600000000000E10    1.503921386621962E-4   8.596887066098001E-4  
 2.049800000000000E10    3.743038665830951E-4   8.103904460936234E-4  
 2.050000000000000E10    5.854546993591444E-4   7.240458809839632E-4  
 2.050200000000000E10    8.344365007899428E-4   5.465281320977268E-4  
 2.050400000000000E10    1.001602319000220E-3   1.859947579861101E-4  
 2.050600000000000E10    9.200655687082974E-4  -2.338989999973112E-4  
 2.050800000000000E10    6.467703303011756E-4  -5.073196414202728E-4  
 2.051000000000000E10    3.245651659435007E-4  -5.780422253775653E-4  
 2.051200000000000E10    7.666312632392404E-5  -5.203766718127386E-4  
 2.051400000000000E10   -1.287907696139344E-4  -3.886538389552800E-4  
 2.051600000000000E10   -2.245084469905123E-4  -1.496027543907985E-4  
 2.051800000000000E10   -1.463293177679319E-4   4.696056742061586E-5  
 2.052000000000000E10    8.866599711365311E-6   1.463561434152157E-4  
 2.052200000000000E10    1.806166018704298E-4   1.229491306865519E-4  
 2.052400000000000E10    2.569520815827505E-4   2.856316765515927E-5  
 2.052600000000000E10    3.039158872087245E-4  -4.499569028363720E-5  
 2.052800000000000E10    3.447821094326813E-4  -1.915040586566277E-4  
 2.053000000000000E10    2.264781516579981E-4  -3.808199221061337E-4  
 2.053200000000000E10   -1.348661384394358E-5  -3.919892597305416E-4  
 2.053400000000000E10   -1.367770590284771E-4  -1.896286126726342E-4  
 2.053600000000000E10   -8.254698480380252E-6   7.236159338693442E-6  
 2.053800000000000E10    2.644877100397868E-4  -2.426360134887984E-5  
 2.054000000000000E10    4.018730100209791E-4  -3.364422408156787E-4  
 2.054200000000000E10    2.068893502130070E-4  -6.524128106388230E-4  
 2.054400000000000E10   -1.140964183529529E-4  -6.955010380975352E-4  
 2.054600000000000E10   -2.975816627171029E-4  -6.062828707163809E-4  
 2.054800000000000E10   -4.256540031982932E-4  -5.510261765232793E-4  
 2.055000000000000E10   -5.908525954173120E-4  -4.782310980199665E-4  
 2.055200000000000E10   -7.352983660961468E-4  -3.395258897432575E-4  
 2.055400000000000E10   -8.781427319196089E-4  -1.547247445193568E-4  
 2.055600000000000E10   -9.443485307403738E-4   1.335861851219778E-4  
