#  HZ   S   RI   R     50.00 
! Rohde & Schwarz ZVA40 4Ports - Version 3.90 - 1145.1110k42 SN: 100403
! Date: 2023-08-22 06:20:48
! Measurements: S11 S21 S12 S22 
! 
 2.000000000000000E10   -1.302968710660934E-1  -2.026875466108322E-1  -1.754673721734434E-4   6.589886470464990E-5   1.898300397442654E-4   5.302290664985776E-4   8.383939266204834E-1  -1.600692033767700  
 2.000125000000000E10   -1.207796260714531E-1  -2.034914046525955E-1  -7.911673310445622E-5   6.212389416759834E-5  -6.609266274608672E-4  -1.234060473507270E-4   9.648539423942566E-1  -1.588712215423584  
 2.000250000000000E10   -1.112693250179291E-1  -2.042831033468247E-1  -1.746433918015100E-5   8.190285734599456E-5  -6.592101999558508E-4   4.259209163137712E-5   1.038160562515259  -1.482990264892578  
 2.000375000000000E10   -1.008657440543175E-1  -2.035561054944992E-1  -8.099054684862495E-5   1.685547176748514E-4  -1.472062314860523E-3  -4.083799183263182E-7   1.154762744903565  -1.405947089195252  
 2.000500000000000E10   -9.094186127185822E-2  -2.024017870426178E-1  -7.730899596936069E-6   8.011549653019756E-5   2.467751910444349E-4  -8.337342296727002E-4   1.228708982467651  -1.341594219207764  
 2.000625000000000E10   -8.167103677988052E-2  -2.003758251667023E-1  -2.471713924023788E-5   7.995574560482055E-5   2.292415301781148E-4   3.640287613961846E-4   1.328992366790772  -1.299396395683289  
 2.000750000000000E10   -7.121255248785019E-2  -1.967156380414963E-1   1.488881971454248E-4   3.187934635207057E-5  -9.032255038619041E-4  -8.331694989465177E-4   1.418998956680298  -1.182890057563782  
 2.000875000000000E10   -6.119465827941895E-2  -1.925098299980164E-1   4.985076884622686E-5   2.267329728056211E-5  -1.992167817661539E-4  -8.269273675978184E-4   1.517672538757324  -1.088685274124146  
 2.001000000000000E10   -5.041462928056717E-2  -1.877027153968811E-1   5.098959445604123E-5  -1.198383033624850E-4  -8.531489293090999E-4   8.305379888042808E-4   1.587892651557922  -9.580912590026856E-1  
 2.001125000000000E10   -4.009600356221199E-2  -1.827975213527679E-1  -1.465201421524398E-5   3.729629315785132E-5  -8.154136594384909E-4   1.173940952867270E-3   1.606933236122131  -8.597474694252014E-1  
 2.001250000000000E10   -3.044186346232891E-2  -1.773693114519119E-1   9.032878006109968E-5  -7.780742453178391E-5  -5.415949999587610E-5   9.955456480383873E-4   1.746497869491577  -7.431615591049194E-1  
 2.001375000000000E10   -2.053730934858322E-2  -1.708704531192780E-1  -1.844068151513056E-6  -1.030691055348143E-4   1.201731502078474E-3  -3.179146006004885E-5   1.749279141426086  -6.170722246170044E-1  
 2.001500000000000E10   -1.155918277800083E-2  -1.637027710676193E-1  -1.319150615017861E-4  -1.643546056584455E-5   3.158614563290030E-4   2.682176709640771E-4   1.823601484298706  -4.853907525539398E-1  
 2.001625000000000E10   -2.146955579519272E-3  -1.556818336248398E-1  -4.118671131436713E-5   7.420374458888546E-5  -5.035329959355295E-4   4.076894256286323E-4   1.830663800239563  -3.703599274158478E-1  
 2.001750000000000E10    6.516534835100174E-3  -1.471846103668213E-1  -4.761577656609006E-5  -8.690367394592613E-5  -3.761906118597835E-4   5.719416658394039E-4   1.889297127723694  -2.514413893222809E-1  
 2.001875000000000E10    1.535751298069954E-2  -1.375778615474701E-1  -9.890506771625951E-5   1.807393564376980E-4  -3.148612449876964E-4   3.775447257794440E-4   1.899845123291016  -1.222989633679390E-1  
 2.002000000000000E10    2.315519750118256E-2  -1.285211145877838E-1  -1.195245640701614E-4  -1.838266143749934E-5  -7.285680039785802E-4   3.803151194006205E-4   1.922884702682495   5.831170827150345E-2  
 2.002125000000000E10    3.060750849545002E-2  -1.183950975537300E-1  -2.059039688901976E-4   1.413483114447445E-4   8.311874116770923E-4  -1.531019370304421E-4   1.960700511932373   1.718431264162064E-1  
 2.002250000000000E10    3.755449131131172E-2  -1.090962365269661E-1  -9.692763705970720E-5   4.642730709747411E-5  -6.092668627388775E-4   8.711073896847665E-4   1.888017177581787   3.127145767211914E-1  
 2.002375000000000E10    4.282808303833008E-2  -9.797541797161102E-2  -5.866299034096301E-5   1.400020701112226E-4  -4.361108585726470E-5   5.121151916682720E-4   1.866926908493042   4.752168059349060E-1  
 2.002500000000000E10    4.770014807581902E-2  -8.654233068227768E-2   3.372430001036264E-5   7.235781959025189E-5  -1.384170464007184E-4  -1.227305387146771E-3   1.875923752784729   5.966776609420776E-1  
 2.002625000000000E10    5.169911682605743E-2  -7.496409863233566E-2   6.612191100430209E-6   1.377068838337436E-4  -4.484327218960971E-4  -9.672846645116806E-4   1.797547936439514   7.446877956390381E-1  
 2.002750000000000E10    5.551896616816521E-2  -6.279926002025604E-2   1.984766131499782E-4   4.273368904250674E-5   5.004125996492803E-4   9.604053775547072E-5   1.753677129745483   8.624962568283081E-1  
 2.002875000000000E10    5.805730074644089E-2  -5.062188953161240E-2   5.001536192139611E-5  -6.535589363920735E-6  -4.222794086672366E-4  -1.971301535377279E-4   1.672000646591187   9.785689115524292E-1  
 2.003000000000000E10    5.979064851999283E-2  -3.771829605102539E-2  -6.029909127391875E-5   2.375990106884274E-6  -4.233979270793498E-4   7.597549119964242E-4   1.583816051483154   1.142586588859558  
 2.003125000000000E10    6.176150590181351E-2  -2.485927566885948E-2  -1.152512122644112E-4   1.320000592386350E-4   1.890172134153545E-4  -2.916445955634117E-4   1.543822646141052   1.220497608184815  
 2.003250000000000E10    6.219421327114105E-2  -1.141912117600441E-2   1.840498225647025E-5   2.057331403193530E-5  -7.321131415665150E-4   4.199502654955722E-5   1.405330896377564   1.363909006118774  
 2.003375000000000E10    6.232175976037979E-2   1.882770680822432E-3   4.345790512161329E-5  -2.835276245605201E-5   2.233403647551313E-4  -1.002092321868986E-4   1.308009386062622   1.451140284538269  
 2.003500000000000E10    6.143851205706596E-2   1.556245610117912E-2   2.022650915023405E-5  -7.674613152630627E-5  -2.609841467346996E-4  -1.474693417549133E-4   1.200614452362061   1.562296867370606  
 2.003625000000000E10    6.059592217206955E-2   2.954948134720326E-2  -1.095154511858709E-4  -7.143518450902775E-5  -1.603574637556449E-4  -3.357093082740903E-4   1.114909291267395   1.652178883552551  
 2.003750000000000E10    5.866798013448715E-2   4.359153658151627E-2  -1.095841289497912E-4  -1.019026894937269E-4  -1.626676996238530E-3   6.067325375624932E-5   9.483048915863037E-1   1.711821556091309  
 2.003875000000000E10    5.577647686004639E-2   5.646881833672524E-2  -1.597125956322998E-4   5.480822437675670E-5  -1.119988664868288E-4   5.400428781285882E-4   8.522425293922424E-1   1.787291049957275  
 2.004000000000000E10    5.125689134001732E-2   6.969910860061646E-2  -1.139074156526476E-4   7.274178642546758E-5   1.445939560653642E-4   5.954996959189884E-5   6.745149493217468E-1   1.817920684814453  
 2.004125000000000E10    4.745868593454361E-2   8.352611958980560E-2  -2.115929528372362E-4   3.220354847144336E-5  -6.002780355629511E-5  -8.192338864319027E-4   5.360627770423889E-1   1.872571349143982  
 2.004250000000000E10    4.230879619717598E-2   9.700204432010651E-2  -2.109437627950683E-4   1.024344674078748E-4  -9.870307985693216E-4  -1.681402645772323E-4   3.798870742321014E-1   1.928079485893250  
 2.004375000000000E10    3.710976615548134E-2   1.105132550001144E-1  -7.581285899505019E-5   8.142826118273661E-5  -8.836532360874116E-4   2.948811743408442E-4   2.291341572999954E-1   1.915071249008179  
 2.004500000000000E10    3.208336606621742E-2   1.230667829513550E-1  -1.065896140062250E-5   1.131509197875857E-4   3.598188341129571E-4  -3.172049473505467E-4   7.510165870189667E-2   1.970190763473511  
 2.004625000000000E10    2.590321376919746E-2   1.345269232988358E-1  -1.424143556505442E-4   1.079013673006557E-4   8.489433676004410E-4  -9.483440080657601E-4  -4.906924441456795E-2   1.919845104217529  
 2.004750000000000E10    1.947528868913651E-2   1.454905271530151E-1  -7.117847417248413E-5   7.585863204440102E-5   3.320767718832940E-4   4.771784006152302E-4  -2.161620110273361E-1   1.950874328613281  
 2.004875000000000E10    1.192512735724449E-2   1.565101593732834E-1  -4.250805795891210E-5   3.791126800933853E-5   1.018837210722268E-3  -2.206286299042404E-4  -3.497616350650787E-1   1.878262877464294  
 2.005000000000000E10    3.854585113003850E-3   1.670684963464737E-1  -3.285745333414525E-5  -1.730047370074317E-5   4.703176673501730E-4  -4.934837343171239E-4  -4.721775650978088E-1   1.845851898193359  
 2.005125000000000E10   -3.921708557754755E-3   1.770223230123520E-1  -1.671860559326888E-6  -2.214257801824715E-5  -6.397973629646003E-4  -2.733660949161276E-5  -6.064489483833313E-1   1.821959376335144  
 2.005250000000000E10   -1.233396586030722E-2   1.850333362817764E-1  -1.819242606870830E-5   2.056334597000387E-5  -1.356587745249271E-3   9.178020991384983E-4  -7.505730986595154E-1   1.775599956512451  
 2.005375000000000E10   -2.141707204282284E-2   1.925975829362869E-1   1.215428710565902E-5  -1.100674780900590E-4  -3.659238864202052E-4   2.401445817667991E-4  -8.800854682922363E-1   1.738663673400879  
 2.005500000000000E10   -2.967653609812260E-2   1.997238993644714E-1   4.977181561116595E-6   9.703851537778974E-5   4.684767191065475E-5   1.166276517324150E-3  -1.023146390914917   1.661527633666992  
 2.005625000000000E10   -3.891966864466667E-2   2.047452330589294E-1  -1.408331154379994E-4  -5.823157334816642E-5   3.098521847277880E-4   1.096036721719429E-4  -1.105514049530029   1.534376263618469  
 2.005750000000000E10   -4.975100606679916E-2   2.094621360301971E-1  -1.883584045572206E-4  -9.722285176394507E-5  -1.383221533615142E-4  -1.820309698814526E-4  -1.212163329124451   1.461106300354004  
 2.005875000000000E10   -6.048322468996048E-2   2.126272320747376E-1  -8.848235302139074E-5   3.242573802708648E-5   1.922494266182184E-5   1.535727460577618E-5  -1.334861040115356   1.375173449516296  
 2.006000000000000E10   -7.149940729141235E-2   2.163736522197723E-1  -1.515463227406144E-4   1.180653780465946E-4   8.596895349910483E-5   8.567313198000193E-4  -1.413837909698486   1.262803316116333  
 2.006125000000000E10   -8.222468942403793E-2   2.188486009836197E-1  -1.156205034931190E-4  -1.555237213324290E-5  -2.327096735825762E-4  -4.924951645080000E-5  -1.494424939155579   1.155277490615845  
 2.006250000000000E10   -9.351950883865356E-2   2.199369966983795E-1  -1.117957071983255E-4   4.106558480998501E-5  -2.885175053961575E-4  -6.790491170249879E-4  -1.598261594772339   1.035338401794434  
 2.006375000000000E10   -1.052974313497543E-1   2.212001830339432E-1  -8.224054909078404E-6   1.205262087751180E-4   3.053299151360989E-4   7.618369418196380E-4  -1.608787655830383   9.285283684730530E-1  
 2.006500000000000E10   -1.164818331599236E-1   2.214121371507645E-1  -5.582726953434758E-5   7.991630991455168E-5  -1.023831195198000E-3   3.257966309320182E-4  -1.678884029388428   8.155375123023987E-1  
 2.006625000000000E10   -1.287000924348831E-1   2.206067442893982E-1  -1.852709715421952E-6   1.102927562897094E-4  -1.433527504559606E-4   8.520998526364565E-4  -1.731395483016968   7.051824331283569E-1  
 2.006750000000000E10   -1.400567144155502E-1   2.202904671430588E-1  -1.109924778575078E-5   8.789234561845660E-5  -7.760590524412692E-4  -2.557990665081888E-4  -1.775781273841858   5.648099780082703E-1  
 2.006875000000000E10   -1.519729048013687E-1   2.178565859794617E-1  -2.523865987313911E-5   1.746351044857875E-4  -8.568314369767904E-4   9.597364696674049E-4  -1.804733157157898   4.295253753662109E-1  
 2.007000000000000E10   -1.628378927707672E-1   2.156089693307877E-1   1.883920958789531E-5   1.980101842491422E-5  -4.098965728189796E-4   1.891999156214297E-3  -1.826931118965149   3.017912805080414E-1  
 2.007125000000000E10   -1.733056157827377E-1   2.129514962434769E-1   3.689602817757987E-5   1.214730218634941E-4   9.321443940280005E-5  -8.057642262428999E-4  -1.828105092048645   1.770918816328049E-1  
 2.007250000000000E10   -1.828825473785400E-1   2.091333866119385E-1   7.821904728189111E-5  -5.097705297885113E-7   7.069822459015995E-5   3.931163228116930E-4  -1.819858908653259   5.477920174598694E-2  
 2.007375000000000E10   -1.929504722356796E-1   2.046596258878708E-1  -9.563766070641577E-5  -6.799830589443445E-5   6.418192060664296E-4   3.190370916854590E-4  -1.816339969635010  -4.923532158136368E-2  
 2.007500000000000E10   -2.018651217222214E-1   1.984962821006775E-1   4.600059583026450E-6  -7.305512554012239E-5   6.650704744970426E-5   1.225906016770750E-4  -1.793900132179260  -1.896958500146866E-1  
 2.007625000000000E10   -2.113834172487259E-1   1.935052871704102E-1  -7.717135304119438E-5  -1.132821053033695E-4   1.953083410626277E-4   3.540425095707178E-4  -1.792734026908875  -3.040799200534821E-1  
 2.007750000000000E10   -2.198594063520432E-1   1.866641789674759E-1  -1.606846635695547E-4  -1.545115264889319E-5  -2.344675594940782E-4  -3.823913866654038E-4  -1.760875344276428  -4.144341349601746E-1  
 2.007875000000000E10   -2.259486913681030E-1   1.804405003786087E-1  -1.032450527418405E-4  -6.671307346550748E-6   2.390702866250649E-4  -4.230720805935562E-4  -1.722394466400147  -5.376746654510498E-1  
 2.008000000000000E10   -2.331122606992722E-1   1.721846908330917E-1  -1.688130578259006E-4   1.271486598852789E-5   6.952486000955105E-4   9.954217239283025E-5  -1.695134997367859  -6.381501555442810E-1  
 2.008125000000000E10   -2.388388663530350E-1   1.652363687753677E-1  -1.485634420532733E-4   1.612668711459264E-4  -1.826754596550018E-4   2.381752128712833E-4  -1.630926609039307  -7.302142977714539E-1  
 2.008250000000000E10   -2.439256757497788E-1   1.564635187387466E-1  -1.462790824007243E-4   5.430011879070662E-5   8.525284356437624E-4   7.864877698011696E-4  -1.586768031120300  -8.387329578399658E-1  
 2.008375000000000E10   -2.484858930110931E-1   1.471925824880600E-1  -9.930651140166447E-5   1.669173943810165E-4  -9.851378854364157E-4  -5.327536491677165E-4  -1.515112161636353  -9.441043138504028E-1  
 2.008500000000000E10   -2.519415020942688E-1   1.381261795759201E-1  -3.990419827459846E-6   1.287535269511864E-4  -3.078965819440782E-4   8.174586691893637E-4  -1.460079789161682  -1.057432174682617  
 2.008625000000000E10   -2.546438872814179E-1   1.284818053245544E-1   1.515274107077858E-5   1.704662863630801E-4   3.270609522587620E-5   8.713389979675412E-4  -1.387675523757935  -1.122128367424011  
 2.008750000000000E10   -2.570802867412567E-1   1.189788058400154E-1   1.160495885415003E-4   5.795679317088798E-5  -9.324481943622232E-4  -7.807023357599974E-4  -1.291551470756531  -1.215385437011719  
 2.008875000000000E10   -2.582693696022034E-1   1.094114780426025E-1   4.806985452887602E-5  -2.861446773749776E-6  -1.022325363010168E-3   1.191348070278764E-3  -1.248456120491028  -1.273110985755920  
 2.009000000000000E10   -2.587860524654388E-1   9.904908388853073E-2   8.398923455388285E-6  -4.069587521371432E-5   5.181980086490512E-4   1.354554435238242E-3  -1.179688692092896  -1.364574193954468  
 2.009125000000000E10   -2.584117949008942E-1   8.895199000835419E-2   4.941095176036470E-5   4.659642581827939E-5   7.864489452913404E-4  -7.958181668072939E-4  -1.044741034507752  -1.429744005203247  
 2.009250000000000E10   -2.568975985050201E-1   7.911043614149094E-2   3.212878800695762E-5   4.794698725163471E-6   7.068259292282164E-4  -2.487525052856654E-4  -9.484922289848328E-1  -1.510578155517578  
 2.009375000000000E10   -2.540258765220642E-1   6.839215755462647E-2   6.079043669160456E-5  -1.184951761388220E-4   4.910607240162790E-4   1.266306149773300E-3  -8.664356470108032E-1  -1.576391458511353  
 2.009500000000000E10   -2.510748505592346E-1   5.776666849851608E-2  -2.210744605690707E-5  -5.605168189504184E-5   3.226739936508238E-4   2.823906834237278E-4  -7.466449141502380E-1  -1.606148362159729  
 2.009625000000000E10   -2.467036843299866E-1   4.727281630039215E-2  -1.792906550690532E-5  -1.288868515985087E-4   2.911154879257083E-4  -1.279175630770624E-4  -6.903581619262695E-1  -1.655679225921631  
 2.009750000000000E10   -2.419067323207855E-1   3.708288818597794E-2  -9.387356840306893E-6  -3.437578925513662E-5   1.087601762264967E-3   1.192753901705146E-3  -5.550000071525574E-1  -1.684735059738159  
 2.009875000000000E10   -2.365924566984177E-1   2.613874152302742E-2  -1.081786540453322E-4  -5.361680814530700E-5   4.888771800324321E-4   3.962869232054800E-4  -4.669379591941834E-1  -1.760793566703796  
 2.010000000000000E10   -2.301519662141800E-1   1.582506671547890E-2  -1.159038656624034E-4  -1.133085461333394E-4  -4.930041613988578E-4   1.099045039154589E-4  -3.525690138339996E-1  -1.778237342834473  
 2.010125000000000E10   -2.232186943292618E-1   5.019229836761951E-3  -1.069464269676246E-4   4.208732207189314E-6  -1.012574066407979E-4   4.976509953849018E-4  -2.182609289884567E-1  -1.761689662933350  
 2.010250000000000E10   -2.154499888420105E-1  -4.451704677194357E-3  -8.640553278382868E-5   9.365088044432923E-5   4.184353747405112E-4   6.826687022112310E-4  -8.766088634729385E-2  -1.810006618499756  
 2.010375000000000E10   -2.074885517358780E-1  -1.405517850071192E-2  -1.563987316330895E-4   1.535491610411555E-4   7.010478875599802E-4   4.101994854863733E-4   1.999356783926487E-2  -1.799763798713684  
 2.010500000000000E10   -1.991927772760391E-1  -2.330826036632061E-2  -8.185854676412419E-5   8.707330562174320E-5   8.100711274892092E-4   6.183403893373907E-4   1.382668614387512E-1  -1.787917971611023  
 2.010625000000000E10   -1.901086568832398E-1  -3.180138394236565E-2  -9.211131691699848E-5   3.930614911951125E-5   1.149619129137136E-4  -9.612572030164301E-4   2.550356686115265E-1  -1.775559782981873  
 2.010750000000000E10   -1.806630641222000E-1  -4.028424993157387E-2   3.360828850418329E-5   1.142092150985263E-4  -6.645277608186007E-4  -1.200510596390814E-4   3.770297765731812E-1  -1.770206928253174  
 2.010875000000000E10   -1.705522984266281E-1  -4.813287034630776E-2   9.945425699697807E-5   9.208401024807245E-5   1.859870390035212E-3   4.408231325214729E-5   4.664103388786316E-1  -1.755822062492371  
 2.011000000000000E10   -1.604728996753693E-1  -5.478771030902863E-2   5.083096766611561E-5   3.590554842958227E-5   6.107061199145392E-5  -1.448042312404141E-4   6.035237908363342E-1  -1.733366370201111  
 2.011125000000000E10   -1.499718725681305E-1  -6.031514704227448E-2   2.201985189458355E-4   5.385678014135920E-5   7.266792817972601E-4  -5.793131422251463E-4   6.976000666618347E-1  -1.652319431304932  
 2.011250000000000E10   -1.385861188173294E-1  -6.508323550224304E-2   8.528078615199775E-5  -1.381581205350813E-5  -1.258254633285105E-4  -7.614950300194323E-4   8.134834766387940E-1  -1.632409334182739  
 2.011375000000000E10   -1.273786574602127E-1  -6.995555013418198E-2   2.280571834489820E-6  -1.707090814306866E-5   6.358171231113374E-4   9.568693349137902E-5   9.240117073059082E-1  -1.588314890861511  
 2.011500000000000E10   -1.148694679141045E-1  -7.354380935430527E-2  -7.147201358748134E-6   1.810535468393937E-5   4.426080558914691E-4  -8.313094440381974E-5   1.035098195075989  -1.513871192932129  
 2.011625000000000E10   -1.024523526430130E-1  -7.644028216600418E-2   6.374362419592217E-5  -1.240176352439448E-4  -3.584571240935475E-4   2.621748717501760E-4   1.121039390563965  -1.460045337677002  
 2.011750000000000E10   -9.000461548566818E-2  -7.791964709758759E-2  -4.010908742202446E-5   1.405785678798566E-5  -1.488580164732412E-4  -4.897564067505300E-4   1.223695755004883  -1.390497922897339  
 2.011875000000000E10   -7.675422728061676E-2  -7.968457043170929E-2  -1.039201160892844E-4  -1.368211378576234E-4  -1.264670863747597E-3  -8.611525991000235E-4   1.334331631660461  -1.294867157936096  
