#  HZ   S   RI   R     50.00 
! Rohde & Schwarz ZVA40 4Ports - Version 3.90 - 1145.1110k42 SN: 100403
! Date: 2023-08-22 06:17:04
! Measurements: S11 S21 S12 S22 
! 
 2.000000000000000E10   -2.066938579082489E-1  -1.483265012502670E-1  -1.158147715614177E-4   1.513518800493330E-4   4.290078504709527E-5  -6.341863772831857E-4   8.342438340187073E-1  -1.621693491935730  
 2.000125000000000E10   -1.937631666660309E-1  -1.438509970903397E-1  -1.017769318423234E-4  -9.344224963570014E-6  -8.916385122574866E-4   4.656873061321676E-4   9.582198262214661E-1  -1.538202166557312  
 2.000250000000000E10   -1.797239482402802E-1  -1.388342231512070E-1  -9.696803317638114E-5   1.106845229514875E-4  -2.273036807309836E-4   7.268855551956222E-5   1.080610752105713  -1.499616742134094  
 2.000375000000000E10   -1.657396852970123E-1  -1.340704411268234E-1  -7.383427146123722E-5   1.706477196421474E-4  -2.573103120084852E-4  -3.087082877755165E-4   1.166712760925293  -1.444759726524353  
 2.000500000000000E10   -1.520067006349564E-1  -1.276049017906189E-1  -9.148067329078913E-5   1.555118215037510E-4  -5.780271603725851E-4   5.927614402025938E-4   1.245064258575440  -1.338570952415466  
 2.000625000000000E10   -1.376290023326874E-1  -1.213764622807503E-1  -9.038970893016085E-5   1.888500264612958E-5  -1.027288031764329E-3   1.406957511790097E-3   1.345514178276062  -1.254114627838135  
 2.000750000000000E10   -1.221345141530037E-1  -1.141172647476196E-1  -7.408330566249788E-5   9.933902765624225E-5   8.810342405922711E-4   2.428857987979427E-4   1.441957950592041  -1.147225379943848  
 2.000875000000000E10   -1.070453971624374E-1  -1.071803644299507E-1  -9.871750808088109E-5   1.444756489945576E-4  -7.788577204337344E-5  -5.814845790155232E-4   1.534951806068420  -1.075823664665222  
 2.001000000000000E10   -9.168102592229843E-2  -9.942553937435150E-2  -2.110334389726631E-5   5.540452548302710E-5  -4.910732968710363E-4  -1.746164634823799E-4   1.598047733306885  -9.472608566284180E-1  
 2.001125000000000E10   -7.512983679771423E-2  -9.113977849483490E-2   4.555193663691171E-5   5.864287231815979E-5   1.590537867741659E-4  -6.600294145755470E-4   1.672851443290710  -8.631871342658997E-1  
 2.001250000000000E10   -5.964893847703934E-2  -8.201833069324493E-2   4.472373620956205E-5  -4.123166945646517E-5  -4.944013780914247E-4   2.394767478108406E-3   1.744806647300720  -7.143736481666565E-1  
 2.001375000000000E10   -4.389834776520729E-2  -7.435585558414459E-2  -1.287417762796395E-5   6.456582195824012E-5   4.828723613172770E-4  -1.186886685900390E-3   1.781115055084229  -6.120892763137817E-1  
 2.001500000000000E10   -2.795886993408203E-2  -6.538843363523483E-2  -4.537344648269936E-5   7.376413122983649E-5  -6.163061480037868E-4  -5.311483400873840E-4   1.874302744865418  -4.538584351539612E-1  
 2.001625000000000E10   -1.262888778001070E-2  -5.682972073554993E-2  -2.833674261637498E-5  -4.182932025287300E-5   4.122675163671374E-4   7.845109939808026E-5   1.863434791564941  -3.547065258026123E-1  
 2.001750000000000E10    2.606337890028954E-3  -4.788369685411453E-2  -6.485777703346685E-5  -1.506985086052737E-6   9.999696630984545E-4  -2.537040272727609E-4   1.852735757827759  -2.331406176090241E-1  
 2.001875000000000E10    1.749083772301674E-2  -3.838831558823586E-2  -1.117588253691793E-4  -7.190827454905957E-5  -1.091980258934200E-3   2.229288220405579E-4   1.906938314437866  -9.403253346681595E-2  
 2.002000000000000E10    3.160939365625382E-2  -2.870986424386501E-2  -1.851928391261026E-4  -6.690035661449656E-5   3.705004201037809E-5  -5.563132581301034E-4   1.902925729751587   4.666278511285782E-2  
 2.002125000000000E10    4.537412151694298E-2  -1.983715035021305E-2  -2.174179389839992E-4   1.698015694273636E-5  -4.566561838146299E-4   6.429263157770038E-4   1.929664969444275   1.624304354190826E-1  
 2.002250000000000E10    5.845256894826889E-2  -1.106650568544865E-2  -1.295278052566573E-4   8.253860869444907E-5   3.512531984597445E-4  -1.182249281555414E-3   1.923064947128296   3.250873088836670E-1  
 2.002375000000000E10    6.993260234594345E-2  -2.369336551055312E-3   9.518646038486622E-6   2.004146663239226E-4  -3.701997629832476E-4   1.830952096497640E-4   1.873509168624878   4.751347303390503E-1  
 2.002500000000000E10    8.156982064247131E-2   7.104582153260708E-3   1.247112868441036E-5   7.511469902965473E-6  -5.512379575520754E-4  -5.532084614969790E-4   1.869132280349731   5.981173515319824E-1  
 2.002625000000000E10    9.243575483560562E-2   1.618222892284393E-2  -8.858914225129411E-5   2.499582478776574E-4  -1.192283700220287E-3   4.665788146667182E-4   1.822488665580750   7.922947406768799E-1  
 2.002750000000000E10    1.018266230821610E-1   2.564699575304985E-2  -1.030896237352863E-4   1.952086604433134E-4  -5.230639362707734E-4  -2.787616394925863E-4   1.720933556556702   8.780295252799988E-1  
 2.002875000000000E10    1.108162626624107E-1   3.493040427565575E-2   8.132249786285684E-5  -2.140968899766449E-5  -1.027184305712581E-3  -4.720908473245800E-4   1.663918256759644   1.009591817855835  
 2.003000000000000E10    1.197729408740997E-1   4.317786544561386E-2  -1.381211186526343E-4  -2.324702472833451E-5   6.692650640616193E-5  -2.224948257207871E-4   1.593156933784485   1.145817756652832  
 2.003125000000000E10    1.259381622076035E-1   5.187676101922989E-2   2.734903137024958E-5  -3.866774568450637E-5  -3.668820427265018E-4   8.376766927540302E-4   1.499109148979187   1.240118741989136  
 2.003250000000000E10    1.318299323320389E-1   6.004434823989868E-2  -8.456992873107083E-6  -5.847541615366936E-7   8.834686741465703E-5  -5.291705019772053E-4   1.371478080749512   1.339640140533447  
 2.003375000000000E10    1.365958005189896E-1   6.723392754793167E-2  -5.827591667184606E-5   4.088647074240726E-6  -5.421111709438264E-4   1.146279973909259E-3   1.289677500724793   1.478735446929932  
 2.003500000000000E10    1.404151171445847E-1   7.594151049852371E-2  -1.214866133523174E-4  -1.085340481949970E-4   4.094691248610616E-4  -1.278479467146099E-4   1.169566273689270   1.569895386695862  
 2.003625000000000E10    1.429263055324554E-1   8.413759618997574E-2  -3.276030838605948E-5  -3.181225474691019E-5  -6.058915168978274E-4  -1.770968665368855E-4   1.042899966239929   1.659540295600891  
 2.003750000000000E10    1.438522636890411E-1   9.181217849254608E-2  -5.231036629993469E-5  -3.333726272103377E-5  -4.819520690944046E-4   7.377311703749001E-4   9.292730689048767E-1   1.691165685653687  
 2.003875000000000E10    1.444188803434372E-1   9.880611300468445E-2  -3.839258715743199E-5  -1.162097396445461E-4   1.107887001126073E-4   8.637788414489478E-5   8.076127767562866E-1   1.809190154075623  
 2.004000000000000E10    1.436741650104523E-1   1.058144196867943E-1  -1.286735932808369E-4  -9.812143986209776E-8   9.654814493842423E-5  -1.135047175921500E-3   6.962995529174805E-1   1.849218130111694  
 2.004125000000000E10    1.421398967504501E-1   1.120398640632629E-1  -1.909954589791596E-4  -1.350402308162302E-4  -3.495881101116538E-4  -8.284804644063115E-4   5.220220088958740E-1   1.880362272262573  
 2.004250000000000E10    1.391179412603378E-1   1.184962913393974E-1  -1.310910593019798E-4  -5.547728051169543E-6   2.220706955995411E-4  -2.294846053700894E-4   4.115725159645081E-1   1.943223357200623  
 2.004375000000000E10    1.354922801256180E-1   1.240892633795738E-1  -1.423878420609981E-4   5.771679298050003E-6  -5.437001818791032E-4  -8.765303646214306E-4   2.249861359596252E-1   1.964060783386231  
 2.004500000000000E10    1.301332861185074E-1   1.290251165628433E-1  -1.121690584113821E-4   1.529275032225996E-4   5.285077495500445E-4   1.674312661634758E-4   7.851248979568481E-2   1.955483675003052  
 2.004625000000000E10    1.232914179563522E-1   1.331392079591751E-1  -7.552940951427445E-5   1.309866784140468E-4   4.343579639680684E-4  -2.947830071207136E-4  -1.053874194622040E-1   1.930871844291687  
 2.004750000000000E10    1.160448640584946E-1   1.375333368778229E-1  -1.693370904831681E-5   1.642383285798132E-4  -3.095519496127963E-4   1.979710534214973E-3  -2.093021124601364E-1   1.944267630577087  
 2.004875000000000E10    1.076059341430664E-1   1.416091620922089E-1  -4.153450208832510E-5   3.779948747251183E-5   1.314356108196080E-3   5.383233292377554E-5  -3.308313488960266E-1   1.928618073463440  
 2.005000000000000E10    9.861336648464203E-2   1.457038223743439E-1   1.555649396323133E-5   1.888092083390802E-4   6.797938258387148E-4   2.635917044244707E-4  -5.180035829544067E-1   1.881933212280273  
 2.005125000000000E10    8.916273713111877E-2   1.486328095197678E-1   4.604800778906792E-5  -4.543884278973565E-5   8.098072721622884E-4   3.579109907150269E-4  -6.462895274162293E-1   1.802252650260925  
 2.005250000000000E10    7.814313471317291E-2   1.505607962608337E-1   2.441155083943158E-4  -1.289776409976184E-4   1.126571442000568E-4   5.186874186620116E-4  -7.778471708297730E-1   1.764976024627686  
 2.005375000000000E10    6.628620624542236E-2   1.521000117063522E-1   1.984256232390180E-4  -1.017327303998172E-4  -3.498091828078032E-4   2.849860757123679E-4  -9.267312884330750E-1   1.702658057212830  
 2.005500000000000E10    5.498679354786873E-2   1.527336537837982E-1   1.256648943126493E-6  -8.097184763755649E-5  -1.618030073586851E-4  -6.847989279776812E-4  -1.013245820999146   1.646816372871399  
 2.005625000000000E10    4.161697998642921E-2   1.527893990278244E-1   1.327666104771197E-4  -2.762464464467485E-5   1.123589099734090E-4  -5.234342534095049E-4  -1.124569654464722   1.567679882049561  
 2.005750000000000E10    2.682903409004211E-2   1.530419737100601E-1  -7.535486929555191E-6  -6.880516593810171E-5  -9.043434693012387E-5  -1.533007744001225E-4  -1.204698443412781   1.442012190818787  
 2.005875000000000E10    1.255764439702034E-2   1.521005630493164E-1  -3.637027111835778E-5  -1.638688409002498E-4   6.572143174707890E-4   3.039535076823086E-4  -1.343722224235535   1.365735530853272  
 2.006000000000000E10   -2.762689720839262E-3   1.506066620349884E-1  -8.154163515428081E-5  -8.646015339763835E-5  -2.138679265044630E-4   5.801873630844057E-4  -1.436611175537109   1.244428157806397  
 2.006125000000000E10   -1.834940165281296E-2   1.492252349853516E-1  -7.739674765616655E-5  -6.580308399861679E-5  -1.536432682769373E-4  -1.170376199297607E-3  -1.507044792175293   1.144963979721069  
 2.006250000000000E10   -3.401722013950348E-2   1.474781781435013E-1  -9.562770719639957E-5   8.806046025711112E-6   1.614749198779464E-4  -9.290566667914391E-4  -1.570042252540588   1.047948241233826  
 2.006375000000000E10   -5.050914734601975E-2   1.447584182024002E-1  -1.025218880386092E-4  -1.829627581173554E-5   1.507201814092696E-4  -1.204083600896411E-4  -1.627012968063355   9.122335314750671E-1  
 2.006500000000000E10   -6.766667962074280E-2   1.416700780391693E-1  -5.155189683136996E-6   1.261949073523283E-4  -6.410257774405181E-4  -3.698466171044856E-4  -1.700051426887512   8.135564327239990E-1  
 2.006625000000000E10   -8.475074172019959E-2   1.396825164556503E-1  -1.440980558982119E-4   6.337238301057369E-5  -2.624886692501605E-4  -1.271492335945368E-3  -1.733425736427307   6.600615978240967E-1  
 2.006750000000000E10   -1.004741266369820E-1   1.366050541400909E-1  -9.946138743543997E-5   1.469281705794856E-4   7.467212271876633E-4   1.608256134204567E-4  -1.778902292251587   5.819404721260071E-1  
 2.006875000000000E10   -1.169673725962639E-1   1.337110847234726E-1  -5.574583701672964E-5   1.043338052113541E-4  -5.191073869355023E-4  -2.656303695403040E-5  -1.800342798233032   4.183349907398224E-1  
 2.007000000000000E10   -1.322578340768814E-1   1.289088875055313E-1   5.018663432565518E-5   1.736449048621580E-4   4.345910565461963E-4   4.292414523661137E-4  -1.823183774948120   3.101958334445953E-1  
 2.007125000000000E10   -1.480107009410858E-1   1.239476948976517E-1   8.719466131879017E-5   6.119439785834402E-5   1.074983389116824E-3   2.001348184421659E-4  -1.830927729606628   1.653507649898529E-1  
 2.007250000000000E10   -1.634767651557922E-1   1.198104992508888E-1   1.193013522424735E-4   3.600002310122363E-5   7.524665561504662E-4  -2.113458322128281E-4  -1.839610099792481   3.210038319230080E-2  
 2.007375000000000E10   -1.784676313400269E-1   1.138090193271637E-1   8.070810872595757E-5   5.821390004712157E-5  -3.655764157883823E-4  -9.915419650496915E-5  -1.849980473518372  -5.271606519818306E-2  
 2.007500000000000E10   -1.931753903627396E-1   1.076684743165970E-1   5.058175884187222E-5   8.958086255006492E-6   4.289187490940094E-4  -1.374109997414053E-3  -1.812672853469849  -2.110382765531540E-1  
 2.007625000000000E10   -2.067258805036545E-1   1.017452329397202E-1   4.622766937245615E-5  -4.472431101021357E-5  -9.703420801088214E-4   1.599072857061401E-4  -1.813651561737061  -3.203988671302795E-1  
 2.007750000000000E10   -2.203899472951889E-1   9.540996700525284E-2   8.306512609124184E-5  -8.205363701563329E-5   1.107060779759195E-5   7.072790176607668E-4  -1.784354209899902  -4.312798082828522E-1  
 2.007875000000000E10   -2.334591597318649E-1   8.893111348152161E-2   6.435982504626736E-5  -7.570866000605747E-5   1.481137296650559E-4   9.123596100835130E-5  -1.730453610420227  -5.491839647293091E-1  
 2.008000000000000E10   -2.443479001522064E-1   8.246326446533203E-2  -1.156786311184987E-4  -5.426481948234141E-5  -4.281184810679406E-4  -1.040745410136879E-3  -1.701085925102234  -6.607769131660461E-1  
 2.008125000000000E10   -2.560335695743561E-1   7.529962062835693E-2  -1.638896064832807E-4  -9.554608550388366E-5   3.361357667017728E-4  -1.713168167043477E-4  -1.646367907524109  -7.752768397331238E-1  
 2.008250000000000E10   -2.664119303226471E-1   6.716253608465195E-2  -1.752175448928028E-4  -4.122289101360366E-5   4.801737668458372E-4   2.814516483340412E-4  -1.587180495262146  -8.454610705375671E-1  
 2.008375000000000E10   -2.770248651504517E-1   6.045150011777878E-2  -1.936976332217455E-4  -1.609884020581376E-5  -8.507425663992763E-4  -8.935454534366727E-4  -1.509866118431091  -9.537917375564575E-1  
 2.008500000000000E10   -2.856522500514984E-1   5.385954678058624E-2  -9.835229138843715E-5   1.022900978568941E-4  -5.412210593931377E-4   8.917445666156709E-4  -1.484931349754334  -1.058985948562622  
 2.008625000000000E10   -2.937071323394775E-1   4.734641313552856E-2  -1.031754509313032E-4   1.007092141662724E-4   5.942044663242996E-4   4.338372091297060E-4  -1.395880937576294  -1.170042276382446  
 2.008750000000000E10   -3.007180392742157E-1   4.035491868853569E-2  -1.426928793080151E-4   6.792620843043551E-5  -5.842836108058691E-4  -7.934079039841890E-4  -1.309375762939453  -1.212491750717163  
 2.008875000000000E10   -3.067339062690735E-1   3.358822315931320E-2   3.146862218272872E-5   8.089901530183852E-5   2.028677699854597E-4   8.579808636568487E-4  -1.215543627738953  -1.339366674423218  
 2.009000000000000E10   -3.107051551342011E-1   2.601299993693829E-2  -3.204202585038729E-5   1.625380100449547E-4  -9.042249293997884E-4   3.995836304966360E-4  -1.159013628959656  -1.385913848876953  
 2.009125000000000E10   -3.156967461109161E-1   1.899776421487331E-2   1.768733345670626E-4   1.427752868039534E-4   1.091965241357684E-3   5.684709758497775E-4  -1.035022854804993  -1.433441758155823  
 2.009250000000000E10   -3.180737793445587E-1   1.309320330619812E-2   1.699895365163684E-4   8.383944077650085E-5   2.666413201950491E-4  -4.840487381443381E-4  -9.594640135765076E-1  -1.523820042610169  
 2.009375000000000E10   -3.203156292438507E-1   6.025225389748812E-3   5.283939390210435E-5   5.014770431444049E-5  -5.231200484558940E-4   5.688472301699221E-4  -8.899888396263123E-1  -1.582339406013489  
 2.009500000000000E10   -3.216211795806885E-1  -4.772101819980890E-4   8.497825911035761E-5  -8.065224392339587E-5   8.503681747242808E-4   5.179279251024127E-4  -7.360779643058777E-1  -1.592353463172913  
 2.009625000000000E10   -3.211954236030579E-1  -6.000469438731670E-3   1.358720910502598E-4  -2.618223334138747E-5  -1.538398646516725E-4  -6.742359837517142E-4  -6.640555262565613E-1  -1.670059800148010  
 2.009750000000000E10   -3.201885819435120E-1  -1.122270058840513E-2  -5.699589564756025E-7  -5.661230170517229E-5   9.544989443384111E-4   1.853692810982466E-4  -5.475268363952637E-1  -1.706458449363709  
 2.009875000000000E10   -3.184063136577606E-1  -1.647571474313736E-2  -4.186866135569289E-5  -2.731710810621735E-5   2.867674629669637E-4  -4.680599085986614E-4  -4.399589002132416E-1  -1.737183213233948  
 2.010000000000000E10   -3.153218328952789E-1  -2.049558795988560E-2  -1.000378470052965E-4   2.405601662758272E-5   1.252464717254043E-3   2.017169492319226E-3  -3.402226269245148E-1  -1.759711384773254  
 2.010125000000000E10   -3.109824061393738E-1  -2.496348135173321E-2  -3.208057387382723E-5  -2.922199928434566E-5  -8.068835595622659E-4  -6.920621672179550E-5  -2.388141006231308E-1  -1.801352977752686  
 2.010250000000000E10   -3.057012259960175E-1  -2.819310873746872E-2  -1.413246936863288E-4   5.318667899700813E-5   1.034059678204358E-4   1.054626773111522E-3  -7.973428815603256E-2  -1.797921776771545  
 2.010375000000000E10   -2.991615235805512E-1  -3.159978240728378E-2  -2.098170516546816E-4   2.106680221913848E-5   4.689403285738081E-4  -8.310056291520596E-4   1.195330731570721E-2  -1.816308736801148  
 2.010500000000000E10   -2.919176220893860E-1  -3.386734053492546E-2  -4.810047175851651E-5   1.242087892023847E-4  -1.508944988017902E-4   1.390243996866047E-4   1.019475832581520E-1  -1.788147091865540  
 2.010625000000000E10   -2.837619185447693E-1  -3.617735952138901E-2  -8.345147216459736E-5   2.048487885986106E-6  -8.596192492404953E-5   1.182742998935282E-4   2.504270076751709E-1  -1.783417820930481  
 2.010750000000000E10   -2.733283340930939E-1  -3.797179833054543E-2  -8.129076013574377E-5   1.497234043199569E-4  -2.577791747171432E-4  -2.015560865402222E-3   3.521603643894196E-1  -1.760662555694580  
 2.010875000000000E10   -2.636023163795471E-1  -3.887010365724564E-2  -4.195022484054789E-5   1.221840066136792E-4  -1.449594274163246E-4   6.235936307348311E-4   4.930709302425385E-1  -1.754925131797791  
 2.011000000000000E10   -2.524611353874207E-1  -3.937669843435288E-2  -2.014622623391915E-5   6.217688496690244E-5   7.269916241057217E-4   9.935760172083974E-4   5.886469483375549E-1  -1.723717212677002  
 2.011125000000000E10   -2.403237372636795E-1  -3.976210579276085E-2  -3.753685814444907E-5   1.112824684241787E-4   6.024205358698964E-4   1.424399437382817E-3   6.908444166183472E-1  -1.685189485549927  
 2.011250000000000E10   -2.271067947149277E-1  -3.948869928717613E-2  -3.873247987939976E-5   3.308767918497324E-5   9.943222394213080E-4   8.794730092631653E-5   8.266761302947998E-1  -1.626860976219177  
 2.011375000000000E10   -2.148720622062683E-1  -3.852469474077225E-2   2.851530007319525E-5   3.070528327953070E-5  -4.691928188549355E-5   3.491611569188535E-4   9.278382062911987E-1  -1.559650182723999  
 2.011500000000000E10   -2.007052302360535E-1  -3.663404658436775E-2   3.876273331115954E-5   3.418640335439704E-5   8.131778449751437E-4  -6.260521477088332E-4   1.032958388328552  -1.541091799736023  
 2.011625000000000E10   -1.862909197807312E-1  -3.348995372653008E-2   8.496638474753127E-5   1.266988078896247E-6   5.014915368519723E-4   9.657979826442897E-4   1.130006909370422  -1.444088220596314  
 2.011750000000000E10   -1.704059243202210E-1  -3.047645464539528E-2   1.219105251948349E-5  -1.149204763351008E-4  -1.005490426905453E-3  -9.866568725556135E-4   1.220261812210083  -1.374943137168884  
 2.011875000000000E10   -1.552567183971405E-1  -2.693844959139824E-2  -2.373579991399311E-5  -7.488799019483849E-5   5.052549531683326E-4   6.972964038141072E-4   1.305120944976807  -1.289333581924439  
