#  HZ   S   RI   R     50.00 
! Rohde & Schwarz ZVA40 4Ports - Version 3.90 - 1145.1110k42 SN: 100403
! Date: 2023-10-03 12:36:56
! Measurement: S12 
! 
 2.000000000000000E10    2.154691995661936E-3  -3.832786875765449E-3  
 2.000200000000000E10    1.558583383563401E-3  -4.242551777465845E-3  
 2.000400000000000E10    7.950632156010855E-4  -4.600526477543661E-3  
 2.000600000000000E10   -1.210393276307042E-4  -4.749363041080443E-3  
 2.000800000000000E10   -1.055215412095465E-3  -4.687970670882935E-3  
 2.001000000000000E10   -1.978551365297150E-3  -4.359964838964336E-3  
 2.001200000000000E10   -2.701674904214379E-3  -3.819492582323744E-3  
 2.001400000000000E10   -3.257686499345267E-3  -3.308362100434341E-3  
 2.001600000000000E10   -3.911459122864920E-3  -2.727594752623528E-3  
 2.001800000000000E10   -4.474716025324148E-3  -1.857358664791617E-3  
 2.002000000000000E10   -4.658790362745892E-3  -8.006416919445736E-4  
 2.002200000000000E10   -4.509676805478924E-3   2.203374015265087E-4  
 2.002400000000000E10   -4.168174131830902E-3   1.021443038351006E-3  
 2.002600000000000E10   -3.710167318651522E-3   1.628411851857824E-3  
 2.002800000000000E10   -3.267871420025642E-3   2.036869462671472E-3  
 2.003000000000000E10   -2.843733097966991E-3   2.386041879538953E-3  
 2.003200000000000E10   -2.422770137473205E-3   2.649655637480779E-3  
 2.003400000000000E10   -2.082040125251185E-3   2.859167395343568E-3  
 2.003600000000000E10   -1.828814547704418E-3   3.178354838495085E-3  
 2.003800000000000E10   -1.444766438784607E-3   3.649239074783745E-3  
 2.004000000000000E10   -7.590670735046361E-4   4.059532341075901E-3  
 2.004200000000000E10    1.547009012960817E-4   4.238686880763667E-3  
 2.004400000000000E10    1.123524914829084E-3   4.074170696836564E-3  
 2.004600000000000E10    1.886878030397642E-3   3.563151002091207E-3  
 2.004800000000000E10    2.304547285247181E-3   2.977316454627816E-3  
 2.005000000000000E10    2.544336046816574E-3   2.520710471327658E-3  
 2.005200000000000E10    2.796723909768058E-3   2.160901810261019E-3  
 2.005400000000000E10    3.106109602491797E-3   1.795328503911510E-3  
 2.005600000000000E10    3.429784177928980E-3   1.326412561832479E-3  
 2.005800000000000E10    3.626078602938373E-3   7.677386438669524E-4  
 2.006000000000000E10    3.735428023508486E-3   2.066117357807580E-4  
 2.006200000000000E10    3.852189987047036E-3  -4.231174976599438E-4  
 2.006400000000000E10    3.786026411057439E-3  -1.197989127472227E-3  
 2.006600000000000E10    3.471458770541681E-3  -1.895573726038874E-3  
 2.006800000000000E10    3.015790568710662E-3  -2.436003199330083E-3  
 2.007000000000000E10    2.531298585695985E-3  -2.782083998928652E-3  
 2.007200000000000E10    2.197458144323326E-3  -3.129205666482449E-3  
 2.007400000000000E10    1.758275258952729E-3  -3.637197927606327E-3  
 2.007600000000000E10    1.059143469858639E-3  -4.030939289311201E-3  
 2.007800000000000E10    2.475422390242234E-4  -4.214102856492923E-3  
 2.008000000000000E10   -5.819235811941326E-4  -4.215810879099149E-3  
 2.008200000000000E10   -1.425754250153715E-3  -4.019066467191335E-3  
 2.008400000000000E10   -2.173514404322631E-3  -3.594881018485736E-3  
 2.008600000000000E10   -2.725570543128768E-3  -3.019970447905822E-3  
 2.008800000000000E10   -3.086856597988511E-3  -2.426788044150597E-3  
 2.009000000000000E10   -3.317310816872819E-3  -1.814692968180702E-3  
 2.009200000000000E10   -3.425631907849033E-3  -1.271892236948105E-3  
 2.009400000000000E10   -3.550990565139571E-3  -8.692117041425298E-4  
 2.009600000000000E10   -3.728986197484681E-3  -3.884496267189353E-4  
 2.009800000000000E10   -3.847260298322381E-3   2.155819886944682E-4  
 2.010000000000000E10   -3.835604543349257E-3   9.464787830955086E-4  
 2.010200000000000E10   -3.584992655058519E-3   1.653891298230048E-3  
 2.010400000000000E10   -3.207236082856486E-3   2.180236291117323E-3  
 2.010600000000000E10   -2.846160584508821E-3   2.607722490749978E-3  
 2.010800000000000E10   -2.502721343419435E-3   3.016832738792824E-3  
 2.011000000000000E10   -2.035316834398718E-3   3.506160944838216E-3  
 2.011200000000000E10   -1.414171639933354E-3   3.939236448157901E-3  
 2.011400000000000E10   -7.095912185405601E-4   4.235146607467790E-3  
 2.011600000000000E10    9.587144530895684E-5   4.367816313687298E-3  
 2.011800000000000E10    9.614456169031286E-4   4.296005841482570E-3  
 2.012000000000000E10    1.808333263824476E-3   4.020997800254895E-3  
 2.012200000000000E10    2.519782598095912E-3   3.520135448693678E-3  
 2.012400000000000E10    3.006966313186252E-3   2.938121180682455E-3  
 2.012600000000000E10    3.369990011884107E-3   2.347707397729895E-3  
 2.012800000000000E10    3.625586881865690E-3   1.741794196681844E-3  
 2.013000000000000E10    3.804271365228443E-3   1.113234529053264E-3  
 2.013200000000000E10    3.890245428515806E-3   5.139020357114253E-4  
 2.013400000000000E10    3.918573473016790E-3  -6.165633412483321E-5  
 2.013600000000000E10    3.842557263043192E-3  -6.769583043124941E-4  
 2.013800000000000E10    3.681060702850422E-3  -1.277644187211990E-3  
 2.014000000000000E10    3.396328515660616E-3  -1.870880935364116E-3  
 2.014200000000000E10    3.008442074290397E-3  -2.335746692102633E-3  
 2.014400000000000E10    2.619905949190811E-3  -2.668202811576151E-3  
 2.014600000000000E10    2.292307990568656E-3  -2.955467250474074E-3  
 2.014800000000000E10    1.949913497945225E-3  -3.302325750413684E-3  
 2.015000000000000E10    1.510812885150958E-3  -3.694631912412099E-3  
 2.015200000000000E10    9.862145360122309E-4  -4.089379976331084E-3  
 2.015400000000000E10    2.697275647531367E-4  -4.425802118616340E-3  
 2.015600000000000E10   -6.590717411772522E-4  -4.548601846406122E-3  
 2.015800000000000E10   -1.663902612046603E-3  -4.366457692266983E-3  
 2.016000000000000E10   -2.563544023023160E-3  -3.846223135536284E-3  
 2.016200000000000E10   -3.139399633064499E-3  -3.085211936936335E-3  
 2.016400000000000E10   -3.338076887123380E-3  -2.343040212620924E-3  
 2.016600000000000E10   -3.355196297720627E-3  -1.859889443342885E-3  
 2.016800000000000E10   -3.479881226487550E-3  -1.525648899755820E-3  
 2.017000000000000E10   -3.758219271944262E-3  -1.202193291478411E-3  
 2.017200000000000E10   -4.133217548376617E-3  -7.443415241051512E-4  
 2.017400000000000E10   -4.423903962482273E-3  -7.652740905429296E-5  
 2.017600000000000E10   -4.540730641441950E-3   7.743830289576710E-4  
 2.017800000000000E10   -4.415688283143589E-3   1.694572176841766E-3  
 2.018000000000000E10   -4.060000871066695E-3   2.564468099103298E-3  
 2.018200000000000E10   -3.467363032316905E-3   3.334619702748311E-3  
 2.018400000000000E10   -2.667570026752390E-3   3.826702002113985E-3  
 2.018600000000000E10   -1.930039166185407E-3   4.030000901332608E-3  
 2.018800000000000E10   -1.357536714087114E-3   4.191859458561665E-3  
 2.019000000000000E10   -7.705870371909790E-4   4.413059182511068E-3  
 2.019200000000000E10   -8.562760230694198E-5   4.590325937088993E-3  
 2.019400000000000E10    7.188012298874925E-4   4.608880107601484E-3  
 2.019600000000000E10    1.553384684900075E-3   4.449447513454491E-3  
 2.019800000000000E10    2.356009807920566E-3   4.114057845723483E-3  
 2.020000000000000E10    3.078639012887891E-3   3.573651393921472E-3  
 2.020200000000000E10    3.549581502828702E-3   2.892289336563813E-3  
 2.020400000000000E10    3.812647568360892E-3   2.287382257090491E-3  
 2.020600000000000E10    4.090286981038474E-3   1.715872850683001E-3  
 2.020800000000000E10    4.342833349918142E-3   1.088181312230450E-3  
 2.021000000000000E10    4.528498196583472E-3   4.809471285603021E-4  
 2.021200000000000E10    4.730399445067218E-3  -2.017843731597101E-4  
 2.021400000000000E10    4.820207151135913E-3  -1.128863872396818E-3  
 2.021600000000000E10    4.583617890782563E-3  -2.195776296480571E-3  
 2.021800000000000E10    3.976523450771232E-3  -3.151886133523084E-3  
 2.022000000000000E10    3.136637350429356E-3  -3.791712736136016E-3  
 2.022200000000000E10    2.282446799339888E-3  -4.145099752709086E-3  
 2.022400000000000E10    1.433425735291324E-3  -4.302783616255096E-3  
 2.022600000000000E10    6.389893522417105E-4  -4.276756007500269E-3  
 2.022800000000000E10    2.436293576510603E-5  -4.087566087643306E-3  
 2.023000000000000E10   -3.646679089999655E-4  -3.985396787570215E-3  
 2.023200000000000E10   -8.540996666537760E-4  -4.047070877097640E-3  
 2.023400000000000E10   -1.560682606204977E-3  -3.964852852125963E-3  
 2.023600000000000E10   -2.250911782921097E-3  -3.690669847721304E-3  
 2.023800000000000E10   -2.895567396563697E-3  -3.291153463960431E-3  
 2.024000000000000E10   -3.465736474565886E-3  -2.753023745170162E-3  
 2.024200000000000E10   -3.907667409720613E-3  -2.094993129211628E-3  
 2.024400000000000E10   -4.196878246687077E-3  -1.314423275525096E-3  
 2.024600000000000E10   -4.320784788118837E-3  -5.143632714199708E-4  
 2.024800000000000E10   -4.295001065151559E-3   2.180586895441211E-4  
 2.025000000000000E10   -4.178307651553625E-3   8.967967091680126E-4  
 2.025200000000000E10   -3.975538341443480E-3   1.606856980131088E-3  
 2.025400000000000E10   -3.597734625347787E-3   2.322106285848551E-3  
 2.025600000000000E10   -3.069133011992148E-3   2.939112932869682E-3  
 2.025800000000000E10   -2.404244392420407E-3   3.392742814519156E-3  
 2.026000000000000E10   -1.722908884942256E-3   3.620488327686434E-3  
 2.026200000000000E10   -1.072068938721017E-3   3.666328165657175E-3  
 2.026400000000000E10   -5.280950442991324E-4   3.649206498614800E-3  
 2.026600000000000E10   -5.460143276852456E-5   3.686641457916042E-3  
 2.026800000000000E10    4.525339248141757E-4   3.712394329385810E-3  
 2.027000000000000E10    9.792182223733379E-4   3.688755798739968E-3  
 2.027200000000000E10    1.624178328194921E-3   3.599098495518168E-3  
 2.027400000000000E10    2.364673341313998E-3   3.345588992499276E-3  
 2.027600000000000E10    3.063765501051590E-3   2.822293230205959E-3  
 2.027800000000000E10    3.514854389783226E-3   2.110936992261329E-3  
 2.028000000000000E10    3.726018132802882E-3   1.406938543278770E-3  
 2.028200000000000E10    3.810243548848380E-3   7.482242050442708E-4  
 2.028400000000000E10    3.817815382470504E-3   1.004830955486044E-4  
 2.028600000000000E10    3.771157650690940E-3  -4.961394559718485E-4  
 2.028800000000000E10    3.666410294510885E-3  -1.087805167139497E-3  
 2.029000000000000E10    3.429653352977318E-3  -1.647427320238893E-3  
 2.029200000000000E10    3.127672666407846E-3  -2.148819587158937E-3  
 2.029400000000000E10    2.801152802773832E-3  -2.673490300636601E-3  
 2.029600000000000E10    2.347122182218749E-3  -3.202633940856214E-3  
 2.029800000000000E10    1.741724410726701E-3  -3.640012375803458E-3  
 2.030000000000000E10    1.025650295986576E-3  -3.900880468319413E-3  
 2.030200000000000E10    2.630994930780022E-4  -3.946750281079684E-3  
 2.030400000000000E10   -3.686412886132912E-4  -3.827801506023533E-3  
 2.030600000000000E10   -8.574634126422032E-4  -3.745657078530870E-3  
 2.030800000000000E10   -1.389958826756036E-3  -3.719228213469004E-3  
 2.031000000000000E10   -2.042749591953593E-3  -3.614906756276334E-3  
 2.031200000000000E10   -2.770668424573946E-3  -3.346721066828864E-3  
 2.031400000000000E10   -3.579149195165546E-3  -2.910030448096403E-3  
 2.031600000000000E10   -4.406132534100319E-3  -2.138916196094619E-3  
 2.031800000000000E10   -4.848892231368357E-3  -9.530016974212581E-4  
 2.032000000000000E10   -4.721775363532850E-3   2.729104703183022E-4  
 2.032200000000000E10   -4.246796004152225E-3   1.192592419281510E-3  
 2.032400000000000E10   -3.727589693656307E-3   1.765548452780939E-3  
 2.032600000000000E10   -3.293814723966299E-3   2.179322637801553E-3  
 2.032800000000000E10   -2.899165989624130E-3   2.521394749091548E-3  
 2.033000000000000E10   -2.509130443802771E-3   2.841805139510536E-3  
 2.033200000000000E10   -2.134477196514239E-3   3.181181891165950E-3  
 2.033400000000000E10   -1.682951327781251E-3   3.587306028714887E-3  
 2.033600000000000E10   -1.419147171861964E-3   3.800967377667994E-3  
 2.033800000000000E10   -3.416164595645243E-4   4.056060991399451E-3  
 2.034000000000000E10    3.381031881557939E-4   4.048944203711955E-3  
 2.034200000000000E10    9.969493293743813E-4   3.940241020402791E-3  
 2.034400000000000E10    1.595390060870552E-3   3.794248948839528E-3  
 2.034600000000000E10    2.171856175855171E-3   3.615510362533876E-3  
 2.034800000000000E10    2.826145303976021E-3   3.394718250305749E-3  
 2.035000000000000E10    3.608164748314907E-3   2.973939194401474E-3  
 2.035200000000000E10    4.337486960453753E-3   2.255008268503496E-3  
 2.035400000000000E10    4.871345090645332E-3   1.229105683986420E-3  
 2.035600000000000E10    4.998812975108992E-3   4.833773013677185E-5  
 2.035800000000000E10    4.691384192326188E-3  -1.028807654137505E-3  
 2.036000000000000E10    4.144841506157393E-3  -1.803167723406704E-3  
 2.036200000000000E10    3.625507728070205E-3  -2.342137085549810E-3  
 2.036400000000000E10    3.127239242104101E-3  -2.760820820881629E-3  
 2.036600000000000E10    2.647007855782171E-3  -3.066135630770414E-3  
 2.036800000000000E10    2.242610289680738E-3  -3.309862455353142E-3  
 2.037000000000000E10    1.847169110493988E-3  -3.673690052151129E-3  
 2.037200000000000E10    1.300071116053948E-3  -4.063978383064638E-3  
 2.037400000000000E10    5.978235822561899E-4  -4.376266640323548E-3  
 2.037600000000000E10   -2.453000824409825E-4  -4.511320802532597E-3  
 2.037800000000000E10   -1.127701402170423E-3  -4.371831986915183E-3  
 2.038000000000000E10   -1.903456138492919E-3  -4.042832198104373E-3  
 2.038200000000000E10   -2.535792935731603E-3  -3.551912597484059E-3  
 2.038400000000000E10   -2.956819493484534E-3  -3.034045250028556E-3  
 2.038600000000000E10   -3.296195868586685E-3  -2.624499847261627E-3  
 2.038800000000000E10   -3.740031648726192E-3  -2.204152183423256E-3  
 2.039000000000000E10   -4.209287780808447E-3  -1.583923799859613E-3  
 2.039200000000000E10   -4.539897636636908E-3  -7.787217008076426E-4  
 2.039400000000000E10   -4.611294032476935E-3   1.162952724786729E-4  
 2.039600000000000E10   -4.459907921651999E-3   9.274833503662162E-4  
 2.039800000000000E10   -4.201266374209046E-3   1.691446836497405E-3  
 2.040000000000000E10   -3.774407472070537E-3   2.414517337456346E-3  
 2.040200000000000E10   -3.168067032540287E-3   2.916132510973164E-3  
 2.040400000000000E10   -2.633906288624362E-3   3.197621450655990E-3  
 2.040600000000000E10   -2.215066323930651E-3   3.450918324682633E-3  
 2.040800000000000E10   -1.810941494495413E-3   3.755345762373857E-3  
 2.041000000000000E10   -1.348645787076726E-3   4.139207102312351E-3  
 2.041200000000000E10   -6.598800587479347E-4   4.506591322291413E-3  
 2.041400000000000E10    1.719914365776838E-4   4.693782250224441E-3  
 2.041600000000000E10    1.061872944931419E-3   4.682702029606811E-3  
 2.041800000000000E10    1.978663111071068E-3   4.454432934936550E-3  
 2.042000000000000E10    2.801634848439767E-3   4.022433439752570E-3  
 2.042200000000000E10    3.494953150274577E-3   3.420341909391645E-3  
 2.042400000000000E10    4.023748846655644E-3   2.672693367334612E-3  
 2.042600000000000E10    4.349099420424965E-3   1.890069713103183E-3  
 2.042800000000000E10    4.563669455640111E-3   1.130217656113759E-3  
 2.043000000000000E10    4.677943155215479E-3   3.595522290130180E-4  
 2.043200000000000E10    4.678160670776795E-3  -4.897182839663907E-4  
 2.043400000000000E10    4.459519278442051E-3  -1.353063211017461E-3  
 2.043600000000000E10    4.017091994346292E-3  -2.087079310490762E-3  
 2.043800000000000E10    3.500741909338553E-3  -2.619307890626384E-3  
 2.044000000000000E10    3.012123664289161E-3  -3.029986186941834E-3  
 2.044200000000000E10    2.518729545336999E-3  -3.383830919815803E-3  
 2.044400000000000E10    2.007426032911481E-3  -3.689241014926891E-3  
 2.044600000000000E10    1.496039624153464E-3  -3.978132988889645E-3  
 2.044800000000000E10    9.192956142978354E-4  -4.277017720641546E-3  
 2.045000000000000E10    2.097557379683066E-4  -4.519562656634753E-3  
 2.045200000000000E10   -6.454365757684926E-4  -4.665874048239656E-3  
 2.045400000000000E10   -1.689032917370859E-3  -4.578642788584587E-3  
 2.045600000000000E10   -2.752791118612629E-3  -4.046633126743047E-3  
 2.045800000000000E10   -3.479076842604964E-3  -3.170588384324938E-3  
 2.046000000000000E10   -3.781374825601593E-3  -2.218150625718229E-3  
 2.046200000000000E10   -3.780552884563804E-3  -1.429112584985517E-3  
 2.046400000000000E10   -3.715646065150699E-3  -8.425423566447457E-4  
 2.046600000000000E10   -3.649037331342698E-3  -3.329118617442380E-4  
 2.046800000000000E10   -3.566068151597808E-3   1.073402432262406E-4  
 2.047000000000000E10   -3.505681365452431E-3   5.445617551478432E-4  
 2.047200000000000E10   -3.443708628944961E-3   1.054132033863829E-3  
 2.047400000000000E10   -3.253612310890063E-3   1.640294648327486E-3  
 2.047600000000000E10   -2.868352112946687E-3   2.170787031911774E-3  
 2.047800000000000E10   -2.424686514760977E-3   2.489923005118783E-3  
 2.048000000000000E10   -2.070324136128213E-3   2.695281164904620E-3  
 2.048200000000000E10   -1.786152659742921E-3   2.987765479993857E-3  
 2.048400000000000E10   -1.368812947924950E-3   3.375869385185250E-3  
 2.048600000000000E10   -7.894856763290771E-4   3.725748474675197E-3  
 2.048800000000000E10   -6.621002264889995E-5   3.928444072328233E-3  
 2.049000000000000E10    7.660933188162744E-4   3.883329622539474E-3  
 2.049200000000000E10    1.550431223873647E-3   3.599680324924397E-3  
 2.049400000000000E10    2.222057193356716E-3   3.173131768787165E-3  
 2.049600000000000E10    2.767733482207046E-3   2.556666631228579E-3  
 2.049800000000000E10    3.060065643907882E-3   1.834356767861288E-3  
 2.050000000000000E10    3.101030695194632E-3   1.122188855704196E-3  
 2.050200000000000E10    2.896993415269219E-3   5.980133730055835E-4  
 2.050400000000000E10    2.753902936676218E-3   3.878211005760449E-4  
 2.050600000000000E10    2.876527708046783E-3   2.029534177078556E-4  
 2.050800000000000E10    3.033232754441324E-3  -2.075053890160987E-4  
 2.051000000000000E10    3.010862992708514E-3  -7.618908679837155E-4  
 2.051200000000000E10    2.873786805588523E-3  -1.255633509257970E-3  
 2.051400000000000E10    2.694667374462258E-3  -1.757214185034419E-3  
 2.051600000000000E10    2.363050129425563E-3  -2.296450780704618E-3  
 2.051800000000000E10    1.835753813523937E-3  -2.700565713400274E-3  
 2.052000000000000E10    1.310243826060568E-3  -2.903242612740508E-3  
 2.052200000000000E10    8.427772202448530E-4  -3.066068362835566E-3  
 2.052400000000000E10    3.303485774481095E-4  -3.288173608274924E-3  
 2.052600000000000E10   -3.619746744839682E-4  -3.415490822567617E-3  
 2.052800000000000E10   -1.142407237138185E-3  -3.252052998078275E-3  
 2.053000000000000E10   -1.850775992037890E-3  -2.830225583395841E-3  
 2.053200000000000E10   -2.369056182718020E-3  -2.239993983235809E-3  
 2.053400000000000E10   -2.667654394804512E-3  -1.527405987827131E-3  
 2.053600000000000E10   -2.675249614971288E-3  -8.185515762306752E-4  
 2.053800000000000E10   -2.461447834646629E-3  -2.559948936076031E-4  
 2.054000000000000E10   -2.128494233697837E-3   1.187327963387720E-4  
 2.054200000000000E10   -1.797335311471496E-3   2.357080808041594E-4  
 2.054400000000000E10   -1.665909296005137E-3   1.455953275850603E-4  
 2.054600000000000E10   -1.796593066063469E-3   3.392654697462500E-5  
 2.054800000000000E10   -2.156226845446653E-3   1.820581305820932E-4  
 2.055000000000000E10   -2.470158902859247E-3   7.495754240310671E-4  
 2.055200000000000E10   -2.415063681747811E-3   1.534636810789874E-3  
 2.055400000000000E10   -1.967742296085222E-3   2.230525732523313E-3  
 2.055600000000000E10   -1.301021402828212E-3   2.641106685508549E-3  
