#  HZ   S   RI   R     50.00 
! Rohde & Schwarz ZVA40 4Ports - Version 3.90 - 1145.1110k42 SN: 100403
! Date: 2023-10-03 12:36:26
! Measurement: S12 
! 
 2.000000000000000E10    3.250557196292061E-3  -2.618589214290734E-3  
 2.000200000000000E10    2.796689919368537E-3  -3.242300935434523E-3  
 2.000400000000000E10    2.152523051740395E-3  -3.791939389581482E-3  
 2.000600000000000E10    1.356464698565779E-3  -4.139486700296402E-3  
 2.000800000000000E10    5.130773643031716E-4  -4.300193585179471E-3  
 2.001000000000000E10   -3.394709143591442E-4  -4.253776330086920E-3  
 2.001200000000000E10   -1.097973856505835E-3  -4.022006911260111E-3  
 2.001400000000000E10   -1.749874148690315E-3  -3.773229446745029E-3  
 2.001600000000000E10   -2.502756417487507E-3  -3.395254508143774E-3  
 2.001800000000000E10   -3.166243692653047E-3  -2.697007342552146E-3  
 2.002000000000000E10   -3.498469488005396E-3  -1.825910199571539E-3  
 2.002200000000000E10   -3.539853539593794E-3  -9.753324513978981E-4  
 2.002400000000000E10   -3.342403055824064E-3  -3.159282690224549E-4  
 2.002600000000000E10   -3.055091015994549E-3   1.011948548289689E-4  
 2.002800000000000E10   -2.892863574541278E-3   3.466212386869033E-4  
 2.003000000000000E10   -2.837718395447290E-3   6.460960193416449E-4  
 2.003200000000000E10   -2.759510797827884E-3   9.687060869678305E-4  
 2.003400000000000E10   -2.704945875814668E-3   1.267722191254574E-3  
 2.003600000000000E10   -2.690428807572635E-3   1.699370879645425E-3  
 2.003800000000000E10   -2.520879540868380E-3   2.345566999995046E-3  
 2.004000000000000E10   -2.016962678344162E-3   2.997295413580206E-3  
 2.004200000000000E10   -1.257886079622916E-3   3.395226464986250E-3  
 2.004400000000000E10   -4.270482017158497E-4   3.469769377261401E-3  
 2.004600000000000E10    2.573481443227543E-4   3.244521751723909E-3  
 2.004800000000000E10    6.909402145538481E-4   2.940294927813941E-3  
 2.005000000000000E10    9.892517097156359E-4   2.734079672437576E-3  
 2.005200000000000E10    1.307628070073271E-3   2.616479027050513E-3  
 2.005400000000000E10    1.659198569271852E-3   2.449991526427093E-3  
 2.005600000000000E10    2.055582961205531E-3   2.208582763732584E-3  
 2.005800000000000E10    2.440823147211362E-3   1.895193096802191E-3  
 2.006000000000000E10    2.822790536339636E-3   1.527421003966420E-3  
 2.006200000000000E10    3.173995866543718E-3   9.943703060141869E-4  
 2.006400000000000E10    3.331349765950883E-3   2.919368986551019E-4  
 2.006600000000000E10    3.239819883472390E-3  -3.953043396231132E-4  
 2.006800000000000E10    2.981643718494862E-3  -9.496064804908303E-4  
 2.007000000000000E10    2.687136961699084E-3  -1.295697896879305E-3  
 2.007200000000000E10    2.567383822881513E-3  -1.584184243930159E-3  
 2.007400000000000E10    2.404465883349379E-3  -2.063715468264289E-3  
 2.007600000000000E10    2.000617777445802E-3  -2.567243305276390E-3  
 2.007800000000000E10    1.486806772407834E-3  -2.951531377793463E-3  
 2.008000000000000E10    9.022105347227169E-4  -3.192085169117761E-3  
 2.008200000000000E10    2.688365725420967E-4  -3.297225244481255E-3  
 2.008400000000000E10   -4.207275962000024E-4  -3.232018021797693E-3  
 2.008600000000000E10   -1.010174781118554E-3  -2.944397343391622E-3  
 2.008800000000000E10   -1.413551620552661E-3  -2.595474857285067E-3  
 2.009000000000000E10   -1.687414913990156E-3  -2.253237620203032E-3  
 2.009200000000000E10   -1.820879850398611E-3  -1.970124379214314E-3  
 2.009400000000000E10   -2.025507649199830E-3  -1.838081042040830E-3  
 2.009600000000000E10   -2.402018807414506E-3  -1.618446752049581E-3  
 2.009800000000000E10   -2.780178165132249E-3  -1.265499564060183E-3  
 2.010000000000000E10   -3.060758812353015E-3  -7.420177937968186E-4  
 2.010200000000000E10   -3.131939779484162E-3  -1.774123024747328E-4  
 2.010400000000000E10   -3.129218696375136E-3   3.262188509796505E-4  
 2.010600000000000E10   -3.093462204560638E-3   8.469473600767003E-4  
 2.010800000000000E10   -3.026556939369551E-3   1.391119690163544E-3  
 2.011000000000000E10   -2.823105694174215E-3   1.985031671615111E-3  
 2.011200000000000E10   -2.442159577859221E-3   2.514644422464901E-3  
 2.011400000000000E10   -1.928680058982638E-3   2.990034753801647E-3  
 2.011600000000000E10   -1.288518969280025E-3   3.365926711854560E-3  
 2.011800000000000E10   -6.092226831242442E-4   3.563053793860255E-3  
 2.012000000000000E10    1.053533877792587E-4   3.570090824117264E-3  
 2.012200000000000E10    7.755965580818832E-4   3.384403755060501E-3  
 2.012400000000000E10    1.325901330414194E-3   3.118912818738156E-3  
 2.012600000000000E10    1.820193914075693E-3   2.790419540057580E-3  
 2.012800000000000E10    2.231935306486708E-3   2.395230828335992E-3  
 2.013000000000000E10    2.498719168619977E-3   1.958669309883758E-3  
 2.013200000000000E10    2.674671407375071E-3   1.535382371878735E-3  
 2.013400000000000E10    2.876515681337980E-3   1.108760070228191E-3  
 2.013600000000000E10    3.021427895873785E-3   6.608756828225322E-4  
 2.013800000000000E10    3.120484477322963E-3   2.028328518564296E-4  
 2.014000000000000E10    3.112783698641041E-3  -3.312364160255702E-4  
 2.014200000000000E10    2.932803946788664E-3  -8.327650376250623E-4  
 2.014400000000000E10    2.707539764405401E-3  -1.198909137639459E-3  
 2.014600000000000E10    2.553933774362560E-3  -1.512958926873075E-3  
 2.014800000000000E10    2.442008324174418E-3  -1.863001298193855E-3  
 2.015000000000000E10    2.273376617166732E-3  -2.262383880507615E-3  
 2.015200000000000E10    1.979338488093129E-3  -2.748414442908985E-3  
 2.015400000000000E10    1.467645220044587E-3  -3.273120408670770E-3  
 2.015600000000000E10    7.433303679270602E-4  -3.632391069981236E-3  
 2.015800000000000E10   -1.102833960734036E-4  -3.684870372698815E-3  
 2.016000000000000E10   -8.758761773437815E-4  -3.374277631303779E-3  
 2.016200000000000E10   -1.334774200114663E-3  -2.885694158504959E-3  
 2.016400000000000E10   -1.509243105020788E-3  -2.468434291788274E-3  
 2.016600000000000E10   -1.593891199229768E-3  -2.333213376847131E-3  
 2.016800000000000E10   -1.827516623220786E-3  -2.333993238776371E-3  
 2.017000000000000E10   -2.232237994946816E-3  -2.253719131220822E-3  
 2.017200000000000E10   -2.737504714686010E-3  -1.971580114008652E-3  
 2.017400000000000E10   -3.183960492067315E-3  -1.528872940171924E-3  
 2.017600000000000E10   -3.562027433266243E-3  -9.720661177265425E-4  
 2.017800000000000E10   -3.783749416470528E-3  -2.848047809459753E-4  
 2.018000000000000E10   -3.807918323824803E-3   4.656360510529744E-4  
 2.018200000000000E10   -3.601380917071193E-3   1.205884006426290E-3  
 2.018400000000000E10   -3.206056879005499E-3   1.768769407472401E-3  
 2.018600000000000E10   -2.869228280528828E-3   2.125039765680278E-3  
 2.018800000000000E10   -2.644486535616495E-3   2.466382958960754E-3  
 2.019000000000000E10   -2.340196114447382E-3   2.912526864006564E-3  
 2.019200000000000E10   -1.875080784817261E-3   3.421860453845175E-3  
 2.019400000000000E10   -1.241705971080120E-3   3.834540136503402E-3  
 2.019600000000000E10   -4.831600365125472E-4   4.063230076873745E-3  
 2.019800000000000E10    3.398252722238088E-4   4.042818693927041E-3  
 2.020000000000000E10    1.051150848744092E-3   3.770944127743995E-3  
 2.020200000000000E10    1.528953572873164E-3   3.393061036519983E-3  
 2.020400000000000E10    1.890984299178753E-3   3.177184792649415E-3  
 2.020600000000000E10    2.336674878649690E-3   3.031641098291234E-3  
 2.020800000000000E10    2.864414334504141E-3   2.755808661243430E-3  
 2.021000000000000E10    3.408450391833429E-3   2.351368604986756E-3  
 2.021200000000000E10    4.026788424838473E-3   1.767726628006333E-3  
 2.021400000000000E10    4.509757031445151E-3   8.793983185939767E-4  
 2.021600000000000E10    4.604084468964074E-3  -1.984730275850140E-4  
 2.021800000000000E10    4.285967805319363E-3  -1.199181208869925E-3  
 2.022000000000000E10    3.739331874789463E-3  -1.922403108673516E-3  
 2.022200000000000E10    3.181669748974620E-3  -2.411960296470810E-3  
 2.022400000000000E10    2.639166657226506E-3  -2.791474469833904E-3  
 2.022600000000000E10    2.081011939379904E-3  -2.999829680279450E-3  
 2.022800000000000E10    1.615585151335432E-3  -3.024384146556258E-3  
 2.023000000000000E10    1.339363645658725E-3  -3.152084347136595E-3  
 2.023200000000000E10    9.790704137197248E-4  -3.492569093833919E-3  
 2.023400000000000E10    3.793544903466547E-4  -3.739272011443973E-3  
 2.023600000000000E10   -2.684900849729915E-4  -3.790013440367249E-3  
 2.023800000000000E10   -9.304982226307472E-4  -3.725140571111331E-3  
 2.024000000000000E10   -1.584041738641207E-3  -3.509934776014200E-3  
 2.024200000000000E10   -2.201716398337373E-3  -3.171167741702111E-3  
 2.024400000000000E10   -2.725922235253233E-3  -2.754204173537869E-3  
 2.024600000000000E10   -3.135549335706014E-3  -2.214046652187352E-3  
 2.024800000000000E10   -3.414633666613588E-3  -1.612802467274446E-3  
 2.025000000000000E10   -3.635914177047434E-3  -1.000544737541566E-3  
 2.025200000000000E10   -3.769816641040423E-3  -3.456906361626117E-4  
 2.025400000000000E10   -3.712134547876540E-3   3.522559094967114E-4  
 2.025600000000000E10   -3.468776966824577E-3   1.004049519973773E-3  
 2.025800000000000E10   -3.083862191825002E-3   1.502953064455479E-3  
 2.026000000000000E10   -2.707031564097162E-3   1.827392947032220E-3  
 2.026200000000000E10   -2.425632034255951E-3   2.078630625166827E-3  
 2.026400000000000E10   -2.253840470479595E-3   2.346398041549105E-3  
 2.026600000000000E10   -2.021448514251798E-3   2.741196166930927E-3  
 2.026800000000000E10   -1.572262491444471E-3   3.171166422328464E-3  
 2.027000000000000E10   -1.000151253753791E-3   3.528357354096241E-3  
 2.027200000000000E10   -3.473690292728996E-4   3.754454595899142E-3  
 2.027400000000000E10    4.171837160053353E-4   3.800496010592691E-3  
 2.027600000000000E10    1.194907645522445E-3   3.587553018911018E-3  
 2.027800000000000E10    1.799208957150027E-3   3.175707922006648E-3  
 2.028000000000000E10    2.240202191320283E-3   2.755466184613330E-3  
 2.028200000000000E10    2.614850738879156E-3   2.354074864544802E-3  
 2.028400000000000E10    2.893186096722881E-3   1.915754707254194E-3  
 2.028600000000000E10    3.150523355644611E-3   1.466447220149416E-3  
 2.028800000000000E10    3.415777701539575E-3   9.313447538901260E-4  
 2.029000000000000E10    3.569339013968905E-3   3.351448157681497E-4  
 2.029200000000000E10    3.617795046280932E-3  -2.657403017144168E-4  
 2.029400000000000E10    3.557102435647890E-3  -9.168387257011126E-4  
 2.029600000000000E10    3.340140209291821E-3  -1.572377690872937E-3  
 2.029800000000000E10    2.962594584527392E-3  -2.178786745018982E-3  
 2.030000000000000E10    2.486585604923743E-3  -2.687759878527788E-3  
 2.030200000000000E10    1.916939047751603E-3  -3.005219045681535E-3  
 2.030400000000000E10    1.421280606235895E-3  -3.128205607127813E-3  
 2.030600000000000E10    1.031301687126634E-3  -3.298026742413641E-3  
 2.030800000000000E10    5.617203509986953E-4  -3.585378156492004E-3  
 2.031000000000000E10   -5.788289477263962E-5  -3.835006910203784E-3  
 2.031200000000000E10   -8.285952003293292E-4  -3.948296558249881E-3  
 2.031400000000000E10   -1.761903766439193E-3  -3.865941134453924E-3  
 2.031600000000000E10   -2.755938908430162E-3  -3.371689330648493E-3  
 2.031800000000000E10   -3.431569232984826E-3  -2.455107195095884E-3  
 2.032000000000000E10   -3.635527445348325E-3  -1.516097872000602E-3  
 2.032200000000000E10   -3.540678087759902E-3  -7.949402529953255E-4  
 2.032400000000000E10   -3.384953399223310E-3  -2.668184611980838E-4  
 2.032600000000000E10   -3.284949938663179E-3   1.708252327969402E-4  
 2.032800000000000E10   -3.233310749271402E-3   5.716146422653564E-4  
 2.033000000000000E10   -3.183630458941615E-3   9.886090777365976E-4  
 2.033200000000000E10   -3.114083143709987E-3   1.467503396000851E-3  
 2.033400000000000E10   -2.960020486541369E-3   2.055145071439997E-3  
 2.033600000000000E10   -2.814464271068573E-3   2.396253480886420E-3  
 2.033800000000000E10   -2.056721891104072E-3   3.165418480488438E-3  
 2.034000000000000E10   -1.477561947130771E-3   3.540959511021222E-3  
 2.034200000000000E10   -8.219616979153621E-4   3.780492331349740E-3  
 2.034400000000000E10   -1.271726968870671E-4   3.935698894093987E-3  
 2.034600000000000E10    6.047095036289345E-4   4.001824961354336E-3  
 2.034800000000000E10    1.405277552462563E-3   3.979231506862023E-3  
 2.035000000000000E10    2.315797325637606E-3   3.704428629673742E-3  
 2.035200000000000E10    3.162896847007452E-3   3.121744755103633E-3  
 2.035400000000000E10    3.827119332358794E-3   2.230714420201602E-3  
 2.035600000000000E10    4.122566517994360E-3   1.156176522339660E-3  
 2.035800000000000E10    3.996055211044021E-3   1.848459133826610E-4  
 2.036000000000000E10    3.613222364543214E-3  -5.033326516341832E-4  
 2.036200000000000E10    3.229141304338420E-3  -9.936923894134386E-4  
 2.036400000000000E10    2.860938586915533E-3  -1.350064231600199E-3  
 2.036600000000000E10    2.572329602790652E-3  -1.573269621951989E-3  
 2.036800000000000E10    2.415086470406365E-3  -1.744397691692467E-3  
 2.037000000000000E10    2.319954628883689E-3  -2.078583101845450E-3  
 2.037200000000000E10    2.078521168894238E-3  -2.537789918413317E-3  
 2.037400000000000E10    1.652361152486669E-3  -3.007901064982569E-3  
 2.037600000000000E10    1.038675696623546E-3  -3.384141708482748E-3  
 2.037800000000000E10    3.241805612493341E-4  -3.510927919436384E-3  
 2.038000000000000E10   -3.308299392638556E-4  -3.382833243382199E-3  
 2.038200000000000E10   -8.515611558255776E-4  -3.131488286372689E-3  
 2.038400000000000E10   -1.208459059449120E-3  -2.911460844592916E-3  
 2.038600000000000E10   -1.530693455909689E-3  -2.801562745675997E-3  
 2.038800000000000E10   -1.969293354906970E-3  -2.697983178896485E-3  
 2.039000000000000E10   -2.526742138865370E-3  -2.428217178762511E-3  
 2.039200000000000E10   -3.052876813820116E-3  -1.915512554761437E-3  
 2.039400000000000E10   -3.369132574233744E-3  -1.223313639423362E-3  
 2.039600000000000E10   -3.462688911154315E-3  -5.900185895842259E-4  
 2.039800000000000E10   -3.441763921054426E-3  -1.090672971999823E-5  
 2.040000000000000E10   -3.293757482121388E-3   5.769069097436000E-4  
 2.040200000000000E10   -3.000612491396843E-3   1.014981403757163E-3  
 2.040400000000000E10   -2.821951863114481E-3   1.265999218621464E-3  
 2.040600000000000E10   -2.761731959051556E-3   1.556674967071525E-3  
 2.040800000000000E10   -2.686280722695369E-3   1.970420401819327E-3  
 2.041000000000000E10   -2.510262153076905E-3   2.524280661924018E-3  
 2.041200000000000E10   -2.067964222213185E-3   3.114085903184282E-3  
 2.041400000000000E10   -1.459326965872337E-3   3.543784445220674E-3  
 2.041600000000000E10   -8.081765414250119E-4   3.816881406776332E-3  
 2.041800000000000E10   -8.601552151419494E-5   3.926691099035520E-3  
 2.042000000000000E10    6.708263503646273E-4   3.861155205716690E-3  
 2.042200000000000E10    1.380943917427902E-3   3.628783428144676E-3  
 2.042400000000000E10    1.952399797220197E-3   3.272818953350739E-3  
 2.042600000000000E10    2.382136691637614E-3   2.868832278720759E-3  
 2.042800000000000E10    2.735487254405464E-3   2.467391745152849E-3  
 2.043000000000000E10    3.098232516398033E-3   2.068987090347542E-3  
 2.043200000000000E10    3.493633362706061E-3   1.541940534176926E-3  
 2.043400000000000E10    3.755414754980140E-3   8.746609221109087E-4  
 2.043600000000000E10    3.763442358898896E-3   2.328612682942077E-4  
 2.043800000000000E10    3.689604923474017E-3  -3.185860550729559E-4  
 2.044000000000000E10    3.621285479446804E-3  -8.798127937889487E-4  
 2.044200000000000E10    3.494010884659711E-3  -1.439098988797654E-3  
 2.044400000000000E10    3.305176807636465E-3  -1.949132023448194E-3  
 2.044600000000000E10    3.088522814559165E-3  -2.495926977307709E-3  
 2.044800000000000E10    2.721772555054890E-3  -3.128358654470908E-3  
 2.045000000000000E10    2.123272443121231E-3  -3.736655753864735E-3  
 2.045200000000000E10    1.312502362351451E-3  -4.259303574346835E-3  
 2.045400000000000E10    2.790713522497552E-4  -4.504067788797397E-3  
 2.045600000000000E10   -7.687207608897653E-4  -4.256013763585577E-3  
 2.045800000000000E10   -1.555427339755827E-3  -3.700581103287362E-3  
 2.046000000000000E10   -2.032455565683820E-3  -3.070564733611213E-3  
 2.046200000000000E10   -2.238851946054234E-3  -2.561538273261653E-3  
 2.046400000000000E10   -2.377735226656552E-3  -2.191406855773595E-3  
 2.046600000000000E10   -2.527086245309976E-3  -1.868041792746496E-3  
 2.046800000000000E10   -2.686871914193034E-3  -1.568942149687145E-3  
 2.047000000000000E10   -2.936792214987455E-3  -1.238319268277674E-3  
 2.047200000000000E10   -3.198703009359263E-3  -8.176035609924132E-4  
 2.047400000000000E10   -3.320548942105638E-3  -2.833939431217948E-4  
 2.047600000000000E10   -3.231728026919344E-3   2.512986964709988E-4  
 2.047800000000000E10   -3.070487580434592E-3   6.454822637520180E-4  
 2.048000000000000E10   -3.032252425327897E-3   9.667508248067292E-4  
 2.048200000000000E10   -3.108139020494289E-3   1.400852429301099E-3  
 2.048400000000000E10   -3.045736363640538E-3   2.030635045634376E-3  
 2.048600000000000E10   -2.731202325473229E-3   2.723340695309971E-3  
 2.048800000000000E10   -2.129772074382615E-3   3.344709191609313E-3  
 2.049000000000000E10   -1.348384522350022E-3   3.756952756601904E-3  
 2.049200000000000E10   -5.586162808834127E-4   3.917025747122589E-3  
 2.049400000000000E10    2.204494227987232E-4   3.887759763057586E-3  
 2.049600000000000E10    9.993472399569498E-4   3.636845163311120E-3  
 2.049800000000000E10    1.614808570593596E-3   3.163154625023406E-3  
 2.050000000000000E10    1.969480007472966E-3   2.628521545341721E-3  
 2.050200000000000E10    2.019042933911637E-3   2.230933013682564E-3  
 2.050400000000000E10    2.107764335556163E-3   2.136856386507000E-3  
 2.050600000000000E10    2.494775069256624E-3   2.034019247663242E-3  
 2.050800000000000E10    2.999874047452102E-3   1.674978528171778E-3  
 2.051000000000000E10    3.395719677899724E-3   1.122445165593591E-3  
 2.051200000000000E10    3.662397610713487E-3   5.047642561193142E-4  
 2.051400000000000E10    3.780890264789816E-3  -2.339633388651742E-4  
 2.051600000000000E10    3.637386511804329E-3  -1.054872974270472E-3  
 2.051800000000000E10    3.229517481048351E-3  -1.739536662137619E-3  
 2.052000000000000E10    2.806754230901047E-3  -2.183419255608762E-3  
 2.052200000000000E10    2.454334421566239E-3  -2.570870228939586E-3  
 2.052400000000000E10    2.027154658679609E-3  -3.037150888876231E-3  
 2.052600000000000E10    1.329546449361024E-3  -3.456052892875893E-3  
 2.052800000000000E10    4.705114481987915E-4  -3.596671322291649E-3  
 2.053000000000000E10   -2.690097020671670E-4  -3.446103013293059E-3  
 2.053200000000000E10   -8.480719234621912E-4  -3.153946518001182E-3  
 2.053400000000000E10   -1.316454666839154E-3  -2.743707478253378E-3  
 2.053600000000000E10   -1.597225601370964E-3  -2.284297262559886E-3  
 2.053800000000000E10   -1.724131651119226E-3  -1.912069230995797E-3  
 2.054000000000000E10   -1.748895725338824E-3  -1.659917024274667E-3  
 2.054200000000000E10   -1.773727001380865E-3  -1.570441867914741E-3  
 2.054400000000000E10   -1.963981246161792E-3  -1.589736383822229E-3  
 2.054600000000000E10   -2.402324082881764E-3  -1.548376688906164E-3  
 2.054800000000000E10   -3.071172231877292E-3  -1.237714749381498E-3  
 2.055000000000000E10   -3.646691553984528E-3  -4.620267524539183E-4  
 2.055200000000000E10   -3.744932184754699E-3   5.735643768545103E-4  
 2.055400000000000E10   -3.402954277892908E-3   1.527970255766478E-3  
 2.055600000000000E10   -2.806659098024722E-3   2.230716714014610E-3  
