#  HZ   S   RI   R     50.00 
! Rohde & Schwarz ZVA40 4Ports - Version 3.90 - 1145.1110k42 SN: 100403
! Date: 2023-10-03 12:35:59
! Measurement: S12 
! 
 2.000000000000000E10    3.615304942668221E-3  -2.335565038209345E-3  
 2.000200000000000E10    3.186480763057868E-3  -3.068072428167971E-3  
 2.000400000000000E10    2.501091957207264E-3  -3.691365640541470E-3  
 2.000600000000000E10    1.655734703232201E-3  -4.067203995806200E-3  
 2.000800000000000E10    8.298140479090774E-4  -4.226165679915820E-3  
 2.001000000000000E10    2.931067741501693E-5  -4.199488795603868E-3  
 2.001200000000000E10   -6.534665166170418E-4  -4.024591360149193E-3  
 2.001400000000000E10   -1.262187966387029E-3  -3.881791014408256E-3  
 2.001600000000000E10   -2.039420579410630E-3  -3.652037776730679E-3  
 2.001800000000000E10   -2.786920158721415E-3  -3.072329380055085E-3  
 2.002000000000000E10   -3.227360287888184E-3  -2.292795132638680E-3  
 2.002200000000000E10   -3.410620405051260E-3  -1.498495556276154E-3  
 2.002400000000000E10   -3.364650966645576E-3  -8.171670761154852E-4  
 2.002600000000000E10   -3.187392361140178E-3  -3.297344959674427E-4  
 2.002800000000000E10   -3.079478536950954E-3  -3.851309444189052E-5  
 2.003000000000000E10   -3.078071064212256E-3   2.818927725771281E-4  
 2.003200000000000E10   -3.074524461372216E-3   6.729997665747817E-4  
 2.003400000000000E10   -3.049145754495705E-3   1.092289735413628E-3  
 2.003600000000000E10   -3.023108938869871E-3   1.624319081505140E-3  
 2.003800000000000E10   -2.830009384333720E-3   2.323433774075023E-3  
 2.004000000000000E10   -2.299617271709406E-3   2.996042327679418E-3  
 2.004200000000000E10   -1.538992145121742E-3   3.416190498772963E-3  
 2.004400000000000E10   -7.264959384445792E-4   3.526199873490834E-3  
 2.004600000000000E10   -6.942973692432902E-5   3.378184477764148E-3  
 2.004800000000000E10    3.686961218467511E-4   3.166379553645298E-3  
 2.005000000000000E10    7.093793361873171E-4   3.066127156884767E-3  
 2.005200000000000E10    1.150472316729986E-3   3.031306000380421E-3  
 2.005400000000000E10    1.688297740241260E-3   2.871224170918635E-3  
 2.005600000000000E10    2.216962922111522E-3   2.546227807294072E-3  
 2.005800000000000E10    2.639283066799428E-3   2.096035868435363E-3  
 2.006000000000000E10    2.958246716585609E-3   1.614217383407608E-3  
 2.006200000000000E10    3.243570247619057E-3   1.081036609298561E-3  
 2.006400000000000E10    3.394704743253965E-3   4.139249460961395E-4  
 2.006600000000000E10    3.326068201136811E-3  -2.401024922383604E-4  
 2.006800000000000E10    3.094120126470556E-3  -7.507679552805646E-4  
 2.007000000000000E10    2.877731962750356E-3  -1.075295402300487E-3  
 2.007200000000000E10    2.851947012391908E-3  -1.439117907006064E-3  
 2.007400000000000E10    2.732953893158723E-3  -2.046708937412427E-3  
 2.007600000000000E10    2.313444204053577E-3  -2.657805670075763E-3  
 2.007800000000000E10    1.706036066429483E-3  -3.117284306359513E-3  
 2.008000000000000E10    1.006121129188457E-3  -3.379833309646743E-3  
 2.008200000000000E10    2.761456319907060E-4  -3.449163419757912E-3  
 2.008400000000000E10   -4.149237259601554E-4  -3.329652134490051E-3  
 2.008600000000000E10   -9.429966994952182E-4  -3.026240832965683E-3  
 2.008800000000000E10   -1.303705776305755E-3  -2.711116686969260E-3  
 2.009000000000000E10   -1.597245386226770E-3  -2.416291820276299E-3  
 2.009200000000000E10   -1.809922827373225E-3  -2.174896590503646E-3  
 2.009400000000000E10   -2.082316225026677E-3  -2.044682641065231E-3  
 2.009600000000000E10   -2.494263709925207E-3  -1.798322463097672E-3  
 2.009800000000000E10   -2.885578686003516E-3  -1.382403525546837E-3  
 2.010000000000000E10   -3.162797471439397E-3  -8.111286837964055E-4  
 2.010200000000000E10   -3.241907382659891E-3  -2.092459790780854E-4  
 2.010400000000000E10   -3.244099836727536E-3   2.982202751337792E-4  
 2.010600000000000E10   -3.219845109722681E-3   8.148389701720007E-4  
 2.010800000000000E10   -3.134495664939836E-3   1.382835183499588E-3  
 2.011000000000000E10   -2.878157761131909E-3   2.041604786674366E-3  
 2.011200000000000E10   -2.430794843943951E-3   2.570345923074602E-3  
 2.011400000000000E10   -1.905919019604263E-3   2.971084351524895E-3  
 2.011600000000000E10   -1.315727165934665E-3   3.272072423571422E-3  
 2.011800000000000E10   -6.796113936874419E-4   3.452875329480496E-3  
 2.012000000000000E10    1.244352766482253E-5   3.491923149767114E-3  
 2.012200000000000E10    6.613027617726246E-4   3.341602515084325E-3  
 2.012400000000000E10    1.172245373765444E-3   3.098388840616854E-3  
 2.012600000000000E10    1.603976443961815E-3   2.810641942131851E-3  
 2.012800000000000E10    1.990477652231485E-3   2.487405576961644E-3  
 2.013000000000000E10    2.309499233731150E-3   2.123401437046720E-3  
 2.013200000000000E10    2.560989482811204E-3   1.775969869031767E-3  
 2.013400000000000E10    2.818084491508795E-3   1.398595213821089E-3  
 2.013600000000000E10    3.034651394427559E-3   9.401821018265632E-4  
 2.013800000000000E10    3.173327113697191E-3   4.227101719466809E-4  
 2.014000000000000E10    3.167800197124850E-3  -1.666517821348985E-4  
 2.014200000000000E10    3.011602365101378E-3  -6.311172734440110E-4  
 2.014400000000000E10    2.865098689878245E-3  -9.490296899996424E-4  
 2.014600000000000E10    2.817776649155552E-3  -1.265415253497109E-3  
 2.014800000000000E10    2.770491010497934E-3  -1.719691382468115E-3  
 2.015000000000000E10    2.615700685706588E-3  -2.261463377371799E-3  
 2.015200000000000E10    2.311153567315620E-3  -2.837649144140291E-3  
 2.015400000000000E10    1.773179165248610E-3  -3.400758601564133E-3  
 2.015600000000000E10    1.004139148273770E-3  -3.786778103353249E-3  
 2.015800000000000E10    1.146492033939590E-4  -3.888015224264912E-3  
 2.016000000000000E10   -7.165324993512053E-4  -3.663003246334417E-3  
 2.016200000000000E10   -1.288843197449122E-3  -3.209194231686401E-3  
 2.016400000000000E10   -1.550817916767649E-3  -2.778020006156078E-3  
 2.016600000000000E10   -1.685782184789854E-3  -2.555771385905920E-3  
 2.016800000000000E10   -1.959221998091649E-3  -2.482734795912733E-3  
 2.017000000000000E10   -2.389597450670454E-3  -2.383802755862291E-3  
 2.017200000000000E10   -2.898979909074160E-3  -2.110949703089801E-3  
 2.017400000000000E10   -3.354553667897428E-3  -1.653979421754218E-3  
 2.017600000000000E10   -3.726962068474588E-3  -1.046911958478575E-3  
 2.017800000000000E10   -3.947275995426340E-3  -3.075222650048450E-4  
 2.018000000000000E10   -3.966211401684969E-3   4.664655112989110E-4  
 2.018200000000000E10   -3.762305541722864E-3   1.210265512647176E-3  
 2.018400000000000E10   -3.377712515677200E-3   1.770368597562207E-3  
 2.018600000000000E10   -3.046114736432095E-3   2.171736983812334E-3  
 2.018800000000000E10   -2.801348883543670E-3   2.598759074361972E-3  
 2.019000000000000E10   -2.475806500440763E-3   3.119680104938187E-3  
 2.019200000000000E10   -1.980492784814151E-3   3.639727537692697E-3  
 2.019400000000000E10   -1.267659161699775E-3   4.038360929921454E-3  
 2.019600000000000E10   -4.603287275524144E-4   4.221412985597128E-3  
 2.019800000000000E10    3.546711048801189E-4   4.215972250856368E-3  
 2.020000000000000E10    1.118494130176619E-3   3.983277603294011E-3  
 2.020200000000000E10    1.652698766980550E-3   3.602912241340052E-3  
 2.020400000000000E10    2.053793447874027E-3   3.311431354463653E-3  
 2.020600000000000E10    2.570078989927784E-3   3.079360543554764E-3  
 2.020800000000000E10    3.136338942028858E-3   2.715442847046588E-3  
 2.021000000000000E10    3.653437913866875E-3   2.249670082726229E-3  
 2.021200000000000E10    4.178310658230827E-3   1.619235241647672E-3  
 2.021400000000000E10    4.558275511235367E-3   7.187439262418560E-4  
 2.021600000000000E10    4.605790571436103E-3  -3.211229236905728E-4  
 2.021800000000000E10    4.305707434491244E-3  -1.258531303639397E-3  
 2.022000000000000E10    3.824482913370486E-3  -1.966197298046340E-3  
 2.022200000000000E10    3.301432272879247E-3  -2.508075163343255E-3  
 2.022400000000000E10    2.686039096227399E-3  -2.964094108729451E-3  
 2.022600000000000E10    2.030512251902694E-3  -3.216177443571298E-3  
 2.022800000000000E10    1.488196968250437E-3  -3.258436475592999E-3  
 2.023000000000000E10    1.162697627197629E-3  -3.338774005066098E-3  
 2.023200000000000E10    7.521779345417465E-4  -3.576530215479894E-3  
 2.023400000000000E10    1.278346836319722E-4  -3.724683248610409E-3  
 2.023600000000000E10   -5.115794138637958E-4  -3.713633229864049E-3  
 2.023800000000000E10   -1.124564801158821E-3  -3.582216255987685E-3  
 2.024000000000000E10   -1.701847368414388E-3  -3.352313417435429E-3  
 2.024200000000000E10   -2.255609925882317E-3  -3.016546543940534E-3  
 2.024400000000000E10   -2.762876338911830E-3  -2.542649257790160E-3  
 2.024600000000000E10   -3.162692295226419E-3  -1.982424862360881E-3  
 2.024800000000000E10   -3.402608041479080E-3  -1.392497209671103E-3  
 2.025000000000000E10   -3.544670825732160E-3  -8.153611137301744E-4  
 2.025200000000000E10   -3.622790269645644E-3  -1.947880240392952E-4  
 2.025400000000000E10   -3.563254410515966E-3   4.690279497874234E-4  
 2.025600000000000E10   -3.349083541880972E-3   1.101139018795005E-3  
 2.025800000000000E10   -2.959893447243505E-3   1.588981131517133E-3  
 2.026000000000000E10   -2.534644982927008E-3   1.867454151197533E-3  
 2.026200000000000E10   -2.209266745427877E-3   2.041725930470376E-3  
 2.026400000000000E10   -2.026141741899429E-3   2.276187242342183E-3  
 2.026600000000000E10   -1.807431900229903E-3   2.678529186933129E-3  
 2.026800000000000E10   -1.376577356922222E-3   3.084380837893229E-3  
 2.027000000000000E10   -8.279189444434496E-4   3.362128329980705E-3  
 2.027200000000000E10   -1.588167973368624E-4   3.525468532317951E-3  
 2.027400000000000E10    5.661199475857027E-4   3.512642165232036E-3  
 2.027600000000000E10    1.231378159934172E-3   3.264025437220196E-3  
 2.027800000000000E10    1.731879142526951E-3   2.867883378869774E-3  
 2.028000000000000E10    2.073256178172651E-3   2.442284573421434E-3  
 2.028200000000000E10    2.352202023712942E-3   2.032473114215666E-3  
 2.028400000000000E10    2.581206690750005E-3   1.640911205430274E-3  
 2.028600000000000E10    2.814245473501491E-3   1.289252988005310E-3  
 2.028800000000000E10    3.041718850763125E-3   8.543780839565085E-4  
 2.029000000000000E10    3.153272737737424E-3   3.401375060216927E-4  
 2.029200000000000E10    3.211217104560799E-3  -1.773592595759791E-4  
 2.029400000000000E10    3.217537916138952E-3  -7.573979515812280E-4  
 2.029600000000000E10    3.047773122994437E-3  -1.358809540289696E-3  
 2.029800000000000E10    2.730714116981369E-3  -1.884584727605092E-3  
 2.030000000000000E10    2.278742001012520E-3  -2.300768935432037E-3  
 2.030200000000000E10    1.771571356113310E-3  -2.561635133683866E-3  
 2.030400000000000E10    1.364693673683997E-3  -2.703830045015540E-3  
 2.030600000000000E10    1.065590828484683E-3  -2.888200149216034E-3  
 2.030800000000000E10    7.068433678122584E-4  -3.148340881675666E-3  
 2.031000000000000E10    1.721629874894315E-4  -3.413165074393706E-3  
 2.031200000000000E10   -5.196053268859325E-4  -3.588380389789373E-3  
 2.031400000000000E10   -1.358944188263038E-3  -3.611993225705293E-3  
 2.031600000000000E10   -2.287714184480317E-3  -3.267497997041102E-3  
 2.031800000000000E10   -2.934308262702860E-3  -2.464225783047301E-3  
 2.032000000000000E10   -3.117527134348582E-3  -1.609529183177209E-3  
 2.032200000000000E10   -3.093049436071773E-3  -9.847634377095987E-4  
 2.032400000000000E10   -3.059856110700855E-3  -5.356450090874677E-4  
 2.032600000000000E10   -3.039403674825106E-3  -1.291166426884126E-4  
 2.032800000000000E10   -2.995808154666498E-3   2.580906191185393E-4  
 2.033000000000000E10   -2.965435078137635E-3   6.715568920804395E-4  
 2.033200000000000E10   -2.961919700473915E-3   1.100586566292210E-3  
 2.033400000000000E10   -2.890953153118860E-3   1.636118096310968E-3  
 2.033600000000000E10   -2.827527378053393E-3   1.906629085517776E-3  
 2.033800000000000E10   -2.240055370041066E-3   2.643273712170345E-3  
 2.034000000000000E10   -1.760614057140494E-3   3.060548888220464E-3  
 2.034200000000000E10   -1.204004791496253E-3   3.399814208854496E-3  
 2.034400000000000E10   -6.011396953347428E-4   3.657539067559956E-3  
 2.034600000000000E10    5.836952617823112E-5   3.823605394795722E-3  
 2.034800000000000E10    8.386932988938543E-4   3.901265274135419E-3  
 2.035000000000000E10    1.754831787152791E-3   3.792958624408017E-3  
 2.035200000000000E10    2.657086286624825E-3   3.373789310708275E-3  
 2.035400000000000E10    3.403860405892318E-3   2.618675128798242E-3  
 2.035600000000000E10    3.768678288906814E-3   1.619875839233031E-3  
 2.035800000000000E10    3.700056383501233E-3   6.864385558637207E-4  
 2.036000000000000E10    3.427276632139161E-3   3.582205825318577E-5  
 2.036200000000000E10    3.191289437336871E-3  -3.992500082578188E-4  
 2.036400000000000E10    2.976245726861152E-3  -7.351606438959731E-4  
 2.036600000000000E10    2.795933788918235E-3  -9.873973444265165E-4  
 2.036800000000000E10    2.764472148645624E-3  -1.263498268262656E-3  
 2.037000000000000E10    2.791093688251244E-3  -1.745294105480023E-3  
 2.037200000000000E10    2.629635812438749E-3  -2.349333331724744E-3  
 2.037400000000000E10    2.234695683359917E-3  -2.947074076574710E-3  
 2.037600000000000E10    1.595096107871260E-3  -3.401360609626145E-3  
 2.037800000000000E10    8.396505245961894E-4  -3.607620381646686E-3  
 2.038000000000000E10    1.442276416914135E-4  -3.622116434767292E-3  
 2.038200000000000E10   -4.394069338435837E-4  -3.481256269654375E-3  
 2.038400000000000E10   -8.771543888329173E-4  -3.317862418537707E-3  
 2.038600000000000E10   -1.344097564054400E-3  -3.226009062433869E-3  
 2.038800000000000E10   -1.959113152640194E-3  -3.101154009202196E-3  
 2.039000000000000E10   -2.596869383490196E-3  -2.771945974939032E-3  
 2.039200000000000E10   -3.127144701364968E-3  -2.233491928811059E-3  
 2.039400000000000E10   -3.426370716849228E-3  -1.556836427936767E-3  
 2.039600000000000E10   -3.541865685011870E-3  -9.270566185062500E-4  
 2.039800000000000E10   -3.594493384208577E-3  -3.027069370871709E-4  
 2.040000000000000E10   -3.517491794708703E-3   3.211388129447760E-4  
 2.040200000000000E10   -3.261675891454942E-3   7.847380812889265E-4  
 2.040400000000000E10   -3.069831679264705E-3   1.071161183781554E-3  
 2.040600000000000E10   -3.013098836634998E-3   1.430707740781392E-3  
 2.040800000000000E10   -2.972011681485140E-3   1.892931050804938E-3  
 2.041000000000000E10   -2.862553261680368E-3   2.480637147033840E-3  
 2.041200000000000E10   -2.510564786922417E-3   3.123443053437420E-3  
 2.041400000000000E10   -1.931098654843224E-3   3.659411692807888E-3  
 2.041600000000000E10   -1.209548400013627E-3   4.060821831916218E-3  
 2.041800000000000E10   -3.700770468617802E-4   4.275176294699864E-3  
 2.042000000000000E10    4.343189845971166E-4   4.290213860157464E-3  
 2.042200000000000E10    1.216521298363345E-3   4.120575660770691E-3  
 2.042400000000000E10    1.940242470426048E-3   3.777697748493082E-3  
 2.042600000000000E10    2.571772715007818E-3   3.357193277527889E-3  
 2.042800000000000E10    3.130781998926843E-3   2.879820051200596E-3  
 2.043000000000000E10    3.601796669241640E-3   2.316243141705608E-3  
 2.043200000000000E10    3.954762282470862E-3   1.610564902988205E-3  
 2.043400000000000E10    4.100798341779062E-3   8.258738383984216E-4  
 2.043600000000000E10    4.042611624125714E-3   1.067254179810177E-4  
 2.043800000000000E10    3.921799281221114E-3  -4.610429542357632E-4  
 2.044000000000000E10    3.801876374370890E-3  -9.968973506517985E-4  
 2.044200000000000E10    3.607468035669975E-3  -1.537038558047771E-3  
 2.044400000000000E10    3.335707231689199E-3  -2.072206528765368E-3  
 2.044600000000000E10    3.093206542141644E-3  -2.599760142649398E-3  
 2.044800000000000E10    2.782290637562121E-3  -3.214308750574236E-3  
 2.045000000000000E10    2.264178490243209E-3  -3.849860964871852E-3  
 2.045200000000000E10    1.463499314002233E-3  -4.410106694486775E-3  
 2.045400000000000E10    3.694607976847042E-4  -4.694832362418558E-3  
 2.045600000000000E10   -7.463210545491751E-4  -4.499292156348626E-3  
 2.045800000000000E10   -1.565693452218433E-3  -3.993844670921933E-3  
 2.046000000000000E10   -2.090212529709126E-3  -3.388830058184671E-3  
 2.046200000000000E10   -2.399967578067272E-3  -2.816740210731457E-3  
 2.046400000000000E10   -2.630245319947049E-3  -2.349648181992917E-3  
 2.046600000000000E10   -2.836095298536950E-3  -1.959680085196908E-3  
 2.046800000000000E10   -3.042198338166432E-3  -1.613150140914468E-3  
 2.047000000000000E10   -3.278497152352407E-3  -1.209596069932076E-3  
 2.047200000000000E10   -3.490089772292126E-3  -6.709273819765652E-4  
 2.047400000000000E10   -3.544157023116211E-3  -1.036704431083500E-5  
 2.047600000000000E10   -3.374994284024945E-3   5.885157037100952E-4  
 2.047800000000000E10   -3.121404598156612E-3   9.617493746595251E-4  
 2.048000000000000E10   -2.978548534030532E-3   1.217703817895165E-3  
 2.048200000000000E10   -2.951931311852403E-3   1.591963709309054E-3  
 2.048400000000000E10   -2.844189678859196E-3   2.185888964981761E-3  
 2.048600000000000E10   -2.517362895571156E-3   2.839643430585663E-3  
 2.048800000000000E10   -1.959718829940683E-3   3.402507835194285E-3  
 2.049000000000000E10   -1.231645064336467E-3   3.766079203306158E-3  
 2.049200000000000E10   -4.391590770000569E-4   3.918400109044196E-3  
 2.049400000000000E10    3.916968722298835E-4   3.892231623377698E-3  
 2.049600000000000E10    1.171084682825079E-3   3.611414638681361E-3  
 2.049800000000000E10    1.727415681356725E-3   3.115477819386640E-3  
 2.050000000000000E10    2.038223950629249E-3   2.536705209310224E-3  
 2.050200000000000E10    2.088276876343621E-3   2.088577960859294E-3  
 2.050400000000000E10    2.189941482940390E-3   1.967963932174040E-3  
 2.050600000000000E10    2.568985804064591E-3   1.852017825894794E-3  
 2.050800000000000E10    3.009238401082931E-3   1.493756613337700E-3  
 2.051000000000000E10    3.311298747351509E-3   9.376355123499202E-4  
 2.051200000000000E10    3.488155268707578E-3   3.405340437354796E-4  
 2.051400000000000E10    3.584881045821089E-3  -3.361944554741553E-4  
 2.051600000000000E10    3.490985790842478E-3  -1.067804767646723E-3  
 2.051800000000000E10    3.139337513273882E-3  -1.706174921163899E-3  
 2.052000000000000E10    2.696896681884005E-3  -2.157282334303966E-3  
 2.052200000000000E10    2.296046612577306E-3  -2.549007580972013E-3  
 2.052400000000000E10    1.860829724148376E-3  -2.993374482303122E-3  
 2.052600000000000E10    1.201594182301635E-3  -3.386919294702419E-3  
 2.052800000000000E10    3.823889270324238E-4  -3.479576390811507E-3  
 2.053000000000000E10   -3.514054617959501E-4  -3.295228299167422E-3  
 2.053200000000000E10   -9.327058358416882E-4  -2.969987227661927E-3  
 2.053400000000000E10   -1.359078162177294E-3  -2.568129248871112E-3  
 2.053600000000000E10   -1.585025379123787E-3  -2.124057208866249E-3  
 2.053800000000000E10   -1.659253360646099E-3  -1.734772701402781E-3  
 2.054000000000000E10   -1.645340898971039E-3  -1.454540828737304E-3  
 2.054200000000000E10   -1.632182962364621E-3  -1.380166478662028E-3  
 2.054400000000000E10   -1.805707560794681E-3  -1.441131068543060E-3  
 2.054600000000000E10   -2.205343218520284E-3  -1.436965916604724E-3  
 2.054800000000000E10   -2.808404479888671E-3  -1.162215330017110E-3  
 2.055000000000000E10   -3.319695827631672E-3  -4.194167515918337E-4  
 2.055200000000000E10   -3.415865697150614E-3   5.297421594150364E-4  
 2.055400000000000E10   -3.152208040571876E-3   1.370898900657065E-3  
 2.055600000000000E10   -2.655680170627656E-3   2.030501639424467E-3  
