#  HZ   S   RI   R     50.00 
! Rohde & Schwarz ZVA40 4Ports - Version 3.90 - 1145.1110k42 SN: 100403
! Date: 2023-10-03 12:35:20
! Measurement: S12 
! 
 2.000000000000000E10    3.528654362638424E-3  -2.257829968944009E-3  
 2.000200000000000E10    3.037371925641725E-3  -2.935797803931767E-3  
 2.000400000000000E10    2.391159390731726E-3  -3.482930074779340E-3  
 2.000600000000000E10    1.657170637361246E-3  -3.796906819866028E-3  
 2.000800000000000E10    9.643442089450950E-4  -3.937273547858184E-3  
 2.001000000000000E10    2.795897606928419E-4  -4.001396604710156E-3  
 2.001200000000000E10   -4.075495130957370E-4  -4.002632561749147E-3  
 2.001400000000000E10   -1.132842094384502E-3  -3.941596212601405E-3  
 2.001600000000000E10   -1.974140387315902E-3  -3.679595456493122E-3  
 2.001800000000000E10   -2.690618877862523E-3  -3.063882839072635E-3  
 2.002000000000000E10   -3.070776086346603E-3  -2.283514825121305E-3  
 2.002200000000000E10   -3.228390094950612E-3  -1.550541276595107E-3  
 2.002400000000000E10   -3.222774464154134E-3  -9.540686596552900E-4  
 2.002600000000000E10   -3.092566993731408E-3  -5.212686549912403E-4  
 2.002800000000000E10   -3.036121768807924E-3  -2.128444223076875E-4  
 2.003000000000000E10   -3.040023340648156E-3   1.373256493451788E-4  
 2.003200000000000E10   -3.062819688362473E-3   5.191064279463235E-4  
 2.003400000000000E10   -3.079522769024343E-3   9.252047072808593E-4  
 2.003600000000000E10   -3.105036968963198E-3   1.440364532575103E-3  
 2.003800000000000E10   -2.948015982883028E-3   2.125771993621724E-3  
 2.004000000000000E10   -2.490341723724096E-3   2.806978763000650E-3  
 2.004200000000000E10   -1.780706863091500E-3   3.305918332994168E-3  
 2.004400000000000E10   -9.815238077009534E-4   3.487652291279333E-3  
 2.004600000000000E10   -3.375279771761946E-4   3.379860700303574E-3  
 2.004800000000000E10    1.117349565284702E-4   3.216797782016206E-3  
 2.005000000000000E10    4.902901224947226E-4   3.154195046029342E-3  
 2.005200000000000E10    9.571952273908222E-4   3.146648013182445E-3  
 2.005400000000000E10    1.493238052065818E-3   3.058631519246617E-3  
 2.005600000000000E10    2.067275284961970E-3   2.814144896412338E-3  
 2.005800000000000E10    2.562214761259563E-3   2.397285558766237E-3  
 2.006000000000000E10    2.985528664502465E-3   1.917327472503171E-3  
 2.006200000000000E10    3.369507980590434E-3   1.347558146032194E-3  
 2.006400000000000E10    3.580750831414336E-3   6.200595518838568E-4  
 2.006600000000000E10    3.508968192532108E-3  -1.052399943827043E-4  
 2.006800000000000E10    3.245340525115163E-3  -6.677720316306310E-4  
 2.007000000000000E10    3.028036894299734E-3  -1.027574565083387E-3  
 2.007200000000000E10    2.985357226412974E-3  -1.407536863418365E-3  
 2.007400000000000E10    2.866519882378203E-3  -1.990357395204037E-3  
 2.007600000000000E10    2.479382140998855E-3  -2.574135164189854E-3  
 2.007800000000000E10    1.939838062281962E-3  -3.040411774023081E-3  
 2.008000000000000E10    1.293678460412739E-3  -3.390638732615813E-3  
 2.008200000000000E10    5.937058832151471E-4  -3.548532569160065E-3  
 2.008400000000000E10   -9.869940127648509E-5  -3.505729825845288E-3  
 2.008600000000000E10   -6.787357294937759E-4  -3.280293184941934E-3  
 2.008800000000000E10   -1.138246838106877E-3  -3.010551666518973E-3  
 2.009000000000000E10   -1.507238259274559E-3  -2.732492687272621E-3  
 2.009200000000000E10   -1.786112403037188E-3  -2.530608150855075E-3  
 2.009400000000000E10   -2.146006768776311E-3  -2.401193664236754E-3  
 2.009600000000000E10   -2.624578164591466E-3  -2.115898739753499E-3  
 2.009800000000000E10   -3.069146662766551E-3  -1.658613803612505E-3  
 2.010000000000000E10   -3.420057312734886E-3  -1.060023093251167E-3  
 2.010200000000000E10   -3.560148547461004E-3  -4.354293370492941E-4  
 2.010400000000000E10   -3.580541479297811E-3   1.299297940325536E-4  
 2.010600000000000E10   -3.581788945644175E-3   6.923025767146438E-4  
 2.010800000000000E10   -3.558651748239811E-3   1.349079402531555E-3  
 2.011000000000000E10   -3.346894502662767E-3   2.135749156069425E-3  
 2.011200000000000E10   -2.884570497697519E-3   2.823444735833709E-3  
 2.011400000000000E10   -2.285458561446932E-3   3.333949475307708E-3  
 2.011600000000000E10   -1.581715530554914E-3   3.688204412659010E-3  
 2.011800000000000E10   -8.355891217052202E-4   3.929741881833769E-3  
 2.012000000000000E10   -4.734417429242539E-5   4.024181221784265E-3  
 2.012200000000000E10    7.238833558527225E-4   3.886129068969577E-3  
 2.012400000000000E10    1.376839561594857E-3   3.598397545930413E-3  
 2.012600000000000E10    1.929758544896304E-3   3.224767753164526E-3  
 2.012800000000000E10    2.412155578142883E-3   2.794493564668997E-3  
 2.013000000000000E10    2.783388847968093E-3   2.306102568076717E-3  
 2.013200000000000E10    3.045268399916866E-3   1.855660949971665E-3  
 2.013400000000000E10    3.292520473032822E-3   1.388669097336170E-3  
 2.013600000000000E10    3.496066503295744E-3   8.086680878747119E-4  
 2.013800000000000E10    3.613381738556021E-3   1.650998693313105E-4  
 2.014000000000000E10    3.537050635197465E-3  -4.866991966767352E-4  
 2.014200000000000E10    3.309098319552931E-3  -9.955536576999745E-4  
 2.014400000000000E10    3.095490553266841E-3  -1.381480313239642E-3  
 2.014600000000000E10    2.906245633637832E-3  -1.781867131487363E-3  
 2.014800000000000E10    2.689369195313366E-3  -2.225691360639937E-3  
 2.015000000000000E10    2.427775987688406E-3  -2.696749205229643E-3  
 2.015200000000000E10    2.073323175908975E-3  -3.208919626626152E-3  
 2.015400000000000E10    1.472753527240805E-3  -3.719663974702542E-3  
 2.015600000000000E10    6.083094545088158E-4  -4.031880977161137E-3  
 2.015800000000000E10   -3.089872548172688E-4  -4.030352757300860E-3  
 2.016000000000000E10   -1.111545321175162E-3  -3.727831621941778E-3  
 2.016200000000000E10   -1.666452725601877E-3  -3.209062989939143E-3  
 2.016400000000000E10   -1.912339521503007E-3  -2.702840963194584E-3  
 2.016600000000000E10   -2.014901971927396E-3  -2.434079213366833E-3  
 2.016800000000000E10   -2.274254673264093E-3  -2.320278740637465E-3  
 2.017000000000000E10   -2.691146299633900E-3  -2.169768691039932E-3  
 2.017200000000000E10   -3.168997050113516E-3  -1.827809437936931E-3  
 2.017400000000000E10   -3.556338777006777E-3  -1.289812130796045E-3  
 2.017600000000000E10   -3.848194892023817E-3  -6.118109557536190E-4  
 2.017800000000000E10   -3.972597448960131E-3   1.273155298635916E-4  
 2.018000000000000E10   -3.911642926848598E-3   8.865496327663646E-4  
 2.018200000000000E10   -3.634563940404742E-3   1.614408376396715E-3  
 2.018400000000000E10   -3.178708651965415E-3   2.166688278386439E-3  
 2.018600000000000E10   -2.740044115157224E-3   2.550638188826449E-3  
 2.018800000000000E10   -2.362067305287462E-3   2.901804409231301E-3  
 2.019000000000000E10   -1.962116565900269E-3   3.244862727889861E-3  
 2.019200000000000E10   -1.483272982439326E-3   3.589469309965218E-3  
 2.019400000000000E10   -8.431723582799789E-4   3.876438381633273E-3  
 2.019600000000000E10   -1.108614389612527E-4   4.045535850534101E-3  
 2.019800000000000E10    6.799588689902499E-4   4.023588084282331E-3  
 2.020000000000000E10    1.425015022920698E-3   3.726352279269953E-3  
 2.020200000000000E10    1.913150059588162E-3   3.278941649046761E-3  
 2.020400000000000E10    2.245882143737909E-3   2.941640959132785E-3  
 2.020600000000000E10    2.667055847583178E-3   2.660634438794705E-3  
 2.020800000000000E10    3.118536113128987E-3   2.286831566627011E-3  
 2.021000000000000E10    3.520742055879516E-3   1.851051777060845E-3  
 2.021200000000000E10    3.943524329152740E-3   1.270928711883356E-3  
 2.021400000000000E10    4.270177817455045E-3   4.287119981772440E-4  
 2.021600000000000E10    4.279149150084935E-3  -5.358009959174389E-4  
 2.021800000000000E10    3.948535948393890E-3  -1.393142206605846E-3  
 2.022000000000000E10    3.462709098433455E-3  -2.009781505797565E-3  
 2.022200000000000E10    2.963451717485801E-3  -2.490372983393846E-3  
 2.022400000000000E10    2.379235529835210E-3  -2.876252298139864E-3  
 2.022600000000000E10    1.770956193119932E-3  -3.076412807000272E-3  
 2.022800000000000E10    1.297375017685103E-3  -3.081993334984154E-3  
 2.023000000000000E10    1.021782236668155E-3  -3.158447203329868E-3  
 2.023200000000000E10    6.163399479708372E-4  -3.433767079525157E-3  
 2.023400000000000E10   -5.448496911996671E-5  -3.589652596547465E-3  
 2.023600000000000E10   -7.150901185440613E-4  -3.522130821682053E-3  
 2.023800000000000E10   -1.332602729549471E-3  -3.294885943264322E-3  
 2.024000000000000E10   -1.837909221649170E-3  -2.951684870676679E-3  
 2.024200000000000E10   -2.250751236131714E-3  -2.546863503938104E-3  
 2.024400000000000E10   -2.577757569213893E-3  -2.097023137914086E-3  
 2.024600000000000E10   -2.824653305090321E-3  -1.659793325090482E-3  
 2.024800000000000E10   -3.034382690618068E-3  -1.241480545025825E-3  
 2.025000000000000E10   -3.197355765021510E-3  -7.402348618833695E-4  
 2.025200000000000E10   -3.283782494196922E-3  -1.590170006103884E-4  
 2.025400000000000E10   -3.250979746542411E-3   4.438548765639648E-4  
 2.025600000000000E10   -3.052164030111867E-3   1.035254234505565E-3  
 2.025800000000000E10   -2.658013832168999E-3   1.496311857790491E-3  
 2.026000000000000E10   -2.245093971766808E-3   1.720228452338941E-3  
 2.026200000000000E10   -1.957342146470407E-3   1.822313451909541E-3  
 2.026400000000000E10   -1.836541238137418E-3   2.009138545412341E-3  
 2.026600000000000E10   -1.681939498981300E-3   2.377751605286275E-3  
 2.026800000000000E10   -1.335026998141850E-3   2.743155911081920E-3  
 2.027000000000000E10   -8.539474105037014E-4   3.000443832902814E-3  
 2.027200000000000E10   -2.576549381900142E-4   3.188363894429289E-3  
 2.027400000000000E10    4.016305679271435E-4   3.219978030150136E-3  
 2.027600000000000E10    1.030896272924211E-3   2.996687771591508E-3  
 2.027800000000000E10    1.469908322403093E-3   2.621062815672270E-3  
 2.028000000000000E10    1.756036401162913E-3   2.284544888009996E-3  
 2.028200000000000E10    2.018324849713180E-3   1.976694765121297E-3  
 2.028400000000000E10    2.267742210447237E-3   1.671306767362964E-3  
 2.028600000000000E10    2.522251844682076E-3   1.398481756310772E-3  
 2.028800000000000E10    2.764764658669815E-3   1.049871924390764E-3  
 2.029000000000000E10    2.946816456653638E-3   5.833346096304373E-4  
 2.029200000000000E10    3.094214230292925E-3   8.160033914104988E-5  
 2.029400000000000E10    3.150422591716052E-3  -5.201327522503742E-4  
 2.029600000000000E10    3.003842001895846E-3  -1.141478064653958E-3  
 2.029800000000000E10    2.703244967478109E-3  -1.674929952800826E-3  
 2.030000000000000E10    2.294740231454741E-3  -2.104171824836989E-3  
 2.030200000000000E10    1.788153955540448E-3  -2.374613654719275E-3  
 2.030400000000000E10    1.407154426151128E-3  -2.498474443492330E-3  
 2.030600000000000E10    1.195801753999183E-3  -2.643729183523927E-3  
 2.030800000000000E10    9.410082194436758E-4  -2.913121539340527E-3  
 2.031000000000000E10    4.705186911002032E-4  -3.274068903223969E-3  
 2.031200000000000E10   -2.161993415714357E-4  -3.539880530701744E-3  
 2.031400000000000E10   -1.075765806434239E-3  -3.597260050383615E-3  
 2.031600000000000E10   -1.999919720994378E-3  -3.272561770346430E-3  
 2.031800000000000E10   -2.612823039799193E-3  -2.551265974977502E-3  
 2.032000000000000E10   -2.815653164698570E-3  -1.821413072814912E-3  
 2.032200000000000E10   -2.890735508207187E-3  -1.306825455416132E-3  
 2.032400000000000E10   -3.031095466863963E-3  -9.282540557273653E-4  
 2.032600000000000E10   -3.163946941954855E-3  -4.840490500224226E-4  
 2.032800000000000E10   -3.180964519327254E-3   3.268061756202381E-5  
 2.033000000000000E10   -3.145616188254438E-3   5.354994450218655E-4  
 2.033200000000000E10   -3.106398973613978E-3   1.031977749705591E-3  
 2.033400000000000E10   -2.972465054488477E-3   1.583722714668163E-3  
 2.033600000000000E10   -2.864128191391995E-3   1.842744915780646E-3  
 2.033800000000000E10   -2.297194522265116E-3   2.554099713624628E-3  
 2.034000000000000E10   -1.836161915339346E-3   2.958046706439353E-3  
 2.034200000000000E10   -1.295017419141476E-3   3.304416468987863E-3  
 2.034400000000000E10   -7.409185787697358E-4   3.562596824916977E-3  
 2.034600000000000E10   -1.655864920237182E-4   3.721331076604534E-3  
 2.034800000000000E10    5.342762519887156E-4   3.864085971504267E-3  
 2.035000000000000E10    1.421667382489016E-3   3.857587449781505E-3  
 2.035200000000000E10    2.340915894572750E-3   3.532120426196928E-3  
 2.035400000000000E10    3.163305499280493E-3   2.859999052030437E-3  
 2.035600000000000E10    3.644672590365381E-3   1.921702311431736E-3  
 2.035800000000000E10    3.669986018428097E-3   9.754992889263383E-4  
 2.036000000000000E10    3.453168612732380E-3   2.821062207883109E-4  
 2.036200000000000E10    3.259488533791385E-3  -1.840358831773133E-4  
 2.036400000000000E10    3.076506836086880E-3  -5.174860933847313E-4  
 2.036600000000000E10    2.925514838554794E-3  -7.767302715679472E-4  
 2.036800000000000E10    2.920411038499924E-3  -1.071829349521180E-3  
 2.037000000000000E10    2.963697704498047E-3  -1.535333590984437E-3  
 2.037200000000000E10    2.850259619730491E-3  -2.141507785123440E-3  
 2.037400000000000E10    2.536685372714276E-3  -2.804529672074650E-3  
 2.037600000000000E10    1.956502944346012E-3  -3.359015229054624E-3  
 2.037800000000000E10    1.189344312512765E-3  -3.667603011162562E-3  
 2.038000000000000E10    4.416119377703671E-4  -3.779854154053294E-3  
 2.038200000000000E10   -1.984205189301852E-4  -3.728336841442887E-3  
 2.038400000000000E10   -7.084819537093060E-4  -3.619503787500256E-3  
 2.038600000000000E10   -1.259282372897652E-3  -3.533658873358811E-3  
 2.038800000000000E10   -1.926332564139164E-3  -3.382796329664596E-3  
 2.039000000000000E10   -2.586120469380677E-3  -3.019106154686507E-3  
 2.039200000000000E10   -3.146650988240670E-3  -2.481457785944696E-3  
 2.039400000000000E10   -3.522491726426431E-3  -1.815344100634073E-3  
 2.039600000000000E10   -3.680059789783426E-3  -1.152845868484382E-3  
 2.039800000000000E10   -3.757762714047676E-3  -4.941960807043893E-4  
 2.040000000000000E10   -3.717508684429858E-3   1.494824282866674E-4  
 2.040200000000000E10   -3.542303136423415E-3   6.437551490330127E-4  
 2.040400000000000E10   -3.406057755152385E-3   9.933111464811698E-4  
 2.040600000000000E10   -3.354860279985049E-3   1.426451103646815E-3  
 2.040800000000000E10   -3.308308328053466E-3   1.930091047176609E-3  
 2.041000000000000E10   -3.194461568017250E-3   2.586668388872051E-3  
 2.041200000000000E10   -2.828852750682905E-3   3.343883795479750E-3  
 2.041400000000000E10   -2.206654434471771E-3   4.015038548796266E-3  
 2.041600000000000E10   -1.359764886100167E-3   4.509115321446717E-3  
 2.041800000000000E10   -3.126369815112816E-4   4.749510276280804E-3  
 2.042000000000000E10    6.810663725008016E-4   4.676661534625808E-3  
 2.042200000000000E10    1.520280961959082E-3   4.393262139027134E-3  
 2.042400000000000E10    2.248078987094356E-3   3.954994434743752E-3  
 2.042600000000000E10    2.863894139106075E-3   3.447942317888877E-3  
 2.042800000000000E10    3.374398936069123E-3   2.878696476626728E-3  
 2.043000000000000E10    3.791298263096884E-3   2.254621631661315E-3  
 2.043200000000000E10    4.121559482343771E-3   1.560552788748878E-3  
 2.043400000000000E10    4.283304521699011E-3   7.803337016131408E-4  
 2.043600000000000E10    4.203465313041284E-3   1.311633878899160E-5  
 2.043800000000000E10    4.034459579414056E-3  -6.173298486514179E-4  
 2.044000000000000E10    3.874569573658117E-3  -1.149727981595070E-3  
 2.044200000000000E10    3.707352059858817E-3  -1.643918479079910E-3  
 2.044400000000000E10    3.483387141454000E-3  -2.191741065478620E-3  
 2.044600000000000E10    3.235639774321039E-3  -2.792523596090852E-3  
 2.044800000000000E10    2.829696779012864E-3  -3.447129175549856E-3  
 2.045000000000000E10    2.228380847768284E-3  -4.080992416237240E-3  
 2.045200000000000E10    1.381068366844161E-3  -4.632052976960017E-3  
 2.045400000000000E10    2.463447766516496E-4  -4.866691467202741E-3  
 2.045600000000000E10   -9.159196985965986E-4  -4.596604666684145E-3  
 2.045800000000000E10   -1.746308777113388E-3  -4.031852094663515E-3  
 2.046000000000000E10   -2.249699143439900E-3  -3.409772024800381E-3  
 2.046200000000000E10   -2.524748651517762E-3  -2.823607038913502E-3  
 2.046400000000000E10   -2.725731661934176E-3  -2.378481848418345E-3  
 2.046600000000000E10   -2.929922173167637E-3  -2.009399445083591E-3  
 2.046800000000000E10   -3.156091500487593E-3  -1.633520685078830E-3  
 2.047000000000000E10   -3.419546669142115E-3  -1.198843348610365E-3  
 2.047200000000000E10   -3.635387861940228E-3  -6.646403351534204E-4  
 2.047400000000000E10   -3.672690625176018E-3   1.226378510272086E-5  
 2.047600000000000E10   -3.498507128959453E-3   6.435420069510095E-4  
 2.047800000000000E10   -3.268510634999401E-3   1.071048417577037E-3  
 2.048000000000000E10   -3.124652513774274E-3   1.380043820029608E-3  
 2.048200000000000E10   -3.071670489454711E-3   1.786450408456594E-3  
 2.048400000000000E10   -2.944962868903890E-3   2.394754235506242E-3  
 2.048600000000000E10   -2.566553793134697E-3   3.066490869969130E-3  
 2.048800000000000E10   -1.913119330254878E-3   3.654745280926611E-3  
 2.049000000000000E10   -1.091093256103772E-3   4.002745004577770E-3  
 2.049200000000000E10   -2.654871301880728E-4   4.066519778405811E-3  
 2.049400000000000E10    5.601975164249724E-4   3.939952034457231E-3  
 2.049600000000000E10    1.330851879039848E-3   3.593566836099382E-3  
 2.049800000000000E10    1.845032463919510E-3   3.081963026758146E-3  
 2.050000000000000E10    2.108408905634726E-3   2.543227405022876E-3  
 2.050200000000000E10    2.157701745652307E-3   2.154031475247057E-3  
 2.050400000000000E10    2.304907965784272E-3   2.068928181320246E-3  
 2.050600000000000E10    2.741240810051009E-3   1.927987307333100E-3  
 2.050800000000000E10    3.234412210683028E-3   1.482190948014182E-3  
 2.051000000000000E10    3.526520084612716E-3   8.648894073292155E-4  
 2.051200000000000E10    3.662939215032959E-3   2.433743951612233E-4  
 2.051400000000000E10    3.734266693002464E-3  -4.604894101596726E-4  
 2.051600000000000E10    3.618823456359499E-3  -1.257487086947134E-3  
 2.051800000000000E10    3.202590076712732E-3  -1.951432395956399E-3  
 2.052000000000000E10    2.690859656367037E-3  -2.390092149675813E-3  
 2.052200000000000E10    2.258733897987340E-3  -2.753467376654347E-3  
 2.052400000000000E10    1.801947341587993E-3  -3.164803729978977E-3  
 2.052600000000000E10    1.110171261071055E-3  -3.552321456717673E-3  
 2.052800000000000E10    2.352762288258722E-4  -3.652832766902852E-3  
 2.053000000000000E10   -5.308253486514276E-4  -3.425050590095329E-3  
 2.053200000000000E10   -1.128178043865863E-3  -3.023606883131980E-3  
 2.053400000000000E10   -1.570348793146327E-3  -2.541426721569381E-3  
 2.053600000000000E10   -1.777129012079519E-3  -2.030890107292820E-3  
 2.053800000000000E10   -1.791508280511164E-3  -1.627481224900687E-3  
 2.054000000000000E10   -1.731453752317639E-3  -1.350702426143359E-3  
 2.054200000000000E10   -1.694697170966754E-3  -1.292502851064467E-3  
 2.054400000000000E10   -1.839168596851789E-3  -1.358567655121011E-3  
 2.054600000000000E10   -2.244410987506495E-3  -1.368467496236626E-3  
 2.054800000000000E10   -2.874024488307812E-3  -1.096012875621702E-3  
 2.055000000000000E10   -3.377103827387831E-3  -3.609805329081913E-4  
 2.055200000000000E10   -3.438403073951235E-3   5.822019532242400E-4  
 2.055400000000000E10   -3.165997191113823E-3   1.410599764907894E-3  
 2.055600000000000E10   -2.708230802881313E-3   2.072056585830855E-3  
