#  HZ   S   RI   R     50.00 
! Rohde & Schwarz ZVA40 4Ports - Version 3.90 - 1145.1110k42 SN: 100403
! Date: 2023-10-03 12:34:48
! Measurement: S12 
! 
 2.000000000000000E10    4.393014918874812E-3   7.704543898365013E-4  
 2.000200000000000E10    4.454753482369362E-3  -6.070090913218101E-5  
 2.000400000000000E10    4.318106212411767E-3  -9.157953727817923E-4  
 2.000600000000000E10    3.997166175395250E-3  -1.657330396550673E-3  
 2.000800000000000E10    3.582121580149289E-3  -2.293199982011208E-3  
 2.001000000000000E10    3.098941123526958E-3  -2.831114913095479E-3  
 2.001200000000000E10    2.584133193724685E-3  -3.295400878414513E-3  
 2.001400000000000E10    1.941784750670195E-3  -3.741104242012457E-3  
 2.001600000000000E10    1.071961018843231E-3  -4.017147787467198E-3  
 2.001800000000000E10    2.114968363592333E-4  -3.901309195767950E-3  
 2.002000000000000E10   -3.738829529740745E-4  -3.589972827790513E-3  
 2.002200000000000E10   -8.059903694730668E-4  -3.300973015871865E-3  
 2.002400000000000E10   -1.109981926640979E-3  -3.059073842854964E-3  
 2.002600000000000E10   -1.354529712073229E-3  -2.952097966853116E-3  
 2.002800000000000E10   -1.739250038991924E-3  -2.919767362376054E-3  
 2.003000000000000E10   -2.256900322175136E-3  -2.770288062661335E-3  
 2.003200000000000E10   -2.759630800466295E-3  -2.468641373087411E-3  
 2.003400000000000E10   -3.264830853031190E-3  -2.073671315210285E-3  
 2.003600000000000E10   -3.794187196978817E-3  -1.472343927835701E-3  
 2.003800000000000E10   -4.152276018565453E-3  -5.818460324210012E-4  
 2.004000000000000E10   -4.116100362605520E-3   3.901640431851977E-4  
 2.004200000000000E10   -3.743890940246207E-3   1.195151143258921E-3  
 2.004400000000000E10   -3.213885378230502E-3   1.713517807527549E-3  
 2.004600000000000E10   -2.797527428440474E-3   1.963503753628444E-3  
 2.004800000000000E10   -2.581494567156942E-3   2.207353952582236E-3  
 2.005000000000000E10   -2.397480601858762E-3   2.599430210129531E-3  
 2.005200000000000E10   -2.042061002511118E-3   3.092904721766159E-3  
 2.005400000000000E10   -1.483857847267279E-3   3.525210975634832E-3  
 2.005600000000000E10   -7.850232607409084E-4   3.804829006117803E-3  
 2.005800000000000E10   -4.613402473262762E-5   3.912660983149652E-3  
 2.006000000000000E10    7.035029271652026E-4   3.877531098960727E-3  
 2.006200000000000E10    1.453471016483727E-3   3.639423805806372E-3  
 2.006400000000000E10    2.103562820357857E-3   3.173588369800537E-3  
 2.006600000000000E10    2.511784304968185E-3   2.612299147855353E-3  
 2.006800000000000E10    2.730352122819534E-3   2.152488980856207E-3  
 2.007000000000000E10    2.975828316131676E-3   1.844946260529536E-3  
 2.007200000000000E10    3.373898005250980E-3   1.427772178970002E-3  
 2.007400000000000E10    3.701872019856065E-3   7.265132606132992E-4  
 2.007600000000000E10    3.736710598416351E-3  -4.223666406620331E-5  
 2.007800000000000E10    3.585840135605800E-3  -7.630163497567454E-4  
 2.008000000000000E10    3.274874382272915E-3  -1.383908920817905E-3  
 2.008200000000000E10    2.851079097362581E-3  -1.862232068864008E-3  
 2.008400000000000E10    2.367658937280929E-3  -2.185459507422315E-3  
 2.008600000000000E10    1.969141376860164E-3  -2.360062156286505E-3  
 2.008800000000000E10    1.674479179739677E-3  -2.527320162496633E-3  
 2.009000000000000E10    1.418646938098526E-3  -2.715554433288398E-3  
 2.009200000000000E10    1.132479851582536E-3  -3.016027621924878E-3  
 2.009400000000000E10    6.304253065199765E-4  -3.384149909295418E-3  
 2.009600000000000E10   -7.399832975352183E-5  -3.546620339707093E-3  
 2.009800000000000E10   -7.866071709604176E-4  -3.474350147708148E-3  
 2.010000000000000E10   -1.397603006033158E-3  -3.201480549587697E-3  
 2.010200000000000E10   -1.850156932724295E-3  -2.872381781883262E-3  
 2.010400000000000E10   -2.268279954377148E-3  -2.574687280381720E-3  
 2.010600000000000E10   -2.725859353732732E-3  -2.219336874852027E-3  
 2.010800000000000E10   -3.181408719953012E-3  -1.737666169733361E-3  
 2.011000000000000E10   -3.480742314692449E-3  -1.065522609106093E-3  
 2.011200000000000E10   -3.558159728224079E-3  -3.640280769172090E-4  
 2.011400000000000E10   -3.515941047765039E-3   2.865726787098943E-4  
 2.011600000000000E10   -3.355345878474139E-3   8.965869352255984E-4  
 2.011800000000000E10   -3.093497732792188E-3   1.457252285305273E-3  
 2.012000000000000E10   -2.703627424866513E-3   1.924757147207856E-3  
 2.012200000000000E10   -2.262969337472762E-3   2.222835905505000E-3  
 2.012400000000000E10   -1.887403415619500E-3   2.430326063875799E-3  
 2.012600000000000E10   -1.568073919905281E-3   2.640844038170245E-3  
 2.012800000000000E10   -1.229736212365053E-3   2.875824269183256E-3  
 2.013000000000000E10   -8.173112809244130E-4   3.060245619120974E-3  
 2.013200000000000E10   -3.516299453891677E-4   3.220955323841837E-3  
 2.013400000000000E10    1.717365575367930E-4   3.322100706605448E-3  
 2.013600000000000E10    7.360140034170064E-4   3.304471486006623E-3  
 2.013800000000000E10    1.294756584145405E-3   3.171718222330566E-3  
 2.014000000000000E10    1.770218476411645E-3   2.912025967681850E-3  
 2.014200000000000E10    2.169452254074040E-3   2.666938204870180E-3  
 2.014400000000000E10    2.612347326551875E-3   2.426481624651287E-3  
 2.014600000000000E10    3.115552831096230E-3   2.094788390591189E-3  
 2.014800000000000E10    3.607609947384508E-3   1.604691040012296E-3  
 2.015000000000000E10    4.009582360999452E-3   9.414276940299683E-4  
 2.015200000000000E10    4.261977280731555E-3   9.663358920348670E-5  
 2.015400000000000E10    4.237278226625037E-3  -8.382898867475215E-4  
 2.015600000000000E10    3.899365491061299E-3  -1.669006167773020E-3  
 2.015800000000000E10    3.405812023966401E-3  -2.287546940216864E-3  
 2.016000000000000E10    2.869211016567769E-3  -2.678865877290567E-3  
 2.016200000000000E10    2.448004420363793E-3  -2.905791306316301E-3  
 2.016400000000000E10    2.199915436061997E-3  -3.176892219387271E-3  
 2.016600000000000E10    1.955219147795881E-3  -3.672136338772598E-3  
 2.016800000000000E10    1.402389680690788E-3  -4.292880340168874E-3  
 2.017000000000000E10    5.213514517958243E-4  -4.753884031540819E-3  
 2.017200000000000E10   -5.248076556233207E-4  -4.902417512817516E-3  
 2.017400000000000E10   -1.556708339463782E-3  -4.740112098968692E-3  
 2.017600000000000E10   -2.489374450373429E-3  -4.340570368286637E-3  
 2.017800000000000E10   -3.269271683637743E-3  -3.738377536474555E-3  
 2.018000000000000E10   -3.859328882147869E-3  -2.997982350212557E-3  
 2.018200000000000E10   -4.212412517517805E-3  -2.200056307224764E-3  
 2.018400000000000E10   -4.381871144114822E-3  -1.503802482383671E-3  
 2.018600000000000E10   -4.553826129132951E-3  -9.054056308404716E-4  
 2.018800000000000E10   -4.750247165146802E-3  -2.253515014200713E-4  
 2.019000000000000E10   -4.848848855881780E-3   5.948909804121489E-4  
 2.019200000000000E10   -4.767026907453935E-3   1.481478068011779E-3  
 2.019400000000000E10   -4.473070424326040E-3   2.353518149229112E-3  
 2.019600000000000E10   -3.993746376147977E-3   3.116784513824516E-3  
 2.019800000000000E10   -3.379946548698678E-3   3.766153620004103E-3  
 2.020000000000000E10   -2.678646421473888E-3   4.236381069791538E-3  
 2.020200000000000E10   -2.009156263536877E-3   4.582742867232473E-3  
 2.020400000000000E10   -1.329449358982620E-3   4.959948981801669E-3  
 2.020600000000000E10   -4.646496316935454E-4   5.236399532468231E-3  
 2.020800000000000E10    4.803661873598618E-4   5.299366493191984E-3  
 2.021000000000000E10    1.401727208522735E-3   5.235542232791583E-3  
 2.021200000000000E10    2.428098107446675E-3   5.015738756844292E-3  
 2.021400000000000E10    3.429883245930628E-3   4.450650282066178E-3  
 2.021600000000000E10    4.172400571405888E-3   3.610763250401727E-3  
 2.021800000000000E10    4.607086311335918E-3   2.714046587546667E-3  
 2.022000000000000E10    4.877868453385654E-3   1.913301840734979E-3  
 2.022200000000000E10    5.079477283827685E-3   1.080643282168441E-3  
 2.022400000000000E10    5.103725129393517E-3   2.585822070681456E-4  
 2.022600000000000E10    4.987813446118877E-3  -4.680548337529656E-4  
 2.022800000000000E10    4.905773395741428E-3  -1.106882838670303E-3  
 2.023000000000000E10    4.900052798566996E-3  -1.892965105879638E-3  
 2.023200000000000E10    4.632497861705445E-3  -2.868911898177532E-3  
 2.023400000000000E10    4.005358381955712E-3  -3.722030876411333E-3  
 2.023600000000000E10    3.271088116215887E-3  -4.339502744928555E-3  
 2.023800000000000E10    2.456042398181227E-3  -4.834274450937907E-3  
 2.024000000000000E10    1.589677469046028E-3  -5.168550044160199E-3  
 2.024200000000000E10    6.831415877160099E-4  -5.364613779992969E-3  
 2.024400000000000E10   -2.197963483383689E-4  -5.357267231576974E-3  
 2.024600000000000E10   -1.088807954349452E-3  -5.222339200338832E-3  
 2.024800000000000E10   -1.956439421822628E-3  -5.012323872910606E-3  
 2.025000000000000E10   -2.820798445975891E-3  -4.626197033320313E-3  
 2.025200000000000E10   -3.608879495274138E-3  -4.051458194024034E-3  
 2.025400000000000E10   -4.239132179430238E-3  -3.312875094168164E-3  
 2.025600000000000E10   -4.681335399962135E-3  -2.451045223063341E-3  
 2.025800000000000E10   -4.865083929703192E-3  -1.619303392039405E-3  
 2.026000000000000E10   -4.953360512714696E-3  -9.076156722450700E-4  
 2.026200000000000E10   -5.057224003529108E-3  -2.783505813028940E-4  
 2.026400000000000E10   -5.223771333004590E-3   4.357750725897927E-4  
 2.026600000000000E10   -5.268871766963492E-3   1.407990154499809E-3  
 2.026800000000000E10   -5.009455744315078E-3   2.456707328006074E-3  
 2.027000000000000E10   -4.512630610002412E-3   3.421206139373008E-3  
 2.027200000000000E10   -3.762224990943516E-3   4.249784802259119E-3  
 2.027400000000000E10   -2.805137316937800E-3   4.834337280718266E-3  
 2.027600000000000E10   -1.822411380190817E-3   5.133148162039343E-3  
 2.027800000000000E10   -9.203309417460804E-4   5.240201881086386E-3  
 2.028000000000000E10   -8.076949193814977E-5   5.258108368488374E-3  
 2.028200000000000E10    7.517317103015053E-4   5.191869706053426E-3  
 2.028400000000000E10    1.571432088018844E-3   4.985302359003713E-3  
 2.028600000000000E10    2.401504941560604E-3   4.672757936296641E-3  
 2.028800000000000E10    3.213286330854452E-3   4.202796146273613E-3  
 2.029000000000000E10    3.901813748396106E-3   3.571862363497969E-3  
 2.029200000000000E10    4.471640775187149E-3   2.858546165818418E-3  
 2.029400000000000E10    4.926134918436961E-3   1.983678252953623E-3  
 2.029600000000000E10    5.137554249139848E-3   1.015003020357755E-3  
 2.029800000000000E10    5.143203893331467E-3   1.023474371187924E-4  
 2.030000000000000E10    5.020637530833483E-3  -7.320447173831916E-4  
 2.030200000000000E10    4.762441213070243E-3  -1.464386957835544E-3  
 2.030400000000000E10    4.510854940033622E-3  -2.122430001488991E-3  
 2.030600000000000E10    4.240103842069706E-3  -2.857636470623591E-3  
 2.030800000000000E10    3.807887236622197E-3  -3.687282144609425E-3  
 2.031000000000000E10    3.131668574901091E-3  -4.488771039716624E-3  
 2.031200000000000E10    2.223788545018545E-3  -5.131323597635385E-3  
 2.031400000000000E10    1.043401304977360E-3  -5.572141838018542E-3  
 2.031600000000000E10   -2.827855954550345E-4  -5.581439610708644E-3  
 2.031800000000000E10   -1.392521063314268E-3  -5.074439501320876E-3  
 2.032000000000000E10   -2.049411586658271E-3  -4.438708691547315E-3  
 2.032200000000000E10   -2.499256101954315E-3  -3.948833577817789E-3  
 2.032400000000000E10   -2.981431989206209E-3  -3.535983014713836E-3  
 2.032600000000000E10   -3.472028015595344E-3  -3.034247249295867E-3  
 2.032800000000000E10   -3.875665133818984E-3  -2.496090734860412E-3  
 2.033000000000000E10   -4.262077535882041E-3  -1.937031883884359E-3  
 2.033200000000000E10   -4.650532716402302E-3  -1.266637247883611E-3  
 2.033400000000000E10   -4.910730791312677E-3  -4.035623547948760E-4  
 2.033600000000000E10   -4.963935870263312E-3   3.465060459954354E-5  
 2.033800000000000E10   -4.835230419067322E-3   1.414796410783850E-3  
 2.034000000000000E10   -4.547587992554463E-3   2.294454602869573E-3  
 2.034200000000000E10   -4.035706597345847E-3   3.115919496243200E-3  
 2.034400000000000E10   -3.394098322907532E-3   3.806105435446457E-3  
 2.034600000000000E10   -2.691556828924351E-3   4.379106081884217E-3  
 2.034800000000000E10   -1.867164711088494E-3   4.901736974716187E-3  
 2.035000000000000E10   -8.093412788757297E-4   5.256468223200904E-3  
 2.035200000000000E10    3.461548185441643E-4   5.280058727496201E-3  
 2.035400000000000E10    1.464401337283629E-3   4.924157479157051E-3  
 2.035600000000000E10    2.299437971992625E-3   4.259260285093830E-3  
 2.035800000000000E10    2.765323587313847E-3   3.585406699804245E-3  
 2.036000000000000E10    3.032389398733223E-3   3.039045130006142E-3  
 2.036200000000000E10    3.315878799185157E-3   2.577726789577692E-3  
 2.036400000000000E10    3.585162184511622E-3   2.146150554633803E-3  
 2.036600000000000E10    3.882827677039637E-3   1.750501463431175E-3  
 2.036800000000000E10    4.310984440423825E-3   1.292718617521503E-3  
 2.037000000000000E10    4.744703001860116E-3   5.496545151496928E-4  
 2.037200000000000E10    4.955128956310176E-3  -4.120516672695954E-4  
 2.037400000000000E10    4.883084911853075E-3  -1.460749095443774E-3  
 2.037600000000000E10    4.496962176980797E-3  -2.461916430749827E-3  
 2.037800000000000E10    3.868774666140477E-3  -3.236491974719145E-3  
 2.038000000000000E10    3.174447480382191E-3  -3.776148315174161E-3  
 2.038200000000000E10    2.488183866565426E-3  -4.192335772569534E-3  
 2.038400000000000E10    1.814254744978691E-3  -4.576338161886843E-3  
 2.038600000000000E10    1.032938275279271E-3  -4.933972273849780E-3  
 2.038800000000000E10    7.495915795314229E-5  -5.131316957650362E-3  
 2.039000000000000E10   -9.352070628665390E-4  -5.047311471706189E-3  
 2.039200000000000E10   -1.870040053122298E-3  -4.698807908291067E-3  
 2.039400000000000E10   -2.611670582727702E-3  -4.188186937460194E-3  
 2.039600000000000E10   -3.182424103013344E-3  -3.686946540794992E-3  
 2.039800000000000E10   -3.699044602129747E-3  -3.123453628547766E-3  
 2.040000000000000E10   -4.109137622570551E-3  -2.441701979410869E-3  
 2.040200000000000E10   -4.361666083611824E-3  -1.792979814733068E-3  
 2.040400000000000E10   -4.628129924337070E-3  -1.224302044310780E-3  
 2.040600000000000E10   -4.920324517620935E-3  -5.553239434785038E-4  
 2.040800000000000E10   -5.161397331566723E-3   2.550228253110416E-4  
 2.041000000000000E10   -5.279105363620653E-3   1.250049901298351E-3  
 2.041200000000000E10   -5.094524369471604E-3   2.368139361755716E-3  
 2.041400000000000E10   -4.587956066070884E-3   3.448317689752138E-3  
 2.041600000000000E10   -3.815845491502573E-3   4.337478636039629E-3  
 2.041800000000000E10   -2.816455473226530E-3   4.954645116985948E-3  
 2.042000000000000E10   -1.772233220334683E-3   5.294044346859058E-3  
 2.042200000000000E10   -7.611038529797009E-4   5.438160444437354E-3  
 2.042400000000000E10    1.974818369490095E-4   5.383055536421362E-3  
 2.042600000000000E10    1.081655161989922E-3   5.208044933776061E-3  
 2.042800000000000E10    1.945005203769715E-3   4.931063701709112E-3  
 2.043000000000000E10    2.774309720499097E-3   4.500322975218296E-3  
 2.043200000000000E10    3.514425889416426E-3   3.882286225066142E-3  
 2.043400000000000E10    4.058550801818018E-3   3.137148623527201E-3  
 2.043600000000000E10    4.345981611145868E-3   2.418973233067879E-3  
 2.043800000000000E10    4.567073916809427E-3   1.761476392857730E-3  
 2.044000000000000E10    4.790906570161935E-3   1.110995209913839E-3  
 2.044200000000000E10    5.002167972701568E-3   4.336177597805444E-4  
 2.044400000000000E10    5.154514167871741E-3  -3.425041741812257E-4  
 2.044600000000000E10    5.201920470291818E-3  -1.263786719560072E-3  
 2.044800000000000E10    5.017887800931931E-3  -2.293860177612967E-3  
 2.045000000000000E10    4.578809133144441E-3  -3.326308508231133E-3  
 2.045200000000000E10    3.833350872069046E-3  -4.319362963239352E-3  
 2.045400000000000E10    2.722214312396116E-3  -5.016579378948168E-3  
 2.045600000000000E10    1.502312499926322E-3  -5.179480821998032E-3  
 2.045800000000000E10    5.236945451340743E-4  -5.023454367700551E-3  
 2.046000000000000E10   -2.203443021884326E-4  -4.773716494027112E-3  
 2.046200000000000E10   -8.117602060169534E-4  -4.530308716413048E-3  
 2.046400000000000E10   -1.354227415975873E-3  -4.316541004098125E-3  
 2.046600000000000E10   -1.902476651594043E-3  -4.081142704106040E-3  
 2.046800000000000E10   -2.474307979422588E-3  -3.828273016821455E-3  
 2.047000000000000E10   -3.115320836918222E-3  -3.467113452239169E-3  
 2.047200000000000E10   -3.704636694035597E-3  -2.949571288708184E-3  
 2.047400000000000E10   -4.128373935128805E-3  -2.279882621089066E-3  
 2.047600000000000E10   -4.360169741428562E-3  -1.579432291220184E-3  
 2.047800000000000E10   -4.499792121350765E-3  -9.703736308168760E-4  
 2.048000000000000E10   -4.707762143678136E-3  -3.945430259961912E-4  
 2.048200000000000E10   -4.967076997100204E-3   3.425077388614969E-4  
 2.048400000000000E10   -5.039306098802223E-3   1.331300207379240E-3  
 2.048600000000000E10   -4.759414311222457E-3   2.410679038062140E-3  
 2.048800000000000E10   -4.157038991925894E-3   3.375848358566011E-3  
 2.049000000000000E10   -3.336755558848382E-3   4.094114216665427E-3  
 2.049200000000000E10   -2.435206608087929E-3   4.570261885722479E-3  
 2.049400000000000E10   -1.497288251778594E-3   4.801647030506974E-3  
 2.049600000000000E10   -5.800990491277643E-4   4.771396569493745E-3  
 2.049800000000000E10    1.744606404961949E-4   4.559757187962532E-3  
 2.050000000000000E10    7.383534188934223E-4   4.302177836911546E-3  
 2.050200000000000E10    1.114142485204394E-3   4.126571567246208E-3  
 2.050400000000000E10    1.605408649926109E-3   4.151032289007197E-3  
 2.050600000000000E10    2.393695784525739E-3   4.070605013381553E-3  
 2.050800000000000E10    3.228272052688732E-3   3.653626224991900E-3  
 2.051000000000000E10    3.910235750178496E-3   3.026428822152041E-3  
 2.051200000000000E10    4.467012170978167E-3   2.323963351685692E-3  
 2.051400000000000E10    4.905333345824922E-3   1.456642631199901E-3  
 2.051600000000000E10    5.096057912817708E-3   4.264290716188650E-4  
 2.051800000000000E10    4.981705884414691E-3  -5.746670088868726E-4  
 2.052000000000000E10    4.713715416275794E-3  -1.385702467006114E-3  
 2.052200000000000E10    4.406169901981399E-3  -2.139484337358564E-3  
 2.052400000000000E10    3.999094116604991E-3  -2.949623046097933E-3  
 2.052600000000000E10    3.287136684068376E-3  -3.735207711104994E-3  
 2.052800000000000E10    2.306609336907665E-3  -4.233165626862536E-3  
 2.053000000000000E10    1.364124843988706E-3  -4.376531699327408E-3  
 2.053200000000000E10    5.475268548320014E-4  -4.311910382023564E-3  
 2.053400000000000E10   -1.721391896286083E-4  -4.065700789430628E-3  
 2.053600000000000E10   -6.823037746707323E-4  -3.738354296526975E-3  
 2.053800000000000E10   -1.035040804978322E-3  -3.472319019406482E-3  
 2.054000000000000E10   -1.312631876552823E-3  -3.299871545836882E-3  
 2.054200000000000E10   -1.612847489822242E-3  -3.238795808068028E-3  
 2.054400000000000E10   -2.077544504707611E-3  -3.250965382903815E-3  
 2.054600000000000E10   -2.795523679297832E-3  -3.171512529391934E-3  
 2.054800000000000E10   -3.723129802555950E-3  -2.739956136792898E-3  
 2.055000000000000E10   -4.487107887312219E-3  -1.811138983746922E-3  
 2.055200000000000E10   -4.773252574657954E-3  -6.660234627175939E-4  
 2.055400000000000E10   -4.673592297843209E-3   4.202495242848441E-4  
 2.055600000000000E10   -4.344843845400546E-3   1.369411375856510E-3  
