#  HZ   S   RI   R     50.00 
! Rohde & Schwarz ZVA40 4Ports - Version 3.90 - 1145.1110k42 SN: 100403
! Date: 2023-10-03 12:34:21
! Measurement: S12 
! 
 2.000000000000000E10    4.154595690147010E-3   7.768529725985395E-4  
 2.000200000000000E10    4.217354557764384E-3  -1.227269505177923E-5  
 2.000400000000000E10    4.104425124594092E-3  -8.299309339224834E-4  
 2.000600000000000E10    3.821455686709580E-3  -1.553407692017011E-3  
 2.000800000000000E10    3.451783416999711E-3  -2.155554966633151E-3  
 2.001000000000000E10    2.995791431102488E-3  -2.684581441298864E-3  
 2.001200000000000E10    2.483624841351016E-3  -3.142528497487491E-3  
 2.001400000000000E10    1.850458731541388E-3  -3.565055855699344E-3  
 2.001600000000000E10    1.013488349947435E-3  -3.808548760220961E-3  
 2.001800000000000E10    2.239574029693886E-4  -3.662968548819607E-3  
 2.002000000000000E10   -3.054624873955079E-4  -3.326581569710448E-3  
 2.002200000000000E10   -6.711287797647127E-4  -3.012313895548384E-3  
 2.002400000000000E10   -8.786150583433977E-4  -2.808366798692280E-3  
 2.002600000000000E10   -1.049018019442389E-3  -2.788116218361222E-3  
 2.002800000000000E10   -1.387462067348814E-3  -2.873062670667783E-3  
 2.003000000000000E10   -1.899028403891458E-3  -2.826798244459946E-3  
 2.003200000000000E10   -2.460258601831250E-3  -2.635449507377214E-3  
 2.003400000000000E10   -3.056647692933495E-3  -2.303294354566822E-3  
 2.003600000000000E10   -3.678797568872939E-3  -1.735695426490296E-3  
 2.003800000000000E10   -4.085399566885131E-3  -8.854107258634436E-4  
 2.004000000000000E10   -4.097181107894875E-3   6.219239497304332E-5  
 2.004200000000000E10   -3.808629997994429E-3   8.733801710430857E-4  
 2.004400000000000E10   -3.384848901381096E-3   1.441190990814825E-3  
 2.004600000000000E10   -3.040243710540696E-3   1.780705648635365E-3  
 2.004800000000000E10   -2.823903561673231E-3   2.108021622040758E-3  
 2.005000000000000E10   -2.594863627979785E-3   2.549924548531389E-3  
 2.005200000000000E10   -2.210504243173349E-3   3.064661427619465E-3  
 2.005400000000000E10   -1.647766258418100E-3   3.514064786334834E-3  
 2.005600000000000E10   -9.683634795501462E-4   3.819750248236054E-3  
 2.005800000000000E10   -2.779716566164783E-4   3.934224987011634E-3  
 2.006000000000000E10    4.544819814417466E-4   3.948095547794192E-3  
 2.006200000000000E10    1.248112516075281E-3   3.765475847125974E-3  
 2.006400000000000E10    1.950247724896964E-3   3.345741338475988E-3  
 2.006600000000000E10    2.411494534577669E-3   2.821495546671896E-3  
 2.006800000000000E10    2.656609403475384E-3   2.376125708659306E-3  
 2.007000000000000E10    2.956693848296080E-3   2.046346368360115E-3  
 2.007200000000000E10    3.410425341837569E-3   1.613269391883579E-3  
 2.007400000000000E10    3.772208386641226E-3   9.160336512313398E-4  
 2.007600000000000E10    3.865751892006324E-3   1.363111209853001E-4  
 2.007800000000000E10    3.738458929468453E-3  -6.080448841618628E-4  
 2.008000000000000E10    3.429781205745207E-3  -1.249973097367695E-3  
 2.008200000000000E10    3.031807908512377E-3  -1.761659177848035E-3  
 2.008400000000000E10    2.600486292561263E-3  -2.129028295454236E-3  
 2.008600000000000E10    2.215985478948296E-3  -2.355203429168022E-3  
 2.008800000000000E10    1.918107465219995E-3  -2.540825018199322E-3  
 2.009000000000000E10    1.642478315194172E-3  -2.765385566256297E-3  
 2.009200000000000E10    1.356050699811291E-3  -3.119989364396459E-3  
 2.009400000000000E10    8.680173353993416E-4  -3.567215075348447E-3  
 2.009600000000000E10    1.370208756495152E-4  -3.819338020144238E-3  
 2.009800000000000E10   -6.380972630677769E-4  -3.817194670346785E-3  
 2.010000000000000E10   -1.375394738221794E-3  -3.584617104979210E-3  
 2.010200000000000E10   -1.966495107123514E-3  -3.242113305554715E-3  
 2.010400000000000E10   -2.504537974334794E-3  -2.907463688587333E-3  
 2.010600000000000E10   -3.050880098462473E-3  -2.478317659417237E-3  
 2.010800000000000E10   -3.540306490052630E-3  -1.874845854386136E-3  
 2.011000000000000E10   -3.843279679041402E-3  -1.070882949725162E-3  
 2.011200000000000E10   -3.905015149625180E-3  -2.830460718631698E-4  
 2.011400000000000E10   -3.831673767072736E-3   4.127173200192183E-4  
 2.011600000000000E10   -3.649042335764310E-3   1.043719823046783E-3  
 2.011800000000000E10   -3.358913732140705E-3   1.653966452225031E-3  
 2.012000000000000E10   -2.941849299442070E-3   2.176206211134056E-3  
 2.012200000000000E10   -2.465098277079287E-3   2.561115199860967E-3  
 2.012400000000000E10   -2.026495897429593E-3   2.862845142199486E-3  
 2.012600000000000E10   -1.581309310068595E-3   3.119338160081779E-3  
 2.012800000000000E10   -1.049110959830154E-3   3.315885683498633E-3  
 2.013000000000000E10   -5.079089713507091E-4   3.406100015351434E-3  
 2.013200000000000E10    2.032972453754928E-5   3.475166656030917E-3  
 2.013400000000000E10    5.692745333273011E-4   3.462016076585394E-3  
 2.013600000000000E10    1.101743705846645E-3   3.330135010872727E-3  
 2.013800000000000E10    1.612327946924869E-3   3.106138180297467E-3  
 2.014000000000000E10    2.043345120999917E-3   2.815419006057912E-3  
 2.014200000000000E10    2.442482525459779E-3   2.552641883354496E-3  
 2.014400000000000E10    2.891123470171919E-3   2.258029596788096E-3  
 2.014600000000000E10    3.329154543785586E-3   1.856375685433087E-3  
 2.014800000000000E10    3.724024015950201E-3   1.320165810520175E-3  
 2.015000000000000E10    4.073232395091543E-3   6.554524398431827E-4  
 2.015200000000000E10    4.311604178108184E-3  -1.735710610785050E-4  
 2.015400000000000E10    4.265696051771995E-3  -1.132011278474957E-3  
 2.015600000000000E10    3.878201547734164E-3  -2.001601915208646E-3  
 2.015800000000000E10    3.291329685138700E-3  -2.649242472317484E-3  
 2.016000000000000E10    2.620881558453411E-3  -3.044627684478959E-3  
 2.016200000000000E10    2.064863018645549E-3  -3.197666154139573E-3  
 2.016400000000000E10    1.734611806804660E-3  -3.329810916365666E-3  
 2.016600000000000E10    1.460010802407784E-3  -3.644856791023487E-3  
 2.016800000000000E10    9.581351682923184E-4  -4.105275629065288E-3  
 2.017000000000000E10    1.741615310886208E-4  -4.492423882317029E-3  
 2.017200000000000E10   -7.671938697451060E-4  -4.601431797821950E-3  
 2.017400000000000E10   -1.675961654127380E-3  -4.419759306826710E-3  
 2.017600000000000E10   -2.514501941608794E-3  -4.029633253122922E-3  
 2.017800000000000E10   -3.228505530084174E-3  -3.474930973930492E-3  
 2.018000000000000E10   -3.799528444047880E-3  -2.773888245293940E-3  
 2.018200000000000E10   -4.148393524465738E-3  -1.994630419591695E-3  
 2.018400000000000E10   -4.301240857414626E-3  -1.306510323451625E-3  
 2.018600000000000E10   -4.433212893796557E-3  -6.755646045124275E-4  
 2.018800000000000E10   -4.577627767705256E-3   7.834545905086689E-6  
 2.019000000000000E10   -4.636419448357674E-3   7.878935739202541E-4  
 2.019200000000000E10   -4.521690182571795E-3   1.621553319345378E-3  
 2.019400000000000E10   -4.173415511800552E-3   2.431920651967327E-3  
 2.019600000000000E10   -3.663281881376918E-3   3.138218333737718E-3  
 2.019800000000000E10   -3.019310519628136E-3   3.715166566249582E-3  
 2.020000000000000E10   -2.309365813148979E-3   4.076193638697819E-3  
 2.020200000000000E10   -1.704805674330320E-3   4.301895329981676E-3  
 2.020400000000000E10   -1.122969227130123E-3   4.578157000381639E-3  
 2.020600000000000E10   -3.804331282469916E-4   4.834053192839579E-3  
 2.020800000000000E10    4.790403943416882E-4   4.942067479139861E-3  
 2.021000000000000E10    1.340715938972103E-3   4.923178130231891E-3  
 2.021200000000000E10    2.294000430768471E-3   4.720901351790002E-3  
 2.021400000000000E10    3.237116285657258E-3   4.176259581229570E-3  
 2.021600000000000E10    3.933890889410252E-3   3.383593418187014E-3  
 2.021800000000000E10    4.322651854175845E-3   2.547396803964620E-3  
 2.022000000000000E10    4.550710728644958E-3   1.792539073510763E-3  
 2.022200000000000E10    4.709995892128827E-3   1.050596192973540E-3  
 2.022400000000000E10    4.717660010044958E-3   2.736711046761937E-4  
 2.022600000000000E10    4.612997524946193E-3  -4.084377936202527E-4  
 2.022800000000000E10    4.539299014679812E-3  -9.515760797018440E-4  
 2.023000000000000E10    4.585569011576383E-3  -1.619085357639433E-3  
 2.023200000000000E10    4.412723561449920E-3  -2.505109378102202E-3  
 2.023400000000000E10    3.901235736262652E-3  -3.326531407641776E-3  
 2.023600000000000E10    3.262235509967547E-3  -3.995349716947035E-3  
 2.023800000000000E10    2.513156459310357E-3  -4.521930320073426E-3  
 2.024000000000000E10    1.711320610613459E-3  -4.867761470607402E-3  
 2.024200000000000E10    8.553296132128183E-4  -5.036243392775456E-3  
 2.024400000000000E10    2.497341318774961E-5  -5.058135486633322E-3  
 2.024600000000000E10   -8.019693907246822E-4  -5.028775007820424E-3  
 2.024800000000000E10   -1.644471622888505E-3  -4.906419354180495E-3  
 2.025000000000000E10   -2.491005535386963E-3  -4.592709921668342E-3  
 2.025200000000000E10   -3.274103425397182E-3  -4.061451342738706E-3  
 2.025400000000000E10   -3.907114359331720E-3  -3.344945963127194E-3  
 2.025600000000000E10   -4.329668599422332E-3  -2.564169535482372E-3  
 2.025800000000000E10   -4.539118177131003E-3  -1.842006407160726E-3  
 2.026000000000000E10   -4.680742722372583E-3  -1.248619138309157E-3  
 2.026200000000000E10   -4.854120894760630E-3  -6.760377559040525E-4  
 2.026400000000000E10   -5.103983651892639E-3   4.657338250120873E-5  
 2.026600000000000E10   -5.255189224111814E-3   1.018939229349295E-3  
 2.026800000000000E10   -5.104151123237831E-3   2.048305695715510E-3  
 2.027000000000000E10   -4.708092136561504E-3   3.019746824133176E-3  
 2.027200000000000E10   -4.043008160581928E-3   3.904525181968456E-3  
 2.027400000000000E10   -3.145898358873380E-3   4.601964071668961E-3  
 2.027600000000000E10   -2.165554028096391E-3   4.996322302354707E-3  
 2.027800000000000E10   -1.293363673382519E-3   5.162688075668283E-3  
 2.028000000000000E10   -5.062892537184612E-4   5.241471176024205E-3  
 2.028200000000000E10    3.337346608060654E-4   5.247061313302429E-3  
 2.028400000000000E10    1.206678847126939E-3   5.129197652647157E-3  
 2.028600000000000E10    2.086786196831568E-3   4.915340355149022E-3  
 2.028800000000000E10    2.944374324776877E-3   4.547691921255103E-3  
 2.029000000000000E10    3.694760524035421E-3   4.007532387787914E-3  
 2.029200000000000E10    4.371228783080976E-3   3.305583715116905E-3  
 2.029400000000000E10    4.943443266789855E-3   2.420286153569634E-3  
 2.029600000000000E10    5.284013376099829E-3   1.438772537239632E-3  
 2.029800000000000E10    5.405219340765918E-3   4.904238078858198E-4  
 2.030000000000000E10    5.324964739244294E-3  -4.260720578051047E-4  
 2.030200000000000E10    5.078330291090189E-3  -1.243562084036293E-3  
 2.030400000000000E10    4.841163524507005E-3  -1.981669697726582E-3  
 2.030600000000000E10    4.635062223921220E-3  -2.788923128887459E-3  
 2.030800000000000E10    4.270809277156253E-3  -3.705531907739279E-3  
 2.031000000000000E10    3.562806139665622E-3  -4.602547895945150E-3  
 2.031200000000000E10    2.572501929085932E-3  -5.328617432373175E-3  
 2.031400000000000E10    1.320600455028960E-3  -5.823568998617523E-3  
 2.031600000000000E10   -4.075190282705596E-5  -5.874215217054259E-3  
 2.031800000000000E10   -1.161285328253368E-3  -5.414335131875159E-3  
 2.032000000000000E10   -1.888190578657812E-3  -4.823914993508364E-3  
 2.032200000000000E10   -2.454679864631207E-3  -4.351110979454754E-3  
 2.032400000000000E10   -3.053121702791549E-3  -3.943804961939653E-3  
 2.032600000000000E10   -3.654950505329504E-3  -3.461669730942375E-3  
 2.032800000000000E10   -4.167226913534565E-3  -2.895511465469076E-3  
 2.033000000000000E10   -4.624829719555967E-3  -2.240971274053057E-3  
 2.033200000000000E10   -5.072778935923622E-3  -1.433659702780898E-3  
 2.033400000000000E10   -5.358890716538386E-3  -4.154910454900223E-4  
 2.033600000000000E10   -5.380042489434099E-3   6.894861244178668E-5  
 2.033800000000000E10   -5.181572877192571E-3   1.514743902881481E-3  
 2.034000000000000E10   -4.835257594140224E-3   2.431337615291094E-3  
 2.034200000000000E10   -4.304844472143386E-3   3.298782769383657E-3  
 2.034400000000000E10   -3.654897624028870E-3   4.068809710902933E-3  
 2.034600000000000E10   -2.916538142196742E-3   4.718241753217616E-3  
 2.034800000000000E10   -2.036788897519863E-3   5.270942355747577E-3  
 2.035000000000000E10   -8.894577672716553E-4   5.648466114552669E-3  
 2.035200000000000E10    3.847791371366907E-4   5.672252403549207E-3  
 2.035400000000000E10    1.587256454333755E-3   5.315888575335713E-3  
 2.035600000000000E10    2.484412242968877E-3   4.644030440644718E-3  
 2.035800000000000E10    2.999004775681246E-3   3.908138262268939E-3  
 2.036000000000000E10    3.336777968079221E-3   3.316633147474977E-3  
 2.036200000000000E10    3.739455916033484E-3   2.802107957433219E-3  
 2.036400000000000E10    4.134285867352178E-3   2.255544213026210E-3  
 2.036600000000000E10    4.471377463850343E-3   1.700590127492669E-3  
 2.036800000000000E10    4.811593515361533E-3   1.057257151438131E-3  
 2.037000000000000E10    5.107703204784129E-3   1.876303965813642E-4  
 2.037200000000000E10    5.191263328823779E-3  -8.238492164197437E-4  
 2.037400000000000E10    5.029873612026374E-3  -1.898979492209576E-3  
 2.037600000000000E10    4.542311567261264E-3  -2.890103924904525E-3  
 2.037800000000000E10    3.786953559927183E-3  -3.612004349836045E-3  
 2.038000000000000E10    2.997889511149239E-3  -4.096915755696871E-3  
 2.038200000000000E10    2.294184809642626E-3  -4.457638616225234E-3  
 2.038400000000000E10    1.633952261109687E-3  -4.823012352219703E-3  
 2.038600000000000E10    8.339567819932178E-4  -5.166390042660046E-3  
 2.038800000000000E10   -1.906785380273460E-4  -5.326014092582980E-3  
 2.039000000000000E10   -1.262654147950220E-3  -5.160895509668339E-3  
 2.039200000000000E10   -2.232005339644758E-3  -4.731821597634275E-3  
 2.039400000000000E10   -2.961906058322869E-3  -4.157265199831239E-3  
 2.039600000000000E10   -3.495005606156257E-3  -3.592849686097952E-3  
 2.039800000000000E10   -3.993181442772902E-3  -2.964585404383180E-3  
 2.040000000000000E10   -4.404909667317515E-3  -2.220627228028061E-3  
 2.040200000000000E10   -4.642708066069050E-3  -1.506195068761798E-3  
 2.040400000000000E10   -4.852457702113892E-3  -8.681863999097713E-4  
 2.040600000000000E10   -5.037972927783375E-3  -1.511726420434525E-4  
 2.040800000000000E10   -5.145280920888907E-3   6.675787606380053E-4  
 2.041000000000000E10   -5.142058027379308E-3   1.631039275247374E-3  
 2.041200000000000E10   -4.882786181513911E-3   2.694117284759327E-3  
 2.041400000000000E10   -4.349983101825656E-3   3.686171467703434E-3  
 2.041600000000000E10   -3.549415517575396E-3   4.509074964135150E-3  
 2.041800000000000E10   -2.517526138596881E-3   5.094219671769275E-3  
 2.042000000000000E10   -1.448277802275563E-3   5.408727161494303E-3  
 2.042200000000000E10   -4.191684046541744E-4   5.505828790504624E-3  
 2.042400000000000E10    5.280640232089311E-4   5.386929326679236E-3  
 2.042600000000000E10    1.399133420537836E-3   5.140712645686704E-3  
 2.042800000000000E10    2.240241329864036E-3   4.765173173107116E-3  
 2.043000000000000E10    3.020081266668844E-3   4.240177658007101E-3  
 2.043200000000000E10    3.674360506673470E-3   3.577290579998567E-3  
 2.043400000000000E10    4.118212941390130E-3   2.824504710273978E-3  
 2.043600000000000E10    4.329589718699824E-3   2.112776587176839E-3  
 2.043800000000000E10    4.492513352522144E-3   1.458142580820915E-3  
 2.044000000000000E10    4.659347678822133E-3   8.240091351412790E-4  
 2.044200000000000E10    4.818187198705144E-3   2.015012186696109E-4  
 2.044400000000000E10    4.940718032971577E-3  -4.915047740925932E-4  
 2.044600000000000E10    4.982118673024723E-3  -1.346114900733494E-3  
 2.044800000000000E10    4.816618972216492E-3  -2.319238335469071E-3  
 2.045000000000000E10    4.379365345992057E-3  -3.331969719219172E-3  
 2.045200000000000E10    3.642560902661012E-3  -4.282290685094066E-3  
 2.045400000000000E10    2.554335372729434E-3  -4.942036222344564E-3  
 2.045600000000000E10    1.345232083105747E-3  -5.094926212166931E-3  
 2.045800000000000E10    3.484287848954814E-4  -4.912057425826788E-3  
 2.046000000000000E10   -3.806594284941202E-4  -4.627800385617180E-3  
 2.046200000000000E10   -9.070827696115977E-4  -4.346034903493193E-3  
 2.046400000000000E10   -1.392803745585735E-3  -4.124105028394196E-3  
 2.046600000000000E10   -1.881906281248379E-3  -3.914056822979524E-3  
 2.046800000000000E10   -2.417310848142262E-3  -3.691998658195875E-3  
 2.047000000000000E10   -3.047894835932020E-3  -3.365961751429204E-3  
 2.047200000000000E10   -3.640537750964732E-3  -2.858339233990805E-3  
 2.047400000000000E10   -4.045658687382570E-3  -2.172878572579336E-3  
 2.047600000000000E10   -4.243579796618886E-3  -1.467087997388049E-3  
 2.047800000000000E10   -4.370484621850430E-3  -8.733880391378923E-4  
 2.048000000000000E10   -4.564904050188669E-3  -3.240120512387360E-4  
 2.048200000000000E10   -4.805366830601369E-3   3.787037509746483E-4  
 2.048400000000000E10   -4.875436574680571E-3   1.307670714011715E-3  
 2.048600000000000E10   -4.646631250916808E-3   2.317759567687725E-3  
 2.048800000000000E10   -4.081581224813874E-3   3.280430641255262E-3  
 2.049000000000000E10   -3.276628347251702E-3   4.006440205108605E-3  
 2.049200000000000E10   -2.391361355505608E-3   4.462442648263626E-3  
 2.049400000000000E10   -1.451593590900302E-3   4.696223597375700E-3  
 2.049600000000000E10   -5.263485888272158E-4   4.663155304934876E-3  
 2.049800000000000E10    2.172651795352763E-4   4.446808863891129E-3  
 2.050000000000000E10    7.695755475764106E-4   4.168651871567156E-3  
 2.050200000000000E10    1.116451680844213E-3   3.979598183506801E-3  
 2.050400000000000E10    1.565114280243439E-3   4.018841811490280E-3  
 2.050600000000000E10    2.334661776038968E-3   3.968822838807548E-3  
 2.050800000000000E10    3.172908691160474E-3   3.575030300352309E-3  
 2.051000000000000E10    3.832107050528313E-3   2.961360018723357E-3  
 2.051200000000000E10    4.372015181514952E-3   2.262050464151451E-3  
 2.051400000000000E10    4.804164757607161E-3   1.376492543329979E-3  
 2.051600000000000E10    4.968280467078274E-3   3.258790766941039E-4  
 2.051800000000000E10    4.788495784188495E-3  -6.477699139339413E-4  
 2.052000000000000E10    4.476382799538567E-3  -1.398731148111876E-3  
 2.052200000000000E10    4.184629768133164E-3  -2.070113182941705E-3  
 2.052400000000000E10    3.809205060939730E-3  -2.826415347280326E-3  
 2.052600000000000E10    3.143907625251163E-3  -3.569855918118984E-3  
 2.052800000000000E10    2.241806472065273E-3  -4.031534720626143E-3  
 2.053000000000000E10    1.367140943644408E-3  -4.163259588595894E-3  
 2.053200000000000E10    5.862481948160740E-4  -4.118972256733681E-3  
 2.053400000000000E10   -1.050381511442628E-4  -3.907417435842900E-3  
 2.053600000000000E10   -6.140389186502608E-4  -3.626920728380850E-3  
 2.053800000000000E10   -9.837751521119551E-4  -3.370003763264344E-3  
 2.054000000000000E10   -1.252124620670522E-3  -3.170806670239495E-3  
 2.054200000000000E10   -1.508443758616017E-3  -3.122437440640765E-3  
 2.054400000000000E10   -1.964936481305847E-3  -3.168166364991555E-3  
 2.054600000000000E10   -2.670426355720855E-3  -3.125159710898628E-3  
 2.054800000000000E10   -3.581017997391799E-3  -2.749386916144027E-3  
 2.055000000000000E10   -4.357435292115918E-3  -1.847072862330134E-3  
 2.055200000000000E10   -4.639231519382678E-3  -6.960631566651076E-4  
 2.055400000000000E10   -4.526991678838745E-3   3.827348528257399E-4  
 2.055600000000000E10   -4.200953702775785E-3   1.297787411057931E-3  
