#  HZ   S   RI   R     50.00 
! Rohde & Schwarz ZVA40 4Ports - Version 3.90 - 1145.1110k42 SN: 100403
! Date: 2023-10-03 12:33:48
! Measurement: S12 
! 
 2.000000000000000E10    3.358104438693436E-3  -3.896025814299968E-4  
 2.000200000000000E10    3.267526862292011E-3  -1.037027226742300E-3  
 2.000400000000000E10    3.009457060676298E-3  -1.702654553450828E-3  
 2.000600000000000E10    2.563809993228427E-3  -2.224404632148368E-3  
 2.000800000000000E10    2.074989050419794E-3  -2.581314568948231E-3  
 2.001000000000000E10    1.561120737424511E-3  -2.828107750112260E-3  
 2.001200000000000E10    1.068224848023857E-3  -3.006015254621521E-3  
 2.001400000000000E10    5.342224156512752E-4  -3.193689734433537E-3  
 2.001600000000000E10   -1.880047242099674E-4  -3.248974749887432E-3  
 2.001800000000000E10   -8.864947630632900E-4  -2.953026133279006E-3  
 2.002000000000000E10   -1.312636887441953E-3  -2.469807167617996E-3  
 2.002200000000000E10   -1.524983290841596E-3  -2.004594769167864E-3  
 2.002400000000000E10   -1.572506615092955E-3  -1.674533226630754E-3  
 2.002600000000000E10   -1.564179756966086E-3  -1.523627242774783E-3  
 2.002800000000000E10   -1.686697659071213E-3  -1.472672795370957E-3  
 2.003000000000000E10   -1.924970788007350E-3  -1.345466648481418E-3  
 2.003200000000000E10   -2.194209291634185E-3  -1.155005739196951E-3  
 2.003400000000000E10   -2.509714360061435E-3  -9.042536987158483E-4  
 2.003600000000000E10   -2.865751535505241E-3  -4.729393335708911E-4  
 2.003800000000000E10   -3.046886756855213E-3   2.166673405969770E-4  
 2.004000000000000E10   -2.879175846177487E-3   9.522529878189365E-4  
 2.004200000000000E10   -2.464937741787713E-3   1.509129659726894E-3  
 2.004400000000000E10   -1.980179472378007E-3   1.805906150961456E-3  
 2.004600000000000E10   -1.618466029564540E-3   1.877712953927708E-3  
 2.004800000000000E10   -1.418220530333067E-3   1.955131159370972E-3  
 2.005000000000000E10   -1.261479836417201E-3   2.167794836202154E-3  
 2.005200000000000E10   -9.806239553497255E-4   2.469677380343646E-3  
 2.005400000000000E10   -5.623022811005846E-4   2.728399863742568E-3  
 2.005600000000000E10   -3.870644960207509E-5   2.864821908857536E-3  
 2.005800000000000E10    5.046590012182013E-4   2.848943226890248E-3  
 2.006000000000000E10    1.058342791863798E-3   2.735840242907957E-3  
 2.006200000000000E10    1.615072864993119E-3   2.478836339978893E-3  
 2.006400000000000E10    2.058735719514022E-3   2.049792957503671E-3  
 2.006600000000000E10    2.291479492904964E-3   1.570165962164785E-3  
 2.006800000000000E10    2.375251452588005E-3   1.170756625166784E-3  
 2.007000000000000E10    2.495687633154937E-3   8.925789378635172E-4  
 2.007200000000000E10    2.762949565586485E-3   5.376457493072433E-4  
 2.007400000000000E10    2.937544240719743E-3  -4.499560124298317E-5  
 2.007600000000000E10    2.856361021483202E-3  -6.654666604497184E-4  
 2.007800000000000E10    2.599741772024168E-3  -1.236639809464162E-3  
 2.008000000000000E10    2.194763146869747E-3  -1.687003735792076E-3  
 2.008200000000000E10    1.772724853736567E-3  -1.956829795452916E-3  
 2.008400000000000E10    1.360744143042852E-3  -2.098658566225182E-3  
 2.008600000000000E10    1.018043950970434E-3  -2.136098781462621E-3  
 2.008800000000000E10    7.463079438125139E-4  -2.159348735010919E-3  
 2.009000000000000E10    5.375029690140415E-4  -2.209959609181057E-3  
 2.009200000000000E10    3.581406226321295E-4  -2.382868938263000E-3  
 2.009400000000000E10   -9.447446144703476E-6  -2.657853420478879E-3  
 2.009600000000000E10   -5.963511936033123E-4  -2.743601701279849E-3  
 2.009800000000000E10   -1.206695400020338E-3  -2.591532801657363E-3  
 2.010000000000000E10   -1.723914736318460E-3  -2.244823201226048E-3  
 2.010200000000000E10   -2.030902576667291E-3  -1.848975992704064E-3  
 2.010400000000000E10   -2.246547657076592E-3  -1.529650318574299E-3  
 2.010600000000000E10   -2.503602952339951E-3  -1.200798927679842E-3  
 2.010800000000000E10   -2.779333081878262E-3  -7.481729171334414E-4  
 2.011000000000000E10   -2.922032879274569E-3  -1.490181728760584E-4  
 2.011200000000000E10   -2.888994035598489E-3   3.999355306595933E-4  
 2.011400000000000E10   -2.764886242257040E-3   9.000971323176704E-4  
 2.011600000000000E10   -2.520913462281043E-3   1.382137103333932E-3  
 2.011800000000000E10   -2.181202314081200E-3   1.815861947604536E-3  
 2.012000000000000E10   -1.772660267665799E-3   2.143186284229159E-3  
 2.012200000000000E10   -1.355975341730188E-3   2.339269971635975E-3  
 2.012400000000000E10   -9.736476525704571E-4   2.447575897001374E-3  
 2.012600000000000E10   -5.937639817935397E-4   2.514203889640394E-3  
 2.012800000000000E10   -2.076045788226671E-4   2.572264588426477E-3  
 2.013000000000000E10    1.624144878192451E-4   2.588153529314348E-3  
 2.013200000000000E10    5.290949250784141E-4   2.597979336034185E-3  
 2.013400000000000E10    9.304307674971860E-4   2.519027404717089E-3  
 2.013600000000000E10    1.315790173931071E-3   2.335978045277758E-3  
 2.013800000000000E10    1.690523359740590E-3   2.130426403227044E-3  
 2.014000000000000E10    2.014311737622376E-3   1.853199598068992E-3  
 2.014200000000000E10    2.257568925550139E-3   1.611105344591685E-3  
 2.014400000000000E10    2.529776885093731E-3   1.392376124801367E-3  
 2.014600000000000E10    2.881745701471781E-3   1.072013261296821E-3  
 2.014800000000000E10    3.242755498461150E-3   5.729916707805162E-4  
 2.015000000000000E10    3.503279990436119E-3  -5.466323403388644E-5  
 2.015200000000000E10    3.614388584492752E-3  -8.140468463229082E-4  
 2.015400000000000E10    3.433959616095196E-3  -1.656626941877659E-3  
 2.015600000000000E10    2.954319947295719E-3  -2.380267905220850E-3  
 2.015800000000000E10    2.318601902965227E-3  -2.898642801921125E-3  
 2.016000000000000E10    1.648103323891575E-3  -3.163489970137125E-3  
 2.016200000000000E10    1.088629433609269E-3  -3.196953094483894E-3  
 2.016400000000000E10    7.187026447938456E-4  -3.171242333741652E-3  
 2.016600000000000E10    4.360048049330756E-4  -3.314210199693471E-3  
 2.016800000000000E10   -2.622186999630058E-5  -3.631671085769749E-3  
 2.017000000000000E10   -7.397713930846228E-4  -3.870311911781262E-3  
 2.017200000000000E10   -1.587701720662737E-3  -3.818979986977799E-3  
 2.017400000000000E10   -2.394858517764528E-3  -3.463742369211015E-3  
 2.017600000000000E10   -3.101625752830763E-3  -2.915019008480473E-3  
 2.017800000000000E10   -3.645870256824075E-3  -2.212803457277241E-3  
 2.018000000000000E10   -3.986019888363872E-3  -1.422462217440760E-3  
 2.018200000000000E10   -4.054083684344351E-3  -5.925155379866928E-4  
 2.018400000000000E10   -3.889951343291704E-3   8.713624319406588E-5  
 2.018600000000000E10   -3.756921859113155E-3   5.961098373338674E-4  
 2.018800000000000E10   -3.717644226357893E-3   1.107676806974650E-3  
 2.019000000000000E10   -3.624050314595670E-3   1.703398657910940E-3  
 2.019200000000000E10   -3.367237562750593E-3   2.348809317616677E-3  
 2.019400000000000E10   -2.903734569518287E-3   2.978601182500522E-3  
 2.019600000000000E10   -2.293570130994475E-3   3.501184247319162E-3  
 2.019800000000000E10   -1.573550339535247E-3   3.888284873769240E-3  
 2.020000000000000E10   -8.070190406776677E-4   4.015393106749765E-3  
 2.020200000000000E10   -1.818910751342312E-4   3.918289781812533E-3  
 2.020400000000000E10    3.348227179275804E-4   3.876533842197171E-3  
 2.020600000000000E10    9.404736270813308E-4   3.861014576007923E-3  
 2.020800000000000E10    1.583908409322900E-3   3.741621879147895E-3  
 2.021000000000000E10    2.196767583006510E-3   3.530992580186806E-3  
 2.021200000000000E10    2.869929937231873E-3   3.157954231870395E-3  
 2.021400000000000E10    3.493396191639297E-3   2.516214563338845E-3  
 2.021600000000000E10    3.871061557466970E-3   1.704963257559288E-3  
 2.021800000000000E10    3.950731587354784E-3   9.070764955353814E-4  
 2.022000000000000E10    3.869194341938438E-3   3.108435538942338E-4  
 2.022200000000000E10    3.782639331701729E-3  -2.438753676589258E-4  
 2.022400000000000E10    3.645413923134775E-3  -8.116244391630187E-4  
 2.022600000000000E10    3.434763249745708E-3  -1.317386702996575E-3  
 2.022800000000000E10    3.258446283224557E-3  -1.678879287979210E-3  
 2.023000000000000E10    3.190151415765286E-3  -2.129548197658158E-3  
 2.023200000000000E10    2.895313004652659E-3  -2.779935785557753E-3  
 2.023400000000000E10    2.316501960273327E-3  -3.336680409165077E-3  
 2.023600000000000E10    1.679432263632340E-3  -3.694786161276294E-3  
 2.023800000000000E10    1.044562078917537E-3  -3.932928718212578E-3  
 2.024000000000000E10    3.912808899685056E-4  -4.042662168496553E-3  
 2.024200000000000E10   -3.164120961302594E-4  -4.012658071048834E-3  
 2.024400000000000E10   -1.012213413357838E-3  -3.880541512949600E-3  
 2.024600000000000E10   -1.646628681668023E-3  -3.649274036748175E-3  
 2.024800000000000E10   -2.191382318010761E-3  -3.366062181921285E-3  
 2.025000000000000E10   -2.712680170611467E-3  -2.999635574258404E-3  
 2.025200000000000E10   -3.233062040152742E-3  -2.466508058003253E-3  
 2.025400000000000E10   -3.613476592610464E-3  -1.789715855359387E-3  
 2.025600000000000E10   -3.796874815713110E-3  -1.079908652622023E-3  
 2.025800000000000E10   -3.775104794099376E-3  -4.767063830154200E-4  
 2.026000000000000E10   -3.682289157568673E-3  -2.650984269739291E-5  
 2.026200000000000E10   -3.658144867024672E-3   4.189024473839430E-4  
 2.026400000000000E10   -3.729904835100896E-3   9.579177678887517E-4  
 2.026600000000000E10   -3.739405768337074E-3   1.672858415447452E-3  
 2.026800000000000E10   -3.497844740150520E-3   2.429230863021480E-3  
 2.027000000000000E10   -3.016332187402396E-3   3.123845232443678E-3  
 2.027200000000000E10   -2.307163818773848E-3   3.710994468197043E-3  
 2.027400000000000E10   -1.443103550829821E-3   4.071375717305476E-3  
 2.027600000000000E10   -6.155263702982475E-4   4.156862828236672E-3  
 2.027800000000000E10    3.204514117290580E-5   4.050224249101716E-3  
 2.028000000000000E10    6.093918989027313E-4   3.923502221795513E-3  
 2.028200000000000E10    1.273441836985265E-3   3.775591254924183E-3  
 2.028400000000000E10    1.943280434603861E-3   3.500197341458665E-3  
 2.028600000000000E10    2.531538774937760E-3   3.147561011123069E-3  
 2.028800000000000E10    3.015546177019492E-3   2.677647664246184E-3  
 2.029000000000000E10    3.377006929597737E-3   2.109714007625978E-3  
 2.029200000000000E10    3.695670934968893E-3   1.504592150507242E-3  
 2.029400000000000E10    3.961379789275888E-3   7.998759919931296E-4  
 2.029600000000000E10    4.053041902313263E-3   6.387369666984409E-5  
 2.029800000000000E10    3.963398862124226E-3  -6.218189761663477E-4  
 2.030000000000000E10    3.703451226752850E-3  -1.295480861710845E-3  
 2.030200000000000E10    3.335734306156268E-3  -1.864659050939444E-3  
 2.030400000000000E10    3.021941485780257E-3  -2.317694812024266E-3  
 2.030600000000000E10    2.774259575677139E-3  -2.790993548078854E-3  
 2.030800000000000E10    2.400331480865494E-3  -3.347858947552281E-3  
 2.031000000000000E10    1.766725190351775E-3  -3.925097709590639E-3  
 2.031200000000000E10    8.813373264454213E-4  -4.360847945474549E-3  
 2.031400000000000E10   -2.220750478797675E-4  -4.566146652961588E-3  
 2.031600000000000E10   -1.334712321239087E-3  -4.322146335731686E-3  
 2.031800000000000E10   -2.137142776822051E-3  -3.577390725919862E-3  
 2.032000000000000E10   -2.503928486947661E-3  -2.787418255329500E-3  
 2.032200000000000E10   -2.672328277387553E-3  -2.227700490757455E-3  
 2.032400000000000E10   -2.836646862833957E-3  -1.844986929719187E-3  
 2.032600000000000E10   -3.005083710714071E-3  -1.462229123672494E-3  
 2.032800000000000E10   -3.135857534491354E-3  -1.072687147017051E-3  
 2.033000000000000E10   -3.279588955604000E-3  -6.505062973937364E-4  
 2.033200000000000E10   -3.487023582429062E-3  -1.371585013758805E-4  
 2.033400000000000E10   -3.609130084284662E-3   5.418089082619797E-4  
 2.033600000000000E10   -3.571551753047072E-3   8.515064601166993E-4  
 2.033800000000000E10   -3.187657546619942E-3   1.768930241707023E-3  
 2.034000000000000E10   -2.822825357455898E-3   2.324357614450065E-3  
 2.034200000000000E10   -2.365633181330783E-3   2.828168363689825E-3  
 2.034400000000000E10   -1.867402678378571E-3   3.222379137842376E-3  
 2.034600000000000E10   -1.351902446778560E-3   3.537689927781438E-3  
 2.034800000000000E10   -7.178061194416067E-4   3.826639264316104E-3  
 2.035000000000000E10    1.111600453172018E-4   3.965147460500400E-3  
 2.035200000000000E10    1.001752562315008E-3   3.891237505516153E-3  
 2.035400000000000E10    1.819387817019482E-3   3.556080277503273E-3  
 2.035600000000000E10    2.384614926636403E-3   2.931275358998482E-3  
 2.035800000000000E10    2.648897790982400E-3   2.264509992214081E-3  
 2.036000000000000E10    2.766622606963839E-3   1.778488010053098E-3  
 2.036200000000000E10    2.950727275607211E-3   1.423806486720288E-3  
 2.036400000000000E10    3.121010815425788E-3   1.053693590766210E-3  
 2.036600000000000E10    3.262967342671789E-3   6.894577078734679E-4  
 2.036800000000000E10    3.464493969524349E-3   2.775961355062597E-4  
 2.037000000000000E10    3.686598795293658E-3  -3.389167537579292E-4  
 2.037200000000000E10    3.761953760490374E-3  -1.124899825052485E-3  
 2.037400000000000E10    3.616355583761578E-3  -1.939796747777749E-3  
 2.037600000000000E10    3.135778671015561E-3  -2.677554161184364E-3  
 2.037800000000000E10    2.448483102920431E-3  -3.227633412605451E-3  
 2.038000000000000E10    1.739753663171957E-3  -3.565312340211722E-3  
 2.038200000000000E10    1.126743808538182E-3  -3.736579721724546E-3  
 2.038400000000000E10    5.735924914242113E-4  -3.876952402707604E-3  
 2.038600000000000E10   -6.792416119154690E-5  -4.036838665926531E-3  
 2.038800000000000E10   -8.858746675096086E-4  -4.048331916608193E-3  
 2.039000000000000E10   -1.738680802561619E-3  -3.819888331180002E-3  
 2.039200000000000E10   -2.486213210993159E-3  -3.400467934063924E-3  
 2.039400000000000E10   -2.993319942443460E-3  -2.809962217500549E-3  
 2.039600000000000E10   -3.337548766860072E-3  -2.185315551972132E-3  
 2.039800000000000E10   -3.623748088922398E-3  -1.535934390339219E-3  
 2.040000000000000E10   -3.767503000059982E-3  -8.356305211854317E-4  
 2.040200000000000E10   -3.702793500305695E-3  -2.516350388400440E-4  
 2.040400000000000E10   -3.639434142337170E-3   1.744782504694607E-4  
 2.040600000000000E10   -3.645370708617532E-3   6.121060218845990E-4  
 2.040800000000000E10   -3.692416066050898E-3   1.161961934103826E-3  
 2.041000000000000E10   -3.691460149661627E-3   1.906588331531780E-3  
 2.041200000000000E10   -3.445396125086664E-3   2.736281258640466E-3  
 2.041400000000000E10   -2.885704239209493E-3   3.477937035998446E-3  
 2.041600000000000E10   -2.066966131858436E-3   4.071556388136046E-3  
 2.041800000000000E10   -1.096454907113824E-3   4.402524038551399E-3  
 2.042000000000000E10   -1.698114526031228E-4   4.439789997298777E-3  
 2.042200000000000E10    6.471485327814283E-4   4.267980413580383E-3  
 2.042400000000000E10    1.337902104470557E-3   3.942783726494255E-3  
 2.042600000000000E10    1.905694549305388E-3   3.536657027808237E-3  
 2.042800000000000E10    2.422954079430597E-3   3.115680298687500E-3  
 2.043000000000000E10    2.900519753219905E-3   2.669554801634801E-3  
 2.043200000000000E10    3.258936900507522E-3   2.130027909268752E-3  
 2.043400000000000E10    3.471705228964120E-3   1.489609219766234E-3  
 2.043600000000000E10    3.526804893978953E-3   8.846022286394863E-4  
 2.043800000000000E10    3.539151569575440E-3   3.830829712872703E-4  
 2.044000000000000E10    3.537118837329341E-3  -6.245712844516951E-5  
 2.044200000000000E10    3.536079441093736E-3  -5.102116203353810E-4  
 2.044400000000000E10    3.515001679598182E-3  -1.002238542387653E-3  
 2.044600000000000E10    3.457210544082854E-3  -1.596962232545110E-3  
 2.044800000000000E10    3.248836569212102E-3  -2.314603068279448E-3  
 2.045000000000000E10    2.850368429251292E-3  -3.034676298683073E-3  
 2.045200000000000E10    2.184781254510637E-3  -3.657312994753874E-3  
 2.045400000000000E10    1.200229097675118E-3  -4.023369056759058E-3  
 2.045600000000000E10    2.056945404210300E-4  -3.908574966322862E-3  
 2.045800000000000E10   -4.530639980882293E-4  -3.549944741628421E-3  
 2.046000000000000E10   -8.394934084657352E-4  -3.189775017722522E-3  
 2.046200000000000E10   -1.102030547450722E-3  -2.910714952942030E-3  
 2.046400000000000E10   -1.332285060880729E-3  -2.740417917569479E-3  
 2.046600000000000E10   -1.650986271726405E-3  -2.591939421692564E-3  
 2.046800000000000E10   -2.041416579029627E-3  -2.434573969861240E-3  
 2.047000000000000E10   -2.473956077463097E-3  -2.196688575808097E-3  
 2.047200000000000E10   -2.836973213786145E-3  -1.768064248249119E-3  
 2.047400000000000E10   -3.060145013287296E-3  -1.209577834406109E-3  
 2.047600000000000E10   -3.133180947905338E-3  -7.034414375982718E-4  
 2.047800000000000E10   -3.163565168686120E-3  -3.315197713680301E-4  
 2.048000000000000E10   -3.262414930411327E-3   8.753303439862310E-6  
 2.048200000000000E10   -3.435991681468340E-3   4.729580221824165E-4  
 2.048400000000000E10   -3.476136266311378E-3   1.137011588183174E-3  
 2.048600000000000E10   -3.273826621380854E-3   1.897261960914842E-3  
 2.048800000000000E10   -2.843973778740123E-3   2.621661848676058E-3  
 2.049000000000000E10   -2.228389479748813E-3   3.115787216818627E-3  
 2.049200000000000E10   -1.507827819520493E-3   3.384649328151604E-3  
 2.049400000000000E10   -7.795981982331953E-4   3.475619301797800E-3  
 2.049600000000000E10   -1.458341285814202E-4   3.389060669751079E-3  
 2.049800000000000E10    3.411538084071288E-4   3.182083828213775E-3  
 2.050000000000000E10    6.916030104571012E-4   2.913297470199105E-3  
 2.050200000000000E10    8.390703084763647E-4   2.757416388456837E-3  
 2.050400000000000E10    1.087295464929883E-3   2.842718999786878E-3  
 2.050600000000000E10    1.658505610661742E-3   2.879945572787597E-3  
 2.050800000000000E10    2.310751615391102E-3   2.653765673231748E-3  
 2.051000000000000E10    2.819707778132992E-3   2.222802944159435E-3  
 2.051200000000000E10    3.225958635915577E-3   1.693348072607208E-3  
 2.051400000000000E10    3.568481889633853E-3   1.029743686502362E-3  
 2.051600000000000E10    3.727307543158532E-3   2.386819384956193E-4  
 2.051800000000000E10    3.583445213735105E-3  -4.918235178065292E-4  
 2.052000000000000E10    3.339948460321736E-3  -1.033558665464322E-3  
 2.052200000000000E10    3.117265927110926E-3  -1.520273241179961E-3  
 2.052400000000000E10    2.826768226553629E-3  -2.108197213713954E-3  
 2.052600000000000E10    2.302505714059980E-3  -2.688925471846705E-3  
 2.052800000000000E10    1.613149590456836E-3  -3.002622722429626E-3  
 2.053000000000000E10    9.462036714130255E-4  -3.022940030298484E-3  
 2.053200000000000E10    3.679060439340610E-4  -2.932215644115652E-3  
 2.053400000000000E10   -1.147245922855987E-4  -2.724863059910728E-3  
 2.053600000000000E10   -3.763195811727740E-4  -2.444363248040095E-3  
 2.053800000000000E10   -4.687336732325846E-4  -2.249341139017984E-3  
 2.054000000000000E10   -4.982351928458544E-4  -2.225279399872195E-3  
 2.054200000000000E10   -6.032019862933889E-4  -2.410927600583729E-3  
 2.054400000000000E10   -1.016903626962485E-3  -2.664943395274473E-3  
 2.054600000000000E10   -1.723519460309619E-3  -2.810749777213291E-3  
 2.054800000000000E10   -2.630158698324252E-3  -2.606417015079915E-3  
 2.055000000000000E10   -3.401522950073820E-3  -1.842731310997481E-3  
 2.055200000000000E10   -3.728836050464048E-3  -8.133831577674475E-4  
 2.055400000000000E10   -3.685691215695791E-3   1.407654338514858E-4  
 2.055600000000000E10   -3.391949781849061E-3   9.225390055274339E-4  
