#  HZ   S   RI   R     50.00 
! Rohde & Schwarz ZVA40 4Ports - Version 3.90 - 1145.1110k42 SN: 100403
! Date: 2023-10-03 12:33:08
! Measurement: S12 
! 
 2.000000000000000E10    2.938658042155483E-3  -2.251761581175271E-4  
 2.000200000000000E10    2.939640268407487E-3  -7.666721832248625E-4  
 2.000400000000000E10    2.813284914871609E-3  -1.330437621584645E-3  
 2.000600000000000E10    2.532218013786607E-3  -1.854034278679778E-3  
 2.000800000000000E10    2.122798969072325E-3  -2.291673932362486E-3  
 2.001000000000000E10    1.646510519397756E-3  -2.591258458172282E-3  
 2.001200000000000E10    1.212260944561826E-3  -2.825570318640934E-3  
 2.001400000000000E10    7.063824558389133E-4  -3.109186258236016E-3  
 2.001600000000000E10   -5.041837478832653E-5  -3.225886806224784E-3  
 2.001800000000000E10   -7.752659040744659E-4  -2.943592120168938E-3  
 2.002000000000000E10   -1.201085280627012E-3  -2.480520107955845E-3  
 2.002200000000000E10   -1.420552376657725E-3  -2.054288323658208E-3  
 2.002400000000000E10   -1.485946256218961E-3  -1.765670129787867E-3  
 2.002600000000000E10   -1.528643412274067E-3  -1.622284068381069E-3  
 2.002800000000000E10   -1.677165096798153E-3  -1.571152143663279E-3  
 2.003000000000000E10   -1.928327527518074E-3  -1.479041956675550E-3  
 2.003200000000000E10   -2.263339339858956E-3  -1.336551732728603E-3  
 2.003400000000000E10   -2.683255795596375E-3  -1.064742244866297E-3  
 2.003600000000000E10   -3.107051330584068E-3  -5.769462096159934E-4  
 2.003800000000000E10   -3.362551107312795E-3   1.972619946981366E-4  
 2.004000000000000E10   -3.249101495991151E-3   1.082959248580867E-3  
 2.004200000000000E10   -2.791449418981319E-3   1.783569226972759E-3  
 2.004400000000000E10   -2.205539054961668E-3   2.190327927194260E-3  
 2.004600000000000E10   -1.682714507397678E-3   2.324879117723969E-3  
 2.004800000000000E10   -1.372459517033012E-3   2.387383349101853E-3  
 2.005000000000000E10   -1.133687397534097E-3   2.582086948677898E-3  
 2.005200000000000E10   -7.537619115922740E-4   2.867946763419443E-3  
 2.005400000000000E10   -2.348840730351017E-4   3.083622428002182E-3  
 2.005600000000000E10    4.138794675883320E-4   3.133013370205408E-3  
 2.005800000000000E10    1.011690521543777E-3   2.954108864758854E-3  
 2.006000000000000E10    1.519201556220651E-3   2.708887414040941E-3  
 2.006200000000000E10    1.970864314999846E-3   2.370789871309643E-3  
 2.006400000000000E10    2.307263427172546E-3   1.955186719661234E-3  
 2.006600000000000E10    2.568929783861946E-3   1.524149172904867E-3  
 2.006800000000000E10    2.745256509148965E-3   1.116535389209511E-3  
 2.007000000000000E10    2.933574305778301E-3   7.694771780666931E-4  
 2.007200000000000E10    3.230430901533476E-3   2.791782109381058E-4  
 2.007400000000000E10    3.374747742243387E-3  -4.821193503664324E-4  
 2.007600000000000E10    3.178392804262263E-3  -1.295121882490262E-3  
 2.007800000000000E10    2.727707520265270E-3  -1.954842151867019E-3  
 2.008000000000000E10    2.179722155064897E-3  -2.373942587938574E-3  
 2.008200000000000E10    1.628853367745049E-3  -2.630587865564007E-3  
 2.008400000000000E10    1.074164980781023E-3  -2.776044834819105E-3  
 2.008600000000000E10    5.659641098679492E-4  -2.792620522625469E-3  
 2.008800000000000E10    1.616621803906229E-4  -2.760391147738254E-3  
 2.009000000000000E10   -1.921236185740714E-4  -2.727450259650747E-3  
 2.009200000000000E10   -5.393311881494744E-4  -2.729377950783129E-3  
 2.009400000000000E10   -1.003167466950362E-3  -2.758057727650912E-3  
 2.009600000000000E10   -1.622821139689121E-3  -2.588589796451507E-3  
 2.009800000000000E10   -2.174015657079441E-3  -2.203476097848681E-3  
 2.010000000000000E10   -2.544680325728324E-3  -1.662794685991550E-3  
 2.010200000000000E10   -2.674654772919086E-3  -1.112537484409081E-3  
 2.010400000000000E10   -2.716431247622327E-3  -6.880396739924672E-4  
 2.010600000000000E10   -2.802991722193030E-3  -2.749482562110104E-4  
 2.010800000000000E10   -2.890888403204305E-3   1.823759990252762E-4  
 2.011000000000000E10   -2.875443616950954E-3   7.117167330795417E-4  
 2.011200000000000E10   -2.721892678420301E-3   1.232752347951410E-3  
 2.011400000000000E10   -2.453998205493446E-3   1.732191773717878E-3  
 2.011600000000000E10   -2.043609024473915E-3   2.177425755049896E-3  
 2.011800000000000E10   -1.565256151715639E-3   2.526259110136717E-3  
 2.012000000000000E10   -1.034138793194736E-3   2.722291474196095E-3  
 2.012200000000000E10   -4.957507718009531E-4   2.724978615771289E-3  
 2.012400000000000E10   -5.216543650021777E-5   2.645159424800012E-3  
 2.012600000000000E10    3.190662116847105E-4   2.573793650501304E-3  
 2.012800000000000E10    6.878608579023018E-4   2.488659436090125E-3  
 2.013000000000000E10    1.038793215735091E-3   2.327684054358138E-3  
 2.013200000000000E10    1.314704677228023E-3   2.142353492133596E-3  
 2.013400000000000E10    1.574247769356050E-3   1.973636439759975E-3  
 2.013600000000000E10    1.870614786942800E-3   1.777427137346456E-3  
 2.013800000000000E10    2.188616087315260E-3   1.528495491516811E-3  
 2.014000000000000E10    2.438393490457977E-3   1.213026862522518E-3  
 2.014200000000000E10    2.627219314928408E-3   8.751674343969811E-4  
 2.014400000000000E10    2.840629451114823E-3   5.031613324751595E-4  
 2.014600000000000E10    3.074333244175823E-3   5.209089337128089E-6  
 2.014800000000000E10    3.157508188720655E-3  -6.267816427646688E-4  
 2.015000000000000E10    3.067629920594671E-3  -1.275191519029991E-3  
 2.015200000000000E10    2.833448341806178E-3  -1.928207662853378E-3  
 2.015400000000000E10    2.367628419219896E-3  -2.539128634250827E-3  
 2.015600000000000E10    1.722711181544044E-3  -2.966402227886850E-3  
 2.015800000000000E10    1.037072523979953E-3  -3.150578433026871E-3  
 2.016000000000000E10    4.009216338292593E-4  -3.079492814355979E-3  
 2.016200000000000E10   -2.070418418885241E-5  -2.856358282130074E-3  
 2.016400000000000E10   -2.450093269106691E-4  -2.712734147078462E-3  
 2.016600000000000E10   -4.165997735172925E-4  -2.782916115527904E-3  
 2.016800000000000E10   -7.680426049908555E-4  -2.975623425165261E-3  
 2.017000000000000E10   -1.363462488235975E-3  -3.111945240999814E-3  
 2.017200000000000E10   -2.129800436604355E-3  -2.974300283110804E-3  
 2.017400000000000E10   -2.818753037394749E-3  -2.535414588810118E-3  
 2.017600000000000E10   -3.368777222931386E-3  -1.911737878496448E-3  
 2.017800000000000E10   -3.698118893360651E-3  -1.171432081954899E-3  
 2.018000000000000E10   -3.806674990940978E-3  -3.812624404586300E-4  
 2.018200000000000E10   -3.640355525055418E-3   3.981431606613721E-4  
 2.018400000000000E10   -3.296530986618665E-3   9.399865585793225E-4  
 2.018600000000000E10   -3.006592867206093E-3   1.260841416229529E-3  
 2.018800000000000E10   -2.889923932444719E-3   1.559131877945253E-3  
 2.019000000000000E10   -2.785382507782844E-3   2.018444783364733E-3  
 2.019200000000000E10   -2.495390190570443E-3   2.593603217974305E-3  
 2.019400000000000E10   -1.987399197080069E-3   3.108133536039128E-3  
 2.019600000000000E10   -1.361289350488396E-3   3.472037630638592E-3  
 2.019800000000000E10   -6.613642391231325E-4   3.663147911774340E-3  
 2.020000000000000E10    4.235684451082814E-5   3.639386440799745E-3  
 2.020200000000000E10    6.199208512919507E-4   3.474075476535493E-3  
 2.020400000000000E10    1.116379133977548E-3   3.360443989987728E-3  
 2.020600000000000E10    1.713684729852334E-3   3.212389907006313E-3  
 2.020800000000000E10    2.296820015612025E-3   2.853414138641071E-3  
 2.021000000000000E10    2.726314175460074E-3   2.392030881579828E-3  
 2.021200000000000E10    3.099275373474316E-3   1.898393371245928E-3  
 2.021400000000000E10    3.414373948342271E-3   1.267273229098431E-3  
 2.021600000000000E10    3.531411988660693E-3   5.621597778776454E-4  
 2.021800000000000E10    3.385083241112255E-3  -7.389344156965511E-5  
 2.022000000000000E10    3.124884493580019E-3  -5.275101995923454E-4  
 2.022200000000000E10    2.939418415297514E-3  -8.735627763801152E-4  
 2.022400000000000E10    2.769964885104586E-3  -1.230351463029230E-3  
 2.022600000000000E10    2.531877399801656E-3  -1.572591554442490E-3  
 2.022800000000000E10    2.334794978162757E-3  -1.791447353618289E-3  
 2.023000000000000E10    2.243585962181290E-3  -2.117047189838357E-3  
 2.023200000000000E10    1.989199978264946E-3  -2.641766814997903E-3  
 2.023400000000000E10    1.477511603971599E-3  -3.088388738601848E-3  
 2.023600000000000E10    8.878916032025936E-4  -3.340108173519926E-3  
 2.023800000000000E10    2.832771747812836E-4  -3.443254097537311E-3  
 2.024000000000000E10   -3.112062323553902E-4  -3.461051533964497E-3  
 2.024200000000000E10   -9.574116319762889E-4  -3.393791210665196E-3  
 2.024400000000000E10   -1.607534380767633E-3  -3.138406917935721E-3  
 2.024600000000000E10   -2.134037911202069E-3  -2.726362259299667E-3  
 2.024800000000000E10   -2.504332249777185E-3  -2.288994810509462E-3  
 2.025000000000000E10   -2.817214647721914E-3  -1.840313724069684E-3  
 2.025200000000000E10   -3.097158951546860E-3  -1.295858399114675E-3  
 2.025400000000000E10   -3.220232350199863E-3  -6.951678919398951E-4  
 2.025600000000000E10   -3.180261968669516E-3  -1.492577056759965E-4  
 2.025800000000000E10   -3.032723493460152E-3   3.237080123249649E-4  
 2.026000000000000E10   -2.849056808002018E-3   7.351100082612701E-4  
 2.026200000000000E10   -2.659096770609419E-3   1.049607185888346E-3  
 2.026400000000000E10   -2.544106320581503E-3   1.357202581992304E-3  
 2.026600000000000E10   -2.418375970726764E-3   1.776414496513705E-3  
 2.026800000000000E10   -2.165430303042134E-3   2.238809674357375E-3  
 2.027000000000000E10   -1.775310685237249E-3   2.663072336603094E-3  
 2.027200000000000E10   -1.250830647121701E-3   3.004057686430989E-3  
 2.027400000000000E10   -6.522683715620252E-4   3.242150449228508E-3  
 2.027600000000000E10    4.920777967156560E-6   3.275540717704981E-3  
 2.027800000000000E10    5.791223256555560E-4   3.101262608887973E-3  
 2.028000000000000E10    1.043942897080410E-3   2.874361290768893E-3  
 2.028200000000000E10    1.458949163659579E-3   2.639719509278183E-3  
 2.028400000000000E10    1.840095514328116E-3   2.363514517330461E-3  
 2.028600000000000E10    2.222096219796826E-3   2.051294824384429E-3  
 2.028800000000000E10    2.565614818767817E-3   1.605283438779966E-3  
 2.029000000000000E10    2.760776741154217E-3   1.111034532422545E-3  
 2.029200000000000E10    2.907025567428382E-3   6.576978161724078E-4  
 2.029400000000000E10    3.050278475577081E-3   1.494345989259374E-4  
 2.029600000000000E10    3.012824829460847E-3  -4.356255112388345E-4  
 2.029800000000000E10    2.791175360067023E-3  -9.551070139019028E-4  
 2.030000000000000E10    2.506795666973900E-3  -1.375702843587432E-3  
 2.030200000000000E10    2.181687004243334E-3  -1.696608197461400E-3  
 2.030400000000000E10    1.881308146510964E-3  -1.935034865271990E-3  
 2.030600000000000E10    1.643326780241397E-3  -2.193531564747294E-3  
 2.030800000000000E10    1.338205347699976E-3  -2.523066579467721E-3  
 2.031000000000000E10    8.713060696781787E-4  -2.867389332365107E-3  
 2.031200000000000E10    2.626166441822770E-4  -3.132248978578935E-3  
 2.031400000000000E10   -5.077708693635133E-4  -3.246609380261766E-3  
 2.031600000000000E10   -1.363263913878688E-3  -2.987739699030365E-3  
 2.031800000000000E10   -1.964105599283897E-3  -2.309588085929001E-3  
 2.032000000000000E10   -2.088514148016219E-3  -1.617759828352266E-3  
 2.032200000000000E10   -2.008884097449482E-3  -1.160452060435933E-3  
 2.032400000000000E10   -1.940793875190947E-3  -9.211092040425651E-4  
 2.032600000000000E10   -1.956076068044813E-3  -7.502048457455304E-4  
 2.032800000000000E10   -2.024726174702799E-3  -5.785367964697933E-4  
 2.033000000000000E10   -2.146983760650511E-3  -3.536663253153502E-4  
 2.033200000000000E10   -2.332669087789125E-3  -7.921671176855281E-5  
 2.033400000000000E10   -2.471097098249529E-3   3.286199999921438E-4  
 2.033600000000000E10   -2.493137252275591E-3   5.248835379326786E-4  
 2.033800000000000E10   -2.308957916856916E-3   1.188113841366161E-3  
 2.034000000000000E10   -2.114225420410986E-3   1.575238295589333E-3  
 2.034200000000000E10   -1.855140629534920E-3   1.943330392586412E-3  
 2.034400000000000E10   -1.532593168559726E-3   2.294580478014218E-3  
 2.034600000000000E10   -1.126709924493399E-3   2.591302911578506E-3  
 2.034800000000000E10   -6.215001577166496E-4   2.833282712984968E-3  
 2.035000000000000E10    5.165415064699051E-6   2.988193011670201E-3  
 2.035200000000000E10    6.708724109490438E-4   2.980857733982029E-3  
 2.035400000000000E10    1.319155467812110E-3   2.744837017315958E-3  
 2.035600000000000E10    1.811266195511928E-3   2.284458907390083E-3  
 2.035800000000000E10    2.058130507874820E-3   1.790354688030978E-3  
 2.036000000000000E10    2.132058971458011E-3   1.420540170295647E-3  
 2.036200000000000E10    2.265115708319678E-3   1.110997801232669E-3  
 2.036400000000000E10    2.361540501523349E-3   7.862797658028152E-4  
 2.036600000000000E10    2.409275379721766E-3   5.264411587699283E-4  
 2.036800000000000E10    2.558430285986375E-3   2.452467533994760E-4  
 2.037000000000000E10    2.761320676654577E-3  -1.795892301877892E-4  
 2.037200000000000E10    2.872404133625053E-3  -6.989181102081030E-4  
 2.037400000000000E10    2.828306846182656E-3  -1.294732412875251E-3  
 2.037600000000000E10    2.584882390995821E-3  -1.896575145009492E-3  
 2.037800000000000E10    2.222667077418279E-3  -2.363888736538314E-3  
 2.038000000000000E10    1.802382348277779E-3  -2.719024618811630E-3  
 2.038200000000000E10    1.351110020617920E-3  -3.018631686077074E-3  
 2.038400000000000E10    8.994673348583835E-4  -3.288618030233516E-3  
 2.038600000000000E10    3.059619166715830E-4  -3.549372639369082E-3  
 2.038800000000000E10   -4.926035137571119E-4  -3.686969194354283E-3  
 2.039000000000000E10   -1.341599445031197E-3  -3.564349548132332E-3  
 2.039200000000000E10   -2.088040070332311E-3  -3.183317991594474E-3  
 2.039400000000000E10   -2.636582237081948E-3  -2.625157918643069E-3  
 2.039600000000000E10   -2.998055743605451E-3  -2.063215059159255E-3  
 2.039800000000000E10   -3.246934135892878E-3  -1.500464997392286E-3  
 2.040000000000000E10   -3.375631817444056E-3  -8.931585816080096E-4  
 2.040200000000000E10   -3.353743443127584E-3  -3.950683566034530E-4  
 2.040400000000000E10   -3.360445783646019E-3  -1.260726311455881E-5  
 2.040600000000000E10   -3.414458431372489E-3   4.366627890030268E-4  
 2.040800000000000E10   -3.494446545287415E-3   9.843927152730801E-4  
 2.041000000000000E10   -3.515971721046501E-3   1.707316975592188E-3  
 2.041200000000000E10   -3.272067764084096E-3   2.531815596200802E-3  
 2.041400000000000E10   -2.748334504387997E-3   3.303109788922249E-3  
 2.041600000000000E10   -1.976737015259763E-3   3.922068255229129E-3  
 2.041800000000000E10   -1.032770231918053E-3   4.248991384412404E-3  
 2.042000000000000E10   -9.518936039293536E-5   4.267505990962188E-3  
 2.042200000000000E10    7.269587648032165E-4   4.057774371984933E-3  
 2.042400000000000E10    1.390663613737734E-3   3.676604462304602E-3  
 2.042600000000000E10    1.924441989373278E-3   3.223691972110559E-3  
 2.042800000000000E10    2.347702626138926E-3   2.762954664865026E-3  
 2.043000000000000E10    2.686318208428997E-3   2.334045660164622E-3  
 2.043200000000000E10    2.969482111641103E-3   1.868009403416956E-3  
 2.043400000000000E10    3.194259358914914E-3   1.345249914771153E-3  
 2.043600000000000E10    3.263710014935997E-3   8.722871490236786E-4  
 2.043800000000000E10    3.350493222199105E-3   4.588948526092012E-4  
 2.044000000000000E10    3.480433684739250E-3  -1.624099941518916E-5  
 2.044200000000000E10    3.527428463308348E-3  -5.654306064739273E-4  
 2.044400000000000E10    3.447884883455657E-3  -1.145924889930973E-3  
 2.044600000000000E10    3.257699164182500E-3  -1.795794944175416E-3  
 2.044800000000000E10    2.880908238391082E-3  -2.421871793490869E-3  
 2.045000000000000E10    2.412313698894448E-3  -2.937399842603891E-3  
 2.045200000000000E10    1.835826116062149E-3  -3.402058940587773E-3  
 2.045400000000000E10    1.053160403561951E-3  -3.747708017558412E-3  
 2.045600000000000E10    1.973876481281844E-4  -3.732983186772025E-3  
 2.045800000000000E10   -4.837827054197315E-4  -3.475730540230870E-3  
 2.046000000000000E10   -9.575733005207172E-4  -3.152106957579101E-3  
 2.046200000000000E10   -1.237056744112461E-3  -2.847894767506256E-3  
 2.046400000000000E10   -1.504029906182378E-3  -2.633343519711937E-3  
 2.046600000000000E10   -1.827811447179152E-3  -2.421003740487827E-3  
 2.046800000000000E10   -2.152915069557451E-3  -2.192217692801798E-3  
 2.047000000000000E10   -2.495300783603280E-3  -1.911197228495170E-3  
 2.047200000000000E10   -2.846741298627523E-3  -1.494276583091253E-3  
 2.047400000000000E10   -3.076602523732517E-3  -9.587617306452659E-4  
 2.047600000000000E10   -3.109222390102568E-3  -4.297493831944411E-4  
 2.047800000000000E10   -3.077963522324960E-3   1.267545923366453E-5  
 2.048000000000000E10   -3.097014941482081E-3   3.565159886083738E-4  
 2.048200000000000E10   -3.172986252509334E-3   7.749516128872833E-4  
 2.048400000000000E10   -3.142029357453188E-3   1.384383960006138E-3  
 2.048600000000000E10   -2.901403845667287E-3   2.043136029021332E-3  
 2.048800000000000E10   -2.460958625845336E-3   2.652464891542440E-3  
 2.049000000000000E10   -1.837576118608316E-3   3.088904734424971E-3  
 2.049200000000000E10   -1.146229449659586E-3   3.327823002581244E-3  
 2.049400000000000E10   -4.468575589945196E-4   3.386467229574919E-3  
 2.049600000000000E10    2.239445204597562E-4   3.209763913656827E-3  
 2.049800000000000E10    7.289798124003467E-4   2.907653822115174E-3  
 2.050000000000000E10    1.020760428488117E-3   2.573844028153906E-3  
 2.050200000000000E10    1.117776633085062E-3   2.327732853936377E-3  
 2.050400000000000E10    1.271676664516606E-3   2.322664656848820E-3  
 2.050600000000000E10    1.678334488705905E-3   2.310060085383831E-3  
 2.050800000000000E10    2.169493499591395E-3   2.091911957702703E-3  
 2.051000000000000E10    2.573082025197369E-3   1.742492231574876E-3  
 2.051200000000000E10    2.959136514820987E-3   1.307501086827230E-3  
 2.051400000000000E10    3.270156164136198E-3   7.041088171751687E-4  
 2.051600000000000E10    3.361751920440131E-3  -1.606040502708684E-5  
 2.051800000000000E10    3.227766284167215E-3  -6.643986476033376E-4  
 2.052000000000000E10    3.041410447891664E-3  -1.183037859542916E-3  
 2.052200000000000E10    2.817233170693120E-3  -1.693720567143626E-3  
 2.052400000000000E10    2.485756848559336E-3  -2.260121275429373E-3  
 2.052600000000000E10    1.899168714536009E-3  -2.782463070212139E-3  
 2.052800000000000E10    1.112758074197228E-3  -3.018109610787145E-3  
 2.053000000000000E10    3.930572107761961E-4  -2.910489871822022E-3  
 2.053200000000000E10   -1.369455955379333E-4  -2.667556939370655E-3  
 2.053400000000000E10   -5.081444159495059E-4  -2.326828927767498E-3  
 2.053600000000000E10   -7.236381330855055E-4  -1.988108968362212E-3  
 2.053800000000000E10   -7.912518792889186E-4  -1.749400842796873E-3  
 2.054000000000000E10   -7.679516587544371E-4  -1.629628210880414E-3  
 2.054200000000000E10   -7.729492477934672E-4  -1.678554987948802E-3  
 2.054400000000000E10   -9.540756646957664E-4  -1.851422798440413E-3  
 2.054600000000000E10   -1.406690472288540E-3  -2.004916081205010E-3  
 2.054800000000000E10   -2.084003554450141E-3  -1.897289314203793E-3  
 2.055000000000000E10   -2.714291051099146E-3  -1.349059308672117E-3  
 2.055200000000000E10   -3.019804936937160E-3  -5.713712544766842E-4  
 2.055400000000000E10   -2.971520207615363E-3   2.216305916523131E-4  
 2.055600000000000E10   -2.674653031000937E-3   8.919570526039160E-4  
