#  HZ   S   RI   R     50.00 
! Rohde & Schwarz ZVA40 4Ports - Version 3.90 - 1145.1110k42 SN: 100403
! Date: 2023-10-03 12:31:34
! Measurement: S12 
! 
 2.000000000000000E10    2.954309383683183E-3  -2.743548398871941E-4  
 2.000200000000000E10    2.972255443671236E-3  -7.921946601493770E-4  
 2.000400000000000E10    2.853205703474858E-3  -1.365310973832729E-3  
 2.000600000000000E10    2.557773367260342E-3  -1.895952749893897E-3  
 2.000800000000000E10    2.173143533851814E-3  -2.326960123523518E-3  
 2.001000000000000E10    1.719167675926454E-3  -2.692657833298048E-3  
 2.001200000000000E10    1.227139409079596E-3  -2.992236676315467E-3  
 2.001400000000000E10    6.374669308705187E-4  -3.236069447464414E-3  
 2.001600000000000E10   -1.193038947854398E-4  -3.293180786487130E-3  
 2.001800000000000E10   -8.563416453802753E-4  -3.006022397635712E-3  
 2.002000000000000E10   -1.301541605412408E-3  -2.536839857283566E-3  
 2.002200000000000E10   -1.512643424104210E-3  -2.089116019541743E-3  
 2.002400000000000E10   -1.584654122039124E-3  -1.783368100101749E-3  
 2.002600000000000E10   -1.634531637170801E-3  -1.591014003174173E-3  
 2.002800000000000E10   -1.749636721797288E-3  -1.491568620420165E-3  
 2.003000000000000E10   -1.961162253455432E-3  -1.379823329410067E-3  
 2.003200000000000E10   -2.227094688418287E-3  -1.246782450902241E-3  
 2.003400000000000E10   -2.593040328334879E-3  -1.043882975527258E-3  
 2.003600000000000E10   -3.033528182034692E-3  -5.883785499328817E-4  
 2.003800000000000E10   -3.308613284456510E-3   1.720619636924110E-4  
 2.004000000000000E10   -3.202399885695842E-3   1.012920100172913E-3  
 2.004200000000000E10   -2.815753695796485E-3   1.691419225944965E-3  
 2.004400000000000E10   -2.280017999173315E-3   2.138000999197916E-3  
 2.004600000000000E10   -1.765445650865634E-3   2.339781098136748E-3  
 2.004800000000000E10   -1.406416555659639E-3   2.457259110761462E-3  
 2.005000000000000E10   -1.100622772894524E-3   2.669419662130100E-3  
 2.005200000000000E10   -6.910274171753339E-4   2.891447602046861E-3  
 2.005400000000000E10   -1.961402729783138E-4   3.072411986067892E-3  
 2.005600000000000E10    4.423461074044032E-4   3.112244299026552E-3  
 2.005800000000000E10    1.043373447222014E-3   2.945324819948939E-3  
 2.006000000000000E10    1.551659372462719E-3   2.707490602646161E-3  
 2.006200000000000E10    2.022337461649268E-3   2.376933823581095E-3  
 2.006400000000000E10    2.374226270519473E-3   1.931411576353842E-3  
 2.006600000000000E10    2.588829068742969E-3   1.484902454885068E-3  
 2.006800000000000E10    2.751581112129821E-3   1.112606898122640E-3  
 2.007000000000000E10    3.009370019383453E-3   7.708495918281929E-4  
 2.007200000000000E10    3.333588234252401E-3   2.284353777886955E-4  
 2.007400000000000E10    3.434187275598999E-3  -5.785749203318524E-4  
 2.007600000000000E10    3.158437191612191E-3  -1.386402205012187E-3  
 2.007800000000000E10    2.651852279625558E-3  -1.977186149883050E-3  
 2.008000000000000E10    2.104042141042926E-3  -2.313563798519749E-3  
 2.008200000000000E10    1.614667229457862E-3  -2.505877667486116E-3  
 2.008400000000000E10    1.156149483803246E-3  -2.638715621152962E-3  
 2.008600000000000E10    6.965703818153728E-4  -2.714877810191225E-3  
 2.008800000000000E10    2.501234784075577E-4  -2.729696152662790E-3  
 2.009000000000000E10   -1.557703308881847E-4  -2.695078952927833E-3  
 2.009200000000000E10   -5.301476188900847E-4  -2.634204518808811E-3  
 2.009400000000000E10   -9.505161110104787E-4  -2.566027929316516E-3  
 2.009600000000000E10   -1.418563084573382E-3  -2.379241347726849E-3  
 2.009800000000000E10   -1.838206917185475E-3  -2.089127574840354E-3  
 2.010000000000000E10   -2.163792477437744E-3  -1.685227733105421E-3  
 2.010200000000000E10   -2.322979909540327E-3  -1.268741053839525E-3  
 2.010400000000000E10   -2.445147277925302E-3  -9.459210559725761E-4  
 2.010600000000000E10   -2.639343660255825E-3  -5.818836130115585E-4  
 2.010800000000000E10   -2.818116297324499E-3  -1.072565850066625E-4  
 2.011000000000000E10   -2.842122602655932E-3   4.587689138672971E-4  
 2.011200000000000E10   -2.685874312495192E-3   9.849349541279178E-4  
 2.011400000000000E10   -2.470189429543637E-3   1.448379454409911E-3  
 2.011600000000000E10   -2.176586253982452E-3   1.905164030311561E-3  
 2.011800000000000E10   -1.796042615616763E-3   2.332780329096649E-3  
 2.012000000000000E10   -1.269246749062505E-3   2.667641405154158E-3  
 2.012200000000000E10   -6.398566377659639E-4   2.792996138817182E-3  
 2.012400000000000E10   -8.330851859581245E-5   2.728180873587176E-3  
 2.012600000000000E10    3.941331207089308E-4   2.579214448040283E-3  
 2.012800000000000E10    7.788585153994738E-4   2.352433667207758E-3  
 2.013000000000000E10    1.039441912090061E-3   2.085024577186064E-3  
 2.013200000000000E10    1.185382375735100E-3   1.845287051293309E-3  
 2.013400000000000E10    1.312280599786728E-3   1.702406189266455E-3  
 2.013600000000000E10    1.488036506257400E-3   1.623215916980472E-3  
 2.013800000000000E10    1.754568316283877E-3   1.536848993661503E-3  
 2.014000000000000E10    2.029974949201225E-3   1.349216546966798E-3  
 2.014200000000000E10    2.285918988356436E-3   1.127741002063785E-3  
 2.014400000000000E10    2.586124697700143E-3   8.467911910783087E-4  
 2.014600000000000E10    2.906175977033046E-3   4.179586336518966E-4  
 2.014800000000000E10    3.132771295322865E-3  -1.548470760157957E-4  
 2.015000000000000E10    3.201543896769485E-3  -7.953963790054400E-4  
 2.015200000000000E10    3.099781452436690E-3  -1.529924765539666E-3  
 2.015400000000000E10    2.724974916351063E-3  -2.257234296175065E-3  
 2.015600000000000E10    2.121537527138436E-3  -2.810747250569640E-3  
 2.015800000000000E10    1.418651586088042E-3  -3.105167868650622E-3  
 2.016000000000000E10    7.284034444536601E-4  -3.135208463020347E-3  
 2.016200000000000E10    2.299963913780327E-4  -2.960273228516734E-3  
 2.016400000000000E10   -2.676499362105798E-5  -2.838469498480360E-3  
 2.016600000000000E10   -2.490893120584251E-4  -2.942749919990699E-3  
 2.016800000000000E10   -6.641401171994707E-4  -3.146628185209853E-3  
 2.017000000000000E10   -1.307505191545244E-3  -3.230406687146537E-3  
 2.017200000000000E10   -2.061523514351359E-3  -3.033896520112952E-3  
 2.017400000000000E10   -2.727170276490075E-3  -2.596358553058020E-3  
 2.017600000000000E10   -3.264186852094200E-3  -2.006860303313092E-3  
 2.017800000000000E10   -3.624645415348588E-3  -1.299257282409127E-3  
 2.018000000000000E10   -3.784667881619600E-3  -5.265210207586212E-4  
 2.018200000000000E10   -3.705674877252293E-3   2.507069956563000E-4  
 2.018400000000000E10   -3.452893251691152E-3   8.488792098230787E-4  
 2.018600000000000E10   -3.229265894602847E-3   1.277534894783188E-3  
 2.018800000000000E10   -3.084050258621574E-3   1.718783906350534E-3  
 2.019000000000000E10   -2.856636325035382E-3   2.283176993606268E-3  
 2.019200000000000E10   -2.424447857602327E-3   2.851797509248610E-3  
 2.019400000000000E10   -1.819283498830542E-3   3.301442514553114E-3  
 2.019600000000000E10   -1.143537233238695E-3   3.560727341445508E-3  
 2.019800000000000E10   -4.366469090907939E-4   3.653174335205997E-3  
 2.020000000000000E10    2.228567372421148E-4   3.527013076193355E-3  
 2.020200000000000E10    7.171686436911977E-4   3.322910629557791E-3  
 2.020400000000000E10    1.152398948626662E-3   3.211348800471536E-3  
 2.020600000000000E10    1.676282177127346E-3   3.058798136879449E-3  
 2.020800000000000E10    2.181448439067161E-3   2.719477414050036E-3  
 2.021000000000000E10    2.567676775571373E-3   2.314521387840311E-3  
 2.021200000000000E10    2.952406415715814E-3   1.870285732568139E-3  
 2.021400000000000E10    3.274671207354577E-3   1.299016147472517E-3  
 2.021600000000000E10    3.410458418161230E-3   6.315141627392560E-4  
 2.021800000000000E10    3.317236676122304E-3   5.426348757787832E-6  
 2.022000000000000E10    3.126677893171156E-3  -4.559508352367967E-4  
 2.022200000000000E10    2.978065042515044E-3  -8.600369673567238E-4  
 2.022400000000000E10    2.817224831906734E-3  -1.263875272814874E-3  
 2.022600000000000E10    2.560406742203567E-3  -1.606710272392741E-3  
 2.022800000000000E10    2.338994639339271E-3  -1.840958815861356E-3  
 2.023000000000000E10    2.209870351685418E-3  -2.164554773588424E-3  
 2.023200000000000E10    1.931594408772610E-3  -2.662417763430212E-3  
 2.023400000000000E10    1.419040615911837E-3  -3.076767695515796E-3  
 2.023600000000000E10    8.162605550347104E-4  -3.288907412853506E-3  
 2.023800000000000E10    2.018690262317520E-4  -3.334826384498566E-3  
 2.024000000000000E10   -3.555353404307325E-4  -3.272932859275629E-3  
 2.024200000000000E10   -8.993468471561318E-4  -3.161479477529173E-3  
 2.024400000000000E10   -1.423462647599755E-3  -2.964484134551000E-3  
 2.024600000000000E10   -1.852849032729864E-3  -2.662864737902527E-3  
 2.024800000000000E10   -2.212177746480814E-3  -2.309726326967831E-3  
 2.025000000000000E10   -2.557885522643725E-3  -1.926463528501767E-3  
 2.025200000000000E10   -2.881548350193987E-3  -1.468121595853181E-3  
 2.025400000000000E10   -3.075509392483920E-3  -9.149146994955287E-4  
 2.025600000000000E10   -3.105436253395898E-3  -3.533866655305719E-4  
 2.025800000000000E10   -2.983815373025007E-3   1.496820429262395E-4  
 2.026000000000000E10   -2.808747864845727E-3   5.586342023754563E-4  
 2.026200000000000E10   -2.670271718805587E-3   8.628768328991202E-4  
 2.026400000000000E10   -2.643936468909184E-3   1.131573174562719E-3  
 2.026600000000000E10   -2.611658872208662E-3   1.560141216032207E-3  
 2.026800000000000E10   -2.412323253574195E-3   2.051889292757821E-3  
 2.027000000000000E10   -2.102517936792639E-3   2.563046791625244E-3  
 2.027200000000000E10   -1.609853110966032E-3   3.062784025031660E-3  
 2.027400000000000E10   -9.236634510603769E-4   3.413513656360684E-3  
 2.027600000000000E10   -1.390620863175071E-4   3.467149161561220E-3  
 2.027800000000000E10    5.198724684305489E-4   3.264266868225403E-3  
 2.028000000000000E10    1.014535254971297E-3   3.013764697782420E-3  
 2.028200000000000E10    1.452622676475181E-3   2.806860712115412E-3  
 2.028400000000000E10    1.871718969023615E-3   2.558559601850532E-3  
 2.028600000000000E10    2.274261968624261E-3   2.236624231079111E-3  
 2.028800000000000E10    2.672106674354938E-3   1.771508849708847E-3  
 2.029000000000000E10    2.937113952443556E-3   1.212908726840936E-3  
 2.029200000000000E10    3.077529146577474E-3   6.427998219064818E-4  
 2.029400000000000E10    3.094969377680510E-3   8.499395380567876E-5  
 2.029600000000000E10    2.967613766452781E-3  -4.461118002870569E-4  
 2.029800000000000E10    2.763349131715519E-3  -9.010434409396517E-4  
 2.030000000000000E10    2.535004323969285E-3  -1.298730507389539E-3  
 2.030200000000000E10    2.315919156427737E-3  -1.605729800993922E-3  
 2.030400000000000E10    2.130987450342488E-3  -1.906341855862627E-3  
 2.030600000000000E10    1.925359876757419E-3  -2.279100629190604E-3  
 2.030800000000000E10    1.572846754074649E-3  -2.751900917953915E-3  
 2.031000000000000E10    9.816297894792150E-4  -3.180537045139958E-3  
 2.031200000000000E10    2.490229363266500E-4  -3.419210427199250E-3  
 2.031400000000000E10   -5.828032045866606E-4  -3.430997245703583E-3  
 2.031600000000000E10   -1.444934289557514E-3  -3.101540936364069E-3  
 2.031800000000000E10   -2.045838084692757E-3  -2.395699559538453E-3  
 2.032000000000000E10   -2.188002104284587E-3  -1.687215529037295E-3  
 2.032200000000000E10   -2.103276248952305E-3  -1.237980491067800E-3  
 2.032400000000000E10   -2.041323412278736E-3  -9.871184808650504E-4  
 2.032600000000000E10   -2.041039660710980E-3  -7.824327675970618E-4  
 2.032800000000000E10   -2.109875333391958E-3  -5.963551607069182E-4  
 2.033000000000000E10   -2.249518142047304E-3  -3.868176974248384E-4  
 2.033200000000000E10   -2.441285376402516E-3  -1.131321900579173E-4  
 2.033400000000000E10   -2.563209566115230E-3   3.293058123543031E-4  
 2.033600000000000E10   -2.567728093169906E-3   5.718506506161282E-4  
 2.033800000000000E10   -2.357202771775149E-3   1.284892377616079E-3  
 2.034000000000000E10   -2.159263710146425E-3   1.729938313709917E-3  
 2.034200000000000E10   -1.851812285302138E-3   2.141890426476797E-3  
 2.034400000000000E10   -1.444120951755731E-3   2.466303986255770E-3  
 2.034600000000000E10   -9.851031548654041E-4   2.730789749572675E-3  
 2.034800000000000E10   -4.449760966020188E-4   2.956403074441134E-3  
 2.035000000000000E10    2.004048668216759E-4   3.048668848350645E-3  
 2.035200000000000E10    8.479966544891122E-4   2.937092721738198E-3  
 2.035400000000000E10    1.438580280928700E-3   2.633639214629377E-3  
 2.035600000000000E10    1.879264518653077E-3   2.139975454796244E-3  
 2.035800000000000E10    2.076366442014222E-3   1.642202557478514E-3  
 2.036000000000000E10    2.135740084297680E-3   1.309107583775013E-3  
 2.036200000000000E10    2.240478707891372E-3   1.029333347644381E-3  
 2.036400000000000E10    2.294521166563586E-3   7.355838013743915E-4  
 2.036600000000000E10    2.393850910097913E-3   5.072887881262298E-4  
 2.036800000000000E10    2.585109719937599E-3   2.221653520353829E-4  
 2.037000000000000E10    2.777119399979711E-3  -2.069691988624443E-4  
 2.037200000000000E10    2.857067915438502E-3  -7.310140278638791E-4  
 2.037400000000000E10    2.768621159096560E-3  -1.334090492929574E-3  
 2.037600000000000E10    2.483898161531047E-3  -1.909865044850718E-3  
 2.037800000000000E10    2.108621609362740E-3  -2.372156690668177E-3  
 2.038000000000000E10    1.690340995857561E-3  -2.731140176938088E-3  
 2.038200000000000E10    1.218887653926181E-3  -3.013296199410602E-3  
 2.038400000000000E10    7.176290468864695E-4  -3.275339448548578E-3  
 2.038600000000000E10    8.680586998471648E-5  -3.521448785991029E-3  
 2.038800000000000E10   -7.014831234873446E-4  -3.591426277395201E-3  
 2.039000000000000E10   -1.483686488225229E-3  -3.394048393669504E-3  
 2.039200000000000E10   -2.165732336127096E-3  -2.965474182187960E-3  
 2.039400000000000E10   -2.667810992096310E-3  -2.354580684806462E-3  
 2.039600000000000E10   -2.954843911100869E-3  -1.771973571050223E-3  
 2.039800000000000E10   -3.144436972905641E-3  -1.221239415894228E-3  
 2.040000000000000E10   -3.195763712196991E-3  -6.607181297753145E-4  
 2.040200000000000E10   -3.109340349005329E-3  -2.135621119426409E-4  
 2.040400000000000E10   -3.127204737177602E-3   1.273180636484607E-4  
 2.040600000000000E10   -3.216349631892863E-3   5.454702057047852E-4  
 2.040800000000000E10   -3.277186657888470E-3   1.084010935974894E-3  
 2.041000000000000E10   -3.207241693787553E-3   1.725471962277812E-3  
 2.041200000000000E10   -2.920735282478510E-3   2.394295909821436E-3  
 2.041400000000000E10   -2.469016161436836E-3   3.032750812255675E-3  
 2.041600000000000E10   -1.835754524950904E-3   3.620455489942322E-3  
 2.041800000000000E10   -1.006573887058982E-3   3.979784565874273E-3  
 2.042000000000000E10   -1.639469739058297E-4   4.044564044172014E-3  
 2.042200000000000E10    6.468206044734905E-4   3.911109365246915E-3  
 2.042400000000000E10    1.364731031504494E-3   3.602147688744245E-3  
 2.042600000000000E10    1.937324957301219E-3   3.190365895904877E-3  
 2.042800000000000E10    2.391850110143423E-3   2.736531784413038E-3  
 2.043000000000000E10    2.713782462739834E-3   2.236029581615219E-3  
 2.043200000000000E10    2.940053629033544E-3   1.734198967891711E-3  
 2.043400000000000E10    3.106154096140354E-3   1.228394146353282E-3  
 2.043600000000000E10    3.194348446817863E-3   8.049044538185830E-4  
 2.043800000000000E10    3.324067358065536E-3   4.151520573672046E-4  
 2.044000000000000E10    3.451212973299402E-3  -7.211238941332947E-5  
 2.044200000000000E10    3.490192755297931E-3  -6.583558753374276E-4  
 2.044400000000000E10    3.405602726464471E-3  -1.277484918116696E-3  
 2.044600000000000E10    3.233333023402979E-3  -1.924217523386081E-3  
 2.044800000000000E10    2.881761640310288E-3  -2.561915269190515E-3  
 2.045000000000000E10    2.351794460857357E-3  -3.113587369659433E-3  
 2.045200000000000E10    1.641092813332324E-3  -3.581699096011344E-3  
 2.045400000000000E10    7.371946811434572E-4  -3.819702089660699E-3  
 2.045600000000000E10   -9.224686342619224E-5  -3.660592302266095E-3  
 2.045800000000000E10   -6.607877763195171E-4  -3.337555961614406E-3  
 2.046000000000000E10   -1.072934914932207E-3  -2.985759595133089E-3  
 2.046200000000000E10   -1.361544162069482E-3  -2.676561017762180E-3  
 2.046400000000000E10   -1.616436259441630E-3  -2.459705238127046E-3  
 2.046600000000000E10   -1.900443876231158E-3  -2.268486906325928E-3  
 2.046800000000000E10   -2.195608362348544E-3  -2.057667571568379E-3  
 2.047000000000000E10   -2.531247429066786E-3  -1.731763675774413E-3  
 2.047200000000000E10   -2.811621279559202E-3  -1.271466521925673E-3  
 2.047400000000000E10   -2.976353866634546E-3  -7.749569227194622E-4  
 2.047600000000000E10   -3.020153984565426E-3  -3.277857796530481E-4  
 2.047800000000000E10   -3.003001920189019E-3   4.940235952812214E-5  
 2.048000000000000E10   -3.023404119260334E-3   4.041545239656612E-4  
 2.048200000000000E10   -3.092596134929746E-3   8.678315228920568E-4  
 2.048400000000000E10   -3.051096133680807E-3   1.506049957781754E-3  
 2.048600000000000E10   -2.795937634935534E-3   2.174239066705384E-3  
 2.048800000000000E10   -2.299002656299207E-3   2.740363676652864E-3  
 2.049000000000000E10   -1.634540092372508E-3   3.109369461459142E-3  
 2.049200000000000E10   -9.454508846694675E-4   3.289741188011788E-3  
 2.049400000000000E10   -2.972345057598971E-4   3.299569271297919E-3  
 2.049600000000000E10    2.750527106669594E-4   3.136461298843777E-3  
 2.049800000000000E10    6.969394140738858E-4   2.882225732146590E-3  
 2.050000000000000E10    1.017006866513165E-3   2.608549867377237E-3  
 2.050200000000000E10    1.210146092085375E-3   2.400669985002390E-3  
 2.050400000000000E10    1.466663653479406E-3   2.384347444469179E-3  
 2.050600000000000E10    1.922293691206034E-3   2.302649491294115E-3  
 2.050800000000000E10    2.379602407691656E-3   1.973270680065508E-3  
 2.051000000000000E10    2.717246603289689E-3   1.503619486121116E-3  
 2.051200000000000E10    2.982810950251642E-3   1.005462168164000E-3  
 2.051400000000000E10    3.180684349327176E-3   4.337416434686425E-4  
 2.051600000000000E10    3.187177582057538E-3  -1.825981675614862E-4  
 2.051800000000000E10    3.005231144251647E-3  -7.154996748323795E-4  
 2.052000000000000E10    2.801985790332159E-3  -1.137202092515374E-3  
 2.052200000000000E10    2.628038921910856E-3  -1.611625344526989E-3  
 2.052400000000000E10    2.366603843660818E-3  -2.165413013211003E-3  
 2.052600000000000E10    1.838622110274931E-3  -2.685019160034480E-3  
 2.052800000000000E10    1.073806404343082E-3  -2.930723915428476E-3  
 2.053000000000000E10    3.311030849107300E-4  -2.844800741446239E-3  
 2.053200000000000E10   -2.061760413670089E-4  -2.583148932360389E-3  
 2.053400000000000E10   -5.391282848668872E-4  -2.255532493883813E-3  
 2.053600000000000E10   -6.813613861730254E-4  -1.938643658326732E-3  
 2.053800000000000E10   -7.134565428175308E-4  -1.716401324503952E-3  
 2.054000000000000E10   -7.034377820134440E-4  -1.596249079469730E-3  
 2.054200000000000E10   -7.277688634564619E-4  -1.651484282100918E-3  
 2.054400000000000E10   -9.240188584145574E-4  -1.844780170358717E-3  
 2.054600000000000E10   -1.351622157488708E-3  -1.984605841614582E-3  
 2.054800000000000E10   -1.980914639447023E-3  -1.841636728150426E-3  
 2.055000000000000E10   -2.547678373823012E-3  -1.297796584872736E-3  
 2.055200000000000E10   -2.801527622742234E-3  -5.848625355779573E-4  
 2.055400000000000E10   -2.781847810924605E-3   6.011121742496336E-5  
 2.055600000000000E10   -2.594236793272474E-3   6.039516517409572E-4  
