#  HZ   S   RI   R     50.00 
! Rohde & Schwarz ZVA40 4Ports - Version 3.90 - 1145.1110k42 SN: 100403
! Date: 2023-10-03 12:31:03
! Measurement: S12 
! 
 2.000000000000000E10    2.527246638795231E-3  -1.620248706689723E-4  
 2.000200000000000E10    2.488234514735936E-3  -5.745694433455196E-4  
 2.000400000000000E10    2.368114047092277E-3  -1.038145547156543E-3  
 2.000600000000000E10    2.122316579110870E-3  -1.504901058643556E-3  
 2.000800000000000E10    1.781160986326911E-3  -1.916855836187494E-3  
 2.001000000000000E10    1.346212591393372E-3  -2.233070010620851E-3  
 2.001200000000000E10    8.979728593125645E-4  -2.450781773752821E-3  
 2.001400000000000E10    3.902579857188498E-4  -2.640420659119455E-3  
 2.001600000000000E10   -2.863935338193040E-4  -2.697470826920843E-3  
 2.001800000000000E10   -9.426168299922708E-4  -2.404330060363777E-3  
 2.002000000000000E10   -1.317924404368622E-3  -1.874444687027428E-3  
 2.002200000000000E10   -1.428587254537947E-3  -1.317610508578335E-3  
 2.002400000000000E10   -1.330957212229866E-3  -9.275683831354535E-4  
 2.002600000000000E10   -1.159035257384467E-3  -7.134907408163913E-4  
 2.002800000000000E10   -1.010835819254247E-3  -6.981690872405672E-4  
 2.003000000000000E10   -9.861143474532254E-4  -7.804830580795204E-4  
 2.003200000000000E10   -1.137202615506017E-3  -8.645038916033137E-4  
 2.003400000000000E10   -1.456981199373209E-3  -8.328387716405647E-4  
 2.003600000000000E10   -1.843547300641286E-3  -5.726566042291801E-4  
 2.003800000000000E10   -2.100601955221146E-3  -6.661766772580037E-5  
 2.004000000000000E10   -2.063581673524232E-3   5.026595430341339E-4  
 2.004200000000000E10   -1.828996721554206E-3   9.718724377632184E-4  
 2.004400000000000E10   -1.470621895148523E-3   1.285565944850976E-3  
 2.004600000000000E10   -1.164290946378119E-3   1.368253053145532E-3  
 2.004800000000000E10   -1.037775276408279E-3   1.391397319467092E-3  
 2.005000000000000E10   -9.544547707920664E-4   1.543693544039061E-3  
 2.005200000000000E10   -7.291888852957612E-4   1.778946782236176E-3  
 2.005400000000000E10   -3.659589521543619E-4   1.971028821028013E-3  
 2.005600000000000E10    8.954745027478092E-5   2.035539272938829E-3  
 2.005800000000000E10    4.913070571605010E-4   1.911485532397055E-3  
 2.006000000000000E10    7.905414662852793E-4   1.703273738122486E-3  
 2.006200000000000E10    1.008301378171559E-3   1.460943436850532E-3  
 2.006400000000000E10    1.127342502276742E-3   1.238997037323200E-3  
 2.006600000000000E10    1.222098893287946E-3   1.128297774469294E-3  
 2.006800000000000E10    1.369486394113464E-3   1.058545288890447E-3  
 2.007000000000000E10    1.652313102980813E-3   9.464887853913696E-4  
 2.007200000000000E10    2.041397403078652E-3   6.087940051801637E-4  
 2.007400000000000E10    2.280285765911327E-3  -6.329622842669768E-6  
 2.007600000000000E10    2.159426587957005E-3  -6.714526384069863E-4  
 2.007800000000000E10    1.762121330546816E-3  -1.139403100474259E-3  
 2.008000000000000E10    1.287180756311992E-3  -1.350939885453821E-3  
 2.008200000000000E10    8.922169565169502E-4  -1.402327617431067E-3  
 2.008400000000000E10    6.139479296164401E-4  -1.392798237815571E-3  
 2.008600000000000E10    4.156497967447345E-4  -1.339338605345798E-3  
 2.008800000000000E10    2.973135285681837E-4  -1.254510119607205E-3  
 2.009000000000000E10    2.489473711202926E-4  -1.223405558182839E-3  
 2.009200000000000E10    1.946067322272008E-4  -1.311643158988861E-3  
 2.009400000000000E10    1.214577853195790E-5  -1.477928101104290E-3  
 2.009600000000000E10   -3.045974399218821E-4  -1.518125696917702E-3  
 2.009800000000000E10   -5.926255988524346E-4  -1.401042720285054E-3  
 2.010000000000000E10   -8.254841222192722E-4  -1.175349489153352E-3  
 2.010200000000000E10   -9.486257887971736E-4  -9.618290330810968E-4  
 2.010400000000000E10   -1.060425018826538E-3  -8.846737890899060E-4  
 2.010600000000000E10   -1.262761822062326E-3  -8.263865690831664E-4  
 2.010800000000000E10   -1.513627872786987E-3  -6.462125668483589E-4  
 2.011000000000000E10   -1.672776599429977E-3  -3.052227809818894E-4  
 2.011200000000000E10   -1.697962631603042E-3   3.891189235356153E-5  
 2.011400000000000E10   -1.690453012628463E-3   3.549703777322498E-4  
 2.011600000000000E10   -1.609232242344349E-3   6.650778847754217E-4  
 2.011800000000000E10   -1.432607497506365E-3   9.674740596246411E-4  
 2.012000000000000E10   -1.133223367338829E-3   1.203820969467403E-3  
 2.012200000000000E10   -8.178470838803478E-4   1.300729943895445E-3  
 2.012400000000000E10   -6.187451610997045E-4   1.338042745836826E-3  
 2.012600000000000E10   -4.552458495585778E-4   1.366943138362827E-3  
 2.012800000000000E10   -2.618873555680152E-4   1.388269763239321E-3  
 2.013000000000000E10   -6.107541327511657E-5   1.372035730927825E-3  
 2.013200000000000E10    1.015970030745932E-4   1.375029859387295E-3  
 2.013400000000000E10    2.656712484526963E-4   1.426639749805235E-3  
 2.013600000000000E10    4.768239281168056E-4   1.475038351676336E-3  
 2.013800000000000E10    7.236390444066821E-4   1.426050371448261E-3  
 2.014000000000000E10    9.323568678996305E-4   1.325153289790763E-3  
 2.014200000000000E10    1.152598840600986E-3   1.275546668801298E-3  
 2.014400000000000E10    1.467694521055076E-3   1.213122809347946E-3  
 2.014600000000000E10    1.827339014001395E-3   1.012500809232190E-3  
 2.014800000000000E10    2.122972434289519E-3   6.411914788416507E-4  
 2.015000000000000E10    2.343656990896855E-3   1.843188529539041E-4  
 2.015200000000000E10    2.501476426712341E-3  -4.062581023607603E-4  
 2.015400000000000E10    2.428419273844901E-3  -1.106675971837252E-3  
 2.015600000000000E10    2.029189175960643E-3  -1.685321173568056E-3  
 2.015800000000000E10    1.457121704043297E-3  -1.986695519636995E-3  
 2.016000000000000E10    9.203209626055305E-4  -2.025378081342014E-3  
 2.016200000000000E10    6.119894993297287E-4  -1.915453745381823E-3  
 2.016400000000000E10    5.242960728431538E-4  -1.875033639007298E-3  
 2.016600000000000E10    4.196357090104070E-4  -2.058009799718040E-3  
 2.016800000000000E10    8.614526427445476E-5  -2.326582833122978E-3  
 2.017000000000000E10   -4.638697943967654E-4  -2.486995145721957E-3  
 2.017200000000000E10   -1.101965731902838E-3  -2.445339406961870E-3  
 2.017400000000000E10   -1.673566767229189E-3  -2.172209146791566E-3  
 2.017600000000000E10   -2.095951382850076E-3  -1.727221594658388E-3  
 2.017800000000000E10   -2.314555917998114E-3  -1.204163166317471E-3  
 2.018000000000000E10   -2.398442987682214E-3  -7.331453028054518E-4  
 2.018200000000000E10   -2.383796857166601E-3  -3.158273856045067E-4  
 2.018400000000000E10   -2.309994446624720E-3  -4.574202821321800E-5  
 2.018600000000000E10   -2.316035166451777E-3   1.863461870882011E-4  
 2.018800000000000E10   -2.389325558135110E-3   5.215981436876737E-4  
 2.019000000000000E10   -2.401560196520145E-3   9.979497477161830E-4  
 2.019200000000000E10   -2.248723398439270E-3   1.530669518588022E-3  
 2.019400000000000E10   -1.901121817903520E-3   1.972871399465412E-3  
 2.019600000000000E10   -1.447956893140826E-3   2.253358903250291E-3  
 2.019800000000000E10   -9.750092382298781E-4   2.406197628172419E-3  
 2.020000000000000E10   -5.418088238249407E-4   2.428833788084518E-3  
 2.020200000000000E10   -2.417460735843374E-4   2.380251097179878E-3  
 2.020400000000000E10   -4.220867498930394E-7   2.410756961592002E-3  
 2.020600000000000E10    3.423678268475998E-4   2.449236823302095E-3  
 2.020800000000000E10    7.493778594848746E-4   2.393646168283638E-3  
 2.021000000000000E10    1.183923026476572E-3   2.332026928737351E-3  
 2.021200000000000E10    1.710062067564807E-3   2.186695571135429E-3  
 2.021400000000000E10    2.229897007384480E-3   1.789683306178357E-3  
 2.021600000000000E10    2.533216305991791E-3   1.191242822044783E-3  
 2.021800000000000E10    2.560602104040923E-3   6.219388941681046E-4  
 2.022000000000000E10    2.458605793303465E-3   2.365692863026851E-4  
 2.022200000000000E10    2.385922987716700E-3  -2.322323086230147E-5  
 2.022400000000000E10    2.316337219019139E-3  -2.939965279924745E-4  
 2.022600000000000E10    2.216420936128649E-3  -5.453235598869332E-4  
 2.022800000000000E10    2.177675120501852E-3  -7.743548881486112E-4  
 2.023000000000000E10    2.243524888052576E-3  -1.145990815815939E-3  
 2.023200000000000E10    2.132860334610518E-3  -1.699215931011765E-3  
 2.023400000000000E10    1.736088985971984E-3  -2.155210500243229E-3  
 2.023600000000000E10    1.245375841457412E-3  -2.380490295693729E-3  
 2.023800000000000E10    8.094658195558523E-4  -2.463053018927820E-3  
 2.024000000000000E10    4.340489617333619E-4  -2.510119399147822E-3  
 2.024200000000000E10    5.097932370329425E-5  -2.548535839579131E-3  
 2.024400000000000E10   -3.522560652960233E-4  -2.533889826916067E-3  
 2.024600000000000E10   -7.666736175766056E-4  -2.426146101960287E-3  
 2.024800000000000E10   -1.188055837471984E-3  -2.275370649063375E-3  
 2.025000000000000E10   -1.607107566586544E-3  -2.068411799042968E-3  
 2.025200000000000E10   -1.978897093571672E-3  -1.725947843361212E-3  
 2.025400000000000E10   -2.199376702042928E-3  -1.254139206977753E-3  
 2.025600000000000E10   -2.256531910958032E-3  -8.121426875188193E-4  
 2.025800000000000E10   -2.211468655805121E-3  -4.796717702047019E-4  
 2.026000000000000E10   -2.194067170723394E-3  -2.532370422602043E-4  
 2.026200000000000E10   -2.229707062931729E-3  -6.622148341994634E-5  
 2.026400000000000E10   -2.335558676407436E-3   1.471080584311826E-4  
 2.026600000000000E10   -2.410210708324863E-3   5.263563219824518E-4  
 2.026800000000000E10   -2.383405111144989E-3   9.859841776371709E-4  
 2.027000000000000E10   -2.269675746299480E-3   1.463508148312273E-3  
 2.027200000000000E10   -2.010977390095776E-3   1.949247590806565E-3  
 2.027400000000000E10   -1.558961924670114E-3   2.380580658576003E-3  
 2.027600000000000E10   -9.934714684244987E-4   2.609619612400567E-3  
 2.027800000000000E10   -4.656663476214815E-4   2.614276867873446E-3  
 2.028000000000000E10   -7.191786845809516E-5   2.568015540005903E-3  
 2.028200000000000E10    3.123508572627296E-4   2.540123773181737E-3  
 2.028400000000000E10    7.201078688324684E-4   2.451585610211918E-3  
 2.028600000000000E10    1.170186505720674E-3   2.298749646361003E-3  
 2.028800000000000E10    1.631444265308378E-3   2.018972627999995E-3  
 2.029000000000000E10    1.963090736020372E-3   1.646291298807097E-3  
 2.029200000000000E10    2.174122023954477E-3   1.253665664421065E-3  
 2.029400000000000E10    2.304969230904379E-3   8.459322171129891E-4  
 2.029600000000000E10    2.315472374863116E-3   4.471417620109934E-4  
 2.029800000000000E10    2.250545752708723E-3   1.115586734191007E-4  
 2.030000000000000E10    2.175791213986437E-3  -1.726573421294061E-4  
 2.030200000000000E10    2.148137320553570E-3  -4.094658861117533E-4  
 2.030400000000000E10    2.172389274670018E-3  -6.955926742025272E-4  
 2.030600000000000E10    2.208960711105187E-3  -1.142020359959847E-3  
 2.030800000000000E10    2.105694009944164E-3  -1.726190414086792E-3  
 2.031000000000000E10    1.715016705578063E-3  -2.314780422950111E-3  
 2.031200000000000E10    1.074949753552481E-3  -2.717834114530143E-3  
 2.031400000000000E10    2.898876970462676E-4  -2.863002140956468E-3  
 2.031600000000000E10   -4.913494762528908E-4  -2.640961480949110E-3  
 2.031800000000000E10   -1.021441708916775E-3  -2.110561059879852E-3  
 2.032000000000000E10   -1.125818521036053E-3  -1.587285406776386E-3  
 2.032200000000000E10   -1.060735168247209E-3  -1.300762627856354E-3  
 2.032400000000000E10   -1.044246803110642E-3  -1.166673328290567E-3  
 2.032600000000000E10   -1.102995687798024E-3  -1.096331593784950E-3  
 2.032800000000000E10   -1.232838996721813E-3  -1.038465821835761E-3  
 2.033000000000000E10   -1.407127284932887E-3  -9.531125188990406E-4  
 2.033200000000000E10   -1.661622905254170E-3  -8.115256031935548E-4  
 2.033400000000000E10   -1.908594655065922E-3  -5.116833175726706E-4  
 2.033600000000000E10   -1.987483997737276E-3  -3.445605832517444E-4  
 2.033800000000000E10   -2.035140550780955E-3   2.095413722279284E-4  
 2.034000000000000E10   -2.000314120295240E-3   5.606039060249067E-4  
 2.034200000000000E10   -1.901471399381471E-3   8.927171688018412E-4  
 2.034400000000000E10   -1.764023951663596E-3   1.246109379989457E-3  
 2.034600000000000E10   -1.564556291225956E-3   1.628623118040258E-3  
 2.034800000000000E10   -1.224225780777174E-3   1.997145137459612E-3  
 2.035000000000000E10   -7.227976069164774E-4   2.212069725198736E-3  
 2.035200000000000E10   -1.657315496367593E-4   2.249806981395792E-3  
 2.035400000000000E10    3.540270272910657E-4   2.082497358644082E-3  
 2.035600000000000E10    7.133671813625307E-4   1.759484548099973E-3  
 2.035800000000000E10    8.389907978495535E-4   1.467517494870445E-3  
 2.036000000000000E10    8.439043087569236E-4   1.373274945360142E-3  
 2.036200000000000E10    9.740991884394103E-4   1.351182389587920E-3  
 2.036400000000000E10    1.168466659852998E-3   1.300068444569834E-3  
 2.036600000000000E10    1.420476865432186E-3   1.261936643432995E-3  
 2.036800000000000E10    1.768817790414735E-3   1.128956035484748E-3  
 2.037000000000000E10    2.125351228566000E-3   7.720981996515397E-4  
 2.037200000000000E10    2.344346931651337E-3   2.688549709936223E-4  
 2.037400000000000E10    2.368214607254100E-3  -2.963809391186000E-4  
 2.037600000000000E10    2.219111364480461E-3  -7.806685152725512E-4  
 2.037800000000000E10    2.026462176270446E-3  -1.125054245345826E-3  
 2.038000000000000E10    1.841026736137206E-3  -1.381477334827890E-3  
 2.038200000000000E10    1.649804453241584E-3  -1.628028809518358E-3  
 2.038400000000000E10    1.465327141069346E-3  -1.937961518197271E-3  
 2.038600000000000E10    1.140091246292915E-3  -2.330875624640652E-3  
 2.038800000000000E10    6.013094947069108E-4  -2.638649602646752E-3  
 2.039000000000000E10   -4.566405887925673E-5  -2.718179669379371E-3  
 2.039200000000000E10   -6.435198683977711E-4  -2.581932344339758E-3  
 2.039400000000000E10   -1.101947424036485E-3  -2.300375001313387E-3  
 2.039600000000000E10   -1.413150387400933E-3  -2.043009750335510E-3  
 2.039800000000000E10   -1.691891477553146E-3  -1.799926749591567E-3  
 2.040000000000000E10   -1.897262166278496E-3  -1.490977072650094E-3  
 2.040200000000000E10   -2.019685416818381E-3  -1.212631182812809E-3  
 2.040400000000000E10   -2.208899990534116E-3  -1.012481483729845E-3  
 2.040600000000000E10   -2.488432026024913E-3  -7.590861760772286E-4  
 2.040800000000000E10   -2.778175817125456E-3  -3.955195822112011E-4  
 2.041000000000000E10   -2.997042995140427E-3   1.519866975850189E-4  
 2.041200000000000E10   -3.017617939538304E-3   8.121609418085727E-4  
 2.041400000000000E10   -2.841298981341029E-3   1.492503937206069E-3  
 2.041600000000000E10   -2.493931849605937E-3   2.142716985162660E-3  
 2.041800000000000E10   -1.956085345978672E-3   2.626816541229890E-3  
 2.042000000000000E10   -1.343016114580319E-3   2.896678411058152E-3  
 2.042200000000000E10   -7.089708631683209E-4   3.023498349877992E-3  
 2.042400000000000E10   -1.343661942970377E-4   3.005157905121032E-3  
 2.042600000000000E10    3.386586678961091E-4   2.931761959074538E-3  
 2.042800000000000E10    7.903685036181783E-4   2.807831471538062E-3  
 2.043000000000000E10    1.219610623096784E-3   2.640913399983970E-3  
 2.043200000000000E10    1.632100423422370E-3   2.387581699411545E-3  
 2.043400000000000E10    1.998643431875125E-3   2.054273188867912E-3  
 2.043600000000000E10    2.239083408458550E-3   1.753290174100983E-3  
 2.043800000000000E10    2.459637691050932E-3   1.510427131564120E-3  
 2.044000000000000E10    2.752723493606915E-3   1.163007408688395E-3  
 2.044200000000000E10    3.003410219862567E-3   6.876724826610190E-4  
 2.044400000000000E10    3.176364626745670E-3   1.615453179417381E-4  
 2.044600000000000E10    3.280549985963458E-3  -4.262294347921134E-4  
 2.044800000000000E10    3.197808931703043E-3  -1.072483069221240E-3  
 2.045000000000000E10    2.973911254724235E-3  -1.693063273940323E-3  
 2.045200000000000E10    2.550842816940163E-3  -2.326259373550512E-3  
 2.045400000000000E10    1.881296234460872E-3  -2.830294006541168E-3  
 2.045600000000000E10    1.164392068016309E-3  -2.976995568648390E-3  
 2.045800000000000E10    6.082771593974381E-4  -2.883806204760578E-3  
 2.046000000000000E10    2.127665046165571E-4  -2.726322952121374E-3  
 2.046200000000000E10   -3.657532819418687E-5  -2.646368828286585E-3  
 2.046400000000000E10   -3.147386115466581E-4  -2.703940373844122E-3  
 2.046600000000000E10   -6.702740593501642E-4  -2.745179397492211E-3  
 2.046800000000000E10   -1.094360220877119E-3  -2.734462311555247E-3  
 2.047000000000000E10   -1.581057332378183E-3  -2.591750638837963E-3  
 2.047200000000000E10   -2.064650923982059E-3  -2.270405483847313E-3  
 2.047400000000000E10   -2.438689117666094E-3  -1.865766392682203E-3  
 2.047600000000000E10   -2.658993986898980E-3  -1.475604793180767E-3  
 2.047800000000000E10   -2.854788039692145E-3  -1.119760554814034E-3  
 2.048000000000000E10   -3.106423597450692E-3  -7.410883339471983E-4  
 2.048200000000000E10   -3.387492467216198E-3  -1.896705094209454E-4  
 2.048400000000000E10   -3.526559700634950E-3   5.369548798750816E-4  
 2.048600000000000E10   -3.408148042878088E-3   1.291833615629322E-3  
 2.048800000000000E10   -3.049373331917924E-3   1.980020280733235E-3  
 2.049000000000000E10   -2.493579018559558E-3   2.512268687563915E-3  
 2.049200000000000E10   -1.858327930457175E-3   2.875287627126761E-3  
 2.049400000000000E10   -1.239629961877285E-3   3.055785954463589E-3  
 2.049600000000000E10   -6.724488794508510E-4   3.048005827481569E-3  
 2.049800000000000E10   -2.229175042834986E-4   2.929859669158550E-3  
 2.050000000000000E10    1.057388505249109E-4   2.783571777479476E-3  
 2.050200000000000E10    3.262629124223522E-4   2.741159318686963E-3  
 2.050400000000000E10    6.382925645416330E-4   2.864834926933030E-3  
 2.050600000000000E10    1.183104053151185E-3   2.902625379981717E-3  
 2.050800000000000E10    1.750142449118320E-3   2.703409070284483E-3  
 2.051000000000000E10    2.234543254343469E-3   2.345609704137299E-3  
 2.051200000000000E10    2.651863298359722E-3   1.921063704244967E-3  
 2.051400000000000E10    3.028291278226182E-3   1.410126639945262E-3  
 2.051600000000000E10    3.244734236674157E-3   7.867750757889995E-4  
 2.051800000000000E10    3.256397525267613E-3   1.712828965193148E-4  
 2.052000000000000E10    3.205278683300495E-3  -3.912094373250220E-4  
 2.052200000000000E10    3.120404490894436E-3  -9.892482000891127E-4  
 2.052400000000000E10    2.879494068178314E-3  -1.625610077440668E-3  
 2.052600000000000E10    2.378222366490891E-3  -2.210421543261765E-3  
 2.052800000000000E10    1.678956221100531E-3  -2.518681203435458E-3  
 2.053000000000000E10    1.007717991929977E-3  -2.539204554926140E-3  
 2.053200000000000E10    5.159798399698558E-4  -2.398791325959506E-3  
 2.053400000000000E10    2.138591019555848E-4  -2.169597338225862E-3  
 2.053600000000000E10    8.490817058915773E-5  -1.958531121862605E-3  
 2.053800000000000E10    4.079107960701418E-5  -1.861001319214906E-3  
 2.054000000000000E10    5.190340943480543E-6  -1.868149906649818E-3  
 2.054200000000000E10   -5.300955146796900E-5  -2.044791537777755E-3  
 2.054400000000000E10   -2.938726690266633E-4  -2.335665454329164E-3  
 2.054600000000000E10   -8.083950624058972E-4  -2.597039583329475E-3  
 2.054800000000000E10   -1.552596204883492E-3  -2.573536652739484E-3  
 2.055000000000000E10   -2.282568742233662E-3  -2.126235411398941E-3  
 2.055200000000000E10   -2.744085169799718E-3  -1.454063065206972E-3  
 2.055400000000000E10   -2.904610424423885E-3  -7.563670552610351E-4  
 2.055600000000000E10   -2.851098011259312E-3  -1.307712789487275E-4  
