#  HZ   S   RI   R     50.00 
! Rohde & Schwarz ZVA40 4Ports - Version 3.90 - 1145.1110k42 SN: 100403
! Date: 2023-10-03 12:37:28
! Measurement: S12 
! 
 2.000000000000000E10    2.234202588298991E-3  -3.774540122299467E-3  
 2.000200000000000E10    1.645679462034210E-3  -4.225318550051731E-3  
 2.000400000000000E10    8.827678472620010E-4  -4.608544348566621E-3  
 2.000600000000000E10   -1.342200387928945E-5  -4.817678978275739E-3  
 2.000800000000000E10   -9.816180609948475E-4  -4.784958632547915E-3  
 2.001000000000000E10   -1.946862890488572E-3  -4.438952588832673E-3  
 2.001200000000000E10   -2.692139859851680E-3  -3.884608411793541E-3  
 2.001400000000000E10   -3.268105874734897E-3  -3.372589292947526E-3  
 2.001600000000000E10   -3.908308947251904E-3  -2.779222179756121E-3  
 2.001800000000000E10   -4.425118263396952E-3  -1.914386214964368E-3  
 2.002000000000000E10   -4.614990152832535E-3  -9.085404288518117E-4  
 2.002200000000000E10   -4.527321499254969E-3   7.782058901845890E-5  
 2.002400000000000E10   -4.274952673801670E-3   9.127344137034668E-4  
 2.002600000000000E10   -3.833737819352084E-3   1.557140388342058E-3  
 2.002800000000000E10   -3.379338406555263E-3   1.979654634739330E-3  
 2.003000000000000E10   -2.964861774357197E-3   2.361238247105553E-3  
 2.003200000000000E10   -2.542690299221395E-3   2.684989165123782E-3  
 2.003400000000000E10   -2.174645708298978E-3   2.929806025169882E-3  
 2.003600000000000E10   -1.899531862790478E-3   3.215182388638273E-3  
 2.003800000000000E10   -1.509944799091713E-3   3.674839508294324E-3  
 2.004000000000000E10   -8.200290246383737E-4   4.108284887524299E-3  
 2.004200000000000E10    9.698254332222319E-5   4.312277208139868E-3  
 2.004400000000000E10    1.080951104400519E-3   4.194846336534362E-3  
 2.004600000000000E10    1.874955531991559E-3   3.709125778074435E-3  
 2.004800000000000E10    2.324909187370429E-3   3.105631003294279E-3  
 2.005000000000000E10    2.613288689588691E-3   2.629717193934837E-3  
 2.005200000000000E10    2.932303145320879E-3   2.246307404596865E-3  
 2.005400000000000E10    3.262768174740084E-3   1.824550902654912E-3  
 2.005600000000000E10    3.551677967433209E-3   1.311975926517245E-3  
 2.005800000000000E10    3.722592455300469E-3   7.181184992976028E-4  
 2.006000000000000E10    3.836490964103077E-3   1.376717286971312E-4  
 2.006200000000000E10    3.957415514131204E-3  -5.385850895380165E-4  
 2.006400000000000E10    3.856336065556533E-3  -1.359987771138549E-3  
 2.006600000000000E10    3.480407978511520E-3  -2.068427937496224E-3  
 2.006800000000000E10    2.937966204581806E-3  -2.596552817173946E-3  
 2.007000000000000E10    2.386775229954057E-3  -2.915939258664479E-3  
 2.007200000000000E10    2.004904957074258E-3  -3.195062610263259E-3  
 2.007400000000000E10    1.574677468369497E-3  -3.610055410751591E-3  
 2.007600000000000E10    9.057492033555461E-4  -3.942939300481001E-3  
 2.007800000000000E10    1.378430976650253E-4  -4.047025523987818E-3  
 2.008000000000000E10   -6.172569457119630E-4  -4.028418291084193E-3  
 2.008200000000000E10   -1.351589127156286E-3  -3.906262926412402E-3  
 2.008400000000000E10   -2.078500579191763E-3  -3.615288710635570E-3  
 2.008600000000000E10   -2.710456761566026E-3  -3.084641418500264E-3  
 2.008800000000000E10   -3.160753773157428E-3  -2.444660437672779E-3  
 2.009000000000000E10   -3.432312684225632E-3  -1.774700854353055E-3  
 2.009200000000000E10   -3.511732722989020E-3  -1.172330473365699E-3  
 2.009400000000000E10   -3.573044648761919E-3  -7.433152296235441E-4  
 2.009600000000000E10   -3.684162944095371E-3  -2.642671986899430E-4  
 2.009800000000000E10   -3.753565912951291E-3   3.182986373208279E-4  
 2.010000000000000E10   -3.734526089335114E-3   1.010636084736038E-3  
 2.010200000000000E10   -3.513039374310110E-3   1.647542164672488E-3  
 2.010400000000000E10   -3.203056999884638E-3   2.142881718751642E-3  
 2.010600000000000E10   -2.853748236242452E-3   2.609185862964319E-3  
 2.010800000000000E10   -2.476523460728335E-3   3.074842033746802E-3  
 2.011000000000000E10   -1.976150644218756E-3   3.575664522402265E-3  
 2.011200000000000E10   -1.331088828773778E-3   3.979352584545627E-3  
 2.011400000000000E10   -6.022807972413708E-4   4.223223574413563E-3  
 2.011600000000000E10    1.680818157317979E-4   4.285133110336317E-3  
 2.011800000000000E10    9.974558466907455E-4   4.203061866401523E-3  
 2.012000000000000E10    1.829978853268664E-3   3.952692987190353E-3  
 2.012200000000000E10    2.511796095971892E-3   3.493803300331405E-3  
 2.012400000000000E10    3.007631723044648E-3   2.948642093228338E-3  
 2.012600000000000E10    3.407211241277832E-3   2.341170571054574E-3  
 2.012800000000000E10    3.721771071906444E-3   1.697885256295127E-3  
 2.013000000000000E10    3.898197175635968E-3   1.017794581446337E-3  
 2.013200000000000E10    3.934825710193427E-3   3.780987549193756E-4  
 2.013400000000000E10    3.901683437971422E-3  -2.007912596497961E-4  
 2.013600000000000E10    3.755884006458485E-3  -7.944620404116535E-4  
 2.013800000000000E10    3.556107392212676E-3  -1.372778269370305E-3  
 2.014000000000000E10    3.280924957958453E-3  -1.904957794101426E-3  
 2.014200000000000E10    2.944461779990866E-3  -2.327426635648734E-3  
 2.014400000000000E10    2.588895436974220E-3  -2.669389592483640E-3  
 2.014600000000000E10    2.236495771801766E-3  -3.003284159794819E-3  
 2.014800000000000E10    1.839778404740364E-3  -3.361594072761544E-3  
 2.015000000000000E10    1.358874993007860E-3  -3.707978865821605E-3  
 2.015200000000000E10    8.253151217452539E-4  -4.037540314006218E-3  
 2.015400000000000E10    1.391503649273669E-4  -4.324486502158789E-3  
 2.015600000000000E10   -7.597471667844573E-4  -4.404113955657792E-3  
 2.015800000000000E10   -1.740030799187536E-3  -4.175081337445681E-3  
 2.016000000000000E10   -2.554291954126071E-3  -3.640849882000943E-3  
 2.016200000000000E10   -3.040960711070602E-3  -2.910142491376143E-3  
 2.016400000000000E10   -3.212574740043945E-3  -2.225475940554415E-3  
 2.016600000000000E10   -3.264659199357770E-3  -1.777618426404158E-3  
 2.016800000000000E10   -3.430944496627760E-3  -1.454793452860121E-3  
 2.017000000000000E10   -3.709991287187110E-3  -1.087524538664262E-3  
 2.017200000000000E10   -4.006911960234981E-3  -5.958389316938450E-4  
 2.017400000000000E10   -4.195039861916025E-3   1.826029716696977E-5  
 2.017600000000000E10   -4.285643636076539E-3   7.631432309597272E-4  
 2.017800000000000E10   -4.219969700056094E-3   1.617812208060958E-3  
 2.018000000000000E10   -3.920517896336538E-3   2.466016354177285E-3  
 2.018200000000000E10   -3.344389831325339E-3   3.224877571618116E-3  
 2.018400000000000E10   -2.539307200982247E-3   3.714423962972231E-3  
 2.018600000000000E10   -1.791803384728638E-3   3.916129837801428E-3  
 2.018800000000000E10   -1.212286725525319E-3   4.030995507851060E-3  
 2.019000000000000E10   -6.506098527748736E-4   4.205970294819571E-3  
 2.019200000000000E10   -1.732748672849744E-5   4.317946335369791E-3  
 2.019400000000000E10    7.096519909316192E-4   4.298894142984977E-3  
 2.019600000000000E10    1.457605492266149E-3   4.130406661625998E-3  
 2.019800000000000E10    2.173388632658271E-3   3.836208316325038E-3  
 2.020000000000000E10    2.778765854690178E-3   3.374739222366502E-3  
 2.020200000000000E10    3.191281699311035E-3   2.787208377188187E-3  
 2.020400000000000E10    3.486887816293740E-3   2.282776119601396E-3  
 2.020600000000000E10    3.821401612511204E-3   1.788184062554789E-3  
 2.020800000000000E10    4.131253182106181E-3   1.186577189299796E-3  
 2.021000000000000E10    4.359781247690137E-3   5.741571722966102E-4  
 2.021200000000000E10    4.563635945274139E-3  -1.002474562954848E-4  
 2.021400000000000E10    4.651974800422237E-3  -9.943207835111723E-4  
 2.021600000000000E10    4.432486968091978E-3  -2.029256543064099E-3  
 2.021800000000000E10    3.878868455182255E-3  -2.934674051141849E-3  
 2.022000000000000E10    3.097452832684841E-3  -3.518993690333985E-3  
 2.022200000000000E10    2.312980276061061E-3  -3.857709835340948E-3  
 2.022400000000000E10    1.528085399143122E-3  -4.070057987844871E-3  
 2.022600000000000E10    7.651693368744520E-4  -4.083875589716582E-3  
 2.022800000000000E10    1.695198369827581E-4  -3.931507726924287E-3  
 2.023000000000000E10   -1.910131254084667E-4  -3.858076632712727E-3  
 2.023200000000000E10   -6.629817545655426E-4  -3.934462830700257E-3  
 2.023400000000000E10   -1.377142370781965E-3  -3.880632265160481E-3  
 2.023600000000000E10   -2.033958634085678E-3  -3.641092767479060E-3  
 2.023800000000000E10   -2.625923391063640E-3  -3.325397999566279E-3  
 2.024000000000000E10   -3.188445425396901E-3  -2.868514309671742E-3  
 2.024200000000000E10   -3.682871199684379E-3  -2.262435882225817E-3  
 2.024400000000000E10   -4.047668579229970E-3  -1.566569111022501E-3  
 2.024600000000000E10   -4.281636862153257E-3  -7.869668914304105E-4  
 2.024800000000000E10   -4.366192334320075E-3  -2.179189960983937E-5  
 2.025000000000000E10   -4.320842645096559E-3   7.477312077147266E-4  
 2.025200000000000E10   -4.083059233739789E-3   1.546628886753303E-3  
 2.025400000000000E10   -3.664096667902706E-3   2.302373581232481E-3  
 2.025600000000000E10   -3.141044837388176E-3   2.905061206906851E-3  
 2.025800000000000E10   -2.497376529154955E-3   3.327153194810690E-3  
 2.026000000000000E10   -1.799107569465299E-3   3.544084687521797E-3  
 2.026200000000000E10   -1.155468277391737E-3   3.620277722308666E-3  
 2.026400000000000E10   -6.398544862383494E-4   3.624074060446871E-3  
 2.026600000000000E10   -1.566570464530270E-4   3.701985770560526E-3  
 2.026800000000000E10    3.998364734371412E-4   3.758720892630978E-3  
 2.027000000000000E10    9.725562319803387E-4   3.675519560613199E-3  
 2.027200000000000E10    1.582400055521709E-3   3.509577769027264E-3  
 2.027400000000000E10    2.242548190011287E-3   3.272884850171797E-3  
 2.027600000000000E10    2.875570299816721E-3   2.852937298608415E-3  
 2.027800000000000E10    3.302410351296450E-3   2.229397599067953E-3  
 2.028000000000000E10    3.548901295289398E-3   1.579654831324279E-3  
 2.028200000000000E10    3.709474512387389E-3   9.573857022598846E-4  
 2.028400000000000E10    3.790951296572149E-3   3.218793351185957E-4  
 2.028600000000000E10    3.823154856002442E-3  -2.799966479622886E-4  
 2.028800000000000E10    3.776547231676954E-3  -9.132812344354153E-4  
 2.029000000000000E10    3.532415074813698E-3  -1.541295489813719E-3  
 2.029200000000000E10    3.211609033269831E-3  -2.104235468087373E-3  
 2.029400000000000E10    2.877986708219037E-3  -2.655605765427521E-3  
 2.029600000000000E10    2.430734506313816E-3  -3.171051148164236E-3  
 2.029800000000000E10    1.840154782661961E-3  -3.566032051350232E-3  
 2.030000000000000E10    1.152943382844513E-3  -3.842505758605254E-3  
 2.030200000000000E10    3.957603544278508E-4  -3.912476092622973E-3  
 2.030400000000000E10   -2.439935669377676E-4  -3.821760783960790E-3  
 2.030600000000000E10   -7.373254378268750E-4  -3.784484796249021E-3  
 2.030800000000000E10   -1.282260865318003E-3  -3.766150317258306E-3  
 2.031000000000000E10   -1.961923770629514E-3  -3.624193904990400E-3  
 2.031200000000000E10   -2.694623832257442E-3  -3.348931762171381E-3  
 2.031400000000000E10   -3.487655772241178E-3  -2.964148769316115E-3  
 2.031600000000000E10   -4.296178463846445E-3  -2.251934432597073E-3  
 2.031800000000000E10   -4.759971357100172E-3  -1.102039808936325E-3  
 2.032000000000000E10   -4.687918804263996E-3   9.816628355312991E-5  
 2.032200000000000E10   -4.275203946931864E-3   1.040390257171735E-3  
 2.032400000000000E10   -3.784917404208287E-3   1.687231926350958E-3  
 2.032600000000000E10   -3.337876595280789E-3   2.121651424439969E-3  
 2.032800000000000E10   -2.878911663881607E-3   2.452534790162319E-3  
 2.033000000000000E10   -2.460165794386908E-3   2.756265081166302E-3  
 2.033200000000000E10   -2.104526667361275E-3   3.082056064158678E-3  
 2.033400000000000E10   -1.725019422865668E-3   3.468294639462306E-3  
 2.033600000000000E10   -1.520294394275105E-3   3.649846731144706E-3  
 2.033800000000000E10   -5.056639827132501E-4   3.958121266928905E-3  
 2.034000000000000E10    1.532714434879269E-4   4.012858742319140E-3  
 2.034200000000000E10    8.338995710486708E-4   3.979409855135061E-3  
 2.034400000000000E10    1.491088470455581E-3   3.880863083687462E-3  
 2.034600000000000E10    2.097623865407559E-3   3.701063950925514E-3  
 2.034800000000000E10    2.769159253709662E-3   3.443249943953606E-3  
 2.035000000000000E10    3.570162202519032E-3   3.019241529896304E-3  
 2.035200000000000E10    4.339979656822521E-3   2.303181733522151E-3  
 2.035400000000000E10    4.869538934234485E-3   1.289445198325004E-3  
 2.035600000000000E10    4.974767582973948E-3   1.116144329573195E-4  
 2.035800000000000E10    4.670068368683627E-3  -9.462996069801811E-4  
 2.036000000000000E10    4.143175801239265E-3  -1.727630990775831E-3  
 2.036200000000000E10    3.638708929496783E-3  -2.295045380446095E-3  
 2.036400000000000E10    3.155414627313063E-3  -2.707875109519120E-3  
 2.036600000000000E10    2.658126835515838E-3  -2.989756363087599E-3  
 2.036800000000000E10    2.233217450226715E-3  -3.238270338049826E-3  
 2.037000000000000E10    1.839642604111614E-3  -3.607723163440824E-3  
 2.037200000000000E10    1.328952344605860E-3  -3.991676477232466E-3  
 2.037400000000000E10    6.872993142252076E-4  -4.285466679038457E-3  
 2.037600000000000E10   -9.713750743101649E-5  -4.443046136724729E-3  
 2.037800000000000E10   -9.479839282892186E-4  -4.376874650242153E-3  
 2.038000000000000E10   -1.764355431437309E-3  -4.099192017298423E-3  
 2.038200000000000E10   -2.447434976972916E-3  -3.652958754151140E-3  
 2.038400000000000E10   -2.882265293234845E-3  -3.153497157733382E-3  
 2.038600000000000E10   -3.234953357964571E-3  -2.713772419403181E-3  
 2.038800000000000E10   -3.702659269127950E-3  -2.259311088027410E-3  
 2.039000000000000E10   -4.187014873748945E-3  -1.654787472000829E-3  
 2.039200000000000E10   -4.540261231868724E-3  -9.051291243299660E-4  
 2.039400000000000E10   -4.625742542154996E-3  -1.890961719670295E-5  
 2.039600000000000E10   -4.486870635760788E-3   7.931698023134636E-4  
 2.039800000000000E10   -4.240744689732423E-3   1.535331778642204E-3  
 2.040000000000000E10   -3.875861950448634E-3   2.254903098039421E-3  
 2.040200000000000E10   -3.374385124325385E-3   2.799444202402676E-3  
 2.040400000000000E10   -2.889991901745951E-3   3.143041400399841E-3  
 2.040600000000000E10   -2.425517398220154E-3   3.502110168797735E-3  
 2.040800000000000E10   -1.943664750325735E-3   3.883018095138266E-3  
 2.041000000000000E10   -1.409532574154897E-3   4.303321334314936E-3  
 2.041200000000000E10   -6.989613915563643E-4   4.646261423872210E-3  
 2.041400000000000E10    1.433998116192891E-4   4.807068621394812E-3  
 2.041600000000000E10    1.059807345478071E-3   4.786328136644982E-3  
 2.041800000000000E10    2.010255612225996E-3   4.502515521268419E-3  
 2.042000000000000E10    2.818237398003723E-3   4.035239642554964E-3  
 2.042200000000000E10    3.445608894927083E-3   3.461510198834686E-3  
 2.042400000000000E10    3.940216432337040E-3   2.742462659277666E-3  
 2.042600000000000E10    4.297455088637862E-3   1.979420979127840E-3  
 2.042800000000000E10    4.552028739801897E-3   1.220036962035078E-3  
 2.043000000000000E10    4.709810363473716E-3   4.504122526994274E-4  
 2.043200000000000E10    4.714355269377983E-3  -3.744136478484574E-4  
 2.043400000000000E10    4.513901669853999E-3  -1.219945042796525E-3  
 2.043600000000000E10    4.077202370275319E-3  -1.935236121493358E-3  
 2.043800000000000E10    3.603344510113936E-3  -2.460971060726378E-3  
 2.044000000000000E10    3.196178248474076E-3  -2.902498692963963E-3  
 2.044200000000000E10    2.751796379869367E-3  -3.287941622720273E-3  
 2.044400000000000E10    2.249303153129640E-3  -3.636982725979186E-3  
 2.044600000000000E10    1.750614979867766E-3  -4.017391638761319E-3  
 2.044800000000000E10    1.126484272075978E-3  -4.436693826897277E-3  
 2.045000000000000E10    3.365008464085951E-4  -4.749400776891430E-3  
 2.045200000000000E10   -5.974789569729273E-4  -4.905587062239647E-3  
 2.045400000000000E10   -1.696296517714214E-3  -4.780465777227540E-3  
 2.045600000000000E10   -2.781930005890720E-3  -4.201755272569481E-3  
 2.045800000000000E10   -3.543104841316372E-3  -3.334511557226012E-3  
 2.046000000000000E10   -3.902823238829037E-3  -2.392746901921468E-3  
 2.046200000000000E10   -3.934074676147214E-3  -1.529356283653114E-3  
 2.046400000000000E10   -3.859559717921564E-3  -8.345386171483516E-4  
 2.046600000000000E10   -3.746281185382863E-3  -2.653542955450565E-4  
 2.046800000000000E10   -3.636307916661472E-3   1.886415702756494E-4  
 2.047000000000000E10   -3.571373603111249E-3   6.195260377106385E-4  
 2.047200000000000E10   -3.485188428542497E-3   1.130481579708925E-3  
 2.047400000000000E10   -3.255412057272079E-3   1.706665189200898E-3  
 2.047600000000000E10   -2.848438973205142E-3   2.221848887540861E-3  
 2.047800000000000E10   -2.406616195070523E-3   2.556886541208735E-3  
 2.048000000000000E10   -2.064890186532321E-3   2.750551394175417E-3  
 2.048200000000000E10   -1.743388448462442E-3   3.011704531762703E-3  
 2.048400000000000E10   -1.300602902681280E-3   3.378820091049061E-3  
 2.048600000000000E10   -7.176401882639362E-4   3.704033151016008E-3  
 2.048800000000000E10    6.383983373432146E-6   3.910798841029590E-3  
 2.049000000000000E10    8.312392129022400E-4   3.868931967673111E-3  
 2.049200000000000E10    1.592524181534019E-3   3.579994790072059E-3  
 2.049400000000000E10    2.240901269639532E-3   3.153202828180827E-3  
 2.049600000000000E10    2.828155902938711E-3   2.553940592563631E-3  
 2.049800000000000E10    3.166188707253264E-3   1.817529010701419E-3  
 2.050000000000000E10    3.178051072115332E-3   1.067277917891373E-3  
 2.050200000000000E10    2.926673168132519E-3   4.841317293337650E-4  
 2.050400000000000E10    2.733088141583183E-3   2.436593958581970E-4  
 2.050600000000000E10    2.809167767725425E-3   5.928158444240345E-5  
 2.050800000000000E10    2.938690854029523E-3  -3.200315251079802E-4  
 2.051000000000000E10    2.920214262112608E-3  -8.142240658793370E-4  
 2.051200000000000E10    2.796065576811448E-3  -1.288751160358021E-3  
 2.051400000000000E10    2.594967936108142E-3  -1.808038093494597E-3  
 2.051600000000000E10    2.239972574314402E-3  -2.341064696349664E-3  
 2.051800000000000E10    1.737420116608710E-3  -2.701130250100920E-3  
 2.052000000000000E10    1.224444848542780E-3  -2.862017963909441E-3  
 2.052200000000000E10    7.590180619355338E-4  -3.019216913086029E-3  
 2.052400000000000E10    2.398836344874315E-4  -3.226181282374410E-3  
 2.052600000000000E10   -4.708541616119078E-4  -3.335260400939503E-3  
 2.052800000000000E10   -1.262914817665278E-3  -3.130518630100990E-3  
 2.053000000000000E10   -1.895935731698518E-3  -2.664952731495839E-3  
 2.053200000000000E10   -2.343380797861351E-3  -2.063985152262045E-3  
 2.053400000000000E10   -2.607453660464582E-3  -1.360379113459293E-3  
 2.053600000000000E10   -2.583862891719665E-3  -6.881759647153502E-4  
 2.053800000000000E10   -2.318754685858702E-3  -1.936034385172757E-4  
 2.054000000000000E10   -1.981103407609978E-3   1.351673027211628E-4  
 2.054200000000000E10   -1.685343516047722E-3   2.248492684749956E-4  
 2.054400000000000E10   -1.581829091545517E-3   1.465228889948641E-4  
 2.054600000000000E10   -1.701241816152577E-3   5.026515524756785E-5  
 2.054800000000000E10   -2.048807373891274E-3   1.610628166002435E-4  
 2.055000000000000E10   -2.365197675923507E-3   6.911908729105361E-4  
 2.055200000000000E10   -2.312323262478099E-3   1.453254337388057E-3  
 2.055400000000000E10   -1.896758974863240E-3   2.138830617898040E-3  
 2.055600000000000E10   -1.278653424693111E-3   2.564840722990073E-3  
