#  HZ   S   RI   R     50.00 
! Rohde & Schwarz ZVA40 4Ports - Version 3.90 - 1145.1110k42 SN: 100403
! Date: 2023-10-03 12:38:04
! Measurement: S12 
! 
 2.000000000000000E10    2.041725763752137E-3  -4.402809960330711E-3  
 2.000200000000000E10    1.313913155082659E-3  -4.944968008562739E-3  
 2.000400000000000E10    3.516219443509378E-4  -5.312106572091579E-3  
 2.000600000000000E10   -7.438638123948083E-4  -5.389662126056207E-3  
 2.000800000000000E10   -1.869673021482649E-3  -5.183986612354165E-3  
 2.001000000000000E10   -2.911542898710864E-3  -4.653131859492005E-3  
 2.001200000000000E10   -3.680088295727785E-3  -3.942553908276706E-3  
 2.001400000000000E10   -4.276567805604435E-3  -3.300664595753691E-3  
 2.001600000000000E10   -4.946161366217299E-3  -2.503202880307297E-3  
 2.001800000000000E10   -5.451673055412594E-3  -1.379685194725976E-3  
 2.002000000000000E10   -5.542029661160929E-3  -1.210966348694063E-4  
 2.002200000000000E10   -5.282912966737777E-3   1.051227240190830E-3  
 2.002400000000000E10   -4.811675615470719E-3   2.039058964676512E-3  
 2.002600000000000E10   -4.080352862078099E-3   2.856850552223163E-3  
 2.002800000000000E10   -3.275071897394496E-3   3.361841502748890E-3  
 2.003000000000000E10   -2.510430354533005E-3   3.657965912242179E-3  
 2.003200000000000E10   -1.835106314378388E-3   3.766678434647161E-3  
 2.003400000000000E10   -1.316297751920367E-3   3.743715506667893E-3  
 2.003600000000000E10   -9.491425582472191E-4   3.800821700420829E-3  
 2.003800000000000E10   -4.938037697381030E-4   4.070903559755765E-3  
 2.004000000000000E10    2.384521897140615E-4   4.343411632250121E-3  
 2.004200000000000E10    1.153611953163313E-3   4.323480857743158E-3  
 2.004400000000000E10    2.044505675403793E-3   3.934328771989655E-3  
 2.004600000000000E10    2.695812291845128E-3   3.261577113772984E-3  
 2.004800000000000E10    3.008639100755071E-3   2.578225938235352E-3  
 2.005000000000000E10    3.147467226364915E-3   2.066101775401169E-3  
 2.005200000000000E10    3.313344929160344E-3   1.717407082460453E-3  
 2.005400000000000E10    3.567624768173253E-3   1.347457655176612E-3  
 2.005600000000000E10    3.856745767004697E-3   8.281858287245772E-4  
 2.005800000000000E10    4.061587971209745E-3   1.807585428684467E-4  
 2.006000000000000E10    4.154027698354589E-3  -5.092533653096101E-4  
 2.006200000000000E10    4.129639142595325E-3  -1.255487203942957E-3  
 2.006400000000000E10    3.846214308092992E-3  -2.052643140892924E-3  
 2.006600000000000E10    3.377276901040733E-3  -2.739884695153178E-3  
 2.006800000000000E10    2.783560961553896E-3  -3.273752371401147E-3  
 2.007000000000000E10    2.160944018719925E-3  -3.559803860377015E-3  
 2.007200000000000E10    1.753910046565220E-3  -3.786860761106199E-3  
 2.007400000000000E10    1.271918904680161E-3  -4.222573810199529E-3  
 2.007600000000000E10    4.592521660846233E-4  -4.631104154719247E-3  
 2.007800000000000E10   -5.270408151705785E-4  -4.780509831084882E-3  
 2.008000000000000E10   -1.521350955303161E-3  -4.642204668970756E-3  
 2.008200000000000E10   -2.457220118814781E-3  -4.231420564062802E-3  
 2.008400000000000E10   -3.269632835585027E-3  -3.568841957912585E-3  
 2.008600000000000E10   -3.835386102214272E-3  -2.704443082351376E-3  
 2.008800000000000E10   -4.105047983933747E-3  -1.864912866522777E-3  
 2.009000000000000E10   -4.187149932768979E-3  -1.100753306807881E-3  
 2.009200000000000E10   -4.106238237179725E-3  -4.282052631211112E-4  
 2.009400000000000E10   -4.051669811209043E-3   6.148933607619254E-5  
 2.009600000000000E10   -4.120006927369554E-3   6.446291140660093E-4  
 2.009800000000000E10   -4.078666052930518E-3   1.367364905165210E-3  
 2.010000000000000E10   -3.785854702769423E-3   2.143785851881092E-3  
 2.010200000000000E10   -3.250980091476698E-3   2.753015423630491E-3  
 2.010400000000000E10   -2.686240825296185E-3   3.165294519729085E-3  
 2.010600000000000E10   -2.139543564012849E-3   3.507917240997892E-3  
 2.010800000000000E10   -1.617239759430106E-3   3.778127220424790E-3  
 2.011000000000000E10   -1.033687765744550E-3   4.022600477055452E-3  
 2.011200000000000E10   -3.596282638480059E-4   4.165783834954103E-3  
 2.011400000000000E10    3.476176791059797E-4   4.203477532338398E-3  
 2.011600000000000E10    1.064978087217444E-3   4.137799707183868E-3  
 2.011800000000000E10    1.738993129060593E-3   3.938472723404383E-3  
 2.012000000000000E10    2.413738987489064E-3   3.642767601657981E-3  
 2.012200000000000E10    3.061896169926098E-3   3.138368877432781E-3  
 2.012400000000000E10    3.552538555483392E-3   2.481831631473737E-3  
 2.012600000000000E10    3.878021710494786E-3   1.798119552628954E-3  
 2.012800000000000E10    4.066291615872840E-3   1.118109495390529E-3  
 2.013000000000000E10    4.107344843861130E-3   4.312430309378945E-4  
 2.013200000000000E10    4.015269827235629E-3  -2.243737415281228E-4  
 2.013400000000000E10    3.913017004199419E-3  -8.073381563637084E-4  
 2.013600000000000E10    3.779254595024718E-3  -1.400735121461804E-3  
 2.013800000000000E10    3.515848007490054E-3  -1.986048297876102E-3  
 2.014000000000000E10    3.105529857063552E-3  -2.498225944208695E-3  
 2.014200000000000E10    2.624330748976381E-3  -2.864672224623738E-3  
 2.014400000000000E10    2.168275858563038E-3  -3.156549121931564E-3  
 2.014600000000000E10    1.759417133727744E-3  -3.388849446366048E-3  
 2.014800000000000E10    1.389526054952984E-3  -3.619831342847995E-3  
 2.015000000000000E10    9.418167030139840E-4  -3.897312571536061E-3  
 2.015200000000000E10    3.728082146277123E-4  -4.201676811517022E-3  
 2.015400000000000E10   -3.865667393166619E-4  -4.447010926396391E-3  
 2.015600000000000E10   -1.283765447119044E-3  -4.493330818037561E-3  
 2.015800000000000E10   -2.238303555152667E-3  -4.248817140857379E-3  
 2.016000000000000E10   -3.089755744799788E-3  -3.684530023163484E-3  
 2.016200000000000E10   -3.684178236182090E-3  -2.881313602290588E-3  
 2.016400000000000E10   -3.970079537894991E-3  -2.061537199619192E-3  
 2.016600000000000E10   -4.032906650761028E-3  -1.412065665203112E-3  
 2.016800000000000E10   -4.031816606674298E-3  -8.978161135872391E-4  
 2.017000000000000E10   -4.091429650599575E-3  -4.268205943114965E-4  
 2.017200000000000E10   -4.240288134710289E-3   1.231603664227468E-4  
 2.017400000000000E10   -4.340446577119975E-3   7.994348861645035E-4  
 2.017600000000000E10   -4.322202709491975E-3   1.557327607175175E-3  
 2.017800000000000E10   -4.101882067819437E-3   2.399046681131478E-3  
 2.018000000000000E10   -3.610034691698758E-3   3.220511238194175E-3  
 2.018200000000000E10   -2.859029631463834E-3   3.900947854106809E-3  
 2.018400000000000E10   -1.974120290582011E-3   4.253732241736151E-3  
 2.018600000000000E10   -1.222030493936697E-3   4.298019981770604E-3  
 2.018800000000000E10   -6.494872138352583E-4   4.284625821229485E-3  
 2.019000000000000E10   -4.485782676370654E-5   4.309060425716051E-3  
 2.019200000000000E10    6.039879894901620E-4   4.325846129637443E-3  
 2.019400000000000E10    1.286639675302546E-3   4.247880322329793E-3  
 2.019600000000000E10    1.974152554872872E-3   4.078356646875173E-3  
 2.019800000000000E10    2.690406895622059E-3   3.732315997627599E-3  
 2.020000000000000E10    3.327865777307271E-3   3.140869239966075E-3  
 2.020200000000000E10    3.743439159689495E-3   2.435890308086887E-3  
 2.020400000000000E10    3.959375335892411E-3   1.860729387075997E-3  
 2.020600000000000E10    4.171241189778588E-3   1.344587774602351E-3  
 2.020800000000000E10    4.360324783641616E-3   7.344371391989199E-4  
 2.021000000000000E10    4.491631171585602E-3   1.095421720054691E-4  
 2.021200000000000E10    4.655987133536443E-3  -5.823750315481270E-4  
 2.021400000000000E10    4.744571139231141E-3  -1.497491721328302E-3  
 2.021600000000000E10    4.493718874859222E-3  -2.549740080549210E-3  
 2.021800000000000E10    3.819232444382377E-3  -3.485414449608437E-3  
 2.022000000000000E10    2.936756985698954E-3  -4.100460576376429E-3  
 2.022200000000000E10    2.093038400980058E-3  -4.463202843189608E-3  
 2.022400000000000E10    1.252637185834716E-3  -4.677152617570060E-3  
 2.022600000000000E10    4.018942709080876E-4  -4.674898305286964E-3  
 2.022800000000000E10   -3.455354771749290E-4  -4.452692890930692E-3  
 2.023000000000000E10   -8.666199009670061E-4  -4.259054997452984E-3  
 2.023200000000000E10   -1.430945097250335E-3  -4.237657418635525E-3  
 2.023400000000000E10   -2.183275530114770E-3  -4.082028305640927E-3  
 2.023600000000000E10   -2.925983753722208E-3  -3.692161835109195E-3  
 2.023800000000000E10   -3.604049940972969E-3  -3.125044537340234E-3  
 2.024000000000000E10   -4.194443780974842E-3  -2.376867254138177E-3  
 2.024200000000000E10   -4.559457118128553E-3  -1.537447808206909E-3  
 2.024400000000000E10   -4.702291474390177E-3  -6.982396409938826E-4  
 2.024600000000000E10   -4.660609724391022E-3   1.599551200073351E-4  
 2.024800000000000E10   -4.484862175390677E-3   9.499553039118097E-4  
 2.025000000000000E10   -4.235087750180637E-3   1.687385560082341E-3  
 2.025200000000000E10   -3.872322395765855E-3   2.383166033038755E-3  
 2.025400000000000E10   -3.386289450443454E-3   3.007899869210375E-3  
 2.025600000000000E10   -2.754563422597669E-3   3.542794547055239E-3  
 2.025800000000000E10   -1.971114699924250E-3   3.935099016001196E-3  
 2.026000000000000E10   -1.193550707094004E-3   4.117031001060466E-3  
 2.026200000000000E10   -5.006299010638930E-4   4.110809967473702E-3  
 2.026400000000000E10    6.750288782684407E-5   3.983070516245970E-3  
 2.026600000000000E10    5.656978435940857E-4   3.906923251364519E-3  
 2.026800000000000E10    1.151489795266110E-3   3.843863336599352E-3  
 2.027000000000000E10    1.774292322807014E-3   3.675889031225701E-3  
 2.027200000000000E10    2.398588404312362E-3   3.401714167270213E-3  
 2.027400000000000E10    2.994418178719504E-3   2.985920673696164E-3  
 2.027600000000000E10    3.510941642072099E-3   2.395066219945381E-3  
 2.027800000000000E10    3.895128117069419E-3   1.692707703540815E-3  
 2.028000000000000E10    4.119501920577921E-3   9.726798190608806E-4  
 2.028200000000000E10    4.164197838600772E-3   2.674887184611304E-4  
 2.028400000000000E10    4.057279540754764E-3  -3.704813723653601E-4  
 2.028600000000000E10    3.960251342505217E-3  -9.535752088808813E-4  
 2.028800000000000E10    3.856743438698260E-3  -1.628802363461827E-3  
 2.029000000000000E10    3.548266176410296E-3  -2.310952536738766E-3  
 2.029200000000000E10    3.149105080713829E-3  -2.867904911392633E-3  
 2.029400000000000E10    2.684231718174286E-3  -3.389729675549416E-3  
 2.029600000000000E10    2.054616096027104E-3  -3.904261609056482E-3  
 2.029800000000000E10    1.285698178603694E-3  -4.304045684819605E-3  
 2.030000000000000E10    4.450069973245263E-4  -4.516546327022859E-3  
 2.030200000000000E10   -4.313267572685203E-4  -4.419593008258093E-3  
 2.030400000000000E10   -1.109767804370710E-3  -4.091191053804425E-3  
 2.030600000000000E10   -1.573797766648141E-3  -3.832252891619265E-3  
 2.030800000000000E10   -2.075931249922257E-3  -3.724491841700159E-3  
 2.031000000000000E10   -2.764770792751217E-3  -3.584425427870435E-3  
 2.031200000000000E10   -3.520160401814882E-3  -3.232206189200099E-3  
 2.031400000000000E10   -4.316873244803262E-3  -2.659784471846106E-3  
 2.031600000000000E10   -5.134721171616773E-3  -1.726830943004677E-3  
 2.031800000000000E10   -5.563373349744966E-3  -3.625424181752161E-4  
 2.032000000000000E10   -5.347816819716016E-3   1.013233827967427E-3  
 2.032200000000000E10   -4.734345550798340E-3   2.052483074137091E-3  
 2.032400000000000E10   -4.001557643030897E-3   2.792327265243656E-3  
 2.032600000000000E10   -3.241784203751588E-3   3.296527543024701E-3  
 2.032800000000000E10   -2.527116050506816E-3   3.579017378527809E-3  
 2.033000000000000E10   -1.930021620528014E-3   3.722037685989046E-3  
 2.033200000000000E10   -1.458821877158811E-3   3.844599978262444E-3  
 2.033400000000000E10   -9.349743306728795E-4   4.092064697617366E-3  
 2.033600000000000E10   -6.229793142676814E-4   4.257282236430013E-3  
 2.033800000000000E10    5.749604796967758E-4   4.292695139201335E-3  
 2.034000000000000E10    1.272093973203022E-3   4.069615379665738E-3  
 2.034200000000000E10    1.869641655458161E-3   3.715012231151816E-3  
 2.034400000000000E10    2.336266766773698E-3   3.341305500793237E-3  
 2.034600000000000E10    2.732253018306729E-3   3.033409102095499E-3  
 2.034800000000000E10    3.178231903915237E-3   2.766913147988143E-3  
 2.035000000000000E10    3.747599877785018E-3   2.426119038352260E-3  
 2.035200000000000E10    4.349709206755147E-3   1.825643729211556E-3  
 2.035400000000000E10    4.871000782989059E-3   9.146631741321382E-4  
 2.035600000000000E10    5.083192622771970E-3  -1.977234466643114E-4  
 2.035800000000000E10    4.875868346174191E-3  -1.259947871864072E-3  
 2.036000000000000E10    4.396429722323830E-3  -2.091041468601260E-3  
 2.036200000000000E10    3.851135232612307E-3  -2.752542306013682E-3  
 2.036400000000000E10    3.259986259595113E-3  -3.265185267262070E-3  
 2.036600000000000E10    2.696678700661402E-3  -3.617725912826481E-3  
 2.036800000000000E10    2.235257460586267E-3  -3.919334593516442E-3  
 2.037000000000000E10    1.748599099098809E-3  -4.304664031269006E-3  
 2.037200000000000E10    1.059598545256404E-3  -4.723326843461873E-3  
 2.037400000000000E10    1.970617024064133E-4  -5.054289848762163E-3  
 2.037600000000000E10   -8.060549131456627E-4  -5.183378268999082E-3  
 2.037800000000000E10   -1.872161361618819E-3  -4.987417513297664E-3  
 2.038000000000000E10   -2.859453383235284E-3  -4.502332073716839E-3  
 2.038200000000000E10   -3.659946889972982E-3  -3.729511403053264E-3  
 2.038400000000000E10   -4.130111794550847E-3  -2.904556772131244E-3  
 2.038600000000000E10   -4.411564645483907E-3  -2.208508752332426E-3  
 2.038800000000000E10   -4.688657216589761E-3  -1.566717896989926E-3  
 2.039000000000000E10   -4.959076677483541E-3  -7.895560705902080E-4  
 2.039200000000000E10   -5.146550560761014E-3   1.617100097513528E-4  
 2.039400000000000E10   -5.047457373160640E-3   1.219037384151217E-3  
 2.039600000000000E10   -4.599624549119194E-3   2.140739875167241E-3  
 2.039800000000000E10   -3.976809843960736E-3   2.839195809361560E-3  
 2.040000000000000E10   -3.292067085657224E-3   3.361740330648092E-3  
 2.040200000000000E10   -2.556466606710061E-3   3.679083091103368E-3  
 2.040400000000000E10   -1.948902473991944E-3   3.791353142141929E-3  
 2.040600000000000E10   -1.503318901760159E-3   3.882499558299229E-3  
 2.040800000000000E10   -1.102197292996686E-3   3.993660122455087E-3  
 2.041000000000000E10   -6.703188704660186E-4   4.222279845702428E-3  
 2.041200000000000E10   -7.265062828801205E-5   4.528931945700337E-3  
 2.041400000000000E10    6.816096950241907E-4   4.749914751974522E-3  
 2.041600000000000E10    1.585090475409856E-3   4.785190365150755E-3  
 2.041800000000000E10    2.596913529330014E-3   4.504338050560084E-3  
 2.042000000000000E10    3.500228615500677E-3   3.903985500657632E-3  
 2.042200000000000E10    4.191865017752589E-3   3.110703428701303E-3  
 2.042400000000000E10    4.621338334946354E-3   2.235041951392720E-3  
 2.042600000000000E10    4.832909040061045E-3   1.418821931885625E-3  
 2.042800000000000E10    4.939830925223637E-3   6.378949382687333E-4  
 2.043000000000000E10    5.009903739217991E-3  -1.776988276532517E-4  
 2.043200000000000E10    5.007449411039736E-3  -1.079687774670023E-3  
 2.043400000000000E10    4.772874365710183E-3  -2.018699153717378E-3  
 2.043600000000000E10    4.246971460726159E-3  -2.866550371694712E-3  
 2.043800000000000E10    3.551765149574222E-3  -3.504968782955850E-3  
 2.044000000000000E10    2.845709858876136E-3  -3.972331182686268E-3  
 2.044200000000000E10    2.127540355295311E-3  -4.331986994747027E-3  
 2.044400000000000E10    1.381649464702257E-3  -4.568746669884818E-3  
 2.044600000000000E10    6.696056448107149E-4  -4.657969827315322E-3  
 2.044800000000000E10   -3.222765237161960E-5  -4.696469368804017E-3  
 2.045000000000000E10   -7.857974089774086E-4  -4.750971958317139E-3  
 2.045200000000000E10   -1.657758044642339E-3  -4.740809274400458E-3  
 2.045400000000000E10   -2.675262765590976E-3  -4.446715093505236E-3  
 2.045600000000000E10   -3.626333371402673E-3  -3.725178056844959E-3  
 2.045800000000000E10   -4.243412049326265E-3  -2.736711061134199E-3  
 2.046000000000000E10   -4.495381808805246E-3  -1.678288846713618E-3  
 2.046200000000000E10   -4.452145003058293E-3  -7.634706037797402E-4  
 2.046400000000000E10   -4.287104536261824E-3  -4.735938336248913E-5  
 2.046600000000000E10   -4.043316106415458E-3   5.996214192832051E-4  
 2.046800000000000E10   -3.751746672033160E-3   1.151456168484817E-3  
 2.047000000000000E10   -3.494598557827650E-3   1.624178412991266E-3  
 2.047200000000000E10   -3.253808716473021E-3   2.080875411514699E-3  
 2.047400000000000E10   -2.898421382853463E-3   2.618949101478966E-3  
 2.047600000000000E10   -2.316146430754919E-3   3.094615782668562E-3  
 2.047800000000000E10   -1.624393608869502E-3   3.324570714921496E-3  
 2.048000000000000E10   -1.020629072481376E-3   3.357699560576384E-3  
 2.048200000000000E10   -5.928885416604901E-4   3.372977996520974E-3  
 2.048400000000000E10   -1.430348785095389E-4   3.425482209242973E-3  
 2.048600000000000E10    3.705903182429963E-4   3.426163730407019E-3  
 2.048800000000000E10    9.414442954297512E-4   3.395190862018937E-3  
 2.049000000000000E10    1.576688887988344E-3   3.257639082378628E-3  
 2.049200000000000E10    2.195020263761650E-3   2.933925305159740E-3  
 2.049400000000000E10    2.745069192584466E-3   2.462979193408916E-3  
 2.049600000000000E10    3.185299808665375E-3   1.791663039590658E-3  
 2.049800000000000E10    3.377297039454183E-3   9.891791053599232E-4  
 2.050000000000000E10    3.297624646766503E-3   1.983684389729824E-4  
 2.050200000000000E10    2.885164359561456E-3  -3.830052816659719E-4  
 2.050400000000000E10    2.474481926909016E-3  -5.663440557035768E-4  
 2.050600000000000E10    2.363120504643447E-3  -6.681211396223970E-4  
 2.050800000000000E10    2.347293304118478E-3  -9.245838765859789E-4  
 2.051000000000000E10    2.264170872944373E-3  -1.228393253835815E-3  
 2.051200000000000E10    2.181796101209375E-3  -1.522421261962549E-3  
 2.051400000000000E10    2.075944754099589E-3  -1.931683465056582E-3  
 2.051600000000000E10    1.751609175339525E-3  -2.441477142619314E-3  
 2.051800000000000E10    1.187015839357987E-3  -2.817396488454607E-3  
 2.052000000000000E10    6.073856134151604E-4  -2.942413295745666E-3  
 2.052200000000000E10    1.318669417315381E-4  -2.947958016676116E-3  
 2.052400000000000E10   -3.353812118106879E-4  -3.006881904891796E-3  
 2.052600000000000E10   -9.889543239015766E-4  -3.039816460560686E-3  
 2.052800000000000E10   -1.752719580609766E-3  -2.810053619337671E-3  
 2.053000000000000E10   -2.388518073676545E-3  -2.284955368434758E-3  
 2.053200000000000E10   -2.817426262032471E-3  -1.593257396849861E-3  
 2.053400000000000E10   -3.015534889044953E-3  -7.805206818667092E-4  
 2.053600000000000E10   -2.901539870503325E-3   4.643127536882625E-5  
 2.053800000000000E10   -2.516663754013954E-3   6.972058348495651E-4  
 2.054000000000000E10   -1.955591323268083E-3   1.067263128833823E-3  
 2.054200000000000E10   -1.380431051883433E-3   1.120456001422380E-3  
 2.054400000000000E10   -1.000592372247973E-3   9.393440631367728E-4  
 2.054600000000000E10   -9.584197469837505E-4   6.632964251804408E-4  
 2.054800000000000E10   -1.242762231727901E-3   5.682146206877574E-4  
 2.055000000000000E10   -1.544214233204171E-3   8.924774348413873E-4  
 2.055200000000000E10   -1.503025913139645E-3   1.464710230249222E-3  
 2.055400000000000E10   -1.109601281594807E-3   1.959062266209520E-3  
 2.055600000000000E10   -5.433872352170264E-4   2.232143597930302E-3  
