#  HZ   S   RI   R     50.00 
! Rohde & Schwarz ZVA40 4Ports - Version 3.90 - 1145.1110k42 SN: 100403
! Date: 2023-10-03 12:39:51
! Measurement: S12 
! 
 2.000000000000000E10    1.759811830534428E-3  -4.682594030681584E-3  
 2.000200000000000E10    9.473241925998420E-4  -5.091741525878510E-3  
 2.000400000000000E10   -3.165723346346227E-5  -5.323562495134496E-3  
 2.000600000000000E10   -1.096184869917731E-3  -5.325493385532389E-3  
 2.000800000000000E10   -2.157177569137679E-3  -5.055140531449407E-3  
 2.001000000000000E10   -3.128212264359550E-3  -4.471789942019517E-3  
 2.001200000000000E10   -3.842336186035364E-3  -3.723911087339123E-3  
 2.001400000000000E10   -4.380760231503735E-3  -3.026785794645548E-3  
 2.001600000000000E10   -4.979503892914013E-3  -2.218477311544120E-3  
 2.001800000000000E10   -5.412942781630490E-3  -1.114746109427264E-3  
 2.002000000000000E10   -5.413450662874514E-3   9.647492670747282E-5  
 2.002200000000000E10   -5.075392537508851E-3   1.220313030191594E-3  
 2.002400000000000E10   -4.552110063808936E-3   2.130600356462378E-3  
 2.002600000000000E10   -3.819540022286001E-3   2.806005680381700E-3  
 2.002800000000000E10   -3.081579494324548E-3   3.138359118666914E-3  
 2.003000000000000E10   -2.468596462643257E-3   3.346404707473186E-3  
 2.003200000000000E10   -1.926390143732230E-3   3.498073805261542E-3  
 2.003400000000000E10   -1.460958293777097E-3   3.573303024663970E-3  
 2.003600000000000E10   -1.116838099228011E-3   3.736387783040603E-3  
 2.003800000000000E10   -6.547029005122129E-4   4.072399465022265E-3  
 2.004000000000000E10    8.899410332324572E-5   4.365460257287380E-3  
 2.004200000000000E10    1.015816284861002E-3   4.397832960994156E-3  
 2.004400000000000E10    1.987778866249654E-3   4.115875465450464E-3  
 2.004600000000000E10    2.772934510614033E-3   3.482796131046834E-3  
 2.004800000000000E10    3.194216173142195E-3   2.732251667314106E-3  
 2.005000000000000E10    3.368141008885923E-3   2.113527049207025E-3  
 2.005200000000000E10    3.541776970787733E-3   1.643803535477707E-3  
 2.005400000000000E10    3.759322782840443E-3   1.182580784963513E-3  
 2.005600000000000E10    4.001634971549114E-3   6.257175474375901E-4  
 2.005800000000000E10    4.140847604031917E-3  -2.413321905165769E-5  
 2.006000000000000E10    4.186599213560975E-3  -7.291999192804927E-4  
 2.006200000000000E10    4.112621976269617E-3  -1.516716494397433E-3  
 2.006400000000000E10    3.755874854202072E-3  -2.354598517909094E-3  
 2.006600000000000E10    3.184688398269592E-3  -3.001861351852616E-3  
 2.006800000000000E10    2.516127545041619E-3  -3.422707871154503E-3  
 2.007000000000000E10    1.875448286429876E-3  -3.603182051813713E-3  
 2.007200000000000E10    1.437890477030090E-3  -3.747447428328021E-3  
 2.007400000000000E10    9.697965816249728E-4  -4.062435391393525E-3  
 2.007600000000000E10    2.484181572476195E-4  -4.355251651119304E-3  
 2.007800000000000E10   -6.304725194004951E-4  -4.441239422670117E-3  
 2.008000000000000E10   -1.527073525789160E-3  -4.274814182685481E-3  
 2.008200000000000E10   -2.349847944936267E-3  -3.888523801126415E-3  
 2.008400000000000E10   -3.066206773467087E-3  -3.303410942424779E-3  
 2.008600000000000E10   -3.565404400298442E-3  -2.551100510000079E-3  
 2.008800000000000E10   -3.815328297032803E-3  -1.790569720065428E-3  
 2.009000000000000E10   -3.894790481017144E-3  -1.078553174415397E-3  
 2.009200000000000E10   -3.850279557001260E-3  -4.680385873480528E-4  
 2.009400000000000E10   -3.834150119305209E-3  -1.665304497927770E-5  
 2.009600000000000E10   -3.906860292233803E-3   5.213433630867966E-4  
 2.009800000000000E10   -3.882297978701967E-3   1.194049035095506E-3  
 2.010000000000000E10   -3.674135569276082E-3   1.930547214147670E-3  
 2.010200000000000E10   -3.227129276772893E-3   2.544022829237360E-3  
 2.010400000000000E10   -2.738024202968788E-3   2.967517141735665E-3  
 2.010600000000000E10   -2.276124975954493E-3   3.331057227182168E-3  
 2.010800000000000E10   -1.806569104600284E-3   3.673499096529904E-3  
 2.011000000000000E10   -1.246415182120270E-3   4.010211089970890E-3  
 2.011200000000000E10   -5.670525349193702E-4   4.265027155202848E-3  
 2.011400000000000E10    1.793513202520209E-4   4.392551361686654E-3  
 2.011600000000000E10    9.700145111074328E-4   4.354955352566861E-3  
 2.011800000000000E10    1.773267837793187E-3   4.162655056764683E-3  
 2.012000000000000E10    2.568207301751331E-3   3.774383131207692E-3  
 2.012200000000000E10    3.237751407410812E-3   3.148436408351969E-3  
 2.012400000000000E10    3.673226029301684E-3   2.430266709308382E-3  
 2.012600000000000E10    3.921303035760368E-3   1.716779751910104E-3  
 2.012800000000000E10    4.054560964168222E-3   1.025252923783329E-3  
 2.013000000000000E10    4.071366248859300E-3   3.430515536348577E-4  
 2.013200000000000E10    3.966878306258609E-3  -2.839516959351454E-4  
 2.013400000000000E10    3.830503034232944E-3  -8.396496435765316E-4  
 2.013600000000000E10    3.624100246708151E-3  -1.407677178374595E-3  
 2.013800000000000E10    3.331923624500633E-3  -1.950038243430081E-3  
 2.014000000000000E10    2.918201619414268E-3  -2.417803560901020E-3  
 2.014200000000000E10    2.480217195288451E-3  -2.754146181460884E-3  
 2.014400000000000E10    2.087859609336765E-3  -2.993316027439303E-3  
 2.014600000000000E10    1.763421128055564E-3  -3.210702471228111E-3  
 2.014800000000000E10    1.416008113193567E-3  -3.504264625479226E-3  
 2.015000000000000E10    9.694955510052819E-4  -3.831488183803029E-3  
 2.015200000000000E10    4.197100519107793E-4  -4.172090320261541E-3  
 2.015400000000000E10   -3.315014629926602E-4  -4.456675783903511E-3  
 2.015600000000000E10   -1.305195485690126E-3  -4.506291028250148E-3  
 2.015800000000000E10   -2.319138290153610E-3  -4.179217783665217E-3  
 2.016000000000000E10   -3.135493922012824E-3  -3.511874557093339E-3  
 2.016200000000000E10   -3.603276468951394E-3  -2.677893240211739E-3  
 2.016400000000000E10   -3.747995606520110E-3  -1.957446440226502E-3  
 2.016600000000000E10   -3.790076166667320E-3  -1.444547562170084E-3  
 2.016800000000000E10   -3.915487754124183E-3  -1.000479678623378E-3  
 2.017000000000000E10   -4.093704072551595E-3  -5.192026750322570E-4  
 2.017200000000000E10   -4.273126850387565E-3   4.801931976948661E-5  
 2.017400000000000E10   -4.364059479148300E-3   7.136254636053411E-4  
 2.017600000000000E10   -4.347666132229346E-3   1.477862548738442E-3  
 2.017800000000000E10   -4.135410698061741E-3   2.317257260006887E-3  
 2.018000000000000E10   -3.685433176104670E-3   3.148390075053882E-3  
 2.018200000000000E10   -2.982191706973094E-3   3.833600095714685E-3  
 2.018400000000000E10   -2.127727062475902E-3   4.210603423416615E-3  
 2.018600000000000E10   -1.373627800839367E-3   4.331448529329565E-3  
 2.018800000000000E10   -7.452480926143903E-4   4.417430057569787E-3  
 2.019000000000000E10   -7.891392656515730E-5   4.502372057349594E-3  
 2.019200000000000E10    5.917503235482232E-4   4.501569688458135E-3  
 2.019400000000000E10    1.294572660871954E-3   4.424625455781267E-3  
 2.019600000000000E10    2.032327310492595E-3   4.231101402116043E-3  
 2.019800000000000E10    2.827051802779789E-3   3.839913384850931E-3  
 2.020000000000000E10    3.496617311611772E-3   3.206467721611262E-3  
 2.020200000000000E10    3.894605216811654E-3   2.483596809691301E-3  
 2.020400000000000E10    4.093116080319441E-3   1.851841660768346E-3  
 2.020600000000000E10    4.293474385997764E-3   1.247403414540545E-3  
 2.020800000000000E10    4.450151731294615E-3   6.023496798998505E-4  
 2.021000000000000E10    4.553331338145115E-3  -2.490895812351718E-5  
 2.021200000000000E10    4.688344844099549E-3  -7.205724379875595E-4  
 2.021400000000000E10    4.703517899745041E-3  -1.628372033506080E-3  
 2.021600000000000E10    4.367633343294815E-3  -2.648325343788774E-3  
 2.021800000000000E10    3.655530969370847E-3  -3.516708354086237E-3  
 2.022000000000000E10    2.811894182943636E-3  -4.048764947111961E-3  
 2.022200000000000E10    2.018313130570783E-3  -4.350871761777887E-3  
 2.022400000000000E10    1.184672815725207E-3  -4.528684748543634E-3  
 2.022600000000000E10    3.722932489364650E-4  -4.507991261090394E-3  
 2.022800000000000E10   -3.130779880814737E-4  -4.313735256868381E-3  
 2.023000000000000E10   -8.011493094575902E-4  -4.175621516036767E-3  
 2.023200000000000E10   -1.362853894803535E-3  -4.149814153573028E-3  
 2.023400000000000E10   -2.075846194876013E-3  -3.978199446228920E-3  
 2.023600000000000E10   -2.772821182454074E-3  -3.616136438385756E-3  
 2.023800000000000E10   -3.413141584368768E-3  -3.113162229527479E-3  
 2.024000000000000E10   -3.941419120464060E-3  -2.496555602798860E-3  
 2.024200000000000E10   -4.350861172295280E-3  -1.776179596264330E-3  
 2.024400000000000E10   -4.615495550549693E-3  -9.544019682194902E-4  
 2.024600000000000E10   -4.697355734943240E-3  -8.082950322811183E-5  
 2.024800000000000E10   -4.620766957049017E-3   7.767745108274675E-4  
 2.025000000000000E10   -4.398090609659752E-3   1.595332351927128E-3  
 2.025200000000000E10   -4.023820679220889E-3   2.328629967653089E-3  
 2.025400000000000E10   -3.497726654771854E-3   2.955184343995320E-3  
 2.025600000000000E10   -2.863290090182866E-3   3.508159683810340E-3  
 2.025800000000000E10   -2.145110439785101E-3   3.927237785386819E-3  
 2.026000000000000E10   -1.398245476324249E-3   4.110603041394994E-3  
 2.026200000000000E10   -6.861520017048829E-4   4.109483367453019E-3  
 2.026400000000000E10   -9.206041647336894E-5   4.031459990612887E-3  
 2.026600000000000E10    4.254454182012490E-4   4.004322371825025E-3  
 2.026800000000000E10    1.025597607992866E-3   3.979275813671175E-3  
 2.027000000000000E10    1.659860398999795E-3   3.867050857041721E-3  
 2.027200000000000E10    2.337759446904615E-3   3.618018020427338E-3  
 2.027400000000000E10    2.996338505504860E-3   3.187962505897438E-3  
 2.027600000000000E10    3.599189842740695E-3   2.591137981249227E-3  
 2.027800000000000E10    4.051764288710224E-3   1.882300694921503E-3  
 2.028000000000000E10    4.282965428299375E-3   1.098538171155033E-3  
 2.028200000000000E10    4.330501236297467E-3   3.218096061135401E-4  
 2.028400000000000E10    4.236307184867286E-3  -4.224159853981325E-4  
 2.028600000000000E10    4.075835182986878E-3  -1.094118269436337E-3  
 2.028800000000000E10    3.888118960377243E-3  -1.742029407372078E-3  
 2.029000000000000E10    3.580605800918959E-3  -2.361141697124199E-3  
 2.029200000000000E10    3.198162480084985E-3  -2.911156267617588E-3  
 2.029400000000000E10    2.722170660962110E-3  -3.493908206345859E-3  
 2.029600000000000E10    2.066350787774556E-3  -4.055930646481338E-3  
 2.029800000000000E10    1.269950272722377E-3  -4.430791604574081E-3  
 2.030000000000000E10    3.999927187881743E-4  -4.568470935164779E-3  
 2.030200000000000E10   -4.751998494612054E-4  -4.448116153340649E-3  
 2.030400000000000E10   -1.166627086974957E-3  -4.138773997072821E-3  
 2.030600000000000E10   -1.689588823528202E-3  -3.877780348476437E-3  
 2.030800000000000E10   -2.236115168435155E-3  -3.717253286460484E-3  
 2.031000000000000E10   -2.882968349796203E-3  -3.489769650278269E-3  
 2.031200000000000E10   -3.574027188329234E-3  -3.060301110424378E-3  
 2.031400000000000E10   -4.306819979791289E-3  -2.450279374089506E-3  
 2.031600000000000E10   -5.024526354477362E-3  -1.588749233633280E-3  
 2.031800000000000E10   -5.361488278679274E-3  -3.426129217216470E-4  
 2.032000000000000E10   -5.109852593806055E-3   9.256634361076135E-4  
 2.032200000000000E10   -4.562477719176700E-3   1.879673589158941E-3  
 2.032400000000000E10   -3.925477387383580E-3   2.560584840399248E-3  
 2.032600000000000E10   -3.303220875009343E-3   3.063739027345071E-3  
 2.032800000000000E10   -2.706787083297968E-3   3.402936496530419E-3  
 2.033000000000000E10   -2.147610713210371E-3   3.624872244135650E-3  
 2.033200000000000E10   -1.609621867020098E-3   3.854324334059601E-3  
 2.033400000000000E10   -1.054156608275932E-3   4.147088551824845E-3  
 2.033600000000000E10   -7.926716029437054E-4   4.289097169897071E-3  
 2.033800000000000E10    3.509889162766438E-4   4.354695203127685E-3  
 2.034000000000000E10    1.076112083090400E-3   4.204133077076188E-3  
 2.034200000000000E10    1.733030054580283E-3   3.928314118335645E-3  
 2.034400000000000E10    2.289604162797332E-3   3.621766197115735E-3  
 2.034600000000000E10    2.811758968703173E-3   3.343662134958087E-3  
 2.034800000000000E10    3.388580961014938E-3   3.041301241696433E-3  
 2.035000000000000E10    4.059984641908496E-3   2.531565975880733E-3  
 2.035200000000000E10    4.712922619310795E-3   1.778575350288992E-3  
 2.035400000000000E10    5.220647021714184E-3   7.606551171866833E-4  
 2.035600000000000E10    5.317862249082990E-3  -4.378613621493397E-4  
 2.035800000000000E10    4.966087070190245E-3  -1.552162661769048E-3  
 2.036000000000000E10    4.370175871170230E-3  -2.395502403723421E-3  
 2.036200000000000E10    3.753562897650732E-3  -3.005330312859130E-3  
 2.036400000000000E10    3.120447414133836E-3  -3.468865865013666E-3  
 2.036600000000000E10    2.556313372527560E-3  -3.785330095086937E-3  
 2.036800000000000E10    2.045454422908801E-3  -4.048039869370836E-3  
 2.037000000000000E10    1.455738079837627E-3  -4.389538809105203E-3  
 2.037200000000000E10    7.375451839632459E-4  -4.725765350654171E-3  
 2.037400000000000E10   -4.205513081008877E-5  -4.922871374421651E-3  
 2.037600000000000E10   -8.985872479604075E-4  -4.967029792843043E-3  
 2.037800000000000E10   -1.843682886963642E-3  -4.791009791747288E-3  
 2.038000000000000E10   -2.738947298860660E-3  -4.388452317841627E-3  
 2.038200000000000E10   -3.508544906421944E-3  -3.737946722173581E-3  
 2.038400000000000E10   -4.033804258883552E-3  -3.009233166705128E-3  
 2.038600000000000E10   -4.379684398709624E-3  -2.329522890418216E-3  
 2.038800000000000E10   -4.680423462694443E-3  -1.621026269815586E-3  
 2.039000000000000E10   -4.987434760012009E-3  -8.065847257428148E-4  
 2.039200000000000E10   -5.180582662837373E-3   1.142117945602406E-4  
 2.039400000000000E10   -5.088707966798986E-3   1.128628746502929E-3  
 2.039600000000000E10   -4.679286076376836E-3   2.012742252123577E-3  
 2.039800000000000E10   -4.144508736553016E-3   2.747681397185834E-3  
 2.040000000000000E10   -3.514395233381679E-3   3.361824287653522E-3  
 2.040200000000000E10   -2.772320053298717E-3   3.777806405667906E-3  
 2.040400000000000E10   -2.131779747152771E-3   3.971196159168527E-3  
 2.040600000000000E10   -1.590980704080452E-3   4.092260919235371E-3  
 2.040800000000000E10   -1.077253574126021E-3   4.228446218702529E-3  
 2.041000000000000E10   -5.570281118033799E-4   4.474840765060099E-3  
 2.041200000000000E10    1.030093979487126E-4   4.758699555639868E-3  
 2.041400000000000E10    9.107314809053033E-4   4.910400464992833E-3  
 2.041600000000000E10    1.853698709358772E-3   4.848172163797750E-3  
 2.041800000000000E10    2.875128441869661E-3   4.484081502865863E-3  
 2.042000000000000E10    3.752289978028448E-3   3.827489291628202E-3  
 2.042200000000000E10    4.421206605103281E-3   3.014765395265487E-3  
 2.042400000000000E10    4.842794379564348E-3   2.109620711524730E-3  
 2.042600000000000E10    5.020550641886615E-3   1.190753519983480E-3  
 2.042800000000000E10    5.069308483076317E-3   2.894091706964362E-4  
 2.043000000000000E10    5.029916711565522E-3  -5.910290713439249E-4  
 2.043200000000000E10    4.863752742056494E-3  -1.451595095676129E-3  
 2.043400000000000E10    4.511623505364966E-3  -2.273355351967944E-3  
 2.043600000000000E10    3.945856182663530E-3  -3.009116208111799E-3  
 2.043800000000000E10    3.251249781223359E-3  -3.552152939071810E-3  
 2.044000000000000E10    2.558808644405670E-3  -3.926620663454136E-3  
 2.044200000000000E10    1.898627624743515E-3  -4.202637510995070E-3  
 2.044400000000000E10    1.230675071753838E-3  -4.326023627072573E-3  
 2.044600000000000E10    6.147820687921787E-4  -4.387661004094063E-3  
 2.044800000000000E10   -2.596672156532470E-5  -4.503265161205222E-3  
 2.045000000000000E10   -7.492801653117771E-4  -4.609545554827762E-3  
 2.045200000000000E10   -1.579642614901618E-3  -4.624645329184003E-3  
 2.045400000000000E10   -2.580060511482535E-3  -4.364645125827304E-3  
 2.045600000000000E10   -3.557132798488493E-3  -3.673723519400314E-3  
 2.045800000000000E10   -4.198492228708886E-3  -2.689818549832261E-3  
 2.046000000000000E10   -4.469791599721821E-3  -1.661906760461905E-3  
 2.046200000000000E10   -4.415932577103376E-3  -7.484311914864791E-4  
 2.046400000000000E10   -4.196062390865000E-3  -3.352430239492267E-5  
 2.046600000000000E10   -3.959191221467875E-3   6.054422098073971E-4  
 2.046800000000000E10   -3.690174815279466E-3   1.153467098009531E-3  
 2.047000000000000E10   -3.442806433196421E-3   1.607937932324907E-3  
 2.047200000000000E10   -3.173490968981276E-3   2.072312075782705E-3  
 2.047400000000000E10   -2.772919643946268E-3   2.582748843081020E-3  
 2.047600000000000E10   -2.211268508323917E-3   3.004104528507149E-3  
 2.047800000000000E10   -1.595072224046345E-3   3.214063105621824E-3  
 2.048000000000000E10   -1.103988055277754E-3   3.266805808784233E-3  
 2.048200000000000E10   -7.465446316119698E-4   3.304782892680831E-3  
 2.048400000000000E10   -3.291009170762091E-4   3.423698272349107E-3  
 2.048600000000000E10    2.217535867304024E-4   3.543985455676362E-3  
 2.048800000000000E10    8.697832559442357E-4   3.599644914545396E-3  
 2.049000000000000E10    1.588388548784510E-3   3.478378281687146E-3  
 2.049200000000000E10    2.276476800303769E-3   3.098275943624753E-3  
 2.049400000000000E10    2.881581386275314E-3   2.547176235734865E-3  
 2.049600000000000E10    3.338452963227476E-3   1.807880919875095E-3  
 2.049800000000000E10    3.520745671940623E-3   9.644101028917013E-4  
 2.050000000000000E10    3.391273612915366E-3   1.841683454889183E-4  
 2.050200000000000E10    2.987192486654277E-3  -3.802877639558304E-4  
 2.050400000000000E10    2.604015188774577E-3  -6.123869852335366E-4  
 2.050600000000000E10    2.500126785081294E-3  -7.643398841739530E-4  
 2.050800000000000E10    2.501846101410963E-3  -1.079783723172214E-3  
 2.051000000000000E10    2.349725467394348E-3  -1.477800529553659E-3  
 2.051200000000000E10    2.102616363791404E-3  -1.816108348537927E-3  
 2.051400000000000E10    1.840880593388445E-3  -2.173888798872078E-3  
 2.051600000000000E10    1.444867251578857E-3  -2.565342588005243E-3  
 2.051800000000000E10    8.957631092656544E-4  -2.830169836266174E-3  
 2.052000000000000E10    3.869706782063953E-4  -2.869769896346111E-3  
 2.052200000000000E10   -4.229184209921017E-5  -2.866637582580249E-3  
 2.052400000000000E10   -5.124719410324125E-4  -2.917689573088730E-3  
 2.052600000000000E10   -1.150992030657276E-3  -2.918928085515897E-3  
 2.052800000000000E10   -1.888645502428214E-3  -2.636392471484012E-3  
 2.053000000000000E10   -2.459375075650988E-3  -2.038374202567394E-3  
 2.053200000000000E10   -2.802395279070846E-3  -1.299564123015713E-3  
 2.053400000000000E10   -2.858598138792096E-3  -4.977892666054822E-4  
 2.053600000000000E10   -2.618702404476979E-3   2.379278658837494E-4  
 2.053800000000000E10   -2.183457008666463E-3   7.247291160402475E-4  
 2.054000000000000E10   -1.664896495640278E-3   9.485226710913359E-4  
 2.054200000000000E10   -1.217944896779954E-3   9.198311837045133E-4  
 2.054400000000000E10   -9.840977059125350E-4   7.415356144688473E-4  
 2.054600000000000E10   -1.014874881581852E-3   5.335868271585141E-4  
 2.054800000000000E10   -1.285799947153363E-3   4.923156121987161E-4  
 2.055000000000000E10   -1.549423818855926E-3   8.268538146728168E-4  
 2.055200000000000E10   -1.508728156935562E-3   1.383618667238841E-3  
 2.055400000000000E10   -1.169087632593734E-3   1.880720425914560E-3  
 2.055600000000000E10   -6.481716236858457E-4   2.203210429460915E-3  
