#  HZ   S   RI   R     50.00 
! Rohde & Schwarz ZVA40 4Ports - Version 3.90 - 1145.1110k42 SN: 100403
! Date: 2023-10-03 12:40:28
! Measurement: S12 
! 
 2.000000000000000E10    2.032400379072369E-3  -4.566790840737982E-3  
 2.000200000000000E10    1.236858301979984E-3  -5.049448201639785E-3  
 2.000400000000000E10    2.957261595041434E-4  -5.352470184457892E-3  
 2.000600000000000E10   -7.272394119623913E-4  -5.437468925927893E-3  
 2.000800000000000E10   -1.796269361044706E-3  -5.262538554997725E-3  
 2.001000000000000E10   -2.806733661319739E-3  -4.788691425167117E-3  
 2.001200000000000E10   -3.600197001992737E-3  -4.172165613667465E-3  
 2.001400000000000E10   -4.345462094118567E-3  -3.583722908831673E-3  
 2.001600000000000E10   -5.174606664819115E-3  -2.742460405706992E-3  
 2.001800000000000E10   -5.753509441597595E-3  -1.471257399204245E-3  
 2.002000000000000E10   -5.774772812232928E-3  -6.531705762034018E-5  
 2.002200000000000E10   -5.403461204956711E-3   1.182302319513703E-3  
 2.002400000000000E10   -4.870333185672393E-3   2.168911417233355E-3  
 2.002600000000000E10   -4.078815829146792E-3   2.926292553268098E-3  
 2.002800000000000E10   -3.256872302082219E-3   3.356444793120947E-3  
 2.003000000000000E10   -2.511738756395601E-3   3.628371576606124E-3  
 2.003200000000000E10   -1.828099130997779E-3   3.731716067794665E-3  
 2.003400000000000E10   -1.317940081791653E-3   3.685138685582781E-3  
 2.003600000000000E10   -1.004483121056340E-3   3.721822136553166E-3  
 2.003800000000000E10   -6.092159260052866E-4   3.986261583818699E-3  
 2.004000000000000E10    5.411068473166116E-5   4.251281092702239E-3  
 2.004200000000000E10    9.010655799719656E-4   4.315578746666880E-3  
 2.004400000000000E10    1.793900156899551E-3   4.087966665579582E-3  
 2.004600000000000E10    2.528973990177483E-3   3.522800971512442E-3  
 2.004800000000000E10    2.939546828583619E-3   2.854387982989903E-3  
 2.005000000000000E10    3.140198098449612E-3   2.325808531662196E-3  
 2.005200000000000E10    3.359622092066725E-3   1.936796906024770E-3  
 2.005400000000000E10    3.598637033805804E-3   1.545747826853192E-3  
 2.005600000000000E10    3.865052589479789E-3   1.104696171593933E-3  
 2.005800000000000E10    4.119230359562754E-3   5.809972019590162E-4  
 2.006000000000000E10    4.384768758842975E-3  -6.929912099925177E-5  
 2.006200000000000E10    4.548471139307008E-3  -9.154536082972716E-4  
 2.006400000000000E10    4.385639694921765E-3  -1.862247345141239E-3  
 2.006600000000000E10    3.943510824975409E-3  -2.701886170716198E-3  
 2.006800000000000E10    3.314357765455858E-3  -3.350625584982796E-3  
 2.007000000000000E10    2.677339499954272E-3  -3.736285533020158E-3  
 2.007200000000000E10    2.212169399071071E-3  -4.093622507090554E-3  
 2.007400000000000E10    1.674007959261445E-3  -4.617102973071146E-3  
 2.007600000000000E10    7.826522884482267E-4  -5.094382233549784E-3  
 2.007800000000000E10   -3.314995178417447E-4  -5.274180736806658E-3  
 2.008000000000000E10   -1.423865680318372E-3  -5.137625046902234E-3  
 2.008200000000000E10   -2.424897945106582E-3  -4.756391979753971E-3  
 2.008400000000000E10   -3.335546207740720E-3  -4.136497192199768E-3  
 2.008600000000000E10   -4.013260107855371E-3  -3.254315295590111E-3  
 2.008800000000000E10   -4.371836574541198E-3  -2.356684766709805E-3  
 2.009000000000000E10   -4.535064365668798E-3  -1.530575910928073E-3  
 2.009200000000000E10   -4.552095593815602E-3  -8.022112758933671E-4  
 2.009400000000000E10   -4.570459205381297E-3  -2.268463384682014E-4  
 2.009600000000000E10   -4.641628973645930E-3   4.749522180825382E-4  
 2.009800000000000E10   -4.609214130467104E-3   1.307562166784695E-3  
 2.010000000000000E10   -4.332489339795746E-3   2.207289613714373E-3  
 2.010200000000000E10   -3.765682600737539E-3   2.931988798081876E-3  
 2.010400000000000E10   -3.138330365519649E-3   3.428583619771181E-3  
 2.010600000000000E10   -2.522493896568999E-3   3.816981601563318E-3  
 2.010800000000000E10   -1.944753459229330E-3   4.160193755164927E-3  
 2.011000000000000E10   -1.279117841342533E-3   4.480920778012570E-3  
 2.011200000000000E10   -5.243686151785638E-4   4.676634704487192E-3  
 2.011400000000000E10    2.709719557947492E-4   4.716154308644711E-3  
 2.011600000000000E10    1.101167437068566E-3   4.638472077563222E-3  
 2.011800000000000E10    1.930138515883390E-3   4.447463526172035E-3  
 2.012000000000000E10    2.751186912603401E-3   4.075795107371646E-3  
 2.012200000000000E10    3.464453215538352E-3   3.427393579234681E-3  
 2.012400000000000E10    3.936186369600489E-3   2.656031172883547E-3  
 2.012600000000000E10    4.238093277600445E-3   1.896096275613448E-3  
 2.012800000000000E10    4.429082190732897E-3   1.157156431783037E-3  
 2.013000000000000E10    4.476759306810521E-3   4.082509822407623E-4  
 2.013200000000000E10    4.318695112970877E-3  -2.647269961645506E-4  
 2.013400000000000E10    4.144199755916626E-3  -8.266467376853582E-4  
 2.013600000000000E10    4.004732653912571E-3  -1.419673679557480E-3  
 2.013800000000000E10    3.797410084739512E-3  -2.026102703961510E-3  
 2.014000000000000E10    3.429175138956419E-3  -2.590676260836147E-3  
 2.014200000000000E10    2.953949010712497E-3  -3.039507732876106E-3  
 2.014400000000000E10    2.450034945030456E-3  -3.379370813131517E-3  
 2.014600000000000E10    1.982306693623096E-3  -3.659722311882142E-3  
 2.014800000000000E10    1.546885750693396E-3  -3.955379065218164E-3  
 2.015000000000000E10    1.062320714908434E-3  -4.261453595748287E-3  
 2.015200000000000E10    4.564575911327093E-4  -4.553852459116851E-3  
 2.015400000000000E10   -3.363539212897858E-4  -4.776064875639148E-3  
 2.015600000000000E10   -1.301678101658638E-3  -4.844903853940376E-3  
 2.015800000000000E10   -2.332921733470335E-3  -4.604216555800336E-3  
 2.016000000000000E10   -3.231992516781629E-3  -4.004387547158534E-3  
 2.016200000000000E10   -3.860413671735629E-3  -3.168628855757876E-3  
 2.016400000000000E10   -4.211638111299204E-3  -2.325997644759439E-3  
 2.016600000000000E10   -4.382230950818387E-3  -1.582255877301465E-3  
 2.016800000000000E10   -4.442200294615311E-3  -9.282481077667557E-4  
 2.017000000000000E10   -4.475026374199877E-3  -3.668631525440027E-4  
 2.017200000000000E10   -4.550307718921959E-3   2.428546079353971E-4  
 2.017400000000000E10   -4.587791612900702E-3   9.717915895578946E-4  
 2.017600000000000E10   -4.519785144998704E-3   1.788621883333466E-3  
 2.017800000000000E10   -4.236047259635396E-3   2.673910160399514E-3  
 2.018000000000000E10   -3.616957965502401E-3   3.504444442597437E-3  
 2.018200000000000E10   -2.765258245262099E-3   4.103428787655301E-3  
 2.018400000000000E10   -1.824307094477577E-3   4.387749347513841E-3  
 2.018600000000000E10   -1.050815059527479E-3   4.390945008461491E-3  
 2.018800000000000E10   -4.820044376645928E-4   4.355113418703831E-3  
 2.019000000000000E10    9.768767092652899E-5   4.323239237024094E-3  
 2.019200000000000E10    7.092122658282335E-4   4.254172360639514E-3  
 2.019400000000000E10    1.332503841201097E-3   4.171083842254716E-3  
 2.019600000000000E10    1.975113024394729E-3   4.046566358962913E-3  
 2.019800000000000E10    2.682100625041827E-3   3.758442283458548E-3  
 2.020000000000000E10    3.339328024145447E-3   3.212710276223076E-3  
 2.020200000000000E10    3.791099946003086E-3   2.501477498883083E-3  
 2.020400000000000E10    4.040971277626577E-3   1.860387236696243E-3  
 2.020600000000000E10    4.280949643824572E-3   1.309316954575479E-3  
 2.020800000000000E10    4.497897587026712E-3   6.980592259895747E-4  
 2.021000000000000E10    4.618298561300761E-3   4.485409064929830E-5  
 2.021200000000000E10    4.745033615625199E-3  -6.985284063252219E-4  
 2.021400000000000E10    4.783080833285680E-3  -1.609928218969777E-3  
 2.021600000000000E10    4.542320558548342E-3  -2.622298309924426E-3  
 2.021800000000000E10    3.907816228744241E-3  -3.546527903067110E-3  
 2.022000000000000E10    3.058680315950403E-3  -4.198771343784937E-3  
 2.022200000000000E10    2.168425272598311E-3  -4.633104382657712E-3  
 2.022400000000000E10    1.206076169317520E-3  -4.885060609214837E-3  
 2.022600000000000E10    2.824285064114655E-4  -4.884036252114141E-3  
 2.022800000000000E10   -5.040432712390881E-4  -4.640197191663363E-3  
 2.023000000000000E10   -1.086061107523648E-3  -4.368300015037812E-3  
 2.023200000000000E10   -1.664127527885599E-3  -4.220183392595731E-3  
 2.023400000000000E10   -2.356023858243853E-3  -3.998954458461133E-3  
 2.023600000000000E10   -3.000713617506403E-3  -3.617205294883914E-3  
 2.023800000000000E10   -3.604969239713234E-3  -3.119920098717199E-3  
 2.024000000000000E10   -4.170406115367825E-3  -2.450098249095458E-3  
 2.024200000000000E10   -4.608972664968468E-3  -1.643034327706253E-3  
 2.024400000000000E10   -4.879695788761716E-3  -7.645754017119791E-4  
 2.024600000000000E10   -4.922816317160557E-3   1.676209914741641E-4  
 2.024800000000000E10   -4.716546332210671E-3   1.076251187902174E-3  
 2.025000000000000E10   -4.369544353979973E-3   1.901888578877221E-3  
 2.025200000000000E10   -3.940796307115644E-3   2.607972039208736E-3  
 2.025400000000000E10   -3.415900101471279E-3   3.209776842943681E-3  
 2.025600000000000E10   -2.774889394066032E-3   3.736946780671492E-3  
 2.025800000000000E10   -1.960463206755159E-3   4.136093719689935E-3  
 2.026000000000000E10   -1.116294752990390E-3   4.281816486683157E-3  
 2.026200000000000E10   -3.516653561274763E-4   4.248042504682586E-3  
 2.026400000000000E10    2.443017647237866E-4   4.105135798454285E-3  
 2.026600000000000E10    7.396799872951284E-4   3.961490467190743E-3  
 2.026800000000000E10    1.292542219564411E-3   3.817876887128309E-3  
 2.027000000000000E10    1.877502052481344E-3   3.643051106022833E-3  
 2.027200000000000E10    2.494876957096068E-3   3.387579797870584E-3  
 2.027400000000000E10    3.080730217244523E-3   2.994198561933490E-3  
 2.027600000000000E10    3.602711682173390E-3   2.441350083200285E-3  
 2.027800000000000E10    4.020536904809653E-3   1.750179243067073E-3  
 2.028000000000000E10    4.270136845010666E-3   9.566511136744128E-4  
 2.028200000000000E10    4.325871390325052E-3   1.826623771239049E-4  
 2.028400000000000E10    4.213479387769361E-3  -4.622989875281713E-4  
 2.028600000000000E10    4.079813062914729E-3  -9.975592421804683E-4  
 2.028800000000000E10    4.000593361985170E-3  -1.642406193746461E-3  
 2.029000000000000E10    3.783961459074492E-3  -2.363334809441442E-3  
 2.029200000000000E10    3.460811315978200E-3  -3.046642103588876E-3  
 2.029400000000000E10    2.984812049149180E-3  -3.719685363502783E-3  
 2.029600000000000E10    2.258019027426656E-3  -4.319349165867877E-3  
 2.029800000000000E10    1.366877333364553E-3  -4.738967331057347E-3  
 2.030000000000000E10    3.971455085707864E-4  -4.959130326262964E-3  
 2.030200000000000E10   -5.871375546974626E-4  -4.887976741165291E-3  
 2.030400000000000E10   -1.357973261483382E-3  -4.538947400165562E-3  
 2.030600000000000E10   -1.931366019157900E-3  -4.179242394726586E-3  
 2.030800000000000E10   -2.499922155690047E-3  -3.961783158305435E-3  
 2.031000000000000E10   -3.209373235334585E-3  -3.738548094981615E-3  
 2.031200000000000E10   -3.998239927085831E-3  -3.317408427527106E-3  
 2.031400000000000E10   -4.810704999131922E-3  -2.650932296765624E-3  
 2.031600000000000E10   -5.596975738435617E-3  -1.633240597000645E-3  
 2.031800000000000E10   -5.998822716697133E-3  -1.366124709386862E-4  
 2.032000000000000E10   -5.728091142013855E-3   1.396789074656956E-3  
 2.032200000000000E10   -5.016899018054024E-3   2.545848885482109E-3  
 2.032400000000000E10   -4.077636746022805E-3   3.349648874804930E-3  
 2.032600000000000E10   -3.075774879781185E-3   3.825711865369001E-3  
 2.032800000000000E10   -2.191747685342475E-3   3.983603011425816E-3  
 2.033000000000000E10   -1.529152210468404E-3   3.960940972499458E-3  
 2.033200000000000E10   -1.045733772183734E-3   3.918024219779505E-3  
 2.033400000000000E10   -6.031834679931679E-4   4.010126552326077E-3  
 2.033600000000000E10   -3.818198866936678E-4   4.089453280615954E-3  
 2.033800000000000E10    7.078018564771127E-4   4.076563712945324E-3  
 2.034000000000000E10    1.373588515698542E-3   3.921124825461044E-3  
 2.034200000000000E10    1.979348337404247E-3   3.575679756999937E-3  
 2.034400000000000E10    2.440527205091016E-3   3.116064360020338E-3  
 2.034600000000000E10    2.777052747177673E-3   2.720412326815688E-3  
 2.034800000000000E10    3.126309247526491E-3   2.417440710152373E-3  
 2.035000000000000E10    3.556128556805629E-3   2.110247140934254E-3  
 2.035200000000000E10    4.069437876481702E-3   1.648650848145746E-3  
 2.035400000000000E10    4.583930119550155E-3   8.738265461920773E-4  
 2.035600000000000E10    4.825863705511079E-3  -1.716177970211217E-4  
 2.035800000000000E10    4.660190376280635E-3  -1.236221498671781E-3  
 2.036000000000000E10    4.223994082874723E-3  -2.054116139648322E-3  
 2.036200000000000E10    3.684410106758645E-3  -2.698017988514937E-3  
 2.036400000000000E10    3.067155265145832E-3  -3.198767802390604E-3  
 2.036600000000000E10    2.533941684911649E-3  -3.528298332965301E-3  
 2.036800000000000E10    2.094360863226524E-3  -3.840280311573068E-3  
 2.037000000000000E10    1.606453547863589E-3  -4.249820465589932E-3  
 2.037200000000000E10    9.406368667834705E-4  -4.632203086612770E-3  
 2.037400000000000E10    1.122123985960908E-4  -4.918722441580929E-3  
 2.037600000000000E10   -8.846420304631286E-4  -5.030723725572045E-3  
 2.037800000000000E10   -1.929132864281627E-3  -4.869922558650559E-3  
 2.038000000000000E10   -2.866246636933935E-3  -4.413265522201489E-3  
 2.038200000000000E10   -3.663206596594350E-3  -3.690375624523487E-3  
 2.038400000000000E10   -4.215134664174216E-3  -2.882790357955261E-3  
 2.038600000000000E10   -4.589273232138820E-3  -2.136293516988740E-3  
 2.038800000000000E10   -4.896838505418949E-3  -1.382700664876604E-3  
 2.039000000000000E10   -5.120754989300981E-3  -5.344673495360271E-4  
 2.039200000000000E10   -5.207131536286555E-3   4.185242876611697E-4  
 2.039400000000000E10   -5.046299302283629E-3   1.485359143569238E-3  
 2.039600000000000E10   -4.588939519714059E-3   2.450450383885592E-3  
 2.039800000000000E10   -3.941690097965393E-3   3.165881344933569E-3  
 2.040000000000000E10   -3.191673676885757E-3   3.671484329611248E-3  
 2.040200000000000E10   -2.387859763715554E-3   4.013272600225461E-3  
 2.040400000000000E10   -1.669744848860083E-3   4.135710463203766E-3  
 2.040600000000000E10   -1.099857533304596E-3   4.156244303571222E-3  
 2.040800000000000E10   -6.480432930402458E-4   4.142938118519976E-3  
 2.041000000000000E10   -2.532160925724901E-4   4.238395198581764E-3  
 2.041200000000000E10    2.838910570264690E-4   4.447226464334462E-3  
 2.041400000000000E10    1.039706107320977E-3   4.622064513602743E-3  
 2.041600000000000E10    1.945950464563974E-3   4.635024114431423E-3  
 2.041800000000000E10    2.912384891928531E-3   4.297589130101749E-3  
 2.042000000000000E10    3.759307901800415E-3   3.627169572598773E-3  
 2.042200000000000E10    4.381736338046598E-3   2.773806346396422E-3  
 2.042400000000000E10    4.740543151849215E-3   1.898521314559068E-3  
 2.042600000000000E10    4.913120036139901E-3   1.108750213012330E-3  
 2.042800000000000E10    5.027795670393073E-3   3.572210770482658E-4  
 2.043000000000000E10    5.097147496992057E-3  -4.891443503215725E-4  
 2.043200000000000E10    5.002301623239930E-3  -1.464513343195489E-3  
 2.043400000000000E10    4.666992187224053E-3  -2.459030397190356E-3  
 2.043600000000000E10    4.065208033555085E-3  -3.291942547132940E-3  
 2.043800000000000E10    3.249264655657757E-3  -3.877719801011277E-3  
 2.044000000000000E10    2.422102836225136E-3  -4.240601260307028E-3  
 2.044200000000000E10    1.649705300762974E-3  -4.473661952134636E-3  
 2.044400000000000E10    9.051720061293449E-4  -4.580437171238441E-3  
 2.044600000000000E10    2.288152625871231E-4  -4.561308949587890E-3  
 2.044800000000000E10   -4.110493194915492E-4  -4.480233726402124E-3  
 2.045000000000000E10   -1.031124222747706E-3  -4.418375361480832E-3  
 2.045200000000000E10   -1.767441121585391E-3  -4.405703878513089E-3  
 2.045400000000000E10   -2.719639682636401E-3  -4.210492084377711E-3  
 2.045600000000000E10   -3.633853967910932E-3  -3.546115686473104E-3  
 2.045800000000000E10   -4.240846290126627E-3  -2.579246532677869E-3  
 2.046000000000000E10   -4.507700176794588E-3  -1.544514479816972E-3  
 2.046200000000000E10   -4.449379756862736E-3  -6.216294592085445E-4  
 2.046400000000000E10   -4.245605348482912E-3   8.411046992814927E-5  
 2.046600000000000E10   -3.972525590524814E-3   6.893006322997405E-4  
 2.046800000000000E10   -3.669587717058115E-3   1.163881750673884E-3  
 2.047000000000000E10   -3.419011581206212E-3   1.610604961356723E-3  
 2.047200000000000E10   -3.187897298944954E-3   2.074930653045023E-3  
 2.047400000000000E10   -2.865620632943365E-3   2.575345903658021E-3  
 2.047600000000000E10   -2.325916993374258E-3   3.002077924593548E-3  
 2.047800000000000E10   -1.697745421372446E-3   3.237235842755547E-3  
 2.048000000000000E10   -1.181736694832827E-3   3.327961065404026E-3  
 2.048200000000000E10   -7.622844559703897E-4   3.441877913212888E-3  
 2.048400000000000E10   -2.695925042958769E-4   3.560150384236082E-3  
 2.048600000000000E10    2.771845169330913E-4   3.556772169691545E-3  
 2.048800000000000E10    8.137387419004501E-4   3.518281102088499E-3  
 2.049000000000000E10    1.450141801291870E-3   3.426107256040898E-3  
 2.049200000000000E10    2.141303158606644E-3   3.171926119974182E-3  
 2.049400000000000E10    2.788018392123007E-3   2.720458933186752E-3  
 2.049600000000000E10    3.318497140742379E-3   1.960470254912421E-3  
 2.049800000000000E10    3.537686400828354E-3   1.037251317793113E-3  
 2.050000000000000E10    3.409742544416661E-3   1.820355140313759E-4  
 2.050200000000000E10    2.937593753162174E-3  -4.340314337219124E-4  
 2.050400000000000E10    2.448987278995323E-3  -5.948260059310009E-4  
 2.050600000000000E10    2.272833383032753E-3  -5.952226950924983E-4  
 2.050800000000000E10    2.278132553867720E-3  -7.629875793627660E-4  
 2.051000000000000E10    2.257749622250781E-3  -1.035228289698285E-3  
 2.051200000000000E10    2.260953001103100E-3  -1.329447513584186E-3  
 2.051400000000000E10    2.211906823594078E-3  -1.763960381072981E-3  
 2.051600000000000E10    1.930563092622676E-3  -2.319253136024431E-3  
 2.051800000000000E10    1.387905158435949E-3  -2.777793640155852E-3  
 2.052000000000000E10    7.724112674398465E-4  -2.983208228316573E-3  
 2.052200000000000E10    2.449146233607561E-4  -3.034919051936379E-3  
 2.052400000000000E10   -2.440597030569880E-4  -3.092786742742232E-3  
 2.052600000000000E10   -9.061656029963936E-4  -3.106592872674451E-3  
 2.052800000000000E10   -1.705820840369496E-3  -2.856686329009173E-3  
 2.053000000000000E10   -2.387791248268368E-3  -2.305454939580811E-3  
 2.053200000000000E10   -2.791697400863524E-3  -1.559905824251473E-3  
 2.053400000000000E10   -2.905241233860085E-3  -7.270618139214263E-4  
 2.053600000000000E10   -2.746870315829177E-3   3.320755849141099E-5  
 2.053800000000000E10   -2.379843255183028E-3   6.080280585547933E-4  
 2.054000000000000E10   -1.890173128714072E-3   9.511481412904867E-4  
 2.054200000000000E10   -1.388416779342533E-3   1.025040134540357E-3  
 2.054400000000000E10   -1.026097529159606E-3   8.745635026077063E-4  
 2.054600000000000E10   -9.351163401187940E-4   6.282668388994803E-4  
 2.054800000000000E10   -1.193079914909178E-3   5.325328522393435E-4  
 2.055000000000000E10   -1.507720744731710E-3   8.466279229011251E-4  
 2.055200000000000E10   -1.478997578005088E-3   1.380192150396330E-3  
 2.055400000000000E10   -1.121367904196643E-3   1.859987473667220E-3  
 2.055600000000000E10   -6.012698595216614E-4   2.169966171668084E-3  
