#  HZ   S   RI   R     50.00 
! Rohde & Schwarz ZVA40 4Ports - Version 3.90 - 1145.1110k42 SN: 100403
! Date: 2023-10-03 12:41:05
! Measurement: S12 
! 
 2.000000000000000E10    1.715073374927872E-3  -4.460387087116639E-3  
 2.000200000000000E10    9.680912315408574E-4  -4.810767121796991E-3  
 2.000400000000000E10    9.406630205275078E-5  -5.010074659906052E-3  
 2.000600000000000E10   -8.414422376023861E-4  -5.005754438447365E-3  
 2.000800000000000E10   -1.745619430252708E-3  -4.793278585521528E-3  
 2.001000000000000E10   -2.620333532607298E-3  -4.354548335857231E-3  
 2.001200000000000E10   -3.315438941856962E-3  -3.781739142320959E-3  
 2.001400000000000E10   -3.928676448808409E-3  -3.244068620174572E-3  
 2.001600000000000E10   -4.613430854393009E-3  -2.540708556886257E-3  
 2.001800000000000E10   -5.124827818140204E-3  -1.499290560820589E-3  
 2.002000000000000E10   -5.205395390038138E-3  -3.305531971380805E-4  
 2.002200000000000E10   -4.969135708647010E-3   7.274457401550019E-4  
 2.002400000000000E10   -4.579709940532476E-3   1.587206358377489E-3  
 2.002600000000000E10   -4.033884970632233E-3   2.253028176104029E-3  
 2.002800000000000E10   -3.475661452767658E-3   2.693941626973727E-3  
 2.003000000000000E10   -2.937701292175019E-3   3.083775233891276E-3  
 2.003200000000000E10   -2.398980008208274E-3   3.383325841162860E-3  
 2.003400000000000E10   -1.951144329835604E-3   3.579418841795422E-3  
 2.003600000000000E10   -1.600629292187040E-3   3.849321384166862E-3  
 2.003800000000000E10   -1.095823585745637E-3   4.276629042938168E-3  
 2.004000000000000E10   -2.966033658415171E-4   4.653220220158498E-3  
 2.004200000000000E10    7.094106979001270E-4   4.746628689499182E-3  
 2.004400000000000E10    1.726577782796489E-3   4.499879866884447E-3  
 2.004600000000000E10    2.531211662255688E-3   3.921102364490062E-3  
 2.004800000000000E10    2.999199111658483E-3   3.235092846515739E-3  
 2.005000000000000E10    3.298543761541815E-3   2.681355196177776E-3  
 2.005200000000000E10    3.642962173340314E-3   2.221295328373895E-3  
 2.005400000000000E10    3.980557641221418E-3   1.703030092032328E-3  
 2.005600000000000E10    4.273870959877968E-3   1.087585538855674E-3  
 2.005800000000000E10    4.477814943702133E-3   3.809696631103662E-4  
 2.006000000000000E10    4.600753938710249E-3  -3.828578732798543E-4  
 2.006200000000000E10    4.607349714655200E-3  -1.256566592434674E-3  
 2.006400000000000E10    4.319763529677819E-3  -2.200179302168114E-3  
 2.006600000000000E10    3.740619686949585E-3  -2.983101200956254E-3  
 2.006800000000000E10    3.009428540359677E-3  -3.510935622968792E-3  
 2.007000000000000E10    2.319381629795204E-3  -3.765635867890569E-3  
 2.007200000000000E10    1.863666505403357E-3  -3.993517451885123E-3  
 2.007400000000000E10    1.369800431550377E-3  -4.415413192300885E-3  
 2.007600000000000E10    5.856339918897935E-4  -4.802921815648859E-3  
 2.007800000000000E10   -3.979495073665785E-4  -4.968688530088575E-3  
 2.008000000000000E10   -1.420010470520752E-3  -4.863665835862912E-3  
 2.008200000000000E10   -2.373702970712825E-3  -4.491805696836961E-3  
 2.008400000000000E10   -3.199628292709406E-3  -3.900748677551746E-3  
 2.008600000000000E10   -3.799621334851341E-3  -3.109314297843311E-3  
 2.008800000000000E10   -4.171247806767991E-3  -2.283248765808013E-3  
 2.009000000000000E10   -4.365472893380089E-3  -1.461500833730823E-3  
 2.009200000000000E10   -4.357666835004902E-3  -7.469970344876251E-4  
 2.009400000000000E10   -4.335783697940686E-3  -2.166196331309937E-4  
 2.009600000000000E10   -4.402909036955716E-3   3.803890018097275E-4  
 2.009800000000000E10   -4.390221485799111E-3   1.090310738180523E-3  
 2.010000000000000E10   -4.222534205994489E-3   1.875831393444520E-3  
 2.010200000000000E10   -3.855828667220511E-3   2.593609619379780E-3  
 2.010400000000000E10   -3.377467615207957E-3   3.153968657033496E-3  
 2.010600000000000E10   -2.863160259791731E-3   3.650908283659338E-3  
 2.010800000000000E10   -2.306622818089378E-3   4.147797736718700E-3  
 2.011000000000000E10   -1.588052917662778E-3   4.643865694280392E-3  
 2.011200000000000E10   -7.256158759794487E-4   4.961009148830249E-3  
 2.011400000000000E10    2.115478860947338E-4   5.082531015814087E-3  
 2.011600000000000E10    1.188305137609994E-3   5.007864389982489E-3  
 2.011800000000000E10    2.157918694946501E-3   4.713748662192145E-3  
 2.012000000000000E10    3.070047260319562E-3   4.185421995956590E-3  
 2.012200000000000E10    3.771354783510353E-3   3.449057481815050E-3  
 2.012400000000000E10    4.207368175510639E-3   2.615268623893276E-3  
 2.012600000000000E10    4.467561220129332E-3   1.762708009473612E-3  
 2.012800000000000E10    4.596808172164508E-3   9.429783791729056E-4  
 2.013000000000000E10    4.567554220557213E-3   1.579884543546395E-4  
 2.013200000000000E10    4.394669183472425E-3  -5.150907730430733E-4  
 2.013400000000000E10    4.215295478287671E-3  -1.124623869718225E-3  
 2.013600000000000E10    3.949140365247007E-3  -1.763962281086011E-3  
 2.013800000000000E10    3.607807359025803E-3  -2.312436668248273E-3  
 2.014000000000000E10    3.205015102723315E-3  -2.843310723058236E-3  
 2.014200000000000E10    2.716837663571408E-3  -3.258395247322358E-3  
 2.014400000000000E10    2.176477458833913E-3  -3.550469286072954E-3  
 2.014600000000000E10    1.637229208696496E-3  -3.776490544601356E-3  
 2.014800000000000E10    1.126947477862331E-3  -3.985141007298673E-3  
 2.015000000000000E10    5.990069271151530E-4  -4.171563392895976E-3  
 2.015200000000000E10    1.372392113280290E-5  -4.354888377826155E-3  
 2.015400000000000E10   -7.256707155007732E-4  -4.502567577601216E-3  
 2.015600000000000E10   -1.645371711663442E-3  -4.449468744159849E-3  
 2.015800000000000E10   -2.586062859605860E-3  -4.059982348095488E-3  
 2.016000000000000E10   -3.308752672401844E-3  -3.377816634091699E-3  
 2.016200000000000E10   -3.685884953786930E-3  -2.571227520497309E-3  
 2.016400000000000E10   -3.766737786340126E-3  -1.857126357298299E-3  
 2.016600000000000E10   -3.778996313979596E-3  -1.368479824762930E-3  
 2.016800000000000E10   -3.901553834662026E-3  -1.012831421879431E-3  
 2.017000000000000E10   -4.146657165507844E-3  -6.005531873979411E-4  
 2.017200000000000E10   -4.405163171022764E-3   3.633814803497104E-6  
 2.017400000000000E10   -4.519124112931299E-3   7.711697224654075E-4  
 2.017600000000000E10   -4.456903147338718E-3   1.615537327633780E-3  
 2.017800000000000E10   -4.184725619622588E-3   2.490731048179262E-3  
 2.018000000000000E10   -3.714896379222657E-3   3.259575779170350E-3  
 2.018200000000000E10   -3.021572759650924E-3   3.903815890719862E-3  
 2.018400000000000E10   -2.166180037835866E-3   4.273820530485225E-3  
 2.018600000000000E10   -1.436216493689076E-3   4.413000842625345E-3  
 2.018800000000000E10   -8.527356757563943E-4   4.531093309690924E-3  
 2.019000000000000E10   -2.242758518723013E-4   4.674729735900959E-3  
 2.019200000000000E10    5.141107364051781E-4   4.769630569182797E-3  
 2.019400000000000E10    1.369197610018338E-3   4.715063747156550E-3  
 2.019600000000000E10    2.229939855888118E-3   4.474819850544503E-3  
 2.019800000000000E10    3.074102908556845E-3   4.068640693102354E-3  
 2.020000000000000E10    3.797064931994236E-3   3.435432502746950E-3  
 2.020200000000000E10    4.251255251375246E-3   2.613228510053438E-3  
 2.020400000000000E10    4.503093194216490E-3   1.828991421383380E-3  
 2.020600000000000E10    4.695572436177804E-3   1.106789220630387E-3  
 2.020800000000000E10    4.810536395252488E-3   3.796794310206387E-4  
 2.021000000000000E10    4.800538842876753E-3  -3.506667444189252E-4  
 2.021200000000000E10    4.749606783145373E-3  -1.076917889826920E-3  
 2.021400000000000E10    4.635571013492199E-3  -1.913589804812714E-3  
 2.021600000000000E10    4.284955382944993E-3  -2.842425423340849E-3  
 2.021800000000000E10    3.660795336336266E-3  -3.671379981240557E-3  
 2.022000000000000E10    2.853621909808782E-3  -4.207881397487206E-3  
 2.022200000000000E10    2.026859208090622E-3  -4.527478662813888E-3  
 2.022400000000000E10    1.179209185971154E-3  -4.736642882135916E-3  
 2.022600000000000E10    3.440720230386949E-4  -4.757543795822580E-3  
 2.022800000000000E10   -3.687852535850979E-4  -4.582042736863650E-3  
 2.023000000000000E10   -9.001427097246053E-4  -4.430461065544759E-3  
 2.023200000000000E10   -1.543822862138903E-3  -4.375027285681831E-3  
 2.023400000000000E10   -2.358044402811814E-3  -4.139793801040930E-3  
 2.023600000000000E10   -3.116844408788983E-3  -3.694717573967797E-3  
 2.023800000000000E10   -3.741682981382366E-3  -3.110438303585038E-3  
 2.024000000000000E10   -4.207333423381235E-3  -2.403969382062371E-3  
 2.024200000000000E10   -4.543998474140227E-3  -1.614336259260682E-3  
 2.024400000000000E10   -4.753675622244677E-3  -8.051434120761210E-4  
 2.024600000000000E10   -4.813781749733069E-3   8.493825454799521E-6  
 2.024800000000000E10   -4.738235288518080E-3   8.043176142418367E-4  
 2.025000000000000E10   -4.546506353366522E-3   1.602232311047430E-3  
 2.025200000000000E10   -4.231305212288360E-3   2.385275970201618E-3  
 2.025400000000000E10   -3.732010167391029E-3   3.160382037476441E-3  
 2.025600000000000E10   -3.079047136261692E-3   3.850641016514949E-3  
 2.025800000000000E10   -2.259970815093429E-3   4.346493332658285E-3  
 2.026000000000000E10   -1.348474655116414E-3   4.548765385500444E-3  
 2.026200000000000E10   -4.901141151038494E-4   4.544229873306591E-3  
 2.026400000000000E10    2.017880766221357E-4   4.434408390043695E-3  
 2.026600000000000E10    8.066184574416208E-4   4.332448097152843E-3  
 2.026800000000000E10    1.436461382660509E-3   4.172856453806162E-3  
 2.027000000000000E10    2.071336722346368E-3   3.945682605981460E-3  
 2.027200000000000E10    2.762987531353662E-3   3.621983962754409E-3  
 2.027400000000000E10    3.473966667014692E-3   3.123031707802489E-3  
 2.027600000000000E10    4.089188624035430E-3   2.415732446092147E-3  
 2.027800000000000E10    4.432607861810630E-3   1.546328812607645E-3  
 2.028000000000000E10    4.512201304788944E-3   6.674448751131603E-4  
 2.028200000000000E10    4.471004135722732E-3  -1.327911572226174E-4  
 2.028400000000000E10    4.331629752054995E-3  -8.551059247649931E-4  
 2.028600000000000E10    4.116978312348142E-3  -1.483016996644437E-3  
 2.028800000000000E10    3.849239166205129E-3  -2.126055832860279E-3  
 2.029000000000000E10    3.424855325669971E-3  -2.744474614981884E-3  
 2.029200000000000E10    2.926258292670052E-3  -3.272436352239715E-3  
 2.029400000000000E10    2.378662550867892E-3  -3.781023024247937E-3  
 2.029600000000000E10    1.725758562427888E-3  -4.212697599957020E-3  
 2.029800000000000E10    9.389200871580363E-4  -4.490025743934109E-3  
 2.030000000000000E10    3.937148991368576E-5  -4.599558413718586E-3  
 2.030200000000000E10   -8.671773169304671E-4  -4.461750520370258E-3  
 2.030400000000000E10   -1.559831513908266E-3  -4.122164801774938E-3  
 2.030600000000000E10   -2.074202525509912E-3  -3.772704928170569E-3  
 2.030800000000000E10   -2.565522804672336E-3  -3.485605175273470E-3  
 2.031000000000000E10   -3.117110252518345E-3  -3.164995435832276E-3  
 2.031200000000000E10   -3.732280409032549E-3  -2.727657881346934E-3  
 2.031400000000000E10   -4.419821676694686E-3  -2.159683033823967E-3  
 2.031600000000000E10   -5.078849129746726E-3  -1.284490458747763E-3  
 2.031800000000000E10   -5.334127608134792E-3   1.837749750623593E-5  
 2.032000000000000E10   -5.021024644834761E-3   1.294492755407169E-3  
 2.032200000000000E10   -4.422016073892147E-3   2.205150107059766E-3  
 2.032400000000000E10   -3.744986672874219E-3   2.808844495311748E-3  
 2.032600000000000E10   -3.090473518557387E-3   3.227177584819772E-3  
 2.032800000000000E10   -2.462849457874711E-3   3.492127365237218E-3  
 2.033000000000000E10   -1.895861069234893E-3   3.688895057334945E-3  
 2.033200000000000E10   -1.402069593170359E-3   3.893009729016527E-3  
 2.033400000000000E10   -8.902440104852029E-4   4.146344517070202E-3  
 2.033600000000000E10   -6.484912613544751E-4   4.254409640935469E-3  
 2.033800000000000E10    4.912539968054374E-4   4.319618341087560E-3  
 2.034000000000000E10    1.244829772155226E-3   4.224357591872967E-3  
 2.034200000000000E10    1.955713664273513E-3   3.988357783973585E-3  
 2.034400000000000E10    2.558402742983567E-3   3.645268938630636E-3  
 2.034600000000000E10    3.082023447747401E-3   3.258841954470602E-3  
 2.034800000000000E10    3.623831689495731E-3   2.834189990765335E-3  
 2.035000000000000E10    4.237601734743811E-3   2.286330601315440E-3  
 2.035200000000000E10    4.822024138483369E-3   1.533601753540153E-3  
 2.035400000000000E10    5.237564502030979E-3   5.364092771124878E-4  
 2.035600000000000E10    5.265834097417049E-3  -6.670692502980892E-4  
 2.035800000000000E10    4.861542385899359E-3  -1.810171121133515E-3  
 2.036000000000000E10    4.208196851390380E-3  -2.639986692502359E-3  
 2.036200000000000E10    3.544727386331853E-3  -3.182014002016297E-3  
 2.036400000000000E10    2.867349653424305E-3  -3.563471141351778E-3  
 2.036600000000000E10    2.245267798526236E-3  -3.766675080161221E-3  
 2.036800000000000E10    1.729030448104037E-3  -3.902334992969294E-3  
 2.037000000000000E10    1.265853742585966E-3  -4.168691705728388E-3  
 2.037200000000000E10    7.055597882832828E-4  -4.489163879627063E-3  
 2.037400000000000E10   -1.298516602859039E-5  -4.720820326726011E-3  
 2.037600000000000E10   -9.302154440651247E-4  -4.757387741802284E-3  
 2.037800000000000E10   -1.862573364094176E-3  -4.521863563791102E-3  
 2.038000000000000E10   -2.652014841406066E-3  -4.089361217654783E-3  
 2.038200000000000E10   -3.277853088177465E-3  -3.495456831943658E-3  
 2.038400000000000E10   -3.692849749055358E-3  -2.899048390027918E-3  
 2.038600000000000E10   -4.049033921119976E-3  -2.375626939429362E-3  
 2.038800000000000E10   -4.495423028452530E-3  -1.775999248809653E-3  
 2.039000000000000E10   -4.886504509888682E-3  -1.001525636515178E-3  
 2.039200000000000E10   -5.101663848086272E-3  -1.287155688192730E-4  
 2.039400000000000E10   -5.073777986345469E-3   8.540554180522852E-4  
 2.039600000000000E10   -4.798934024609167E-3   1.791066648208617E-3  
 2.039800000000000E10   -4.371211691587060E-3   2.641199064659484E-3  
 2.040000000000000E10   -3.776634206857395E-3   3.391066681087753E-3  
 2.040200000000000E10   -3.007095108774525E-3   3.916005310774954E-3  
 2.040400000000000E10   -2.267110923213172E-3   4.198716022074223E-3  
 2.040600000000000E10   -1.570348012732503E-3   4.373511012045690E-3  
 2.040800000000000E10   -9.444682358729620E-4   4.490175387925573E-3  
 2.041000000000000E10   -3.766343232896755E-4   4.651788599145266E-3  
 2.041200000000000E10    3.018138362856490E-4   4.795831961580266E-3  
 2.041400000000000E10    1.117127169969917E-3   4.820165603801057E-3  
 2.041600000000000E10    2.039886450532962E-3   4.673292952371233E-3  
 2.041800000000000E10    2.976671714956562E-3   4.262283875572461E-3  
 2.042000000000000E10    3.730874126317141E-3   3.623809679813776E-3  
 2.042200000000000E10    4.332270053571757E-3   2.871459470716892E-3  
 2.042400000000000E10    4.744197333944433E-3   2.000403110466806E-3  
 2.042600000000000E10    4.953889486690363E-3   1.087103358090476E-3  
 2.042800000000000E10    5.021146124941700E-3   1.901722495892534E-4  
 2.043000000000000E10    4.955221346958921E-3  -6.564355007642996E-4  
 2.043200000000000E10    4.729323123616201E-3  -1.488709999075919E-3  
 2.043400000000000E10    4.326162273409191E-3  -2.310883607370434E-3  
 2.043600000000000E10    3.730361384374124E-3  -3.012150572037992E-3  
 2.043800000000000E10    3.064591403084773E-3  -3.476824614299853E-3  
 2.044000000000000E10    2.417266538458658E-3  -3.808586717364781E-3  
 2.044200000000000E10    1.787991576287666E-3  -4.051589774956675E-3  
 2.044400000000000E10    1.147038221393747E-3  -4.179312525616017E-3  
 2.044600000000000E10    5.558590644706087E-4  -4.255791505177816E-3  
 2.044800000000000E10   -1.228645370797440E-5  -4.372284023298158E-3  
 2.045000000000000E10   -6.469598246226664E-4  -4.500138314647808E-3  
 2.045200000000000E10   -1.469981776159487E-3  -4.546332742191024E-3  
 2.045400000000000E10   -2.520346864598033E-3  -4.313423378783980E-3  
 2.045600000000000E10   -3.504723830746464E-3  -3.617075846794947E-3  
 2.045800000000000E10   -4.106121430932372E-3  -2.621860539448667E-3  
 2.046000000000000E10   -4.328653814248098E-3  -1.613675163955324E-3  
 2.046200000000000E10   -4.245606664982107E-3  -7.538734561545246E-4  
 2.046400000000000E10   -4.049192941575139E-3  -7.595429894008476E-5  
 2.046600000000000E10   -3.872324557354053E-3   5.020051289142835E-4  
 2.046800000000000E10   -3.697757247007556E-3   9.854211548147840E-4  
 2.047000000000000E10   -3.494093622897327E-3   1.470405841246248E-3  
 2.047200000000000E10   -3.216799742392737E-3   1.989250630427751E-3  
 2.047400000000000E10   -2.811412197641201E-3   2.522541954538521E-3  
 2.047600000000000E10   -2.244765444854160E-3   2.927707166146534E-3  
 2.047800000000000E10   -1.645714665452640E-3   3.092144592952582E-3  
 2.048000000000000E10   -1.202829410666945E-3   3.116714908959874E-3  
 2.048200000000000E10   -8.947253471562341E-4   3.198936966788254E-3  
 2.048400000000000E10   -4.850129207400720E-4   3.429856254822678E-3  
 2.048600000000000E10    1.020652451098827E-4   3.647029348131684E-3  
 2.048800000000000E10    7.840090942925510E-4   3.719279867378467E-3  
 2.049000000000000E10    1.527063481015280E-3   3.572856849289419E-3  
 2.049200000000000E10    2.241576742955749E-3   3.211765535704700E-3  
 2.049400000000000E10    2.896248374456241E-3   2.683763297412683E-3  
 2.049600000000000E10    3.399852600040628E-3   1.933673658281749E-3  
 2.049800000000000E10    3.598396640477910E-3   1.041742600788029E-3  
 2.050000000000000E10    3.451671606550614E-3   1.839060089507796E-4  
 2.050200000000000E10    2.998612663007261E-3  -4.201835372778415E-4  
 2.050400000000000E10    2.615246665951463E-3  -6.384434635509496E-4  
 2.050600000000000E10    2.535210373340014E-3  -7.704145556752698E-4  
 2.050800000000000E10    2.531866264173095E-3  -1.050338721086766E-3  
 2.051000000000000E10    2.399100393148852E-3  -1.437781073934870E-3  
 2.051200000000000E10    2.171574376040587E-3  -1.794127444161769E-3  
 2.051400000000000E10    1.922029378122570E-3  -2.167424483132768E-3  
 2.051600000000000E10    1.554376310611397E-3  -2.573257973302662E-3  
 2.051800000000000E10    9.984144981214664E-4  -2.846521975035653E-3  
 2.052000000000000E10    4.529011889251617E-4  -2.899201152800226E-3  
 2.052200000000000E10   -2.539145004257192E-5  -2.883276433603448E-3  
 2.052400000000000E10   -5.191606562872085E-4  -2.935813613419916E-3  
 2.052600000000000E10   -1.146964276105993E-3  -2.915495204635792E-3  
 2.052800000000000E10   -1.825933123329356E-3  -2.595881646912959E-3  
 2.053000000000000E10   -2.352471825563245E-3  -2.021818893191255E-3  
 2.053200000000000E10   -2.654763088090185E-3  -1.333427432936007E-3  
 2.053400000000000E10   -2.718663110432250E-3  -6.240596326447473E-4  
 2.053600000000000E10   -2.544859018935650E-3   2.986159049697440E-5  
 2.053800000000000E10   -2.183013770982256E-3   5.201647980828529E-4  
 2.054000000000000E10   -1.695006364312621E-3   7.841532229284907E-4  
 2.054200000000000E10   -1.255716461642289E-3   7.843764097843734E-4  
 2.054400000000000E10   -1.066982715942518E-3   5.897036595499995E-4  
 2.054600000000000E10   -1.165701079262812E-3   3.623469692459445E-4  
 2.054800000000000E10   -1.513202089735848E-3   3.685315691486554E-4  
 2.055000000000000E10   -1.816469077940709E-3   8.040158657276614E-4  
 2.055200000000000E10   -1.772343883877275E-3   1.453360097114871E-3  
 2.055400000000000E10   -1.411833160809805E-3   2.027488520575895E-3  
 2.055600000000000E10   -8.446663024513351E-4   2.396423651342407E-3  
