#  HZ   S   RI   R     50.00 
! Rohde & Schwarz ZVA40 4Ports - Version 3.90 - 1145.1110k42 SN: 100403
! Date: 2023-10-03 12:41:38
! Measurement: S12 
! 
 2.000000000000000E10    1.732000014687210E-3  -3.850346684087942E-3  
 2.000200000000000E10    1.112485461851099E-3  -4.240497734029721E-3  
 2.000400000000000E10    3.324624951885738E-4  -4.498181669156493E-3  
 2.000600000000000E10   -5.602659136603046E-4  -4.540534293348039E-3  
 2.000800000000000E10   -1.407103105678143E-3  -4.349632930286505E-3  
 2.001000000000000E10   -2.149539030973375E-3  -4.006799615137740E-3  
 2.001200000000000E10   -2.774807155983132E-3  -3.555876211504693E-3  
 2.001400000000000E10   -3.327197665463628E-3  -3.105010627481490E-3  
 2.001600000000000E10   -3.955781821989351E-3  -2.530485308257702E-3  
 2.001800000000000E10   -4.506862066962101E-3  -1.685151584549911E-3  
 2.002000000000000E10   -4.717208721019604E-3  -6.595190494453513E-4  
 2.002200000000000E10   -4.558973290302136E-3   3.731141005567977E-4  
 2.002400000000000E10   -4.205669713333066E-3   1.178266486313976E-3  
 2.002600000000000E10   -3.739528380978255E-3   1.767776804447267E-3  
 2.002800000000000E10   -3.323410798646050E-3   2.198665946101149E-3  
 2.003000000000000E10   -2.881522839429019E-3   2.561668592309695E-3  
 2.003200000000000E10   -2.463878416973684E-3   2.820143251921292E-3  
 2.003400000000000E10   -2.129230291847094E-3   3.045806991810232E-3  
 2.003600000000000E10   -1.869262203309731E-3   3.395954647135956E-3  
 2.003800000000000E10   -1.457419758087692E-3   3.943387464976605E-3  
 2.004000000000000E10   -6.862290549942834E-4   4.409318473649983E-3  
 2.004200000000000E10    3.121973447973070E-4   4.565345796032085E-3  
 2.004400000000000E10    1.338895094109538E-3   4.353299369046718E-3  
 2.004600000000000E10    2.149133210035938E-3   3.803418868761740E-3  
 2.004800000000000E10    2.596299859614652E-3   3.176446509674008E-3  
 2.005000000000000E10    2.839940223543916E-3   2.687016864203745E-3  
 2.005200000000000E10    3.133641311576890E-3   2.320660094236151E-3  
 2.005400000000000E10    3.481804807153014E-3   1.906562449962453E-3  
 2.005600000000000E10    3.849124449684665E-3   1.390033467661268E-3  
 2.005800000000000E10    4.124101538808994E-3   7.833638666830038E-4  
 2.006000000000000E10    4.301746329867547E-3   1.113044070532649E-4  
 2.006200000000000E10    4.402064827535256E-3  -6.734270273339878E-4  
 2.006400000000000E10    4.284358255703141E-3  -1.582008136873260E-3  
 2.006600000000000E10    3.866609137068377E-3  -2.444175370957381E-3  
 2.006800000000000E10    3.232924695943057E-3  -3.051955261509177E-3  
 2.007000000000000E10    2.606495320911945E-3  -3.356912650489881E-3  
 2.007200000000000E10    2.180535281594429E-3  -3.625276317406032E-3  
 2.007400000000000E10    1.732476057059327E-3  -4.079069936487043E-3  
 2.007600000000000E10    1.043575149702115E-3  -4.533249034005919E-3  
 2.007800000000000E10    1.701810401699069E-4  -4.818692107765396E-3  
 2.008000000000000E10   -8.294400485968333E-4  -4.859509826120404E-3  
 2.008200000000000E10   -1.838832698405985E-3  -4.609854564208676E-3  
 2.008400000000000E10   -2.725631970176359E-3  -4.096722848322474E-3  
 2.008600000000000E10   -3.401569875509099E-3  -3.399070565025380E-3  
 2.008800000000000E10   -3.837363564489801E-3  -2.628741113262044E-3  
 2.009000000000000E10   -4.027797670942950E-3  -1.844899372462138E-3  
 2.009200000000000E10   -4.060011549657326E-3  -1.205885184951771E-3  
 2.009400000000000E10   -4.170042752966653E-3  -7.383427841381895E-4  
 2.009600000000000E10   -4.353968507069865E-3  -1.824996220364730E-4  
 2.009800000000000E10   -4.478229968636125E-3   5.029847861244632E-4  
 2.010000000000000E10   -4.447633963952095E-3   1.344370820996478E-3  
 2.010200000000000E10   -4.171508663322455E-3   2.185442858594068E-3  
 2.010400000000000E10   -3.692749131723871E-3   2.877360922686848E-3  
 2.010600000000000E10   -3.169159065748071E-3   3.392796969202198E-3  
 2.010800000000000E10   -2.690785297158140E-3   3.853041034789734E-3  
 2.011000000000000E10   -2.068780589687788E-3   4.364190634661987E-3  
 2.011200000000000E10   -1.255446033161364E-3   4.776572486684647E-3  
 2.011400000000000E10   -3.953054971291604E-4   5.006748205625718E-3  
 2.011600000000000E10    4.881969060214168E-4   5.079303845119330E-3  
 2.011800000000000E10    1.439921510474826E-3   4.983958655991305E-3  
 2.012000000000000E10    2.423561655306890E-3   4.667084991793942E-3  
 2.012200000000000E10    3.304238241441824E-3   4.067190083456629E-3  
 2.012400000000000E10    3.933568088406766E-3   3.325112506080373E-3  
 2.012600000000000E10    4.363429887841146E-3   2.520032885288935E-3  
 2.012800000000000E10    4.617349865535895E-3   1.732025238006940E-3  
 2.013000000000000E10    4.767189388749777E-3   9.241166257264990E-4  
 2.013200000000000E10    4.791604527444752E-3   1.178218282106689E-4  
 2.013400000000000E10    4.709290024353031E-3  -6.125877312396045E-4  
 2.013600000000000E10    4.500855548008357E-3  -1.318893303381808E-3  
 2.013800000000000E10    4.242810518423349E-3  -1.966796285058890E-3  
 2.014000000000000E10    3.875554430034058E-3  -2.643468804128560E-3  
 2.014200000000000E10    3.365546861594475E-3  -3.195631777706706E-3  
 2.014400000000000E10    2.841747509614553E-3  -3.640368874012321E-3  
 2.014600000000000E10    2.323337689754956E-3  -3.969485917485055E-3  
 2.014800000000000E10    1.792404067668098E-3  -4.257831601770941E-3  
 2.015000000000000E10    1.215668300304700E-3  -4.559476733391668E-3  
 2.015200000000000E10    5.932617925371929E-4  -4.911201390909193E-3  
 2.015400000000000E10   -2.367053922721369E-4  -5.240179575335833E-3  
 2.015600000000000E10   -1.326846450360285E-3  -5.327010711218105E-3  
 2.015800000000000E10   -2.505395046929703E-3  -5.024761639903358E-3  
 2.016000000000000E10   -3.492943215310390E-3  -4.362528609042920E-3  
 2.016200000000000E10   -4.177316091954708E-3  -3.469726361081373E-3  
 2.016400000000000E10   -4.514776814131090E-3  -2.566048130967919E-3  
 2.016600000000000E10   -4.609041266649227E-3  -1.851695198795678E-3  
 2.016800000000000E10   -4.733582722873968E-3  -1.280107959403576E-3  
 2.017000000000000E10   -4.969717244859096E-3  -6.663399492677900E-4  
 2.017200000000000E10   -5.222899017188653E-3   7.280428088298876E-5  
 2.017400000000000E10   -5.312395201605044E-3   9.506516953366867E-4  
 2.017600000000000E10   -5.221203578934994E-3   1.933163823847326E-3  
 2.017800000000000E10   -4.887667294867613E-3   2.982444960600985E-3  
 2.018000000000000E10   -4.250878404917910E-3   3.936315627975597E-3  
 2.018200000000000E10   -3.382006300797250E-3   4.698955356200905E-3  
 2.018400000000000E10   -2.356359913347312E-3   5.139332552107028E-3  
 2.018600000000000E10   -1.409149708594253E-3   5.258058835924776E-3  
 2.018800000000000E10   -6.224060298897971E-4   5.284896028446564E-3  
 2.019000000000000E10    1.596141556535854E-4   5.346815636450494E-3  
 2.019200000000000E10    9.718388764555625E-4   5.336882770751362E-3  
 2.019400000000000E10    1.846373462072217E-3   5.196005088725576E-3  
 2.019600000000000E10    2.776840333769351E-3   4.880363443567430E-3  
 2.019800000000000E10    3.693279315843995E-3   4.361370612901670E-3  
 2.020000000000000E10    4.498860902256437E-3   3.569969516477468E-3  
 2.020200000000000E10    5.014576420279934E-3   2.598226314732506E-3  
 2.020400000000000E10    5.240317434072495E-3   1.722339733308297E-3  
 2.020600000000000E10    5.385038868328672E-3   8.630248470760792E-4  
 2.020800000000000E10    5.425799252856293E-3  -3.850249394130891E-5  
 2.021000000000000E10    5.369115764574137E-3  -8.717756028528568E-4  
 2.021200000000000E10    5.262676011311052E-3  -1.709995278226281E-3  
 2.021400000000000E10    5.022911119194311E-3  -2.686846587393019E-3  
 2.021600000000000E10    4.476875860106063E-3  -3.720151378347735E-3  
 2.021800000000000E10    3.588156323351059E-3  -4.573030259322238E-3  
 2.022000000000000E10    2.543933683845364E-3  -5.105512935300301E-3  
 2.022200000000000E10    1.506050021019707E-3  -5.364792266239723E-3  
 2.022400000000000E10    4.636081658522197E-4  -5.395290660269467E-3  
 2.022600000000000E10   -5.011577971199137E-4  -5.145181073910661E-3  
 2.022800000000000E10   -1.233603516421109E-3  -4.737458243552182E-3  
 2.023000000000000E10   -1.705704936700195E-3  -4.447051444677292E-3  
 2.023200000000000E10   -2.282018862365757E-3  -4.303579851065153E-3  
 2.023400000000000E10   -3.097026459412811E-3  -3.957992574820916E-3  
 2.023600000000000E10   -3.814037291356076E-3  -3.344889675600478E-3  
 2.023800000000000E10   -4.355233938743671E-3  -2.568563730973337E-3  
 2.024000000000000E10   -4.690456652530918E-3  -1.710551558062434E-3  
 2.024200000000000E10   -4.844695392904091E-3  -8.918824634388274E-4  
 2.024400000000000E10   -4.877149874781385E-3  -8.296016227334659E-5  
 2.024600000000000E10   -4.780038656597889E-3   7.580900938468584E-4  
 2.024800000000000E10   -4.565821627131952E-3   1.524277921064676E-3  
 2.025000000000000E10   -4.246868883018141E-3   2.226638271369868E-3  
 2.025200000000000E10   -3.832353057661727E-3   2.910975996335900E-3  
 2.025400000000000E10   -3.268182372536373E-3   3.591291074652547E-3  
 2.025600000000000E10   -2.514187255184408E-3   4.170995268878746E-3  
 2.025800000000000E10   -1.612992070465820E-3   4.522020399662449E-3  
 2.026000000000000E10   -7.212019524031125E-4   4.602279013919610E-3  
 2.026200000000000E10    6.905495185357588E-5   4.452921944543904E-3  
 2.026400000000000E10    6.889553142734517E-4   4.215758868757590E-3  
 2.026600000000000E10    1.236984752015107E-3   4.055322728545210E-3  
 2.026800000000000E10    1.808702809172741E-3   3.874719119918200E-3  
 2.027000000000000E10    2.358234910018467E-3   3.635456707949440E-3  
 2.027200000000000E10    3.000308549675493E-3   3.307406370884475E-3  
 2.027400000000000E10    3.693702012691418E-3   2.796643160651496E-3  
 2.027600000000000E10    4.278494677517885E-3   2.017976946116966E-3  
 2.027800000000000E10    4.582914736489824E-3   1.077425919105242E-3  
 2.028000000000000E10    4.605714271971841E-3   1.567420625145099E-4  
 2.028200000000000E10    4.434984482042952E-3  -6.589234093733041E-4  
 2.028400000000000E10    4.130083251238606E-3  -1.397422994889411E-3  
 2.028600000000000E10    3.796091202623499E-3  -1.997819316952869E-3  
 2.028800000000000E10    3.454188543176394E-3  -2.553423878127410E-3  
 2.029000000000000E10    2.955834424399116E-3  -3.087668774511528E-3  
 2.029200000000000E10    2.365425019237546E-3  -3.505319509264312E-3  
 2.029400000000000E10    1.763621043344891E-3  -3.838220593967924E-3  
 2.029600000000000E10    1.086748456639916E-3  -4.124429260874972E-3  
 2.029800000000000E10    3.119073050056389E-4  -4.279402228371230E-3  
 2.030000000000000E10   -4.703185138764022E-4  -4.249175573572701E-3  
 2.030200000000000E10   -1.228184996885650E-3  -3.975035846923237E-3  
 2.030400000000000E10   -1.801676446008554E-3  -3.579888268615361E-3  
 2.030600000000000E10   -2.192321561138939E-3  -3.247871647163491E-3  
 2.030800000000000E10   -2.551041549232639E-3  -2.992185764014722E-3  
 2.031000000000000E10   -3.010771418404249E-3  -2.737481882910670E-3  
 2.031200000000000E10   -3.585824317494293E-3  -2.374092801071612E-3  
 2.031400000000000E10   -4.242987440968002E-3  -1.816816334785135E-3  
 2.031600000000000E10   -4.883697181710124E-3  -9.259971657790888E-4  
 2.031800000000000E10   -5.127577139869517E-3   3.521728457273617E-4  
 2.032000000000000E10   -4.744238243150858E-3   1.625328468457784E-3  
 2.032200000000000E10   -4.002925123513482E-3   2.524004268954382E-3  
 2.032400000000000E10   -3.234517320783603E-3   3.028267316152284E-3  
 2.032600000000000E10   -2.571862127723886E-3   3.329251499064727E-3  
 2.032800000000000E10   -1.911861774580623E-3   3.496241008425937E-3  
 2.033000000000000E10   -1.329908539817013E-3   3.540722730879983E-3  
 2.033200000000000E10   -9.023426416801451E-4   3.569632938223673E-3  
 2.033400000000000E10   -4.665956129664901E-4   3.723339355884143E-3  
 2.033600000000000E10   -2.477253604152838E-4   3.826806775903629E-3  
 2.033800000000000E10    7.336332101984249E-4   3.799881817726994E-3  
 2.034000000000000E10    1.332095128564555E-3   3.667116811912921E-3  
 2.034200000000000E10    1.963485840041145E-3   3.436028393974275E-3  
 2.034400000000000E10    2.502765431770204E-3   3.085827178977155E-3  
 2.034600000000000E10    2.899735481880697E-3   2.685779070389676E-3  
 2.034800000000000E10    3.287679949821330E-3   2.296944292561140E-3  
 2.035000000000000E10    3.751634924822017E-3   1.860873070890429E-3  
 2.035200000000000E10    4.218314814576765E-3   1.252872679658510E-3  
 2.035400000000000E10    4.619216310711188E-3   3.635790687698275E-4  
 2.035600000000000E10    4.650695168953620E-3  -7.306166693142812E-4  
 2.035800000000000E10    4.245801380387059E-3  -1.707921291839470E-3  
 2.036000000000000E10    3.631307099612407E-3  -2.380139720453709E-3  
 2.036200000000000E10    3.039949352243616E-3  -2.830722820542661E-3  
 2.036400000000000E10    2.489338467978402E-3  -3.111866383272925E-3  
 2.036600000000000E10    2.006183819626861E-3  -3.253872655792002E-3  
 2.036800000000000E10    1.635953413184595E-3  -3.417131255300325E-3  
 2.037000000000000E10    1.269732882199740E-3  -3.698284384208146E-3  
 2.037200000000000E10    7.442999408396398E-4  -3.990031316025574E-3  
 2.037400000000000E10    8.154308792048445E-5  -4.243988986414525E-3  
 2.037600000000000E10   -7.333922901271305E-4  -4.316955459890543E-3  
 2.037800000000000E10   -1.550530804965048E-3  -4.111862218260399E-3  
 2.038000000000000E10   -2.263729681870268E-3  -3.749259724569174E-3  
 2.038200000000000E10   -2.864112614734490E-3  -3.276449674165544E-3  
 2.038400000000000E10   -3.267465050067799E-3  -2.775063033986055E-3  
 2.038600000000000E10   -3.626574704676499E-3  -2.304443278936325E-3  
 2.038800000000000E10   -4.051700579347435E-3  -1.780613257986620E-3  
 2.039000000000000E10   -4.399568365633856E-3  -1.084403405080975E-3  
 2.039200000000000E10   -4.625515063741694E-3  -2.981601408711509E-4  
 2.039400000000000E10   -4.650435071254587E-3   5.885478788929314E-4  
 2.039600000000000E10   -4.420979575104553E-3   1.411786192257739E-3  
 2.039800000000000E10   -4.078902700846947E-3   2.151000264595137E-3  
 2.040000000000000E10   -3.621637381406294E-3   2.842741296914073E-3  
 2.040200000000000E10   -3.029121620649541E-3   3.363453987181003E-3  
 2.040400000000000E10   -2.436482974178630E-3   3.676878320007230E-3  
 2.040600000000000E10   -1.872206908754177E-3   3.955384561171135E-3  
 2.040800000000000E10   -1.334752805565519E-3   4.190457795091250E-3  
 2.041000000000000E10   -7.676107616359254E-4   4.452447119502374E-3  
 2.041200000000000E10   -4.893295201529530E-5   4.706545370734401E-3  
 2.041400000000000E10    7.870023578612341E-4   4.787526605075892E-3  
 2.041600000000000E10    1.682448897936186E-3   4.701859237235271E-3  
 2.041800000000000E10    2.668953115511456E-3   4.381202402766105E-3  
 2.042000000000000E10    3.559138786829549E-3   3.780241564123168E-3  
 2.042200000000000E10    4.210741017703658E-3   2.980787059821097E-3  
 2.042400000000000E10    4.581635139514636E-3   2.052444800803507E-3  
 2.042600000000000E10    4.745384103354114E-3   1.190070091620272E-3  
 2.042800000000000E10    4.801389531312902E-3   4.071620670952087E-4  
 2.043000000000000E10    4.797594748253441E-3  -4.170075713593605E-4  
 2.043200000000000E10    4.632332925627262E-3  -1.279705301800996E-3  
 2.043400000000000E10    4.245598702748986E-3  -2.089714895887876E-3  
 2.043600000000000E10    3.658966411388032E-3  -2.748171652287797E-3  
 2.043800000000000E10    3.006029178468902E-3  -3.211728003979834E-3  
 2.044000000000000E10    2.400777917815212E-3  -3.518490333478025E-3  
 2.044200000000000E10    1.836459501646460E-3  -3.684002138605273E-3  
 2.044400000000000E10    1.303183907976397E-3  -3.784541848380073E-3  
 2.044600000000000E10    8.789087734817540E-4  -3.918041423377064E-3  
 2.044800000000000E10    3.927349882562542E-4  -4.135703110354551E-3  
 2.045000000000000E10   -2.405104776384470E-4  -4.361752259694500E-3  
 2.045200000000000E10   -1.054992442260738E-3  -4.502043645415042E-3  
 2.045400000000000E10   -2.097961386481737E-3  -4.334161471989420E-3  
 2.045600000000000E10   -3.096575158889648E-3  -3.699689407913406E-3  
 2.045800000000000E10   -3.745730069500429E-3  -2.790823368999509E-3  
 2.046000000000000E10   -3.988755441466232E-3  -1.868324046724557E-3  
 2.046200000000000E10   -3.947923046157317E-3  -1.065117582954742E-3  
 2.046400000000000E10   -3.845286081303602E-3  -4.437809521159916E-4  
 2.046600000000000E10   -3.724246504314153E-3   6.890519645462463E-5  
 2.046800000000000E10   -3.619875572046932E-3   5.334090645551498E-4  
 2.047000000000000E10   -3.554972176106625E-3   1.023491761175755E-3  
 2.047200000000000E10   -3.370505257475156E-3   1.596292641795712E-3  
 2.047400000000000E10   -2.977461508118813E-3   2.179639192619993E-3  
 2.047600000000000E10   -2.440974176688879E-3   2.601617165369752E-3  
 2.047800000000000E10   -1.920887368248293E-3   2.833138702920190E-3  
 2.048000000000000E10   -1.509837740112418E-3   2.908177806041491E-3  
 2.048200000000000E10   -1.186328198484801E-3   3.028080016834502E-3  
 2.048400000000000E10   -8.121664638711532E-4   3.253538049412547E-3  
 2.048600000000000E10   -3.232023338097389E-4   3.462733649131325E-3  
 2.048800000000000E10    2.840351328443461E-4   3.616975102987555E-3  
 2.049000000000000E10    9.719543051216063E-4   3.613590435297401E-3  
 2.049200000000000E10    1.685946405129393E-3   3.380119421139912E-3  
 2.049400000000000E10    2.358243881184378E-3   2.959751377434091E-3  
 2.049600000000000E10    2.913609589737507E-3   2.333027899932163E-3  
 2.049800000000000E10    3.212647883359481E-3   1.603251981353502E-3  
 2.050000000000000E10    3.220901479599653E-3   8.644050175473556E-4  
 2.050200000000000E10    2.962624154019136E-3   2.771199585289270E-4  
 2.050400000000000E10    2.733609210814775E-3   6.423810595555954E-5  
 2.050600000000000E10    2.783362612841122E-3  -9.585556265701154E-5  
 2.050800000000000E10    2.938555234491273E-3  -4.436032448458359E-4  
 2.051000000000000E10    2.957449242886570E-3  -9.282575287844666E-4  
 2.051200000000000E10    2.840236312261334E-3  -1.432581410892768E-3  
 2.051400000000000E10    2.645721150286220E-3  -1.984214204662468E-3  
 2.051600000000000E10    2.275587861529655E-3  -2.573863557183449E-3  
 2.051800000000000E10    1.703255851523100E-3  -3.005646801565165E-3  
 2.052000000000000E10    1.078484620163103E-3  -3.198018797707779E-3  
 2.052200000000000E10    5.240730415270838E-4  -3.326293831277225E-3  
 2.052400000000000E10   -6.300275255157039E-5  -3.468000378896610E-3  
 2.052600000000000E10   -8.220511314712099E-4  -3.509315825929797E-3  
 2.052800000000000E10   -1.643693974287606E-3  -3.265103362615646E-3  
 2.053000000000000E10   -2.303580693141730E-3  -2.708802571704175E-3  
 2.053200000000000E10   -2.751602262350513E-3  -2.018381827108470E-3  
 2.053400000000000E10   -2.972139867689507E-3  -1.242612372152507E-3  
 2.053600000000000E10   -2.926933421051981E-3  -5.247144389288202E-4  
 2.053800000000000E10   -2.663585975375257E-3   4.040077334752264E-5  
 2.054000000000000E10   -2.282876667946025E-3   4.445589305603027E-4  
 2.054200000000000E10   -1.905139814487394E-3   5.681604545069055E-4  
 2.054400000000000E10   -1.715151383254079E-3   5.087285032380879E-4  
 2.054600000000000E10   -1.784450444967751E-3   4.206817632362845E-4  
 2.054800000000000E10   -2.123796378181857E-3   5.286454825294148E-4  
 2.055000000000000E10   -2.397353841382781E-3   1.088968537069489E-3  
 2.055200000000000E10   -2.270942079593186E-3   1.856637776564853E-3  
 2.055400000000000E10   -1.785159661480582E-3   2.515241771039588E-3  
 2.055600000000000E10   -1.121875288160403E-3   2.937248706771636E-3  
