#  HZ   S   RI   R     50.00 
! Rohde & Schwarz ZVA40 4Ports - Version 3.90 - 1145.1110k42 SN: 100403
! Date: 2023-10-03 12:42:15
! Measurement: S12 
! 
 2.000000000000000E10    1.912926240352753E-3  -3.863742155379352E-3  
 2.000200000000000E10    1.249746399368217E-3  -4.248445922577823E-3  
 2.000400000000000E10    4.535970010281131E-4  -4.483986889307269E-3  
 2.000600000000000E10   -4.128148450387773E-4  -4.527325454501459E-3  
 2.000800000000000E10   -1.252180203477327E-3  -4.375635933728866E-3  
 2.001000000000000E10   -2.037935735036930E-3  -4.014602178178820E-3  
 2.001200000000000E10   -2.656480141267671E-3  -3.553620656500015E-3  
 2.001400000000000E10   -3.223680912175910E-3  -3.107337352969213E-3  
 2.001600000000000E10   -3.884198220730319E-3  -2.528027663919539E-3  
 2.001800000000000E10   -4.397217552235098E-3  -1.638201910929578E-3  
 2.002000000000000E10   -4.533411779751381E-3  -5.936710846154289E-4  
 2.002200000000000E10   -4.354414752389424E-3   3.924422767209733E-4  
 2.002400000000000E10   -4.000804404279700E-3   1.177998302780368E-3  
 2.002600000000000E10   -3.538641339903813E-3   1.735913537063257E-3  
 2.002800000000000E10   -3.082020600123232E-3   2.132160309318898E-3  
 2.003000000000000E10   -2.615203805950015E-3   2.462915836645620E-3  
 2.003200000000000E10   -2.162424486260785E-3   2.696474619332410E-3  
 2.003400000000000E10   -1.797030847557962E-3   2.876746805515064E-3  
 2.003600000000000E10   -1.526060453788550E-3   3.127426860486100E-3  
 2.003800000000000E10   -1.126437712414765E-3   3.518334852431905E-3  
 2.004000000000000E10   -4.363947471559677E-4   3.841640358721769E-3  
 2.004200000000000E10    4.358450628705936E-4   3.918351802913618E-3  
 2.004400000000000E10    1.321387488716914E-3   3.676665919054868E-3  
 2.004600000000000E10    1.969283132396118E-3   3.124840194436075E-3  
 2.004800000000000E10    2.257891626905942E-3   2.517375405187960E-3  
 2.005000000000000E10    2.377446794522153E-3   2.093007382764309E-3  
 2.005200000000000E10    2.568983697090988E-3   1.790977288669918E-3  
 2.005400000000000E10    2.813297385204232E-3   1.468725564291724E-3  
 2.005600000000000E10    3.057526580705749E-3   1.098151739596662E-3  
 2.005800000000000E10    3.249136684079168E-3   6.469874369716388E-4  
 2.006000000000000E10    3.390885361589094E-3   1.291374668159543E-4  
 2.006200000000000E10    3.485747641757315E-3  -4.875308780359879E-4  
 2.006400000000000E10    3.401846491727871E-3  -1.218765072424900E-3  
 2.006600000000000E10    3.051178140849366E-3  -1.875637715237806E-3  
 2.006800000000000E10    2.515522308011421E-3  -2.313709711472010E-3  
 2.007000000000000E10    2.029343215947963E-3  -2.501521746286885E-3  
 2.007200000000000E10    1.757917688573125E-3  -2.698405824961915E-3  
 2.007400000000000E10    1.449549010161449E-3  -3.075904506086200E-3  
 2.007600000000000E10    9.477567437886734E-4  -3.433611205637210E-3  
 2.007800000000000E10    2.774643564010863E-4  -3.663800745903526E-3  
 2.008000000000000E10   -4.933721396914940E-4  -3.707572253451611E-3  
 2.008200000000000E10   -1.275963452261386E-3  -3.536277429541811E-3  
 2.008400000000000E10   -1.959798935179909E-3  -3.160063400596319E-3  
 2.008600000000000E10   -2.457927719885369E-3  -2.620941250289909E-3  
 2.008800000000000E10   -2.766809408043209E-3  -1.989503457678536E-3  
 2.009000000000000E10   -2.858660169474689E-3  -1.369161083872733E-3  
 2.009200000000000E10   -2.813526403365864E-3  -9.345140666490108E-4  
 2.009400000000000E10   -2.849707306159561E-3  -6.879392415840841E-4  
 2.009600000000000E10   -2.988978291942199E-3  -4.018679383192156E-4  
 2.009800000000000E10   -3.115687991680249E-3   2.794257253063497E-5  
 2.010000000000000E10   -3.152059573189590E-3   6.121934878777851E-4  
 2.010200000000000E10   -3.000025364374858E-3   1.179304313577651E-3  
 2.010400000000000E10   -2.740462370975702E-3   1.583418738453385E-3  
 2.010600000000000E10   -2.521370285585401E-3   1.882984693863510E-3  
 2.010800000000000E10   -2.348901327400480E-3   2.256069876590874E-3  
 2.011000000000000E10   -2.025653479272048E-3   2.761632403351152E-3  
 2.011200000000000E10   -1.552339409451181E-3   3.204641558053624E-3  
 2.011400000000000E10   -9.789154551053275E-4   3.566574654062835E-3  
 2.011600000000000E10   -3.094308966015745E-4   3.777051517939188E-3  
 2.011800000000000E10    4.463013497022184E-4   3.797133278806882E-3  
 2.012000000000000E10    1.235481628519579E-3   3.641812331062348E-3  
 2.012200000000000E10    1.938517417647558E-3   3.260005537589147E-3  
 2.012400000000000E10    2.393296279718357E-3   2.755621910946053E-3  
 2.012600000000000E10    2.674560160318643E-3   2.246722051061292E-3  
 2.012800000000000E10    2.894047357394924E-3   1.789071103232174E-3  
 2.013000000000000E10    3.109814701678515E-3   1.308137732519627E-3  
 2.013200000000000E10    3.253274262832946E-3   8.391839319863070E-4  
 2.013400000000000E10    3.370711683399148E-3   3.770521113509121E-4  
 2.013600000000000E10    3.390184195459258E-3  -1.305641707415222E-4  
 2.013800000000000E10    3.334174692485129E-3  -6.673554889857770E-4  
 2.014000000000000E10    3.148760162715498E-3  -1.247497750235407E-3  
 2.014200000000000E10    2.862079752179883E-3  -1.662743416300557E-3  
 2.014400000000000E10    2.611439979784651E-3  -1.945178885369298E-3  
 2.014600000000000E10    2.408132045204012E-3  -2.215693699993163E-3  
 2.014800000000000E10    2.195309126105758E-3  -2.554884527277187E-3  
 2.015000000000000E10    1.906330857249629E-3  -2.971164988537814E-3  
 2.015200000000000E10    1.542547744997766E-3  -3.458049062087580E-3  
 2.015400000000000E10    9.593084380758827E-4  -3.952719628573262E-3  
 2.015600000000000E10    1.003867819228875E-4  -4.232694463873352E-3  
 2.015800000000000E10   -8.687683895667211E-4  -4.180043504607899E-3  
 2.016000000000000E10   -1.732733920350702E-3  -3.821072623769872E-3  
 2.016200000000000E10   -2.336573695051082E-3  -3.255769962046311E-3  
 2.016400000000000E10   -2.614218898792081E-3  -2.663627198855144E-3  
 2.016600000000000E10   -2.715074941094337E-3  -2.241109997041739E-3  
 2.016800000000000E10   -2.887894376468512E-3  -1.982054481505122E-3  
 2.017000000000000E10   -3.225533851257568E-3  -1.723539901498721E-3  
 2.017200000000000E10   -3.641446170860849E-3  -1.326718479739847E-3  
 2.017400000000000E10   -3.998383761809013E-3  -7.932335919213823E-4  
 2.017600000000000E10   -4.250818560735434E-3  -1.014011910610636E-4  
 2.017800000000000E10   -4.316211107029837E-3   7.509398494498353E-4  
 2.018000000000000E10   -4.160979871902570E-3   1.601682988823288E-3  
 2.018200000000000E10   -3.782622015042377E-3   2.357240944023823E-3  
 2.018400000000000E10   -3.241898799545052E-3   2.902587573906338E-3  
 2.018600000000000E10   -2.736108011562270E-3   3.256749669319870E-3  
 2.018800000000000E10   -2.294490148347837E-3   3.624677724193461E-3  
 2.019000000000000E10   -1.775294599801670E-3   4.063939966008436E-3  
 2.019200000000000E10   -1.132364509389602E-3   4.460962995150943E-3  
 2.019400000000000E10   -3.433648042702748E-4   4.714918704205213E-3  
 2.019600000000000E10    5.476207467318131E-4   4.757605349346076E-3  
 2.019800000000000E10    1.471035571724805E-3   4.601385233609520E-3  
 2.020000000000000E10    2.309879919977806E-3   4.227973009103244E-3  
 2.020200000000000E10    2.918037343501984E-3   3.706955531067810E-3  
 2.020400000000000E10    3.386827900530503E-3   3.221115290949988E-3  
 2.020600000000000E10    3.877473135628267E-3   2.695150249886783E-3  
 2.020800000000000E10    4.318436759106295E-3   2.050644305147568E-3  
 2.021000000000000E10    4.682731395012435E-3   1.355974406575010E-3  
 2.021200000000000E10    5.016558209564460E-3   6.120750630741993E-4  
 2.021400000000000E10    5.240662500584199E-3  -3.470161366453702E-4  
 2.021600000000000E10    5.120678270166672E-3  -1.506196569705022E-3  
 2.021800000000000E10    4.629893766892423E-3  -2.561309033767186E-3  
 2.022000000000000E10    3.933045030054120E-3  -3.342818780208138E-3  
 2.022200000000000E10    3.170838022849872E-3  -3.879090319790039E-3  
 2.022400000000000E10    2.333286672508643E-3  -4.242179012730902E-3  
 2.022600000000000E10    1.503254331977954E-3  -4.366946124966130E-3  
 2.022800000000000E10    8.511802712417066E-4  -4.306197519042365E-3  
 2.023000000000000E10    4.318508858756074E-4  -4.374376823934018E-3  
 2.023200000000000E10   -1.609795734021860E-4  -4.626750641352970E-3  
 2.023400000000000E10   -1.049690619264366E-3  -4.671011898099396E-3  
 2.023600000000000E10   -1.950459045534302E-3  -4.427813530090906E-3  
 2.023800000000000E10   -2.757556022646926E-3  -4.008299215033712E-3  
 2.024000000000000E10   -3.435303496365501E-3  -3.428350633907098E-3  
 2.024200000000000E10   -3.945377032529303E-3  -2.739848611194166E-3  
 2.024400000000000E10   -4.317005749393270E-3  -1.995963300290851E-3  
 2.024600000000000E10   -4.565950076827788E-3  -1.211849156740302E-3  
 2.024800000000000E10   -4.698774217792745E-3  -4.116799373375137E-4  
 2.025000000000000E10   -4.725441436279459E-3   3.855235119150960E-4  
 2.025200000000000E10   -4.610512359642690E-3   1.200747517619757E-3  
 2.025400000000000E10   -4.261360233534634E-3   2.058836233365224E-3  
 2.025600000000000E10   -3.732676357184174E-3   2.819200150798930E-3  
 2.025800000000000E10   -3.066603379868309E-3   3.371390861884496E-3  
 2.026000000000000E10   -2.378307124829771E-3   3.679747031158443E-3  
 2.026200000000000E10   -1.745670180146893E-3   3.846674944837520E-3  
 2.026400000000000E10   -1.213926061175365E-3   3.974535301281714E-3  
 2.026600000000000E10   -6.554016784511875E-4   4.176098667468433E-3  
 2.026800000000000E10    2.490349907993723E-6   4.347619686827616E-3  
 2.027000000000000E10    7.029722440880514E-4   4.412082729117616E-3  
 2.027200000000000E10    1.517385472888472E-3   4.335294471892679E-3  
 2.027400000000000E10    2.401379912463113E-3   4.033177268955811E-3  
 2.027600000000000E10    3.242112918461792E-3   3.467543138796656E-3  
 2.027800000000000E10    3.828440836933538E-3   2.690930826850083E-3  
 2.028000000000000E10    4.125432297204135E-3   1.863587461316138E-3  
 2.028200000000000E10    4.251778616336148E-3   1.057165543598587E-3  
 2.028400000000000E10    4.224587132226784E-3   2.945563442135084E-4  
 2.028600000000000E10    4.134845314355790E-3  -3.302814198203708E-4  
 2.028800000000000E10    4.075482416775370E-3  -9.431719459945898E-4  
 2.029000000000000E10    3.880698776156202E-3  -1.586217505075498E-3  
 2.029200000000000E10    3.545736810652379E-3  -2.189172795923895E-3  
 2.029400000000000E10    3.148720650492934E-3  -2.789317527709246E-3  
 2.029600000000000E10    2.626725568324941E-3  -3.342031590341603E-3  
 2.029800000000000E10    1.990297146202851E-3  -3.761744698693540E-3  
 2.030000000000000E10    1.274732269687816E-3  -4.028649402805317E-3  
 2.030200000000000E10    5.178504758571953E-4  -4.080817013319751E-3  
 2.030400000000000E10   -1.038717217190065E-4  -3.971803590364050E-3  
 2.030600000000000E10   -6.115305167527051E-4  -3.935433462369467E-3  
 2.030800000000000E10   -1.137315403428619E-3  -3.964260626783588E-3  
 2.031000000000000E10   -1.792231229720293E-3  -3.928998389392479E-3  
 2.031200000000000E10   -2.588489029648496E-3  -3.722606360942985E-3  
 2.031400000000000E10   -3.478134985162337E-3  -3.308176285292142E-3  
 2.031600000000000E10   -4.328402594774349E-3  -2.553405693383436E-3  
 2.031800000000000E10   -4.822464470096209E-3  -1.404775865184366E-3  
 2.032000000000000E10   -4.777098580459018E-3  -2.439754921415966E-4  
 2.032200000000000E10   -4.446400651409303E-3   6.465909031503395E-4  
 2.032400000000000E10   -4.101458162743860E-3   1.313553446589552E-3  
 2.032600000000000E10   -3.772015269431803E-3   1.906118462525247E-3  
 2.032800000000000E10   -3.329003758636523E-3   2.391091639888876E-3  
 2.033000000000000E10   -2.852165161290900E-3   2.739671998132220E-3  
 2.033200000000000E10   -2.475927464104423E-3   3.070201580086915E-3  
 2.033400000000000E10   -2.059081119941280E-3   3.520397593002813E-3  
 2.033600000000000E10   -1.813154474548505E-3   3.717955951138166E-3  
 2.033800000000000E10   -7.989172638804028E-4   4.058572684065918E-3  
 2.034000000000000E10   -1.390142643674748E-4   4.151765021415037E-3  
 2.034200000000000E10    5.658536458602599E-4   4.140735845322963E-3  
 2.034400000000000E10    1.240423721464451E-3   4.033346752417677E-3  
 2.034600000000000E10    1.831978864665048E-3   3.878937809969541E-3  
 2.034800000000000E10    2.456002861046743E-3   3.707263423244895E-3  
 2.035000000000000E10    3.214326653621877E-3   3.376535138061631E-3  
 2.035200000000000E10    4.016619681576152E-3   2.813544018010115E-3  
 2.035400000000000E10    4.710521978237993E-3   1.930316952306303E-3  
 2.035600000000000E10    5.032917151204599E-3   7.902299609215388E-4  
 2.035800000000000E10    4.906496215121124E-3  -3.318923782176863E-4  
 2.036000000000000E10    4.496602418184772E-3  -1.201218414722095E-3  
 2.036200000000000E10    4.044539523176819E-3  -1.883073038241439E-3  
 2.036400000000000E10    3.566532225229246E-3  -2.408347380972265E-3  
 2.036600000000000E10    3.138101943327813E-3  -2.728988736515306E-3  
 2.036800000000000E10    2.793725165097741E-3  -3.031905898594379E-3  
 2.037000000000000E10    2.442282436745157E-3  -3.498091027063966E-3  
 2.037200000000000E10    1.958139583759715E-3  -4.003754899350337E-3  
 2.037400000000000E10    1.280585395885103E-3  -4.458701538895507E-3  
 2.037600000000000E10    4.074090642379329E-4  -4.716926097195336E-3  
 2.037800000000000E10   -4.940328100569732E-4  -4.699907388246845E-3  
 2.038000000000000E10   -1.326477156526605E-3  -4.480896312590122E-3  
 2.038200000000000E10   -2.092597482978930E-3  -4.116494254565534E-3  
 2.038400000000000E10   -2.657910661365638E-3  -3.729273309287282E-3  
 2.038600000000000E10   -3.171576264624795E-3  -3.344830451341568E-3  
 2.038800000000000E10   -3.772026373441389E-3  -2.825550568278558E-3  
 2.039000000000000E10   -4.298706245781095E-3  -2.132942649984250E-3  
 2.039200000000000E10   -4.667121562493559E-3  -1.347701746966583E-3  
 2.039400000000000E10   -4.841772042245532E-3  -4.564923991941667E-4  
 2.039600000000000E10   -4.780406224322908E-3   3.908785809681334E-4  
 2.039800000000000E10   -4.588197027582201E-3   1.184742621801518E-3  
 2.040000000000000E10   -4.237582330273871E-3   1.967422409297385E-3  
 2.040200000000000E10   -3.757912132873703E-3   2.597732207864340E-3  
 2.040400000000000E10   -3.304622818259791E-3   3.022483982138122E-3  
 2.040600000000000E10   -2.849322187986394E-3   3.398772209323176E-3  
 2.040800000000000E10   -2.400752346686744E-3   3.775749706237773E-3  
 2.041000000000000E10   -1.923905395224323E-3   4.237431423439656E-3  
 2.041200000000000E10   -1.274456110986049E-3   4.681157680236019E-3  
 2.041400000000000E10   -4.848139231196708E-4   4.990806805023564E-3  
 2.041600000000000E10    4.310644737879820E-4   5.153414356395786E-3  
 2.041800000000000E10    1.471305623412930E-3   5.061365687000899E-3  
 2.042000000000000E10    2.474705609128861E-3   4.693263752669588E-3  
 2.042200000000000E10    3.363197575488086E-3   4.136851411926035E-3  
 2.042400000000000E10    4.018014894775403E-3   3.397008406052006E-3  
 2.042600000000000E10    4.451600112281587E-3   2.578467741961220E-3  
 2.042800000000000E10    4.801882202871175E-3   1.755853907450451E-3  
 2.043000000000000E10    5.038885089258353E-3   8.781965680175113E-4  
 2.043200000000000E10    5.080684113082450E-3  -3.198954111938623E-5  
 2.043400000000000E10    4.913679425654466E-3  -9.413495697675144E-4  
 2.043600000000000E10    4.521692708257296E-3  -1.738783265291541E-3  
 2.043800000000000E10    4.000999859377068E-3  -2.368338262363349E-3  
 2.044000000000000E10    3.488790745935078E-3  -2.862004583333562E-3  
 2.044200000000000E10    3.028995042222211E-3  -3.244007956773166E-3  
 2.044400000000000E10    2.595160080794506E-3  -3.529590327453651E-3  
 2.044600000000000E10    2.171610467664806E-3  -3.898274241620868E-3  
 2.044800000000000E10    1.650732636754497E-3  -4.378539069321912E-3  
 2.045000000000000E10    9.397983027875057E-4  -4.857855203174393E-3  
 2.045200000000000E10   -1.931514643617037E-5  -5.206794363021116E-3  
 2.045400000000000E10   -1.221094405520018E-3  -5.217475843435698E-3  
 2.045600000000000E10   -2.368137534562146E-3  -4.687543343292711E-3  
 2.045800000000000E10   -3.181343332868178E-3  -3.846187608262885E-3  
 2.046000000000000E10   -3.651076575181612E-3  -3.000604405562267E-3  
 2.046200000000000E10   -3.825640937298108E-3  -2.258234488712663E-3  
 2.046400000000000E10   -3.897525781167695E-3  -1.641907553866874E-3  
 2.046600000000000E10   -4.014026422490493E-3  -1.063026767128258E-3  
 2.046800000000000E10   -4.125341441512967E-3  -4.923278394005732E-4  
 2.047000000000000E10   -4.224608000751142E-3   1.527819570025560E-4  
 2.047200000000000E10   -4.158417224776721E-3   8.804112681908220E-4  
 2.047400000000000E10   -3.856694799131205E-3   1.577128445894416E-3  
 2.047600000000000E10   -3.374930846776982E-3   2.114323465586660E-3  
 2.047800000000000E10   -2.906885457037347E-3   2.502596940952564E-3  
 2.048000000000000E10   -2.553524242507087E-3   2.771110761596404E-3  
 2.048200000000000E10   -2.303364603308800E-3   3.069191019399544E-3  
 2.048400000000000E10   -1.916032074663191E-3   3.504253257020021E-3  
 2.048600000000000E10   -1.340357192941470E-3   3.949787875890364E-3  
 2.048800000000000E10   -5.875946620935307E-4   4.311502876657027E-3  
 2.049000000000000E10    3.274377204321849E-4   4.456798432954423E-3  
 2.049200000000000E10    1.248108982415142E-3   4.294938066736661E-3  
 2.049400000000000E10    2.080220437834783E-3   3.886030277873509E-3  
 2.049600000000000E10    2.767129695817154E-3   3.229675123682668E-3  
 2.049800000000000E10    3.213922117564660E-3   2.468805738107719E-3  
 2.050000000000000E10    3.375593341940655E-3   1.737144723948506E-3  
 2.050200000000000E10    3.259805035911532E-3   1.146878706562714E-3  
 2.050400000000000E10    3.173649460537198E-3   8.214641809885088E-4  
 2.050600000000000E10    3.338197623705301E-3   5.131026235535558E-4  
 2.050800000000000E10    3.557095789913962E-3   1.037431414526671E-5  
 2.051000000000000E10    3.593079312685341E-3  -6.046547657913633E-4  
 2.051200000000000E10    3.490628844219042E-3  -1.183173213433858E-3  
 2.051400000000000E10    3.306657001146197E-3  -1.796455738142348E-3  
 2.051600000000000E10    2.943479211679028E-3  -2.454676042567678E-3  
 2.051800000000000E10    2.391712137386816E-3  -2.985583018480873E-3  
 2.052000000000000E10    1.835498970323875E-3  -3.303271533400127E-3  
 2.052200000000000E10    1.296757854551936E-3  -3.559388813405555E-3  
 2.052400000000000E10    6.431333357544900E-4  -3.865819974369351E-3  
 2.052600000000000E10   -2.253455788804000E-4  -4.041055596813009E-3  
 2.052800000000000E10   -1.198785980768625E-3  -3.876797333666327E-3  
 2.053000000000000E10   -2.001855187999552E-3  -3.375057737561472E-3  
 2.053200000000000E10   -2.554901554574999E-3  -2.721287840938985E-3  
 2.053400000000000E10   -2.892362485628254E-3  -1.958535430347356E-3  
 2.053600000000000E10   -2.964274719196522E-3  -1.190107080552712E-3  
 2.053800000000000E10   -2.823796760436500E-3  -5.862356684316303E-4  
 2.054000000000000E10   -2.530106350994159E-3  -1.716121519559328E-4  
 2.054200000000000E10   -2.225890741281120E-3   7.420634836367619E-6  
 2.054400000000000E10   -2.119427215338613E-3   1.942954552426950E-5  
 2.054600000000000E10   -2.260015084534700E-3   9.649700070530116E-6  
 2.054800000000000E10   -2.635911639795137E-3   2.264452546881895E-4  
 2.055000000000000E10   -2.943085937726278E-3   8.590050109225200E-4  
 2.055200000000000E10   -2.840354724369422E-3   1.687415067773358E-3  
 2.055400000000000E10   -2.387189634964483E-3   2.393192536898969E-3  
 2.055600000000000E10   -1.767172379449869E-3   2.924412111425964E-3  
