#  HZ   S   RI   R     50.00 
! Rohde & Schwarz ZVA40 4Ports - Version 3.90 - 1145.1110k42 SN: 100403
! Date: 2023-10-03 12:42:46
! Measurement: S12 
! 
 2.000000000000000E10    2.040873129311720E-3  -3.835614534945768E-3  
 2.000200000000000E10    1.356611999878545E-3  -4.253695029075500E-3  
 2.000400000000000E10    5.564047792570000E-4  -4.467824313007756E-3  
 2.000600000000000E10   -2.858573946322855E-4  -4.468439509057337E-3  
 2.000800000000000E10   -1.082931502929165E-3  -4.311056244244547E-3  
 2.001000000000000E10   -1.827668016316530E-3  -4.029429500439653E-3  
 2.001200000000000E10   -2.463658667962861E-3  -3.647996535248779E-3  
 2.001400000000000E10   -3.058316691974064E-3  -3.260246524012384E-3  
 2.001600000000000E10   -3.756872200073652E-3  -2.706180668700441E-3  
 2.001800000000000E10   -4.321804586338041E-3  -1.817009061069033E-3  
 2.002000000000000E10   -4.516628789313046E-3  -7.783366722215752E-4  
 2.002200000000000E10   -4.379214845413780E-3   1.963876183489683E-4  
 2.002400000000000E10   -4.052596569153263E-3   9.691254968789443E-4  
 2.002600000000000E10   -3.611592087250802E-3   1.552831588519944E-3  
 2.002800000000000E10   -3.212567979331922E-3   1.996013830289429E-3  
 2.003000000000000E10   -2.789297195749335E-3   2.400418300825505E-3  
 2.003200000000000E10   -2.351962716928051E-3   2.675528738670695E-3  
 2.003400000000000E10   -1.977972506637467E-3   2.871773398285847E-3  
 2.003600000000000E10   -1.666757269521003E-3   3.143340145111268E-3  
 2.003800000000000E10   -1.248880877320505E-3   3.561110701411963E-3  
 2.004000000000000E10   -5.602640377208132E-4   3.936195553475876E-3  
 2.004200000000000E10    3.123323926788376E-4   4.034431036101816E-3  
 2.004400000000000E10    1.179497250654723E-3   3.794532154261331E-3  
 2.004600000000000E10    1.846659804958805E-3   3.278542565825729E-3  
 2.004800000000000E10    2.207380952313542E-3   2.725127466413894E-3  
 2.005000000000000E10    2.402745914519017E-3   2.318722241914567E-3  
 2.005200000000000E10    2.654550407357790E-3   2.022349749933238E-3  
 2.005400000000000E10    2.937024861666156E-3   1.681327446145408E-3  
 2.005600000000000E10    3.238301456871409E-3   1.248480460353564E-3  
 2.005800000000000E10    3.486024825201359E-3   7.062604971356506E-4  
 2.006000000000000E10    3.637846386818975E-3   1.086626567642124E-4  
 2.006200000000000E10    3.673407444615424E-3  -5.422080385521699E-4  
 2.006400000000000E10    3.519355290695842E-3  -1.271400790385626E-3  
 2.006600000000000E10    3.149741153911125E-3  -1.938480477101733E-3  
 2.006800000000000E10    2.624558457345875E-3  -2.408302834625414E-3  
 2.007000000000000E10    2.138514275789078E-3  -2.622593579422913E-3  
 2.007200000000000E10    1.865664497017861E-3  -2.835201105263866E-3  
 2.007400000000000E10    1.540233414148751E-3  -3.239593129421090E-3  
 2.007600000000000E10    9.609807331551924E-4  -3.644780879610299E-3  
 2.007800000000000E10    2.165117141065607E-4  -3.895079573317443E-3  
 2.008000000000000E10   -6.023169018006252E-4  -3.915883281647608E-3  
 2.008200000000000E10   -1.385943613440534E-3  -3.671048597122233E-3  
 2.008400000000000E10   -2.072562590057468E-3  -3.225020817078559E-3  
 2.008600000000000E10   -2.570939922912254E-3  -2.637526023282130E-3  
 2.008800000000000E10   -2.863382012295870E-3  -2.029346813804206E-3  
 2.009000000000000E10   -2.958175039240792E-3  -1.443466612850719E-3  
 2.009200000000000E10   -2.921292043785439E-3  -1.010803895266612E-3  
 2.009400000000000E10   -2.957062172002079E-3  -7.374372152197693E-4  
 2.009600000000000E10   -3.113091750829309E-3  -3.995617048924123E-4  
 2.009800000000000E10   -3.263543449043308E-3   3.831622346712532E-5  
 2.010000000000000E10   -3.320953236708855E-3   5.877941687315427E-4  
 2.010200000000000E10   -3.203979584123986E-3   1.156783450026939E-3  
 2.010400000000000E10   -2.971057820329328E-3   1.654253661759014E-3  
 2.010600000000000E10   -2.728210126889157E-3   2.093875593862232E-3  
 2.010800000000000E10   -2.487720021932030E-3   2.560117606786482E-3  
 2.011000000000000E10   -2.088297997819789E-3   3.093550205920582E-3  
 2.011200000000000E10   -1.504153405592122E-3   3.512825362706258E-3  
 2.011400000000000E10   -8.257468443731836E-4   3.788867410571304E-3  
 2.011600000000000E10   -1.006699257018620E-4   3.919566688300283E-3  
 2.011800000000000E10    6.421977656973917E-4   3.908682557075848E-3  
 2.012000000000000E10    1.379955870409807E-3   3.726909684454218E-3  
 2.012200000000000E10    2.072816450194813E-3   3.332688343814678E-3  
 2.012400000000000E10    2.593930020215519E-3   2.803258094821632E-3  
 2.012600000000000E10    2.944044671078892E-3   2.247679653795965E-3  
 2.012800000000000E10    3.175102602575481E-3   1.718671351418267E-3  
 2.013000000000000E10    3.343159801407177E-3   1.177365395792381E-3  
 2.013200000000000E10    3.412948007246963E-3   6.396292225906143E-4  
 2.013400000000000E10    3.442108289074199E-3   1.241869227040881E-4  
 2.013600000000000E10    3.422638300783289E-3  -4.132778385947287E-4  
 2.013800000000000E10    3.327294764465389E-3  -9.312516827147779E-4  
 2.014000000000000E10    3.075531747100162E-3  -1.477788679623678E-3  
 2.014200000000000E10    2.693292224940695E-3  -1.867235994633334E-3  
 2.014400000000000E10    2.369000156766471E-3  -2.125192887759135E-3  
 2.014600000000000E10    2.131254374865949E-3  -2.367656493996397E-3  
 2.014800000000000E10    1.891140409250871E-3  -2.674781800719139E-3  
 2.015000000000000E10    1.565172877392652E-3  -3.008538356947679E-3  
 2.015200000000000E10    1.172603826601932E-3  -3.354607483395089E-3  
 2.015400000000000E10    6.179522125073422E-4  -3.706743796988402E-3  
 2.015600000000000E10   -1.461759784433525E-4  -3.902553960129067E-3  
 2.015800000000000E10   -9.641718251607670E-4  -3.820647146368837E-3  
 2.016000000000000E10   -1.707545487371124E-3  -3.476990961734160E-3  
 2.016200000000000E10   -2.257116297029971E-3  -2.915669511428770E-3  
 2.016400000000000E10   -2.499824973329166E-3  -2.329176375182507E-3  
 2.016600000000000E10   -2.534983061644951E-3  -1.952642646767659E-3  
 2.016800000000000E10   -2.641376490233305E-3  -1.782687652545671E-3  
 2.017000000000000E10   -2.932226874601142E-3  -1.620605237276098E-3  
 2.017200000000000E10   -3.352065973075820E-3  -1.305842001772957E-3  
 2.017400000000000E10   -3.749899638034864E-3  -7.982311402390034E-4  
 2.017600000000000E10   -4.044757103892389E-3  -1.275376729339499E-4  
 2.017800000000000E10   -4.132657058904937E-3   6.691837326887951E-4  
 2.018000000000000E10   -3.978575930505256E-3   1.489286855679512E-3  
 2.018200000000000E10   -3.583393663305928E-3   2.230689662543160E-3  
 2.018400000000000E10   -3.043167373556414E-3   2.764184323978829E-3  
 2.018600000000000E10   -2.557407254008232E-3   3.088012113477345E-3  
 2.018800000000000E10   -2.157099033349459E-3   3.409402781269617E-3  
 2.019000000000000E10   -1.691877143457532E-3   3.792429055420705E-3  
 2.019200000000000E10   -1.079137639694468E-3   4.165064940160073E-3  
 2.019400000000000E10   -3.333855668272548E-4   4.424476444169328E-3  
 2.019600000000000E10    4.820028667763612E-4   4.508575188846869E-3  
 2.019800000000000E10    1.338413118867687E-3   4.384503774574878E-3  
 2.020000000000000E10    2.142720651686376E-3   3.997447130120832E-3  
 2.020200000000000E10    2.732595719144117E-3   3.460341782803521E-3  
 2.020400000000000E10    3.156960470440948E-3   2.988724221969829E-3  
 2.020600000000000E10    3.580167383691412E-3   2.509398814175784E-3  
 2.020800000000000E10    3.954580755053480E-3   1.959102098933525E-3  
 2.021000000000000E10    4.291212266701976E-3   1.360352655562262E-3  
 2.021200000000000E10    4.626675940084237E-3   6.716864343077221E-4  
 2.021400000000000E10    4.878492744202600E-3  -2.135142432827572E-4  
 2.021600000000000E10    4.824045424660048E-3  -1.258867462223143E-3  
 2.021800000000000E10    4.393936071636869E-3  -2.234953116441583E-3  
 2.022000000000000E10    3.751942678067236E-3  -2.949963309399692E-3  
 2.022200000000000E10    3.071905507556635E-3  -3.479614095003517E-3  
 2.022400000000000E10    2.330893239604287E-3  -3.840474549818923E-3  
 2.022600000000000E10    1.586914467797788E-3  -3.990000441532445E-3  
 2.022800000000000E10    9.917266786178968E-4  -3.963305994316385E-3  
 2.023000000000000E10    6.068727891909442E-4  -4.037855262005771E-3  
 2.023200000000000E10    6.028717415361314E-5  -4.318353110625421E-3  
 2.023400000000000E10   -7.669722171281867E-4  -4.446686504201757E-3  
 2.023600000000000E10   -1.609601649559207E-3  -4.270211120860444E-3  
 2.023800000000000E10   -2.374629849384045E-3  -3.888626419076766E-3  
 2.024000000000000E10   -3.009493744437710E-3  -3.356358228987198E-3  
 2.024200000000000E10   -3.492659478114896E-3  -2.767530396396732E-3  
 2.024400000000000E10   -3.859396385787814E-3  -2.132577861854692E-3  
 2.024600000000000E10   -4.117520922725953E-3  -1.467667537292949E-3  
 2.024800000000000E10   -4.284295471914021E-3  -8.022803597635143E-4  
 2.025000000000000E10   -4.413267683789687E-3  -9.288736884942127E-5  
 2.025200000000000E10   -4.449374749566671E-3   6.889146565816102E-4  
 2.025400000000000E10   -4.277820399973864E-3   1.524735058163419E-3  
 2.025600000000000E10   -3.867212455880680E-3   2.300562765334308E-3  
 2.025800000000000E10   -3.269520921655644E-3   2.905102705376016E-3  
 2.026000000000000E10   -2.663814186773919E-3   3.301338358770735E-3  
 2.026200000000000E10   -2.091628740783091E-3   3.569164060424140E-3  
 2.026400000000000E10   -1.572333484669619E-3   3.782039580084844E-3  
 2.026600000000000E10   -1.012625263998124E-3   4.011506272226940E-3  
 2.026800000000000E10   -3.739247559779971E-4   4.166411477382537E-3  
 2.027000000000000E10    2.838717211241961E-4   4.273343463370830E-3  
 2.027200000000000E10    1.061853705502955E-3   4.301931450350418E-3  
 2.027400000000000E10    1.914953429217416E-3   4.128008416888339E-3  
 2.027600000000000E10    2.728960304348558E-3   3.663608838838560E-3  
 2.027800000000000E10    3.359048483594332E-3   2.985522426940777E-3  
 2.028000000000000E10    3.770117305886047E-3   2.274359964455168E-3  
 2.028200000000000E10    4.019830128706901E-3   1.554826288886461E-3  
 2.028400000000000E10    4.102405862031896E-3   8.489884289533452E-4  
 2.028600000000000E10    4.106869952707196E-3   2.439831132730355E-4  
 2.028800000000000E10    4.144573092667594E-3  -3.648192825135028E-4  
 2.029000000000000E10    4.093267612826126E-3  -1.057019202831995E-3  
 2.029200000000000E10    3.929592585651044E-3  -1.744876831287036E-3  
 2.029400000000000E10    3.630509901860798E-3  -2.432607269535462E-3  
 2.029600000000000E10    3.162223814101316E-3  -3.083220815263045E-3  
 2.029800000000000E10    2.536705833066393E-3  -3.649860709606682E-3  
 2.030000000000000E10    1.810551497418388E-3  -4.056965452216474E-3  
 2.030200000000000E10    1.018673490537446E-3  -4.227842514713606E-3  
 2.030400000000000E10    3.643716368565543E-4  -4.205806933941297E-3  
 2.030600000000000E10   -1.856463508217676E-4  -4.214668629208098E-3  
 2.030800000000000E10   -7.968803265499941E-4  -4.296824324554132E-3  
 2.031000000000000E10   -1.560874378170680E-3  -4.337300805168020E-3  
 2.031200000000000E10   -2.445547347083505E-3  -4.185902408933567E-3  
 2.031400000000000E10   -3.417771824141160E-3  -3.781781135195936E-3  
 2.031600000000000E10   -4.353855523844193E-3  -2.991779707372189E-3  
 2.031800000000000E10   -4.928225979070973E-3  -1.798831469689807E-3  
 2.032000000000000E10   -4.957531797297208E-3  -6.197863459633090E-4  
 2.032200000000000E10   -4.701692317784937E-3   2.773027564542667E-4  
 2.032400000000000E10   -4.422237487210904E-3   9.710574853176507E-4  
 2.032600000000000E10   -4.130111771555227E-3   1.629900283548107E-3  
 2.032800000000000E10   -3.729964540351505E-3   2.218094924579800E-3  
 2.033000000000000E10   -3.319348898474818E-3   2.657950427498163E-3  
 2.033200000000000E10   -2.978430839577391E-3   3.081484013639483E-3  
 2.033400000000000E10   -2.542467506165490E-3   3.614619394396375E-3  
 2.033600000000000E10   -2.261658995354801E-3   3.892410762125144E-3  
 2.033800000000000E10   -1.144998107553908E-3   4.401364547694907E-3  
 2.034000000000000E10   -3.854232777091875E-4   4.576504655918222E-3  
 2.034200000000000E10    4.120277915290777E-4   4.589036802680773E-3  
 2.034400000000000E10    1.158128304257529E-3   4.466382137005344E-3  
 2.034600000000000E10    1.831879173865381E-3   4.291527191705911E-3  
 2.034800000000000E10    2.553036531295490E-3   4.098395265086935E-3  
 2.035000000000000E10    3.380856882021935E-3   3.766396065691004E-3  
 2.035200000000000E10    4.224667204888883E-3   3.172332386451740E-3  
 2.035400000000000E10    4.977624449465010E-3   2.215740796937435E-3  
 2.035600000000000E10    5.369319683975644E-3   9.887010709922993E-4  
 2.035800000000000E10    5.282913535879351E-3  -2.169528994766743E-4  
 2.036000000000000E10    4.890960411249120E-3  -1.171942029211579E-3  
 2.036200000000000E10    4.437596462437033E-3  -1.901195213532099E-3  
 2.036400000000000E10    3.924202357913242E-3  -2.497737088965045E-3  
 2.036600000000000E10    3.423617347890949E-3  -2.909792383074945E-3  
 2.036800000000000E10    3.043528769832151E-3  -3.252271321360713E-3  
 2.037000000000000E10    2.677114415959812E-3  -3.719640504798772E-3  
 2.037200000000000E10    2.153681594027598E-3  -4.242550851892174E-3  
 2.037400000000000E10    1.410980703148209E-3  -4.727402575498011E-3  
 2.037600000000000E10    4.660173586604221E-4  -5.025530952592324E-3  
 2.037800000000000E10   -5.158710435038595E-4  -5.010034388828057E-3  
 2.038000000000000E10   -1.401117718261149E-3  -4.770136478552480E-3  
 2.038200000000000E10   -2.165527151966537E-3  -4.381941924630492E-3  
 2.038400000000000E10   -2.787837206765458E-3  -3.953671537017750E-3  
 2.038600000000000E10   -3.379133986999040E-3  -3.536311225436720E-3  
 2.038800000000000E10   -4.005787399723943E-3  -2.984223208953569E-3  
 2.039000000000000E10   -4.519500108550728E-3  -2.251263242214918E-3  
 2.039200000000000E10   -4.867027002030318E-3  -1.381304368008802E-3  
 2.039400000000000E10   -5.012502083209931E-3  -4.334908810927085E-4  
 2.039600000000000E10   -4.937454080784028E-3   4.241433121080018E-4  
 2.039800000000000E10   -4.743461382149915E-3   1.239929408593862E-3  
 2.040000000000000E10   -4.405473301440111E-3   2.010103957555085E-3  
 2.040200000000000E10   -3.911742359905700E-3   2.622955165412507E-3  
 2.040400000000000E10   -3.447346567509719E-3   3.071199668525362E-3  
 2.040600000000000E10   -3.008790340067612E-3   3.485192653987511E-3  
 2.040800000000000E10   -2.584645329158248E-3   3.878330340447986E-3  
 2.041000000000000E10   -2.126758659465446E-3   4.339842401720860E-3  
 2.041200000000000E10   -1.454933553669648E-3   4.844835235012903E-3  
 2.041400000000000E10   -6.068497184767491E-4   5.249739354361355E-3  
 2.041600000000000E10    3.988214707027915E-4   5.460457859077940E-3  
 2.041800000000000E10    1.540320857864931E-3   5.396588285810050E-3  
 2.042000000000000E10    2.607999717310807E-3   5.015936795116208E-3  
 2.042200000000000E10    3.547405421641875E-3   4.388987724841745E-3  
 2.042400000000000E10    4.273236344028035E-3   3.571200644436443E-3  
 2.042600000000000E10    4.760328283602441E-3   2.702682250305827E-3  
 2.042800000000000E10    5.107709384856769E-3   1.834048372175959E-3  
 2.043000000000000E10    5.294349377997864E-3   8.807020882765453E-4  
 2.043200000000000E10    5.294377122212340E-3  -9.577391657656364E-5  
 2.043400000000000E10    5.112575890243422E-3  -1.015272143837295E-3  
 2.043600000000000E10    4.734759230488612E-3  -1.851855830381406E-3  
 2.043800000000000E10    4.255212550223978E-3  -2.530825841757987E-3  
 2.044000000000000E10    3.717313325147570E-3  -3.079166400165838E-3  
 2.044200000000000E10    3.193663568293423E-3  -3.537066459057876E-3  
 2.044400000000000E10    2.671240360395592E-3  -3.907610432325323E-3  
 2.044600000000000E10    2.162732873801832E-3  -4.304089543214183E-3  
 2.044800000000000E10    1.554345933398531E-3  -4.742098966452443E-3  
 2.045000000000000E10    7.455654738378931E-4  -5.135836361413017E-3  
 2.045200000000000E10   -2.692677267470662E-4  -5.424213302494200E-3  
 2.045400000000000E10   -1.509767491370440E-3  -5.374401710053654E-3  
 2.045600000000000E10   -2.701736664698448E-3  -4.820585888982923E-3  
 2.045800000000000E10   -3.558583698453912E-3  -3.950902927712894E-3  
 2.046000000000000E10   -4.050446432773715E-3  -2.991028658953714E-3  
 2.046200000000000E10   -4.244288711314216E-3  -2.107896491379282E-3  
 2.046400000000000E10   -4.281192241857450E-3  -1.373380396722092E-3  
 2.046600000000000E10   -4.280739481112472E-3  -7.425126487412203E-4  
 2.046800000000000E10   -4.255041537553440E-3  -1.765114974221905E-4  
 2.047000000000000E10   -4.273692329908595E-3   4.681968410430408E-4  
 2.047200000000000E10   -4.186439281904405E-3   1.211690097000956E-3  
 2.047400000000000E10   -3.835395254470684E-3   1.947109570243845E-3  
 2.047600000000000E10   -3.297208908968318E-3   2.516082390269012E-3  
 2.047800000000000E10   -2.743092207468035E-3   2.866384032883762E-3  
 2.048000000000000E10   -2.288615811087283E-3   3.090339183899356E-3  
 2.048200000000000E10   -1.944513629294104E-3   3.349582908997013E-3  
 2.048400000000000E10   -1.511177301038931E-3   3.730567609086449E-3  
 2.048600000000000E10   -9.146190275737074E-4   4.068849568059784E-3  
 2.048800000000000E10   -1.423775982762038E-4   4.272098296586379E-3  
 2.049000000000000E10    7.642156395624266E-4   4.285286301402031E-3  
 2.049200000000000E10    1.627774804221168E-3   4.019301258211519E-3  
 2.049400000000000E10    2.392072132846088E-3   3.536132066568107E-3  
 2.049600000000000E10    2.997941673836775E-3   2.841173375117375E-3  
 2.049800000000000E10    3.335629825560768E-3   2.052902473987621E-3  
 2.050000000000000E10    3.420465036559804E-3   1.288469084596009E-3  
 2.050200000000000E10    3.239064451514020E-3   6.819610831753156E-4  
 2.050400000000000E10    3.065001371857009E-3   3.936700477986310E-4  
 2.050600000000000E10    3.109520387456373E-3   1.665409557815257E-4  
 2.050800000000000E10    3.219197969883681E-3  -2.571448225982165E-4  
 2.051000000000000E10    3.210463477758531E-3  -7.925206453274983E-4  
 2.051200000000000E10    3.089490573692286E-3  -1.287939749876566E-3  
 2.051400000000000E10    2.913975174090377E-3  -1.829858337540502E-3  
 2.051600000000000E10    2.578468475904730E-3  -2.424156002953281E-3  
 2.051800000000000E10    2.014286110442086E-3  -2.911023117233942E-3  
 2.052000000000000E10    1.405780716730213E-3  -3.164809461637044E-3  
 2.052200000000000E10    8.667735228412728E-4  -3.320057025570193E-3  
 2.052400000000000E10    3.254045978444342E-4  -3.486252470332900E-3  
 2.052600000000000E10   -3.936101019249174E-4  -3.571626549172733E-3  
 2.052800000000000E10   -1.232944190341198E-3  -3.382607504012593E-3  
 2.053000000000000E10   -1.907049560413501E-3  -2.897059567916542E-3  
 2.053200000000000E10   -2.360695812069340E-3  -2.280139623002874E-3  
 2.053400000000000E10   -2.626673059744968E-3  -1.596587000092791E-3  
 2.053600000000000E10   -2.646944479855859E-3  -9.163451189876617E-4  
 2.053800000000000E10   -2.458376350042261E-3  -3.605228208066871E-4  
 2.054000000000000E10   -2.132927771818675E-3   1.078946365008974E-6  
 2.054200000000000E10   -1.820238815896489E-3   7.380098126035320E-5  
 2.054400000000000E10   -1.716951628353585E-3  -4.010255765428563E-5  
 2.054600000000000E10   -1.873164949363765E-3  -1.397034961826896E-4  
 2.054800000000000E10   -2.295090440361772E-3   2.178697315774810E-5  
 2.055000000000000E10   -2.628994358266578E-3   5.930708239809323E-4  
 2.055200000000000E10   -2.554717180491598E-3   1.339275509199519E-3  
 2.055400000000000E10   -2.196937664354473E-3   1.966488196939966E-3  
 2.055600000000000E10   -1.679487816736471E-3   2.427533622486172E-3  
