#  HZ   S   RI   R     50.00 
! Rohde & Schwarz ZVA40 4Ports - Version 3.90 - 1145.1110k42 SN: 100403
! Date: 2023-10-03 12:43:15
! Measurement: S12 
! 
 2.000000000000000E10    1.996305158913688E-3  -4.082562729578328E-3  
 2.000200000000000E10    1.250216612350886E-3  -4.469592779598855E-3  
 2.000400000000000E10    3.946678167536718E-4  -4.647390727229693E-3  
 2.000600000000000E10   -4.846390780854833E-4  -4.621792325956955E-3  
 2.000800000000000E10   -1.330351383701243E-3  -4.463438375818509E-3  
 2.001000000000000E10   -2.135986729559523E-3  -4.110959082565926E-3  
 2.001200000000000E10   -2.758069472663381E-3  -3.616090510385456E-3  
 2.001400000000000E10   -3.291647320751239E-3  -3.144314081442577E-3  
 2.001600000000000E10   -3.931056069969028E-3  -2.552342092342399E-3  
 2.001800000000000E10   -4.459544033226040E-3  -1.662808216038954E-3  
 2.002000000000000E10   -4.605931868017824E-3  -6.138777459488699E-4  
 2.002200000000000E10   -4.420156745860974E-3   3.633560662382041E-4  
 2.002400000000000E10   -4.069481700382851E-3   1.136918746245404E-3  
 2.002600000000000E10   -3.626821528154391E-3   1.714512089232880E-3  
 2.002800000000000E10   -3.211718156105943E-3   2.157186537429139E-3  
 2.003000000000000E10   -2.758329622102557E-3   2.549074150414931E-3  
 2.003200000000000E10   -2.270634743143563E-3   2.816091826254571E-3  
 2.003400000000000E10   -1.847968113401698E-3   2.988795232441691E-3  
 2.003600000000000E10   -1.533668108836369E-3   3.211224667245040E-3  
 2.003800000000000E10   -1.115486181030671E-3   3.591518762900874E-3  
 2.004000000000000E10   -4.479047234377100E-4   3.916770702710858E-3  
 2.004200000000000E10    3.963676044131043E-4   4.005916356281550E-3  
 2.004400000000000E10    1.272614898711995E-3   3.786779276129824E-3  
 2.004600000000000E10    1.949774726569929E-3   3.301774729388180E-3  
 2.004800000000000E10    2.345167859284967E-3   2.765553710223349E-3  
 2.005000000000000E10    2.571119012794009E-3   2.313041438659032E-3  
 2.005200000000000E10    2.828868614785650E-3   1.945973093690420E-3  
 2.005400000000000E10    3.090816256762655E-3   1.531859290682607E-3  
 2.005600000000000E10    3.335283724246202E-3   1.071152661030216E-3  
 2.005800000000000E10    3.504916697878529E-3   5.227903731995160E-4  
 2.006000000000000E10    3.599581998531466E-3  -5.881372729803576E-5  
 2.006200000000000E10    3.612205817329663E-3  -6.845207643453723E-4  
 2.006400000000000E10    3.482547942204057E-3  -1.406502245959861E-3  
 2.006600000000000E10    3.116962758617269E-3  -2.100931661617425E-3  
 2.006800000000000E10    2.536113891336653E-3  -2.571881119230832E-3  
 2.007000000000000E10    1.995099704126241E-3  -2.738108108234075E-3  
 2.007200000000000E10    1.692592450934980E-3  -2.909343603446528E-3  
 2.007400000000000E10    1.355152094253788E-3  -3.256082940087827E-3  
 2.007600000000000E10    7.996594541947600E-4  -3.579731409748396E-3  
 2.007800000000000E10    1.034039938800830E-4  -3.771598537073091E-3  
 2.008000000000000E10   -6.748021459551873E-4  -3.791263283885740E-3  
 2.008200000000000E10   -1.473780842153011E-3  -3.576566844626710E-3  
 2.008400000000000E10   -2.200497262593773E-3  -3.124090256514373E-3  
 2.008600000000000E10   -2.691643088366147E-3  -2.510694864516457E-3  
 2.008800000000000E10   -2.941177821614676E-3  -1.866924050436528E-3  
 2.009000000000000E10   -3.010597916457941E-3  -1.248151538203712E-3  
 2.009200000000000E10   -2.943529894023582E-3  -7.828485664773595E-4  
 2.009400000000000E10   -2.916637687357488E-3  -5.183945759199561E-4  
 2.009600000000000E10   -2.999487962504781E-3  -2.123184315644688E-4  
 2.009800000000000E10   -3.077790494663297E-3   1.990129164402822E-4  
 2.010000000000000E10   -3.086820175802267E-3   7.060627815210158E-4  
 2.010200000000000E10   -2.959389955288282E-3   1.220987566436331E-3  
 2.010400000000000E10   -2.747384357024674E-3   1.680412782459624E-3  
 2.010600000000000E10   -2.495377557352185E-3   2.062777065913434E-3  
 2.010800000000000E10   -2.244376439463210E-3   2.430611936789420E-3  
 2.011000000000000E10   -1.891069269428651E-3   2.878970906345381E-3  
 2.011200000000000E10   -1.392723332780103E-3   3.293513518723625E-3  
 2.011400000000000E10   -7.990958746867600E-4   3.596344428067958E-3  
 2.011600000000000E10   -1.134829950320569E-4   3.743552482100549E-3  
 2.011800000000000E10    6.245702043762086E-4   3.732291662513658E-3  
 2.012000000000000E10    1.380699428005351E-3   3.526965337288049E-3  
 2.012200000000000E10    2.044930510843794E-3   3.099049743333901E-3  
 2.012400000000000E10    2.483705808925960E-3   2.578216544524939E-3  
 2.012600000000000E10    2.748900774383435E-3   2.049251856213367E-3  
 2.012800000000000E10    2.915481252043888E-3   1.576912917058777E-3  
 2.013000000000000E10    3.078242453436057E-3   1.089930849115330E-3  
 2.013200000000000E10    3.183145662424742E-3   6.325302011747328E-4  
 2.013400000000000E10    3.225627036213323E-3   2.118997530218352E-4  
 2.013600000000000E10    3.232805705111888E-3  -2.394419791892654E-4  
 2.013800000000000E10    3.185983523036595E-3  -7.240426256666306E-4  
 2.014000000000000E10    3.004259835169824E-3  -1.256564593253037E-3  
 2.014200000000000E10    2.732498364316093E-3  -1.689802096397789E-3  
 2.014400000000000E10    2.479344494295893E-3  -2.011753868794552E-3  
 2.014600000000000E10    2.236408146995086E-3  -2.289562572345690E-3  
 2.014800000000000E10    1.967600900334893E-3  -2.615817537945178E-3  
 2.015000000000000E10    1.634378939073671E-3  -2.970629708013602E-3  
 2.015200000000000E10    1.271770900563786E-3  -3.366726114311153E-3  
 2.015400000000000E10    7.313491552378294E-4  -3.784876178812098E-3  
 2.015600000000000E10   -9.222707066564235E-5  -4.034349901808633E-3  
 2.015800000000000E10   -1.005299863646980E-3  -3.959751877657794E-3  
 2.016000000000000E10   -1.838588237727958E-3  -3.567895817535896E-3  
 2.016200000000000E10   -2.429021600012978E-3  -2.939006736226105E-3  
 2.016400000000000E10   -2.630998406352269E-3  -2.310524677374849E-3  
 2.016600000000000E10   -2.632502475063558E-3  -1.900381162866123E-3  
 2.016800000000000E10   -2.745891567664566E-3  -1.663069784020384E-3  
 2.017000000000000E10   -3.031936689728388E-3  -1.424567911911894E-3  
 2.017200000000000E10   -3.388984732467820E-3  -1.069038369071981E-3  
 2.017400000000000E10   -3.679118645204990E-3  -5.770848839785215E-4  
 2.017600000000000E10   -3.890595278116288E-3   5.259900569432863E-5  
 2.017800000000000E10   -3.918659838813323E-3   8.099501331647239E-4  
 2.018000000000000E10   -3.729192264102124E-3   1.582971653314653E-3  
 2.018200000000000E10   -3.359938057622424E-3   2.246363071241865E-3  
 2.018400000000000E10   -2.868252219977203E-3   2.694100555446413E-3  
 2.018600000000000E10   -2.414218857194539E-3   2.982357447897947E-3  
 2.018800000000000E10   -2.005316437808452E-3   3.315073015444257E-3  
 2.019000000000000E10   -1.529171812796483E-3   3.707553018574362E-3  
 2.019200000000000E10   -9.504832107470268E-4   4.051386326965359E-3  
 2.019400000000000E10   -2.308134054247705E-4   4.272035978458546E-3  
 2.019600000000000E10    5.568128092110986E-4   4.298932953841157E-3  
 2.019800000000000E10    1.373665502156925E-3   4.127823437253634E-3  
 2.020000000000000E10    2.134768645865498E-3   3.742933920067218E-3  
 2.020200000000000E10    2.664447149813727E-3   3.239816296155806E-3  
 2.020400000000000E10    3.018576022306527E-3   2.795602979690389E-3  
 2.020600000000000E10    3.376620511213939E-3   2.305572421324474E-3  
 2.020800000000000E10    3.687358737267830E-3   1.766852508471520E-3  
 2.021000000000000E10    3.973009133780445E-3   1.251482913546540E-3  
 2.021200000000000E10    4.291837983247307E-3   6.836581871741349E-4  
 2.021400000000000E10    4.542510042449943E-3  -7.612900460824472E-5  
 2.021600000000000E10    4.535414606194806E-3  -1.019060879048926E-3  
 2.021800000000000E10    4.195001735179513E-3  -1.939641268647931E-3  
 2.022000000000000E10    3.676896716502530E-3  -2.653722875510101E-3  
 2.022200000000000E10    3.110690827102021E-3  -3.219214888910453E-3  
 2.022400000000000E10    2.429790855212896E-3  -3.614388578743847E-3  
 2.022600000000000E10    1.677879472953026E-3  -3.787812750993504E-3  
 2.022800000000000E10    1.080819090862793E-3  -3.785850816509790E-3  
 2.023000000000000E10    7.269146132144940E-4  -3.880962134442396E-3  
 2.023200000000000E10    2.231787492982458E-4  -4.153969525187104E-3  
 2.023400000000000E10   -5.273157558231443E-4  -4.275230432136192E-3  
 2.023600000000000E10   -1.291797768014173E-3  -4.152523508916299E-3  
 2.023800000000000E10   -2.033349247304378E-3  -3.873021410847152E-3  
 2.024000000000000E10   -2.690203272289148E-3  -3.459855207000618E-3  
 2.024200000000000E10   -3.224941263734191E-3  -2.971779710302751E-3  
 2.024400000000000E10   -3.646607208928025E-3  -2.382190820450584E-3  
 2.024600000000000E10   -3.973128550030567E-3  -1.730672571014751E-3  
 2.024800000000000E10   -4.239734210487870E-3  -1.073616535264861E-3  
 2.025000000000000E10   -4.456721091022095E-3  -3.526774159615377E-4  
 2.025200000000000E10   -4.534771579697177E-3   4.504468815866858E-4  
 2.025400000000000E10   -4.377747851389426E-3   1.311812304063804E-3  
 2.025600000000000E10   -3.995633580618435E-3   2.105231728853175E-3  
 2.025800000000000E10   -3.466281022324607E-3   2.761966022835286E-3  
 2.026000000000000E10   -2.888264479460540E-3   3.220842004305235E-3  
 2.026200000000000E10   -2.330949012604025E-3   3.504202787384943E-3  
 2.026400000000000E10   -1.825304732106074E-3   3.736594260704739E-3  
 2.026600000000000E10   -1.272091590281990E-3   4.052957554382307E-3  
 2.026800000000000E10   -6.090214851105380E-4   4.314382526057739E-3  
 2.027000000000000E10    1.206912843961753E-4   4.493873894076657E-3  
 2.027200000000000E10    9.708535853186969E-4   4.532111015308787E-3  
 2.027400000000000E10    1.867037275116201E-3   4.314898099336360E-3  
 2.027600000000000E10    2.700012677383644E-3   3.833820836411582E-3  
 2.027800000000000E10    3.334084999989029E-3   3.196191646296669E-3  
 2.028000000000000E10    3.777227752531569E-3   2.540661893026145E-3  
 2.028200000000000E10    4.085111449024192E-3   1.850874982429324E-3  
 2.028400000000000E10    4.254883810601853E-3   1.108956406824291E-3  
 2.028600000000000E10    4.349942526055708E-3   4.288188992413107E-4  
 2.028800000000000E10    4.456953697458462E-3  -2.944781197045275E-4  
 2.029000000000000E10    4.413002032648635E-3  -1.103362926557936E-3  
 2.029200000000000E10    4.181538725754729E-3  -1.888796402555374E-3  
 2.029400000000000E10    3.776149617301093E-3  -2.643364248797298E-3  
 2.029600000000000E10    3.204692862238046E-3  -3.315698036372110E-3  
 2.029800000000000E10    2.515855685083403E-3  -3.842852975207347E-3  
 2.030000000000000E10    1.753919658734015E-3  -4.173713874209811E-3  
 2.030200000000000E10    9.798627234650433E-4  -4.257303817818563E-3  
 2.030400000000000E10    3.517037462356880E-4  -4.224915247134589E-3  
 2.030600000000000E10   -2.068306591051320E-4  -4.257758855129835E-3  
 2.030800000000000E10   -8.229061538629512E-4  -4.352818450166120E-3  
 2.031000000000000E10   -1.599725857549520E-3  -4.388590343296528E-3  
 2.031200000000000E10   -2.490293700248003E-3  -4.216021513221441E-3  
 2.031400000000000E10   -3.470903365976281E-3  -3.781932181920166E-3  
 2.031600000000000E10   -4.416057391575089E-3  -3.013363185649117E-3  
 2.031800000000000E10   -4.997169736910750E-3  -1.827472920046637E-3  
 2.032000000000000E10   -5.006532581454075E-3  -6.507408322283516E-4  
 2.032200000000000E10   -4.749601844836165E-3   2.622040197753383E-4  
 2.032400000000000E10   -4.471727439926731E-3   9.799398421482357E-4  
 2.032600000000000E10   -4.167840798833857E-3   1.672586176061520E-3  
 2.032800000000000E10   -3.743336837807740E-3   2.251579633189573E-3  
 2.033000000000000E10   -3.321385873412645E-3   2.686021151021123E-3  
 2.033200000000000E10   -2.963013869399826E-3   3.091231229956504E-3  
 2.033400000000000E10   -2.537659455642656E-3   3.630444174632430E-3  
 2.033600000000000E10   -2.303242717904074E-3   3.901774055083042E-3  
 2.033800000000000E10   -1.230097591394076E-3   4.431596491485834E-3  
 2.034000000000000E10   -4.475373059028277E-4   4.638747967503690E-3  
 2.034200000000000E10    4.075500538520929E-4   4.667668517127082E-3  
 2.034400000000000E10    1.187693724339759E-3   4.517644523056570E-3  
 2.034600000000000E10    1.878605793333716E-3   4.311738915189550E-3  
 2.034800000000000E10    2.599820727482438E-3   4.097047641321466E-3  
 2.035000000000000E10    3.399919408063095E-3   3.754769037995074E-3  
 2.035200000000000E10    4.254763514769298E-3   3.144555863130976E-3  
 2.035400000000000E10    5.016027001181135E-3   2.210747226382847E-3  
 2.035600000000000E10    5.417892260959855E-3   1.008383067393745E-3  
 2.035800000000000E10    5.315324343327019E-3  -1.959622385146321E-4  
 2.036000000000000E10    4.901355977549598E-3  -1.144910757257431E-3  
 2.036200000000000E10    4.450738378283051E-3  -1.855495679019778E-3  
 2.036400000000000E10    3.967504586196609E-3  -2.431103890692747E-3  
 2.036600000000000E10    3.515374277614885E-3  -2.862485470595184E-3  
 2.036800000000000E10    3.139887910543217E-3  -3.247996904300871E-3  
 2.037000000000000E10    2.757073793974188E-3  -3.736112999764306E-3  
 2.037200000000000E10    2.236055494803522E-3  -4.306902591553000E-3  
 2.037400000000000E10    1.511056545293994E-3  -4.863885179575947E-3  
 2.037600000000000E10    5.446244634825874E-4  -5.214093132289472E-3  
 2.037800000000000E10   -5.007670282524217E-4  -5.202739896183766E-3  
 2.038000000000000E10   -1.447435149371072E-3  -4.955449745196988E-3  
 2.038200000000000E10   -2.253657586320683E-3  -4.551659286436108E-3  
 2.038400000000000E10   -2.917176276376402E-3  -4.094658005568717E-3  
 2.038600000000000E10   -3.537650634017256E-3  -3.609961786962770E-3  
 2.038800000000000E10   -4.152600446508991E-3  -2.998284762725234E-3  
 2.039000000000000E10   -4.655834252911586E-3  -2.229187447853663E-3  
 2.039200000000000E10   -5.031778873806752E-3  -1.359309682070657E-3  
 2.039400000000000E10   -5.194306270115906E-3  -4.068051359219546E-4  
 2.039600000000000E10   -5.115937527821021E-3   4.648366421288639E-4  
 2.039800000000000E10   -4.924189126877874E-3   1.321529861781056E-3  
 2.040000000000000E10   -4.576737112883065E-3   2.156584394267864E-3  
 2.040200000000000E10   -4.035421974819016E-3   2.842923177889100E-3  
 2.040400000000000E10   -3.484641012080290E-3   3.329838324269211E-3  
 2.040600000000000E10   -2.937880905207109E-3   3.744418499991298E-3  
 2.040800000000000E10   -2.419808060275736E-3   4.070105496793985E-3  
 2.041000000000000E10   -1.901063438573922E-3   4.478869356077027E-3  
 2.041200000000000E10   -1.238030700564937E-3   4.958812388832923E-3  
 2.041400000000000E10   -3.964340721722693E-4   5.323264696117905E-3  
 2.041600000000000E10    6.099330429505144E-4   5.473360781454379E-3  
 2.041800000000000E10    1.747448635460050E-3   5.338771648153112E-3  
 2.042000000000000E10    2.781641867908615E-3   4.897271162243906E-3  
 2.042200000000000E10    3.665153601172346E-3   4.237605017368441E-3  
 2.042400000000000E10    4.340668847025545E-3   3.420535388782069E-3  
 2.042600000000000E10    4.793995767141935E-3   2.568520364110117E-3  
 2.042800000000000E10    5.115672411328114E-3   1.669539285271808E-3  
 2.043000000000000E10    5.312884416155242E-3   6.947166726200117E-4  
 2.043200000000000E10    5.323678841469465E-3  -2.831796149688739E-4  
 2.043400000000000E10    5.112783690155657E-3  -1.222818352592488E-3  
 2.043600000000000E10    4.653865178288134E-3  -2.062637695214815E-3  
 2.043800000000000E10    4.091360019864860E-3  -2.719860636042776E-3  
 2.044000000000000E10    3.506037768804365E-3  -3.196372150409002E-3  
 2.044200000000000E10    2.954071792946370E-3  -3.561788221338281E-3  
 2.044400000000000E10    2.437029878988310E-3  -3.836227097996959E-3  
 2.044600000000000E10    1.970844451096599E-3  -4.144402013884651E-3  
 2.044800000000000E10    1.418092732179772E-3  -4.537247207567648E-3  
 2.045000000000000E10    6.894151080848167E-4  -4.960524194218495E-3  
 2.045200000000000E10   -2.742373541911581E-4  -5.313451798563755E-3  
 2.045400000000000E10   -1.510434072568185E-3  -5.297275070376971E-3  
 2.045600000000000E10   -2.715891468580122E-3  -4.724075983243961E-3  
 2.045800000000000E10   -3.549045641665106E-3  -3.828831956963297E-3  
 2.046000000000000E10   -3.973872978585187E-3  -2.874386350244836E-3  
 2.046200000000000E10   -4.122739123111523E-3  -2.035648855208247E-3  
 2.046400000000000E10   -4.145911360090531E-3  -1.354121146033760E-3  
 2.046600000000000E10   -4.145816020253632E-3  -7.471986938509402E-4  
 2.046800000000000E10   -4.153332431559210E-3  -1.681183272955457E-4  
 2.047000000000000E10   -4.189828790172384E-3   4.674232213464739E-4  
 2.047200000000000E10   -4.102983270530348E-3   1.173913194280532E-3  
 2.047400000000000E10   -3.746483009308578E-3   1.869408314599208E-3  
 2.047600000000000E10   -3.208601364382991E-3   2.399253986637902E-3  
 2.047800000000000E10   -2.693536277446482E-3   2.707286505028606E-3  
 2.048000000000000E10   -2.307576541271475E-3   2.904084045439959E-3  
 2.048200000000000E10   -2.043668258314332E-3   3.167138641907109E-3  
 2.048400000000000E10   -1.687834897354522E-3   3.565122537245906E-3  
 2.048600000000000E10   -1.119795518375382E-3   3.970845705933042E-3  
 2.048800000000000E10   -3.370086444731527E-4   4.284685943275690E-3  
 2.049000000000000E10    5.856164800072159E-4   4.393917663643758E-3  
 2.049200000000000E10    1.482071988801990E-3   4.207533232315824E-3  
 2.049400000000000E10    2.308753862356146E-3   3.754572451321615E-3  
 2.049600000000000E10    2.998426401366791E-3   3.060837923031715E-3  
 2.049800000000000E10    3.386082127690315E-3   2.254353405010921E-3  
 2.050000000000000E10    3.494755916849331E-3   1.472532136917666E-3  
 2.050200000000000E10    3.333525775276401E-3   8.759239615217129E-4  
 2.050400000000000E10    3.202664562397534E-3   5.871151698994693E-4  
 2.050600000000000E10    3.334083232200809E-3   2.862838381487463E-4  
 2.050800000000000E10    3.507533791923413E-3  -2.702117296090971E-4  
 2.051000000000000E10    3.481889255689802E-3  -9.319517972741139E-4  
 2.051200000000000E10    3.283688013821289E-3  -1.488598710339931E-3  
 2.051400000000000E10    3.007907377280020E-3  -2.042932591090600E-3  
 2.051600000000000E10    2.594875275260873E-3  -2.617692497248451E-3  
 2.051800000000000E10    1.999825674661056E-3  -3.056997459174858E-3  
 2.052000000000000E10    1.401535084436613E-3  -3.278216131514422E-3  
 2.052200000000000E10    8.873135192078298E-4  -3.418457685728317E-3  
 2.052400000000000E10    3.321404586097709E-4  -3.588642640453246E-3  
 2.052600000000000E10   -4.209786366792052E-4  -3.702377365833080E-3  
 2.052800000000000E10   -1.311317060349716E-3  -3.538889060210851E-3  
 2.053000000000000E10   -2.031553338316304E-3  -3.054595561008212E-3  
 2.053200000000000E10   -2.517037136756160E-3  -2.421123967333525E-3  
 2.053400000000000E10   -2.832362040256461E-3  -1.702156017051527E-3  
 2.053600000000000E10   -2.895752028389662E-3  -9.679232413570087E-4  
 2.053800000000000E10   -2.732086426543969E-3  -3.263337917074010E-4  
 2.054000000000000E10   -2.379718098651480E-3   1.267983580301343E-4  
 2.054200000000000E10   -1.968841478056102E-3   2.675827752143421E-4  
 2.054400000000000E10   -1.766918058921066E-3   1.848493832060033E-4  
 2.054600000000000E10   -1.897349802742678E-3   7.229930162322020E-5  
 2.054800000000000E10   -2.295169332582090E-3   2.466021208049454E-4  
 2.055000000000000E10   -2.582112447945057E-3   8.331956449654644E-4  
 2.055200000000000E10   -2.456055954098702E-3   1.568904732940374E-3  
 2.055400000000000E10   -2.017199423991972E-3   2.180113396779807E-3  
 2.055600000000000E10   -1.450470980705211E-3   2.594040353196087E-3  
