#  HZ   S   RI   R     50.00 
! Rohde & Schwarz ZVA40 4Ports - Version 3.90 - 1145.1110k42 SN: 100403
! Date: 2023-10-03 12:43:44
! Measurement: S12 
! 
 2.000000000000000E10    2.267509690244441E-3  -4.239384895535532E-3  
 2.000200000000000E10    1.526063402976703E-3  -4.652684295756950E-3  
 2.000400000000000E10    6.359748356906629E-4  -4.891484096232388E-3  
 2.000600000000000E10   -3.037486603716388E-4  -4.948237652166023E-3  
 2.000800000000000E10   -1.218820633194237E-3  -4.818404076138029E-3  
 2.001000000000000E10   -2.102105964527086E-3  -4.477761496134379E-3  
 2.001200000000000E10   -2.829900244250894E-3  -3.976548728705557E-3  
 2.001400000000000E10   -3.478448786255387E-3  -3.474884450918547E-3  
 2.001600000000000E10   -4.206888653613903E-3  -2.811952450968050E-3  
 2.001800000000000E10   -4.751059330172010E-3  -1.807932716069950E-3  
 2.002000000000000E10   -4.861034383928336E-3  -6.955582562282131E-4  
 2.002200000000000E10   -4.650297178024496E-3   3.229968408252010E-4  
 2.002400000000000E10   -4.290722379529918E-3   1.121653761300776E-3  
 2.002600000000000E10   -3.848293511610893E-3   1.727722818031907E-3  
 2.002800000000000E10   -3.437297142766141E-3   2.190248316360845E-3  
 2.003000000000000E10   -2.965084328833554E-3   2.623169924373980E-3  
 2.003200000000000E10   -2.451802776367577E-3   2.937768982654369E-3  
 2.003400000000000E10   -2.014728444111017E-3   3.157009439611877E-3  
 2.003600000000000E10   -1.649491540673707E-3   3.414911286974396E-3  
 2.003800000000000E10   -1.217373021602355E-3   3.782137219483654E-3  
 2.004000000000000E10   -5.309360933973006E-4   4.126710437790112E-3  
 2.004200000000000E10    3.723340902339530E-4   4.238461420215943E-3  
 2.004400000000000E10    1.303089933504385E-3   4.017077231158813E-3  
 2.004600000000000E10    2.016500612996795E-3   3.513709900693761E-3  
 2.004800000000000E10    2.433814910343952E-3   2.946012662033792E-3  
 2.005000000000000E10    2.674361630515368E-3   2.471806412493741E-3  
 2.005200000000000E10    2.972809589226490E-3   2.111756398032109E-3  
 2.005400000000000E10    3.311942633310402E-3   1.676783431321383E-3  
 2.005600000000000E10    3.602471607909711E-3   1.141450255764303E-3  
 2.005800000000000E10    3.776928384063973E-3   5.246940698405660E-4  
 2.006000000000000E10    3.830325177491264E-3  -1.104592110668482E-4  
 2.006200000000000E10    3.816651706411331E-3  -7.803426878699275E-4  
 2.006400000000000E10    3.647692993076312E-3  -1.508541249980529E-3  
 2.006600000000000E10    3.284410099257474E-3  -2.192634390667081E-3  
 2.006800000000000E10    2.713822026702542E-3  -2.695489916260596E-3  
 2.007000000000000E10    2.140196195493142E-3  -2.929744526260981E-3  
 2.007200000000000E10    1.792451944547119E-3  -3.143196123548680E-3  
 2.007400000000000E10    1.382196391070331E-3  -3.510913251105835E-3  
 2.007600000000000E10    7.685658314989674E-4  -3.841316827607376E-3  
 2.007800000000000E10    2.431229599837764E-5  -4.028387022791086E-3  
 2.008000000000000E10   -7.948079642287837E-4  -3.993836593710715E-3  
 2.008200000000000E10   -1.612783983108347E-3  -3.751158921255006E-3  
 2.008400000000000E10   -2.339077552918483E-3  -3.302517683348722E-3  
 2.008600000000000E10   -2.866024237678007E-3  -2.658057095551933E-3  
 2.008800000000000E10   -3.162205555579729E-3  -1.977411391972392E-3  
 2.009000000000000E10   -3.285844336022382E-3  -1.303679671966367E-3  
 2.009200000000000E10   -3.222530129952012E-3  -7.515856112284518E-4  
 2.009400000000000E10   -3.154675001968389E-3  -4.107065895503318E-4  
 2.009600000000000E10   -3.229910102500408E-3  -7.741499914320432E-5  
 2.009800000000000E10   -3.306221725695112E-3   3.602137968064873E-4  
 2.010000000000000E10   -3.288389330177948E-3   9.206287127367602E-4  
 2.010200000000000E10   -3.114531937710665E-3   1.472677130045163E-3  
 2.010400000000000E10   -2.851132363839834E-3   1.935194944962859E-3  
 2.010600000000000E10   -2.558209243471976E-3   2.325185565967803E-3  
 2.010800000000000E10   -2.253640072282266E-3   2.755161098859929E-3  
 2.011000000000000E10   -1.821931688701389E-3   3.233530705242798E-3  
 2.011200000000000E10   -1.243631523619924E-3   3.614606335759163E-3  
 2.011400000000000E10   -5.528959122279453E-4   3.875571268576163E-3  
 2.011600000000000E10    2.193196005127565E-4   3.982835673485642E-3  
 2.011800000000000E10    1.002787414041382E-3   3.870003477290825E-3  
 2.012000000000000E10    1.774318227371960E-3   3.556121546016248E-3  
 2.012200000000000E10    2.411678062613916E-3   3.035104471362300E-3  
 2.012400000000000E10    2.776548533734900E-3   2.428552463512730E-3  
 2.012600000000000E10    2.967319192571773E-3   1.850796794449842E-3  
 2.012800000000000E10    3.098062920832524E-3   1.354789482084689E-3  
 2.013000000000000E10    3.220671865468225E-3   8.893973125075853E-4  
 2.013200000000000E10    3.267747419023956E-3   4.330711187018703E-4  
 2.013400000000000E10    3.312016345767512E-3  -3.888267518185010E-5  
 2.013600000000000E10    3.278475013320094E-3  -5.430761871307537E-4  
 2.013800000000000E10    3.163738150356545E-3  -1.045283137096299E-3  
 2.014000000000000E10    2.912667217767901E-3  -1.590998683780156E-3  
 2.014200000000000E10    2.536220726108662E-3  -1.957929813889442E-3  
 2.014400000000000E10    2.207504999306467E-3  -2.165061094004799E-3  
 2.014600000000000E10    1.952253545082554E-3  -2.385336129615705E-3  
 2.014800000000000E10    1.677502050167985E-3  -2.673712783251648E-3  
 2.015000000000000E10    1.353214507819050E-3  -2.950711063695727E-3  
 2.015200000000000E10    9.800499602634874E-4  -3.246793118133038E-3  
 2.015400000000000E10    4.649163639880028E-4  -3.578945683936278E-3  
 2.015600000000000E10   -2.437944397873556E-4  -3.780709079432267E-3  
 2.015800000000000E10   -1.066919015203085E-3  -3.705964587559855E-3  
 2.016000000000000E10   -1.825553640999176E-3  -3.348661966069981E-3  
 2.016200000000000E10   -2.329681689540545E-3  -2.770068020456367E-3  
 2.016400000000000E10   -2.508092611269267E-3  -2.183722702924300E-3  
 2.016600000000000E10   -2.527919641040542E-3  -1.793614873248670E-3  
 2.016800000000000E10   -2.646954574932655E-3  -1.610725173830158E-3  
 2.017000000000000E10   -2.936531254952705E-3  -1.430513285514382E-3  
 2.017200000000000E10   -3.305462715043514E-3  -1.079796643117098E-3  
 2.017400000000000E10   -3.626259897525112E-3  -5.509957242153448E-4  
 2.017600000000000E10   -3.822569295557010E-3   9.946300121589080E-5  
 2.017800000000000E10   -3.847118639559658E-3   8.581078900196764E-4  
 2.018000000000000E10   -3.658959736909580E-3   1.599872014830234E-3  
 2.018200000000000E10   -3.266630280348990E-3   2.228471864428786E-3  
 2.018400000000000E10   -2.742904152169272E-3   2.650522877013794E-3  
 2.018600000000000E10   -2.296104596030933E-3   2.913737195302492E-3  
 2.018800000000000E10   -1.951787405198923E-3   3.218054788670055E-3  
 2.019000000000000E10   -1.527018793341186E-3   3.586521484302703E-3  
 2.019200000000000E10   -9.542540409947161E-4   3.930232565229138E-3  
 2.019400000000000E10   -2.459413964835996E-4   4.150275261727749E-3  
 2.019600000000000E10    5.417676163940795E-4   4.191650336401330E-3  
 2.019800000000000E10    1.344425845201369E-3   4.042330120379726E-3  
 2.020000000000000E10    2.040457230544201E-3   3.698844635100277E-3  
 2.020200000000000E10    2.525526728412068E-3   3.232575064800956E-3  
 2.020400000000000E10    2.889110611889650E-3   2.791071396872953E-3  
 2.020600000000000E10    3.301975360416152E-3   2.378411789390225E-3  
 2.020800000000000E10    3.697873877913312E-3   1.886154305086368E-3  
 2.021000000000000E10    4.029471392708797E-3   1.303812437173393E-3  
 2.021200000000000E10    4.312937596329937E-3   6.483518626299446E-4  
 2.021400000000000E10    4.515834635606519E-3  -1.617937869013986E-4  
 2.021600000000000E10    4.473712329787237E-3  -1.118521831274309E-3  
 2.021800000000000E10    4.127190586317470E-3  -2.020408744337383E-3  
 2.022000000000000E10    3.593537171750710E-3  -2.687851665541530E-3  
 2.022200000000000E10    3.001302773891776E-3  -3.164879287834521E-3  
 2.022400000000000E10    2.339023605196013E-3  -3.536809882563022E-3  
 2.022600000000000E10    1.653478903419994E-3  -3.755372983437998E-3  
 2.022800000000000E10    1.093551563961363E-3  -3.779022928534283E-3  
 2.023000000000000E10    6.998719699266885E-4  -3.880034252587292E-3  
 2.023200000000000E10    1.465435683106383E-4  -4.126243207051799E-3  
 2.023400000000000E10   -6.501829010192996E-4  -4.187269446750483E-3  
 2.023600000000000E10   -1.421428332967615E-3  -4.020397284033674E-3  
 2.023800000000000E10   -2.103795642378154E-3  -3.736239547530810E-3  
 2.024000000000000E10   -2.689633363236984E-3  -3.332742791691865E-3  
 2.024200000000000E10   -3.198864861150031E-3  -2.823981335731569E-3  
 2.024400000000000E10   -3.615824290102831E-3  -2.230756372834246E-3  
 2.024600000000000E10   -3.920260213177514E-3  -1.601569996974259E-3  
 2.024800000000000E10   -4.131456319656638E-3  -9.590699811707494E-4  
 2.025000000000000E10   -4.295422195422429E-3  -2.782922507591408E-4  
 2.025200000000000E10   -4.344339999887679E-3   5.025934660807252E-4  
 2.025400000000000E10   -4.156457708665619E-3   1.339047746215430E-3  
 2.025600000000000E10   -3.808780702658826E-3   2.101577973614137E-3  
 2.025800000000000E10   -3.316795522416080E-3   2.703820269002959E-3  
 2.026000000000000E10   -2.761015513290962E-3   3.098078580849149E-3  
 2.026200000000000E10   -2.208862427829041E-3   3.391351697414562E-3  
 2.026400000000000E10   -1.713785329937107E-3   3.652056799856601E-3  
 2.026600000000000E10   -1.197527399873016E-3   3.931521714009621E-3  
 2.026800000000000E10   -5.723821361445719E-4   4.161523206642381E-3  
 2.027000000000000E10    1.162481696357847E-4   4.330302657628501E-3  
 2.027200000000000E10    9.505139681062214E-4   4.341063037928608E-3  
 2.027400000000000E10    1.841897222523888E-3   4.105582022694527E-3  
 2.027600000000000E10    2.646267500326590E-3   3.651771159773625E-3  
 2.027800000000000E10    3.208614144198321E-3   3.045012389689133E-3  
 2.028000000000000E10    3.589327671323662E-3   2.407483773788920E-3  
 2.028200000000000E10    3.887653721634438E-3   1.753389524916808E-3  
 2.028400000000000E10    4.081198876654662E-3   1.089825639846149E-3  
 2.028600000000000E10    4.197533915026321E-3   4.525342923847752E-4  
 2.028800000000000E10    4.288927634695063E-3  -2.341329894045851E-4  
 2.029000000000000E10    4.219360666832438E-3  -9.972496320390040E-4  
 2.029200000000000E10    3.965845659237218E-3  -1.746077978707574E-3  
 2.029400000000000E10    3.605960152560363E-3  -2.462126806171404E-3  
 2.029600000000000E10    3.110146839861517E-3  -3.094341450681290E-3  
 2.029800000000000E10    2.518334391492385E-3  -3.576053599654525E-3  
 2.030000000000000E10    1.826682697153754E-3  -3.948054362640337E-3  
 2.030200000000000E10    1.072541827818862E-3  -4.124395273349904E-3  
 2.030400000000000E10    4.371073748054052E-4  -4.120351453484209E-3  
 2.030600000000000E10   -9.498406141709120E-5  -4.157715649516495E-3  
 2.030800000000000E10   -6.852221709710582E-4  -4.252612866737225E-3  
 2.031000000000000E10   -1.416625493826966E-3  -4.264536969087743E-3  
 2.031200000000000E10   -2.286780142673740E-3  -4.121781723504818E-3  
 2.031400000000000E10   -3.268423128045268E-3  -3.766783366531686E-3  
 2.031600000000000E10   -4.199181372920672E-3  -3.058495043121555E-3  
 2.031800000000000E10   -4.771258285338129E-3  -1.921275182178727E-3  
 2.032000000000000E10   -4.841586850859501E-3  -7.900145913784704E-4  
 2.032200000000000E10   -4.671019726191407E-3   7.836288959542465E-5  
 2.032400000000000E10   -4.463386480455046E-3   8.091918856802363E-4  
 2.032600000000000E10   -4.195222079201982E-3   1.527357022967880E-3  
 2.032800000000000E10   -3.768425210620519E-3   2.125837995360295E-3  
 2.033000000000000E10   -3.290886456077851E-3   2.569371817150602E-3  
 2.033200000000000E10   -2.911389037897742E-3   2.986951377587739E-3  
 2.033400000000000E10   -2.507147732777177E-3   3.485067756156679E-3  
 2.033600000000000E10   -2.305375895014516E-3   3.707939448455970E-3  
 2.033800000000000E10   -1.276780152693391E-3   4.236363547129764E-3  
 2.034000000000000E10   -5.496754267908358E-4   4.465560549525200E-3  
 2.034200000000000E10    2.235650576444136E-4   4.536208317235665E-3  
 2.034400000000000E10    9.693176080300301E-4   4.461127367836458E-3  
 2.034600000000000E10    1.656830940326607E-3   4.341953330569798E-3  
 2.034800000000000E10    2.409217448008282E-3   4.158242398666011E-3  
 2.035000000000000E10    3.274172975647229E-3   3.786809121568998E-3  
 2.035200000000000E10    4.144291117511414E-3   3.139608160213189E-3  
 2.035400000000000E10    4.846508649212343E-3   2.200756428970231E-3  
 2.035600000000000E10    5.161331466364640E-3   1.040384927937002E-3  
 2.035800000000000E10    5.042151720435532E-3  -7.795428165182887E-5  
 2.036000000000000E10    4.704716218704427E-3  -8.992068879133850E-4  
 2.036200000000000E10    4.358208790007565E-3  -1.543136188518946E-3  
 2.036400000000000E10    3.992169026147437E-3  -2.120592829736847E-3  
 2.036600000000000E10    3.606458841305641E-3  -2.554070497690528E-3  
 2.036800000000000E10    3.268091240897776E-3  -2.960601778425001E-3  
 2.037000000000000E10    2.933198051458156E-3  -3.511714076416361E-3  
 2.037200000000000E10    2.461747076638319E-3  -4.128623771032802E-3  
 2.037400000000000E10    1.776572566962353E-3  -4.704117119588234E-3  
 2.037600000000000E10    8.297552811671740E-4  -5.108055123990334E-3  
 2.037800000000000E10   -2.194624722943883E-4  -5.231236814762708E-3  
 2.038000000000000E10   -1.184763887000305E-3  -5.076902728803732E-3  
 2.038200000000000E10   -2.067579611859940E-3  -4.725970155387014E-3  
 2.038400000000000E10   -2.784890864320376E-3  -4.290360060554964E-3  
 2.038600000000000E10   -3.436137947978246E-3  -3.792192036699918E-3  
 2.038800000000000E10   -4.092464896125927E-3  -3.147054282534454E-3  
 2.039000000000000E10   -4.610120801738015E-3  -2.365969647480934E-3  
 2.039200000000000E10   -4.953542741498462E-3  -1.515322382113448E-3  
 2.039400000000000E10   -5.095990012503333E-3  -5.967099159197124E-4  
 2.039600000000000E10   -5.065529900430530E-3   2.625508662916858E-4  
 2.039800000000000E10   -4.946620910669919E-3   1.096994870480288E-3  
 2.040000000000000E10   -4.641574979932220E-3   1.924750438235976E-3  
 2.040200000000000E10   -4.170609845055475E-3   2.600760587180655E-3  
 2.040400000000000E10   -3.726721956843028E-3   3.088171119560247E-3  
 2.040600000000000E10   -3.251388479300120E-3   3.576486707768507E-3  
 2.040800000000000E10   -2.756935483948501E-3   4.046957422461775E-3  
 2.041000000000000E10   -2.222436316380347E-3   4.564375720090337E-3  
 2.041200000000000E10   -1.504091645108053E-3   5.060403607785702E-3  
 2.041400000000000E10   -5.976702388444986E-4   5.420426631139385E-3  
 2.041600000000000E10    4.698873920090221E-4   5.606128903174842E-3  
 2.041800000000000E10    1.608586964990806E-3   5.484752684693646E-3  
 2.042000000000000E10    2.623411274894520E-3   5.063709182043871E-3  
 2.042200000000000E10    3.525491726274292E-3   4.504637413278775E-3  
 2.042400000000000E10    4.273779707512370E-3   3.749530633083649E-3  
 2.042600000000000E10    4.829636326542607E-3   2.865500644677215E-3  
 2.042800000000000E10    5.248913869123769E-3   1.935360457368747E-3  
 2.043000000000000E10    5.480022324870030E-3   9.372727514279111E-4  
 2.043200000000000E10    5.481349028370999E-3  -5.953428383994226E-5  
 2.043400000000000E10    5.302477869446632E-3  -1.048361589373262E-3  
 2.043600000000000E10    4.930271456638972E-3  -1.951597122199558E-3  
 2.043800000000000E10    4.391579009178612E-3  -2.670736810951322E-3  
 2.044000000000000E10    3.811051862107383E-3  -3.253321146109591E-3  
 2.044200000000000E10    3.224665048980603E-3  -3.690476641403857E-3  
 2.044400000000000E10    2.646667684462888E-3  -4.004227721856700E-3  
 2.044600000000000E10    2.143544188045242E-3  -4.353494055707147E-3  
 2.044800000000000E10    1.546195371904307E-3  -4.789167980628986E-3  
 2.045000000000000E10    7.879599924544220E-4  -5.189423276870340E-3  
 2.045200000000000E10   -2.199429662949923E-4  -5.497943765173356E-3  
 2.045400000000000E10   -1.513044599926582E-3  -5.483623283604781E-3  
 2.045600000000000E10   -2.747242209605045E-3  -4.923412869511932E-3  
 2.045800000000000E10   -3.602524322492105E-3  -4.023555579974697E-3  
 2.046000000000000E10   -4.105116240680218E-3  -3.079460295676082E-3  
 2.046200000000000E10   -4.298744464500084E-3  -2.200979446233423E-3  
 2.046400000000000E10   -4.341751630245536E-3  -1.459694040628771E-3  
 2.046600000000000E10   -4.392308734909253E-3  -8.090998744592073E-4  
 2.046800000000000E10   -4.409255891072530E-3  -2.024785275420140E-4  
 2.047000000000000E10   -4.402035450631822E-3   4.413465374252863E-4  
 2.047200000000000E10   -4.294310834396770E-3   1.213960435793356E-3  
 2.047400000000000E10   -3.936115859283342E-3   1.992547168844828E-3  
 2.047600000000000E10   -3.378507638074182E-3   2.550116421102926E-3  
 2.047800000000000E10   -2.811321143612818E-3   2.906698552477691E-3  
 2.048000000000000E10   -2.390284746609353E-3   3.111145993763650E-3  
 2.048200000000000E10   -2.073055288443963E-3   3.367412956086575E-3  
 2.048400000000000E10   -1.647870271915087E-3   3.793197028614857E-3  
 2.048600000000000E10   -1.025717955565563E-3   4.226778306204965E-3  
 2.048800000000000E10   -2.209984355700996E-4   4.505758898125755E-3  
 2.049000000000000E10    7.198625330433802E-4   4.528085476960298E-3  
 2.049200000000000E10    1.672220036939339E-3   4.261857140119430E-3  
 2.049400000000000E10    2.505515727938877E-3   3.769632308157506E-3  
 2.049600000000000E10    3.163517978801220E-3   3.039824871208382E-3  
 2.049800000000000E10    3.549168369284383E-3   2.190820639953017E-3  
 2.050000000000000E10    3.601800658981557E-3   1.376510481350124E-3  
 2.050200000000000E10    3.384656453919080E-3   7.622610126553035E-4  
 2.050400000000000E10    3.259155735442484E-3   4.705258739974213E-4  
 2.050600000000000E10    3.394787217041961E-3   2.045751871601506E-4  
 2.050800000000000E10    3.576205043053186E-3  -3.009883178122066E-4  
 2.051000000000000E10    3.516956301475013E-3  -9.643425927842382E-4  
 2.051200000000000E10    3.291068348550686E-3  -1.548135127113374E-3  
 2.051400000000000E10    3.036036958090134E-3  -2.094274938658432E-3  
 2.051600000000000E10    2.636505782397257E-3  -2.687911796211093E-3  
 2.051800000000000E10    2.042934988383894E-3  -3.157898162802061E-3  
 2.052000000000000E10    1.401805193853323E-3  -3.375420674543690E-3  
 2.052200000000000E10    8.231741225312431E-4  -3.522363508603088E-3  
 2.052400000000000E10    2.433985053492641E-4  -3.701080412914356E-3  
 2.052600000000000E10   -5.027035928193343E-4  -3.821161299667977E-3  
 2.052800000000000E10   -1.387911637451638E-3  -3.628570155275090E-3  
 2.053000000000000E10   -2.129102746645610E-3  -3.098179206803994E-3  
 2.053200000000000E10   -2.639374221433644E-3  -2.437022462901142E-3  
 2.053400000000000E10   -2.933261131315872E-3  -1.680847179765503E-3  
 2.053600000000000E10   -2.968131305856837E-3  -9.231487832342585E-4  
 2.053800000000000E10   -2.769748378476059E-3  -3.096736806953603E-4  
 2.054000000000000E10   -2.418332129578900E-3   1.250019876924516E-4  
 2.054200000000000E10   -2.068622115378579E-3   2.902313911666473E-4  
 2.054400000000000E10   -1.912350878464403E-3   2.396495083640157E-4  
 2.054600000000000E10   -2.031373877630190E-3   1.681949873239285E-4  
 2.054800000000000E10   -2.380095758578844E-3   3.454019660475078E-4  
 2.055000000000000E10   -2.629196512754317E-3   9.540702858767301E-4  
 2.055200000000000E10   -2.485607009105109E-3   1.709971831318129E-3  
 2.055400000000000E10   -2.020525832281069E-3   2.314279623398627E-3  
 2.055600000000000E10   -1.431802529151793E-3   2.726713402403726E-3  
