#  HZ   S   RI   R     50.00 
! Rohde & Schwarz ZVA40 4Ports - Version 3.90 - 1145.1110k42 SN: 100403
! Date: 2023-10-03 12:44:14
! Measurement: S12 
! 
 2.000000000000000E10    2.620155106724045E-3   5.355083418113215E-4  
 2.000200000000000E10    2.618353862752334E-3   8.745319289040396E-7  
 2.000400000000000E10    2.481761408601830E-3  -4.813031223027703E-4  
 2.000600000000000E10    2.245897993468392E-3  -8.844438534988850E-4  
 2.000800000000000E10    1.987197223682831E-3  -1.221426370277725E-3  
 2.001000000000000E10    1.696324386967369E-3  -1.497801100076349E-3  
 2.001200000000000E10    1.447862445342320E-3  -1.694879106556376E-3  
 2.001400000000000E10    1.141386251770144E-3  -1.956645255609427E-3  
 2.001600000000000E10    6.090019999163939E-4  -2.123514773830036E-3  
 2.001800000000000E10    8.487854379269762E-5  -1.972875721683657E-3  
 2.002000000000000E10   -1.430405483668797E-4  -1.678891271571227E-3  
 2.002200000000000E10   -2.116849978330810E-4  -1.489191130665993E-3  
 2.002400000000000E10   -2.226750170567683E-4  -1.417003376524390E-3  
 2.002600000000000E10   -2.628327113788943E-4  -1.474943342561156E-3  
 2.002800000000000E10   -4.670820881635595E-4  -1.585869759574165E-3  
 2.003000000000000E10   -7.444621145690758E-4  -1.611406269575251E-3  
 2.003200000000000E10   -1.021425142010421E-3  -1.583736885718450E-3  
 2.003400000000000E10   -1.373887110938445E-3  -1.480207460886443E-3  
 2.003600000000000E10   -1.792044707941881E-3  -1.207065712488084E-3  
 2.003800000000000E10   -2.100051323204865E-3  -7.054896911686679E-4  
 2.004000000000000E10   -2.120390410799488E-3  -1.458148690289818E-4  
 2.004200000000000E10   -1.889453955098159E-3   2.950278141702537E-4  
 2.004400000000000E10   -1.566471194239035E-3   5.103070662575372E-4  
 2.004600000000000E10   -1.371270183611799E-3   5.363744538403864E-4  
 2.004800000000000E10   -1.375553078868967E-3   5.601353247730453E-4  
 2.005000000000000E10   -1.481730479425119E-3   7.380283686309410E-4  
 2.005200000000000E10   -1.440860584010313E-3   1.063040528090004E-3  
 2.005400000000000E10   -1.250482339664926E-3   1.376142669296651E-3  
 2.005600000000000E10   -9.536007713859925E-4   1.643340354842812E-3  
 2.005800000000000E10   -6.239185976381933E-4   1.797054215897749E-3  
 2.006000000000000E10   -2.733563370485273E-4   1.878158841857020E-3  
 2.006200000000000E10    9.111501914262196E-5   1.830173401955377E-3  
 2.006400000000000E10    3.872943494503422E-4   1.683782089076201E-3  
 2.006600000000000E10    5.793536569129814E-4   1.513341029266609E-3  
 2.006800000000000E10    6.498717516085801E-4   1.431274349962212E-3  
 2.007000000000000E10    8.155974655780069E-4   1.518606178083078E-3  
 2.007200000000000E10    1.239047020696748E-3   1.485955728976815E-3  
 2.007400000000000E10    1.634964483709615E-3   1.157337770923788E-3  
 2.007600000000000E10    1.837217785061602E-3   7.438928817318363E-4  
 2.007800000000000E10    1.929738507088688E-3   3.122071297925518E-4  
 2.008000000000000E10    1.850687931751672E-3  -1.034143503973071E-4  
 2.008200000000000E10    1.624114153170844E-3  -4.200136499554150E-4  
 2.008400000000000E10    1.356107287718282E-3  -5.992160945481127E-4  
 2.008600000000000E10    1.186148822595032E-3  -6.317705638925143E-4  
 2.008800000000000E10    1.152160821804478E-3  -6.373324417106717E-4  
 2.009000000000000E10    1.187480256007410E-3  -6.949695834694546E-4  
 2.009200000000000E10    1.261202888678254E-3  -9.033601827356092E-4  
 2.009400000000000E10    1.206333746121806E-3  -1.291553616339778E-3  
 2.009600000000000E10    9.256085326297233E-4  -1.638068788811381E-3  
 2.009800000000000E10    5.368726718940854E-4  -1.833488260694768E-3  
 2.010000000000000E10    1.785905928786465E-4  -1.859084263236987E-3  
 2.010200000000000E10   -9.224695169209165E-5  -1.841612132898544E-3  
 2.010400000000000E10   -4.064422589439301E-4  -1.872911195581158E-3  
 2.010600000000000E10   -8.003598209872936E-4  -1.867339621516474E-3  
 2.010800000000000E10   -1.230414594627089E-3  -1.706940019905660E-3  
 2.011000000000000E10   -1.564553260435293E-3  -1.339536986635699E-3  
 2.011200000000000E10   -1.761222789983875E-3  -9.324659656641294E-4  
 2.011400000000000E10   -1.842721282033089E-3  -5.210399933814727E-4  
 2.011600000000000E10   -1.793294245331192E-3  -1.555425052842276E-4  
 2.011800000000000E10   -1.704381257123142E-3   1.236877310194685E-4  
 2.012000000000000E10   -1.554585324979767E-3   3.220501923890509E-4  
 2.012200000000000E10   -1.414546625182769E-3   4.332460248181713E-4  
 2.012400000000000E10   -1.401267600832162E-3   5.215202920989674E-4  
 2.012600000000000E10   -1.443974045680169E-3   6.768639870620345E-4  
 2.012800000000000E10   -1.435102377500799E-3   9.046845442764922E-4  
 2.013000000000000E10   -1.360198382265222E-3   1.164354317833060E-3  
 2.013200000000000E10   -1.221939498834588E-3   1.476807018201569E-3  
 2.013400000000000E10   -9.646748212729524E-4   1.779007133280422E-3  
 2.013600000000000E10   -6.319805807261556E-4   2.014843856248959E-3  
 2.013800000000000E10   -2.655688918304894E-4   2.161422735769992E-3  
 2.014000000000000E10    1.005128046870843E-4   2.183558065789166E-3  
 2.014200000000000E10    4.322291283586558E-4   2.224631049888738E-3  
 2.014400000000000E10    8.761667744199069E-4   2.293954430906861E-3  
 2.014600000000000E10    1.401776580116999E-3   2.223014943646612E-3  
 2.014800000000000E10    1.920344224659565E-3   1.930482254398090E-3  
 2.015000000000000E10    2.361397598122741E-3   1.504846410193469E-3  
 2.015200000000000E10    2.708620535508718E-3   9.394335117834954E-4  
 2.015400000000000E10    2.828874582148813E-3   2.457466918578441E-4  
 2.015600000000000E10    2.688727985469648E-3  -3.890890831466949E-4  
 2.015800000000000E10    2.406527397487267E-3  -8.332674610026091E-4  
 2.016000000000000E10    2.083086308068883E-3  -1.084960634923644E-3  
 2.016200000000000E10    1.882120268419385E-3  -1.195130197124349E-3  
 2.016400000000000E10    1.903418555027909E-3  -1.309472047091450E-3  
 2.016600000000000E10    1.988129437337687E-3  -1.671515278702165E-3  
 2.016800000000000E10    1.835114278048737E-3  -2.249159657591839E-3  
 2.017000000000000E10    1.366654748706446E-3  -2.803032450308955E-3  
 2.017200000000000E10    7.144156520047950E-4  -3.147013976963031E-3  
 2.017400000000000E10    6.903328214298457E-6  -3.279630382211856E-3  
 2.017600000000000E10   -7.029604317654891E-4  -3.225640988805228E-3  
 2.017800000000000E10   -1.342997077082134E-3  -2.966221950856256E-3  
 2.018000000000000E10   -1.857802986144376E-3  -2.582307404804010E-3  
 2.018200000000000E10   -2.184891682348134E-3  -2.151977201854742E-3  
 2.018400000000000E10   -2.372668972698811E-3  -1.823957936182894E-3  
 2.018600000000000E10   -2.646716851971032E-3  -1.581017251333429E-3  
 2.018800000000000E10   -3.023451237283923E-3  -1.192504131913553E-3  
 2.019000000000000E10   -3.331687258280538E-3  -6.278433382833078E-4  
 2.019200000000000E10   -3.487909241452998E-3   5.166073035833970E-5  
 2.019400000000000E10   -3.437134925919919E-3   7.683886789981232E-4  
 2.019600000000000E10   -3.193422464975789E-3   1.404419912163306E-3  
 2.019800000000000E10   -2.828053023413192E-3   1.930840858143330E-3  
 2.020000000000000E10   -2.438624079028766E-3   2.320516006561157E-3  
 2.020200000000000E10   -2.123370016407636E-3   2.620630400301314E-3  
 2.020400000000000E10   -1.803164988365255E-3   2.979839605819664E-3  
 2.020600000000000E10   -1.322227579047099E-3   3.373015568488175E-3  
 2.020800000000000E10   -7.256800136356443E-4   3.669171824039501E-3  
 2.021000000000000E10   -2.661043667395447E-5   3.877453891169510E-3  
 2.021200000000000E10    8.167354864309785E-4   3.927944992657429E-3  
 2.021400000000000E10    1.679728266116186E-3   3.675312815624992E-3  
 2.021600000000000E10    2.368595784553040E-3   3.116292942223358E-3  
 2.021800000000000E10    2.789787577327203E-3   2.480437996348849E-3  
 2.022000000000000E10    3.041168416125908E-3   1.945937015001237E-3  
 2.022200000000000E10    3.226543141436982E-3   1.455502005374450E-3  
 2.022400000000000E10    3.327464486506803E-3   9.391124598842897E-4  
 2.022600000000000E10    3.352719913869177E-3   4.889251762012273E-4  
 2.022800000000000E10    3.446110328774394E-3   1.211139042200636E-4  
 2.023000000000000E10    3.665390588274157E-3  -4.207880565333238E-4  
 2.023200000000000E10    3.676935492865282E-3  -1.228233530577042E-3  
 2.023400000000000E10    3.306310514655011E-3  -1.952539508541425E-3  
 2.023600000000000E10    2.840071767108676E-3  -2.478614081571132E-3  
 2.023800000000000E10    2.359913794300807E-3  -2.909210645651192E-3  
 2.024000000000000E10    1.856205921712113E-3  -3.256092178577811E-3  
 2.024200000000000E10    1.279214532172055E-3  -3.517509995741242E-3  
 2.024400000000000E10    6.652424603493678E-4  -3.677001133860078E-3  
 2.024600000000000E10    4.807755627597894E-5  -3.737752728256179E-3  
 2.024800000000000E10   -5.900023374304083E-4  -3.697759210258539E-3  
 2.025000000000000E10   -1.281949554937949E-3  -3.548701040814689E-3  
 2.025200000000000E10   -1.915664989846173E-3  -3.207429930176817E-3  
 2.025400000000000E10   -2.383798438434800E-3  -2.688238311007067E-3  
 2.025600000000000E10   -2.700669679468797E-3  -2.151353106500558E-3  
 2.025800000000000E10   -2.871803827238856E-3  -1.691762376634152E-3  
 2.026000000000000E10   -3.000061398510028E-3  -1.337804988222082E-3  
 2.026200000000000E10   -3.177065896675175E-3  -9.856446643279476E-4  
 2.026400000000000E10   -3.440084545240727E-3  -5.693666365308068E-4  
 2.026600000000000E10   -3.650549595117754E-3   3.690545175534982E-5  
 2.026800000000000E10   -3.667799051690066E-3   7.419433691941294E-4  
 2.027000000000000E10   -3.538219238068035E-3   1.494060194315274E-3  
 2.027200000000000E10   -3.146512974283578E-3   2.196410210964121E-3  
 2.027400000000000E10   -2.549863653257489E-3   2.732697719087204E-3  
 2.027600000000000E10   -1.907436580995075E-3   3.051939667604956E-3  
 2.027800000000000E10   -1.346038986445853E-3   3.213259739295385E-3  
 2.028000000000000E10   -8.413633295725802E-4   3.307842146490276E-3  
 2.028200000000000E10   -3.092182909043644E-4   3.358616726472974E-3  
 2.028400000000000E10    2.076062406154556E-4   3.337414049899873E-3  
 2.028600000000000E10    7.071784182946072E-4   3.291156214811368E-3  
 2.028800000000000E10    1.299437418591553E-3   3.168740281030352E-3  
 2.029000000000000E10    1.853505330574182E-3   2.890078402641747E-3  
 2.029200000000000E10    2.326790752165296E-3   2.480416972604063E-3  
 2.029400000000000E10    2.712852399175366E-3   1.958797412729006E-3  
 2.029600000000000E10    2.960038900283384E-3   1.408391144920003E-3  
 2.029800000000000E10    3.085939061287561E-3   8.835542952802815E-4  
 2.030000000000000E10    3.111189377873585E-3   3.787230805890567E-4  
 2.030200000000000E10    3.080920781940222E-3  -6.292352795023841E-5  
 2.030400000000000E10    3.086329779852137E-3  -4.402452188380132E-4  
 2.030600000000000E10    3.123794920903481E-3  -9.589848988172082E-4  
 2.030800000000000E10    3.044870742424219E-3  -1.617925773363239E-3  
 2.031000000000000E10    2.726065699172058E-3  -2.294950256193126E-3  
 2.031200000000000E10    2.152142319023426E-3  -2.895622235366408E-3  
 2.031400000000000E10    1.337394351139665E-3  -3.343274747883833E-3  
 2.031600000000000E10    4.090445721953143E-4  -3.401273712055920E-3  
 2.031800000000000E10   -3.131650370994100E-4  -3.026541239110593E-3  
 2.032000000000000E10   -6.394239672873584E-4  -2.620778658806726E-3  
 2.032200000000000E10   -8.045985854955184E-4  -2.406646408439603E-3  
 2.032400000000000E10   -1.036422502502431E-3  -2.296641443131699E-3  
 2.032600000000000E10   -1.360005793955039E-3  -2.137720918305862E-3  
 2.032800000000000E10   -1.606080084636716E-3  -1.953785773366690E-3  
 2.033000000000000E10   -1.859585544738321E-3  -1.803302651639154E-3  
 2.033200000000000E10   -2.253744044099693E-3  -1.570221230698129E-3  
 2.033400000000000E10   -2.621389390831745E-3  -1.121095782663259E-3  
 2.033600000000000E10   -2.713724289572349E-3  -8.779590529746113E-4  
 2.033800000000000E10   -2.873483654341581E-3  -1.075389393659907E-4  
 2.034000000000000E10   -2.880966951955616E-3   4.279710345953290E-4  
 2.034200000000000E10   -2.769735414695777E-3   9.098633308894933E-4  
 2.034400000000000E10   -2.616428554540983E-3   1.389989646634570E-3  
 2.034600000000000E10   -2.418910196326949E-3   1.914373475391372E-3  
 2.034800000000000E10   -2.048815031432443E-3   2.476323269491579E-3  
 2.035000000000000E10   -1.412683324658393E-3   2.939109647370600E-3  
 2.035200000000000E10   -6.127115353413018E-4   3.167879391162668E-3  
 2.035400000000000E10    1.892724597573648E-4   3.047371145199847E-3  
 2.035600000000000E10    7.572290890010788E-4   2.626209206488214E-3  
 2.035800000000000E10    9.956659237497752E-4   2.189764692620547E-3  
 2.036000000000000E10    1.037814251267938E-3   1.975240404315201E-3  
 2.036200000000000E10    1.154878480003480E-3   1.902940106739141E-3  
 2.036400000000000E10    1.369235305586991E-3   1.857099920959661E-3  
 2.036600000000000E10    1.674728595973625E-3   1.854790715259259E-3  
 2.036800000000000E10    2.140327388374710E-3   1.754684010118154E-3  
 2.037000000000000E10    2.702385296378239E-3   1.352597765314082E-3  
 2.037200000000000E10    3.102419164928574E-3   7.076386792044859E-4  
 2.037400000000000E10    3.233154563026296E-3  -6.398878325359684E-5  
 2.037600000000000E10    3.054876035700242E-3  -7.889208040361146E-4  
 2.037800000000000E10    2.745772622824636E-3  -1.312005424147679E-3  
 2.038000000000000E10    2.438034043060961E-3  -1.681579330096735E-3  
 2.038200000000000E10    2.121547872292591E-3  -2.013437014452561E-3  
 2.038400000000000E10    1.829952409743895E-3  -2.367909951710407E-3  
 2.038600000000000E10    1.427583590460321E-3  -2.742969770168450E-3  
 2.038800000000000E10    8.366373209512713E-4  -3.004377339909107E-3  
 2.039000000000000E10    2.204055448780792E-4  -3.084154193071121E-3  
 2.039200000000000E10   -3.501773990811436E-4  -3.024277676839704E-3  
 2.039400000000000E10   -8.421037985690309E-4  -2.827904945998281E-3  
 2.039600000000000E10   -1.223800350325527E-3  -2.636721349079852E-3  
 2.039800000000000E10   -1.599096200129960E-3  -2.446068738253765E-3  
 2.040000000000000E10   -1.935934170758651E-3  -2.161539018867009E-3  
 2.040200000000000E10   -2.203209179074124E-3  -1.897380052042412E-3  
 2.040400000000000E10   -2.527043617181020E-3  -1.687772462811367E-3  
 2.040600000000000E10   -2.914651690832811E-3  -1.372131136717436E-3  
 2.040800000000000E10   -3.340037197541492E-3  -9.040701731947471E-4  
 2.041000000000000E10   -3.703750603843803E-3  -1.946347668611755E-4  
 2.041200000000000E10   -3.789792070165277E-3   6.752713974335313E-4  
 2.041400000000000E10   -3.596726954443220E-3   1.534015587013629E-3  
 2.041600000000000E10   -3.174559316701360E-3   2.321211029028083E-3  
 2.041800000000000E10   -2.529747436328987E-3   2.876721670345208E-3  
 2.042000000000000E10   -1.867553029485323E-3   3.179559406513970E-3  
 2.042200000000000E10   -1.236577074181427E-3   3.380354551345479E-3  
 2.042400000000000E10   -6.236518951661793E-4   3.454460811306849E-3  
 2.042600000000000E10   -5.391037453075201E-5   3.444177891921115E-3  
 2.042800000000000E10    5.130924224813275E-4   3.386053345798527E-3  
 2.043000000000000E10    1.071692878426409E-3   3.233090408123386E-3  
 2.043200000000000E10    1.576152572661271E-3   2.972709440430742E-3  
 2.043400000000000E10    2.027467396225275E-3   2.632135114299111E-3  
 2.043600000000000E10    2.343306237440787E-3   2.261855030133401E-3  
 2.043800000000000E10    2.601210996623577E-3   1.938888236857307E-3  
 2.044000000000000E10    2.885392519219974E-3   1.589174288968889E-3  
 2.044200000000000E10    3.174000876714234E-3   1.191140487387685E-3  
 2.044400000000000E10    3.431627075590286E-3   7.378748232889691E-4  
 2.044600000000000E10    3.702379142244658E-3   1.542361416885583E-4  
 2.044800000000000E10    3.850766578344284E-3  -6.065892636270068E-4  
 2.045000000000000E10    3.782751763032543E-3  -1.472849980928004E-3  
 2.045200000000000E10    3.384275488371467E-3  -2.387183729881122E-3  
 2.045400000000000E10    2.605317005266746E-3  -3.094286884951556E-3  
 2.045600000000000E10    1.713829597941152E-3  -3.309216666506765E-3  
 2.045800000000000E10    1.039091553711505E-3  -3.231442222992580E-3  
 2.046000000000000E10    5.861601517765703E-4  -3.093513780859886E-3  
 2.046200000000000E10    2.786921320000181E-4  -3.010951448231936E-3  
 2.046400000000000E10   -1.988815693263783E-5  -3.033896333273547E-3  
 2.046600000000000E10   -4.053750548965908E-4  -3.090675075159029E-3  
 2.046800000000000E10   -8.715858049173323E-4  -3.119166279326619E-3  
 2.047000000000000E10   -1.435082395745005E-3  -3.024375802020968E-3  
 2.047200000000000E10   -1.987785710320797E-3  -2.724216563949063E-3  
 2.047400000000000E10   -2.362281365757004E-3  -2.316139376848753E-3  
 2.047600000000000E10   -2.594412669516457E-3  -1.961306438861806E-3  
 2.047800000000000E10   -2.864314504772609E-3  -1.688581447255005E-3  
 2.048000000000000E10   -3.246648484312091E-3  -1.396633719128591E-3  
 2.048200000000000E10   -3.720466219992550E-3  -8.807724376243575E-4  
 2.048400000000000E10   -4.038145765662193E-3  -6.700535524021374E-5  
 2.048600000000000E10   -4.050045573141104E-3   8.619398311251938E-4  
 2.048800000000000E10   -3.755984603668805E-3   1.765460629637043E-3  
 2.049000000000000E10   -3.179833347575717E-3   2.489057050465986E-3  
 2.049200000000000E10   -2.501431783592260E-3   2.973508782523834E-3  
 2.049400000000000E10   -1.805212728127286E-3   3.227579214805623E-3  
 2.049600000000000E10   -1.136133937383600E-3   3.259742201340420E-3  
 2.049800000000000E10   -6.455944600963483E-4   3.147534465555240E-3  
 2.050000000000000E10   -3.269581148619362E-4   3.024274739149360E-3  
 2.050200000000000E10   -1.681080292105491E-4   3.052151684338848E-3  
 2.050400000000000E10    1.346027438333373E-4   3.343869222006129E-3  
 2.050600000000000E10    8.129563906954395E-4   3.587734474467091E-3  
 2.050800000000000E10    1.643359060341746E-3   3.487644970049093E-3  
 2.051000000000000E10    2.360079428870921E-3   3.101441908604753E-3  
 2.051200000000000E10    2.958699339356872E-3   2.617576561960174E-3  
 2.051400000000000E10    3.470243868866453E-3   1.953779284290418E-3  
 2.051600000000000E10    3.747501082856347E-3   1.142321017220111E-3  
 2.051800000000000E10    3.734637442746281E-3   3.768817854349584E-4  
 2.052000000000000E10    3.638688006357831E-3  -2.246294436504904E-4  
 2.052200000000000E10    3.557925980630113E-3  -8.028827271320755E-4  
 2.052400000000000E10    3.400152776229346E-3  -1.477099272399497E-3  
 2.052600000000000E10    2.973616749830084E-3  -2.192102079452188E-3  
 2.052800000000000E10    2.266505253098813E-3  -2.662429180755108E-3  
 2.053000000000000E10    1.575080384672792E-3  -2.798844022492384E-3  
 2.053200000000000E10    1.022790631934725E-3  -2.774336855329665E-3  
 2.053400000000000E10    5.639901141820039E-4  -2.650832372177163E-3  
 2.053600000000000E10    2.742875931065180E-4  -2.477874042305314E-3  
 2.053800000000000E10    1.114708201508441E-4  -2.367231822400182E-3  
 2.054000000000000E10    3.593482894903445E-5  -2.364568377810497E-3  
 2.054200000000000E10   -6.590595560816308E-5  -2.567974450986511E-3  
 2.054400000000000E10   -4.215305663909717E-4  -2.915674116301501E-3  
 2.054600000000000E10   -1.105869053805500E-3  -3.209000806910573E-3  
 2.054800000000000E10   -2.096938087179521E-3  -3.129305599694267E-3  
 2.055000000000000E10   -3.025710444759440E-3  -2.485464016596477E-3  
 2.055200000000000E10   -3.501184414037401E-3  -1.509913638590571E-3  
 2.055400000000000E10   -3.558270184806100E-3  -5.840562732407341E-4  
 2.055600000000000E10   -3.391785662115357E-3   1.857478648027474E-4  
