#  HZ   S   RI   R     50.00 
! Rohde & Schwarz ZVA40 4Ports - Version 3.90 - 1145.1110k42 SN: 100403
! Date: 2023-10-03 12:44:54
! Measurement: S12 
! 
 2.000000000000000E10    3.889842660566192E-3   3.435526122703168E-3  
 2.000200000000000E10    4.434757835943309E-3   2.641768444493025E-3  
 2.000400000000000E10    4.780143305827930E-3   1.750546728550816E-3  
 2.000600000000000E10    4.918717791355729E-3   8.807746156608107E-4  
 2.000800000000000E10    4.927844813908610E-3   3.932526429777513E-5  
 2.001000000000000E10    4.809345404869164E-3  -7.771092157367624E-4  
 2.001200000000000E10    4.617275799201759E-3  -1.549882647569901E-3  
 2.001400000000000E10    4.267146549633461E-3  -2.382756488407938E-3  
 2.001600000000000E10    3.609783399405549E-3  -3.118655273233463E-3  
 2.001800000000000E10    2.858507504433762E-3  -3.480587188481508E-3  
 2.002000000000000E10    2.267335359497694E-3  -3.633650070866277E-3  
 2.002200000000000E10    1.774245442245130E-3  -3.805357929630862E-3  
 2.002400000000000E10    1.346434457917456E-3  -4.027921763288346E-3  
 2.002600000000000E10    8.481217414748809E-4  -4.322904068210121E-3  
 2.002800000000000E10    1.588725669032272E-4  -4.581215369817897E-3  
 2.003000000000000E10   -6.288968236473056E-4  -4.666527209417648E-3  
 2.003200000000000E10   -1.419456277217650E-3  -4.619959053239787E-3  
 2.003400000000000E10   -2.299423545116076E-3  -4.443740418541089E-3  
 2.003600000000000E10   -3.265230955724670E-3  -3.984961117041618E-3  
 2.003800000000000E10   -4.053577177727337E-3  -3.155102808314628E-3  
 2.004000000000000E10   -4.439873729458153E-3  -2.170046927811085E-3  
 2.004200000000000E10   -4.509841594640652E-3  -1.282854179598759E-3  
 2.004400000000000E10   -4.410788454549753E-3  -5.823600152890686E-4  
 2.004600000000000E10   -4.341424621682518E-3  -7.394559430140514E-5  
 2.004800000000000E10   -4.406728468125046E-3   4.330113555629839E-4  
 2.005000000000000E10   -4.490038811833444E-3   1.135445483838846E-3  
 2.005200000000000E10   -4.339640272783808E-3   1.978913911034459E-3  
 2.005400000000000E10   -3.949841975639428E-3   2.779164079727480E-3  
 2.005600000000000E10   -3.394664720656410E-3   3.465171810111801E-3  
 2.005800000000000E10   -2.733883393330523E-3   4.015990334916834E-3  
 2.006000000000000E10   -1.936797868327554E-3   4.475652723124734E-3  
 2.006200000000000E10   -1.064452880850402E-3   4.690274009826008E-3  
 2.006400000000000E10   -2.215873144310868E-4   4.687245643285036E-3  
 2.006600000000000E10    5.023453746499451E-4   4.569832431037486E-3  
 2.006800000000000E10    1.121282397701682E-3   4.430129797043297E-3  
 2.007000000000000E10    1.800468463938689E-3   4.334234668322634E-3  
 2.007200000000000E10    2.668950620486781E-3   4.068894511719831E-3  
 2.007400000000000E10    3.480783695628451E-3   3.450467682728450E-3  
 2.007600000000000E10    4.022287307703161E-3   2.655478511503879E-3  
 2.007800000000000E10    4.345326892653448E-3   1.768401559328582E-3  
 2.008000000000000E10    4.412673820648215E-3   9.476764202507570E-4  
 2.008200000000000E10    4.329690347529121E-3   2.428253340132124E-4  
 2.008400000000000E10    4.173824990318964E-3  -3.838132642431821E-4  
 2.008600000000000E10    4.010823679211536E-3  -9.142228516217307E-4  
 2.008800000000000E10    3.879520556006699E-3  -1.378300170023225E-3  
 2.009000000000000E10    3.770808988878062E-3  -1.891200700889767E-3  
 2.009200000000000E10    3.630644925109869E-3  -2.542728711806228E-3  
 2.009400000000000E10    3.262159900691243E-3  -3.329387256257308E-3  
 2.009600000000000E10    2.588681762639449E-3  -3.996011601129883E-3  
 2.009800000000000E10    1.747379173040492E-3  -4.445826212539555E-3  
 2.010000000000000E10    8.715241794526804E-4  -4.635533781668533E-3  
 2.010200000000000E10    1.029945718426646E-4  -4.657699698416213E-3  
 2.010400000000000E10   -6.736816593416455E-4  -4.646696377704010E-3  
 2.010600000000000E10   -1.508722591516658E-3  -4.550887721454002E-3  
 2.010800000000000E10   -2.398600917123003E-3  -4.243804275381426E-3  
 2.011000000000000E10   -3.167576459332259E-3  -3.640794737867511E-3  
 2.011200000000000E10   -3.709788640529245E-3  -2.925684045430462E-3  
 2.011400000000000E10   -4.107559973626962E-3  -2.171377454972501E-3  
 2.011600000000000E10   -4.324880433722370E-3  -1.375780639363854E-3  
 2.011800000000000E10   -4.394838075435866E-3  -5.979803412359347E-4  
 2.012000000000000E10   -4.298643600604458E-3   9.016063049485440E-5  
 2.012200000000000E10   -4.139014186314596E-3   6.616346993827260E-4  
 2.012400000000000E10   -4.044970394008690E-3   1.205716322531313E-3  
 2.012600000000000E10   -3.938342014069584E-3   1.843496574860562E-3  
 2.012800000000000E10   -3.680428627697018E-3   2.522607304255475E-3  
 2.013000000000000E10   -3.253129113207486E-3   3.164646936266266E-3  
 2.013200000000000E10   -2.683721390132511E-3   3.751978942477982E-3  
 2.013400000000000E10   -1.966544246685593E-3   4.195744899933232E-3  
 2.013600000000000E10   -1.181433020754933E-3   4.472782844945851E-3  
 2.013800000000000E10   -4.210013503624595E-4   4.611343594423825E-3  
 2.014000000000000E10    3.098486842635817E-4   4.587207739439440E-3  
 2.014200000000000E10    9.989196770608590E-4   4.540298190300031E-3  
 2.014400000000000E10    1.789901016244285E-3   4.461287991597288E-3  
 2.014600000000000E10    2.628286310058951E-3   4.191920618604568E-3  
 2.014800000000000E10    3.415905157633035E-3   3.721941707384951E-3  
 2.015000000000000E10    4.140810579807589E-3   3.100041805323220E-3  
 2.015200000000000E10    4.774916928583457E-3   2.256311359016841E-3  
 2.015400000000000E10    5.132303392420050E-3   1.200910146311130E-3  
 2.015600000000000E10    5.139422033809954E-3   1.225832293778973E-4  
 2.015800000000000E10    4.891491995866326E-3  -7.746377360204744E-4  
 2.016000000000000E10    4.508371557529367E-3  -1.433284119485695E-3  
 2.016200000000000E10    4.191598345861555E-3  -1.942485290329101E-3  
 2.016400000000000E10    4.028606656185047E-3  -2.448410850685136E-3  
 2.016600000000000E10    3.877780470161588E-3  -3.130087331295096E-3  
 2.016800000000000E10    3.498751344670260E-3  -3.982946140926705E-3  
 2.017000000000000E10    2.774002971715296E-3  -4.830840925222318E-3  
 2.017200000000000E10    1.736449451883297E-3  -5.430463074217200E-3  
 2.017400000000000E10    5.746717220306429E-4  -5.693139111053389E-3  
 2.017600000000000E10   -5.922786045413266E-4  -5.660047108851711E-3  
 2.017800000000000E10   -1.611619068160194E-3  -5.324259940126020E-3  
 2.018000000000000E10   -2.447556155262354E-3  -4.829932630205188E-3  
 2.018200000000000E10   -3.094848638543520E-3  -4.279823856880513E-3  
 2.018400000000000E10   -3.645371989026380E-3  -3.809602029202571E-3  
 2.018600000000000E10   -4.259241452320532E-3  -3.353345691097393E-3  
 2.018800000000000E10   -4.946056476172024E-3  -2.681636489769355E-3  
 2.019000000000000E10   -5.505111256923491E-3  -1.766791121187187E-3  
 2.019200000000000E10   -5.815360842040129E-3  -6.738672438888864E-4  
 2.019400000000000E10   -5.829140010567074E-3   4.520797224914009E-4  
 2.019600000000000E10   -5.633683129123046E-3   1.453686103771539E-3  
 2.019800000000000E10   -5.266606845396006E-3   2.382981577512536E-3  
 2.020000000000000E10   -4.779155211541062E-3   3.200257715701403E-3  
 2.020200000000000E10   -4.265431691579450E-3   3.964047673616983E-3  
 2.020400000000000E10   -3.617759370494160E-3   4.754907215226171E-3  
 2.020600000000000E10   -2.696627167798324E-3   5.430274274435269E-3  
 2.020800000000000E10   -1.654559902243817E-3   5.869967854659704E-3  
 2.021000000000000E10   -5.419991647924293E-4   6.090182372827509E-3  
 2.021200000000000E10    6.520577970846200E-4   6.095239914958820E-3  
 2.021400000000000E10    1.825883784471910E-3   5.791194554908900E-3  
 2.021600000000000E10    2.784543807090699E-3   5.177881343824220E-3  
 2.021800000000000E10    3.446113787379387E-3   4.451564862552535E-3  
 2.022000000000000E10    3.946186370051509E-3   3.802063411794123E-3  
 2.022200000000000E10    4.416109895683693E-3   3.175199535178387E-3  
 2.022400000000000E10    4.810057605382960E-3   2.496333075470109E-3  
 2.022600000000000E10    5.116811604718123E-3   1.828224969573002E-3  
 2.022800000000000E10    5.484487966152704E-3   1.166992000302885E-3  
 2.023000000000000E10    5.910684661850314E-3   2.420641877033731E-4  
 2.023200000000000E10    6.007252929193086E-3  -1.041011529414441E-3  
 2.023400000000000E10    5.634607374795876E-3  -2.233815680938902E-3  
 2.023600000000000E10    5.038589400089819E-3  -3.155706309494966E-3  
 2.023800000000000E10    4.331553861401741E-3  -3.904594070775070E-3  
 2.024000000000000E10    3.580465682862718E-3  -4.495527095126886E-3  
 2.024200000000000E10    2.782233370166523E-3  -4.994681473586336E-3  
 2.024400000000000E10    1.906923571887678E-3  -5.355824717027948E-3  
 2.024600000000000E10    1.008789406211687E-3  -5.579278598040016E-3  
 2.024800000000000E10    7.943699961943064E-5  -5.654642297739396E-3  
 2.025000000000000E10   -9.089424242124996E-4  -5.567288249143399E-3  
 2.025200000000000E10   -1.855386448551394E-3  -5.289382956007341E-3  
 2.025400000000000E10   -2.651382344985695E-3  -4.824410202249947E-3  
 2.025600000000000E10   -3.299855622967555E-3  -4.259543743786826E-3  
 2.025800000000000E10   -3.823943954824748E-3  -3.700637085163974E-3  
 2.026000000000000E10   -4.341407128404035E-3  -3.152130105863588E-3  
 2.026200000000000E10   -4.864971674033359E-3  -2.500765127179677E-3  
 2.026400000000000E10   -5.353566349850679E-3  -1.706058273969579E-3  
 2.026600000000000E10   -5.684669241334718E-3  -7.144583167031727E-4  
 2.026800000000000E10   -5.715465088807998E-3   3.383579707528185E-4  
 2.027000000000000E10   -5.554766545585768E-3   1.395468340595145E-3  
 2.027200000000000E10   -5.166367153715041E-3   2.411600184436525E-3  
 2.027400000000000E10   -4.543055362478206E-3   3.248545427107865E-3  
 2.027600000000000E10   -3.795378823254886E-3   3.851462140888875E-3  
 2.027800000000000E10   -3.078778017253523E-3   4.279519965941156E-3  
 2.028000000000000E10   -2.377155083915109E-3   4.649448723996005E-3  
 2.028200000000000E10   -1.606974242458220E-3   4.920764448726743E-3  
 2.028400000000000E10   -8.568424724785943E-4   5.084076937829722E-3  
 2.028600000000000E10   -1.047436203001948E-4   5.227777866751406E-3  
 2.028800000000000E10    7.952659769176631E-4   5.231695739611146E-3  
 2.029000000000000E10    1.701944224844305E-3   5.030745131938384E-3  
 2.029200000000000E10    2.546145134210710E-3   4.698432987078064E-3  
 2.029400000000000E10    3.338925671713895E-3   4.180392061982341E-3  
 2.029600000000000E10    3.990981216824759E-3   3.510467178892186E-3  
 2.029800000000000E10    4.498870807619375E-3   2.748581577304480E-3  
 2.030000000000000E10    4.836044761649908E-3   1.925054179863501E-3  
 2.030200000000000E10    5.026646061903901E-3   1.144459367945627E-3  
 2.030400000000000E10    5.217593349133132E-3   3.993063732350581E-4  
 2.030600000000000E10    5.358489934835374E-3  -4.974585322730899E-4  
 2.030800000000000E10    5.279516361766229E-3  -1.573773629232649E-3  
 2.031000000000000E10    4.872518836869380E-3  -2.658773102798846E-3  
 2.031200000000000E10    4.182298451186822E-3  -3.579051639764623E-3  
 2.031400000000000E10    3.230425408135574E-3  -4.295889544332674E-3  
 2.031600000000000E10    2.155769317103001E-3  -4.605395139408374E-3  
 2.031800000000000E10    1.212116055872767E-3  -4.478966652457853E-3  
 2.032000000000000E10    6.426864059958787E-4  -4.269371335541598E-3  
 2.032200000000000E10    2.268091022729713E-4  -4.249075319699750E-3  
 2.032400000000000E10   -2.682653803663234E-4  -4.332581469827474E-3  
 2.032600000000000E10   -9.065921866623698E-4  -4.328757567926527E-3  
 2.032800000000000E10   -1.598895615412610E-3  -4.220460569013335E-3  
 2.033000000000000E10   -2.306888000055923E-3  -4.020988155508974E-3  
 2.033200000000000E10   -3.066865916699887E-3  -3.656361940341130E-3  
 2.033400000000000E10   -3.751226234542326E-3  -3.023901947905580E-3  
 2.033600000000000E10   -3.938751270297011E-3  -2.662801385610601E-3  
 2.033800000000000E10   -4.495124379875566E-3  -1.538373522245835E-3  
 2.034000000000000E10   -4.739736680156042E-3  -7.236975411097526E-4  
 2.034200000000000E10   -4.831845667698665E-3   1.224222663892669E-4  
 2.034400000000000E10   -4.762147823463620E-3   9.724758988609143E-4  
 2.034600000000000E10   -4.532862709520899E-3   1.862929869169786E-3  
 2.034800000000000E10   -4.097770057639059E-3   2.746601378230892E-3  
 2.035000000000000E10   -3.413133755637990E-3   3.473562839669681E-3  
 2.035200000000000E10   -2.565703046251349E-3   3.991081789442542E-3  
 2.035400000000000E10   -1.656231029496998E-3   4.192856424686146E-3  
 2.035600000000000E10   -9.098477590227417E-4   4.082162435254689E-3  
 2.035800000000000E10   -4.230638731935986E-4   3.939385607644446E-3  
 2.036000000000000E10   -3.497654784359652E-5   3.982302870100623E-3  
 2.036200000000000E10    4.752177030642726E-4   4.099212869853599E-3  
 2.036400000000000E10    1.094754869137496E-3   4.138270774996740E-3  
 2.036600000000000E10    1.837217483882868E-3   4.096495519700079E-3  
 2.036800000000000E10    2.690848251498102E-3   3.881116066158677E-3  
 2.037000000000000E10    3.542887480975486E-3   3.324591083929904E-3  
 2.037200000000000E10    4.204951383848005E-3   2.520259464318023E-3  
 2.037400000000000E10    4.577087553981974E-3   1.585696744687846E-3  
 2.037600000000000E10    4.646546165209740E-3   6.510855073354557E-4  
 2.037800000000000E10    4.546422128717637E-3  -1.585365292860198E-4  
 2.038000000000000E10    4.389398916533782E-3  -8.359157436543922E-4  
 2.038200000000000E10    4.216530228695426E-3  -1.442086406848017E-3  
 2.038400000000000E10    4.033138258165498E-3  -2.128238892259360E-3  
 2.038600000000000E10    3.693535476182020E-3  -2.894429821171000E-3  
 2.038800000000000E10    3.093270073927153E-3  -3.601228166435462E-3  
 2.039000000000000E10    2.325436065550920E-3  -4.084022312625651E-3  
 2.039200000000000E10    1.531868049777810E-3  -4.359982951847002E-3  
 2.039400000000000E10    8.002198104834792E-4  -4.449486499332883E-3  
 2.039600000000000E10    1.301931767490985E-4  -4.507239110159735E-3  
 2.039800000000000E10   -5.999263344059185E-4  -4.513361016658886E-3  
 2.040000000000000E10   -1.306370924806941E-3  -4.389134351296967E-3  
 2.040200000000000E10   -1.942162051929777E-3  -4.201593803080880E-3  
 2.040400000000000E10   -2.682208482480119E-3  -4.003809363835470E-3  
 2.040600000000000E10   -3.481660458541621E-3  -3.636795104403351E-3  
 2.040800000000000E10   -4.280556229662422E-3  -3.033614429978677E-3  
 2.041000000000000E10   -4.962480823101863E-3  -2.114797059564107E-3  
 2.041200000000000E10   -5.339379315692498E-3  -1.043723583948353E-3  
 2.041400000000000E10   -5.425275358996152E-3   5.020234937856180E-5  
 2.041600000000000E10   -5.242077767240862E-3   1.145431885894373E-3  
 2.041800000000000E10   -4.825983717092231E-3   2.103906020072426E-3  
 2.042000000000000E10   -4.268571707600184E-3   2.845695895425189E-3  
 2.042200000000000E10   -3.604609037612774E-3   3.458319191306074E-3  
 2.042400000000000E10   -2.962410228648856E-3   3.907121183281697E-3  
 2.042600000000000E10   -2.347744804575774E-3   4.311173686704029E-3  
 2.042800000000000E10   -1.597166982024592E-3   4.663983182355619E-3  
 2.043000000000000E10   -7.697694220443465E-4   4.874204104032946E-3  
 2.043200000000000E10    4.894462949372779E-5   4.907711422446457E-3  
 2.043400000000000E10    8.441065072397536E-4   4.778608517524556E-3  
 2.043600000000000E10    1.537884091792324E-3   4.571740396719411E-3  
 2.043800000000000E10    2.191450527648152E-3   4.373816031047919E-3  
 2.044000000000000E10    2.893146160039515E-3   4.080619346171577E-3  
 2.044200000000000E10    3.639687746967635E-3   3.662186984575785E-3  
 2.044400000000000E10    4.375641903647099E-3   3.108259143220933E-3  
 2.044600000000000E10    5.084965728729228E-3   2.293025501792937E-3  
 2.044800000000000E10    5.566674805232242E-3   1.195140891364777E-3  
 2.045000000000000E10    5.723069825009105E-3  -1.702389162607409E-5  
 2.045200000000000E10    5.515996994647429E-3  -1.238414189722057E-3  
 2.045400000000000E10    4.897976850526119E-3  -2.292255956273327E-3  
 2.045600000000000E10    4.121145765605002E-3  -2.916742102479351E-3  
 2.045800000000000E10    3.459470584510798E-3  -3.229770499290529E-3  
 2.046000000000000E10    2.974609467194547E-3  -3.462052426910328E-3  
 2.046200000000000E10    2.631274182911559E-3  -3.798970225712973E-3  
 2.046400000000000E10    2.208246289917226E-3  -4.264791341516381E-3  
 2.046600000000000E10    1.600346019854374E-3  -4.726910944491503E-3  
 2.046800000000000E10    8.046360416063180E-4  -5.131837448797641E-3  
 2.047000000000000E10   -1.939562235998638E-4  -5.338437815001350E-3  
 2.047200000000000E10   -1.196391456211126E-3  -5.229779715881018E-3  
 2.047400000000000E10   -2.094436563048078E-3  -4.902996441581899E-3  
 2.047600000000000E10   -2.848308483286875E-3  -4.490926317533349E-3  
 2.047800000000000E10   -3.513930563780445E-3  -4.005903057467872E-3  
 2.048000000000000E10   -4.190059894867069E-3  -3.471301020594475E-3  
 2.048200000000000E10   -4.899146969830018E-3  -2.765404385296099E-3  
 2.048400000000000E10   -5.451007923737312E-3  -1.813799800767739E-3  
 2.048600000000000E10   -5.744382111797690E-3  -7.146607987986386E-4  
 2.048800000000000E10   -5.744851030158940E-3   4.681337298458093E-4  
 2.049000000000000E10   -5.420556632400746E-3   1.527684413992758E-3  
 2.049200000000000E10   -4.909944760808607E-3   2.398489992005243E-3  
 2.049400000000000E10   -4.317710954128716E-3   3.104217794106761E-3  
 2.049600000000000E10   -3.676296950193999E-3   3.613920387938435E-3  
 2.049800000000000E10   -3.051555008705405E-3   3.976610933771595E-3  
 2.050000000000000E10   -2.500190610060946E-3   4.307846434603463E-3  
 2.050200000000000E10   -2.024413674139764E-3   4.699513523753821E-3  
 2.050400000000000E10   -1.378729266679203E-3   5.239998959439242E-3  
 2.050600000000000E10   -3.711504797276816E-4   5.665303302471449E-3  
 2.050800000000000E10    8.316781211022253E-4   5.721147177901902E-3  
 2.051000000000000E10    1.932658481862606E-3   5.440539539253803E-3  
 2.051200000000000E10    2.912958077537037E-3   4.973611444367712E-3  
 2.051400000000000E10    3.798273678189361E-3   4.314159386790012E-3  
 2.051600000000000E10    4.455466568214495E-3   3.458991519013224E-3  
 2.051800000000000E10    4.862610847320005E-3   2.569340161125806E-3  
 2.052000000000000E10    5.176069573288470E-3   1.730835403951936E-3  
 2.052200000000000E10    5.435367211295786E-3   8.323644040361947E-4  
 2.052400000000000E10    5.520293744605428E-3  -2.079454044192143E-4  
 2.052600000000000E10    5.259152652570577E-3  -1.299561682286250E-3  
 2.052800000000000E10    4.706478267601489E-3  -2.152184880401209E-3  
 2.053000000000000E10    4.122817745133315E-3  -2.735875740478682E-3  
 2.053200000000000E10    3.551680564341252E-3  -3.224872114310560E-3  
 2.053400000000000E10    2.985727529658519E-3  -3.563715506534109E-3  
 2.053600000000000E10    2.483930759418077E-3  -3.802675408897577E-3  
 2.053800000000000E10    2.045642056301829E-3  -4.096587211537509E-3  
 2.054000000000000E10    1.597899812962273E-3  -4.459137563301132E-3  
 2.054200000000000E10    1.041412125795119E-3  -4.930057502843553E-3  
 2.054400000000000E10    1.854227364409954E-4  -5.394453530305862E-3  
 2.054600000000000E10   -9.940964647598147E-4  -5.663684799894181E-3  
 2.054800000000000E10   -2.406901418357904E-3  -5.497442804971922E-3  
 2.055000000000000E10   -3.689842632702145E-3  -4.701387413760804E-3  
 2.055200000000000E10   -4.487581208056997E-3  -3.587736951286902E-3  
 2.055400000000000E10   -4.845751935567590E-3  -2.498731609888692E-3  
 2.055600000000000E10   -4.974546968752956E-3  -1.502612093399664E-3  
