#  HZ   S   RI   R     50.00 
! Rohde & Schwarz ZVA40 4Ports - Version 3.90 - 1145.1110k42 SN: 100403
! Date: 2023-10-03 12:45:22
! Measurement: S12 
! 
 2.000000000000000E10    3.601528704166413E-3   3.201295431979277E-3  
 2.000200000000000E10    4.097474394021212E-3   2.493146970799124E-3  
 2.000400000000000E10    4.431780427694321E-3   1.703904476016760E-3  
 2.000600000000000E10    4.587208231290182E-3   9.193212802832327E-4  
 2.000800000000000E10    4.619294812005979E-3   1.645093421016268E-4  
 2.001000000000000E10    4.545724260862228E-3  -5.979611521103867E-4  
 2.001200000000000E10    4.413814508114701E-3  -1.346897639989577E-3  
 2.001400000000000E10    4.129436005044868E-3  -2.138894741181974E-3  
 2.001600000000000E10    3.523640886501030E-3  -2.838686358666531E-3  
 2.001800000000000E10    2.824938674974773E-3  -3.180323108271869E-3  
 2.002000000000000E10    2.295565092936158E-3  -3.328396887001065E-3  
 2.002200000000000E10    1.884079853038269E-3  -3.516099846887368E-3  
 2.002400000000000E10    1.525129579628508E-3  -3.793254391186768E-3  
 2.002600000000000E10    1.067961891681922E-3  -4.140291483727871E-3  
 2.002800000000000E10    4.142077825101162E-4  -4.446441721585062E-3  
 2.003000000000000E10   -3.655448711436260E-4  -4.591673371140605E-3  
 2.003200000000000E10   -1.175942503053833E-3  -4.621696434225198E-3  
 2.003400000000000E10   -2.054116447214727E-3  -4.484261558563621E-3  
 2.003600000000000E10   -2.996136201545596E-3  -4.080595293392738E-3  
 2.003800000000000E10   -3.800372334404125E-3  -3.305202470747410E-3  
 2.004000000000000E10   -4.220863907701440E-3  -2.394379685736365E-3  
 2.004200000000000E10   -4.362924231423273E-3  -1.577990646991465E-3  
 2.004400000000000E10   -4.371353804513261E-3  -9.225262609241462E-4  
 2.004600000000000E10   -4.420205967983714E-3  -4.143253770760365E-4  
 2.004800000000000E10   -4.580859094858170E-3   1.505813183265908E-4  
 2.005000000000000E10   -4.719303782891345E-3   9.583574116092039E-4  
 2.005200000000000E10   -4.604728237070420E-3   1.877112098521105E-3  
 2.005400000000000E10   -4.225827926010998E-3   2.748828881454689E-3  
 2.005600000000000E10   -3.626387066173333E-3   3.508211027278945E-3  
 2.005800000000000E10   -2.910289585728336E-3   4.078702414753261E-3  
 2.006000000000000E10   -2.115643695341769E-3   4.538368882128487E-3  
 2.006200000000000E10   -1.253083182274606E-3   4.787011813648321E-3  
 2.006400000000000E10   -3.959868350917802E-4   4.832586066590415E-3  
 2.006600000000000E10    3.550725593447203E-4   4.752846745153269E-3  
 2.006800000000000E10    1.037046645285079E-3   4.653876681846601E-3  
 2.007000000000000E10    1.798901215402617E-3   4.585907311627159E-3  
 2.007200000000000E10    2.748697194167309E-3   4.312441218644381E-3  
 2.007400000000000E10    3.612320870161057E-3   3.632228364478107E-3  
 2.007600000000000E10    4.151556054475132E-3   2.758682274294121E-3  
 2.007800000000000E10    4.457727333323823E-3   1.853052673309490E-3  
 2.008000000000000E10    4.518938337073283E-3   1.040950865933189E-3  
 2.008200000000000E10    4.460227296308236E-3   3.593489657052690E-4  
 2.008400000000000E10    4.361675879745572E-3  -2.572117101509422E-4  
 2.008600000000000E10    4.271725692820770E-3  -8.590630281509625E-4  
 2.008800000000000E10    4.141276512570956E-3  -1.451551914215088E-3  
 2.009000000000000E10    3.999264712479932E-3  -2.041750311575554E-3  
 2.009200000000000E10    3.810494862220906E-3  -2.740553071446441E-3  
 2.009400000000000E10    3.364452324738657E-3  -3.551190650021589E-3  
 2.009600000000000E10    2.640108422686657E-3  -4.212489938018500E-3  
 2.009800000000000E10    1.775685607248711E-3  -4.662574337864364E-3  
 2.010000000000000E10    8.743594128948948E-4  -4.870751286270443E-3  
 2.010200000000000E10    4.665304947627230E-5  -4.906584594950633E-3  
 2.010400000000000E10   -8.125417624358778E-4  -4.870602033204503E-3  
 2.010600000000000E10   -1.724782675780632E-3  -4.697782660110130E-3  
 2.010800000000000E10   -2.634990710282216E-3  -4.312858899572382E-3  
 2.011000000000000E10   -3.387047529772477E-3  -3.673754727329922E-3  
 2.011200000000000E10   -3.898528973675437E-3  -2.922729873615835E-3  
 2.011400000000000E10   -4.278432094940434E-3  -2.141439605987183E-3  
 2.011600000000000E10   -4.516035283881206E-3  -1.343146527048063E-3  
 2.011800000000000E10   -4.615774550647648E-3  -5.312257026498968E-4  
 2.012000000000000E10   -4.527857596123661E-3   2.437159753214844E-4  
 2.012200000000000E10   -4.316139017680178E-3   8.867298106283502E-4  
 2.012400000000000E10   -4.121795934797438E-3   1.486587364019619E-3  
 2.012600000000000E10   -3.887679384745382E-3   2.132107589945749E-3  
 2.012800000000000E10   -3.553662914782763E-3   2.765654836332909E-3  
 2.013000000000000E10   -3.081130182922439E-3   3.325878858083377E-3  
 2.013200000000000E10   -2.501911940742974E-3   3.792508143103785E-3  
 2.013400000000000E10   -1.840718258689675E-3   4.194677703910405E-3  
 2.013600000000000E10   -1.122249904761298E-3   4.513334206960820E-3  
 2.013800000000000E10   -3.596505743593703E-4   4.692604696309126E-3  
 2.014000000000000E10    4.045924137311953E-4   4.687383926163117E-3  
 2.014200000000000E10    1.131144804983503E-3   4.617402036846788E-3  
 2.014400000000000E10    1.931337950130304E-3   4.486661525098263E-3  
 2.014600000000000E10    2.803087303483928E-3   4.223940238632538E-3  
 2.014800000000000E10    3.659524213246726E-3   3.721045649231033E-3  
 2.015000000000000E10    4.365620599990643E-3   2.986080513370258E-3  
 2.015200000000000E10    4.930530950703003E-3   2.052374874000197E-3  
 2.015400000000000E10    5.241962460180124E-3   9.842732321919392E-4  
 2.015600000000000E10    5.205239134806174E-3  -1.019494100344471E-4  
 2.015800000000000E10    4.908592543668218E-3  -9.922361501527055E-4  
 2.016000000000000E10    4.491830813801952E-3  -1.638951107721638E-3  
 2.016200000000000E10    4.126270155042962E-3  -2.142419917853895E-3  
 2.016400000000000E10    3.918217451967024E-3  -2.641626883781067E-3  
 2.016600000000000E10    3.714101846088415E-3  -3.331353422254324E-3  
 2.016800000000000E10    3.279066687725761E-3  -4.124579830440107E-3  
 2.017000000000000E10    2.525735517135925E-3  -4.858106633441316E-3  
 2.017200000000000E10    1.494945703867685E-3  -5.399679937572391E-3  
 2.017400000000000E10    3.655374306685257E-4  -5.654273399462303E-3  
 2.017600000000000E10   -7.690443588351763E-4  -5.619583047788453E-3  
 2.017800000000000E10   -1.802819030773309E-3  -5.273570203118855E-3  
 2.018000000000000E10   -2.649691723356093E-3  -4.736073263403443E-3  
 2.018200000000000E10   -3.303181733591138E-3  -4.117166459629382E-3  
 2.018400000000000E10   -3.838464703962759E-3  -3.558998582539736E-3  
 2.018600000000000E10   -4.368283337465039E-3  -3.028044692689071E-3  
 2.018800000000000E10   -4.910704007165300E-3  -2.343658159521443E-3  
 2.019000000000000E10   -5.344232009654797E-3  -1.467260635561414E-3  
 2.019200000000000E10   -5.619516113290081E-3  -4.504032969836974E-4  
 2.019400000000000E10   -5.654386537908404E-3   6.292447290400527E-4  
 2.019600000000000E10   -5.448054298068639E-3   1.617919722640956E-3  
 2.019800000000000E10   -5.021702618924557E-3   2.532009233686108E-3  
 2.020000000000000E10   -4.441926807717041E-3   3.280618797159858E-3  
 2.020200000000000E10   -3.888304621257164E-3   3.923725164322942E-3  
 2.020400000000000E10   -3.277122146553464E-3   4.606400771687428E-3  
 2.020600000000000E10   -2.474221530266934E-3   5.206825746292318E-3  
 2.020800000000000E10   -1.531850960519579E-3   5.605630266169707E-3  
 2.021000000000000E10   -4.467068530276367E-4   5.861017956501909E-3  
 2.021200000000000E10    7.385170169140179E-4   5.876129544857476E-3  
 2.021400000000000E10    1.869747208224403E-3   5.546539194054075E-3  
 2.021600000000000E10    2.765904344549334E-3   4.929236671025003E-3  
 2.021800000000000E10    3.367854765167943E-3   4.219961378516423E-3  
 2.022000000000000E10    3.832184011116624E-3   3.580897537715458E-3  
 2.022200000000000E10    4.272320221557662E-3   2.957245714410588E-3  
 2.022400000000000E10    4.618732931299343E-3   2.322708881736078E-3  
 2.022600000000000E10    4.883056523761264E-3   1.714790451202404E-3  
 2.022800000000000E10    5.218251642805559E-3   1.080122724589374E-3  
 2.023000000000000E10    5.607118433410371E-3   1.870789220211683E-4  
 2.023200000000000E10    5.694630469574974E-3  -1.012955227418354E-3  
 2.023400000000000E10    5.359084862801764E-3  -2.108143918492176E-3  
 2.023600000000000E10    4.822620535614315E-3  -2.963213663962153E-3  
 2.023800000000000E10    4.152059770637641E-3  -3.669943186213022E-3  
 2.024000000000000E10    3.445438816453572E-3  -4.255952727463511E-3  
 2.024200000000000E10    2.695226550309195E-3  -4.750531839413776E-3  
 2.024400000000000E10    1.906302455743706E-3  -5.117932627736419E-3  
 2.024600000000000E10    1.072591942459069E-3  -5.344978309477922E-3  
 2.024800000000000E10    1.442685001907026E-4  -5.447569803369266E-3  
 2.025000000000000E10   -8.444268648788610E-4  -5.386544305279300E-3  
 2.025200000000000E10   -1.771895227850311E-3  -5.130194041326091E-3  
 2.025400000000000E10   -2.561286548842435E-3  -4.660254999719285E-3  
 2.025600000000000E10   -3.163152779624970E-3  -4.061073642569009E-3  
 2.025800000000000E10   -3.602091110897838E-3  -3.470943800898062E-3  
 2.026000000000000E10   -4.029870464432019E-3  -2.938698304610120E-3  
 2.026200000000000E10   -4.481664970862094E-3  -2.417060831147764E-3  
 2.026400000000000E10   -4.940452347337096E-3  -1.807638543175051E-3  
 2.026600000000000E10   -5.310894197060003E-3  -9.299598750658333E-4  
 2.026800000000000E10   -5.443577482192605E-3   7.467782227279345E-5  
 2.027000000000000E10   -5.375987505195318E-3   1.109660204275753E-3  
 2.027200000000000E10   -5.073261292030415E-3   2.085342472936545E-3  
 2.027400000000000E10   -4.528996017244128E-3   2.905183920153865E-3  
 2.027600000000000E10   -3.847627012335040E-3   3.513253017984055E-3  
 2.027800000000000E10   -3.169952443352453E-3   3.971526683825586E-3  
 2.028000000000000E10   -2.530658143331056E-3   4.378168550492437E-3  
 2.028200000000000E10   -1.856803829367790E-3   4.718463781669185E-3  
 2.028400000000000E10   -1.163371450578173E-3   4.945140228503281E-3  
 2.028600000000000E10   -3.881197653417648E-4   5.132772752808200E-3  
 2.028800000000000E10    5.540666892624428E-4   5.182785775374484E-3  
 2.029000000000000E10    1.475235596040471E-3   5.023644305765629E-3  
 2.029200000000000E10    2.295535730404987E-3   4.740753659495602E-3  
 2.029400000000000E10    3.056074458139915E-3   4.303605140497288E-3  
 2.029600000000000E10    3.723236602834530E-3   3.693555723185893E-3  
 2.029800000000000E10    4.289780734796768E-3   2.973402626122590E-3  
 2.030000000000000E10    4.740994302900854E-3   2.197816260848885E-3  
 2.030200000000000E10    5.019403994083405E-3   1.442792057922041E-3  
 2.030400000000000E10    5.233817837304540E-3   6.810994128938076E-4  
 2.030600000000000E10    5.412352254131327E-3  -2.524323300113557E-4  
 2.030800000000000E10    5.384234435580395E-3  -1.356550388866001E-3  
 2.031000000000000E10    5.051378367675676E-3  -2.487010740744020E-3  
 2.031200000000000E10    4.401923226261581E-3  -3.448886029353297E-3  
 2.031400000000000E10    3.468319540843368E-3  -4.181283750329857E-3  
 2.031600000000000E10    2.389746614628368E-3  -4.529242403805256E-3  
 2.031800000000000E10    1.449692972797763E-3  -4.489418576230054E-3  
 2.032000000000000E10    8.891558153899732E-4  -4.376339131138392E-3  
 2.032200000000000E10    4.499707612450476E-4  -4.391043377971209E-3  
 2.032400000000000E10   -1.204633455792512E-4  -4.467410621819674E-3  
 2.032600000000000E10   -8.264513792339672E-4  -4.436053249433086E-3  
 2.032800000000000E10   -1.513136195070628E-3  -4.323214965148105E-3  
 2.033000000000000E10   -2.214566640624846E-3  -4.173137075095265E-3  
 2.033200000000000E10   -2.980324646664991E-3  -3.871873279826509E-3  
 2.033400000000000E10   -3.686959527570893E-3  -3.270224012710431E-3  
 2.033600000000000E10   -3.940656419015594E-3  -2.900651871675143E-3  
 2.033800000000000E10   -4.629093239566794E-3  -1.731243381207740E-3  
 2.034000000000000E10   -4.910431785026083E-3  -8.837068367197557E-4  
 2.034200000000000E10   -4.974245938851879E-3  -5.069637188204884E-6  
 2.034400000000000E10   -4.870208135495584E-3   8.759392076171936E-4  
 2.034600000000000E10   -4.646723779539268E-3   1.766610532757585E-3  
 2.034800000000000E10   -4.255438120000893E-3   2.669846777010847E-3  
 2.035000000000000E10   -3.622572748335424E-3   3.432175308396971E-3  
 2.035200000000000E10   -2.797197516041774E-3   3.965082449010678E-3  
 2.035400000000000E10   -1.878379197377298E-3   4.199310223123542E-3  
 2.035600000000000E10   -1.091827181409355E-3   4.180347564181796E-3  
 2.035800000000000E10   -5.721185335898082E-4   4.111557578047117E-3  
 2.036000000000000E10   -1.725757513971378E-4   4.157509137358931E-3  
 2.036200000000000E10    3.712131389571975E-4   4.248244929368850E-3  
 2.036400000000000E10    1.016710190688846E-3   4.269784851068700E-3  
 2.036600000000000E10    1.778578972099004E-3   4.250882538380447E-3  
 2.036800000000000E10    2.681276269464030E-3   4.072738914853998E-3  
 2.037000000000000E10    3.585847206758681E-3   3.553471821187823E-3  
 2.037200000000000E10    4.259053410755264E-3   2.744955019335504E-3  
 2.037400000000000E10    4.671314196592129E-3   1.764387763277800E-3  
 2.037600000000000E10    4.806382202163891E-3   7.855205029180204E-4  
 2.037800000000000E10    4.758545180299769E-3  -1.445395389088885E-5  
 2.038000000000000E10    4.620620756651517E-3  -7.137570899902603E-4  
 2.038200000000000E10    4.445566123144494E-3  -1.394187775009347E-3  
 2.038400000000000E10    4.254655981505359E-3  -2.138149497720103E-3  
 2.038600000000000E10    3.921776337342130E-3  -2.960164996760864E-3  
 2.038800000000000E10    3.328632028704441E-3  -3.724270327775567E-3  
 2.039000000000000E10    2.550159330928215E-3  -4.256344245125851E-3  
 2.039200000000000E10    1.692657048503558E-3  -4.572668371515142E-3  
 2.039400000000000E10    8.324172058901577E-4  -4.697069560212118E-3  
 2.039600000000000E10    9.686796423651411E-5  -4.773844378413978E-3  
 2.039800000000000E10   -6.623003794596084E-4  -4.752112104109040E-3  
 2.040000000000000E10   -1.402249068228735E-3  -4.559967718604539E-3  
 2.040200000000000E10   -2.059712376514519E-3  -4.325807094573975E-3  
 2.040400000000000E10   -2.807531928367637E-3  -4.091556477187961E-3  
 2.040600000000000E10   -3.608821968858441E-3  -3.695906571078080E-3  
 2.040800000000000E10   -4.400372798382133E-3  -3.099869574523635E-3  
 2.041000000000000E10   -5.088091276034162E-3  -2.198507767860536E-3  
 2.041200000000000E10   -5.470937825049516E-3  -1.083037371885170E-3  
 2.041400000000000E10   -5.595271147925546E-3   7.976985351113545E-5  
 2.041600000000000E10   -5.461400219549736E-3   1.201590764577742E-3  
 2.041800000000000E10   -5.012898033277856E-3   2.194019978762501E-3  
 2.042000000000000E10   -4.386018599487014E-3   2.979279883826773E-3  
 2.042200000000000E10   -3.691746266903701E-3   3.618032645641102E-3  
 2.042400000000000E10   -3.013457551046654E-3   4.091518844857261E-3  
 2.042600000000000E10   -2.343909271682302E-3   4.516790534749076E-3  
 2.042800000000000E10   -1.546296903311655E-3   4.841275013017434E-3  
 2.043000000000000E10   -6.908771314623732E-4   4.966103213114872E-3  
 2.043200000000000E10    1.433205597331162E-4   4.938410905500254E-3  
 2.043400000000000E10    9.253625305266018E-4   4.838546117146811E-3  
 2.043600000000000E10    1.594988124755522E-3   4.643748152173229E-3  
 2.043800000000000E10    2.240932236115138E-3   4.410129195700089E-3  
 2.044000000000000E10    2.945666641203894E-3   4.117520336337664E-3  
 2.044200000000000E10    3.723906197895607E-3   3.722927981504688E-3  
 2.044400000000000E10    4.495451192337054E-3   3.160712516142263E-3  
 2.044600000000000E10    5.209490001477577E-3   2.323307829943520E-3  
 2.044800000000000E10    5.680510256853369E-3   1.228004310245591E-3  
 2.045000000000000E10    5.829494722463467E-3  -1.458274100177396E-5  
 2.045200000000000E10    5.633932089915982E-3  -1.291669051473340E-3  
 2.045400000000000E10    5.055396662404140E-3  -2.363304495466529E-3  
 2.045600000000000E10    4.260790206629921E-3  -3.022288187855372E-3  
 2.045800000000000E10    3.573281621491468E-3  -3.375687360487603E-3  
 2.046000000000000E10    3.041171373937417E-3  -3.674812407957183E-3  
 2.046200000000000E10    2.597069548856881E-3  -4.035848675778619E-3  
 2.046400000000000E10    2.096671645564062E-3  -4.436233977752704E-3  
 2.046600000000000E10    1.490544432912160E-3  -4.842557823630396E-3  
 2.046800000000000E10    7.073832223088378E-4  -5.187085088066481E-3  
 2.047000000000000E10   -2.990330304547334E-4  -5.358261849593234E-3  
 2.047200000000000E10   -1.313343924401259E-3  -5.265799764957693E-3  
 2.047400000000000E10   -2.172104255468758E-3  -4.952681009416228E-3  
 2.047600000000000E10   -2.909247237430127E-3  -4.532113412602081E-3  
 2.047800000000000E10   -3.610112014468070E-3  -4.080508645899870E-3  
 2.048000000000000E10   -4.361964037848844E-3  -3.525266734262308E-3  
 2.048200000000000E10   -5.123515026988807E-3  -2.767146953071157E-3  
 2.048400000000000E10   -5.687576373694121E-3  -1.730810113561650E-3  
 2.048600000000000E10   -5.934136557496257E-3  -5.730394968176606E-4  
 2.048800000000000E10   -5.842364979562937E-3   6.465126643888652E-4  
 2.049000000000000E10   -5.459490301156486E-3   1.746223152925571E-3  
 2.049200000000000E10   -4.917226369596191E-3   2.620033635240463E-3  
 2.049400000000000E10   -4.270199272367690E-3   3.273306276511263E-3  
 2.049600000000000E10   -3.576187615248341E-3   3.749608872803274E-3  
 2.049800000000000E10   -2.935197135364568E-3   4.106224721504583E-3  
 2.050000000000000E10   -2.360405650472752E-3   4.411249938938353E-3  
 2.050200000000000E10   -1.900572484980027E-3   4.749477444285596E-3  
 2.050400000000000E10   -1.284465732708298E-3   5.265444396408621E-3  
 2.050600000000000E10   -2.975211138147172E-4   5.652605297250881E-3  
 2.050800000000000E10    8.702094718399975E-4   5.700157731081602E-3  
 2.051000000000000E10    1.983461996402454E-3   5.461853652916573E-3  
 2.051200000000000E10    2.982707228511572E-3   5.028041838495820E-3  
 2.051400000000000E10    3.871949786251343E-3   4.359946448217940E-3  
 2.051600000000000E10    4.570878283293159E-3   3.481628183551409E-3  
 2.051800000000000E10    5.013899187798854E-3   2.536346868577379E-3  
 2.052000000000000E10    5.324710488181424E-3   1.654511813453778E-3  
 2.052200000000000E10    5.564547626784554E-3   7.282690494321288E-4  
 2.052400000000000E10    5.608192731246905E-3  -3.132766785172323E-4  
 2.052600000000000E10    5.314382189815796E-3  -1.396456293554770E-3  
 2.052800000000000E10    4.745721006421028E-3  -2.296401230894305E-3  
 2.053000000000000E10    4.140656889864693E-3  -2.921755287658286E-3  
 2.053200000000000E10    3.539520031255153E-3  -3.365939327826103E-3  
 2.053400000000000E10    2.947120478859654E-3  -3.708301715690781E-3  
 2.053600000000000E10    2.388959629806104E-3  -4.007081932353753E-3  
 2.053800000000000E10    1.858028169307444E-3  -4.294458035103701E-3  
 2.054000000000000E10    1.360176139752622E-3  -4.575080910904541E-3  
 2.054200000000000E10    8.080575593070267E-4  -4.961079486680252E-3  
 2.054400000000000E10   -2.335427173723705E-6  -5.361362532884987E-3  
 2.054600000000000E10   -1.139989575474627E-3  -5.575335912268472E-3  
 2.054800000000000E10   -2.523281439035028E-3  -5.410239203936525E-3  
 2.055000000000000E10   -3.792234161799705E-3  -4.675283493405140E-3  
 2.055200000000000E10   -4.590987055389970E-3  -3.565642542930114E-3  
 2.055400000000000E10   -4.993541614600906E-3  -2.420291947028428E-3  
 2.055600000000000E10   -5.151234808619377E-3  -1.347327867902264E-3  
