#  HZ   S   RI   R     50.00 
! Rohde & Schwarz ZVA40 4Ports - Version 3.90 - 1145.1110k42 SN: 100403
! Date: 2023-10-03 12:46:11
! Measurement: S12 
! 
 2.000000000000000E10    4.193932559617140E-3   3.212596919318593E-3  
 2.000200000000000E10    4.631447174620849E-3   2.381325983959768E-3  
 2.000400000000000E10    4.917259155600160E-3   1.470820275480273E-3  
 2.000600000000000E10    4.994763975480089E-3   5.997246760806001E-4  
 2.000800000000000E10    4.951760224584077E-3  -2.044348552266861E-4  
 2.001000000000000E10    4.809646539528062E-3  -1.017585116507555E-3  
 2.001200000000000E10    4.545522733005110E-3  -1.826596791269603E-3  
 2.001400000000000E10    4.125877628447834E-3  -2.596503572055587E-3  
 2.001600000000000E10    3.455592500459817E-3  -3.246886862648858E-3  
 2.001800000000000E10    2.741356156076546E-3  -3.566662867174105E-3  
 2.002000000000000E10    2.167783453370686E-3  -3.724630266703942E-3  
 2.002200000000000E10    1.634368668655279E-3  -3.903657197952271E-3  
 2.002400000000000E10    1.163402593832601E-3  -4.085898692547172E-3  
 2.002600000000000E10    6.886061768185486E-4  -4.325266892987270E-3  
 2.002800000000000E10    4.367421368240481E-5  -4.565938289656684E-3  
 2.003000000000000E10   -7.572176767064744E-4  -4.644983982736314E-3  
 2.003200000000000E10   -1.593782389708967E-3  -4.578576061046787E-3  
 2.003400000000000E10   -2.482388936052168E-3  -4.341568539126053E-3  
 2.003600000000000E10   -3.379898887403586E-3  -3.840538276428426E-3  
 2.003800000000000E10   -4.105399776664046E-3  -3.028366835442959E-3  
 2.004000000000000E10   -4.452586242998088E-3  -2.053677397607654E-3  
 2.004200000000000E10   -4.500373697805185E-3  -1.173940370790660E-3  
 2.004400000000000E10   -4.406917357334385E-3  -5.077941977005039E-4  
 2.004600000000000E10   -4.366104422068156E-3  -8.589487320191621E-6  
 2.004800000000000E10   -4.439098863965936E-3   5.126950801005243E-4  
 2.005000000000000E10   -4.498530299989163E-3   1.265198492479545E-3  
 2.005200000000000E10   -4.331151747869121E-3   2.146082921643500E-3  
 2.005400000000000E10   -3.893732783143168E-3   2.974512529800888E-3  
 2.005600000000000E10   -3.263220199625250E-3   3.638058624885701E-3  
 2.005800000000000E10   -2.575020357552502E-3   4.106470469937281E-3  
 2.006000000000000E10   -1.805779105914688E-3   4.504134688802340E-3  
 2.006200000000000E10   -9.398406880252341E-4   4.725669441675700E-3  
 2.006400000000000E10   -8.330297876252900E-5   4.724833890105840E-3  
 2.006600000000000E10    6.589894032071311E-4   4.572715662005875E-3  
 2.006800000000000E10    1.283099659270159E-3   4.383188223949185E-3  
 2.007000000000000E10    1.964584734566786E-3   4.235382588511265E-3  
 2.007200000000000E10    2.825104545249983E-3   3.915662722041210E-3  
 2.007400000000000E10    3.588751398233904E-3   3.258268512716448E-3  
 2.007600000000000E10    4.046540069221347E-3   2.471643672497185E-3  
 2.007800000000000E10    4.316304982812317E-3   1.628934785171792E-3  
 2.008000000000000E10    4.388884054841820E-3   8.062501243936521E-4  
 2.008200000000000E10    4.304062057700423E-3   9.207380827757772E-5  
 2.008400000000000E10    4.122573020005668E-3  -4.951524897478521E-4  
 2.008600000000000E10    3.947254442782314E-3  -9.877355510575906E-4  
 2.008800000000000E10    3.814198369919150E-3  -1.460799154032160E-3  
 2.009000000000000E10    3.677604599269453E-3  -1.999778543702431E-3  
 2.009200000000000E10    3.492958240073037E-3  -2.660364179906470E-3  
 2.009400000000000E10    3.095039149263392E-3  -3.405905535651578E-3  
 2.009600000000000E10    2.432483800307468E-3  -4.019241348874790E-3  
 2.009800000000000E10    1.620625999445717E-3  -4.413484388755428E-3  
 2.010000000000000E10    7.570021402056296E-4  -4.614837415930298E-3  
 2.010200000000000E10   -2.057839635569877E-5  -4.677137273743198E-3  
 2.010400000000000E10   -8.256582487202078E-4  -4.661723522952310E-3  
 2.010600000000000E10   -1.704545325116703E-3  -4.475081235998208E-3  
 2.010800000000000E10   -2.573368165435063E-3  -4.056060100319210E-3  
 2.011000000000000E10   -3.276918635324196E-3  -3.369863110559959E-3  
 2.011200000000000E10   -3.744559241803709E-3  -2.633848762208665E-3  
 2.011400000000000E10   -4.053314181941528E-3  -1.927507265160481E-3  
 2.011600000000000E10   -4.223640094062797E-3  -1.211993353165410E-3  
 2.011800000000000E10   -4.278345361213994E-3  -4.701952124445665E-4  
 2.012000000000000E10   -4.208471263862319E-3   2.421493333747128E-4  
 2.012200000000000E10   -4.046142532455701E-3   8.341389647857460E-4  
 2.012400000000000E10   -3.847004449063982E-3   1.358965329860372E-3  
 2.012600000000000E10   -3.635700628230418E-3   1.894467656880066E-3  
 2.012800000000000E10   -3.367748809978367E-3   2.451583605121684E-3  
 2.013000000000000E10   -2.983533070181256E-3   3.005603500814350E-3  
 2.013200000000000E10   -2.510626921085296E-3   3.546203969529382E-3  
 2.013400000000000E10   -1.917947027659803E-3   3.992796392628440E-3  
 2.013600000000000E10   -1.201066358825537E-3   4.308883186981635E-3  
 2.013800000000000E10   -4.328687190772380E-4   4.458729229453538E-3  
 2.014000000000000E10    2.893525983112071E-4   4.490013424031161E-3  
 2.014200000000000E10    9.664503762636472E-4   4.489848735155884E-3  
 2.014400000000000E10    1.725573178932623E-3   4.412343397874524E-3  
 2.014600000000000E10    2.560519811662811E-3   4.188913282834822E-3  
 2.014800000000000E10    3.410882877047968E-3   3.720610273174114E-3  
 2.015000000000000E10    4.175960724414499E-3   3.038665210759199E-3  
 2.015200000000000E10    4.822425975429792E-3   2.145164016703213E-3  
 2.015400000000000E10    5.146439118241824E-3   1.078722569487851E-3  
 2.015600000000000E10    5.098092852643243E-3   2.646788575307133E-6  
 2.015800000000000E10    4.821171621895500E-3  -9.143341255063813E-4  
 2.016000000000000E10    4.437968462567639E-3  -1.588693587109447E-3  
 2.016200000000000E10    4.090603820427701E-3  -2.052999981161621E-3  
 2.016400000000000E10    3.884992062079686E-3  -2.519880378342890E-3  
 2.016600000000000E10    3.684160782507173E-3  -3.197260813235685E-3  
 2.016800000000000E10    3.211512273453453E-3  -4.003593301469530E-3  
 2.017000000000000E10    2.437264826666150E-3  -4.729383745817124E-3  
 2.017200000000000E10    1.467360720400595E-3  -5.208862203828715E-3  
 2.017400000000000E10    4.520833058955356E-4  -5.408846997414475E-3  
 2.017600000000000E10   -6.023783331598948E-4  -5.370286345067952E-3  
 2.017800000000000E10   -1.581019325250829E-3  -5.121467704022373E-3  
 2.018000000000000E10   -2.426878092120643E-3  -4.708573756808485E-3  
 2.018200000000000E10   -3.076845141886562E-3  -4.182543545202525E-3  
 2.018400000000000E10   -3.629328044890254E-3  -3.668556981547564E-3  
 2.018600000000000E10   -4.195826076385048E-3  -3.147122148355401E-3  
 2.018800000000000E10   -4.800331675344044E-3  -2.472358734208953E-3  
 2.019000000000000E10   -5.295056332316664E-3  -1.594849077432796E-3  
 2.019200000000000E10   -5.580567789298517E-3  -6.031397146452274E-4  
 2.019400000000000E10   -5.604154533810087E-3   4.517890710202563E-4  
 2.019600000000000E10   -5.415873602032661E-3   1.485717353514499E-3  
 2.019800000000000E10   -5.047128484066990E-3   2.428827850424030E-3  
 2.020000000000000E10   -4.522140482785526E-3   3.180788122807388E-3  
 2.020200000000000E10   -3.994963321558856E-3   3.822751869275063E-3  
 2.020400000000000E10   -3.396651612732698E-3   4.491602312083599E-3  
 2.020600000000000E10   -2.555997085033192E-3   5.099876214646632E-3  
 2.020800000000000E10   -1.617170840122358E-3   5.517419651840573E-3  
 2.021000000000000E10   -6.069480139693177E-4   5.786523378143709E-3  
 2.021200000000000E10    5.118734574083377E-4   5.835419779436457E-3  
 2.021400000000000E10    1.636346582219833E-3   5.544745984176795E-3  
 2.021600000000000E10    2.585935699580997E-3   4.991189455958429E-3  
 2.021800000000000E10    3.252085427650148E-3   4.344523522175021E-3  
 2.022000000000000E10    3.738604253157974E-3   3.753515175992141E-3  
 2.022200000000000E10    4.200168419629335E-3   3.162484581547755E-3  
 2.022400000000000E10    4.577415063977242E-3   2.525970839929802E-3  
 2.022600000000000E10    4.888249509450463E-3   1.882129978319561E-3  
 2.022800000000000E10    5.269626948844504E-3   1.237532072183159E-3  
 2.023000000000000E10    5.699426039225526E-3   3.806086664957952E-4  
 2.023200000000000E10    5.811885275222639E-3  -8.044904572199342E-4  
 2.023400000000000E10    5.475730169564486E-3  -1.955566367272426E-3  
 2.023600000000000E10    4.982657402891805E-3  -2.880274973533772E-3  
 2.023800000000000E10    4.371576839023167E-3  -3.647802613192687E-3  
 2.024000000000000E10    3.695160262631598E-3  -4.287937224877102E-3  
 2.024200000000000E10    2.934104900945116E-3  -4.829370244233697E-3  
 2.024400000000000E10    2.067560894863197E-3  -5.223520203597017E-3  
 2.024600000000000E10    1.163053099945602E-3  -5.479800963291416E-3  
 2.024800000000000E10    2.405630382579855E-4  -5.618759051517205E-3  
 2.025000000000000E10   -7.440828420739208E-4  -5.568427102709259E-3  
 2.025200000000000E10   -1.702872135124549E-3  -5.268445134990746E-3  
 2.025400000000000E10   -2.550712277836822E-3  -4.788828030642536E-3  
 2.025600000000000E10   -3.213383714427000E-3  -4.203923512250185E-3  
 2.025800000000000E10   -3.656997129804007E-3  -3.632716179169991E-3  
 2.026000000000000E10   -4.078995496793478E-3  -3.146852237275906E-3  
 2.026200000000000E10   -4.548479061297797E-3  -2.636359521636257E-3  
 2.026400000000000E10   -5.076636956935681E-3  -1.992815040500352E-3  
 2.026600000000000E10   -5.535024132027671E-3  -1.071510017263117E-3  
 2.026800000000000E10   -5.746251748253902E-3  -1.895265476950616E-5  
 2.027000000000000E10   -5.701855894316127E-3   1.056324091257045E-3  
 2.027200000000000E10   -5.332164104200073E-3   2.159354811603273E-3  
 2.027400000000000E10   -4.696226627048519E-3   3.092316358729645E-3  
 2.027600000000000E10   -3.970128242616301E-3   3.724490801148393E-3  
 2.027800000000000E10   -3.271493983144562E-3   4.177787625748251E-3  
 2.028000000000000E10   -2.581657281283427E-3   4.556274567558258E-3  
 2.028200000000000E10   -1.859303201652236E-3   4.831151916059080E-3  
 2.028400000000000E10   -1.137526714484449E-3   5.053156779872047E-3  
 2.028600000000000E10   -3.802059094326709E-4   5.274289408353745E-3  
 2.028800000000000E10    5.137854480347382E-4   5.366139096656332E-3  
 2.029000000000000E10    1.442931892126109E-3   5.227817946838008E-3  
 2.029200000000000E10    2.357805790207177E-3   4.899037812181093E-3  
 2.029400000000000E10    3.198106928418080E-3   4.393947828147147E-3  
 2.029600000000000E10    3.876722012474030E-3   3.763738398750624E-3  
 2.029800000000000E10    4.433286919568976E-3   3.062222704843239E-3  
 2.030000000000000E10    4.856860351369337E-3   2.288710463930060E-3  
 2.030200000000000E10    5.148651750965252E-3   1.487876793059210E-3  
 2.030400000000000E10    5.421906123282734E-3   6.621713875103053E-4  
 2.030600000000000E10    5.624977337127484E-3  -3.049366275296996E-4  
 2.030800000000000E10    5.575457104930172E-3  -1.412838818160472E-3  
 2.031000000000000E10    5.176106174648912E-3  -2.547766297572741E-3  
 2.031200000000000E10    4.476340901520518E-3  -3.555297377277856E-3  
 2.031400000000000E10    3.511894287334549E-3  -4.351226104147457E-3  
 2.031600000000000E10    2.413797571703240E-3  -4.707553941342566E-3  
 2.031800000000000E10    1.462067498963464E-3  -4.633403641896116E-3  
 2.032000000000000E10    8.673979943894126E-4  -4.478465731221217E-3  
 2.032200000000000E10    3.789109797691237E-4  -4.482771994339095E-3  
 2.032400000000000E10   -2.174408388479303E-4  -4.586222184890951E-3  
 2.032600000000000E10   -8.985250767889537E-4  -4.575748962384683E-3  
 2.032800000000000E10   -1.561402336746041E-3  -4.421133168593602E-3  
 2.033000000000000E10   -2.270494915407013E-3  -4.207864455464814E-3  
 2.033200000000000E10   -3.064178749574004E-3  -3.889675838527857E-3  
 2.033400000000000E10   -3.811106387594785E-3  -3.309068752935640E-3  
 2.033600000000000E10   -4.103711763120912E-3  -2.950408832273550E-3  
 2.033800000000000E10   -4.760217628683206E-3  -1.720290493082117E-3  
 2.034000000000000E10   -4.988698530252334E-3  -8.209246141767061E-4  
 2.034200000000000E10   -5.042686661774362E-3   9.408108652914294E-5  
 2.034400000000000E10   -4.974068159720412E-3   9.526805661153049E-4  
 2.034600000000000E10   -4.789604391488764E-3   1.829987021025133E-3  
 2.034800000000000E10   -4.372840178095633E-3   2.764404302945844E-3  
 2.035000000000000E10   -3.672745880774326E-3   3.598281328945800E-3  
 2.035200000000000E10   -2.761150442960638E-3   4.184799027387743E-3  
 2.035400000000000E10   -1.775894107090103E-3   4.393940067125692E-3  
 2.035600000000000E10   -9.922457608842741E-4   4.288043102456464E-3  
 2.035800000000000E10   -4.892859385816135E-4   4.133978237708410E-3  
 2.036000000000000E10   -7.705285975976876E-5   4.164412703916983E-3  
 2.036200000000000E10    4.543682422350956E-4   4.301683563325141E-3  
 2.036400000000000E10    1.097021710679487E-3   4.413491132220736E-3  
 2.036600000000000E10    1.899555028002295E-3   4.393768686525248E-3  
 2.036800000000000E10    2.844379809512585E-3   4.113559317947538E-3  
 2.037000000000000E10    3.753044375183958E-3   3.494678875776353E-3  
 2.037200000000000E10    4.415714820088060E-3   2.677112628050425E-3  
 2.037400000000000E10    4.835901074801331E-3   1.716983909891160E-3  
 2.037600000000000E10    4.960863212882369E-3   7.410638370654649E-4  
 2.037800000000000E10    4.900078340950940E-3  -1.506734535925919E-4  
 2.038000000000000E10    4.728566699971756E-3  -9.651626503370980E-4  
 2.038200000000000E10    4.499522037804127E-3  -1.700897964097008E-3  
 2.038400000000000E10    4.219053537343388E-3  -2.392019011528680E-3  
 2.038600000000000E10    3.775501503022733E-3  -3.116588849850275E-3  
 2.038800000000000E10    3.119194552440334E-3  -3.800239698547456E-3  
 2.039000000000000E10    2.384059441586335E-3  -4.288691440942112E-3  
 2.039200000000000E10    1.587740878609044E-3  -4.616989616166663E-3  
 2.039400000000000E10    7.845200188630433E-4  -4.743221957512476E-3  
 2.039600000000000E10    4.413721951466326E-5  -4.776243706820189E-3  
 2.039800000000000E10   -7.432694029476908E-4  -4.714226332941542E-3  
 2.040000000000000E10   -1.500340726192075E-3  -4.550254662279730E-3  
 2.040200000000000E10   -2.141284256207723E-3  -4.348261212861098E-3  
 2.040400000000000E10   -2.853020275425580E-3  -4.125986541448920E-3  
 2.040600000000000E10   -3.677599373515006E-3  -3.713972952768759E-3  
 2.040800000000000E10   -4.514643491280300E-3  -3.078271600383300E-3  
 2.041000000000000E10   -5.235597025603056E-3  -2.141349241827373E-3  
 2.041200000000000E10   -5.624505915437584E-3  -1.002265847529526E-3  
 2.041400000000000E10   -5.685658918486701E-3   1.469691509286080E-4  
 2.041600000000000E10   -5.459242897039212E-3   1.279025459317146E-3  
 2.041800000000000E10   -4.975708218774310E-3   2.278521941560838E-3  
 2.042000000000000E10   -4.437771073921964E-3   3.041058864996390E-3  
 2.042200000000000E10   -3.821139844755332E-3   3.691442560887448E-3  
 2.042400000000000E10   -3.123029928516459E-3   4.213006201165694E-3  
 2.042600000000000E10   -2.369627054711735E-3   4.670662667464328E-3  
 2.042800000000000E10   -1.506410961694740E-3   5.021498279853000E-3  
 2.043000000000000E10   -6.231494297497665E-4   5.185305054678962E-3  
 2.043200000000000E10    2.209629612345318E-4   5.197011417260877E-3  
 2.043400000000000E10    1.055203580849425E-3   5.049636121839285E-3  
 2.043600000000000E10    1.829467097262818E-3   4.780368293049160E-3  
 2.043800000000000E10    2.568333401103263E-3   4.480593768810786E-3  
 2.044000000000000E10    3.292355781283092E-3   4.109117944069483E-3  
 2.044200000000000E10    4.000809060892573E-3   3.613528036684902E-3  
 2.044400000000000E10    4.664498709004235E-3   2.937553691919203E-3  
 2.044600000000000E10    5.288001270619808E-3   2.057720993266062E-3  
 2.044800000000000E10    5.716753278479533E-3   9.817534031484414E-4  
 2.045000000000000E10    5.873779110886433E-3  -1.985482732480806E-4  
 2.045200000000000E10    5.673813806087883E-3  -1.415095520550730E-3  
 2.045400000000000E10    5.033866950759182E-3  -2.493437922870120E-3  
 2.045600000000000E10    4.206332654036858E-3  -3.199819104608011E-3  
 2.045800000000000E10    3.492120127366097E-3  -3.603012956402921E-3  
 2.046000000000000E10    2.928127120766375E-3  -3.868190882106623E-3  
 2.046200000000000E10    2.449701583288886E-3  -4.136436325670393E-3  
 2.046400000000000E10    1.926405614034997E-3  -4.491376086931538E-3  
 2.046600000000000E10    1.266869543879121E-3  -4.892011449016907E-3  
 2.046800000000000E10    4.656435016335713E-4  -5.211744647197150E-3  
 2.047000000000000E10   -4.995302598992432E-4  -5.338725426958667E-3  
 2.047200000000000E10   -1.432965992501489E-3  -5.173490762158678E-3  
 2.047400000000000E10   -2.253824310308254E-3  -4.794988488019617E-3  
 2.047600000000000E10   -2.989124627438961E-3  -4.383342530302428E-3  
 2.047800000000000E10   -3.690809511614067E-3  -3.976333524203964E-3  
 2.048000000000000E10   -4.418561148836658E-3  -3.472832324742168E-3  
 2.048200000000000E10   -5.163983252175429E-3  -2.700689421207817E-3  
 2.048400000000000E10   -5.725166432697465E-3  -1.598581550987783E-3  
 2.048600000000000E10   -5.951723687488725E-3  -3.829344706092444E-4  
 2.048800000000000E10   -5.846613276473902E-3   8.346258740251263E-4  
 2.049000000000000E10   -5.439592922037400E-3   1.907131220731471E-3  
 2.049200000000000E10   -4.832150449079496E-3   2.743201640745004E-3  
 2.049400000000000E10   -4.113850959887108E-3   3.390410337252198E-3  
 2.049600000000000E10   -3.395362308731786E-3   3.858738423635563E-3  
 2.049800000000000E10   -2.787823219680124E-3   4.150968683124693E-3  
 2.050000000000000E10   -2.270669064105109E-3   4.393800092792071E-3  
 2.050200000000000E10   -1.794988668903157E-3   4.723279788676236E-3  
 2.050400000000000E10   -1.130812452174723E-3   5.237450805941115E-3  
 2.050600000000000E10   -1.306790759877509E-4   5.635279886148595E-3  
 2.050800000000000E10    1.025029216651563E-3   5.690324913572383E-3  
 2.051000000000000E10    2.094832826750698E-3   5.421056636367684E-3  
 2.051200000000000E10    3.089131321758032E-3   4.948602730615272E-3  
 2.051400000000000E10    4.037216340226156E-3   4.215253413551385E-3  
 2.051600000000000E10    4.742921450761734E-3   3.254854663585623E-3  
 2.051800000000000E10    5.088398319289641E-3   2.278074604907522E-3  
 2.052000000000000E10    5.277422636195467E-3   1.399411255045346E-3  
 2.052200000000000E10    5.420390413039261E-3   4.851601832477308E-4  
 2.052400000000000E10    5.422576848003600E-3  -5.376723301769407E-4  
 2.052600000000000E10    5.121744962202178E-3  -1.592851976898534E-3  
 2.052800000000000E10    4.517870834442201E-3  -2.426891829128619E-3  
 2.053000000000000E10    3.863672139468017E-3  -2.927486362211683E-3  
 2.053200000000000E10    3.249450776450061E-3  -3.295903680501162E-3  
 2.053400000000000E10    2.681135881209263E-3  -3.585902577335084E-3  
 2.053600000000000E10    2.200869200923653E-3  -3.823152277618647E-3  
 2.053800000000000E10    1.755220418864930E-3  -4.050555690709088E-3  
 2.054000000000000E10    1.311941546629425E-3  -4.307313097847833E-3  
 2.054200000000000E10    8.086944527113467E-4  -4.684243247740800E-3  
 2.054400000000000E10    4.865030038032548E-5  -5.125132234146198E-3  
 2.054600000000000E10   -1.045167170189045E-3  -5.437230984507888E-3  
 2.054800000000000E10   -2.394243186615684E-3  -5.329999934743953E-3  
 2.055000000000000E10   -3.658841329592246E-3  -4.582328463180198E-3  
 2.055200000000000E10   -4.477557277789823E-3  -3.466984481309300E-3  
 2.055400000000000E10   -4.888579249382019E-3  -2.339018939959783E-3  
 2.055600000000000E10   -5.023882224190015E-3  -1.294787386777225E-3  
