#  HZ   S   RI   R     50.00 
! Rohde & Schwarz ZVA40 4Ports - Version 3.90 - 1145.1110k42 SN: 100403
! Date: 2023-10-03 12:46:41
! Measurement: S12 
! 
 2.000000000000000E10    4.118649846655720E-3   3.043340769147984E-3  
 2.000200000000000E10    4.526505114533652E-3   2.255006894515253E-3  
 2.000400000000000E10    4.781740533624903E-3   1.395346194413709E-3  
 2.000600000000000E10    4.852064178083783E-3   5.755779343473231E-4  
 2.000800000000000E10    4.841808833319833E-3  -2.163210907877519E-4  
 2.001000000000000E10    4.716132807740827E-3  -1.038698284789046E-3  
 2.001200000000000E10    4.459492718501960E-3  -1.842536197480872E-3  
 2.001400000000000E10    4.019710752699111E-3  -2.620689740496470E-3  
 2.001600000000000E10    3.313641799728812E-3  -3.235577220488110E-3  
 2.001800000000000E10    2.582122749982425E-3  -3.498262740142736E-3  
 2.002000000000000E10    2.049332087928499E-3  -3.621250005829850E-3  
 2.002200000000000E10    1.555718531843597E-3  -3.798137163099500E-3  
 2.002400000000000E10    1.129293476553335E-3  -3.996403703902975E-3  
 2.002600000000000E10    6.267052103569847E-4  -4.239500718720166E-3  
 2.002800000000000E10   -4.386510750290328E-5  -4.439592470679387E-3  
 2.003000000000000E10   -8.063641812272924E-4  -4.475536813706528E-3  
 2.003200000000000E10   -1.572318564824484E-3  -4.413246326608424E-3  
 2.003400000000000E10   -2.427528198394511E-3  -4.215273816414454E-3  
 2.003600000000000E10   -3.324703316284735E-3  -3.709826466087023E-3  
 2.003800000000000E10   -4.020148025894607E-3  -2.862896534533781E-3  
 2.004000000000000E10   -4.332529863825551E-3  -1.902101547054855E-3  
 2.004200000000000E10   -4.345425099916297E-3  -1.072588103627901E-3  
 2.004400000000000E10   -4.227193348385670E-3  -4.553218222335326E-4  
 2.004600000000000E10   -4.174709406301932E-3   1.600090691670318E-6  
 2.004800000000000E10   -4.249304297299666E-3   4.912183819810091E-4  
 2.005000000000000E10   -4.323273862677592E-3   1.202375526011082E-3  
 2.005200000000000E10   -4.175870213657618E-3   2.048215976870263E-3  
 2.005400000000000E10   -3.771166460887518E-3   2.843533498867427E-3  
 2.005600000000000E10   -3.136933125831464E-3   3.482976954223381E-3  
 2.005800000000000E10   -2.447038969415942E-3   3.933123669322627E-3  
 2.006000000000000E10   -1.698025785398061E-3   4.298594044406474E-3  
 2.006200000000000E10   -8.973418921807115E-4   4.483819674746491E-3  
 2.006400000000000E10   -1.135220568638617E-4   4.466890288447893E-3  
 2.006600000000000E10    5.474392242764158E-4   4.306829304514845E-3  
 2.006800000000000E10    1.090420910191757E-3   4.169876480268108E-3  
 2.007000000000000E10    1.735049317142478E-3   4.127597459304480E-3  
 2.007200000000000E10    2.601510296104315E-3   3.896992118960178E-3  
 2.007400000000000E10    3.393493624358082E-3   3.278404120700779E-3  
 2.007600000000000E10    3.869731076935559E-3   2.467095067172691E-3  
 2.007800000000000E10    4.106636802999326E-3   1.620356870217272E-3  
 2.008000000000000E10    4.131985943258545E-3   8.846703704078626E-4  
 2.008200000000000E10    4.073054897656412E-3   2.709068686709981E-4  
 2.008400000000000E10    3.962093676773855E-3  -2.439765407478173E-4  
 2.008600000000000E10    3.876162474446092E-3  -7.176214252759554E-4  
 2.008800000000000E10    3.821011494707179E-3  -1.205073041484956E-3  
 2.009000000000000E10    3.756844174162842E-3  -1.771065205289626E-3  
 2.009200000000000E10    3.634635226824034E-3  -2.453585005836723E-3  
 2.009400000000000E10    3.273565396896484E-3  -3.238956156520196E-3  
 2.009600000000000E10    2.603012821234671E-3  -3.894774639910018E-3  
 2.009800000000000E10    1.794806575218653E-3  -4.333735397660439E-3  
 2.010000000000000E10    9.438652533715891E-4  -4.571062006792169E-3  
 2.010200000000000E10    1.778978482580437E-4  -4.644786479112544E-3  
 2.010400000000000E10   -6.034869354298730E-4  -4.649765910235821E-3  
 2.010600000000000E10   -1.465783356746406E-3  -4.530937163688151E-3  
 2.010800000000000E10   -2.342824036554422E-3  -4.202975167168512E-3  
 2.011000000000000E10   -3.102874156248607E-3  -3.623964865749450E-3  
 2.011200000000000E10   -3.644253932123567E-3  -2.967549743774681E-3  
 2.011400000000000E10   -4.061429422164774E-3  -2.269360857705276E-3  
 2.011600000000000E10   -4.339308696396558E-3  -1.479287913506046E-3  
 2.011800000000000E10   -4.464678506562372E-3  -6.467969448558620E-4  
 2.012000000000000E10   -4.384881586848219E-3   1.266308396157843E-4  
 2.012200000000000E10   -4.180448491954142E-3   7.511827495397519E-4  
 2.012400000000000E10   -3.995743568664716E-3   1.272200142539302E-3  
 2.012600000000000E10   -3.803799713582353E-3   1.835266901410105E-3  
 2.012800000000000E10   -3.548978546197400E-3   2.439341648700245E-3  
 2.013000000000000E10   -3.185197892081407E-3   3.045735409322345E-3  
 2.013200000000000E10   -2.710855896527201E-3   3.622476965832858E-3  
 2.013400000000000E10   -2.064660780798690E-3   4.084597025526528E-3  
 2.013600000000000E10   -1.311503355046390E-3   4.403627138400888E-3  
 2.013800000000000E10   -5.445659114263469E-4   4.586309085335629E-3  
 2.014000000000000E10    1.894591252583964E-4   4.620777092368147E-3  
 2.014200000000000E10    8.718860939283063E-4   4.629090152404927E-3  
 2.014400000000000E10    1.661602436438387E-3   4.590811644807275E-3  
 2.014600000000000E10    2.543624553737450E-3   4.365096420601563E-3  
 2.014800000000000E10    3.442702725828614E-3   3.901924736751820E-3  
 2.015000000000000E10    4.250998321322748E-3   3.238070434258309E-3  
 2.015200000000000E10    4.919812008508563E-3   2.326091150695711E-3  
 2.015400000000000E10    5.267452822285303E-3   1.225958630028698E-3  
 2.015600000000000E10    5.249955616661429E-3   1.072936718651082E-4  
 2.015800000000000E10    4.989660793432484E-3  -8.363127176661368E-4  
 2.016000000000000E10    4.591686628115031E-3  -1.508125536615190E-3  
 2.016200000000000E10    4.257807220665761E-3  -1.991830797819996E-3  
 2.016400000000000E10    4.106458762292694E-3  -2.483518167548342E-3  
 2.016600000000000E10    3.943297244539417E-3  -3.228963668929575E-3  
 2.016800000000000E10    3.478984313982505E-3  -4.138099679286466E-3  
 2.017000000000000E10    2.667760496591161E-3  -4.951538311110603E-3  
 2.017200000000000E10    1.627151174528272E-3  -5.459883325031879E-3  
 2.017400000000000E10    5.157562538645128E-4  -5.674656267841290E-3  
 2.017600000000000E10   -6.134455404129386E-4  -5.648195755058601E-3  
 2.017800000000000E10   -1.650910180659942E-3  -5.372104217746744E-3  
 2.018000000000000E10   -2.537543230034687E-3  -4.908651182496990E-3  
 2.018200000000000E10   -3.226378840612777E-3  -4.336477527509869E-3  
 2.018400000000000E10   -3.800660000976038E-3  -3.785281603075105E-3  
 2.018600000000000E10   -4.391615014569260E-3  -3.229566010428064E-3  
 2.018800000000000E10   -5.026486127372878E-3  -2.517500420871341E-3  
 2.019000000000000E10   -5.514769073299788E-3  -1.591342501342297E-3  
 2.019200000000000E10   -5.771096761303921E-3  -5.443398138281120E-4  
 2.019400000000000E10   -5.775781325352046E-3   5.634442542357670E-4  
 2.019600000000000E10   -5.548962650613653E-3   1.608171155331312E-3  
 2.019800000000000E10   -5.137629145871342E-3   2.538242960854629E-3  
 2.020000000000000E10   -4.591921470875358E-3   3.299183873344719E-3  
 2.020200000000000E10   -4.056047366495118E-3   3.957121986550866E-3  
 2.020400000000000E10   -3.442714784156393E-3   4.646351078042278E-3  
 2.020600000000000E10   -2.596972104920834E-3   5.298685753878989E-3  
 2.020800000000000E10   -1.620987364102477E-3   5.757711517314116E-3  
 2.021000000000000E10   -5.494120353286696E-4   6.039717108195212E-3  
 2.021200000000000E10    6.562859505518444E-4   6.087529473006727E-3  
 2.021400000000000E10    1.877189215767071E-3   5.761090326870298E-3  
 2.021600000000000E10    2.874128419882906E-3   5.122053028762709E-3  
 2.021800000000000E10    3.548231912937798E-3   4.364834313660309E-3  
 2.022000000000000E10    4.023129442407762E-3   3.679146823461777E-3  
 2.022200000000000E10    4.438533257969000E-3   3.007205171556569E-3  
 2.022400000000000E10    4.759039287167935E-3   2.326864401384453E-3  
 2.022600000000000E10    5.027753829864073E-3   1.685617544780267E-3  
 2.022800000000000E10    5.375968286606634E-3   1.045312265359601E-3  
 2.023000000000000E10    5.775872842167264E-3   1.652146126650257E-4  
 2.023200000000000E10    5.849372980725251E-3  -1.066232074977669E-3  
 2.023400000000000E10    5.461760825351065E-3  -2.218242458723210E-3  
 2.023600000000000E10    4.894172485319921E-3  -3.111116544998907E-3  
 2.023800000000000E10    4.226294708334738E-3  -3.835275154100893E-3  
 2.024000000000000E10    3.498833408050331E-3  -4.422751163350948E-3  
 2.024200000000000E10    2.701335718832267E-3  -4.912215020553566E-3  
 2.024400000000000E10    1.815960207885063E-3  -5.255447562645984E-3  
 2.024600000000000E10    9.267335746115373E-4  -5.451338221951400E-3  
 2.024800000000000E10    3.810560317813521E-5  -5.518369572122157E-3  
 2.025000000000000E10   -9.159660908209600E-4  -5.423863723092242E-3  
 2.025200000000000E10   -1.840062252602276E-3  -5.115972630633617E-3  
 2.025400000000000E10   -2.608845349585201E-3  -4.634525029011715E-3  
 2.025600000000000E10   -3.220148315584218E-3  -4.080692771822214E-3  
 2.025800000000000E10   -3.666078536713750E-3  -3.526760980969778E-3  
 2.026000000000000E10   -4.097750398939775E-3  -3.031207469901370E-3  
 2.026200000000000E10   -4.568646242267188E-3  -2.472545276108532E-3  
 2.026400000000000E10   -5.068718639696822E-3  -1.787196255553468E-3  
 2.026600000000000E10   -5.474910599949920E-3  -8.706250802878246E-4  
 2.026800000000000E10   -5.611520507775340E-3   1.595681766766688E-4  
 2.027000000000000E10   -5.511445481974034E-3   1.229038380120916E-3  
 2.027200000000000E10   -5.125099775829802E-3   2.282765041461882E-3  
 2.027400000000000E10   -4.489216073933575E-3   3.136837533042755E-3  
 2.027600000000000E10   -3.767206603776158E-3   3.706424781638715E-3  
 2.027800000000000E10   -3.072448891162137E-3   4.120490861550710E-3  
 2.028000000000000E10   -2.398536534818971E-3   4.463802068781706E-3  
 2.028200000000000E10   -1.687411992109300E-3   4.730578931623404E-3  
 2.028400000000000E10   -9.798901155591013E-4   4.923363497917667E-3  
 2.028600000000000E10   -2.700248018142848E-4   5.106500309696537E-3  
 2.028800000000000E10    5.823205181873222E-4   5.171871951056852E-3  
 2.029000000000000E10    1.497820553651517E-3   5.037817184203937E-3  
 2.029200000000000E10    2.401594545427756E-3   4.734580669506098E-3  
 2.029400000000000E10    3.224951031123415E-3   4.226318336333391E-3  
 2.029600000000000E10    3.870202311786053E-3   3.550488133857280E-3  
 2.029800000000000E10    4.357056801471814E-3   2.826131837166570E-3  
 2.030000000000000E10    4.695663010172639E-3   2.056526583561927E-3  
 2.030200000000000E10    4.936687654045262E-3   1.308910517068005E-3  
 2.030400000000000E10    5.182481526086728E-3   5.854988733371562E-4  
 2.030600000000000E10    5.378809205635831E-3  -3.006414227894749E-4  
 2.030800000000000E10    5.345615834273674E-3  -1.369613480759946E-3  
 2.031000000000000E10    4.991613081253974E-3  -2.482838299194420E-3  
 2.031200000000000E10    4.328881263916876E-3  -3.465319954916652E-3  
 2.031400000000000E10    3.400200655982819E-3  -4.222961585324856E-3  
 2.031600000000000E10    2.340037148606814E-3  -4.552812965149865E-3  
 2.031800000000000E10    1.421911046943731E-3  -4.474145026854528E-3  
 2.032000000000000E10    8.475421453584676E-4  -4.333799975107850E-3  
 2.032200000000000E10    4.025285184688085E-4  -4.378689700208697E-3  
 2.032400000000000E10   -1.574038455326019E-4  -4.512440183280428E-3  
 2.032600000000000E10   -8.473487205826392E-4  -4.508607606920932E-3  
 2.032800000000000E10   -1.543109805357677E-3  -4.370137175292145E-3  
 2.033000000000000E10   -2.266431164088441E-3  -4.173776629254406E-3  
 2.033200000000000E10   -3.077459952759523E-3  -3.866309892202234E-3  
 2.033400000000000E10   -3.834550927197676E-3  -3.250519865778862E-3  
 2.033600000000000E10   -4.104099644600978E-3  -2.846541394836005E-3  
 2.033800000000000E10   -4.692243164934127E-3  -1.603517431282887E-3  
 2.034000000000000E10   -4.893426415452987E-3  -7.131920062453936E-4  
 2.034200000000000E10   -4.933135474767583E-3   1.599173463793345E-4  
 2.034400000000000E10   -4.837453629775549E-3   9.733705873382682E-4  
 2.034600000000000E10   -4.632531055881654E-3   1.820002934021622E-3  
 2.034800000000000E10   -4.242004079307304E-3   2.730866951614987E-3  
 2.035000000000000E10   -3.556627446762574E-3   3.548160264337505E-3  
 2.035200000000000E10   -2.655658296044962E-3   4.098330204731521E-3  
 2.035400000000000E10   -1.697044808095620E-3   4.260310127089421E-3  
 2.035600000000000E10   -9.563807929854520E-4   4.127139541791914E-3  
 2.035800000000000E10   -4.871257337925519E-4   3.981569678419167E-3  
 2.036000000000000E10   -9.748715735811319E-5   4.040537580249855E-3  
 2.036200000000000E10    3.958137498961555E-4   4.188808693010131E-3  
 2.036400000000000E10    9.981495540957025E-4   4.275731098504714E-3  
 2.036600000000000E10    1.763236546532516E-3   4.284339117599123E-3  
 2.036800000000000E10    2.688882015875461E-3   4.070428694471901E-3  
 2.037000000000000E10    3.617500394789710E-3   3.508388705804577E-3  
 2.037200000000000E10    4.300893778786247E-3   2.700938676472432E-3  
 2.037400000000000E10    4.711866752462992E-3   1.756819534218974E-3  
 2.037600000000000E10    4.842729204230839E-3   7.884148544240974E-4  
 2.037800000000000E10    4.783491920219896E-3  -9.175605656410982E-5  
 2.038000000000000E10    4.632171956293378E-3  -8.593805186036562E-4  
 2.038200000000000E10    4.438930076121549E-3  -1.535025660960395E-3  
 2.038400000000000E10    4.191164335488906E-3  -2.231563079274363E-3  
 2.038600000000000E10    3.785180629311521E-3  -2.989338633293907E-3  
 2.038800000000000E10    3.169949298701537E-3  -3.676423992685698E-3  
 2.039000000000000E10    2.469816288255431E-3  -4.201030508143668E-3  
 2.039200000000000E10    1.657167422286247E-3  -4.552536782015254E-3  
 2.039400000000000E10    8.398905607733739E-4  -4.677593995483570E-3  
 2.039600000000000E10    8.280922028697443E-5  -4.712734555388675E-3  
 2.039800000000000E10   -7.099600711457984E-4  -4.654711687270507E-3  
 2.040000000000000E10   -1.426614816645505E-3  -4.486776629669799E-3  
 2.040200000000000E10   -2.029003569695317E-3  -4.293147669990122E-3  
 2.040400000000000E10   -2.748019266068752E-3  -4.087689551122395E-3  
 2.040600000000000E10   -3.574274900012915E-3  -3.690162541367758E-3  
 2.040800000000000E10   -4.405520534441796E-3  -3.078189048985089E-3  
 2.041000000000000E10   -5.110448048116617E-3  -2.171812512923354E-3  
 2.041200000000000E10   -5.504513032918360E-3  -1.045835407071368E-3  
 2.041400000000000E10   -5.577537593328292E-3   9.566419118336964E-5  
 2.041600000000000E10   -5.356717343085711E-3   1.237616995004592E-3  
 2.041800000000000E10   -4.884968115085805E-3   2.232207738460950E-3  
 2.042000000000000E10   -4.322112118250426E-3   2.958110640009429E-3  
 2.042200000000000E10   -3.679889820539106E-3   3.550672058567957E-3  
 2.042400000000000E10   -2.994435117867443E-3   4.020349174324010E-3  
 2.042600000000000E10   -2.287540944109177E-3   4.438350017377992E-3  
 2.042800000000000E10   -1.512756854307229E-3   4.755047172951846E-3  
 2.043000000000000E10   -7.143938234133395E-4   4.909442708954032E-3  
 2.043200000000000E10    6.532296951555495E-5   4.943025758328998E-3  
 2.043400000000000E10    8.520289125886781E-4   4.846804142918116E-3  
 2.043600000000000E10    1.590281900271406E-3   4.645148798087497E-3  
 2.043800000000000E10    2.299606696599060E-3   4.432963707518799E-3  
 2.044000000000000E10    3.022430415759668E-3   4.121337229684916E-3  
 2.044200000000000E10    3.737012240575788E-3   3.667199403553466E-3  
 2.044400000000000E10    4.433299650518616E-3   3.066965942213566E-3  
 2.044600000000000E10    5.118423561209147E-3   2.260539074209921E-3  
 2.044800000000000E10    5.630167517351148E-3   1.229009049208720E-3  
 2.045000000000000E10    5.857523720435523E-3   3.068866355511376E-5  
 2.045200000000000E10    5.695323954209870E-3  -1.252520141007816E-3  
 2.045400000000000E10    5.057695551694912E-3  -2.395811953501385E-3  
 2.045600000000000E10    4.224129136145852E-3  -3.102432864568668E-3  
 2.045800000000000E10    3.534369052813193E-3  -3.458010047145281E-3  
 2.046000000000000E10    3.003681276890415E-3  -3.706396384923547E-3  
 2.046200000000000E10    2.565797938631825E-3  -4.004069925918256E-3  
 2.046400000000000E10    2.076727000387087E-3  -4.407011058733420E-3  
 2.046600000000000E10    1.452110175986165E-3  -4.864751119856482E-3  
 2.046800000000000E10    6.591122389776794E-4  -5.245522222263210E-3  
 2.047000000000000E10   -3.333833518820343E-4  -5.419791549628164E-3  
 2.047200000000000E10   -1.342579097211085E-3  -5.290006413871860E-3  
 2.047400000000000E10   -2.250409061319115E-3  -4.912316960133153E-3  
 2.047600000000000E10   -3.017059952756506E-3  -4.485564381114127E-3  
 2.047800000000000E10   -3.707660925517112E-3  -4.041441460427495E-3  
 2.048000000000000E10   -4.423059390880812E-3  -3.494135440430708E-3  
 2.048200000000000E10   -5.145998447443601E-3  -2.691507851130065E-3  
 2.048400000000000E10   -5.689388577952798E-3  -1.604896205488915E-3  
 2.048600000000000E10   -5.920598904291790E-3  -4.350972197659568E-4  
 2.048800000000000E10   -5.830949776012590E-3   7.534776684931584E-4  
 2.049000000000000E10   -5.442990386789597E-3   1.810883209224285E-3  
 2.049200000000000E10   -4.861744436906812E-3   2.668922183529279E-3  
 2.049400000000000E10   -4.171338156555539E-3   3.355010266036348E-3  
 2.049600000000000E10   -3.477453055826051E-3   3.825742239707415E-3  
 2.049800000000000E10   -2.878420908624928E-3   4.119674111773939E-3  
 2.050000000000000E10   -2.352186027385387E-3   4.375483610747774E-3  
 2.050200000000000E10   -1.881503402312965E-3   4.737663962360886E-3  
 2.050400000000000E10   -1.220234188274193E-3   5.297374744888074E-3  
 2.050600000000000E10   -2.118753002350001E-4   5.747182547678183E-3  
 2.050800000000000E10    9.998927384407986E-4   5.800219948323054E-3  
 2.051000000000000E10    2.129066301463747E-3   5.498693502841541E-3  
 2.051200000000000E10    3.143764756343983E-3   4.981266616349235E-3  
 2.051400000000000E10    4.070591733411507E-3   4.232233200498202E-3  
 2.051600000000000E10    4.741287537287048E-3   3.292356856328286E-3  
 2.051800000000000E10    5.073298734647257E-3   2.333347964456972E-3  
 2.052000000000000E10    5.265870200539077E-3   1.456754060784056E-3  
 2.052200000000000E10    5.445707468660894E-3   5.514445620514223E-4  
 2.052400000000000E10    5.490614153030846E-3  -4.662813232165337E-4  
 2.052600000000000E10    5.220942308459386E-3  -1.535196269770372E-3  
 2.052800000000000E10    4.634729557797129E-3  -2.386277256947425E-3  
 2.053000000000000E10    3.984627943416990E-3  -2.932341128334771E-3  
 2.053200000000000E10    3.373389402519407E-3  -3.372656158459040E-3  
 2.053400000000000E10    2.779931120321523E-3  -3.709243676613695E-3  
 2.053600000000000E10    2.246234906595891E-3  -3.947965527689200E-3  
 2.053800000000000E10    1.751149028689130E-3  -4.148795896060306E-3  
 2.054000000000000E10    1.296443406228022E-3  -4.374760295045965E-3  
 2.054200000000000E10    7.959694542669129E-4  -4.750943771436995E-3  
 2.054400000000000E10    2.270714959408515E-5  -5.212019295374185E-3  
 2.054600000000000E10   -1.089661203922681E-3  -5.494496164222559E-3  
 2.054800000000000E10   -2.451816496128838E-3  -5.343554006820477E-3  
 2.055000000000000E10   -3.703275091808152E-3  -4.563456751912097E-3  
 2.055200000000000E10   -4.506706927017666E-3  -3.458570447508936E-3  
 2.055400000000000E10   -4.901752324291954E-3  -2.370945804602938E-3  
 2.055600000000000E10   -5.039686273875429E-3  -1.357791255469676E-3  
