#  HZ   S   RI   R     50.00 
! Rohde & Schwarz ZVA40 4Ports - Version 3.90 - 1145.1110k42 SN: 100403
! Date: 2023-10-03 12:47:10
! Measurement: S12 
! 
 2.000000000000000E10    4.263065893340995E-3   3.280840589906331E-3  
 2.000200000000000E10    4.685911211978507E-3   2.486422502746185E-3  
 2.000400000000000E10    4.955157154688130E-3   1.646957002338712E-3  
 2.000600000000000E10    5.087890472539046E-3   8.197403685362252E-4  
 2.000800000000000E10    5.146626331326035E-3  -2.494429106634385E-5  
 2.001000000000000E10    5.073212345855104E-3  -9.305388407988682E-4  
 2.001200000000000E10    4.849255688626458E-3  -1.801680333705412E-3  
 2.001400000000000E10    4.424419133337560E-3  -2.677370975207952E-3  
 2.001600000000000E10    3.679838859372669E-3  -3.391253477376369E-3  
 2.001800000000000E10    2.866340766626376E-3  -3.728777006337489E-3  
 2.002000000000000E10    2.253573594821824E-3  -3.889157885202656E-3  
 2.002200000000000E10    1.731675687349505E-3  -4.079577961453686E-3  
 2.002400000000000E10    1.248046932569533E-3  -4.297295654261554E-3  
 2.002600000000000E10    7.024784658656077E-4  -4.555962117457832E-3  
 2.002800000000000E10   -3.069697467489514E-5  -4.802155222191856E-3  
 2.003000000000000E10   -9.079875868607177E-4  -4.862969741225243E-3  
 2.003200000000000E10   -1.762855685902415E-3  -4.742293135711441E-3  
 2.003400000000000E10   -2.638755305842669E-3  -4.479997273948458E-3  
 2.003600000000000E10   -3.556844769735580E-3  -3.940556862357039E-3  
 2.003800000000000E10   -4.298185481241456E-3  -3.052281483111007E-3  
 2.004000000000000E10   -4.662237716493784E-3  -2.060725560618772E-3  
 2.004200000000000E10   -4.746282766400664E-3  -1.171473098953289E-3  
 2.004400000000000E10   -4.659322021460093E-3  -4.365045935156997E-4  
 2.004600000000000E10   -4.569372420923578E-3   1.405938894970826E-4  
 2.004800000000000E10   -4.584453327374326E-3   7.281501247133647E-4  
 2.005000000000000E10   -4.583115792936750E-3   1.503775370548721E-3  
 2.005200000000000E10   -4.349739428747584E-3   2.369794166750378E-3  
 2.005400000000000E10   -3.859680982444574E-3   3.150794430877324E-3  
 2.005600000000000E10   -3.169314340791769E-3   3.776365080503402E-3  
 2.005800000000000E10   -2.428641189234677E-3   4.215824917924625E-3  
 2.006000000000000E10   -1.666250173002482E-3   4.560794733050797E-3  
 2.006200000000000E10   -8.399064428414461E-4   4.746382866330721E-3  
 2.006400000000000E10    2.403090076296855E-6   4.716450710677439E-3  
 2.006600000000000E10    7.203192993377646E-4   4.538341166658535E-3  
 2.006800000000000E10    1.330468782085788E-3   4.360530370225510E-3  
 2.007000000000000E10    2.007062581402284E-3   4.261884890082810E-3  
 2.007200000000000E10    2.863239246868978E-3   3.971884130603738E-3  
 2.007400000000000E10    3.631780320709504E-3   3.286983671218709E-3  
 2.007600000000000E10    4.088358574167447E-3   2.446356091510367E-3  
 2.007800000000000E10    4.334682633203489E-3   1.622265946395972E-3  
 2.008000000000000E10    4.403436142537329E-3   8.787873321799217E-4  
 2.008200000000000E10    4.363716441999984E-3   2.002307562549874E-4  
 2.008400000000000E10    4.251884727704305E-3  -3.914018398737191E-4  
 2.008600000000000E10    4.180538778503736E-3  -9.510451798430749E-4  
 2.008800000000000E10    4.078301601111889E-3  -1.584176435480239E-3  
 2.009000000000000E10    3.895966491351525E-3  -2.221134603368464E-3  
 2.009200000000000E10    3.636562136105366E-3  -2.887818272467013E-3  
 2.009400000000000E10    3.153421010615097E-3  -3.627262897444545E-3  
 2.009600000000000E10    2.427868614042247E-3  -4.253425842358007E-3  
 2.009800000000000E10    1.567598691003190E-3  -4.676682322665498E-3  
 2.010000000000000E10    6.519946295561063E-4  -4.844590176448779E-3  
 2.010200000000000E10   -1.683499072829296E-4  -4.833057108852599E-3  
 2.010400000000000E10   -9.968332747963293E-4  -4.759902462225270E-3  
 2.010600000000000E10   -1.896153355051798E-3  -4.557696860973483E-3  
 2.010800000000000E10   -2.805897819430188E-3  -4.136379859927628E-3  
 2.011000000000000E10   -3.525762741143506E-3  -3.464921075781739E-3  
 2.011200000000000E10   -4.000808991905716E-3  -2.686194954784932E-3  
 2.011400000000000E10   -4.319767312457165E-3  -1.867725518187163E-3  
 2.011600000000000E10   -4.499226360133401E-3  -1.059382675319082E-3  
 2.011800000000000E10   -4.530501879613709E-3  -2.471962189129381E-4  
 2.012000000000000E10   -4.352346666295220E-3   4.832801199949313E-4  
 2.012200000000000E10   -4.109173012828387E-3   1.066513851078020E-3  
 2.012400000000000E10   -3.870582363257806E-3   1.593037853362384E-3  
 2.012600000000000E10   -3.620439967899411E-3   2.132995045502429E-3  
 2.012800000000000E10   -3.367096073580562E-3   2.689014042348222E-3  
 2.013000000000000E10   -3.009060596081394E-3   3.241156141653105E-3  
 2.013200000000000E10   -2.482044510543346E-3   3.779643715393764E-3  
 2.013400000000000E10   -1.795550303844114E-3   4.234861892958483E-3  
 2.013600000000000E10   -1.026006398239622E-3   4.554844047460292E-3  
 2.013800000000000E10   -2.247653559337508E-4   4.679879570310868E-3  
 2.014000000000000E10    5.374986385167750E-4   4.662921807418267E-3  
 2.014200000000000E10    1.269408510308023E-3   4.631434067117948E-3  
 2.014400000000000E10    2.127320859236298E-3   4.484526985497387E-3  
 2.014600000000000E10    3.068308846128208E-3   4.119667017625438E-3  
 2.014800000000000E10    3.916013554704410E-3   3.501049139433438E-3  
 2.015000000000000E10    4.544320723248853E-3   2.678196584046991E-3  
 2.015200000000000E10    4.984219386069863E-3   1.703999169101870E-3  
 2.015400000000000E10    5.177778709265921E-3   6.408774104245283E-4  
 2.015600000000000E10    5.048901808482630E-3  -3.784183537828978E-4  
 2.015800000000000E10    4.699612984916678E-3  -1.208661275018973E-3  
 2.016000000000000E10    4.268885797096624E-3  -1.810973035861497E-3  
 2.016200000000000E10    3.936783876270056E-3  -2.240995522933426E-3  
 2.016400000000000E10    3.740583511966247E-3  -2.720661280262802E-3  
 2.016600000000000E10    3.529509391497683E-3  -3.457650249065073E-3  
 2.016800000000000E10    3.022029124959200E-3  -4.286729903132828E-3  
 2.017000000000000E10    2.163530862027849E-3  -4.951645378713255E-3  
 2.017200000000000E10    1.085446214010180E-3  -5.348783038142655E-3  
 2.017400000000000E10    1.463758935979396E-5  -5.455014157902312E-3  
 2.017600000000000E10   -1.015922477192901E-3  -5.320058083506647E-3  
 2.017800000000000E10   -1.950289165877082E-3  -4.952594913818218E-3  
 2.018000000000000E10   -2.733172564249900E-3  -4.461240351062131E-3  
 2.018200000000000E10   -3.337429957119404E-3  -3.866728067536045E-3  
 2.018400000000000E10   -3.856953061013311E-3  -3.303036093711854E-3  
 2.018600000000000E10   -4.390148445963860E-3  -2.749884932267446E-3  
 2.018800000000000E10   -4.895836132130137E-3  -2.043535070562805E-3  
 2.019000000000000E10   -5.272860052408996E-3  -1.159007643797884E-3  
 2.019200000000000E10   -5.480593173868127E-3  -1.521595776365656E-4  
 2.019400000000000E10   -5.433621178208678E-3   8.850407752173919E-4  
 2.019600000000000E10   -5.135758176307988E-3   1.852525074759292E-3  
 2.019800000000000E10   -4.662322397861216E-3   2.719174285798713E-3  
 2.020000000000000E10   -4.054697678872833E-3   3.377431106788141E-3  
 2.020200000000000E10   -3.465280117880967E-3   3.898578144058034E-3  
 2.020400000000000E10   -2.865643637185848E-3   4.464340309991882E-3  
 2.020600000000000E10   -2.109652040181337E-3   4.984899148069047E-3  
 2.020800000000000E10   -1.235914278637480E-3   5.308450630831498E-3  
 2.021000000000000E10   -2.740408144072044E-4   5.513453459436143E-3  
 2.021200000000000E10    7.943438594574455E-4   5.560547441106152E-3  
 2.021400000000000E10    1.874087188668825E-3   5.272308036822965E-3  
 2.021600000000000E10    2.779009251820821E-3   4.654107925792536E-3  
 2.021800000000000E10    3.404714658649432E-3   3.932351091255745E-3  
 2.022000000000000E10    3.817377008359742E-3   3.248258028179408E-3  
 2.022200000000000E10    4.161950114562557E-3   2.594714967051038E-3  
 2.022400000000000E10    4.412682088850825E-3   1.950819105668753E-3  
 2.022600000000000E10    4.566679829386650E-3   1.377126417571196E-3  
 2.022800000000000E10    4.814760035110845E-3   8.611059639844355E-4  
 2.023000000000000E10    5.192875965601869E-3   8.670757247104864E-5  
 2.023200000000000E10    5.283855212231478E-3  -1.007035590225348E-3  
 2.023400000000000E10    4.909997616239168E-3  -2.000630031236344E-3  
 2.023600000000000E10    4.400815556032791E-3  -2.748444581542302E-3  
 2.023800000000000E10    3.850704541912786E-3  -3.353754791465623E-3  
 2.024000000000000E10    3.275078316046684E-3  -3.886137606093178E-3  
 2.024200000000000E10    2.621419805412491E-3  -4.393999326836181E-3  
 2.024400000000000E10    1.889025413051800E-3  -4.797274160578296E-3  
 2.024600000000000E10    1.087065320461988E-3  -5.059531820869006E-3  
 2.024800000000000E10    1.925169282778236E-4  -5.198579350555385E-3  
 2.025000000000000E10   -7.579508862734117E-4  -5.162304336274112E-3  
 2.025200000000000E10   -1.646925298566068E-3  -4.878896736988316E-3  
 2.025400000000000E10   -2.382606371409364E-3  -4.381606372556201E-3  
 2.025600000000000E10   -2.940435971443852E-3  -3.807067672756535E-3  
 2.025800000000000E10   -3.292772582628661E-3  -3.273353782585926E-3  
 2.026000000000000E10   -3.639382879353233E-3  -2.842190485723593E-3  
 2.026200000000000E10   -4.065488189182900E-3  -2.429609385284561E-3  
 2.026400000000000E10   -4.559820811091750E-3  -1.912247113607548E-3  
 2.026600000000000E10   -4.998734686523676E-3  -1.120349168087597E-3  
 2.026800000000000E10   -5.232165722797315E-3  -1.672511554918149E-4  
 2.027000000000000E10   -5.263060400331462E-3   8.456263932640907E-4  
 2.027200000000000E10   -4.968818173640305E-3   1.837906436304804E-3  
 2.027400000000000E10   -4.402772006061343E-3   2.670076813686777E-3  
 2.027600000000000E10   -3.737309128390971E-3   3.248820426287475E-3  
 2.027800000000000E10   -3.131171619450605E-3   3.647580872186356E-3  
 2.028000000000000E10   -2.575414893389852E-3   4.012707741586147E-3  
 2.028200000000000E10   -1.984073646815011E-3   4.367913360948917E-3  
 2.028400000000000E10   -1.321337983460614E-3   4.665444915493330E-3  
 2.028600000000000E10   -5.609379397894912E-4   4.905819461715442E-3  
 2.028800000000000E10    3.134639323602810E-4   4.982190793035208E-3  
 2.029000000000000E10    1.137516413884307E-3   4.893740104442395E-3  
 2.029200000000000E10    1.937050117973101E-3   4.662418341333116E-3  
 2.029400000000000E10    2.717840330054363E-3   4.252821896915083E-3  
 2.029600000000000E10    3.362823096621368E-3   3.686818078643195E-3  
 2.029800000000000E10    3.889130040382346E-3   3.055844223126770E-3  
 2.030000000000000E10    4.308779913656138E-3   2.391942595649097E-3  
 2.030200000000000E10    4.642027913144341E-3   1.768386094934411E-3  
 2.030400000000000E10    5.001183633727056E-3   1.071713946725208E-3  
 2.030600000000000E10    5.310325176213627E-3   1.295429496908414E-4  
 2.030800000000000E10    5.375604714370437E-3  -9.606117555112752E-4  
 2.031000000000000E10    5.113017866043030E-3  -2.064410898903454E-3  
 2.031200000000000E10    4.522106420524695E-3  -3.069194689117097E-3  
 2.031400000000000E10    3.629039800553411E-3  -3.858852338183810E-3  
 2.031600000000000E10    2.600612860448935E-3  -4.227573431476400E-3  
 2.031800000000000E10    1.746251562575775E-3  -4.186101844189345E-3  
 2.032000000000000E10    1.262129685427580E-3  -4.123102166448479E-3  
 2.032200000000000E10    8.500440960267077E-4  -4.240518349602268E-3  
 2.032400000000000E10    2.674501420524731E-4  -4.439778039576832E-3  
 2.032600000000000E10   -4.514616038822742E-4  -4.547063985632526E-3  
 2.032800000000000E10   -1.164539035892597E-3  -4.522347236397091E-3  
 2.033000000000000E10   -1.898963362219985E-3  -4.399378042392157E-3  
 2.033200000000000E10   -2.733427625908344E-3  -4.138184400896232E-3  
 2.033400000000000E10   -3.519826741130264E-3  -3.582013839924778E-3  
 2.033600000000000E10   -3.817991388064844E-3  -3.240689238602365E-3  
 2.033800000000000E10   -4.568674532627619E-3  -2.084506468640434E-3  
 2.034000000000000E10   -4.887756839808491E-3  -1.240855565777532E-3  
 2.034200000000000E10   -5.047270027851618E-3  -3.518741028124674E-4  
 2.034400000000000E10   -5.086591881182459E-3   5.714272480906436E-4  
 2.034600000000000E10   -4.993711253283201E-3   1.563024017269965E-3  
 2.034800000000000E10   -4.600587438929965E-3   2.574894353057499E-3  
 2.035000000000000E10   -3.875932406151185E-3   3.437637584283949E-3  
 2.035200000000000E10   -2.966638042212085E-3   3.984464703265717E-3  
 2.035400000000000E10   -2.037586256240805E-3   4.168415925017110E-3  
 2.035600000000000E10   -1.332807634888148E-3   4.106921730218111E-3  
 2.035800000000000E10   -9.114516217744461E-4   4.060568356955494E-3  
 2.036000000000000E10   -5.202821016104685E-4   4.230883610607298E-3  
 2.036200000000000E10    9.537011566054492E-5   4.445893689990044E-3  
 2.036400000000000E10    8.369270492241615E-4   4.556451234276649E-3  
 2.036600000000000E10    1.641182086637451E-3   4.607666594286760E-3  
 2.036800000000000E10    2.602721392004579E-3   4.431728032176142E-3  
 2.037000000000000E10    3.592024350331890E-3   3.907278180122376E-3  
 2.037200000000000E10    4.365836753061524E-3   3.088067492677107E-3  
 2.037400000000000E10    4.882911168452767E-3   2.093801835413885E-3  
 2.037600000000000E10    5.088306825470042E-3   1.065189238741166E-3  
 2.037800000000000E10    5.066035056693687E-3   1.531557478571173E-4  
 2.038000000000000E10    4.925033336298334E-3  -6.854857352596743E-4  
 2.038200000000000E10    4.709375780765658E-3  -1.482620662837117E-3  
 2.038400000000000E10    4.474757446183099E-3  -2.252323621952976E-3  
 2.038600000000000E10    4.101543997724852E-3  -3.029254032298923E-3  
 2.038800000000000E10    3.491493976778455E-3  -3.780829789185966E-3  
 2.039000000000000E10    2.748130993158729E-3  -4.349835372219483E-3  
 2.039200000000000E10    1.868442921140404E-3  -4.753219584623973E-3  
 2.039400000000000E10    9.784020496428842E-4  -4.935442607987811E-3  
 2.039600000000000E10    1.760640594444273E-4  -4.978749176694288E-3  
 2.039800000000000E10   -6.203707027318026E-4  -4.883133495847384E-3  
 2.040000000000000E10   -1.347361671462379E-3  -4.693878711097771E-3  
 2.040200000000000E10   -2.020199748652953E-3  -4.540819691977015E-3  
 2.040400000000000E10   -2.820171113988316E-3  -4.409228555030294E-3  
 2.040600000000000E10   -3.711517908851858E-3  -4.019367336123078E-3  
 2.040800000000000E10   -4.598545169250833E-3  -3.385273894915978E-3  
 2.041000000000000E10   -5.368028181018654E-3  -2.422374017812588E-3  
 2.041200000000000E10   -5.827370634371484E-3  -1.222361150818567E-3  
 2.041400000000000E10   -5.958584499441916E-3   2.309166039695912E-5  
 2.041600000000000E10   -5.730768682918063E-3   1.234326434011261E-3  
 2.041800000000000E10   -5.205894268497274E-3   2.253898005518649E-3  
 2.042000000000000E10   -4.613234592532671E-3   3.049822205125734E-3  
 2.042200000000000E10   -3.986519088761674E-3   3.758362339188656E-3  
 2.042400000000000E10   -3.304649980876733E-3   4.327762026891665E-3  
 2.042600000000000E10   -2.535292611422915E-3   4.816165349135797E-3  
 2.042800000000000E10   -1.653000889173537E-3   5.162547032038371E-3  
 2.043000000000000E10   -7.185799531052234E-4   5.310527773367034E-3  
 2.043200000000000E10    1.647069223475194E-4   5.300835326865868E-3  
 2.043400000000000E10    1.005946145461941E-3   5.151670805558012E-3  
 2.043600000000000E10    1.739572716393957E-3   4.905786692958188E-3  
 2.043800000000000E10    2.472384927656364E-3   4.613295111253307E-3  
 2.044000000000000E10    3.243556720446105E-3   4.238227658249714E-3  
 2.044200000000000E10    3.996169539513412E-3   3.772841378425559E-3  
 2.044400000000000E10    4.696551244705916E-3   3.117833346887320E-3  
 2.044600000000000E10    5.331824861328912E-3   2.269255868331702E-3  
 2.044800000000000E10    5.785611699576732E-3   1.223014085553587E-3  
 2.045000000000000E10    5.999230762460719E-3   1.018908767070602E-5  
 2.045200000000000E10    5.840015356187468E-3  -1.264161848532105E-3  
 2.045400000000000E10    5.233366611517139E-3  -2.353927965655371E-3  
 2.045600000000000E10    4.432323526729037E-3  -3.032324154412857E-3  
 2.045800000000000E10    3.760181160436736E-3  -3.427162602612819E-3  
 2.046000000000000E10    3.278764430433512E-3  -3.778986236149515E-3  
 2.046200000000000E10    2.866204146778694E-3  -4.203814306054955E-3  
 2.046400000000000E10    2.320934233635112E-3  -4.705597232613299E-3  
 2.046600000000000E10    1.619061726766328E-3  -5.210686509531957E-3  
 2.046800000000000E10    6.999490929215596E-4  -5.608894655274021E-3  
 2.047000000000000E10   -4.092387852897109E-4  -5.778236521614923E-3  
 2.047200000000000E10   -1.481647818797717E-3  -5.627014846713455E-3  
 2.047400000000000E10   -2.424965060695454E-3  -5.220358691143769E-3  
 2.047600000000000E10   -3.210318774950725E-3  -4.718449432402849E-3  
 2.047800000000000E10   -3.958856842170159E-3  -4.216791423796504E-3  
 2.048000000000000E10   -4.759638311548366E-3  -3.631498526643824E-3  
 2.048200000000000E10   -5.542211338049836E-3  -2.754167032738527E-3  
 2.048400000000000E10   -6.092652730229829E-3  -1.585266815877899E-3  
 2.048600000000000E10   -6.283103488385678E-3  -3.145037798849107E-4  
 2.048800000000000E10   -6.128307828610695E-3   9.808961444327403E-4  
 2.049000000000000E10   -5.684038934608301E-3   2.106481067905272E-3  
 2.049200000000000E10   -5.042267566615785E-3   3.019510552770010E-3  
 2.049400000000000E10   -4.244098353579090E-3   3.717562468308542E-3  
 2.049600000000000E10   -3.413011466532394E-3   4.163436384664642E-3  
 2.049800000000000E10   -2.711936452046589E-3   4.425433792035889E-3  
 2.050000000000000E10   -2.156234294590023E-3   4.631287487292732E-3  
 2.050200000000000E10   -1.690366171748826E-3   4.924285932685491E-3  
 2.050400000000000E10   -1.055271955448444E-3   5.445058750747531E-3  
 2.050600000000000E10   -2.577484014586339E-5   5.863234969890781E-3  
 2.050800000000000E10    1.212587877590623E-3   5.905442922893498E-3  
 2.051000000000000E10    2.363085953725709E-3   5.614213369510793E-3  
 2.051200000000000E10    3.427933668717742E-3   5.078963452467213E-3  
 2.051400000000000E10    4.381232653503066E-3   4.251206638636413E-3  
 2.051600000000000E10    5.048055753663735E-3   3.208276315557737E-3  
 2.051800000000000E10    5.402225035208244E-3   2.181420982297924E-3  
 2.052000000000000E10    5.602915719565419E-3   1.234664663637954E-3  
 2.052200000000000E10    5.721645998871990E-3   2.472566945167879E-4  
 2.052400000000000E10    5.649902081737916E-3  -8.250210731704204E-4  
 2.052600000000000E10    5.257833524848577E-3  -1.918404854627119E-3  
 2.052800000000000E10    4.600976697272725E-3  -2.772365093093228E-3  
 2.053000000000000E10    3.883048995501466E-3  -3.312103355441381E-3  
 2.053200000000000E10    3.206599193314712E-3  -3.677712589571322E-3  
 2.053400000000000E10    2.564252931969586E-3  -3.942326383872165E-3  
 2.053600000000000E10    1.988707196519331E-3  -4.158683017724091E-3  
 2.053800000000000E10    1.473014286063888E-3  -4.337699773410956E-3  
 2.054000000000000E10    1.000044559111336E-3  -4.534638555789436E-3  
 2.054200000000000E10    4.878302279394120E-4  -4.880509735947407E-3  
 2.054400000000000E10   -3.371635037991736E-4  -5.266406331901198E-3  
 2.054600000000000E10   -1.511277096277034E-3  -5.456948480396360E-3  
 2.054800000000000E10   -2.882732449237395E-3  -5.195097739083900E-3  
 2.055000000000000E10   -4.071382615991213E-3  -4.312952549231273E-3  
 2.055200000000000E10   -4.755525263371292E-3  -3.138993970221944E-3  
 2.055400000000000E10   -5.056541758003059E-3  -1.993393762623547E-3  
 2.055600000000000E10   -5.123452921570452E-3  -9.305101530453950E-4  
