#  HZ   S   RI   R     50.00 
! Rohde & Schwarz ZVA40 4Ports - Version 3.90 - 1145.1110k42 SN: 100403
! Date: 2023-10-03 12:47:54
! Measurement: S12 
! 
 2.000000000000000E10    4.950809873134635E-3   3.661311263172532E-3  
 2.000200000000000E10    5.473366679830684E-3   2.712102520659014E-3  
 2.000400000000000E10    5.793316278284715E-3   1.654993167813914E-3  
 2.000600000000000E10    5.901233482829952E-3   6.353218125662319E-4  
 2.000800000000000E10    5.863687420194901E-3  -3.433661362196515E-4  
 2.001000000000000E10    5.698444908139883E-3  -1.311607331175495E-3  
 2.001200000000000E10    5.391930459918064E-3  -2.259222480158011E-3  
 2.001400000000000E10    4.886371026068559E-3  -3.194541885965953E-3  
 2.001600000000000E10    4.082504297710128E-3  -3.972034200014156E-3  
 2.001800000000000E10    3.220886276620958E-3  -4.366791122995410E-3  
 2.002000000000000E10    2.525105991941176E-3  -4.584431481536156E-3  
 2.002200000000000E10    1.840061841555584E-3  -4.827735853599914E-3  
 2.002400000000000E10    1.199003609391734E-3  -5.061331262559067E-3  
 2.002600000000000E10    5.267854157639784E-4  -5.310871684348878E-3  
 2.002800000000000E10   -3.176918115867820E-4  -5.510210875927667E-3  
 2.003000000000000E10   -1.289278346424302E-3  -5.489012410427318E-3  
 2.003200000000000E10   -2.241598861866896E-3  -5.281821537164995E-3  
 2.003400000000000E10   -3.207517943034570E-3  -4.944845671868987E-3  
 2.003600000000000E10   -4.203959862575119E-3  -4.330031056371001E-3  
 2.003800000000000E10   -5.006438701838992E-3  -3.370884369000977E-3  
 2.004000000000000E10   -5.433756605158618E-3  -2.275184489625656E-3  
 2.004200000000000E10   -5.564257996961659E-3  -1.202620521337254E-3  
 2.004400000000000E10   -5.470597846318543E-3  -2.647667345705868E-4  
 2.004600000000000E10   -5.325831495869307E-3   4.587170565903279E-4  
 2.004800000000000E10   -5.274022308488688E-3   1.147283715437408E-3  
 2.005000000000000E10   -5.195409140009204E-3   2.018839176916690E-3  
 2.005200000000000E10   -4.866765064681754E-3   3.008316771161778E-3  
 2.005400000000000E10   -4.246641611565411E-3   3.912681466497390E-3  
 2.005600000000000E10   -3.406381406993778E-3   4.615983897015269E-3  
 2.005800000000000E10   -2.503435144683829E-3   5.076065808994536E-3  
 2.006000000000000E10   -1.549309033348605E-3   5.385415226129103E-3  
 2.006200000000000E10   -5.655366859835700E-4   5.472451948595268E-3  
 2.006400000000000E10    3.634756441762741E-4   5.347361960620792E-3  
 2.006600000000000E10    1.130267047110577E-3   5.111089942080004E-3  
 2.006800000000000E10    1.792524814789678E-3   4.881352019484765E-3  
 2.007000000000000E10    2.536494563690123E-3   4.708826231459777E-3  
 2.007200000000000E10    3.484298581441428E-3   4.330192468370553E-3  
 2.007400000000000E10    4.332073946931849E-3   3.555950323510686E-3  
 2.007600000000000E10    4.842002835860591E-3   2.608560686816037E-3  
 2.007800000000000E10    5.098300733040145E-3   1.641252918893265E-3  
 2.008000000000000E10    5.158166056153952E-3   7.346047794181901E-4  
 2.008200000000000E10    5.073521269002447E-3  -9.778526898262949E-5  
 2.008400000000000E10    4.868520481258999E-3  -8.189219630748770E-4  
 2.008600000000000E10    4.666012292152938E-3  -1.441313975697591E-3  
 2.008800000000000E10    4.465282607225725E-3  -2.073938509932271E-3  
 2.009000000000000E10    4.198517081224257E-3  -2.741961464009904E-3  
 2.009200000000000E10    3.877584195845290E-3  -3.468870791825064E-3  
 2.009400000000000E10    3.341240696264087E-3  -4.270185785437072E-3  
 2.009600000000000E10    2.530489318118788E-3  -4.943876050090717E-3  
 2.009800000000000E10    1.539146169778650E-3  -5.380987942816667E-3  
 2.010000000000000E10    4.744801137101964E-4  -5.555120877415679E-3  
 2.010200000000000E10   -4.857299108500881E-4  -5.516592660389934E-3  
 2.010400000000000E10   -1.422004347356658E-3  -5.377024210943485E-3  
 2.010600000000000E10   -2.390196161735574E-3  -5.066299529309259E-3  
 2.010800000000000E10   -3.329880961021524E-3  -4.547229013693186E-3  
 2.011000000000000E10   -4.123845344616308E-3  -3.778041340410710E-3  
 2.011200000000000E10   -4.685076764198366E-3  -2.887711667651196E-3  
 2.011400000000000E10   -5.036966564754645E-3  -1.947543733281854E-3  
 2.011600000000000E10   -5.176467320847291E-3  -1.025678213386808E-3  
 2.011800000000000E10   -5.160312484489915E-3  -1.233461227434699E-4  
 2.012000000000000E10   -4.985788187448994E-3   7.031950416951729E-4  
 2.012200000000000E10   -4.742460463334014E-3   1.404453656797148E-3  
 2.012400000000000E10   -4.467080571447258E-3   2.062519977766055E-3  
 2.012600000000000E10   -4.098878546767397E-3   2.716184317789696E-3  
 2.012800000000000E10   -3.653470541775963E-3   3.346596013777602E-3  
 2.013000000000000E10   -3.122393645484139E-3   3.930684920676329E-3  
 2.013200000000000E10   -2.477478089362935E-3   4.484620686896422E-3  
 2.013400000000000E10   -1.664180360320542E-3   4.909720352310458E-3  
 2.013600000000000E10   -7.585797410021411E-4   5.112868400267614E-3  
 2.013800000000000E10    1.059547250833144E-4   5.124888894504603E-3  
 2.014000000000000E10    8.904923991024220E-4   5.015027674811858E-3  
 2.014200000000000E10    1.611151101562068E-3   4.918638352350689E-3  
 2.014400000000000E10    2.432335791879414E-3   4.743206671174663E-3  
 2.014600000000000E10    3.327372161970463E-3   4.369234890435582E-3  
 2.014800000000000E10    4.184750334164243E-3   3.743839116744054E-3  
 2.015000000000000E10    4.892070346546394E-3   2.918935196911112E-3  
 2.015200000000000E10    5.416271173291737E-3   1.915068595589679E-3  
 2.015400000000000E10    5.650140339347684E-3   7.967640635741438E-4  
 2.015600000000000E10    5.543798167994361E-3  -2.968234488277777E-4  
 2.015800000000000E10    5.224721621216080E-3  -1.223625271742083E-3  
 2.016000000000000E10    4.813714407062458E-3  -1.905924693773282E-3  
 2.016200000000000E10    4.461176538219055E-3  -2.412954417206807E-3  
 2.016400000000000E10    4.236891986457287E-3  -2.937534226127614E-3  
 2.016600000000000E10    3.996702072061139E-3  -3.680954638431654E-3  
 2.016800000000000E10    3.482117648178966E-3  -4.560919346310843E-3  
 2.017000000000000E10    2.634925304992516E-3  -5.360690813603594E-3  
 2.017200000000000E10    1.530361308624255E-3  -5.888362696831241E-3  
 2.017400000000000E10    3.723551628444298E-4  -6.091811952905524E-3  
 2.017600000000000E10   -7.879813654451737E-4  -6.038347949032431E-3  
 2.017800000000000E10   -1.876648061299398E-3  -5.756967436568237E-3  
 2.018000000000000E10   -2.830528412704115E-3  -5.312691183967724E-3  
 2.018200000000000E10   -3.606559461511580E-3  -4.732963629066944E-3  
 2.018400000000000E10   -4.298565995500044E-3  -4.125011504202346E-3  
 2.018600000000000E10   -4.992730783321608E-3  -3.444306040757601E-3  
 2.018800000000000E10   -5.648774025892771E-3  -2.565351435569702E-3  
 2.019000000000000E10   -6.117676735430223E-3  -1.498345415004426E-3  
 2.019200000000000E10   -6.337946096872107E-3  -3.224763173802561E-4  
 2.019400000000000E10   -6.249204387221440E-3   8.894667262211443E-4  
 2.019600000000000E10   -5.890754430934236E-3   1.997969363367668E-3  
 2.019800000000000E10   -5.359577739404308E-3   2.962659762735353E-3  
 2.020000000000000E10   -4.730346934570943E-3   3.685595959218012E-3  
 2.020200000000000E10   -4.155035159424132E-3   4.266936372229715E-3  
 2.020400000000000E10   -3.541264683008195E-3   4.932250005457505E-3  
 2.020600000000000E10   -2.704466161329622E-3   5.591865048318366E-3  
 2.020800000000000E10   -1.720957779957925E-3   6.072465031419273E-3  
 2.021000000000000E10   -6.037870214326469E-4   6.401417840180206E-3  
 2.021200000000000E10    6.459594853682283E-4   6.473609240564669E-3  
 2.021400000000000E10    1.914034068676425E-3   6.163767010065510E-3  
 2.021600000000000E10    2.996473995692753E-3   5.541389997772597E-3  
 2.021800000000000E10    3.822853357565624E-3   4.781722223363174E-3  
 2.022000000000000E10    4.399543081950627E-3   4.004503729649717E-3  
 2.022200000000000E10    4.827893293106263E-3   3.201814440228506E-3  
 2.022400000000000E10    5.098619279854093E-3   2.416667999860681E-3  
 2.022600000000000E10    5.286702765496794E-3   1.733162033624579E-3  
 2.022800000000000E10    5.584369373312336E-3   1.114439199115207E-3  
 2.023000000000000E10    5.995203976599891E-3   2.867813774723744E-4  
 2.023200000000000E10    6.144002994039546E-3  -8.962119966860356E-4  
 2.023400000000000E10    5.834761552834585E-3  -2.093058527895698E-3  
 2.023600000000000E10    5.298491187945561E-3  -3.087353122271138E-3  
 2.023800000000000E10    4.652798710459913E-3  -3.902187562306171E-3  
 2.024000000000000E10    3.934628154829513E-3  -4.548871487287092E-3  
 2.024200000000000E10    3.125676957108541E-3  -5.094610947977614E-3  
 2.024400000000000E10    2.242122512356735E-3  -5.496687054588104E-3  
 2.024600000000000E10    1.333415391854942E-3  -5.764923288406414E-3  
 2.024800000000000E10    3.964011600517013E-4  -5.933127774178615E-3  
 2.025000000000000E10   -6.120493304973216E-4  -5.938662124084839E-3  
 2.025200000000000E10   -1.613633385227051E-3  -5.704893006218805E-3  
 2.025400000000000E10   -2.526226999629060E-3  -5.257622229602235E-3  
 2.025600000000000E10   -3.293127882190877E-3  -4.692715661669220E-3  
 2.025800000000000E10   -3.844301710710114E-3  -4.120799034465979E-3  
 2.026000000000000E10   -4.334143075494119E-3  -3.608916500974217E-3  
 2.026200000000000E10   -4.892219145448856E-3  -3.048259931627983E-3  
 2.026400000000000E10   -5.492847073639250E-3  -2.324412263538919E-3  
 2.026600000000000E10   -5.987282365238594E-3  -1.352260356343547E-3  
 2.026800000000000E10   -6.245328745816227E-3  -2.731169879552909E-4  
 2.027000000000000E10   -6.289048390577973E-3   8.773970925019205E-4  
 2.027200000000000E10   -6.004455125672215E-3   2.055356654131578E-3  
 2.027400000000000E10   -5.424317742847367E-3   3.110782752089479E-3  
 2.027600000000000E10   -4.716675372127398E-3   3.926713631867812E-3  
 2.027800000000000E10   -4.005053201345383E-3   4.542252503013538E-3  
 2.028000000000000E10   -3.265445074641411E-3   5.067928665444072E-3  
 2.028200000000000E10   -2.450499102979163E-3   5.513479214529565E-3  
 2.028400000000000E10   -1.580578170107379E-3   5.890529861466753E-3  
 2.028600000000000E10   -6.043121253174765E-4   6.220053869908976E-3  
 2.028800000000000E10    5.209176534539618E-4   6.340574547878387E-3  
 2.029000000000000E10    1.666458835250434E-3   6.194964614639312E-3  
 2.029200000000000E10    2.781829592645353E-3   5.785061092472371E-3  
 2.029400000000000E10    3.791434276435111E-3   5.114083810720915E-3  
 2.029600000000000E10    4.557524186869463E-3   4.301256724391823E-3  
 2.029800000000000E10    5.117405510656996E-3   3.463398205277361E-3  
 2.030000000000000E10    5.547495087447727E-3   2.591578344481043E-3  
 2.030200000000000E10    5.851150375365476E-3   1.718929247286769E-3  
 2.030400000000000E10    6.145427129978753E-3   8.307314911903240E-4  
 2.030600000000000E10    6.396693953623376E-3  -2.310055126234843E-4  
 2.030800000000000E10    6.406042857072605E-3  -1.466744787772589E-3  
 2.031000000000000E10    6.029289123820672E-3  -2.772099384463128E-3  
 2.031200000000000E10    5.279629744221400E-3  -3.924056094277789E-3  
 2.031400000000000E10    4.256896300954216E-3  -4.859631524685725E-3  
 2.031600000000000E10    3.094611123181236E-3  -5.355643677628703E-3  
 2.031800000000000E10    2.042386019717396E-3  -5.412672381894089E-3  
 2.032000000000000E10    1.310649513335968E-3  -5.376232672988634E-3  
 2.032200000000000E10    6.519522716256756E-4  -5.474032770934298E-3  
 2.032400000000000E10   -1.279441825722138E-4  -5.616887938231230E-3  
 2.032600000000000E10   -1.017246695729778E-3  -5.630162067389415E-3  
 2.032800000000000E10   -1.895041511118136E-3  -5.488588198743485E-3  
 2.033000000000000E10   -2.795703260710946E-3  -5.229405455153298E-3  
 2.033200000000000E10   -3.803929012199796E-3  -4.804598719433503E-3  
 2.033400000000000E10   -4.763032085503694E-3  -4.059736501931409E-3  
 2.033600000000000E10   -5.147769748244757E-3  -3.600647948958256E-3  
 2.033800000000000E10   -5.967968816144600E-3  -2.020355000701032E-3  
 2.034000000000000E10   -6.219392320440140E-3  -8.570331243660165E-4  
 2.034200000000000E10   -6.223493870807652E-3   2.880391404665087E-4  
 2.034400000000000E10   -6.092639858432024E-3   1.390101830762478E-3  
 2.034600000000000E10   -5.786725825825592E-3   2.507518264062611E-3  
 2.034800000000000E10   -5.185356869557758E-3   3.617067410277180E-3  
 2.035000000000000E10   -4.249321526767296E-3   4.539871611344962E-3  
 2.035200000000000E10   -3.120207173151919E-3   5.147151062609974E-3  
 2.035400000000000E10   -1.986863034098973E-3   5.343474137286346E-3  
 2.035600000000000E10   -1.073357121685497E-3   5.239127106090756E-3  
 2.035800000000000E10   -4.454787776023610E-4   5.081723984560849E-3  
 2.036000000000000E10    9.233300793480509E-5   5.089621680478255E-3  
 2.036200000000000E10    7.940747841249831E-4   5.162111449020881E-3  
 2.036400000000000E10    1.572932586660264E-3   5.155321072649073E-3  
 2.036600000000000E10    2.437187433472755E-3   5.078544345810826E-3  
 2.036800000000000E10    3.480976004797368E-3   4.766964911264771E-3  
 2.037000000000000E10    4.527788517283806E-3   4.043923805893204E-3  
 2.037200000000000E10    5.308509781312796E-3   3.049961348742615E-3  
 2.037400000000000E10    5.781462513784200E-3   1.909492316046431E-3  
 2.037600000000000E10    5.919219805272642E-3   7.556680845740586E-4  
 2.037800000000000E10    5.818427666837787E-3  -2.651406903730535E-4  
 2.038000000000000E10    5.612427328517776E-3  -1.173164873717376E-3  
 2.038200000000000E10    5.354583964763601E-3  -2.029568809199573E-3  
 2.038400000000000E10    5.052129404596342E-3  -2.877247672137103E-3  
 2.038600000000000E10    4.588959261453079E-3  -3.766807810874817E-3  
 2.038800000000000E10    3.847009801294333E-3  -4.624541095791408E-3  
 2.039000000000000E10    2.919767813665080E-3  -5.304719424910016E-3  
 2.039200000000000E10    1.859732788562039E-3  -5.747924196637340E-3  
 2.039400000000000E10    7.883533138356368E-4  -5.905230259407818E-3  
 2.039600000000000E10   -1.969549756060228E-4  -5.907806941526541E-3  
 2.039800000000000E10   -1.181454581702933E-3  -5.737397037906412E-3  
 2.040000000000000E10   -2.066060889190362E-3  -5.396176388280259E-3  
 2.040200000000000E10   -2.790488158985053E-3  -5.067257141625441E-3  
 2.040400000000000E10   -3.601871192294323E-3  -4.767907530437282E-3  
 2.040600000000000E10   -4.510085644591370E-3  -4.254090766433949E-3  
 2.040800000000000E10   -5.430338174150682E-3  -3.468335071509635E-3  
 2.041000000000000E10   -6.216845400401473E-3  -2.371390833070985E-3  
 2.041200000000000E10   -6.649832683902833E-3  -1.052019046906980E-3  
 2.041400000000000E10   -6.714640386448599E-3   3.097594850754113E-4  
 2.041600000000000E10   -6.446726999625013E-3   1.607379388857495E-3  
 2.041800000000000E10   -5.912941869026351E-3   2.729499169314901E-3  
 2.042000000000000E10   -5.275160672120107E-3   3.658996222333777E-3  
 2.042200000000000E10   -4.534747486037237E-3   4.475541366839116E-3  
 2.042400000000000E10   -3.692655775259123E-3   5.126924777150523E-3  
 2.042600000000000E10   -2.763603224683507E-3   5.665719296415280E-3  
 2.042800000000000E10   -1.693885889835656E-3   6.084528102045074E-3  
 2.043000000000000E10   -5.751020881565817E-4   6.260171969547685E-3  
 2.043200000000000E10    5.101527096013781E-4   6.184001343991655E-3  
 2.043400000000000E10    1.514800906146842E-3   5.918429399852032E-3  
 2.043600000000000E10    2.350768373336322E-3   5.540832670198547E-3  
 2.043800000000000E10    3.142797192673625E-3   5.163363330526118E-3  
 2.044000000000000E10    3.957860533975894E-3   4.702577200706727E-3  
 2.044200000000000E10    4.755026540132585E-3   4.118854409934563E-3  
 2.044400000000000E10    5.508518432853399E-3   3.375453989446900E-3  
 2.044600000000000E10    6.221222990180977E-3   2.369830396348312E-3  
 2.044800000000000E10    6.737328513904855E-3   1.119605800205911E-3  
 2.045000000000000E10    6.926403743111426E-3  -2.835078019775267E-4  
 2.045200000000000E10    6.680220250546198E-3  -1.764016557933280E-3  
 2.045400000000000E10    5.925447047676570E-3  -3.050779972662345E-3  
 2.045600000000000E10    4.952442596586031E-3  -3.854808874750212E-3  
 2.045800000000000E10    4.087129653787908E-3  -4.326668504717543E-3  
 2.046000000000000E10    3.400196996804925E-3  -4.657625743866335E-3  
 2.046200000000000E10    2.818962544731704E-3  -5.015618294293499E-3  
 2.046400000000000E10    2.147494576710426E-3  -5.451976609082870E-3  
 2.046600000000000E10    1.305235647538930E-3  -5.877471454211592E-3  
 2.046800000000000E10    3.253077848506862E-4  -6.172459969228066E-3  
 2.047000000000000E10   -7.706046324326761E-4  -6.221226123334082E-3  
 2.047200000000000E10   -1.852651863979797E-3  -6.004379878257528E-3  
 2.047400000000000E10   -2.829058716694514E-3  -5.564665410345720E-3  
 2.047600000000000E10   -3.656349078763599E-3  -5.027722734038109E-3  
 2.047800000000000E10   -4.416186603958961E-3  -4.502266082038851E-3  
 2.048000000000000E10   -5.241252033522836E-3  -3.915897556178181E-3  
 2.048200000000000E10   -6.110073676631776E-3  -3.022485999045549E-3  
 2.048400000000000E10   -6.745642436277352E-3  -1.736240531892781E-3  
 2.048600000000000E10   -7.010438502478748E-3  -3.180730975460101E-4  
 2.048800000000000E10   -6.890942302337033E-3   1.092227263502593E-3  
 2.049000000000000E10   -6.406604967735433E-3   2.343197450915605E-3  
 2.049200000000000E10   -5.713927749268435E-3   3.402284335023092E-3  
 2.049400000000000E10   -4.873173414833017E-3   4.236824586297628E-3  
 2.049600000000000E10   -3.954725575713833E-3   4.798708897497919E-3  
 2.049800000000000E10   -3.150492469653671E-3   5.149536789107470E-3  
 2.050000000000000E10   -2.444798149812369E-3   5.439433631383711E-3  
 2.050200000000000E10   -1.816702562522282E-3   5.772958860307197E-3  
 2.050400000000000E10   -9.870975289815740E-4   6.296658261828586E-3  
 2.050600000000000E10    2.166417886464954E-4   6.708068313238062E-3  
 2.050800000000000E10    1.590598722413919E-3   6.690066031835699E-3  
 2.051000000000000E10    2.860342689939304E-3   6.276931970115798E-3  
 2.051200000000000E10    4.023161302838061E-3   5.652212710292251E-3  
 2.051400000000000E10    5.082250693468033E-3   4.723867619939057E-3  
 2.051600000000000E10    5.829718176643422E-3   3.542367230962824E-3  
 2.051800000000000E10    6.197948641155238E-3   2.354782063192056E-3  
 2.052000000000000E10    6.367719111343227E-3   1.272518805768571E-3  
 2.052200000000000E10    6.460951508977164E-3   1.697573862645781E-4  
 2.052400000000000E10    6.401793801306207E-3  -1.043358446892213E-3  
 2.052600000000000E10    6.008332934414533E-3  -2.261097683789738E-3  
 2.052800000000000E10    5.292176309237142E-3  -3.229655719212729E-3  
 2.053000000000000E10    4.476727624596270E-3  -3.899814736351004E-3  
 2.053200000000000E10    3.677720543181088E-3  -4.385916470193570E-3  
 2.053400000000000E10    2.905850034253098E-3  -4.731473541692084E-3  
 2.053600000000000E10    2.205493592622656E-3  -4.985671019020641E-3  
 2.053800000000000E10    1.536507638067835E-3  -5.219385510793439E-3  
 2.054000000000000E10    8.704618300759684E-4  -5.427688273980663E-3  
 2.054200000000000E10    1.206568077229607E-4  -5.695049535989026E-3  
 2.054400000000000E10   -8.638963544522816E-4  -5.972996854257806E-3  
 2.054600000000000E10   -2.090967099331780E-3  -6.042858453490486E-3  
 2.054800000000000E10   -3.495193825298806E-3  -5.670764449018020E-3  
 2.055000000000000E10   -4.760264430517032E-3  -4.708607560368601E-3  
 2.055200000000000E10   -5.561550015606631E-3  -3.425000416528848E-3  
 2.055400000000000E10   -5.951026046395671E-3  -2.106786547458651E-3  
 2.055600000000000E10   -6.018037102932549E-3  -8.601564705590317E-4  
