#  HZ   S   RI   R     50.00 
! Rohde & Schwarz ZVA40 4Ports - Version 3.90 - 1145.1110k42 SN: 100403
! Date: 2023-10-03 12:48:32
! Measurement: S12 
! 
 2.000000000000000E10    5.026933081724026E-3   2.852076957761137E-3  
 2.000200000000000E10    5.281560433407625E-3   1.947999492080675E-3  
 2.000400000000000E10    5.416771414241305E-3   9.522094753467373E-4  
 2.000600000000000E10    5.316057984061815E-3   3.432180232333898E-5  
 2.000800000000000E10    5.208476429322252E-3  -7.983538768409443E-4  
 2.001000000000000E10    4.967511355600976E-3  -1.626365971147876E-3  
 2.001200000000000E10    4.550312525006357E-3  -2.430680708062870E-3  
 2.001400000000000E10    3.993994401146969E-3  -3.144026535597665E-3  
 2.001600000000000E10    3.186604197792434E-3  -3.608198603615165E-3  
 2.001800000000000E10    2.450403257238644E-3  -3.755456362678497E-3  
 2.002000000000000E10    1.929251296031806E-3  -3.821745040585046E-3  
 2.002200000000000E10    1.557646371010277E-3  -3.947123022819007E-3  
 2.002400000000000E10    1.050835634857692E-3  -4.119111569943252E-3  
 2.002600000000000E10    5.996089075105610E-4  -4.320479498279316E-3  
 2.002800000000000E10    1.253878511272854E-4  -4.613070955706968E-3  
 2.003000000000000E10   -5.549813590564385E-4  -4.951691944841986E-3  
 2.003200000000000E10   -1.499250078470343E-3  -5.066848032314469E-3  
 2.003400000000000E10   -2.586855078805928E-3  -4.971488102994584E-3  
 2.003600000000000E10   -4.149242183538500E-3  -4.461551705996196E-3  
 2.003800000000000E10   -5.069472206135591E-3  -3.317452061714398E-3  
 2.004000000000000E10   -5.473158925909688E-3  -2.080367636625414E-3  
 2.004200000000000E10   -5.526586659942513E-3  -1.019138670353978E-3  
 2.004400000000000E10   -5.339899048623112E-3   2.807542181539334E-5  
 2.004600000000000E10   -5.098730774113426E-3   8.378867456081533E-4  
 2.004800000000000E10   -4.660219471487734E-3   1.522531228450438E-3  
 2.005000000000000E10   -4.501768512892778E-3   2.247124901731258E-3  
 2.005200000000000E10   -4.082818256898059E-3   3.025916637852789E-3  
 2.005400000000000E10   -3.509310005163705E-3   3.655464767857834E-3  
 2.005600000000000E10   -2.732143530415164E-3   4.093000975747904E-3  
 2.005800000000000E10   -2.001127926632762E-3   4.467360209673643E-3  
 2.006000000000000E10   -1.196805991370369E-3   4.767525768666356E-3  
 2.006200000000000E10   -3.071543976181635E-4   4.855331779388642E-3  
 2.006400000000000E10    3.627923858099773E-4   4.601261181825841E-3  
 2.006600000000000E10    9.798263285860972E-4   4.359755337376286E-3  
 2.006800000000000E10    1.448755756158520E-3   4.173419886717091E-3  
 2.007000000000000E10    1.924059189925039E-3   4.184325294638122E-3  
 2.007200000000000E10    2.686171154319136E-3   4.036843914676596E-3  
 2.007400000000000E10    3.501224072857036E-3   3.483036464011228E-3  
 2.007600000000000E10    4.147660853858624E-3   2.907647906492154E-3  
 2.007800000000000E10    4.975824651342851E-3   2.123815619766161E-3  
 2.008000000000000E10    5.278049933689613E-3   9.583311060581496E-4  
 2.008200000000000E10    5.214026439245101E-3   1.303326417082981E-4  
 2.008400000000000E10    5.009087716677675E-3  -7.293338324719421E-4  
 2.008600000000000E10    4.638486731521510E-3  -1.628066990869465E-3  
 2.008800000000000E10    4.275866835895512E-3  -2.380227773553796E-3  
 2.009000000000000E10    3.903086808147944E-3  -3.070593630481098E-3  
 2.009200000000000E10    3.462784526938642E-3  -3.748486128946146E-3  
 2.009400000000000E10    2.840980533855381E-3  -4.440757377004183E-3  
 2.009600000000000E10    2.033500863170183E-3  -4.974616225808859E-3  
 2.009800000000000E10    1.040209136489365E-3  -5.240987503418217E-3  
 2.010000000000000E10    5.465982421473754E-5  -5.127737660788828E-3  
 2.010200000000000E10   -7.966043421119040E-4  -5.014194322198079E-3  
 2.010400000000000E10   -1.647903756410988E-3  -4.830467870811440E-3  
 2.010600000000000E10   -2.364796482854419E-3  -4.493900574743748E-3  
 2.010800000000000E10   -3.216325805556996E-3  -4.082456757142037E-3  
 2.011000000000000E10   -3.902825043985138E-3  -3.339070136900301E-3  
 2.011200000000000E10   -4.166621309532612E-3  -2.485686628561881E-3  
 2.011400000000000E10   -4.425918286735261E-3  -1.685964297158299E-3  
 2.011600000000000E10   -4.513641151047692E-3  -9.612576363401281E-4  
 2.011800000000000E10   -4.500038594145467E-3  -2.344093119501377E-4  
 2.012000000000000E10   -4.327312094607839E-3   2.674186662598340E-4  
 2.012200000000000E10   -4.274129621788032E-3   6.885035308422866E-4  
 2.012400000000000E10   -4.464421266069015E-3   1.274845002357055E-3  
 2.012600000000000E10   -4.513370907968946E-3   2.176487895970543E-3  
 2.012800000000000E10   -4.239465713638951E-3   2.927716079823397E-3  
 2.013000000000000E10   -3.812973378916030E-3   3.635386832886273E-3  
 2.013200000000000E10   -2.915437022844951E-3   4.648494361727327E-3  
 2.013400000000000E10   -1.875677999729912E-3   5.220509030752713E-3  
 2.013600000000000E10   -8.829051275151196E-4   5.514687479094223E-3  
 2.013800000000000E10    4.199057870277171E-4   5.413084446142118E-3  
 2.014000000000000E10    1.427907429859732E-3   5.100959635995053E-3  
 2.014200000000000E10    2.185256224712013E-3   4.832172024719142E-3  
 2.014400000000000E10    2.989072171557281E-3   4.521184583642969E-3  
 2.014600000000000E10    3.836208626765896E-3   4.065959011549476E-3  
 2.014800000000000E10    4.528695993401386E-3   3.258556679443077E-3  
 2.015000000000000E10    4.960522003885773E-3   2.363207594801982E-3  
 2.015200000000000E10    5.285179449452294E-3   1.435886939159698E-3  
 2.015400000000000E10    5.403555774440369E-3   3.956566560427071E-4  
 2.015600000000000E10    5.251369921973458E-3  -6.487366678171655E-4  
 2.015800000000000E10    4.879511703081705E-3  -1.489677768269623E-3  
 2.016000000000000E10    4.355976884080856E-3  -2.045134530851135E-3  
 2.016200000000000E10    3.985078280998602E-3  -2.336924326502615E-3  
 2.016400000000000E10    3.788932140364691E-3  -2.806332039957245E-3  
 2.016600000000000E10    3.587329035831823E-3  -3.448806444389953E-3  
 2.016800000000000E10    3.136973586623315E-3  -4.201107253148049E-3  
 2.017000000000000E10    2.344224619230739E-3  -4.940928649847154E-3  
 2.017200000000000E10    1.308336478864981E-3  -5.430787284341124E-3  
 2.017400000000000E10    3.012614044429803E-4  -5.607047112856958E-3  
 2.017600000000000E10   -6.856844820841044E-4  -5.551280190788762E-3  
 2.017800000000000E10   -1.542620205630859E-3  -5.333714678676592E-3  
 2.018000000000000E10   -2.376176942898720E-3  -5.093815650239036E-3  
 2.018200000000000E10   -3.231129872060761E-3  -4.808409898369401E-3  
 2.018400000000000E10   -3.938667346826859E-3  -4.233356599730474E-3  
 2.018600000000000E10   -4.619868028115620E-3  -3.607260822146028E-3  
 2.018800000000000E10   -5.270232360258148E-3  -2.791714294020225E-3  
 2.019000000000000E10   -5.759468284883986E-3  -1.798017049656698E-3  
 2.019200000000000E10   -6.124235517172902E-3  -6.877687153098159E-4  
 2.019400000000000E10   -6.418692396470796E-3   5.073153922610261E-4  
 2.019600000000000E10   -6.184160812861390E-3   1.617410651373643E-3  
 2.019800000000000E10   -5.784073154683467E-3   2.989711490011326E-3  
 2.020000000000000E10   -5.040417011413310E-3   3.991359551609667E-3  
 2.020200000000000E10   -4.260538663301203E-3   4.759297654446629E-3  
 2.020400000000000E10   -3.263134124238234E-3   5.500677058956138E-3  
 2.020600000000000E10   -2.157231844547723E-3   6.055543216428272E-3  
 2.020800000000000E10   -9.792313816163827E-4   6.362342103211969E-3  
 2.021000000000000E10    1.623397978686695E-4   6.506729819294481E-3  
 2.021200000000000E10    1.453690248093120E-3   6.248191430198927E-3  
 2.021400000000000E10    2.656601240030594E-3   5.760234004507463E-3  
 2.021600000000000E10    3.652218996581657E-3   5.033908013030198E-3  
 2.021800000000000E10    4.110151125739018E-3   4.164978603108062E-3  
 2.022000000000000E10    4.470293513602681E-3   3.528867658503630E-3  
 2.022200000000000E10    4.875501065894411E-3   2.783525140128202E-3  
 2.022400000000000E10    5.095952535393062E-3   1.956847686044596E-3  
 2.022600000000000E10    5.215789484618991E-3   1.227466518887215E-3  
 2.022800000000000E10    5.303864841590878E-3   6.863775024949399E-4  
 2.023000000000000E10    5.607370951178449E-3  -1.053443519157117E-4  
 2.023200000000000E10    5.638838665887576E-3  -1.156546537660890E-3  
 2.023400000000000E10    5.301262592655366E-3  -2.199995822997557E-3  
 2.023600000000000E10    4.789055523428100E-3  -3.076739617864843E-3  
 2.023800000000000E10    4.202590211880981E-3  -3.732101388137650E-3  
 2.024000000000000E10    3.546542203467754E-3  -4.332107405557678E-3  
 2.024200000000000E10    2.901711104506696E-3  -4.716847307497152E-3  
 2.024400000000000E10    2.046742864573996E-3  -5.078605971195633E-3  
 2.024600000000000E10    1.197568227157549E-3  -5.306594746394290E-3  
 2.024800000000000E10    5.532629902181389E-4  -5.597616507050892E-3  
 2.025000000000000E10   -4.157906406800503E-4  -5.640077499534798E-3  
 2.025200000000000E10   -1.400100274218454E-3  -5.561493337154388E-3  
 2.025400000000000E10   -2.315105309847881E-3  -5.278787920596424E-3  
 2.025600000000000E10   -3.221421649666607E-3  -4.908741417306442E-3  
 2.025800000000000E10   -3.995103847787337E-3  -4.433360830363301E-3  
 2.026000000000000E10   -4.583095096879536E-3  -3.844069179009509E-3  
 2.026200000000000E10   -5.171895613548933E-3  -3.191333747020474E-3  
 2.026400000000000E10   -5.751095401744048E-3  -2.375222294142953E-3  
 2.026600000000000E10   -6.224653976796954E-3  -1.295802067033947E-3  
 2.026800000000000E10   -6.527190527844209E-3   1.657660092557005E-4  
 2.027000000000000E10   -6.344131383768940E-3   1.535994397407329E-3  
 2.027200000000000E10   -5.608486408298767E-3   2.870562012065892E-3  
 2.027400000000000E10   -4.635596572134765E-3   3.764175594335905E-3  
 2.027600000000000E10   -3.780613239440653E-3   4.163006406829314E-3  
 2.027800000000000E10   -3.124646083624275E-3   4.576855718537614E-3  
 2.028000000000000E10   -2.507229387346241E-3   4.934443523072535E-3  
 2.028200000000000E10   -1.780375010437436E-3   5.282605204869200E-3  
 2.028400000000000E10   -9.438333498245035E-4   5.494615614966111E-3  
 2.028600000000000E10   -6.980197590396349E-5   5.635172352884655E-3  
 2.028800000000000E10    8.588917769008767E-4   5.606268291120177E-3  
 2.029000000000000E10    1.774315601559701E-3   5.348608936603544E-3  
 2.029200000000000E10    2.726916887762922E-3   4.956613057637933E-3  
 2.029400000000000E10    3.575391670757974E-3   4.365691906531101E-3  
 2.029600000000000E10    4.238506382400240E-3   3.624131273547257E-3  
 2.029800000000000E10    4.677917821229333E-3   2.878654894798442E-3  
 2.030000000000000E10    4.927937415669915E-3   2.215947378081856E-3  
 2.030200000000000E10    5.147940539582461E-3   1.555432453406630E-3  
 2.030400000000000E10    5.520430376270303E-3   9.103676377519691E-4  
 2.030600000000000E10    5.805435090291280E-3  -8.080566422668769E-6  
 2.030800000000000E10    5.967277826534377E-3  -1.123246404825262E-3  
 2.031000000000000E10    5.731614703243531E-3  -2.321666925800619E-3  
 2.031200000000000E10    5.112092372857863E-3  -3.449612771402355E-3  
 2.031400000000000E10    4.267073598586852E-3  -4.507385030457820E-3  
 2.031600000000000E10    3.239135016445761E-3  -5.276780489280269E-3  
 2.031800000000000E10    2.201153116335196E-3  -5.346346370599889E-3  
 2.032000000000000E10    1.496222969661984E-3  -5.322083227198434E-3  
 2.032200000000000E10    7.434425189987654E-4  -5.527497579654058E-3  
 2.032400000000000E10   -2.134453588277447E-4  -5.775794197149851E-3  
 2.032600000000000E10   -1.292499812768290E-3  -5.651786440500507E-3  
 2.032800000000000E10   -2.214437863720512E-3  -5.470878341131741E-3  
 2.033000000000000E10   -3.163286269193998E-3  -5.161653548755028E-3  
 2.033200000000000E10   -4.230870054689823E-3  -4.401938541343919E-3  
 2.033400000000000E10   -4.954796318930609E-3  -3.150215734624201E-3  
 2.033600000000000E10   -5.107925325218175E-3  -2.590227346108468E-3  
 2.033800000000000E10   -5.533471410335215E-3  -1.236770293433909E-3  
 2.034000000000000E10   -5.678405260874166E-3  -3.611397610425396E-4  
 2.034200000000000E10   -5.747511827697357E-3   6.263854938205678E-4  
 2.034400000000000E10   -5.523106031533744E-3   1.612622894484688E-3  
 2.034600000000000E10   -5.122860690958247E-3   2.482459647580981E-3  
 2.034800000000000E10   -4.593314370140433E-3   3.403970876846601E-3  
 2.035000000000000E10   -3.747007938929730E-3   4.203059779549087E-3  
 2.035200000000000E10   -2.707515463784889E-3   4.687936424657152E-3  
 2.035400000000000E10   -1.919256661225249E-3   4.737179252077585E-3  
 2.035600000000000E10   -1.144080651337626E-3   4.631308976698805E-3  
 2.035800000000000E10   -7.183707547719006E-4   4.633682051294105E-3  
 2.036000000000000E10   -2.432365840326789E-4   4.893653991597671E-3  
 2.036200000000000E10    5.280585502515789E-4   5.289555199582269E-3  
 2.036400000000000E10    1.263493279650532E-3   5.334969282288243E-3  
 2.036600000000000E10    2.150550299255109E-3   5.344057300438484E-3  
 2.036800000000000E10    3.263912698322977E-3   5.111440447055632E-3  
 2.037000000000000E10    4.532568380926495E-3   4.392505485426497E-3  
 2.037200000000000E10    5.537176246030464E-3   3.285088084845080E-3  
 2.037400000000000E10    6.097770296037197E-3   2.019884099287016E-3  
 2.037600000000000E10    6.244798294372030E-3   5.038263991958013E-4  
 2.037800000000000E10    5.789423050979774E-3  -9.311711684050456E-4  
 2.038000000000000E10    5.334779016535592E-3  -1.848430985032961E-3  
 2.038200000000000E10    4.764709863121863E-3  -2.535442226669855E-3  
 2.038400000000000E10    4.434200262443887E-3  -3.105123466984542E-3  
 2.038600000000000E10    3.982665275947915E-3  -3.903232428624675E-3  
 2.038800000000000E10    3.357714697442673E-3  -4.626541432959062E-3  
 2.039000000000000E10    2.493146117086764E-3  -5.252447082764573E-3  
 2.039200000000000E10    1.406259714039388E-3  -5.601172956327598E-3  
 2.039400000000000E10    3.775921305296597E-4  -5.611733464455164E-3  
 2.039600000000000E10   -5.247558472513415E-4  -5.482449248019192E-3  
 2.039800000000000E10   -1.381137067693527E-3  -5.284100486379530E-3  
 2.040000000000000E10   -2.096807010713275E-3  -4.914758508136772E-3  
 2.040200000000000E10   -2.739341670854224E-3  -4.609218962421572E-3  
 2.040400000000000E10   -3.427157023300728E-3  -4.310881270578614E-3  
 2.040600000000000E10   -4.287851181019236E-3  -3.845184851713755E-3  
 2.040800000000000E10   -5.148594526367055E-3  -3.109575438968561E-3  
 2.041000000000000E10   -5.832323701017434E-3  -2.069192412481816E-3  
 2.041200000000000E10   -6.162602006009332E-3  -8.731952230273574E-4  
 2.041400000000000E10   -6.206108490005136E-3   3.882837206927233E-4  
 2.041600000000000E10   -5.930669178875784E-3   1.372615573927760E-3  
 2.041800000000000E10   -5.570352689742490E-3   2.334118941453872E-3  
 2.042000000000000E10   -5.223960391487237E-3   3.157468426420733E-3  
 2.042200000000000E10   -4.924843777660971E-3   4.303618713661478E-3  
 2.042400000000000E10   -4.123691227976923E-3   5.125750546102171E-3  
 2.042600000000000E10   -3.092980590062561E-3   5.930256702143838E-3  
 2.042800000000000E10   -1.647131580048827E-3   6.548618915042393E-3  
 2.043000000000000E10   -1.547217554481768E-4   6.576974686511138E-3  
 2.043200000000000E10    1.080903320581894E-3   6.229699865259506E-3  
 2.043400000000000E10    2.059928253637972E-3   5.663572638123124E-3  
 2.043600000000000E10    2.619210897979361E-3   5.238472821441031E-3  
 2.043800000000000E10    3.361803591596308E-3   4.916141956561693E-3  
 2.044000000000000E10    4.222032752026012E-3   4.562125571451530E-3  
 2.044200000000000E10    4.968935140856991E-3   3.850173381916075E-3  
 2.044400000000000E10    5.667787976562977E-3   3.011855503751172E-3  
 2.044600000000000E10    6.219121662003023E-3   1.962067231673885E-3  
 2.044800000000000E10    6.623470379660528E-3   7.043000164062337E-4  
 2.045000000000000E10    6.734767549291806E-3  -6.816237776850662E-4  
 2.045200000000000E10    6.385068271171164E-3  -2.072124259063491E-3  
 2.045400000000000E10    5.618723143857939E-3  -3.283794520905725E-3  
 2.045600000000000E10    4.647507271901877E-3  -4.052999377664594E-3  
 2.045800000000000E10    3.781954050753956E-3  -4.490855201664899E-3  
 2.046000000000000E10    3.061665825683762E-3  -4.728773419089892E-3  
 2.046200000000000E10    2.660292654548323E-3  -4.853258347052530E-3  
 2.046400000000000E10    2.221979632007856E-3  -5.221788999969486E-3  
 2.046600000000000E10    1.531836516396315E-3  -5.740036886116422E-3  
 2.046800000000000E10    5.368117185921789E-4  -6.478905539821697E-3  
 2.047000000000000E10   -7.065959033314829E-4  -6.728887609723542E-3  
 2.047200000000000E10   -2.206943230703473E-3  -6.627765087479796E-3  
 2.047400000000000E10   -3.421247307280148E-3  -6.088564396594410E-3  
 2.047600000000000E10   -4.488992090854380E-3  -5.330438294482452E-3  
 2.047800000000000E10   -5.324029829353094E-3  -4.593733542909225E-3  
 2.048000000000000E10   -6.173554083539381E-3  -3.760891483613739E-3  
 2.048200000000000E10   -6.932157833405116E-3  -2.550062344030098E-3  
 2.048400000000000E10   -7.320471711594750E-3  -9.398525753230961E-4  
 2.048600000000000E10   -7.186893149520513E-3   6.697069413214061E-4  
 2.048800000000000E10   -6.688880389211355E-3   2.101655984814797E-3  
 2.049000000000000E10   -5.895001900002913E-3   3.221212023938144E-3  
 2.049200000000000E10   -5.065447064461532E-3   4.146048023054997E-3  
 2.049400000000000E10   -4.140521382430086E-3   4.838480286438157E-3  
 2.049600000000000E10   -3.198407918076825E-3   5.154852755367756E-3  
 2.049800000000000E10   -2.327167980924801E-3   5.365163829453566E-3  
 2.050000000000000E10   -1.640484349250242E-3   5.515494815039415E-3  
 2.050200000000000E10   -1.086859269654033E-3   5.803553266795698E-3  
 2.050400000000000E10   -2.879201740681849E-4   6.214515357795689E-3  
 2.050600000000000E10    8.328371849428450E-4   6.452871003636608E-3  
 2.050800000000000E10    2.121354901680240E-3   6.345474799336107E-3  
 2.051000000000000E10    3.274460900919857E-3   5.774523735184361E-3  
 2.051200000000000E10    4.370543967794490E-3   5.067527285535579E-3  
 2.051400000000000E10    5.299413645709003E-3   4.077775114974766E-3  
 2.051600000000000E10    5.884001721386557E-3   2.837524490637912E-3  
 2.051800000000000E10    6.086143768495984E-3   1.620988646108243E-3  
 2.052000000000000E10    6.127835975752937E-3   5.982668479663079E-4  
 2.052200000000000E10    6.065357528212998E-3  -3.419314727782169E-4  
 2.052400000000000E10    5.922195087704394E-3  -1.432165848436179E-3  
 2.052600000000000E10    5.474055660198685E-3  -2.562221717434349E-3  
 2.052800000000000E10    4.726915029567426E-3  -3.403924172744155E-3  
 2.053000000000000E10    4.082737714742069E-3  -3.798544271072994E-3  
 2.053200000000000E10    3.569084745659321E-3  -4.240483539265202E-3  
 2.053400000000000E10    2.918820535005243E-3  -4.676294461306599E-3  
 2.053600000000000E10    2.191890074216106E-3  -5.252019002067823E-3  
 2.053800000000000E10    1.474674666058962E-3  -5.461898304660012E-3  
 2.054000000000000E10    7.704100938065463E-4  -5.661810248124379E-3  
 2.054200000000000E10   -2.584795109686201E-4  -6.059018412122022E-3  
 2.054400000000000E10   -1.285463442198104E-3  -6.263707074578163E-3  
 2.054600000000000E10   -2.615776033727108E-3  -6.248386559525023E-3  
 2.054800000000000E10   -4.235339816659689E-3  -5.639405110505997E-3  
 2.055000000000000E10   -5.519307701400033E-3  -4.516458949419084E-3  
 2.055200000000000E10   -6.160849015469905E-3  -2.839098374048869E-3  
 2.055400000000000E10   -6.186354594926041E-3  -1.233051539640184E-3  
 2.055600000000000E10   -5.941451837619146E-3   5.849621353532994E-5  
