#  HZ   S   RI   R     50.00 
! Rohde & Schwarz ZVA40 4Ports - Version 3.90 - 1145.1110k42 SN: 100403
! Date: 2023-10-03 12:49:23
! Measurement: S12 
! 
 2.000000000000000E10    4.148534122236145E-3   2.628924069921033E-3  
 2.000200000000000E10    4.593177695358774E-3   1.822330267136643E-3  
 2.000400000000000E10    4.820374674221249E-3   9.031042669256524E-4  
 2.000600000000000E10    4.799137287996761E-3   3.521589051921887E-5  
 2.000800000000000E10    4.629214957933899E-3  -7.656594549608512E-4  
 2.001000000000000E10    4.313590988102887E-3  -1.483417979080041E-3  
 2.001200000000000E10    3.971361133572742E-3  -2.077610899767084E-3  
 2.001400000000000E10    3.624085615106715E-3  -2.702825086635879E-3  
 2.001600000000000E10    3.016373758052255E-3  -3.298305733249471E-3  
 2.001800000000000E10    2.289282942103895E-3  -3.595418683527899E-3  
 2.002000000000000E10    1.697000362194912E-3  -3.702103091334856E-3  
 2.002200000000000E10    1.179334921385475E-3  -3.807187148412008E-3  
 2.002400000000000E10    7.749322840513725E-4  -3.932746550111697E-3  
 2.002600000000000E10    3.537189174340962E-4  -4.123120558472410E-3  
 2.002800000000000E10   -2.243908108323639E-4  -4.347925717637087E-3  
 2.003000000000000E10   -1.007240068388462E-3  -4.452825590983463E-3  
 2.003200000000000E10   -1.850662747556433E-3  -4.385841530664673E-3  
 2.003400000000000E10   -2.756489133871121E-3  -4.140088531419901E-3  
 2.003600000000000E10   -3.693818922099672E-3  -3.553549799971048E-3  
 2.003800000000000E10   -4.379872706640814E-3  -2.581586315205886E-3  
 2.004000000000000E10   -4.619772184451094E-3  -1.521828707016300E-3  
 2.004200000000000E10   -4.562939955394292E-3  -6.337805348272795E-4  
 2.004400000000000E10   -4.385255288015873E-3   2.195916313611589E-5  
 2.004600000000000E10   -4.245747670924754E-3   5.033370715039635E-4  
 2.004800000000000E10   -4.223061383756796E-3   1.008803572311528E-3  
 2.005000000000000E10   -4.180678601130149E-3   1.719396279049100E-3  
 2.005200000000000E10   -3.917050847160249E-3   2.519852242244738E-3  
 2.005400000000000E10   -3.413559076221678E-3   3.233505183299404E-3  
 2.005600000000000E10   -2.735626945765217E-3   3.762416357611433E-3  
 2.005800000000000E10   -2.047190438050251E-3   4.113655118335586E-3  
 2.006000000000000E10   -1.305868910320247E-3   4.431695815313747E-3  
 2.006200000000000E10   -5.005197356149939E-4   4.580177528980420E-3  
 2.006400000000000E10    2.843791891557078E-4   4.525740542774829E-3  
 2.006600000000000E10    9.655005026120689E-4   4.349478520452976E-3  
 2.006800000000000E10    1.550394489809319E-3   4.136915873117817E-3  
 2.007000000000000E10    2.193121027152868E-3   3.975592486864399E-3  
 2.007200000000000E10    2.995377393702585E-3   3.645851605460661E-3  
 2.007400000000000E10    3.694176393470361E-3   2.974036986465645E-3  
 2.007600000000000E10    4.106348056591465E-3   2.166594185902187E-3  
 2.007800000000000E10    4.333200069867454E-3   1.342156264226404E-3  
 2.008000000000000E10    4.399760518304811E-3   5.720990626481575E-4  
 2.008200000000000E10    4.354188070518818E-3  -1.463444182244915E-4  
 2.008400000000000E10    4.171990286763273E-3  -7.716133969865322E-4  
 2.008600000000000E10    3.970827834504378E-3  -1.308863143537536E-3  
 2.008800000000000E10    3.788575941098877E-3  -1.839631902685055E-3  
 2.009000000000000E10    3.570044146204274E-3  -2.404732401616903E-3  
 2.009200000000000E10    3.296674205250885E-3  -3.022811712827457E-3  
 2.009400000000000E10    2.825854242037068E-3  -3.704612951697617E-3  
 2.009600000000000E10    2.110430078909302E-3  -4.271035895150140E-3  
 2.009800000000000E10    1.243219500811917E-3  -4.651282809863816E-3  
 2.010000000000000E10    3.078740627454743E-4  -4.793164529805731E-3  
 2.010200000000000E10   -5.161663647025661E-4  -4.735045580241948E-3  
 2.010400000000000E10   -1.316573445120538E-3  -4.585861793715401E-3  
 2.010600000000000E10   -2.124666531132062E-3  -4.306625880796683E-3  
 2.010800000000000E10   -2.934900529884487E-3  -3.886499455254858E-3  
 2.011000000000000E10   -3.646306830888873E-3  -3.233738772479105E-3  
 2.011200000000000E10   -4.128485667009536E-3  -2.444866328948626E-3  
 2.011400000000000E10   -4.414422789509364E-3  -1.610393627464966E-3  
 2.011600000000000E10   -4.525665248091370E-3  -7.708670929714973E-4  
 2.011800000000000E10   -4.479889130023078E-3   4.536614071262234E-5  
 2.012000000000000E10   -4.273385572820821E-3   7.456518160000404E-4  
 2.012200000000000E10   -4.030387088482682E-3   1.303055044359417E-3  
 2.012400000000000E10   -3.806631166081677E-3   1.817528565640374E-3  
 2.012600000000000E10   -3.548336237354718E-3   2.355372198807544E-3  
 2.012800000000000E10   -3.253984792651137E-3   2.930113785122158E-3  
 2.013000000000000E10   -2.854481961613903E-3   3.530995107469225E-3  
 2.013200000000000E10   -2.255486429027641E-3   4.135022501988830E-3  
 2.013400000000000E10   -1.406264465988265E-3   4.550844494800183E-3  
 2.013600000000000E10   -4.975108329942247E-4   4.699018861158191E-3  
 2.013800000000000E10    3.329313407503248E-4   4.672227990117298E-3  
 2.014000000000000E10    1.077728691084160E-3   4.498335880972190E-3  
 2.014200000000000E10    1.718052748982911E-3   4.293109234090287E-3  
 2.014400000000000E10    2.395877468978427E-3   4.073819131188003E-3  
 2.014600000000000E10    3.153539032117044E-3   3.722207745618925E-3  
 2.014800000000000E10    3.889153155131555E-3   3.152662969292724E-3  
 2.015000000000000E10    4.481628834204787E-3   2.417287220143610E-3  
 2.015200000000000E10    4.914136959267948E-3   1.517642962660728E-3  
 2.015400000000000E10    5.089773592732040E-3   5.091512815283282E-4  
 2.015600000000000E10    4.991656443965207E-3  -4.837806742198878E-4  
 2.015800000000000E10    4.666406041029101E-3  -1.329302742108907E-3  
 2.016000000000000E10    4.246465557105381E-3  -1.904349059980511E-3  
 2.016200000000000E10    3.932897876615960E-3  -2.339171909053896E-3  
 2.016400000000000E10    3.764350131085074E-3  -2.853360082966944E-3  
 2.016600000000000E10    3.532826960845678E-3  -3.597124625988745E-3  
 2.016800000000000E10    2.996271336898311E-3  -4.448187621808593E-3  
 2.017000000000000E10    2.115561632919848E-3  -5.162819407481716E-3  
 2.017200000000000E10    1.001448235337192E-3  -5.558034153437991E-3  
 2.017400000000000E10   -1.194595996595776E-4  -5.644180476588845E-3  
 2.017600000000000E10   -1.218420413127284E-3  -5.504426383509190E-3  
 2.017800000000000E10   -2.211946041025579E-3  -5.115368621952741E-3  
 2.018000000000000E10   -3.035749746001082E-3  -4.545717534004866E-3  
 2.018200000000000E10   -3.642166427825929E-3  -3.894160502297685E-3  
 2.018400000000000E10   -4.151477977321759E-3  -3.305011957791853E-3  
 2.018600000000000E10   -4.695451543097921E-3  -2.705588698545561E-3  
 2.018800000000000E10   -5.231956352156540E-3  -1.934806518454683E-3  
 2.019000000000000E10   -5.605747641558633E-3  -9.630405783540838E-4  
 2.019200000000000E10   -5.733840295914638E-3   1.439287655336740E-4  
 2.019400000000000E10   -5.556567540118888E-3   1.252658921804928E-3  
 2.019600000000000E10   -5.157703870398968E-3   2.194667207230450E-3  
 2.019800000000000E10   -4.626634420216371E-3   2.965958534122863E-3  
 2.020000000000000E10   -4.038194008554820E-3   3.558627700890493E-3  
 2.020200000000000E10   -3.523486084145059E-3   4.089032453120737E-3  
 2.020400000000000E10   -2.944374634259585E-3   4.722176872791700E-3  
 2.020600000000000E10   -2.110576874478140E-3   5.323039084182355E-3  
 2.020800000000000E10   -1.158984638916633E-3   5.686371522701367E-3  
 2.021000000000000E10   -1.199511388033777E-4   5.884532576531622E-3  
 2.021200000000000E10    1.060662479414535E-3   5.875362036685845E-3  
 2.021400000000000E10    2.245508162790223E-3   5.509253194624628E-3  
 2.021600000000000E10    3.196695130267302E-3   4.809335456708823E-3  
 2.021800000000000E10    3.821889728062438E-3   3.969263568052969E-3  
 2.022000000000000E10    4.186688636177934E-3   3.194457059917750E-3  
 2.022200000000000E10    4.484174487568101E-3   2.504242562071838E-3  
 2.022400000000000E10    4.697761055725960E-3   1.828473477959071E-3  
 2.022600000000000E10    4.829100078924857E-3   1.234707259668858E-3  
 2.022800000000000E10    5.039120949574828E-3   7.278986804734084E-4  
 2.023000000000000E10    5.394184609954291E-3   1.900296640950957E-5  
 2.023200000000000E10    5.558726122278328E-3  -1.071824113785996E-3  
 2.023400000000000E10    5.322865429570688E-3  -2.190983394321836E-3  
 2.023600000000000E10    4.840646316623124E-3  -3.149405471847709E-3  
 2.023800000000000E10    4.144396447667289E-3  -3.949614907953434E-3  
 2.024000000000000E10    3.333160028037896E-3  -4.575188361767512E-3  
 2.024200000000000E10    2.443894200009104E-3  -5.047564137348873E-3  
 2.024400000000000E10    1.522803360683172E-3  -5.319461229657155E-3  
 2.024600000000000E10    6.636258929971716E-4  -5.419475031538838E-3  
 2.024800000000000E10   -1.724813282610344E-4  -5.432425882534441E-3  
 2.025000000000000E10   -1.066216684760340E-3  -5.316507683195615E-3  
 2.025200000000000E10   -1.943646975829994E-3  -5.048358877443687E-3  
 2.025400000000000E10   -2.717536215865870E-3  -4.616175195015712E-3  
 2.025600000000000E10   -3.323680404075441E-3  -4.057910230741499E-3  
 2.025800000000000E10   -3.763797978483478E-3  -3.491929679564795E-3  
 2.026000000000000E10   -4.197029380922415E-3  -2.988919936406678E-3  
 2.026200000000000E10   -4.714155183857198E-3  -2.446835728065815E-3  
 2.026400000000000E10   -5.272217279501945E-3  -1.758589800057578E-3  
 2.026600000000000E10   -5.692192275378603E-3  -8.177089303526237E-4  
 2.026800000000000E10   -5.819275752297605E-3   2.559637650572965E-4  
 2.027000000000000E10   -5.728189588814403E-3   1.352209027726280E-3  
 2.027200000000000E10   -5.399962387651983E-3   2.432621340299299E-3  
 2.027400000000000E10   -4.832029536197829E-3   3.368338749811708E-3  
 2.027600000000000E10   -4.087079815254822E-3   4.068884109396013E-3  
 2.027800000000000E10   -3.291729921334525E-3   4.619785190390012E-3  
 2.028000000000000E10   -2.439650265878100E-3   5.060371898743228E-3  
 2.028200000000000E10   -1.560071094245209E-3   5.345090963738487E-3  
 2.028400000000000E10   -7.141402712216684E-4   5.516111577984933E-3  
 2.028600000000000E10    1.515858204911088E-4   5.625798784078845E-3  
 2.028800000000000E10    1.129390580984617E-3   5.560718720142611E-3  
 2.029000000000000E10    2.110957217227734E-3   5.308194057211097E-3  
 2.029200000000000E10    3.063578150313047E-3   4.889358519174067E-3  
 2.029400000000000E10    3.884205397279788E-3   4.245688925421860E-3  
 2.029600000000000E10    4.486058912762481E-3   3.429020984629770E-3  
 2.029800000000000E10    4.888198654638765E-3   2.566610455298375E-3  
 2.030000000000000E10    5.143480704374234E-3   1.711076356736312E-3  
 2.030200000000000E10    5.303569283050234E-3   9.386132908659249E-4  
 2.030400000000000E10    5.487775667065906E-3   1.893840435638754E-4  
 2.030600000000000E10    5.632741169158283E-3  -7.363649344503554E-4  
 2.030800000000000E10    5.547875995825675E-3  -1.860971814558033E-3  
 2.031000000000000E10    5.127850185379652E-3  -3.030124575535886E-3  
 2.031200000000000E10    4.399813470827986E-3  -4.037067550905204E-3  
 2.031400000000000E10    3.389794895916013E-3  -4.802637041734203E-3  
 2.031600000000000E10    2.205714618050032E-3  -5.115091297979914E-3  
 2.031800000000000E10    1.170688366344319E-3  -4.981490954582993E-3  
 2.032000000000000E10    5.287980469046239E-4  -4.767990998147039E-3  
 2.032200000000000E10    6.310240621790319E-5  -4.745861418310180E-3  
 2.032400000000000E10   -5.024722052306265E-4  -4.835334472966334E-3  
 2.032600000000000E10   -1.243976504696515E-3  -4.845252145587663E-3  
 2.032800000000000E10   -2.079707813105547E-3  -4.714646846802065E-3  
 2.033000000000000E10   -2.951288892822379E-3  -4.429877835322066E-3  
 2.033200000000000E10   -3.838698989718090E-3  -3.972061661254763E-3  
 2.033400000000000E10   -4.607142675514698E-3  -3.186599673084987E-3  
 2.033600000000000E10   -4.825292852041613E-3  -2.679667446126112E-3  
 2.033800000000000E10   -5.325620891130306E-3  -1.268969666463833E-3  
 2.034000000000000E10   -5.509812791099765E-3  -3.160663145585996E-4  
 2.034200000000000E10   -5.551719126535583E-3   6.822689314371561E-4  
 2.034400000000000E10   -5.366049291098437E-3   1.716387940414853E-3  
 2.034600000000000E10   -4.963089770730714E-3   2.745816295976727E-3  
 2.034800000000000E10   -4.312224916101975E-3   3.753954187592566E-3  
 2.035000000000000E10   -3.372421949994540E-3   4.547603448804351E-3  
 2.035200000000000E10   -2.263591591101421E-3   4.970593469291518E-3  
 2.035400000000000E10   -1.169906467626022E-3   4.974522405599126E-3  
 2.035600000000000E10   -3.371397429269635E-4   4.700324019041573E-3  
 2.035800000000000E10    1.906443545504586E-4   4.425981811494331E-3  
 2.036000000000000E10    6.059676189031785E-4   4.367752330932149E-3  
 2.036200000000000E10    1.145537439139690E-3   4.377770348131371E-3  
 2.036400000000000E10    1.789961092938019E-3   4.292175102856302E-3  
 2.036600000000000E10    2.508257014934991E-3   4.132287191618005E-3  
 2.036800000000000E10    3.372052209183513E-3   3.849055844490687E-3  
 2.037000000000000E10    4.271931456981945E-3   3.247674230412058E-3  
 2.037200000000000E10    4.921841737910064E-3   2.346406469443514E-3  
 2.037400000000000E10    5.267011861486773E-3   1.297315976752380E-3  
 2.037600000000000E10    5.317795909276880E-3   2.495970836141440E-4  
 2.037800000000000E10    5.189447007710511E-3  -6.967735812464023E-4  
 2.038000000000000E10    4.934934409915256E-3  -1.523447926609748E-3  
 2.038200000000000E10    4.592459158274373E-3  -2.237495222411263E-3  
 2.038400000000000E10    4.242790535869095E-3  -2.931989691397801E-3  
 2.038600000000000E10    3.804835977942386E-3  -3.729148442117276E-3  
 2.038800000000000E10    3.121942911228097E-3  -4.555567663382684E-3  
 2.039000000000000E10    2.179464809654028E-3  -5.158428820706036E-3  
 2.039200000000000E10    1.074276872273708E-3  -5.418772298193682E-3  
 2.039400000000000E10    3.542388601398516E-5  -5.343606022272173E-3  
 2.039600000000000E10   -8.303490405089756E-4  -5.137528090345558E-3  
 2.039800000000000E10   -1.622009312092686E-3  -4.867580054335512E-3  
 2.040000000000000E10   -2.276094167573769E-3  -4.499302606579985E-3  
 2.040200000000000E10   -2.815181836907450E-3  -4.171148748667235E-3  
 2.040400000000000E10   -3.518229036812961E-3  -3.879630862159044E-3  
 2.040600000000000E10   -4.345707199312696E-3  -3.368844470106301E-3  
 2.040800000000000E10   -5.124053232428020E-3  -2.638880827429671E-3  
 2.041000000000000E10   -5.730933125229203E-3  -1.609688598869576E-3  
 2.041200000000000E10   -5.974243062232789E-3  -3.861697620312355E-4  
 2.041400000000000E10   -5.873712614582360E-3   8.083715271881805E-4  
 2.041600000000000E10   -5.554228603318641E-3   1.898867013929374E-3  
 2.041800000000000E10   -5.075465342916538E-3   2.840270292440581E-3  
 2.042000000000000E10   -4.473491965324219E-3   3.637174476546189E-3  
 2.042200000000000E10   -3.696433877232594E-3   4.330933794113508E-3  
 2.042400000000000E10   -2.845693811127822E-3   4.845995749813213E-3  
 2.042600000000000E10   -2.004079710895296E-3   5.258741257750572E-3  
 2.042800000000000E10   -1.094909742795856E-3   5.555978981938996E-3  
 2.043000000000000E10   -1.095658697694763E-4   5.650817006519793E-3  
 2.043200000000000E10    8.477780676353595E-4   5.507659373373121E-3  
 2.043400000000000E10    1.711518680344659E-3   5.197781062108785E-3  
 2.043600000000000E10    2.440957846286080E-3   4.866008337622890E-3  
 2.043800000000000E10    3.150032179759732E-3   4.521982143256196E-3  
 2.044000000000000E10    3.872971696234903E-3   4.024391777976959E-3  
 2.044200000000000E10    4.558284369658869E-3   3.400915558801247E-3  
 2.044400000000000E10    5.212456720596274E-3   2.664110045215762E-3  
 2.044600000000000E10    5.842649402155635E-3   1.733472414278976E-3  
 2.044800000000000E10    6.233040885348258E-3   5.581760924030811E-4  
 2.045000000000000E10    6.273900174033740E-3  -7.394742473272611E-4  
 2.045200000000000E10    5.923429039014385E-3  -2.045081851400936E-3  
 2.045400000000000E10    5.153690667283838E-3  -3.157409698483937E-3  
 2.045600000000000E10    4.235264600544597E-3  -3.804341208992018E-3  
 2.045800000000000E10    3.449769452372656E-3  -4.125540974500126E-3  
 2.046000000000000E10    2.819173891079422E-3  -4.344497334636207E-3  
 2.046200000000000E10    2.284645932037971E-3  -4.641752644085591E-3  
 2.046400000000000E10    1.661856664825022E-3  -5.032054118592349E-3  
 2.046600000000000E10    9.354156518958009E-4  -5.375402721490799E-3  
 2.046800000000000E10    8.274339362550969E-5  -5.628521807762617E-3  
 2.047000000000000E10   -9.199726532324536E-4  -5.689612103674679E-3  
 2.047200000000000E10   -1.947852627045906E-3  -5.484500947818468E-3  
 2.047400000000000E10   -2.888633828387891E-3  -5.052186837432643E-3  
 2.047600000000000E10   -3.636497033910701E-3  -4.517235731212895E-3  
 2.047800000000000E10   -4.282871164146438E-3  -3.982584547910672E-3  
 2.048000000000000E10   -4.995309641720173E-3  -3.365530245023971E-3  
 2.048200000000000E10   -5.734460070647494E-3  -2.486900816414766E-3  
 2.048400000000000E10   -6.288925335909891E-3  -1.335369190121318E-3  
 2.048600000000000E10   -6.538763665945484E-3  -5.693246300820273E-5  
 2.048800000000000E10   -6.414672474802277E-3   1.289119235583580E-3  
 2.049000000000000E10   -5.917836827020301E-3   2.486639079000336E-3  
 2.049200000000000E10   -5.206692406194815E-3   3.460694826878761E-3  
 2.049400000000000E10   -4.388763700881450E-3   4.237104608423099E-3  
 2.049600000000000E10   -3.499961069456733E-3   4.743057099363891E-3  
 2.049800000000000E10   -2.657697763133013E-3   5.024188525836778E-3  
 2.050000000000000E10   -1.891330982410236E-3   5.206243669683183E-3  
 2.050200000000000E10   -1.257412051842695E-3   5.412068610834610E-3  
 2.050400000000000E10   -5.450358463007565E-4   5.808471090100267E-3  
 2.050600000000000E10    4.979106176415247E-4   6.123892632689946E-3  
 2.050800000000000E10    1.733914691576701E-3   6.075637250249524E-3  
 2.051000000000000E10    2.898455396887370E-3   5.656818479851441E-3  
 2.051200000000000E10    3.962102793898071E-3   5.030751243662933E-3  
 2.051400000000000E10    4.912207561668996E-3   4.169571434437657E-3  
 2.051600000000000E10    5.540900475975378E-3   3.058449507004931E-3  
 2.051800000000000E10    5.814604155862365E-3   1.944880816473566E-3  
 2.052000000000000E10    5.948221888418715E-3   9.404353948983281E-4  
 2.052200000000000E10    6.054411466592420E-3  -8.647994149718379E-5  
 2.052400000000000E10    5.975006510400111E-3  -1.240160897826400E-3  
 2.052600000000000E10    5.518010311564546E-3  -2.386287674282273E-3  
 2.052800000000000E10    4.770970064635671E-3  -3.239430483323312E-3  
 2.053000000000000E10    3.982249742235851E-3  -3.820887127372505E-3  
 2.053200000000000E10    3.220858166392878E-3  -4.254556416862215E-3  
 2.053400000000000E10    2.495561143835631E-3  -4.521373477962446E-3  
 2.053600000000000E10    1.857071361358857E-3  -4.683774623851228E-3  
 2.053800000000000E10    1.245065817075420E-3  -4.863037479931518E-3  
 2.054000000000000E10    6.404635482863748E-4  -5.062584211444291E-3  
 2.054200000000000E10   -3.534423310178057E-5  -5.351465032531770E-3  
 2.054400000000000E10   -9.630410274074239E-4  -5.610184388845874E-3  
 2.054600000000000E10   -2.155256972153798E-3  -5.654899667263727E-3  
 2.054800000000000E10   -3.522149091701449E-3  -5.268909215968006E-3  
 2.055000000000000E10   -4.750516207502908E-3  -4.306092026639624E-3  
 2.055200000000000E10   -5.527841022419546E-3  -3.019963911081702E-3  
 2.055400000000000E10   -5.800883152837699E-3  -1.678641133849728E-3  
 2.055600000000000E10   -5.705960363210966E-3  -4.501809168259110E-4  
