#  HZ   S   RI   R     50.00 
! Rohde & Schwarz ZVA40 4Ports - Version 3.90 - 1145.1110k42 SN: 100403
! Date: 2023-10-03 12:50:17
! Measurement: S12 
! 
 2.000000000000000E10    4.081962888853418E-3   2.540629512319963E-3  
 2.000200000000000E10    4.485511186498183E-3   1.757135231013376E-3  
 2.000400000000000E10    4.682373548685401E-3   8.812840463145188E-4  
 2.000600000000000E10    4.683617640424659E-3   3.730365413637761E-5  
 2.000800000000000E10    4.553597920608742E-3  -7.632499414116698E-4  
 2.001000000000000E10    4.262968984053091E-3  -1.492792378283210E-3  
 2.001200000000000E10    3.922076723365872E-3  -2.095859799603070E-3  
 2.001400000000000E10    3.516468650626916E-3  -2.738986405785437E-3  
 2.001600000000000E10    2.845161482346831E-3  -3.306330664566271E-3  
 2.001800000000000E10    2.109835372754821E-3  -3.528149522565030E-3  
 2.002000000000000E10    1.556559060527771E-3  -3.555549619098505E-3  
 2.002200000000000E10    1.091583916503522E-3  -3.600950439081149E-3  
 2.002400000000000E10    7.156906951287832E-4  -3.692329110991624E-3  
 2.002600000000000E10    3.375061798444087E-4  -3.884244373896057E-3  
 2.002800000000000E10   -1.832240595157836E-4  -4.135031477306729E-3  
 2.003000000000000E10   -8.931613734198944E-4  -4.260558307308843E-3  
 2.003200000000000E10   -1.678710307546512E-3  -4.189319960359070E-3  
 2.003400000000000E10   -2.517428076653569E-3  -3.945872480808585E-3  
 2.003600000000000E10   -3.392358500234507E-3  -3.436528741278582E-3  
 2.003800000000000E10   -4.073949358253568E-3  -2.588519645440910E-3  
 2.004000000000000E10   -4.356314031476224E-3  -1.619399150109126E-3  
 2.004200000000000E10   -4.333994989455851E-3  -7.668072982967177E-4  
 2.004400000000000E10   -4.164041295923569E-3  -8.844992353934451E-5  
 2.004600000000000E10   -4.035798919007735E-3   3.803139530915630E-4  
 2.004800000000000E10   -4.057870142989689E-3   8.244189321649848E-4  
 2.005000000000000E10   -4.070469264492945E-3   1.482294505910465E-3  
 2.005200000000000E10   -3.830790114416569E-3   2.244579597134833E-3  
 2.005400000000000E10   -3.386541821614460E-3   2.933640421057742E-3  
 2.005600000000000E10   -2.808049942056338E-3   3.512636499686374E-3  
 2.005800000000000E10   -2.164311827746807E-3   3.953568680487849E-3  
 2.006000000000000E10   -1.412653967876125E-3   4.296769732954326E-3  
 2.006200000000000E10   -5.754027558766582E-4   4.423227902777769E-3  
 2.006400000000000E10    2.165375187393727E-4   4.323666415142793E-3  
 2.006600000000000E10    8.408107031654154E-4   4.140388703456632E-3  
 2.006800000000000E10    1.346001742166226E-3   3.991321091436679E-3  
 2.007000000000000E10    1.933151480948760E-3   3.904821299430397E-3  
 2.007200000000000E10    2.731804770452005E-3   3.626530731303825E-3  
 2.007400000000000E10    3.456474842365694E-3   2.989491922091003E-3  
 2.007600000000000E10    3.881809094713794E-3   2.231870312243700E-3  
 2.007800000000000E10    4.107622395235080E-3   1.479024421078739E-3  
 2.008000000000000E10    4.179193862472420E-3   7.717683264571760E-4  
 2.008200000000000E10    4.143984746877795E-3   7.961874884872318E-5  
 2.008400000000000E10    4.001488891878615E-3  -5.463088153326816E-4  
 2.008600000000000E10    3.872468119004259E-3  -1.051945566561901E-3  
 2.008800000000000E10    3.765045328893596E-3  -1.551028526457096E-3  
 2.009000000000000E10    3.584619154463764E-3  -2.090364634231837E-3  
 2.009200000000000E10    3.353327788688519E-3  -2.688079028976737E-3  
 2.009400000000000E10    2.949877219550588E-3  -3.396747263010454E-3  
 2.009600000000000E10    2.328023004035155E-3  -4.007499061386895E-3  
 2.009800000000000E10    1.556885277817923E-3  -4.434381853099224E-3  
 2.010000000000000E10    6.885489112594062E-4  -4.640732460689766E-3  
 2.010200000000000E10   -1.445836766193949E-4  -4.678058851924208E-3  
 2.010400000000000E10   -9.985025454726485E-4  -4.629815135289123E-3  
 2.010600000000000E10   -1.840172443297451E-3  -4.452466016152392E-3  
 2.010800000000000E10   -2.665013626769737E-3  -4.090159803766896E-3  
 2.011000000000000E10   -3.385580420770027E-3  -3.457362513506302E-3  
 2.011200000000000E10   -3.900889471104301E-3  -2.696849034961175E-3  
 2.011400000000000E10   -4.274635403244584E-3  -1.900067699521228E-3  
 2.011600000000000E10   -4.474854062276859E-3  -1.095439522975573E-3  
 2.011800000000000E10   -4.489922637326851E-3  -2.747237988471709E-4  
 2.012000000000000E10   -4.266132255671202E-3   4.591212286700116E-4  
 2.012200000000000E10   -4.006200332056594E-3   1.020381595784178E-3  
 2.012400000000000E10   -3.836957996504175E-3   1.513686587309672E-3  
 2.012600000000000E10   -3.688667348965451E-3   2.031647643350341E-3  
 2.012800000000000E10   -3.466230679165435E-3   2.582648915618106E-3  
 2.013000000000000E10   -3.141898153073810E-3   3.190475981682539E-3  
 2.013200000000000E10   -2.620030832649382E-3   3.859836185626962E-3  
 2.013400000000000E10   -1.844095764681697E-3   4.422505455160583E-3  
 2.013600000000000E10   -9.521162051155613E-4   4.714092412204655E-3  
 2.013800000000000E10   -1.212626240750844E-4   4.738571881144136E-3  
 2.014000000000000E10    6.479198173447341E-4   4.604564945179004E-3  
 2.014200000000000E10    1.345446656665041E-3   4.482604701209952E-3  
 2.014400000000000E10    2.111971688767274E-3   4.360272273145341E-3  
 2.014600000000000E10    2.923789977406462E-3   4.083683645283736E-3  
 2.014800000000000E10    3.719179960036720E-3   3.571448951131768E-3  
 2.015000000000000E10    4.410464385593380E-3   2.837349721058100E-3  
 2.015200000000000E10    4.945517793573715E-3   1.889552472642175E-3  
 2.015400000000000E10    5.189417568207891E-3   8.495676965038811E-4  
 2.015600000000000E10    5.134856104160901E-3  -1.375388224173717E-4  
 2.015800000000000E10    4.844528657418711E-3  -9.705793884306872E-4  
 2.016000000000000E10    4.471630358171684E-3  -1.582683960872668E-3  
 2.016200000000000E10    4.229767661955622E-3  -2.098598474360727E-3  
 2.016400000000000E10    4.132927740337673E-3  -2.683102230851849E-3  
 2.016600000000000E10    3.951762078536882E-3  -3.493640649442872E-3  
 2.016800000000000E10    3.408939198211388E-3  -4.427977044273307E-3  
 2.017000000000000E10    2.470472267035533E-3  -5.213300059377044E-3  
 2.017200000000000E10    1.320256334212091E-3  -5.675715256344390E-3  
 2.017400000000000E10    1.724688837485802E-4  -5.837552835819899E-3  
 2.017600000000000E10   -9.621376930563540E-4  -5.732085400571426E-3  
 2.017800000000000E10   -1.975175325275848E-3  -5.338351242244244E-3  
 2.018000000000000E10   -2.839105764265966E-3  -4.793352930358163E-3  
 2.018200000000000E10   -3.512363027160367E-3  -4.177267163026113E-3  
 2.018400000000000E10   -4.038063671301913E-3  -3.656645288208017E-3  
 2.018600000000000E10   -4.653139574522222E-3  -3.155327893586623E-3  
 2.018800000000000E10   -5.339322542702711E-3  -2.372773019252001E-3  
 2.019000000000000E10   -5.844185749689739E-3  -1.310052919305033E-3  
 2.019200000000000E10   -6.056036851886246E-3  -1.087091309104667E-4  
 2.019400000000000E10   -5.923421484314734E-3   1.073629530664120E-3  
 2.019600000000000E10   -5.502264515531284E-3   2.061668145297855E-3  
 2.019800000000000E10   -4.944945771799044E-3   2.879213947043927E-3  
 2.020000000000000E10   -4.375107413916677E-3   3.556651968715920E-3  
 2.020200000000000E10   -3.889938074819468E-3   4.194295051059237E-3  
 2.020400000000000E10   -3.307528164306725E-3   4.940409006343948E-3  
 2.020600000000000E10   -2.389414537767018E-3   5.613360174552159E-3  
 2.020800000000000E10   -1.297298374723781E-3   6.002557998592104E-3  
 2.021000000000000E10   -1.391260954766983E-4   6.187664224179807E-3  
 2.021200000000000E10    1.095658620922930E-3   6.157503394341029E-3  
 2.021400000000000E10    2.305770232514651E-3   5.777056121991741E-3  
 2.021600000000000E10    3.280410594824288E-3   5.021618179011125E-3  
 2.021800000000000E10    3.905713954871452E-3   4.127453064063082E-3  
 2.022000000000000E10    4.305803665408382E-3   3.356544464757597E-3  
 2.022200000000000E10    4.655395530992085E-3   2.679261206476777E-3  
 2.022400000000000E10    4.902163244507931E-3   2.001999256511529E-3  
 2.022600000000000E10    5.060705287313021E-3   1.348982672896926E-3  
 2.022800000000000E10    5.292424225006943E-3   7.562473399081717E-4  
 2.023000000000000E10    5.658050464397229E-3  -3.366219634362670E-5  
 2.023200000000000E10    5.812703700805152E-3  -1.172160604727213E-3  
 2.023400000000000E10    5.537888466346044E-3  -2.288898910154347E-3  
 2.023600000000000E10    5.018420000043181E-3  -3.247574057981924E-3  
 2.023800000000000E10    4.322702892952496E-3  -4.098621352265279E-3  
 2.024000000000000E10    3.501684698103755E-3  -4.807518208744350E-3  
 2.024200000000000E10    2.558134539328792E-3  -5.322718941089180E-3  
 2.024400000000000E10    1.561445002961490E-3  -5.592265269822545E-3  
 2.024600000000000E10    6.015735432609089E-4  -5.679120568351613E-3  
 2.024800000000000E10   -3.497961108762496E-4  -5.650926105402135E-3  
 2.025000000000000E10   -1.314927384050356E-3  -5.476302622507016E-3  
 2.025200000000000E10   -2.203535814597099E-3  -5.108574060378252E-3  
 2.025400000000000E10   -2.920275924865295E-3  -4.561077251478479E-3  
 2.025600000000000E10   -3.476493871184412E-3  -3.954321784139784E-3  
 2.025800000000000E10   -3.913944940669118E-3  -3.378240865896698E-3  
 2.026000000000000E10   -4.346669599827793E-3  -2.872965815994475E-3  
 2.026200000000000E10   -4.807501375951149E-3  -2.315202150148926E-3  
 2.026400000000000E10   -5.286717770138273E-3  -1.611075273507999E-3  
 2.026600000000000E10   -5.648300172416149E-3  -6.276218617265976E-4  
 2.026800000000000E10   -5.699342496141241E-3   4.627335616128727E-4  
 2.027000000000000E10   -5.541988458760359E-3   1.505990249656693E-3  
 2.027200000000000E10   -5.166942081241696E-3   2.450403033031358E-3  
 2.027400000000000E10   -4.623721491683414E-3   3.264371900715762E-3  
 2.027600000000000E10   -3.935810230258439E-3   3.955300716269348E-3  
 2.027800000000000E10   -3.194649013932105E-3   4.514645405665593E-3  
 2.028000000000000E10   -2.418512849275161E-3   4.953425532827775E-3  
 2.028200000000000E10   -1.597349544883602E-3   5.234527798300541E-3  
 2.028400000000000E10   -7.706850517058264E-4   5.383785641579717E-3  
 2.028600000000000E10    9.269756777838567E-5   5.483005851231240E-3  
 2.028800000000000E10    1.043712565054496E-3   5.428578980542996E-3  
 2.029000000000000E10    1.962797888727100E-3   5.226443590665306E-3  
 2.029200000000000E10    2.853941638022661E-3   4.880942059335886E-3  
 2.029400000000000E10    3.718754888891623E-3   4.298312313578748E-3  
 2.029600000000000E10    4.423228126985056E-3   3.493660647008155E-3  
 2.029800000000000E10    4.916671973963579E-3   2.623165957629681E-3  
 2.030000000000000E10    5.208495555928460E-3   1.741664945492866E-3  
 2.030200000000000E10    5.323754675272439E-3   9.101916070061702E-4  
 2.030400000000000E10    5.420398053333716E-3   1.194859155307144E-4  
 2.030600000000000E10    5.493450495931838E-3  -7.941400744365874E-4  
 2.030800000000000E10    5.379363859969157E-3  -1.854541948651551E-3  
 2.031000000000000E10    4.976323478061845E-3  -2.927788093479143E-3  
 2.031200000000000E10    4.287435121282384E-3  -3.877940389362199E-3  
 2.031400000000000E10    3.288441803306342E-3  -4.663973270605008E-3  
 2.031600000000000E10    2.098823371515782E-3  -5.029065741433038E-3  
 2.031800000000000E10    1.073655715488173E-3  -4.883583876545783E-3  
 2.032000000000000E10    4.780367491076943E-4  -4.621452100023077E-3  
 2.032200000000000E10    4.831348848744743E-5  -4.534434820352882E-3  
 2.032400000000000E10   -4.721752225628330E-4  -4.585904707373293E-3  
 2.032600000000000E10   -1.139327305955467E-3  -4.602084781422660E-3  
 2.032800000000000E10   -1.896348031651643E-3  -4.520148987433425E-3  
 2.033000000000000E10   -2.689138658482720E-3  -4.300388611025281E-3  
 2.033200000000000E10   -3.533918514019914E-3  -3.868855380763611E-3  
 2.033400000000000E10   -4.305975201229255E-3  -3.123140885253196E-3  
 2.033600000000000E10   -4.576395231264610E-3  -2.683541340822424E-3  
 2.033800000000000E10   -5.136918414522101E-3  -1.376498555247155E-3  
 2.034000000000000E10   -5.355752607876504E-3  -4.607811128220487E-4  
 2.034200000000000E10   -5.389061290770769E-3   5.217540343033357E-4  
 2.034400000000000E10   -5.220514342740731E-3   1.533715735638032E-3  
 2.034600000000000E10   -4.872137646156329E-3   2.549961467997896E-3  
 2.034800000000000E10   -4.277196160897062E-3   3.535346886901945E-3  
 2.035000000000000E10   -3.346031221250694E-3   4.295530970449802E-3  
 2.035200000000000E10   -2.234332832611270E-3   4.704047908523569E-3  
 2.035400000000000E10   -1.177375485120272E-3   4.727198104201644E-3  
 2.035600000000000E10   -4.217412271019485E-4   4.500667478337333E-3  
 2.035800000000000E10    4.289170007083432E-5   4.280340633596536E-3  
 2.036000000000000E10    4.189150640740992E-4   4.222708029879465E-3  
 2.036200000000000E10    9.448270904141721E-4   4.243245882982458E-3  
 2.036400000000000E10    1.550247151128672E-3   4.198594191284092E-3  
 2.036600000000000E10    2.240076195448637E-3   4.139765924601644E-3  
 2.036800000000000E10    3.102835285028926E-3   3.923111905654272E-3  
 2.037000000000000E10    3.977873310860661E-3   3.326926544239676E-3  
 2.037200000000000E10    4.640925227215997E-3   2.439314396017128E-3  
 2.037400000000000E10    5.049151954827486E-3   1.448563088800896E-3  
 2.037600000000000E10    5.184757264537944E-3   4.498010406408598E-4  
 2.037800000000000E10    5.081794466133472E-3  -4.559634274941077E-4  
 2.038000000000000E10    4.828848893305770E-3  -1.259485880533854E-3  
 2.038200000000000E10    4.538528931637606E-3  -1.946694208998923E-3  
 2.038400000000000E10    4.281151953532741E-3  -2.625743815399431E-3  
 2.038600000000000E10    3.959607350191585E-3  -3.413669816735718E-3  
 2.038800000000000E10    3.353091387974996E-3  -4.251495296894401E-3  
 2.039000000000000E10    2.409521447218679E-3  -4.894172962479018E-3  
 2.039200000000000E10    1.298190581750263E-3  -5.237600490174912E-3  
 2.039400000000000E10    2.832534470750640E-4  -5.245744837103068E-3  
 2.039600000000000E10   -5.421608091435500E-4  -5.115574725938064E-3  
 2.039800000000000E10   -1.294707607788344E-3  -4.872781241795531E-3  
 2.040000000000000E10   -1.939985952857468E-3  -4.548331032748577E-3  
 2.040200000000000E10   -2.501911906249546E-3  -4.312034972287991E-3  
 2.040400000000000E10   -3.241690263773005E-3  -4.121705424040556E-3  
 2.040600000000000E10   -4.101603981797343E-3  -3.692831723364416E-3  
 2.040800000000000E10   -4.927756144078794E-3  -2.961420954239590E-3  
 2.041000000000000E10   -5.578978728778937E-3  -1.875821173329044E-3  
 2.041200000000000E10   -5.892517666021984E-3  -6.397180959875524E-4  
 2.041400000000000E10   -5.878358510219390E-3   5.217582004627696E-4  
 2.041600000000000E10   -5.613335339283503E-3   1.574623247574049E-3  
 2.041800000000000E10   -5.159966112976826E-3   2.493869754727240E-3  
 2.042000000000000E10   -4.621796585895397E-3   3.297186792931624E-3  
 2.042200000000000E10   -3.977256516615550E-3   4.055089834663603E-3  
 2.042400000000000E10   -3.222421380794711E-3   4.670966813271798E-3  
 2.042600000000000E10   -2.398457110824961E-3   5.131354331280347E-3  
 2.042800000000000E10   -1.465056389052835E-3   5.447839283280903E-3  
 2.043000000000000E10   -4.506472659057990E-4   5.612200057065047E-3  
 2.043200000000000E10    5.576641566154583E-4   5.587128749876111E-3  
 2.043400000000000E10    1.476555127064111E-3   5.357742068116313E-3  
 2.043600000000000E10    2.215928423942791E-3   5.044919300686431E-3  
 2.043800000000000E10    2.951677862761750E-3   4.708199882534920E-3  
 2.044000000000000E10    3.751903996561413E-3   4.253427480795870E-3  
 2.044200000000000E10    4.515563862191306E-3   3.658976897390353E-3  
 2.044400000000000E10    5.199297348520270E-3   2.946240387650000E-3  
 2.044600000000000E10    5.811504760964050E-3   2.004874749454084E-3  
 2.044800000000000E10    6.178437283745519E-3   7.815010332571413E-4  
 2.045000000000000E10    6.241889963685364E-3  -5.507080026695299E-4  
 2.045200000000000E10    5.958903891344866E-3  -1.856113076899891E-3  
 2.045400000000000E10    5.247845521403684E-3  -2.950429812901550E-3  
 2.045600000000000E10    4.358014902444902E-3  -3.582720549915124E-3  
 2.045800000000000E10    3.594204973153495E-3  -3.929371574755621E-3  
 2.046000000000000E10    2.999723509505943E-3  -4.211975365049310E-3  
 2.046200000000000E10    2.519326267281065E-3  -4.560429292420547E-3  
 2.046400000000000E10    1.971605475302096E-3  -4.968458096738216E-3  
 2.046600000000000E10    1.287605777313864E-3  -5.336864627207872E-3  
 2.046800000000000E10    4.002743031984816E-4  -5.664953496307135E-3  
 2.047000000000000E10   -6.984536195415315E-4  -5.840499937120412E-3  
 2.047200000000000E10   -1.821676277796980E-3  -5.699208575404353E-3  
 2.047400000000000E10   -2.798818215658820E-3  -5.259689185078498E-3  
 2.047600000000000E10   -3.560600198667359E-3  -4.697545897215605E-3  
 2.047800000000000E10   -4.241305886319390E-3  -4.126827094565940E-3  
 2.048000000000000E10   -4.987725746576434E-3  -3.496294410002453E-3  
 2.048200000000000E10   -5.740127250276231E-3  -2.669008655680551E-3  
 2.048400000000000E10   -6.313976797240753E-3  -1.585863793648228E-3  
 2.048600000000000E10   -6.582172690994211E-3  -2.961828291450662E-4  
 2.048800000000000E10   -6.474988241852434E-3   1.125812754724865E-3  
 2.049000000000000E10   -5.996814963442308E-3   2.366064754487188E-3  
 2.049200000000000E10   -5.329671747016687E-3   3.350023714894498E-3  
 2.049400000000000E10   -4.533377062115405E-3   4.131796735304374E-3  
 2.049600000000000E10   -3.626900173171804E-3   4.650545340997202E-3  
 2.049800000000000E10   -2.790142566448561E-3   4.950439540186415E-3  
 2.050000000000000E10   -2.079407546531271E-3   5.200405363683348E-3  
 2.050200000000000E10   -1.483759829877979E-3   5.474839756196297E-3  
 2.050400000000000E10   -7.601986699565142E-4   5.877954333468721E-3  
 2.050600000000000E10    3.240170367967545E-4   6.148522426546725E-3  
 2.050800000000000E10    1.570063677650911E-3   6.089126104833904E-3  
 2.051000000000000E10    2.737906037105455E-3   5.733081105130691E-3  
 2.051200000000000E10    3.800137934309465E-3   5.162701769559472E-3  
 2.051400000000000E10    4.720844845804904E-3   4.339246182805963E-3  
 2.051600000000000E10    5.373712232405389E-3   3.287806848271026E-3  
 2.051800000000000E10    5.733364692854661E-3   2.217504213115683E-3  
 2.052000000000000E10    5.989634000730736E-3   1.257014491043433E-3  
 2.052200000000000E10    6.180086656025163E-3   2.167215128860402E-4  
 2.052400000000000E10    6.120435565848043E-3  -9.748639832078310E-4  
 2.052600000000000E10    5.653067405715034E-3  -2.160533124374019E-3  
 2.052800000000000E10    4.936852354418349E-3  -3.053389506897441E-3  
 2.053000000000000E10    4.204910610698992E-3  -3.668966737610323E-3  
 2.053200000000000E10    3.505503396607108E-3  -4.152231970457016E-3  
 2.053400000000000E10    2.784371669231742E-3  -4.500905672709147E-3  
 2.053600000000000E10    2.084719387952377E-3  -4.712565284636286E-3  
 2.053800000000000E10    1.457137111746879E-3  -4.905656342291171E-3  
 2.054000000000000E10    8.852661746830024E-4  -5.125502055441893E-3  
 2.054200000000000E10    2.608195343917167E-4  -5.454668585486986E-3  
 2.054400000000000E10   -6.694828043691815E-4  -5.768889130127651E-3  
 2.054600000000000E10   -1.913762220216018E-3  -5.860823706758243E-3  
 2.054800000000000E10   -3.338567524527511E-3  -5.523220446236708E-3  
 2.055000000000000E10   -4.626733095695576E-3  -4.618633779938575E-3  
 2.055200000000000E10   -5.461034623699056E-3  -3.351391594925965E-3  
 2.055400000000000E10   -5.798400776391781E-3  -1.996153422320883E-3  
 2.055600000000000E10   -5.778585405399403E-3  -7.592181575967482E-4  
