#  HZ   S   RI   R     50.00 
! Rohde & Schwarz ZVA40 4Ports - Version 3.90 - 1145.1110k42 SN: 100403
! Date: 2023-10-03 12:50:54
! Measurement: S12 
! 
 2.000000000000000E10    3.514665127214459E-3   9.073405785279141E-4  
 2.000200000000000E10    3.651012563043171E-3   2.025628065759384E-4  
 2.000400000000000E10    3.597416087157197E-3  -5.291246106261734E-4  
 2.000600000000000E10    3.171121727468239E-3  -1.092296146520379E-3  
 2.000800000000000E10    2.792261364110918E-3  -1.264179362570522E-3  
 2.001000000000000E10    2.592207889796959E-3  -1.534428227589362E-3  
 2.001200000000000E10    2.318115154695180E-3  -1.846878108120075E-3  
 2.001400000000000E10    2.253844497587394E-3  -2.342417870682699E-3  
 2.001600000000000E10    1.696235120848373E-3  -2.880398701462481E-3  
 2.001800000000000E10    9.259457173929724E-4  -3.088440616718597E-3  
 2.002000000000000E10    3.073838004773414E-4  -2.942185297056481E-3  
 2.002200000000000E10   -1.554283770491129E-4  -2.759987134831372E-3  
 2.002400000000000E10   -3.780975772921618E-4  -2.689375016079457E-3  
 2.002600000000000E10   -6.100780866054941E-4  -2.598569340383013E-3  
 2.002800000000000E10   -9.296577729940140E-4  -2.521111989928479E-3  
 2.003000000000000E10   -1.083042675249831E-3  -2.340988609594879E-3  
 2.003200000000000E10   -1.247063261905202E-3  -2.358598401769996E-3  
 2.003400000000000E10   -1.739472150802612E-3  -2.229474691881074E-3  
 2.003600000000000E10   -2.328419557738084E-3  -2.241812586025508E-3  
 2.003800000000000E10   -2.852059012554862E-3  -1.657099682941205E-3  
 2.004000000000000E10   -3.355657595589205E-3  -1.076909454746379E-3  
 2.004200000000000E10   -3.428910031086869E-3  -4.010447538112879E-4  
 2.004400000000000E10   -3.234765751080381E-3   1.699681484347416E-4  
 2.004600000000000E10   -3.172291011584026E-3   7.434193417568454E-4  
 2.004800000000000E10   -3.051069625480860E-3   1.325284199858154E-3  
 2.005000000000000E10   -2.957247361471808E-3   1.815963639981217E-3  
 2.005200000000000E10   -2.663616487687385E-3   2.399752571902894E-3  
 2.005400000000000E10   -1.912045003673821E-3   2.928624731592007E-3  
 2.005600000000000E10   -1.309499562786961E-3   3.199028696312949E-3  
 2.005800000000000E10   -6.729868495043505E-4   3.232616189591311E-3  
 2.006000000000000E10   -4.859960258558932E-5   3.280350929816013E-3  
 2.006200000000000E10    5.619492590927555E-4   3.205039288365731E-3  
 2.006400000000000E10    9.510046091034182E-4   2.784398815560120E-3  
 2.006600000000000E10    1.142880836225770E-3   2.638223210211706E-3  
 2.006800000000000E10    1.448665340258567E-3   2.449474875228825E-3  
 2.007000000000000E10    1.792222728168040E-3   2.475940363688602E-3  
 2.007200000000000E10    2.359612254184430E-3   2.223443740082008E-3  
 2.007400000000000E10    2.906389224032561E-3   1.739530039399311E-3  
 2.007600000000000E10    3.477940663557362E-3   1.083373443516730E-3  
 2.007800000000000E10    3.493024708910122E-3   3.991938345414518E-4  
 2.008000000000000E10    3.396545821386908E-3  -3.281021779036598E-4  
 2.008200000000000E10    3.143425125421749E-3  -9.913974014731746E-4  
 2.008400000000000E10    2.473011759489223E-3  -1.478519851203870E-3  
 2.008600000000000E10    2.139396879270121E-3  -1.719857967044744E-3  
 2.008800000000000E10    1.844824024441618E-3  -1.563315973962071E-3  
 2.009000000000000E10    1.799787709454972E-3  -1.640304707473627E-3  
 2.009200000000000E10    1.927371878452875E-3  -1.991840312257409E-3  
 2.009400000000000E10    1.872105558437330E-3  -2.759240421087102E-3  
 2.009600000000000E10    1.339175721147546E-3  -3.152833561654444E-3  
 2.009800000000000E10    7.149225321983171E-4  -3.384551386935292E-3  
 2.010000000000000E10    5.978365543005238E-5  -3.442385656483196E-3  
 2.010200000000000E10   -5.172478957791571E-4  -3.417384888355931E-3  
 2.010400000000000E10   -1.419376724192666E-3  -3.444565684293156E-3  
 2.010600000000000E10   -2.258748385227389E-3  -3.053810663038383E-3  
 2.010800000000000E10   -2.861519809812308E-3  -2.589663844210683E-3  
 2.011000000000000E10   -3.306317358726153E-3  -1.937712719491511E-3  
 2.011200000000000E10   -3.542490415620032E-3  -1.158432379640915E-3  
 2.011400000000000E10   -3.575190160147570E-3  -2.272462691137291E-4  
 2.011600000000000E10   -3.294117576270192E-3   5.743211950175466E-4  
 2.011800000000000E10   -3.058230573380436E-3   1.168429306104642E-3  
 2.012000000000000E10   -2.683015893799840E-3   1.641287934035063E-3  
 2.012200000000000E10   -2.314520960984131E-3   1.942931424343476E-3  
 2.012400000000000E10   -1.994733922873383E-3   2.183404199227139E-3  
 2.012600000000000E10   -1.683300283427040E-3   2.405310696404842E-3  
 2.012800000000000E10   -1.389337957974661E-3   2.632653720125004E-3  
 2.013000000000000E10   -1.042359275743365E-3   2.598584405387993E-3  
 2.013200000000000E10   -6.304428895452508E-4   2.825801747989048E-3  
 2.013400000000000E10   -2.352099195208953E-4   2.974382010978406E-3  
 2.013600000000000E10    2.325302646366052E-4   2.978095500212577E-3  
 2.013800000000000E10    5.833214408657686E-4   2.987163926095323E-3  
 2.014000000000000E10    1.012235811989134E-3   3.072890884208459E-3  
 2.014200000000000E10    1.485813611738936E-3   3.044257026717619E-3  
 2.014400000000000E10    2.115131968080446E-3   2.903071551204280E-3  
 2.014600000000000E10    2.887810063030985E-3   2.601153967488144E-3  
 2.014800000000000E10    3.455750721817215E-3   2.049739330282642E-3  
 2.015000000000000E10    3.898709167346911E-3   1.253697331304903E-3  
 2.015200000000000E10    4.081910743412597E-3   1.655480063399645E-4  
 2.015400000000000E10    3.811984736886290E-3  -8.015696593146359E-4  
 2.015600000000000E10    3.321170651664337E-3  -1.519872794031269E-3  
 2.015800000000000E10    2.648784416831202E-3  -1.842522967813744E-3  
 2.016000000000000E10    2.161690594490480E-3  -2.076482572765263E-3  
 2.016200000000000E10    1.831121095973585E-3  -2.193070844643646E-3  
 2.016400000000000E10    1.668235364680489E-3  -2.338220727526479E-3  
 2.016600000000000E10    1.528940805992870E-3  -2.691594142190837E-3  
 2.016800000000000E10    1.199959272829195E-3  -3.158573147461370E-3  
 2.017000000000000E10    6.550465693214426E-4  -3.543503637451472E-3  
 2.017200000000000E10    1.920948868953727E-4  -3.674095737989302E-3  
 2.017400000000000E10   -5.951191080923848E-4  -3.706205265458536E-3  
 2.017600000000000E10   -1.304120428998161E-3  -3.642913221416098E-3  
 2.017800000000000E10   -2.024459775485513E-3  -3.734882455319166E-3  
 2.018000000000000E10   -2.626350037408648E-3  -3.261353941289364E-3  
 2.018200000000000E10   -2.998486945957498E-3  -2.684347064199824E-3  
 2.018400000000000E10   -3.273315063712222E-3  -2.236533246037585E-3  
 2.018600000000000E10   -3.669660383214553E-3  -1.847103216547381E-3  
 2.018800000000000E10   -4.356651342715379E-3  -1.084927189232851E-3  
 2.019000000000000E10   -4.611649412523818E-3  -4.236098848869673E-5  
 2.019200000000000E10   -4.532228862107904E-3   1.076576558666097E-3  
 2.019400000000000E10   -3.959793700940080E-3   2.060737624695456E-3  
 2.019600000000000E10   -3.443700916789197E-3   2.720465754262276E-3  
 2.019800000000000E10   -2.800889537428264E-3   2.870542669875755E-3  
 2.020000000000000E10   -2.341916982981343E-3   3.141844602025770E-3  
 2.020200000000000E10   -1.914318711324423E-3   3.420840690119400E-3  
 2.020400000000000E10   -1.822966564860609E-3   3.891189013504321E-3  
 2.020600000000000E10   -1.167435358554401E-3   4.641178771163579E-3  
 2.020800000000000E10   -2.716927400022676E-4   4.830564630942212E-3  
 2.021000000000000E10    6.325806585933876E-4   4.845436438228246E-3  
 2.021200000000000E10    1.599864689288316E-3   4.721413452730135E-3  
 2.021400000000000E10    2.556350039042257E-3   4.271168537713864E-3  
 2.021600000000000E10    3.281005684079396E-3   3.510223046221116E-3  
 2.021800000000000E10    3.660808731284407E-3   2.672620980000055E-3  
 2.022000000000000E10    3.791819257592715E-3   1.968111075391924E-3  
 2.022200000000000E10    3.890574530318932E-3   1.397602682657264E-3  
 2.022400000000000E10    3.957232520743101E-3   9.024175513466752E-4  
 2.022600000000000E10    4.013219261886898E-3   4.720229297634905E-4  
 2.022800000000000E10    4.165515803766472E-3   4.957662410258005E-5  
 2.023000000000000E10    4.441055624435346E-3  -5.869789036094316E-4  
 2.023200000000000E10    4.475666951664068E-3  -1.526004604615823E-3  
 2.023400000000000E10    4.128299308595835E-3  -2.419443619954918E-3  
 2.023600000000000E10    3.616059638766780E-3  -3.134839417826799E-3  
 2.023800000000000E10    2.974081905213772E-3  -3.722263250017057E-3  
 2.024000000000000E10    2.262039774063009E-3  -4.173362506898466E-3  
 2.024200000000000E10    1.483686509783621E-3  -4.512773723238045E-3  
 2.024400000000000E10    6.786835772261300E-4  -4.687592939094262E-3  
 2.024600000000000E10   -1.115024287072528E-4  -4.699935791669069E-3  
 2.024800000000000E10   -9.171558518169656E-4  -4.607702088024882E-3  
 2.025000000000000E10   -1.737015395149313E-3  -4.350363863287150E-3  
 2.025200000000000E10   -2.454105255849384E-3  -3.901754592165903E-3  
 2.025400000000000E10   -3.008352290769970E-3  -3.304696046850748E-3  
 2.025600000000000E10   -3.334600926825295E-3  -2.673013920516328E-3  
 2.025800000000000E10   -3.507630718458031E-3  -2.134408568963409E-3  
 2.026000000000000E10   -3.715331967989052E-3  -1.712219944844643E-3  
 2.026200000000000E10   -4.037666462223840E-3  -1.291560177277360E-3  
 2.026400000000000E10   -4.417271508524816E-3  -7.245860631681152E-4  
 2.026600000000000E10   -4.666878531376521E-3   9.999922664334281E-5  
 2.026800000000000E10   -4.621541834677812E-3   1.039078002105709E-3  
 2.027000000000000E10   -4.361596838053730E-3   1.915065843301515E-3  
 2.027200000000000E10   -3.885140418316480E-3   2.695577727906682E-3  
 2.027400000000000E10   -3.264492662209604E-3   3.293644007364358E-3  
 2.027600000000000E10   -2.588721975270245E-3   3.690033193884625E-3  
 2.027800000000000E10   -1.931012383903618E-3   3.965878790175475E-3  
 2.028000000000000E10   -1.276332027002893E-3   4.204712445951171E-3  
 2.028200000000000E10   -5.994342629694277E-4   4.361427251111579E-3  
 2.028400000000000E10    6.524783920111887E-5   4.416176273177068E-3  
 2.028600000000000E10    7.745091743008407E-4   4.419316951599387E-3  
 2.028800000000000E10    1.572146093369358E-3   4.247387026057200E-3  
 2.029000000000000E10    2.267740390918874E-3   3.911334279648684E-3  
 2.029200000000000E10    2.904101421504662E-3   3.501973589192387E-3  
 2.029400000000000E10    3.491251781168912E-3   2.969366506914850E-3  
 2.029600000000000E10    3.951002722950998E-3   2.275375114684856E-3  
 2.029800000000000E10    4.248685565673644E-3   1.515841991123226E-3  
 2.030000000000000E10    4.413184433899544E-3   7.403846636104088E-4  
 2.030200000000000E10    4.432810091034131E-3   4.828563555747678E-5  
 2.030400000000000E10    4.443650185647938E-3  -5.949911439394649E-4  
 2.030600000000000E10    4.426895433829891E-3  -1.380514491487433E-3  
 2.030800000000000E10    4.201986499268701E-3  -2.285375699607863E-3  
 2.031000000000000E10    3.691425107212530E-3  -3.153688274323940E-3  
 2.031200000000000E10    2.949811078401076E-3  -3.856566570768203E-3  
 2.031400000000000E10    2.011318967022278E-3  -4.352949197507568E-3  
 2.031600000000000E10    9.288151567387914E-4  -4.471357584137609E-3  
 2.031800000000000E10    1.075617371868618E-5  -4.160927694842772E-3  
 2.032000000000000E10   -4.902127752925649E-4  -3.790024736965145E-3  
 2.032200000000000E10   -8.123067996671631E-4  -3.588086045864556E-3  
 2.032400000000000E10   -1.188677683886555E-3  -3.505125046811171E-3  
 2.032600000000000E10   -1.679697151606282E-3  -3.400777561452103E-3  
 2.032800000000000E10   -2.213711186346633E-3  -3.213584742129401E-3  
 2.033000000000000E10   -2.777958616476368E-3  -2.938538927722860E-3  
 2.033200000000000E10   -3.385970550071863E-3  -2.555518255879482E-3  
 2.033400000000000E10   -3.905780268488107E-3  -1.893828670425272E-3  
 2.033600000000000E10   -4.073436406475527E-3  -1.479457451582507E-3  
 2.033800000000000E10   -4.327525332983998E-3  -2.792840931323116E-4  
 2.034000000000000E10   -4.360794676122843E-3   4.912174017927438E-4  
 2.034200000000000E10   -4.259469298024973E-3   1.290587397913138E-3  
 2.034400000000000E10   -3.997729918747037E-3   2.082178955552755E-3  
 2.034600000000000E10   -3.585123215560560E-3   2.859965622149133E-3  
 2.034800000000000E10   -2.975099668320683E-3   3.613003365764464E-3  
 2.035000000000000E10   -2.106631079826642E-3   4.204074386507273E-3  
 2.035200000000000E10   -1.082018052262289E-3   4.450709007128522E-3  
 2.035400000000000E10   -8.132707465914859E-5   4.301177786180267E-3  
 2.035600000000000E10    6.691776302263693E-4   3.894797629780240E-3  
 2.035800000000000E10    1.076196100459331E-3   3.499313412855069E-3  
 2.036000000000000E10    1.363368040916545E-3   3.298239204687654E-3  
 2.036200000000000E10    1.771325624927327E-3   3.168366745942170E-3  
 2.036400000000000E10    2.241842121023823E-3   2.979130070242617E-3  
 2.036600000000000E10    2.759702227733754E-3   2.733132655352906E-3  
 2.036800000000000E10    3.357991567571407E-3   2.342741367303663E-3  
 2.037000000000000E10    3.918277427416158E-3   1.699777406260923E-3  
 2.037200000000000E10    4.213320315574055E-3   9.045192876968671E-4  
 2.037400000000000E10    4.317772850670197E-3   5.074239702985832E-5  
 2.037600000000000E10    4.214574945055777E-3  -8.125850473772046E-4  
 2.037800000000000E10    3.929139459850612E-3  -1.546455573083626E-3  
 2.038000000000000E10    3.521096332136680E-3  -2.153910549909429E-3  
 2.038200000000000E10    3.092211835017359E-3  -2.633670957207128E-3  
 2.038400000000000E10    2.706577397744965E-3  -3.078083016185298E-3  
 2.038600000000000E10    2.259535904697799E-3  -3.586381311631865E-3  
 2.038800000000000E10    1.603470166662225E-3  -4.096833212922017E-3  
 2.039000000000000E10    7.755334609774530E-4  -4.405327262011944E-3  
 2.039200000000000E10   -1.535155892337638E-4  -4.426649133502334E-3  
 2.039400000000000E10   -9.767397099898923E-4  -4.178899702512557E-3  
 2.039600000000000E10   -1.595184810597588E-3  -3.887154972525659E-3  
 2.039800000000000E10   -2.146525687917515E-3  -3.552815049058862E-3  
 2.040000000000000E10   -2.633616949121158E-3  -3.152677194318838E-3  
 2.040200000000000E10   -3.041931893676519E-3  -2.788849942455138E-3  
 2.040400000000000E10   -3.552488335925672E-3  -2.423384959843976E-3  
 2.040600000000000E10   -4.090290861549202E-3  -1.849258775581365E-3  
 2.040800000000000E10   -4.529452089358260E-3  -1.105251118402790E-3  
 2.041000000000000E10   -4.804248662872448E-3  -2.035207322074308E-4  
 2.041200000000000E10   -4.791648213372187E-3   8.142917304886161E-4  
 2.041400000000000E10   -4.520111734530440E-3   1.780521801534902E-3  
 2.041600000000000E10   -4.050825739762298E-3   2.602646661991323E-3  
 2.041800000000000E10   -3.416340910243216E-3   3.254604517240768E-3  
 2.042000000000000E10   -2.759028010553232E-3   3.734605576567076E-3  
 2.042200000000000E10   -2.040370419207547E-3   4.120830791415992E-3  
 2.042400000000000E10   -1.279283370995135E-3   4.340714240377701E-3  
 2.042600000000000E10   -5.521078042134092E-4   4.458460439410475E-3  
 2.042800000000000E10    1.960863912784219E-4   4.484056684843920E-3  
 2.043000000000000E10    9.716579957899673E-4   4.352538208304732E-3  
 2.043200000000000E10    1.696675808893310E-3   4.044502231947802E-3  
 2.043400000000000E10    2.279239344514079E-3   3.636229352128727E-3  
 2.043600000000000E10    2.703986855016815E-3   3.232268573440336E-3  
 2.043800000000000E10    3.138553135579935E-3   2.852297353523750E-3  
 2.044000000000000E10    3.601683545167799E-3   2.404850476455910E-3  
 2.044200000000000E10    4.019829651547804E-3   1.882143646340680E-3  
 2.044400000000000E10    4.424056227974318E-3   1.280146944164126E-3  
 2.044600000000000E10    4.810898719976346E-3   4.966295123772904E-4  
 2.044800000000000E10    4.972407749543588E-3  -5.187715890955318E-4  
 2.045000000000000E10    4.800090652511076E-3  -1.590646169562307E-3  
 2.045200000000000E10    4.331766679469083E-3  -2.610383262098940E-3  
 2.045400000000000E10    3.530640172323695E-3  -3.388073424705202E-3  
 2.045600000000000E10    2.604684171577295E-3  -3.740576113125793E-3  
 2.045800000000000E10    1.864337836633678E-3  -3.826703945243801E-3  
 2.046000000000000E10    1.318080682755897E-3  -3.827108251344827E-3  
 2.046200000000000E10    8.836380201736812E-4  -3.884854864467074E-3  
 2.046400000000000E10    4.205171663434832E-4  -4.022778908687610E-3  
 2.046600000000000E10   -1.287267721771194E-4  -4.162554215225909E-3  
 2.046800000000000E10   -7.917699598086377E-4  -4.206580989476708E-3  
 2.047000000000000E10   -1.562773327653607E-3  -4.098601346076639E-3  
 2.047200000000000E10   -2.307098712427197E-3  -3.803508752888000E-3  
 2.047400000000000E10   -2.900892842767967E-3  -3.329749081145834E-3  
 2.047600000000000E10   -3.317079920735625E-3  -2.777122581998508E-3  
 2.047800000000000E10   -3.659630711707805E-3  -2.299747041737040E-3  
 2.048000000000000E10   -4.062675853708277E-3  -1.834417464797972E-3  
 2.048200000000000E10   -4.525491346915564E-3  -1.197560241928807E-3  
 2.048400000000000E10   -4.856439169358325E-3  -3.316686219208082E-4  
 2.048600000000000E10   -4.922076490604216E-3   6.532825861574599E-4  
 2.048800000000000E10   -4.667976026043848E-3   1.689044948391341E-3  
 2.049000000000000E10   -4.122319407071229E-3   2.560916908637241E-3  
 2.049200000000000E10   -3.481271806069546E-3   3.181195145265924E-3  
 2.049400000000000E10   -2.781205353568550E-3   3.619390867512535E-3  
 2.049600000000000E10   -2.035912320328256E-3   3.869614037857564E-3  
 2.049800000000000E10   -1.383190129504160E-3   3.947313624882588E-3  
 2.050000000000000E10   -8.549732285448248E-4   3.948854739536291E-3  
 2.050200000000000E10   -4.973916985801664E-4   4.002801470320535E-3  
 2.050400000000000E10   -4.754884860260603E-5   4.296430369356165E-3  
 2.050600000000000E10    7.441044586745126E-4   4.492642823606730E-3  
 2.050800000000000E10    1.661365739656268E-3   4.356141115918205E-3  
 2.051000000000000E10    2.462678511316578E-3   4.011429363378773E-3  
 2.051200000000000E10    3.184737913586476E-3   3.576791871132122E-3  
 2.051400000000000E10    3.858306358947799E-3   2.936022778697037E-3  
 2.051600000000000E10    4.328151750895713E-3   2.094051386747096E-3  
 2.051800000000000E10    4.542958629490049E-3   1.245748786324704E-3  
 2.052000000000000E10    4.662229869238757E-3   4.839980468171201E-4  
 2.052200000000000E10    4.748968407511711E-3  -3.358013238067980E-4  
 2.052400000000000E10    4.627173645766798E-3  -1.288486618755593E-3  
 2.052600000000000E10    4.144080552375980E-3  -2.210457973113215E-3  
 2.052800000000000E10    3.415668616071344E-3  -2.849217926807426E-3  
 2.053000000000000E10    2.731350483372808E-3  -3.195838571560604E-3  
 2.053200000000000E10    2.124513089829297E-3  -3.384308880884891E-3  
 2.053400000000000E10    1.561186595440463E-3  -3.470365458202584E-3  
 2.053600000000000E10    1.109057427297726E-3  -3.498837438032584E-3  
 2.053800000000000E10    7.138720894646315E-4  -3.558499281536099E-3  
 2.054000000000000E10    3.660517190669285E-4  -3.658250017367580E-3  
 2.054200000000000E10    2.577571379973694E-6  -3.868287610304025E-3  
 2.054400000000000E10   -5.706237689419478E-4  -4.154676399021237E-3  
 2.054600000000000E10   -1.471977154896768E-3  -4.337798217656437E-3  
 2.054800000000000E10   -2.634100340030812E-3  -4.145703571676105E-3  
 2.055000000000000E10   -3.689580536619933E-3  -3.420095054294776E-3  
 2.055200000000000E10   -4.298905962733208E-3  -2.355128095519764E-3  
 2.055400000000000E10   -4.482185640544804E-3  -1.256253630681723E-3  
 2.055600000000000E10   -4.366029519587755E-3  -3.203139112210247E-4  
