#  HZ   S   RI   R     50.00 
! Rohde & Schwarz ZVA40 4Ports - Version 3.90 - 1145.1110k42 SN: 100403
! Date: 2023-10-03 12:51:53
! Measurement: S12 
! 
 2.000000000000000E10    3.457396351559847E-3   1.116261071594501E-3  
 2.000200000000000E10    3.638837314038365E-3   4.430716842223235E-4  
 2.000400000000000E10    3.633682219380582E-3  -2.686031781464678E-4  
 2.000600000000000E10    3.455900768232015E-3  -9.299843158158993E-4  
 2.000800000000000E10    3.172249636716313E-3  -1.504856385980491E-3  
 2.001000000000000E10    2.767495129740349E-3  -1.989359018841276E-3  
 2.001200000000000E10    2.376463462564129E-3  -2.351516124757904E-3  
 2.001400000000000E10    1.977477852186120E-3  -2.721530756119777E-3  
 2.001600000000000E10    1.366240554489195E-3  -3.027757914322946E-3  
 2.001800000000000E10    6.758334046160735E-4  -3.035655227938184E-3  
 2.002000000000000E10    1.551078785605906E-4  -2.854202658420912E-3  
 2.002200000000000E10   -2.043000530210082E-4  -2.629545594876011E-3  
 2.002400000000000E10   -3.734254224346606E-4  -2.477748569584003E-3  
 2.002600000000000E10   -5.174613174016554E-4  -2.474939062570532E-3  
 2.002800000000000E10   -7.971667348303730E-4  -2.534862443873728E-3  
 2.003000000000000E10   -1.182515773473791E-3  -2.544356475549716E-3  
 2.003200000000000E10   -1.637180124547471E-3  -2.512341865372879E-3  
 2.003400000000000E10   -2.169738402935090E-3  -2.385258157220152E-3  
 2.003600000000000E10   -2.773900102410052E-3  -2.018589280649192E-3  
 2.003800000000000E10   -3.264515031198109E-3  -1.303303111517043E-3  
 2.004000000000000E10   -3.386889791323080E-3  -4.387875809765387E-4  
 2.004200000000000E10   -3.181145164287753E-3   2.704909742600716E-4  
 2.004400000000000E10   -2.825297924034574E-3   7.254685063984383E-4  
 2.004600000000000E10   -2.542654354194249E-3   9.130538846538576E-4  
 2.004800000000000E10   -2.471897311301695E-3   1.074231501358251E-3  
 2.005000000000000E10   -2.508559160762363E-3   1.451192574610037E-3  
 2.005200000000000E10   -2.389692503062112E-3   1.990460583733188E-3  
 2.005400000000000E10   -2.036780955407907E-3   2.501123688287206E-3  
 2.005600000000000E10   -1.499157536912848E-3   2.857255637300788E-3  
 2.005800000000000E10   -9.148360436989202E-4   3.048853396817490E-3  
 2.006000000000000E10   -3.171154854094817E-4   3.159786289971736E-3  
 2.006200000000000E10    2.867215931743246E-4   3.108669037896175E-3  
 2.006400000000000E10    7.927465744109618E-4   2.881937539549890E-3  
 2.006600000000000E10    1.142110623833206E-3   2.634258733855354E-3  
 2.006800000000000E10    1.418052344686455E-3   2.447656424785102E-3  
 2.007000000000000E10    1.766470640345856E-3   2.366293523529614E-3  
 2.007200000000000E10    2.300902252533922E-3   2.193603061001610E-3  
 2.007400000000000E10    2.803103636122413E-3   1.708712252029391E-3  
 2.007600000000000E10    3.049311555784058E-3   1.065594428736303E-3  
 2.007800000000000E10    3.129309845260448E-3   3.953846559549372E-4  
 2.008000000000000E10    3.035557887482423E-3  -2.010477166752228E-4  
 2.008200000000000E10    2.812117303687114E-3  -7.091419085756773E-4  
 2.008400000000000E10    2.482022891786916E-3  -1.056224866597741E-3  
 2.008600000000000E10    2.219903377678108E-3  -1.239834810365681E-3  
 2.008800000000000E10    2.069692291250384E-3  -1.417143235879916E-3  
 2.009000000000000E10    2.003685903252551E-3  -1.638060836638842E-3  
 2.009200000000000E10    1.978141729961391E-3  -2.009683223958645E-3  
 2.009400000000000E10    1.730549584694759E-3  -2.524281507013021E-3  
 2.009600000000000E10    1.212487656933566E-3  -2.923993919803589E-3  
 2.009800000000000E10    6.056747084517999E-4  -3.152884991356621E-3  
 2.010000000000000E10   -2.959635067209430E-5  -3.212350006732677E-3  
 2.010200000000000E10   -5.698147557537866E-4  -3.137367674046093E-3  
 2.010400000000000E10   -1.091000110911275E-3  -3.023450745752564E-3  
 2.010600000000000E10   -1.625605608785042E-3  -2.829822237361913E-3  
 2.010800000000000E10   -2.190236821425734E-3  -2.542520787015006E-3  
 2.011000000000000E10   -2.696173550147150E-3  -2.100908387176417E-3  
 2.011200000000000E10   -3.071258870746803E-3  -1.567906195608278E-3  
 2.011400000000000E10   -3.311357193591971E-3  -9.268538086433654E-4  
 2.011600000000000E10   -3.365517637037017E-3  -2.240676145043431E-4  
 2.011800000000000E10   -3.236086469971472E-3   4.622783863278865E-4  
 2.012000000000000E10   -2.904357750796610E-3   1.008483583400785E-3  
 2.012200000000000E10   -2.540853659242944E-3   1.309464745982378E-3  
 2.012400000000000E10   -2.285844655017610E-3   1.501659854073768E-3  
 2.012600000000000E10   -2.123166893229441E-3   1.709644820679118E-3  
 2.012800000000000E10   -2.019409599058606E-3   2.023739102124065E-3  
 2.013000000000000E10   -1.838857308030129E-3   2.471747885768612E-3  
 2.013200000000000E10   -1.446694002003858E-3   2.933763053820090E-3  
 2.013400000000000E10   -8.296356816707111E-4   3.215759733898773E-3  
 2.013600000000000E10   -1.962515008118418E-4   3.296382078487013E-3  
 2.013800000000000E10    3.815914506385862E-4   3.261793353077439E-3  
 2.014000000000000E10    8.789518399646990E-4   3.112627124344862E-3  
 2.014200000000000E10    1.287024752754304E-3   2.991459746327666E-3  
 2.014400000000000E10    1.760334418914109E-3   2.880987383563210E-3  
 2.014600000000000E10    2.336219643001204E-3   2.669210390498241E-3  
 2.014800000000000E10    2.940427917228254E-3   2.285510793121325E-3  
 2.015000000000000E10    3.459853766899970E-3   1.730230412687417E-3  
 2.015200000000000E10    3.820053439725329E-3   1.016632464058973E-3  
 2.015400000000000E10    3.950378995526721E-3   1.920868159720192E-4  
 2.015600000000000E10    3.825297717142988E-3  -6.165021461331183E-4  
 2.015800000000000E10    3.524580039083958E-3  -1.267224295858156E-3  
 2.016000000000000E10    3.126919804209913E-3  -1.714354048965982E-3  
 2.016200000000000E10    2.797022703345175E-3  -1.987560505599336E-3  
 2.016400000000000E10    2.658629307040462E-3  -2.240842570447260E-3  
 2.016600000000000E10    2.587751226706638E-3  -2.755759413250619E-3  
 2.016800000000000E10    2.283266754131074E-3  -3.497964978494026E-3  
 2.017000000000000E10    1.616823926774992E-3  -4.191285654626511E-3  
 2.017200000000000E10    6.796428092962338E-4  -4.603852448915995E-3  
 2.017400000000000E10   -3.578468566518967E-4  -4.701379617607153E-3  
 2.017600000000000E10   -1.394995022565126E-3  -4.491259533635997E-3  
 2.017800000000000E10   -2.240729897662446E-3  -3.997995397420946E-3  
 2.018000000000000E10   -2.840158098411781E-3  -3.379271727883154E-3  
 2.018200000000000E10   -3.188888076692820E-3  -2.712854184210300E-3  
 2.018400000000000E10   -3.387155252750273E-3  -2.227925962802989E-3  
 2.018600000000000E10   -3.719555464124791E-3  -1.875037685278113E-3  
 2.018800000000000E10   -4.208413539109408E-3  -1.357568406361949E-3  
 2.019000000000000E10   -4.586972710159090E-3  -5.955524220890194E-4  
 2.019200000000000E10   -4.700496948013703E-3   3.396235050685290E-4  
 2.019400000000000E10   -4.527293214643444E-3   1.280146168061981E-3  
 2.019600000000000E10   -4.149127061720249E-3   2.054076477954234E-3  
 2.019800000000000E10   -3.686858918862763E-3   2.654509929319223E-3  
 2.020000000000000E10   -3.211666804013981E-3   3.098064412673315E-3  
 2.020200000000000E10   -2.824852760467265E-3   3.514109895116202E-3  
 2.020400000000000E10   -2.363275727947002E-3   4.108420004033381E-3  
 2.020600000000000E10   -1.606648649882388E-3   4.693379573937920E-3  
 2.020800000000000E10   -6.967600374655041E-4   5.045297296924724E-3  
 2.021000000000000E10    2.872627918367034E-4   5.164489012073588E-3  
 2.021200000000000E10    1.332963864250040E-3   5.068787804770250E-3  
 2.021400000000000E10    2.385668784241986E-3   4.669099028601692E-3  
 2.021600000000000E10    3.223156504746941E-3   3.944348906063372E-3  
 2.021800000000000E10    3.679250858517157E-3   3.099783056381125E-3  
 2.022000000000000E10    3.882849606236926E-3   2.389589522930760E-3  
 2.022200000000000E10    4.045574408438471E-3   1.792364020797390E-3  
 2.022400000000000E10    4.176973744674966E-3   1.221234297931746E-3  
 2.022600000000000E10    4.299621339197513E-3   7.095708666990201E-4  
 2.022800000000000E10    4.523036363362163E-3   2.412961653640701E-4  
 2.023000000000000E10    4.827664733898861E-3  -4.764280790739038E-4  
 2.023200000000000E10    4.847763485654638E-3  -1.534926907711283E-3  
 2.023400000000000E10    4.459083545953035E-3  -2.509368894000848E-3  
 2.023600000000000E10    3.919705144923043E-3  -3.260832624854866E-3  
 2.023800000000000E10    3.270501486474166E-3  -3.889955011092955E-3  
 2.024000000000000E10    2.520541444903723E-3  -4.386379124803676E-3  
 2.024200000000000E10    1.665946721375265E-3  -4.728712434707969E-3  
 2.024400000000000E10    7.889698048260201E-4  -4.880595969519130E-3  
 2.024600000000000E10   -1.141462389905765E-5  -4.905001519040929E-3  
 2.024800000000000E10   -7.943275914941399E-4  -4.849705034521996E-3  
 2.025000000000000E10   -1.635108901946633E-3  -4.651101081873533E-3  
 2.025200000000000E10   -2.436787545405053E-3  -4.272696441384378E-3  
 2.025400000000000E10   -3.122490761732614E-3  -3.710645820117659E-3  
 2.025600000000000E10   -3.596343531238813E-3  -3.066518093907724E-3  
 2.025800000000000E10   -3.884617618664548E-3  -2.456622249964211E-3  
 2.026000000000000E10   -4.147010475949006E-3  -1.909100575614031E-3  
 2.026200000000000E10   -4.437324780694865E-3  -1.324319513514638E-3  
 2.026400000000000E10   -4.752795867345952E-3  -6.500895790479802E-4  
 2.026600000000000E10   -4.982872072745254E-3   2.294672306527867E-4  
 2.026800000000000E10   -4.913047197516319E-3   1.188038887145619E-3  
 2.027000000000000E10   -4.616700578480959E-3   2.115487569460163E-3  
 2.027200000000000E10   -4.123535610873391E-3   2.970861098556607E-3  
 2.027400000000000E10   -3.424421677158939E-3   3.663987317984855E-3  
 2.027600000000000E10   -2.630326405374541E-3   4.102775223415208E-3  
 2.027800000000000E10   -1.883767027821806E-3   4.343541735714234E-3  
 2.028000000000000E10   -1.169961062259972E-3   4.501416744595326E-3  
 2.028200000000000E10   -4.233236648832207E-4   4.571844271763608E-3  
 2.028400000000000E10    2.862194637095349E-4   4.551505531977725E-3  
 2.028600000000000E10    9.746260173549808E-4   4.507751255813573E-3  
 2.028800000000000E10    1.726627828449839E-3   4.310624984403452E-3  
 2.029000000000000E10    2.423951661007272E-3   3.971772233921069E-3  
 2.029200000000000E10    3.103525808977861E-3   3.564895147940627E-3  
 2.029400000000000E10    3.760620986145956E-3   2.982293074536655E-3  
 2.029600000000000E10    4.232291011484686E-3   2.224178769177309E-3  
 2.029800000000000E10    4.496259149163961E-3   1.420616974226303E-3  
 2.030000000000000E10    4.578576336994216E-3   6.234904522662638E-4  
 2.030200000000000E10    4.547285140250569E-3  -9.680126546569496E-5  
 2.030400000000000E10    4.535395755536027E-3  -7.640689102656864E-4  
 2.030600000000000E10    4.496990634059466E-3  -1.513274834939727E-3  
 2.030800000000000E10    4.287635131428639E-3  -2.380606209583305E-3  
 2.031000000000000E10    3.806593448475556E-3  -3.306348420058688E-3  
 2.031200000000000E10    3.043739952974850E-3  -4.123213838923862E-3  
 2.031400000000000E10    2.003731775201030E-3  -4.712044709810505E-3  
 2.031600000000000E10    8.113366094659325E-4  -4.839765063176553E-3  
 2.031800000000000E10   -1.660619309404865E-4  -4.468862191532498E-3  
 2.032000000000000E10   -7.410890194242476E-4  -4.012508404061751E-3  
 2.032200000000000E10   -1.124009015728478E-3  -3.724633043424951E-3  
 2.032400000000000E10   -1.515875816241735E-3  -3.556562044347326E-3  
 2.032600000000000E10   -1.973022180781873E-3  -3.358959987828578E-3  
 2.032800000000000E10   -2.454889964105355E-3  -3.096284775960225E-3  
 2.033000000000000E10   -2.962225599697343E-3  -2.792285591432894E-3  
 2.033200000000000E10   -3.555837552994490E-3  -2.377262425229506E-3  
 2.033400000000000E10   -4.085932513354002E-3  -1.684490604222649E-3  
 2.033600000000000E10   -4.212911447717085E-3  -1.263833475402660E-3  
 2.033800000000000E10   -4.351488331815711E-3  -9.189497709653722E-5  
 2.034000000000000E10   -4.329091541607072E-3   6.391184244960271E-4  
 2.034200000000000E10   -4.247546247724030E-3   1.399351650400570E-3  
 2.034400000000000E10   -4.007089658881780E-3   2.191709190676058E-3  
 2.034600000000000E10   -3.596338874625940E-3   2.967145492288250E-3  
 2.034800000000000E10   -2.974796755653289E-3   3.740821594234418E-3  
 2.035000000000000E10   -2.063980377796624E-3   4.358565038139070E-3  
 2.035200000000000E10   -9.625542572596008E-4   4.651976318133098E-3  
 2.035400000000000E10    1.209665833475474E-4   4.502710092950751E-3  
 2.035600000000000E10    8.953506648712965E-4   4.021921643504391E-3  
 2.035800000000000E10    1.304575979399185E-3   3.515770348409812E-3  
 2.036000000000000E10    1.548066946539890E-3   3.240217730678894E-3  
 2.036200000000000E10    1.890142823362516E-3   3.105676560490221E-3  
 2.036400000000000E10    2.306715136876813E-3   2.949466118244110E-3  
 2.036600000000000E10    2.809932748614638E-3   2.733763660890637E-3  
 2.036800000000000E10    3.441682533809433E-3   2.359709297134369E-3  
 2.037000000000000E10    4.053413764470154E-3   1.685147005547252E-3  
 2.037200000000000E10    4.410615208110324E-3   8.240273541391448E-4  
 2.037400000000000E10    4.528362873113818E-3  -1.061938585027949E-4  
 2.037600000000000E10    4.366964584699384E-3  -1.021848090372428E-3  
 2.037800000000000E10    3.980299043986533E-3  -1.786829183671486E-3  
 2.038000000000000E10    3.529882722499747E-3  -2.384999456504981E-3  
 2.038200000000000E10    3.074659784841869E-3  -2.869692182651273E-3  
 2.038400000000000E10    2.611963224976703E-3  -3.300816743393188E-3  
 2.038600000000000E10    2.070629615681591E-3  -3.753359032863821E-3  
 2.038800000000000E10    1.378082812556790E-3  -4.153548705357093E-3  
 2.039000000000000E10    5.748933094933079E-4  -4.395626744048463E-3  
 2.039200000000000E10   -3.022840074091046E-4  -4.423043155973709E-3  
 2.039400000000000E10   -1.075264661469393E-3  -4.205130540800316E-3  
 2.039600000000000E10   -1.704494550789673E-3  -3.915448595459263E-3  
 2.039800000000000E10   -2.317038097384352E-3  -3.574105971320360E-3  
 2.040000000000000E10   -2.837687799776043E-3  -3.132953929404418E-3  
 2.040200000000000E10   -3.225947756113278E-3  -2.698284039204872E-3  
 2.040400000000000E10   -3.663293094615694E-3  -2.271013429250431E-3  
 2.040600000000000E10   -4.136140785973382E-3  -1.704617580226450E-3  
 2.040800000000000E10   -4.563458798522199E-3  -9.802863890029216E-4  
 2.041000000000000E10   -4.872068003923805E-3  -4.650492411639319E-5  
 2.041200000000000E10   -4.856723498691012E-3   1.006487110215757E-3  
 2.041400000000000E10   -4.541345734011245E-3   1.983525528986421E-3  
 2.041600000000000E10   -3.991536261444844E-3   2.828782536434355E-3  
 2.041800000000000E10   -3.291881332794826E-3   3.453894914990223E-3  
 2.042000000000000E10   -2.607456779245425E-3   3.866330047862398E-3  
 2.042200000000000E10   -1.911309444242054E-3   4.186954694213691E-3  
 2.042400000000000E10   -1.182556376551037E-3   4.379747538930841E-3  
 2.042600000000000E10   -4.597892984747887E-4   4.500861641847426E-3  
 2.042800000000000E10    3.275374010964125E-4   4.554197019724935E-3  
 2.043000000000000E10    1.160944924103441E-3   4.446212029843419E-3  
 2.043200000000000E10    1.937754922201512E-3   4.101492947450391E-3  
 2.043400000000000E10    2.541486760256468E-3   3.604846308007837E-3  
 2.043600000000000E10    2.959462175904602E-3   3.104030904877517E-3  
 2.043800000000000E10    3.338408949612468E-3   2.661129752932876E-3  
 2.044000000000000E10    3.700749025921580E-3   2.207588473403896E-3  
 2.044200000000000E10    4.035205976968563E-3   1.724346553803318E-3  
 2.044400000000000E10    4.417436835528524E-3   1.172536802995536E-3  
 2.044600000000000E10    4.824612306913844E-3   4.003317369130889E-4  
 2.044800000000000E10    5.036978844415259E-3  -6.364020303374640E-4  
 2.045000000000000E10    4.900840904425692E-3  -1.784297887718788E-3  
 2.045200000000000E10    4.387442350249600E-3  -2.862997723881293E-3  
 2.045400000000000E10    3.490212045747925E-3  -3.687875310855884E-3  
 2.045600000000000E10    2.469640414885901E-3  -4.060343528787295E-3  
 2.045800000000000E10    1.629454131169176E-3  -4.107939924492881E-3  
 2.046000000000000E10    1.023654666453324E-3  -4.023640658016559E-3  
 2.046200000000000E10    5.707688159654262E-4  -3.961324346838175E-3  
 2.046400000000000E10    1.226241260560023E-4  -4.011501747838877E-3  
 2.046600000000000E10   -4.198787910691290E-4  -4.087646802266439E-3  
 2.046800000000000E10   -1.076131390787109E-3  -4.131252584220083E-3  
 2.047000000000000E10   -1.865962869487703E-3  -4.001549652053251E-3  
 2.047200000000000E10   -2.603864107556917E-3  -3.595441674675655E-3  
 2.047400000000000E10   -3.160906377834855E-3  -2.978703912554516E-3  
 2.047600000000000E10   -3.477538013140913E-3  -2.355675764933781E-3  
 2.047800000000000E10   -3.682948881760241E-3  -1.858258688891376E-3  
 2.048000000000000E10   -3.925996815302858E-3  -1.440057931985292E-3  
 2.048200000000000E10   -4.271136062150753E-3  -9.188514539144107E-4  
 2.048400000000000E10   -4.572303724233752E-3  -1.776400862986015E-4  
 2.048600000000000E10   -4.682971923439592E-3   7.722881079340976E-4  
 2.048800000000000E10   -4.468119116844955E-3   1.791564713197726E-3  
 2.049000000000000E10   -3.931113484281081E-3   2.643352831472402E-3  
 2.049200000000000E10   -3.253589927529296E-3   3.253232834308788E-3  
 2.049400000000000E10   -2.514503077017489E-3   3.678203672515574E-3  
 2.049600000000000E10   -1.755299921906381E-3   3.899496117675746E-3  
 2.049800000000000E10   -1.094572052049140E-3   3.926059576096359E-3  
 2.050000000000000E10   -5.691311326464294E-4   3.829284407267417E-3  
 2.050200000000000E10   -2.523420865785469E-4   3.805128805753258E-3  
 2.050400000000000E10    1.822653883007459E-4   4.024886508920679E-3  
 2.050600000000000E10    9.373705252073705E-4   4.169119297768232E-3  
 2.050800000000000E10    1.780373958387861E-3   4.012843283514182E-3  
 2.051000000000000E10    2.492460085906916E-3   3.634067692069544E-3  
 2.051200000000000E10    3.123413719650772E-3   3.167400490147649E-3  
 2.051400000000000E10    3.709702916374362E-3   2.546244706199677E-3  
 2.051600000000000E10    4.111856049685567E-3   1.743507028246919E-3  
 2.051800000000000E10    4.239838880797228E-3   9.525893536327339E-4  
 2.052000000000000E10    4.265038641514602E-3   2.911378008623918E-4  
 2.052200000000000E10    4.290661843562568E-3  -4.022513210118093E-4  
 2.052400000000000E10    4.184627853747872E-3  -1.234523723488329E-3  
 2.052600000000000E10    3.779545969640215E-3  -2.069396182411799E-3  
 2.052800000000000E10    3.133130078721378E-3  -2.665187611624047E-3  
 2.053000000000000E10    2.472163359117177E-3  -2.979591997616270E-3  
 2.053200000000000E10    1.880264948812072E-3  -3.164849149201204E-3  
 2.053400000000000E10    1.326869867086687E-3  -3.209258628043312E-3  
 2.053600000000000E10    9.117452147485759E-4  -3.179000725072844E-3  
 2.053800000000000E10    6.194624390142660E-4  -3.168301182557588E-3  
 2.054000000000000E10    3.913887657863261E-4  -3.231198604529103E-3  
 2.054200000000000E10    1.376440311475933E-4  -3.479588052464857E-3  
 2.054400000000000E10   -3.814117635893463E-4  -3.822621553101474E-3  
 2.054600000000000E10   -1.239019381399784E-3  -4.068467645319525E-3  
 2.054800000000000E10   -2.342757320514432E-3  -3.927714398337736E-3  
 2.055000000000000E10   -3.347514740501841E-3  -3.235968519692069E-3  
 2.055200000000000E10   -3.962099396934113E-3  -2.254388984982615E-3  
 2.055400000000000E10   -4.167880431783420E-3  -1.219085736752109E-3  
 2.055600000000000E10   -4.082675143662427E-3  -3.223787902647423E-4  
