#  HZ   S   RI   R     50.00 
! Rohde & Schwarz ZVA40 4Ports - Version 3.90 - 1145.1110k42 SN: 100403
! Date: 2023-10-03 12:52:29
! Measurement: S12 
! 
 2.000000000000000E10    2.842610326323490E-3   2.822133966620031E-4  
 2.000200000000000E10    2.907332928789926E-3  -2.522553217122064E-4  
 2.000400000000000E10    2.825751500165880E-3  -8.042614019299580E-4  
 2.000600000000000E10    2.598516508906221E-3  -1.305032765335660E-3  
 2.000800000000000E10    2.276981632711957E-3  -1.752964339272690E-3  
 2.001000000000000E10    1.857781614111775E-3  -2.102594976907466E-3  
 2.001200000000000E10    1.478369832575444E-3  -2.329686770614222E-3  
 2.001400000000000E10    1.109087623180554E-3  -2.604887029347720E-3  
 2.001600000000000E10    4.850489131956833E-4  -2.832980617620205E-3  
 2.001800000000000E10   -2.009590607186312E-4  -2.719145024831526E-3  
 2.002000000000000E10   -6.691831261793406E-4  -2.386880799967014E-3  
 2.002200000000000E10   -9.169254211015204E-4  -2.026370660413379E-3  
 2.002400000000000E10   -9.883970976519733E-4  -1.773527722782743E-3  
 2.002600000000000E10   -1.034083420222955E-3  -1.668032396243648E-3  
 2.002800000000000E10   -1.201727581804488E-3  -1.643019365223409E-3  
 2.003000000000000E10   -1.457247073444013E-3  -1.574982056842634E-3  
 2.003200000000000E10   -1.746776447642917E-3  -1.476324797673113E-3  
 2.003400000000000E10   -2.111657649094676E-3  -1.298453093031153E-3  
 2.003600000000000E10   -2.554015390605594E-3  -9.016682328694644E-4  
 2.003800000000000E10   -2.843799821672188E-3  -1.956882779754760E-4  
 2.004000000000000E10   -2.757571388511256E-3   5.718315482032276E-4  
 2.004200000000000E10   -2.387464838868981E-3   1.144506145506300E-3  
 2.004400000000000E10   -1.877212833705140E-3   1.453513115234367E-3  
 2.004600000000000E10   -1.455201867032689E-3   1.474797776459483E-3  
 2.004800000000000E10   -1.277307104012726E-3   1.438974423445148E-3  
 2.005000000000000E10   -1.253836249756347E-3   1.576742946856307E-3  
 2.005200000000000E10   -1.121507941289142E-3   1.883536199713318E-3  
 2.005400000000000E10   -8.061665223830922E-4   2.166504919942883E-3  
 2.005600000000000E10   -3.467318879770031E-4   2.345518351804634E-3  
 2.005800000000000E10    1.285487632691159E-4   2.382783534449867E-3  
 2.006000000000000E10    6.059702467115850E-4   2.351474762346152E-3  
 2.006200000000000E10    1.071721244480752E-3   2.163326819983039E-3  
 2.006400000000000E10    1.408973726474608E-3   1.816679769552049E-3  
 2.006600000000000E10    1.587288686526564E-3   1.466350906831308E-3  
 2.006800000000000E10    1.685077909939758E-3   1.206008600523320E-3  
 2.007000000000000E10    1.853497853165363E-3   1.077865240348066E-3  
 2.007200000000000E10    2.192305747818187E-3   8.262718156738969E-4  
 2.007400000000000E10    2.431357142404335E-3   3.010718744303725E-4  
 2.007600000000000E10    2.418675166727217E-3  -2.926580071087099E-4  
 2.007800000000000E10    2.231888442373080E-3  -8.410134433228295E-4  
 2.008000000000000E10    1.904614653472823E-3  -1.250914945228815E-3  
 2.008200000000000E10    1.517371423523337E-3  -1.499551265987227E-3  
 2.008400000000000E10    1.104086866974064E-3  -1.604953537400000E-3  
 2.008600000000000E10    7.753042564554900E-4  -1.575039626854192E-3  
 2.008800000000000E10    5.666077629961994E-4  -1.525141870786931E-3  
 2.009000000000000E10    4.444788551435197E-4  -1.495436283782769E-3  
 2.009200000000000E10    3.980420802436280E-4  -1.562065007969921E-3  
 2.009400000000000E10    2.129129870696983E-4  -1.778405771491122E-3  
 2.009600000000000E10   -1.624130055599620E-4  -1.915329394655096E-3  
 2.009800000000000E10   -5.888919688094362E-4  -1.897108948065175E-3  
 2.010000000000000E10   -9.639836314092143E-4  -1.725413768510085E-3  
 2.010200000000000E10   -1.191896290150414E-3  -1.507337674605871E-3  
 2.010400000000000E10   -1.382272748502715E-3  -1.327466561244379E-3  
 2.010600000000000E10   -1.623975331013555E-3  -1.133959525295461E-3  
 2.010800000000000E10   -1.907747822867347E-3  -8.669280952011302E-4  
 2.011000000000000E10   -2.088853615094667E-3  -4.633596194994257E-4  
 2.011200000000000E10   -2.140060603741265E-3  -2.843224898437249E-5  
 2.011400000000000E10   -2.114317820641240E-3   4.163879938059537E-4  
 2.011600000000000E10   -1.971563127911324E-3   8.887197753345526E-4  
 2.011800000000000E10   -1.658199625204743E-3   1.318904935332483E-3  
 2.012000000000000E10   -1.193485238087276E-3   1.557420794526307E-3  
 2.012200000000000E10   -7.791233408540764E-4   1.518772942312982E-3  
 2.012400000000000E10   -5.454134386235949E-4   1.384189491804092E-3  
 2.012600000000000E10   -4.622394764228675E-4   1.295933761028382E-3  
 2.012800000000000E10   -4.636593953008791E-4   1.343485659731882E-3  
 2.013000000000000E10   -3.932540996264621E-4   1.511915108292467E-3  
 2.013200000000000E10   -1.517084236505898E-4   1.711141143699365E-3  
 2.013400000000000E10    2.227896204555538E-4   1.781656945300569E-3  
 2.013600000000000E10    5.718671775196868E-4   1.707259692067718E-3  
 2.013800000000000E10    8.470596112751637E-4   1.574358122936860E-3  
 2.014000000000000E10    1.031592863883992E-3   1.406648739072429E-3  
 2.014200000000000E10    1.161173997837820E-3   1.328487732493675E-3  
 2.014400000000000E10    1.392726670498404E-3   1.285577887561893E-3  
 2.014600000000000E10    1.739336319992112E-3   1.159734439982462E-3  
 2.014800000000000E10    2.099055503667505E-3   8.600485228948726E-4  
 2.015000000000000E10    2.338292678902424E-3   4.294431471810083E-4  
 2.015200000000000E10    2.474468063425135E-3  -1.090780278301794E-4  
 2.015400000000000E10    2.407233043930229E-3  -7.163553755948850E-4  
 2.015600000000000E10    2.097401644367679E-3  -1.234294872044935E-3  
 2.015800000000000E10    1.692407651432625E-3  -1.559083752426101E-3  
 2.016000000000000E10    1.281526596994435E-3  -1.652308475751231E-3  
 2.016200000000000E10    1.041413159799521E-3  -1.583332395652470E-3  
 2.016400000000000E10    1.061419313466905E-3  -1.583163383600797E-3  
 2.016600000000000E10    1.141353713927231E-3  -1.892689594408735E-3  
 2.016800000000000E10    9.575392305946799E-4  -2.402631074397101E-3  
 2.017000000000000E10    4.278471667766035E-4  -2.835130287380315E-3  
 2.017200000000000E10   -2.942236322179483E-4  -3.005010311572273E-3  
 2.017400000000000E10   -1.024991083687072E-3  -2.910503809083514E-3  
 2.017600000000000E10   -1.690777420610527E-3  -2.601589510263301E-3  
 2.017800000000000E10   -2.207816012180698E-3  -2.107367995520863E-3  
 2.018000000000000E10   -2.499085370980112E-3  -1.527540268828717E-3  
 2.018200000000000E10   -2.550486248147525E-3  -9.473954797377466E-4  
 2.018400000000000E10   -2.441422075776713E-3  -5.792833779892528E-4  
 2.018600000000000E10   -2.439037568047030E-3  -4.338282021529085E-4  
 2.018800000000000E10   -2.640939564846548E-3  -2.212722757864752E-4  
 2.019000000000000E10   -2.847103246798118E-3   2.301125927926942E-4  
 2.019200000000000E10   -2.879639164786096E-3   8.323818407837808E-4  
 2.019400000000000E10   -2.686479309987691E-3   1.436448354684123E-3  
 2.019600000000000E10   -2.333444457907430E-3   1.915151498629233E-3  
 2.019800000000000E10   -1.923316157875208E-3   2.252817485450840E-3  
 2.020000000000000E10   -1.513792194211434E-3   2.443973772197104E-3  
 2.020200000000000E10   -1.220525926507918E-3   2.608308835920913E-3  
 2.020400000000000E10   -9.181785204164196E-4   2.905172529657192E-3  
 2.020600000000000E10   -4.143683351681725E-4   3.182198653005279E-3  
 2.020800000000000E10    1.765366064225527E-4   3.276733632693873E-3  
 2.021000000000000E10    7.796046341320985E-4   3.283431881908405E-3  
 2.021200000000000E10    1.481969168202745E-3   3.167692719433657E-3  
 2.021400000000000E10    2.210591402318743E-3   2.788105637501972E-3  
 2.021600000000000E10    2.729635272719304E-3   2.111048588084648E-3  
 2.021800000000000E10    2.867871992205703E-3   1.377994075816110E-3  
 2.022000000000000E10    2.774831753630391E-3   8.647074724582061E-4  
 2.022200000000000E10    2.719281444425691E-3   5.452508646266636E-4  
 2.022400000000000E10    2.718453495782406E-3   2.805871461180841E-4  
 2.022600000000000E10    2.734825717392589E-3   4.548156854527459E-5  
 2.022800000000000E10    2.872458668693962E-3  -1.951178246337744E-4  
 2.023000000000000E10    3.135969572022190E-3  -6.788761190659993E-4  
 2.023200000000000E10    3.123094468595990E-3  -1.469810717497711E-3  
 2.023400000000000E10    2.720221188187661E-3  -2.132147877312308E-3  
 2.023600000000000E10    2.231375857566794E-3  -2.554551944512215E-3  
 2.023800000000000E10    1.730393100943831E-3  -2.881967605363747E-3  
 2.024000000000000E10    1.209260959086227E-3  -3.124347418439364E-3  
 2.024200000000000E10    6.463019227141461E-4  -3.306479061045397E-3  
 2.024400000000000E10    7.050891268411280E-5  -3.343228748980374E-3  
 2.024600000000000E10   -4.581254244630643E-4  -3.266718441720117E-3  
 2.024800000000000E10   -9.877463319308199E-4  -3.163057900658606E-3  
 2.025000000000000E10   -1.561360908940496E-3  -2.961694937459972E-3  
 2.025200000000000E10   -2.108603728352567E-3  -2.592092057988968E-3  
 2.025400000000000E10   -2.466564049461374E-3  -2.061531318489600E-3  
 2.025600000000000E10   -2.625531433610085E-3  -1.535208571947529E-3  
 2.025800000000000E10   -2.672267103291773E-3  -1.115030876874403E-3  
 2.026000000000000E10   -2.758079856143567E-3  -8.063679268782953E-4  
 2.026200000000000E10   -2.919108154627767E-3  -5.227876803167012E-4  
 2.026400000000000E10   -3.128962706268570E-3  -1.753130971696976E-4  
 2.026600000000000E10   -3.310193819350299E-3   4.133103794318628E-4  
 2.026800000000000E10   -3.256969388628019E-3   1.131702324666788E-3  
 2.027000000000000E10   -2.995081237275844E-3   1.832334112966196E-3  
 2.027200000000000E10   -2.520352173711599E-3   2.436132040909595E-3  
 2.027400000000000E10   -1.880400638295330E-3   2.816468741698766E-3  
 2.027600000000000E10   -1.220808367804460E-3   2.946536382468640E-3  
 2.027800000000000E10   -6.938185504495853E-4   2.947286135467238E-3  
 2.028000000000000E10   -2.472002809932417E-4   2.965381439897872E-3  
 2.028200000000000E10    1.878556519351064E-4   2.942096832909703E-3  
 2.028400000000000E10    5.699006659496162E-4   2.830639423097297E-3  
 2.028600000000000E10    9.509850532456530E-4   2.752833381686130E-3  
 2.028800000000000E10    1.403246015988659E-3   2.574872067428114E-3  
 2.029000000000000E10    1.817630998667621E-3   2.333066940744534E-3  
 2.029200000000000E10    2.211140993783258E-3   2.067360988676303E-3  
 2.029400000000000E10    2.604005534447148E-3   1.660046247198197E-3  
 2.029600000000000E10    2.868325703436272E-3   1.088852735922323E-3  
 2.029800000000000E10    2.969072735006060E-3   4.977756208613700E-4  
 2.030000000000000E10    2.967622204886850E-3  -3.604677395843383E-5  
 2.030200000000000E10    2.876174137946755E-3  -4.493990290714544E-4  
 2.030400000000000E10    2.821825743641383E-3  -8.171589397384554E-4  
 2.030600000000000E10    2.773244054643093E-3  -1.302962509029902E-3  
 2.030800000000000E10    2.581420715767968E-3  -1.907444464180757E-3  
 2.031000000000000E10    2.178789394305935E-3  -2.516639834737459E-3  
 2.031200000000000E10    1.592469384889943E-3  -3.004911290520013E-3  
 2.031400000000000E10    7.613682786458836E-4  -3.330799707866930E-3  
 2.031600000000000E10   -2.392675967023751E-4  -3.257530417538597E-3  
 2.031800000000000E10   -9.867897704665249E-4  -2.706716080491313E-3  
 2.032000000000000E10   -1.222699206540890E-3  -2.124498267715544E-3  
 2.032200000000000E10   -1.203390876973362E-3  -1.767109610512086E-3  
 2.032400000000000E10   -1.195413548185073E-3  -1.621151817751735E-3  
 2.032600000000000E10   -1.310034253090283E-3  -1.530472007618428E-3  
 2.032800000000000E10   -1.515498926188537E-3  -1.442573316885856E-3  
 2.033000000000000E10   -1.779865094560195E-3  -1.332320751518839E-3  
 2.033200000000000E10   -2.110387026159852E-3  -1.115403680414452E-3  
 2.033400000000000E10   -2.375293708954451E-3  -6.480000689414948E-4  
 2.033600000000000E10   -2.368566294587812E-3  -3.426282706386851E-4  
 2.033800000000000E10   -2.321935770458278E-3   2.994112113017375E-4  
 2.034000000000000E10   -2.279514886645807E-3   6.194321092298646E-4  
 2.034200000000000E10   -2.233569506448483E-3   9.594234161715143E-4  
 2.034400000000000E10   -2.135441546546824E-3   1.342339459385095E-3  
 2.034600000000000E10   -1.949102065905377E-3   1.786750562128768E-3  
 2.034800000000000E10   -1.618753745960294E-3   2.320080960108113E-3  
 2.035000000000000E10   -1.028450944177316E-3   2.743957296910662E-3  
 2.035200000000000E10   -2.615331635482747E-4   2.854537551287455E-3  
 2.035400000000000E10    4.708622648129662E-4   2.607665148299234E-3  
 2.035600000000000E10    9.221416127239452E-4   2.147126728247223E-3  
 2.035800000000000E10    1.045330613468287E-3   1.761638017087685E-3  
 2.036000000000000E10    1.024397282665711E-3   1.616501073552288E-3  
 2.036200000000000E10    1.128707254504778E-3   1.615702845309497E-3  
 2.036400000000000E10    1.348195538603138E-3   1.594929366636976E-3  
 2.036600000000000E10    1.674491479042381E-3   1.531760393231801E-3  
 2.036800000000000E10    2.131928243279580E-3   1.364552787669892E-3  
 2.037000000000000E10    2.571031880476838E-3   9.470999077031459E-4  
 2.037200000000000E10    2.791877594534998E-3   3.558162259898022E-4  
 2.037400000000000E10    2.834224117222269E-3  -3.190050119583959E-4  
 2.037600000000000E10    2.661701385698324E-3  -9.819048479843288E-4  
 2.037800000000000E10    2.329588974078681E-3  -1.471359606107904E-3  
 2.038000000000000E10    1.966222061932762E-3  -1.780541235707517E-3  
 2.038200000000000E10    1.633253375857824E-3  -2.001224719984419E-3  
 2.038400000000000E10    1.349478010030717E-3  -2.225341712251122E-3  
 2.038600000000000E10    1.020760329559047E-3  -2.534254721400363E-3  
 2.038800000000000E10    5.385974278853663E-4  -2.816588107166897E-3  
 2.039000000000000E10   -6.091246048923693E-5  -2.892258171750992E-3  
 2.039200000000000E10   -6.727570133214749E-4  -2.742489212510702E-3  
 2.039400000000000E10   -1.161829864035204E-3  -2.436674801717080E-3  
 2.039600000000000E10   -1.505182982698359E-3  -2.174148704940952E-3  
 2.039800000000000E10   -1.803413208827009E-3  -1.889902677716603E-3  
 2.040000000000000E10   -2.023287775730829E-3  -1.546381760499759E-3  
 2.040200000000000E10   -2.112977841960980E-3  -1.260773418662848E-3  
 2.040400000000000E10   -2.322631887133414E-3  -1.057097607832632E-3  
 2.040600000000000E10   -2.633126190990026E-3  -7.634967555475917E-4  
 2.040800000000000E10   -2.931640295641413E-3  -3.551307100555458E-4  
 2.041000000000000E10   -3.132755105448849E-3   2.825907199191306E-4  
 2.041200000000000E10   -3.035580567869937E-3   1.029917862986832E-3  
 2.041400000000000E10   -2.722647185763153E-3   1.715104944559405E-3  
 2.041600000000000E10   -2.251213794926741E-3   2.252284211294396E-3  
 2.041800000000000E10   -1.684180781850783E-3   2.557925158467742E-3  
 2.042000000000000E10   -1.161156330495276E-3   2.680998567660405E-3  
 2.042200000000000E10   -6.585790368023141E-4   2.722806600018294E-3  
 2.042400000000000E10   -2.178091248267411E-4   2.706262861750254E-3  
 2.042600000000000E10    1.469807106886086E-4   2.699015559551954E-3  
 2.042800000000000E10    5.465393714461123E-4   2.674731973045096E-3  
 2.043000000000000E10    9.949306589493783E-4   2.527567135446050E-3  
 2.043200000000000E10    1.400918997785866E-3   2.238349407459054E-3  
 2.043400000000000E10    1.682996914200792E-3   1.906359586443124E-3  
 2.043600000000000E10    1.831937489318259E-3   1.642584818925080E-3  
 2.043800000000000E10    1.998606299858832E-3   1.453805353143732E-3  
 2.044000000000000E10    2.178709058152367E-3   1.261457713673451E-3  
 2.044200000000000E10    2.426103832499113E-3   1.038901365329531E-3  
 2.044400000000000E10    2.771904323165739E-3   7.463209125033194E-4  
 2.044600000000000E10    3.153047825251956E-3   2.321830458187886E-4  
 2.044800000000000E10    3.291003399340766E-3  -5.170422936253128E-4  
 2.045000000000000E10    3.110878406199838E-3  -1.294778913849727E-3  
 2.045200000000000E10    2.684168810783713E-3  -2.006145720197647E-3  
 2.045400000000000E10    2.006621880901388E-3  -2.508195264671198E-3  
 2.045600000000000E10    1.269401140691168E-3  -2.613103843136948E-3  
 2.045800000000000E10    7.690524681444461E-4  -2.443581111460863E-3  
 2.046000000000000E10    5.111985729955551E-4  -2.235046087729711E-3  
 2.046200000000000E10    4.030073740914343E-4  -2.178549252013550E-3  
 2.046400000000000E10    2.949402192459009E-4  -2.306924374973394E-3  
 2.046600000000000E10    8.636044041079245E-5  -2.521603029037332E-3  
 2.046800000000000E10   -3.053701359111770E-4  -2.725957206799170E-3  
 2.047000000000000E10   -8.926968020291180E-4  -2.750487932015533E-3  
 2.047200000000000E10   -1.493711921351928E-3  -2.526019901083208E-3  
 2.047400000000000E10   -1.906870810675278E-3  -2.132413173937565E-3  
 2.047600000000000E10   -2.112974109963625E-3  -1.739586786838410E-3  
 2.047800000000000E10   -2.227757402998492E-3  -1.495598000953350E-3  
 2.048000000000000E10   -2.443605960143631E-3  -1.317749767652387E-3  
 2.048200000000000E10   -2.836524046106655E-3  -1.004844888615510E-3  
 2.048400000000000E10   -3.221119822045107E-3  -4.645809956391269E-4  
 2.048600000000000E10   -3.387015038878952E-3   2.531038346669710E-4  
 2.048800000000000E10   -3.243632119248618E-3   1.027705306915467E-3  
 2.049000000000000E10   -2.806672393325180E-3   1.664005728714444E-3  
 2.049200000000000E10   -2.301958631034251E-3   2.070125845862637E-3  
 2.049400000000000E10   -1.805724359573528E-3   2.295510418935384E-3  
 2.049600000000000E10   -1.354284006278242E-3   2.374090232269325E-3  
 2.049800000000000E10   -1.025254129376569E-3   2.337242115419282E-3  
 2.050000000000000E10   -8.109535841336437E-4   2.305652691365638E-3  
 2.050200000000000E10   -7.419266511394869E-4   2.436466706694399E-3  
 2.050400000000000E10   -5.379871221176837E-4   2.839978461425920E-3  
 2.050600000000000E10    1.481110803631312E-5   3.176969281539567E-3  
 2.050800000000000E10    7.102944080453413E-4   3.197785012745931E-3  
 2.051000000000000E10    1.320427846558270E-3   2.999065619215002E-3  
 2.051200000000000E10    1.887484336724130E-3   2.761285195372417E-3  
 2.051400000000000E10    2.455568893471496E-3   2.368879293708645E-3  
 2.051600000000000E10    2.850189813654180E-3   1.792381997143566E-3  
 2.051800000000000E10    2.980513350631844E-3   1.222994932598232E-3  
 2.052000000000000E10    3.106946806871781E-3   7.635268968158238E-4  
 2.052200000000000E10    3.296993904720241E-3   2.312495324323759E-4  
 2.052400000000000E10    3.350617747309277E-3  -4.460927757239085E-4  
 2.052600000000000E10    3.121262369294164E-3  -1.130957424222902E-3  
 2.052800000000000E10    2.653789463157885E-3  -1.620475455750654E-3  
 2.053000000000000E10    2.195603837960481E-3  -1.895827348554821E-3  
 2.053200000000000E10    1.821489199812030E-3  -2.076028174540573E-3  
 2.053400000000000E10    1.470494529121238E-3  -2.173085150849304E-3  
 2.053600000000000E10    1.246968568341017E-3  -2.218061750524758E-3  
 2.053800000000000E10    1.052200375508073E-3  -2.302430516469136E-3  
 2.054000000000000E10    9.238631634612727E-4  -2.470827253282439E-3  
 2.054200000000000E10    7.594591294081861E-4  -2.848767632342600E-3  
 2.054400000000000E10    3.085301433490597E-4  -3.324247330404175E-3  
 2.054600000000000E10   -4.761053256186516E-4  -3.688949253218471E-3  
 2.054800000000000E10   -1.543800468717553E-3  -3.666474295151516E-3  
 2.055000000000000E10   -2.551958549369142E-3  -3.097082858085020E-3  
 2.055200000000000E10   -3.122635939783214E-3  -2.215785757205430E-3  
 2.055400000000000E10   -3.295788662163196E-3  -1.352764734588257E-3  
 2.055600000000000E10   -3.225543001597679E-3  -6.569478339362323E-4  
