#  HZ   S   RI   R     50.00 
! Rohde & Schwarz ZVA40 4Ports - Version 3.90 - 1145.1110k42 SN: 100403
! Date: 2023-10-03 12:52:57
! Measurement: S12 
! 
 2.000000000000000E10    2.839642671730232E-3   1.812191748521636E-4  
 2.000200000000000E10    2.869203359026600E-3  -3.427478605536400E-4  
 2.000400000000000E10    2.793412155437249E-3  -9.204810743944513E-4  
 2.000600000000000E10    2.526299812382570E-3  -1.452968783538651E-3  
 2.000800000000000E10    2.127071626967302E-3  -1.887205043911106E-3  
 2.001000000000000E10    1.668135808021934E-3  -2.187667242078870E-3  
 2.001200000000000E10    1.269265910162142E-3  -2.356628249226897E-3  
 2.001400000000000E10    8.585765371444049E-4  -2.571260315124636E-3  
 2.001600000000000E10    2.427708361075795E-4  -2.673676133983665E-3  
 2.001800000000000E10   -3.512108060358851E-4  -2.445065364655522E-3  
 2.002000000000000E10   -6.889497701734028E-4  -2.091936051362643E-3  
 2.002200000000000E10   -8.731812833704884E-4  -1.771863183455059E-3  
 2.002400000000000E10   -9.292471006995552E-4  -1.539428110441400E-3  
 2.002600000000000E10   -9.317687471155768E-4  -1.450573499486955E-3  
 2.002800000000000E10   -1.067629771703785E-3  -1.457086026978990E-3  
 2.003000000000000E10   -1.305889510722072E-3  -1.411342907145068E-3  
 2.003200000000000E10   -1.550352662215355E-3  -1.319291518518219E-3  
 2.003400000000000E10   -1.861873557101245E-3  -1.191232715629869E-3  
 2.003600000000000E10   -2.268835195098763E-3  -8.957029268559484E-4  
 2.003800000000000E10   -2.579007375364502E-3  -2.943269770454478E-4  
 2.004000000000000E10   -2.548337758829196E-3   4.113696605027481E-4  
 2.004200000000000E10   -2.238199114799500E-3   9.822709317733017E-4  
 2.004400000000000E10   -1.785931681903701E-3   1.296017905352292E-3  
 2.004600000000000E10   -1.416185801779783E-3   1.356725925924602E-3  
 2.004800000000000E10   -1.258411793969572E-3   1.387910136987490E-3  
 2.005000000000000E10   -1.202145410287712E-3   1.564460500419416E-3  
 2.005200000000000E10   -1.002177803052797E-3   1.850932396741377E-3  
 2.005400000000000E10   -6.445420698987113E-4   2.070091768271394E-3  
 2.005600000000000E10   -2.193674936279422E-4   2.141752883929897E-3  
 2.005800000000000E10    1.440059034697091E-4   2.123768924287072E-3  
 2.006000000000000E10    5.181992708929574E-4   2.092422046526163E-3  
 2.006200000000000E10    9.201391108541026E-4   1.958588569390554E-3  
 2.006400000000000E10    1.255655829380784E-3   1.691980632366958E-3  
 2.006600000000000E10    1.467640162445605E-3   1.396703016426828E-3  
 2.006800000000000E10    1.577639603056014E-3   1.148338804745840E-3  
 2.007000000000000E10    1.717394959457495E-3   1.029287176034241E-3  
 2.007200000000000E10    2.031115909900379E-3   8.021606373842117E-4  
 2.007400000000000E10    2.254869081769829E-3   3.148575315545140E-4  
 2.007600000000000E10    2.228819497826475E-3  -2.000887119787944E-4  
 2.007800000000000E10    2.068993359528206E-3  -6.543428969086597E-4  
 2.008000000000000E10    1.810856016904668E-3  -1.004854577196831E-3  
 2.008200000000000E10    1.517577687519844E-3  -1.254524354374519E-3  
 2.008400000000000E10    1.171375154862526E-3  -1.410080201889354E-3  
 2.008600000000000E10    8.885303374241901E-4  -1.451807553638463E-3  
 2.008800000000000E10    6.948420540774586E-4  -1.456870348192751E-3  
 2.009000000000000E10    5.696537662987357E-4  -1.437013904150162E-3  
 2.009200000000000E10    5.026418538936588E-4  -1.514395552307919E-3  
 2.009400000000000E10    3.313566816763746E-4  -1.730128588085926E-3  
 2.009600000000000E10    4.773558935590286E-6  -1.878838684340870E-3  
 2.009800000000000E10   -3.875443416526886E-4  -1.908335877858378E-3  
 2.010000000000000E10   -7.587814449194683E-4  -1.804851288734763E-3  
 2.010200000000000E10   -1.032256430739330E-3  -1.650449906096415E-3  
 2.010400000000000E10   -1.322363697302838E-3  -1.497149592506941E-3  
 2.010600000000000E10   -1.640325123271733E-3  -1.295886713907951E-3  
 2.010800000000000E10   -1.962727884313575E-3  -1.002925935339321E-3  
 2.011000000000000E10   -2.154170604491676E-3  -5.328931837101226E-4  
 2.011200000000000E10   -2.153819513127760E-3  -5.104757804440819E-5  
 2.011400000000000E10   -2.070349701507776E-3   3.685864212457091E-4  
 2.011600000000000E10   -1.919636778809407E-3   7.759153851549384E-4  
 2.011800000000000E10   -1.647343677986000E-3   1.144923942370547E-3  
 2.012000000000000E10   -1.259784050354803E-3   1.344131870643685E-3  
 2.012200000000000E10   -9.095029155206350E-4   1.325675363962849E-3  
 2.012400000000000E10   -7.436166806318971E-4   1.268534291604603E-3  
 2.012600000000000E10   -6.880164814733521E-4   1.287590578646848E-3  
 2.012800000000000E10   -6.493265326652263E-4   1.378582066131963E-3  
 2.013000000000000E10   -5.396251497721232E-4   1.545559390689488E-3  
 2.013200000000000E10   -3.121150722209779E-4   1.749923996006449E-3  
 2.013400000000000E10    4.605115396703625E-5   1.860969699919224E-3  
 2.013600000000000E10    4.135745844838244E-4   1.839012640562875E-3  
 2.013800000000000E10    7.064426231577442E-4   1.754178924279081E-3  
 2.014000000000000E10    9.266566873217623E-4   1.622264187231108E-3  
 2.014200000000000E10    1.131639565789590E-3   1.556452928559372E-3  
 2.014400000000000E10    1.461758256751906E-3   1.511859065094204E-3  
 2.014600000000000E10    1.862328680646089E-3   1.339165541274404E-3  
 2.014800000000000E10    2.213035391091749E-3   9.909759305796967E-4  
 2.015000000000000E10    2.458756056579727E-3   5.255630013481197E-4  
 2.015200000000000E10    2.598328403783618E-3  -3.692138542882511E-5  
 2.015400000000000E10    2.524262673600957E-3  -6.508545743094551E-4  
 2.015600000000000E10    2.238625237994172E-3  -1.163002952967805E-3  
 2.015800000000000E10    1.877239870804328E-3  -1.477618089497642E-3  
 2.016000000000000E10    1.516923687800213E-3  -1.609650884616982E-3  
 2.016200000000000E10    1.300848002924964E-3  -1.652959221111680E-3  
 2.016400000000000E10    1.269890154987850E-3  -1.770418016584935E-3  
 2.016600000000000E10    1.244764386986693E-3  -2.086973697361019E-3  
 2.016800000000000E10    9.916418003504753E-4  -2.556186445333340E-3  
 2.017000000000000E10    4.223603582768529E-4  -2.964291540491913E-3  
 2.017200000000000E10   -3.110286650351353E-4  -3.110185532865150E-3  
 2.017400000000000E10   -1.025655776848672E-3  -3.006396030455276E-3  
 2.017600000000000E10   -1.678790302119322E-3  -2.714815446072155E-3  
 2.017800000000000E10   -2.186675918185049E-3  -2.231310302805570E-3  
 2.018000000000000E10   -2.503127687507206E-3  -1.670684135105047E-3  
 2.018200000000000E10   -2.623225234586884E-3  -1.111795108213469E-3  
 2.018400000000000E10   -2.591016038355452E-3  -7.256942658892110E-4  
 2.018600000000000E10   -2.604722761100641E-3  -4.888144860699498E-4  
 2.018800000000000E10   -2.756824932509551E-3  -1.860071597211236E-4  
 2.019000000000000E10   -2.892455974317812E-3   2.593189322700104E-4  
 2.019200000000000E10   -2.895546326827672E-3   8.051657436967450E-4  
 2.019400000000000E10   -2.725309657829780E-3   1.348143581438948E-3  
 2.019600000000000E10   -2.449160433132892E-3   1.781195311600136E-3  
 2.019800000000000E10   -2.102140932240420E-3   2.134290765281077E-3  
 2.020000000000000E10   -1.753458951565403E-3   2.389784221088997E-3  
 2.020200000000000E10   -1.521598577878818E-3   2.649926968539755E-3  
 2.020400000000000E10   -1.203129167185614E-3   3.064963957984691E-3  
 2.020600000000000E10   -6.025718811778697E-4   3.423400783773374E-3  
 2.020800000000000E10    1.037963813309438E-4   3.558973540310507E-3  
 2.021000000000000E10    7.943923356597900E-4   3.529744766031703E-3  
 2.021200000000000E10    1.525471267221427E-3   3.351259864521800E-3  
 2.021400000000000E10    2.233363696615453E-3   2.947788711430299E-3  
 2.021600000000000E10    2.731021588530254E-3   2.286108538370442E-3  
 2.021800000000000E10    2.895840348813821E-3   1.589482451823575E-3  
 2.022000000000000E10    2.897946474452814E-3   1.104854418102790E-3  
 2.022200000000000E10    2.952962898200861E-3   7.352009803677599E-4  
 2.022400000000000E10    2.982292358798010E-3   3.535375149955077E-4  
 2.022600000000000E10    2.961942443141232E-3  -1.541739981837078E-6  
 2.022800000000000E10    3.047357390945157E-3  -2.699710226065859E-4  
 2.023000000000000E10    3.251528634724242E-3  -7.429673116550678E-4  
 2.023200000000000E10    3.215256198826764E-3  -1.511327719695314E-3  
 2.023400000000000E10    2.835594040031235E-3  -2.172220739777441E-3  
 2.023600000000000E10    2.339694864565024E-3  -2.630464922360801E-3  
 2.023800000000000E10    1.828381783087497E-3  -2.995660778617969E-3  
 2.024000000000000E10    1.302130722992674E-3  -3.289146504054467E-3  
 2.024200000000000E10    6.800277193111403E-4  -3.495770920481947E-3  
 2.024400000000000E10    2.799545472953469E-5  -3.522169595170353E-3  
 2.024600000000000E10   -5.783540783105074E-4  -3.437323970030304E-3  
 2.024800000000000E10   -1.157542608712835E-3  -3.273673743630449E-3  
 2.025000000000000E10   -1.730009206329231E-3  -2.980764713828211E-3  
 2.025200000000000E10   -2.236895185584824E-3  -2.563464955461246E-3  
 2.025400000000000E10   -2.572631075357398E-3  -2.008918500332921E-3  
 2.025600000000000E10   -2.721461182874111E-3  -1.465349609066767E-3  
 2.025800000000000E10   -2.774408044017576E-3  -1.044270548003691E-3  
 2.026000000000000E10   -2.854270274164501E-3  -7.454961068341854E-4  
 2.026200000000000E10   -3.000366794704288E-3  -4.386031898859613E-4  
 2.026400000000000E10   -3.210777804876368E-3  -1.421645033082717E-5  
 2.026600000000000E10   -3.364735188100626E-3   6.398176946849736E-4  
 2.026800000000000E10   -3.222013082079314E-3   1.353996012497831E-3  
 2.027000000000000E10   -2.862651582324395E-3   2.017437355351393E-3  
 2.027200000000000E10   -2.349904281328674E-3   2.548549117313491E-3  
 2.027400000000000E10   -1.712179423689291E-3   2.866011940770680E-3  
 2.027600000000000E10   -1.071688796704014E-3   2.988835520766400E-3  
 2.027800000000000E10   -5.655674871781635E-4   3.007572592684517E-3  
 2.028000000000000E10   -1.388057582382182E-4   3.029885469004513E-3  
 2.028200000000000E10    3.329951033703294E-4   2.991104912426737E-3  
 2.028400000000000E10    8.023521060951883E-4   2.869743336406020E-3  
 2.028600000000000E10    1.237878968283810E-3   2.712756628170610E-3  
 2.028800000000000E10    1.678535986381273E-3   2.438121294188831E-3  
 2.029000000000000E10    2.032223463713847E-3   2.109788047770659E-3  
 2.029200000000000E10    2.329602803069133E-3   1.762074694313385E-3  
 2.029400000000000E10    2.608285259662403E-3   1.324811920144216E-3  
 2.029600000000000E10    2.802719103379382E-3   8.150594270167253E-4  
 2.029800000000000E10    2.883840516140616E-3   3.158287845845162E-4  
 2.030000000000000E10    2.877025735668011E-3  -1.579906491786932E-4  
 2.030200000000000E10    2.788972704567843E-3  -5.905547403488999E-4  
 2.030400000000000E10    2.707848773786316E-3  -1.015598829663186E-3  
 2.030600000000000E10    2.601226946959893E-3  -1.482182251358474E-3  
 2.030800000000000E10    2.338003427549093E-3  -2.031158828349026E-3  
 2.031000000000000E10    1.893509416496036E-3  -2.547274766213917E-3  
 2.031200000000000E10    1.305065346295359E-3  -2.917806902486417E-3  
 2.031400000000000E10    5.419310160774601E-4  -3.174505524199318E-3  
 2.031600000000000E10   -3.574378820808812E-4  -3.108180197024787E-3  
 2.031800000000000E10   -1.012168984204807E-3  -2.591363654506428E-3  
 2.032000000000000E10   -1.219047354189334E-3  -2.035926742893127E-3  
 2.032200000000000E10   -1.240616064967105E-3  -1.711102922585000E-3  
 2.032400000000000E10   -1.279032504599955E-3  -1.558799162955472E-3  
 2.032600000000000E10   -1.388011043201442E-3  -1.417206971112777E-3  
 2.032800000000000E10   -1.525407600975423E-3  -1.289856986625603E-3  
 2.033000000000000E10   -1.694863838902503E-3  -1.193596265727172E-3  
 2.033200000000000E10   -1.983332059656580E-3  -1.047967816703022E-3  
 2.033400000000000E10   -2.294515130213566E-3  -6.387439422757814E-4  
 2.033600000000000E10   -2.379351752568727E-3  -3.824554927026232E-4  
 2.033800000000000E10   -2.395521306122343E-3   2.586504900439953E-4  
 2.034000000000000E10   -2.358344987172772E-3   6.628500564989670E-4  
 2.034200000000000E10   -2.281353601978885E-3   1.097368964649461E-3  
 2.034400000000000E10   -2.078233881750041E-3   1.533098260147704E-3  
 2.034600000000000E10   -1.772805298161176E-3   1.951733500593239E-3  
 2.034800000000000E10   -1.381790765595657E-3   2.351861386732371E-3  
 2.035000000000000E10   -8.045277187462760E-4   2.612505375442130E-3  
 2.035200000000000E10   -1.140563822614409E-4   2.650176442262751E-3  
 2.035400000000000E10    5.131837829981966E-4   2.410033070999715E-3  
 2.035600000000000E10    8.505766508514408E-4   2.009540580695978E-3  
 2.035800000000000E10    9.121401752862667E-4   1.684362387836532E-3  
 2.036000000000000E10    9.258979396825589E-4   1.583210438386434E-3  
 2.036200000000000E10    1.058613596897986E-3   1.610876712085749E-3  
 2.036400000000000E10    1.296348322217387E-3   1.580574571292986E-3  
 2.036600000000000E10    1.629776894804781E-3   1.515741347921667E-3  
 2.036800000000000E10    2.043986477440706E-3   1.352665678563493E-3  
 2.037000000000000E10    2.450003124842490E-3   9.437569296332422E-4  
 2.037200000000000E10    2.691197105579906E-3   3.758636173895664E-4  
 2.037400000000000E10    2.783570542103715E-3  -2.516757333608069E-4  
 2.037600000000000E10    2.663157449138386E-3  -8.819945268677894E-4  
 2.037800000000000E10    2.344663599850955E-3  -1.387730620249554E-3  
 2.038000000000000E10    1.990878993334870E-3  -1.737050811277220E-3  
 2.038200000000000E10    1.660807252240678E-3  -1.979127922957694E-3  
 2.038400000000000E10    1.351739456704646E-3  -2.216957173206740E-3  
 2.038600000000000E10    1.011470949311775E-3  -2.485709333861316E-3  
 2.038800000000000E10    5.396853709869363E-4  -2.719563181960473E-3  
 2.039000000000000E10   -5.982890555363459E-5  -2.794329741003889E-3  
 2.039200000000000E10   -6.564782018324844E-4  -2.672897160260214E-3  
 2.039400000000000E10   -1.091249114661305E-3  -2.413683182870348E-3  
 2.039600000000000E10   -1.396215891603519E-3  -2.171368182947238E-3  
 2.039800000000000E10   -1.701488689933387E-3  -1.919851552143141E-3  
 2.040000000000000E10   -1.963545766624588E-3  -1.615514741624120E-3  
 2.040200000000000E10   -2.119515927646447E-3  -1.335983160296800E-3  
 2.040400000000000E10   -2.365880206020342E-3  -1.109212956011847E-3  
 2.040600000000000E10   -2.658426416692911E-3  -7.799859460512246E-4  
 2.040800000000000E10   -2.906138103248345E-3  -3.187479817791394E-4  
 2.041000000000000E10   -3.073823017378648E-3   3.178131257839225E-4  
 2.041200000000000E10   -3.022809987197873E-3   1.033714123035747E-3  
 2.041400000000000E10   -2.735846874269623E-3   1.677760686207977E-3  
 2.041600000000000E10   -2.278010826557875E-3   2.200435200292204E-3  
 2.041800000000000E10   -1.736043788561667E-3   2.538641052389587E-3  
 2.042000000000000E10   -1.214835870390137E-3   2.719526006667703E-3  
 2.042200000000000E10   -6.791509502498365E-4   2.814286095262678E-3  
 2.042400000000000E10   -2.042995205287028E-4   2.803713686902214E-3  
 2.042600000000000E10    1.993890079903496E-4   2.746207355004218E-3  
 2.042800000000000E10    6.357671658473987E-4   2.654646454309976E-3  
 2.043000000000000E10    1.087481315523662E-3   2.488260459223832E-3  
 2.043200000000000E10    1.465933625931265E-3   2.212185783449699E-3  
 2.043400000000000E10    1.712126510769681E-3   1.884343607040743E-3  
 2.043600000000000E10    1.855093701225188E-3   1.616791321861523E-3  
 2.043800000000000E10    2.002236398833770E-3   1.439919703881498E-3  
 2.044000000000000E10    2.209938915998296E-3   1.246575412719890E-3  
 2.044200000000000E10    2.487257830108757E-3   1.021436068522572E-3  
 2.044400000000000E10    2.820057777205000E-3   7.020589309158150E-4  
 2.044600000000000E10    3.130274591967464E-3   1.628895665311979E-4  
 2.044800000000000E10    3.235948159945784E-3  -5.781270037577660E-4  
 2.045000000000000E10    3.092154412081948E-3  -1.346647773903829E-3  
 2.045200000000000E10    2.677750506403822E-3  -2.047176783283552E-3  
 2.045400000000000E10    1.985593983489607E-3  -2.529461962964248E-3  
 2.045600000000000E10    1.266774160925437E-3  -2.616098064377352E-3  
 2.045800000000000E10    7.830673453605011E-4  -2.469072868633602E-3  
 2.046000000000000E10    5.087000695143448E-4  -2.322647392887760E-3  
 2.046200000000000E10    3.592182690260450E-4  -2.283254776287962E-3  
 2.046400000000000E10    1.956144653916084E-4  -2.365590426725922E-3  
 2.046600000000000E10   -5.500748280879903E-5  -2.472002611116127E-3  
 2.046800000000000E10   -4.170072249878474E-4  -2.611972210514877E-3  
 2.047000000000000E10   -9.352594325146467E-4  -2.661435425074564E-3  
 2.047200000000000E10   -1.463174289609823E-3  -2.480884142978876E-3  
 2.047400000000000E10   -1.879534537524537E-3  -2.134922986712169E-3  
 2.047600000000000E10   -2.115254876790224E-3  -1.766619561412544E-3  
 2.047800000000000E10   -2.261226884675799E-3  -1.499860180990288E-3  
 2.048000000000000E10   -2.516958664205891E-3  -1.314170253290623E-3  
 2.048200000000000E10   -2.921206048793263E-3  -9.827891308641823E-4  
 2.048400000000000E10   -3.242129554834079E-3  -4.275368539512986E-4  
 2.048600000000000E10   -3.360082214284275E-3   2.950989173432053E-4  
 2.048800000000000E10   -3.218872326046781E-3   1.067597311231549E-3  
 2.049000000000000E10   -2.840357780870465E-3   1.663321999970962E-3  
 2.049200000000000E10   -2.376606480942832E-3   2.064908871910087E-3  
 2.049400000000000E10   -1.916889019344968E-3   2.357618150266785E-3  
 2.049600000000000E10   -1.442145194030470E-3   2.512997516465408E-3  
 2.049800000000000E10   -1.019450042534758E-3   2.546390096001603E-3  
 2.050000000000000E10   -7.192722793358068E-4   2.521947569524249E-3  
 2.050200000000000E10   -5.972658465099004E-4   2.589962781510420E-3  
 2.050400000000000E10   -3.678162961646363E-4   2.889519772940765E-3  
 2.050600000000000E10    2.050012138810147E-4   3.152953184865140E-3  
 2.050800000000000E10    8.976931481070266E-4   3.142798388445819E-3  
 2.051000000000000E10    1.459248299296532E-3   2.931670225397857E-3  
 2.051200000000000E10    1.991748068205737E-3   2.686479094403762E-3  
 2.051400000000000E10    2.534380191247221E-3   2.302483491668547E-3  
 2.051600000000000E10    2.941447758564243E-3   1.716593633992253E-3  
 2.051800000000000E10    3.114980886931773E-3   1.098706199425376E-3  
 2.052000000000000E10    3.213311467940609E-3   5.851785676053692E-4  
 2.052200000000000E10    3.312421048542968E-3   4.086558396078613E-5  
 2.052400000000000E10    3.287566032398631E-3  -6.296282108114275E-4  
 2.052600000000000E10    2.991760201338265E-3  -1.316111008809121E-3  
 2.052800000000000E10    2.499203378748563E-3  -1.754065160639585E-3  
 2.053000000000000E10    2.045106078084145E-3  -1.956912999351820E-3  
 2.053200000000000E10    1.682405868821122E-3  -2.109866658294643E-3  
 2.053400000000000E10    1.347169775895223E-3  -2.171328230933459E-3  
 2.053600000000000E10    1.104120074564384E-3  -2.180375201903560E-3  
 2.053800000000000E10    9.560968804483613E-4  -2.244776244171792E-3  
 2.054000000000000E10    8.713986996250849E-4  -2.429007311110144E-3  
 2.054200000000000E10    7.091173665011647E-4  -2.802927322961666E-3  
 2.054400000000000E10    2.557281132558948E-4  -3.262303148706755E-3  
 2.054600000000000E10   -5.363730618868161E-4  -3.623885335400701E-3  
 2.054800000000000E10   -1.590690709202102E-3  -3.587431101887315E-3  
 2.055000000000000E10   -2.550188236421457E-3  -3.013061540615228E-3  
 2.055200000000000E10   -3.107398058529254E-3  -2.169756511985152E-3  
 2.055400000000000E10   -3.286135503677307E-3  -1.315912861308014E-3  
 2.055600000000000E10   -3.234508266258571E-3  -6.026480491359339E-4  
