#  HZ   S   RI   R     50.00 
! Rohde & Schwarz ZVA40 4Ports - Version 3.90 - 1145.1110k42 SN: 100403
! Date: 2023-10-03 12:53:27
! Measurement: S12 
! 
 2.000000000000000E10    3.080930940254972E-3   1.629233625458761E-4  
 2.000200000000000E10    3.101458816133716E-3  -4.711607083057364E-4  
 2.000400000000000E10    2.941134946282815E-3  -1.137474362083056E-3  
 2.000600000000000E10    2.586826035338972E-3  -1.704839299674387E-3  
 2.000800000000000E10    2.138598321902532E-3  -2.115110582154659E-3  
 2.001000000000000E10    1.653145101887209E-3  -2.349177901460617E-3  
 2.001200000000000E10    1.236206101667550E-3  -2.507838575790326E-3  
 2.001400000000000E10    8.238805048340175E-4  -2.732619625964651E-3  
 2.001600000000000E10    1.860665625254452E-4  -2.877237102775663E-3  
 2.001800000000000E10   -4.727107750821032E-4  -2.683398132729862E-3  
 2.002000000000000E10   -9.016386617009564E-4  -2.299865699131732E-3  
 2.002200000000000E10   -1.146200729568524E-3  -1.892562800397476E-3  
 2.002400000000000E10   -1.218171898034160E-3  -1.585160778766429E-3  
 2.002600000000000E10   -1.243570953159145E-3  -1.423825419300960E-3  
 2.002800000000000E10   -1.314058214322561E-3  -1.339525049034920E-3  
 2.003000000000000E10   -1.453886593312577E-3  -1.260506950698241E-3  
 2.003200000000000E10   -1.653406613816818E-3  -1.168221731118306E-3  
 2.003400000000000E10   -1.937250283339785E-3  -1.051846231954793E-3  
 2.003600000000000E10   -2.333342511620787E-3  -7.639893878216823E-4  
 2.003800000000000E10   -2.630460636552286E-3  -1.765482248393474E-4  
 2.004000000000000E10   -2.587867374704392E-3   5.273391294327600E-4  
 2.004200000000000E10   -2.232079325174844E-3   1.102189192789848E-3  
 2.004400000000000E10   -1.748035334188629E-3   1.405117856511088E-3  
 2.004600000000000E10   -1.379966559061022E-3   1.438115184471287E-3  
 2.004800000000000E10   -1.236769534578478E-3   1.413237281937014E-3  
 2.005000000000000E10   -1.189237581221042E-3   1.565558210670672E-3  
 2.005200000000000E10   -1.006725817677324E-3   1.856266081126200E-3  
 2.005400000000000E10   -6.882593497047546E-4   2.108292938727472E-3  
 2.005600000000000E10   -2.588972156108530E-4   2.249180382393577E-3  
 2.005800000000000E10    1.775256578521631E-4   2.247448682923008E-3  
 2.006000000000000E10    5.853246677563423E-4   2.178581957532852E-3  
 2.006200000000000E10    1.019804078775148E-3   2.002027489382912E-3  
 2.006400000000000E10    1.371293824545487E-3   1.685919291857216E-3  
 2.006600000000000E10    1.527780468610150E-3   1.348814875301388E-3  
 2.006800000000000E10    1.590659591817746E-3   1.115907660547506E-3  
 2.007000000000000E10    1.744274774359332E-3   9.737053058213659E-4  
 2.007200000000000E10    2.029134995407529E-3   7.258754792726703E-4  
 2.007400000000000E10    2.227990939799283E-3   2.665112196053896E-4  
 2.007600000000000E10    2.210257454188886E-3  -2.281026121366907E-4  
 2.007800000000000E10    2.086365379876009E-3  -6.647881172183488E-4  
 2.008000000000000E10    1.840518533114206E-3  -1.063490972026355E-3  
 2.008200000000000E10    1.500020122707442E-3  -1.376891176699212E-3  
 2.008400000000000E10    1.112801100437840E-3  -1.542143985042694E-3  
 2.008600000000000E10    7.762948947924156E-4  -1.552920473773999E-3  
 2.008800000000000E10    5.044041996976982E-4  -1.500031660759339E-3  
 2.009000000000000E10    3.300240938120557E-4  -1.401997309316088E-3  
 2.009200000000000E10    3.247217370059204E-4  -1.398453230245246E-3  
 2.009400000000000E10    2.249050729140571E-4  -1.584540867177701E-3  
 2.009600000000000E10   -5.662447559492043E-5  -1.740422552554972E-3  
 2.009800000000000E10   -4.108403507551110E-4  -1.777054336680859E-3  
 2.010000000000000E10   -7.731475009306991E-4  -1.665621262940544E-3  
 2.010200000000000E10   -1.043275240118857E-3  -1.497657788503502E-3  
 2.010400000000000E10   -1.288331204300954E-3  -1.364762950861068E-3  
 2.010600000000000E10   -1.564232240155063E-3  -1.177357798614712E-3  
 2.010800000000000E10   -1.864441644607319E-3  -8.630634229457766E-4  
 2.011000000000000E10   -2.044786181714800E-3  -4.004606711936909E-4  
 2.011200000000000E10   -2.056966647850695E-3   5.470333831083365E-5  
 2.011400000000000E10   -1.956976544870823E-3   4.718642858615905E-4  
 2.011600000000000E10   -1.775623200012854E-3   8.422948821033870E-4  
 2.011800000000000E10   -1.490697441450148E-3   1.167531095065729E-3  
 2.012000000000000E10   -1.088481767241050E-3   1.372840988484246E-3  
 2.012200000000000E10   -7.169828297466870E-4   1.369173384133589E-3  
 2.012400000000000E10   -5.348745121241168E-4   1.240370113885513E-3  
 2.012600000000000E10   -4.655734066747958E-4   1.161475454595078E-3  
 2.012800000000000E10   -4.425479004297544E-4   1.195365140490510E-3  
 2.013000000000000E10   -3.921381667842745E-4   1.331311534158886E-3  
 2.013200000000000E10   -2.333865559194237E-4   1.516195311624971E-3  
 2.013400000000000E10    4.222277069250897E-5   1.630698071999683E-3  
 2.013600000000000E10    3.279910608263755E-4   1.647880210334228E-3  
 2.013800000000000E10    5.922933751544744E-4   1.591132263894434E-3  
 2.014000000000000E10    8.391528002296886E-4   1.476502934194825E-3  
 2.014200000000000E10    1.034142074382140E-3   1.426112553518680E-3  
 2.014400000000000E10    1.302665802305219E-3   1.394751973243224E-3  
 2.014600000000000E10    1.637925251594021E-3   1.249187539711043E-3  
 2.014800000000000E10    1.982039159715728E-3   9.652135195210578E-4  
 2.015000000000000E10    2.253113486976536E-3   5.744625749583874E-4  
 2.015200000000000E10    2.431912218324013E-3   7.615935033687426E-5  
 2.015400000000000E10    2.438825201588097E-3  -5.037028933185396E-4  
 2.015600000000000E10    2.202294508202209E-3  -1.013193038050775E-3  
 2.015800000000000E10    1.836312943379636E-3  -1.359911074999858E-3  
 2.016000000000000E10    1.479163261440893E-3  -1.508612073612986E-3  
 2.016200000000000E10    1.289116856814535E-3  -1.521689631907201E-3  
 2.016400000000000E10    1.297688607505902E-3  -1.591152110550967E-3  
 2.016600000000000E10    1.307801041683113E-3  -1.929256107865109E-3  
 2.016800000000000E10    1.081152944135721E-3  -2.448136150767958E-3  
 2.017000000000000E10    5.429055912558128E-4  -2.896872547420639E-3  
 2.017200000000000E10   -1.664793299924996E-4  -3.076077973539080E-3  
 2.017400000000000E10   -8.636358090572889E-4  -3.020195402549925E-3  
 2.017600000000000E10   -1.516002019073953E-3  -2.776112795496981E-3  
 2.017800000000000E10   -2.072006015589944E-3  -2.340743990821971E-3  
 2.018000000000000E10   -2.459340539105513E-3  -1.800421858206392E-3  
 2.018200000000000E10   -2.578430671106886E-3  -1.223531883658359E-3  
 2.018400000000000E10   -2.507537905195797E-3  -8.403655762473743E-4  
 2.018600000000000E10   -2.554310623694349E-3  -6.578626882940256E-4  
 2.018800000000000E10   -2.807326442389577E-3  -4.063002965671735E-4  
 2.019000000000000E10   -3.075900004693756E-3   6.386810451254455E-5  
 2.019200000000000E10   -3.180406668602869E-3   7.126483833417296E-4  
 2.019400000000000E10   -3.026131652640525E-3   1.396491787292891E-3  
 2.019600000000000E10   -2.668881918200188E-3   1.977222165334280E-3  
 2.019800000000000E10   -2.219550251201899E-3   2.431693573102907E-3  
 2.020000000000000E10   -1.735968998184911E-3   2.708689352773406E-3  
 2.020200000000000E10   -1.366367930097989E-3   2.861122540370734E-3  
 2.020400000000000E10   -1.002976502705779E-3   3.148963321345272E-3  
 2.020600000000000E10   -4.151412523006676E-4   3.439857805561689E-3  
 2.020800000000000E10    2.398413794085004E-4   3.533967451571867E-3  
 2.021000000000000E10    8.910760257600083E-4   3.524449421092869E-3  
 2.021200000000000E10    1.634810365633005E-3   3.371134659068453E-3  
 2.021400000000000E10    2.374243698324318E-3   2.948854066845444E-3  
 2.021600000000000E10    2.912188397237548E-3   2.241350951845999E-3  
 2.021800000000000E10    3.096875294836031E-3   1.471587836190507E-3  
 2.022000000000000E10    3.034952510562208E-3   9.185405236806860E-4  
 2.022200000000000E10    2.963861588526655E-3   5.159785613176172E-4  
 2.022400000000000E10    2.912307753124171E-3   1.670494190572451E-4  
 2.022600000000000E10    2.873527627714255E-3  -1.065414813907679E-4  
 2.022800000000000E10    2.994800952297670E-3  -3.377044491504354E-4  
 2.023000000000000E10    3.262493992224336E-3  -8.096596338199797E-4  
 2.023200000000000E10    3.262257634627599E-3  -1.622143179971587E-3  
 2.023400000000000E10    2.833799303819736E-3  -2.374183110616826E-3  
 2.023600000000000E10    2.259446420120421E-3  -2.885373662812291E-3  
 2.023800000000000E10    1.650392599576326E-3  -3.214421958007195E-3  
 2.024000000000000E10    1.040125356262757E-3  -3.399478504434229E-3  
 2.024200000000000E10    4.026923399780774E-4  -3.472760198982778E-3  
 2.024400000000000E10   -1.962464178817485E-4  -3.414701748018464E-3  
 2.024600000000000E10   -7.313068447358631E-4  -3.297010764341664E-3  
 2.024800000000000E10   -1.243858783574844E-3  -3.147133815757655E-3  
 2.025000000000000E10   -1.777959392509527E-3  -2.903503960826331E-3  
 2.025200000000000E10   -2.266561629733554E-3  -2.503089968942934E-3  
 2.025400000000000E10   -2.633182823451029E-3  -1.957939687633404E-3  
 2.025600000000000E10   -2.826036721536959E-3  -1.409496823153286E-3  
 2.025800000000000E10   -2.867126035400563E-3  -9.708868262047570E-4  
 2.026000000000000E10   -2.885956230952784E-3  -6.275514304568923E-4  
 2.026200000000000E10   -2.977094630262367E-3  -2.746069264874139E-4  
 2.026400000000000E10   -3.117729262966249E-3   1.393004307896330E-4  
 2.026600000000000E10   -3.195901953235821E-3   7.431445324241565E-4  
 2.026800000000000E10   -3.055960664318668E-3   1.374625031732851E-3  
 2.027000000000000E10   -2.765432733145577E-3   1.945740133696408E-3  
 2.027200000000000E10   -2.304349413693503E-3   2.451671477131270E-3  
 2.027400000000000E10   -1.691361712464304E-3   2.827962058492833E-3  
 2.027600000000000E10   -1.069396475536956E-3   2.992681546688632E-3  
 2.027800000000000E10   -5.580149310709979E-4   2.974426365216022E-3  
 2.028000000000000E10   -1.219788066885451E-4   2.932436229592121E-3  
 2.028200000000000E10    3.402069829732042E-4   2.853818565469098E-3  
 2.028400000000000E10    7.498748923858836E-4   2.701417775824666E-3  
 2.028600000000000E10    1.115072113289326E-3   2.601098484808097E-3  
 2.028800000000000E10    1.525113397898774E-3   2.435276517644525E-3  
 2.029000000000000E10    1.889641758882337E-3   2.173258681540136E-3  
 2.029200000000000E10    2.235050201071082E-3   1.853408628246851E-3  
 2.029400000000000E10    2.599079342972902E-3   1.433511454336069E-3  
 2.029600000000000E10    2.848206122440321E-3   8.889785277898666E-4  
 2.029800000000000E10    2.898201027333185E-3   3.510709966239692E-4  
 2.030000000000000E10    2.820376315395589E-3  -1.519598776616881E-4  
 2.030200000000000E10    2.683570194575522E-3  -5.521956805346741E-4  
 2.030400000000000E10    2.601432553664954E-3  -8.994447502859489E-4  
 2.030600000000000E10    2.577320810545374E-3  -1.327286728795756E-3  
 2.030800000000000E10    2.442021871468535E-3  -1.885254233558145E-3  
 2.031000000000000E10    2.056009187880490E-3  -2.462934952712170E-3  
 2.031200000000000E10    1.431379437067167E-3  -2.940449466997827E-3  
 2.031400000000000E10    5.932651348067103E-4  -3.261523519608158E-3  
 2.031600000000000E10   -3.507900002188291E-4  -3.154264383569912E-3  
 2.031800000000000E10   -1.014876228981410E-3  -2.563796764998525E-3  
 2.032000000000000E10   -1.211033741667591E-3  -1.960225480919083E-3  
 2.032200000000000E10   -1.187635827119704E-3  -1.605692405805544E-3  
 2.032400000000000E10   -1.192159071150753E-3  -1.470537580273770E-3  
 2.032600000000000E10   -1.285365058316125E-3  -1.410482425449623E-3  
 2.032800000000000E10   -1.443020391484930E-3  -1.340404187363607E-3  
 2.033000000000000E10   -1.651114292649759E-3  -1.215232126587243E-3  
 2.033200000000000E10   -1.959117970222401E-3  -1.000545276501388E-3  
 2.033400000000000E10   -2.236301596793864E-3  -5.961549037170632E-4  
 2.033600000000000E10   -2.264054733569975E-3  -3.667556690440203E-4  
 2.033800000000000E10   -2.228684964831229E-3   2.251619982955702E-4  
 2.034000000000000E10   -2.153879928368110E-3   5.555154369816322E-4  
 2.034200000000000E10   -2.074001710516988E-3   8.928784259801940E-4  
 2.034400000000000E10   -1.982146736096453E-3   1.251741062366852E-3  
 2.034600000000000E10   -1.833106813676380E-3   1.637543499883679E-3  
 2.034800000000000E10   -1.552125516658028E-3   2.073810901492834E-3  
 2.035000000000000E10   -1.033493291793598E-3   2.444922337653461E-3  
 2.035200000000000E10   -3.764321790421727E-4   2.603661907077940E-3  
 2.035400000000000E10    2.668037254975557E-4   2.490925731965237E-3  
 2.035600000000000E10    6.766268353978242E-4   2.125584071984998E-3  
 2.035800000000000E10    8.189987684427589E-4   1.784075814713207E-3  
 2.036000000000000E10    8.465476760951183E-4   1.652103085588250E-3  
 2.036200000000000E10    1.002627718089908E-3   1.673331971418251E-3  
 2.036400000000000E10    1.263352287760764E-3   1.679758235156812E-3  
 2.036600000000000E10    1.586324056713946E-3   1.645949194897656E-3  
 2.036800000000000E10    2.041505330621645E-3   1.497352983009208E-3  
 2.037000000000000E10    2.531721041089407E-3   1.041331418996884E-3  
 2.037200000000000E10    2.808161071260219E-3   4.139247089538172E-4  
 2.037400000000000E10    2.875274305956231E-3  -2.310028692052045E-4  
 2.037600000000000E10    2.718332266710975E-3  -8.684279767934371E-4  
 2.037800000000000E10    2.391055260819418E-3  -1.380263987273254E-3  
 2.038000000000000E10    2.002017356938234E-3  -1.744130600450768E-3  
 2.038200000000000E10    1.652213214482698E-3  -1.990007202106494E-3  
 2.038400000000000E10    1.374645645868171E-3  -2.191479774881845E-3  
 2.038600000000000E10    1.076234056165925E-3  -2.434582915157080E-3  
 2.038800000000000E10    6.087318631923862E-4  -2.708497474452964E-3  
 2.039000000000000E10    8.702108499602663E-6  -2.838237064511136E-3  
 2.039200000000000E10   -5.941512903922963E-4  -2.774814678425039E-3  
 2.039400000000000E10   -1.074595432900996E-3  -2.511784736136044E-3  
 2.039600000000000E10   -1.420983617814879E-3  -2.231412291250848E-3  
 2.039800000000000E10   -1.726650964917133E-3  -1.930076542689845E-3  
 2.040000000000000E10   -1.964007512907740E-3  -1.603741901581762E-3  
 2.040200000000000E10   -2.106745382425962E-3  -1.359190765975250E-3  
 2.040400000000000E10   -2.341868148909675E-3  -1.189659211646628E-3  
 2.040600000000000E10   -2.664802708076659E-3  -8.696190564444773E-4  
 2.040800000000000E10   -2.984300635203168E-3  -3.783442618980729E-4  
 2.041000000000000E10   -3.200014984166181E-3   3.057683745821662E-4  
 2.041200000000000E10   -3.125058193863542E-3   1.058420614787826E-3  
 2.041400000000000E10   -2.786986693670905E-3   1.713780233533018E-3  
 2.041600000000000E10   -2.290671932752486E-3   2.240078342664573E-3  
 2.041800000000000E10   -1.687570996754975E-3   2.576542983728427E-3  
 2.042000000000000E10   -1.152975933143386E-3   2.711259639235559E-3  
 2.042200000000000E10   -6.966671833113112E-4   2.764111151918769E-3  
 2.042400000000000E10   -2.678149472490919E-4   2.748141970692410E-3  
 2.042600000000000E10    1.283865683742786E-4   2.708309597370250E-3  
 2.042800000000000E10    5.576028035850162E-4   2.655922607691200E-3  
 2.043000000000000E10    1.010888782157390E-3   2.541861953903680E-3  
 2.043200000000000E10    1.390497915929666E-3   2.298135534618740E-3  
 2.043400000000000E10    1.656801780444329E-3   1.974468990401538E-3  
 2.043600000000000E10    1.803530716440744E-3   1.697219890990743E-3  
 2.043800000000000E10    1.988212189947566E-3   1.515228896298342E-3  
 2.044000000000000E10    2.228169253578893E-3   1.339797404836174E-3  
 2.044200000000000E10    2.509417960903159E-3   1.117290743557667E-3  
 2.044400000000000E10    2.832025410262523E-3   7.962085893032729E-4  
 2.044600000000000E10    3.160944010165555E-3   2.481936109554092E-4  
 2.044800000000000E10    3.306041074985708E-3  -5.144843833275243E-4  
 2.045000000000000E10    3.185909853696272E-3  -1.288310223672953E-3  
 2.045200000000000E10    2.790259844106105E-3  -2.005532021737761E-3  
 2.045400000000000E10    2.088612976001093E-3  -2.517651257760547E-3  
 2.045600000000000E10    1.330350417885240E-3  -2.613783210378003E-3  
 2.045800000000000E10    8.372191201757504E-4  -2.466457654480581E-3  
 2.046000000000000E10    6.003853470449233E-4  -2.302261448844716E-3  
 2.046200000000000E10    5.055246529755770E-4  -2.274557792892059E-3  
 2.046400000000000E10    3.416567579498171E-4  -2.404295485811653E-3  
 2.046600000000000E10    4.739086095166085E-5  -2.572831723632084E-3  
 2.046800000000000E10   -3.679636429296807E-4  -2.746198222868973E-3  
 2.047000000000000E10   -9.220444933614798E-4  -2.782732791577777E-3  
 2.047200000000000E10   -1.454239206699034E-3  -2.577990500463380E-3  
 2.047400000000000E10   -1.859687079020121E-3  -2.225070846853433E-3  
 2.047600000000000E10   -2.137264055717323E-3  -1.857156145248424E-3  
 2.047800000000000E10   -2.348674038701036E-3  -1.573251737109213E-3  
 2.048000000000000E10   -2.599231622837209E-3  -1.349244008047713E-3  
 2.048200000000000E10   -2.952886607359958E-3  -1.009354850760213E-3  
 2.048400000000000E10   -3.246127325972474E-3  -4.445396027424270E-4  
 2.048600000000000E10   -3.375354136719749E-3   2.653655397740228E-4  
 2.048800000000000E10   -3.272398211130942E-3   1.026956028201514E-3  
 2.049000000000000E10   -2.907681425481483E-3   1.661276436169391E-3  
 2.049200000000000E10   -2.424398782076659E-3   2.086406987574366E-3  
 2.049400000000000E10   -1.910161955661520E-3   2.373884069836802E-3  
 2.049600000000000E10   -1.405271231541755E-3   2.502654610132730E-3  
 2.049800000000000E10   -1.041129334933228E-3   2.505276084843058E-3  
 2.050000000000000E10   -7.837223410778853E-4   2.470850961765757E-3  
 2.050200000000000E10   -6.721394515975759E-4   2.527282849230149E-3  
 2.050400000000000E10   -4.567200289952949E-4   2.848584394626044E-3  
 2.050600000000000E10    1.008721279773723E-4   3.177220622698467E-3  
 2.050800000000000E10    8.124863638335633E-4   3.229973380695339E-3  
 2.051000000000000E10    1.426202059654450E-3   3.044250990367599E-3  
 2.051200000000000E10    1.998189560793065E-3   2.770126512688068E-3  
 2.051400000000000E10    2.563835095821156E-3   2.321241949512451E-3  
 2.051600000000000E10    2.963923029946509E-3   1.704689029052302E-3  
 2.051800000000000E10    3.106400155013910E-3   1.106862155548125E-3  
 2.052000000000000E10    3.165565051690297E-3   6.255545864675056E-4  
 2.052200000000000E10    3.257654107141275E-3   1.130056556306684E-4  
 2.052400000000000E10    3.273545945477155E-3  -5.469680321834017E-4  
 2.052600000000000E10    3.036429338088191E-3  -1.240514102391899E-3  
 2.052800000000000E10    2.568192788641210E-3  -1.718731678987819E-3  
 2.053000000000000E10    2.098759825996779E-3  -1.949828743279257E-3  
 2.053200000000000E10    1.696943038108725E-3  -2.081744459078268E-3  
 2.053400000000000E10    1.342750818434137E-3  -2.146798513691735E-3  
 2.053600000000000E10    1.140509913158086E-3  -2.171039236364542E-3  
 2.053800000000000E10    1.016359896985469E-3  -2.250445058086404E-3  
 2.054000000000000E10    9.219576906481828E-4  -2.422706180907511E-3  
 2.054200000000000E10    7.560108939220232E-4  -2.795709167710609E-3  
 2.054400000000000E10    2.976433994869391E-4  -3.286273132457778E-3  
 2.054600000000000E10   -4.977488349174598E-4  -3.682810683838196E-3  
 2.054800000000000E10   -1.577637925813044E-3  -3.666983149876749E-3  
 2.055000000000000E10   -2.565560094943202E-3  -3.088271590294662E-3  
 2.055200000000000E10   -3.150790947041026E-3  -2.199924369860027E-3  
 2.055400000000000E10   -3.377877926040027E-3  -1.315285352541617E-3  
 2.055600000000000E10   -3.330435776324184E-3  -5.511351369528307E-4  
