#  HZ   S   RI   R     50.00 
! Rohde & Schwarz ZVA40 4Ports - Version 3.90 - 1145.1110k42 SN: 100403
! Date: 2023-10-03 12:53:57
! Measurement: S12 
! 
 2.000000000000000E10    2.363090205040795E-3  -1.637017578576450E-3  
 2.000200000000000E10    2.078175178246090E-3  -2.129789010656101E-3  
 2.000400000000000E10    1.649269834160805E-3  -2.572700657226422E-3  
 2.000600000000000E10    1.093195220972929E-3  -2.871080448299095E-3  
 2.000800000000000E10    4.840507312177646E-4  -3.028511043844952E-3  
 2.001000000000000E10   -1.493193195966780E-4  -3.007949243679091E-3  
 2.001200000000000E10   -6.591843471310482E-4  -2.854770696204570E-3  
 2.001400000000000E10   -1.091381677219437E-3  -2.738525254513931E-3  
 2.001600000000000E10   -1.668135557944576E-3  -2.526749253135037E-3  
 2.001800000000000E10   -2.207787017579432E-3  -2.056421026484006E-3  
 2.002000000000000E10   -2.496821736847913E-3  -1.425488343186401E-3  
 2.002200000000000E10   -2.567286818736682E-3  -7.956648844777160E-4  
 2.002400000000000E10   -2.468887897622255E-3  -2.735088955550627E-4  
 2.002600000000000E10   -2.259018511890813E-3   7.213196335619109E-5  
 2.002800000000000E10   -2.125695084773556E-3   2.952441422234255E-4  
 2.003000000000000E10   -2.047408126398094E-3   5.081726412754506E-4  
 2.003200000000000E10   -1.975403335462842E-3   7.197881436527328E-4  
 2.003400000000000E10   -1.929045641898281E-3   9.035383484809213E-4  
 2.003600000000000E10   -1.959120682268232E-3   1.199460838472954E-3  
 2.003800000000000E10   -1.899625709349359E-3   1.708642627043581E-3  
 2.004000000000000E10   -1.541683864262369E-3   2.268524279955913E-3  
 2.004200000000000E10   -9.088709139851510E-4   2.643852261826396E-3  
 2.004400000000000E10   -1.649590469444068E-4   2.701339958649543E-3  
 2.004600000000000E10    4.316610607525541E-4   2.444265168850069E-3  
 2.004800000000000E10    7.461977139529255E-4   2.095140167512000E-3  
 2.005000000000000E10    8.791959844529629E-4   1.887402993074998E-3  
 2.005200000000000E10    1.058025440822045E-3   1.819959759746713E-3  
 2.005400000000000E10    1.347266391988982E-3   1.726057932332710E-3  
 2.005600000000000E10    1.706011209602433E-3   1.517020015011507E-3  
 2.005800000000000E10    1.974751711478112E-3   1.178508520954185E-3  
 2.006000000000000E10    2.170706685218547E-3   8.268605279563755E-4  
 2.006200000000000E10    2.324604274084171E-3   3.996993333135767E-4  
 2.006400000000000E10    2.343821356555930E-3  -9.859798861995205E-5  
 2.006600000000000E10    2.212500268662418E-3  -5.418639824104806E-4  
 2.006800000000000E10    1.976086046650178E-3  -8.849385517856314E-4  
 2.007000000000000E10    1.770728401391319E-3  -1.055199659377751E-3  
 2.007200000000000E10    1.726955403918746E-3  -1.236830542674633E-3  
 2.007400000000000E10    1.649544884761175E-3  -1.626764540560544E-3  
 2.007600000000000E10    1.353224541095120E-3  -2.040259587509489E-3  
 2.007800000000000E10    9.217264811956773E-4  -2.356504857609118E-3  
 2.008000000000000E10    3.817187410917271E-4  -2.557670904530420E-3  
 2.008200000000000E10   -2.142576385166548E-4  -2.570832846686244E-3  
 2.008400000000000E10   -8.051899968887922E-4  -2.413904691046035E-3  
 2.008600000000000E10   -1.278209728533747E-3  -2.074942880965494E-3  
 2.008800000000000E10   -1.571020844426972E-3  -1.645188623418411E-3  
 2.009000000000000E10   -1.671589760075289E-3  -1.205488112410186E-3  
 2.009200000000000E10   -1.600424172701659E-3  -9.032968060906841E-4  
 2.009400000000000E10   -1.604604564986571E-3  -7.968331445698386E-4  
 2.009600000000000E10   -1.749271841685254E-3  -6.862960333280542E-4  
 2.009800000000000E10   -1.934628735330922E-3  -4.694060060299105E-4  
 2.010000000000000E10   -2.061104652023426E-3  -1.301010031764034E-4  
 2.010200000000000E10   -2.068084819863240E-3   2.364016573766195E-4  
 2.010400000000000E10   -2.035934883342297E-3   5.494307314856323E-4  
 2.010600000000000E10   -2.018969738855958E-3   8.502852266516401E-4  
 2.010800000000000E10   -1.994759327283612E-3   1.217818275714914E-3  
 2.011000000000000E10   -1.845576222641049E-3   1.686014549772221E-3  
 2.011200000000000E10   -1.499265315942466E-3   2.115820405176945E-3  
 2.011400000000000E10   -1.057810913253990E-3   2.450357656925917E-3  
 2.011600000000000E10   -5.280721363508040E-4   2.694553048867319E-3  
 2.011800000000000E10    9.117220125281841E-5   2.800918184220791E-3  
 2.012000000000000E10    7.730295722096884E-4   2.690323352537774E-3  
 2.012200000000000E10    1.369275683019724E-3   2.312657552667790E-3  
 2.012400000000000E10    1.717156122645570E-3   1.828095504876089E-3  
 2.012600000000000E10    1.856861562744059E-3   1.355431689363387E-3  
 2.012800000000000E10    1.849426650787118E-3   9.934608695200749E-4  
 2.013000000000000E10    1.812379324325809E-3   7.618583730180507E-4  
 2.013200000000000E10    1.867136814528042E-3   6.282437933367436E-4  
 2.013400000000000E10    2.035718566427629E-3   4.152407033230972E-4  
 2.013600000000000E10    2.166414779990360E-3   6.630608888574191E-5  
 2.013800000000000E10    2.186214577199684E-3  -3.351489043173691E-4  
 2.014000000000000E10    2.035356833840962E-3  -7.774876797123364E-4  
 2.014200000000000E10    1.757327199879068E-3  -1.063832543203952E-3  
 2.014400000000000E10    1.549566281028092E-3  -1.206982359117656E-3  
 2.014600000000000E10    1.434066720927755E-3  -1.350596400529698E-3  
 2.014800000000000E10    1.323424935064934E-3  -1.567840213990874E-3  
 2.015000000000000E10    1.140396205570411E-3  -1.807648723048193E-3  
 2.015200000000000E10    8.958136874113095E-4  -2.081656380108109E-3  
 2.015400000000000E10    5.055431069599257E-4  -2.364097275184813E-3  
 2.015600000000000E10   -3.462832396676445E-5  -2.492714405956644E-3  
 2.015800000000000E10   -6.049803427972452E-4  -2.404241244895039E-3  
 2.016000000000000E10   -1.117652359729012E-3  -2.104075228864397E-3  
 2.016200000000000E10   -1.433370397771123E-3  -1.631684890189381E-3  
 2.016400000000000E10   -1.430747629557219E-3  -1.195403393702927E-3  
 2.016600000000000E10   -1.279240775922382E-3  -1.019633017238920E-3  
 2.016800000000000E10   -1.242170244006923E-3  -1.071989044754042E-3  
 2.017000000000000E10   -1.437625614926219E-3  -1.153887628957078E-3  
 2.017200000000000E10   -1.801597808177273E-3  -1.069924369437137E-3  
 2.017400000000000E10   -2.148599648434255E-3  -8.118615002819786E-4  
 2.017600000000000E10   -2.447584583596499E-3  -4.058955226490206E-4  
 2.017800000000000E10   -2.578767715021968E-3   1.567819947215160E-4  
 2.018000000000000E10   -2.510495647719061E-3   7.493680761264707E-4  
 2.018200000000000E10   -2.213410205311246E-3   1.310525716420401E-3  
 2.018400000000000E10   -1.742435727027004E-3   1.605906670361206E-3  
 2.018600000000000E10   -1.402619889833861E-3   1.637070004276380E-3  
 2.018800000000000E10   -1.270563984117298E-3   1.704513483370344E-3  
 2.019000000000000E10   -1.137465980179884E-3   1.911961775342072E-3  
 2.019200000000000E10   -8.943384530505650E-4   2.183685958799389E-3  
 2.019400000000000E10   -5.113927763886750E-4   2.437383669463021E-3  
 2.019600000000000E10   -3.239289940716441E-5   2.536543239666908E-3  
 2.019800000000000E10    4.667196200763876E-4   2.472367663695305E-3  
 2.020000000000000E10    9.197108318201371E-4   2.249781464881920E-3  
 2.020200000000000E10    1.184206145505111E-3   1.949359020390721E-3  
 2.020400000000000E10    1.323445337928004E-3   1.801540855214828E-3  
 2.020600000000000E10    1.566837593499157E-3   1.701284786341367E-3  
 2.020800000000000E10    1.860637002176157E-3   1.508063899732575E-3  
 2.021000000000000E10    2.123196790408758E-3   1.271808338868949E-3  
 2.021200000000000E10    2.460812675525193E-3   1.006709262987392E-3  
 2.021400000000000E10    2.855504009251793E-3   5.263473722152412E-4  
 2.021600000000000E10    3.013980609399302E-3  -2.221100590691936E-4  
 2.021800000000000E10    2.767189035054159E-3  -1.002764907079163E-3  
 2.022000000000000E10    2.273858516235595E-3  -1.491466851870495E-3  
 2.022200000000000E10    1.815909368882853E-3  -1.778711978760031E-3  
 2.022400000000000E10    1.370082609355450E-3  -1.925548253994850E-3  
 2.022600000000000E10    9.389606528674012E-4  -1.909991157137686E-3  
 2.022800000000000E10    6.990070450464610E-4  -1.752815067043735E-3  
 2.023000000000000E10    7.245308887730872E-4  -1.741603905059121E-3  
 2.023200000000000E10    6.268153611691326E-4  -2.057148885257818E-3  
 2.023400000000000E10    2.371282941937723E-4  -2.313499183704456E-3  
 2.023600000000000E10   -2.294282468803296E-4  -2.351163903734199E-3  
 2.023800000000000E10   -6.833978113718331E-4  -2.252822138231110E-3  
 2.024000000000000E10   -1.077034950463309E-3  -2.074245742901608E-3  
 2.024200000000000E10   -1.440203584799612E-3  -1.845330047352171E-3  
 2.024400000000000E10   -1.722327381786373E-3  -1.520965343203258E-3  
 2.024600000000000E10   -1.904511332718863E-3  -1.171913209233295E-3  
 2.024800000000000E10   -2.044726154525523E-3  -8.521048002876341E-4  
 2.025000000000000E10   -2.178246569302348E-3  -4.934853894627412E-4  
 2.025200000000000E10   -2.279460438768621E-3  -7.420372518633184E-5  
 2.025400000000000E10   -2.206793874157248E-3   4.066978495016143E-4  
 2.025600000000000E10   -1.944842778525695E-3   8.341601221925684E-4  
 2.025800000000000E10   -1.561266288195772E-3   1.105217991776213E-3  
 2.026000000000000E10   -1.225229628660061E-3   1.155185099277232E-3  
 2.026200000000000E10   -1.064393475341300E-3   1.101921454796361E-3  
 2.026400000000000E10   -1.058202719798795E-3   1.115167341022580E-3  
 2.026600000000000E10   -1.046254995917143E-3   1.332368593904431E-3  
 2.026800000000000E10   -8.636396292045162E-4   1.610985431061299E-3  
 2.027000000000000E10   -5.746528816719850E-4   1.842220210366779E-3  
 2.027200000000000E10   -2.087538445333916E-4   2.010818256099743E-3  
 2.027400000000000E10    2.405604399326775E-4   2.040670270583144E-3  
 2.027600000000000E10    7.043796013695775E-4   1.870482405475169E-3  
 2.027800000000000E10    1.015678078315600E-3   1.559848729003635E-3  
 2.028000000000000E10    1.193349314336148E-3   1.290901382971141E-3  
 2.028200000000000E10    1.308403219337817E-3   1.035519194340816E-3  
 2.028400000000000E10    1.328696108733615E-3   7.822507737997783E-4  
 2.028600000000000E10    1.359120270030366E-3   6.475662467656313E-4  
 2.028800000000000E10    1.459300634451211E-3   4.805324133485556E-4  
 2.029000000000000E10    1.545124747617930E-3   2.754752748404388E-4  
 2.029200000000000E10    1.643100361063801E-3   8.883340558019914E-5  
 2.029400000000000E10    1.729336071380035E-3  -1.954614365752572E-4  
 2.029600000000000E10    1.691610880058121E-3  -5.734540129735791E-4  
 2.029800000000000E10    1.516289608035651E-3  -9.315513587487794E-4  
 2.030000000000000E10    1.257273842822071E-3  -1.198538303099297E-3  
 2.030200000000000E10    9.594099936765378E-4  -1.287349210879593E-3  
 2.030400000000000E10    7.888972823922007E-4  -1.285411020809854E-3  
 2.030600000000000E10    7.342578825989256E-4  -1.387187318565945E-3  
 2.030800000000000E10    6.053883526301771E-4  -1.636728075229459E-3  
 2.031000000000000E10    3.134198346675408E-4  -1.939525913999037E-3  
 2.031200000000000E10   -1.327230780016517E-4  -2.143445855903405E-3  
 2.031400000000000E10   -7.449339544917975E-4  -2.197048126685399E-3  
 2.031600000000000E10   -1.453805667417193E-3  -1.917232936075716E-3  
 2.031800000000000E10   -1.906379708088935E-3  -1.251334052843352E-3  
 2.032000000000000E10   -1.900782718116211E-3  -5.909122668931055E-4  
 2.032200000000000E10   -1.668998574907030E-3  -1.848377831737270E-4  
 2.032400000000000E10   -1.464260923158791E-3  -9.172811351837234E-6  
 2.032600000000000E10   -1.360023346798564E-3   1.180273683092781E-4  
 2.032800000000000E10   -1.311667841272774E-3   2.323363851583391E-4  
 2.033000000000000E10   -1.304133476137563E-3   3.136332131732532E-4  
 2.033200000000000E10   -1.374136540107429E-3   4.186963865154044E-4  
 2.033400000000000E10   -1.446982802547239E-3   7.057481712696178E-4  
 2.033600000000000E10   -1.409278238295681E-3   9.409707962293869E-4  
 2.033800000000000E10   -1.044669550740057E-3   1.338156759393988E-3  
 2.034000000000000E10   -7.838158807889732E-4   1.460873258852021E-3  
 2.034200000000000E10   -5.813535988434323E-4   1.521034580137995E-3  
 2.034400000000000E10   -4.201954429003376E-4   1.632106404199645E-3  
 2.034600000000000E10   -2.101387923445415E-4   1.800027011928183E-3  
 2.034800000000000E10    1.176079714005701E-4   2.064870308256812E-3  
 2.035000000000000E10    6.900961377175042E-4   2.223186772661629E-3  
 2.035200000000000E10    1.395417213508928E-3   2.063022529775346E-3  
 2.035400000000000E10    1.998589951889935E-3   1.530721382651892E-3  
 2.035600000000000E10    2.237798456378557E-3   7.633808461293854E-4  
 2.035800000000000E10    2.070341267864461E-3   1.138916305973436E-4  
 2.036000000000000E10    1.717404078657705E-3  -2.009600098568222E-4  
 2.036200000000000E10    1.491435010124136E-3  -2.894496213196329E-4  
 2.036400000000000E10    1.370379903905646E-3  -3.451817136482095E-4  
 2.036600000000000E10    1.351076570615448E-3  -3.967059569226372E-4  
 2.036800000000000E10    1.470229459098644E-3  -4.852642779479976E-4  
 2.037000000000000E10    1.592157581062229E-3  -7.602303435474084E-4  
 2.037200000000000E10    1.550310425011924E-3  -1.163372739770071E-3  
 2.037400000000000E10    1.343848425205107E-3  -1.553601029122042E-3  
 2.037600000000000E10    9.937337211643658E-4  -1.896255727236470E-3  
 2.037800000000000E10    5.444714182953317E-4  -2.088211269842254E-3  
 2.038000000000000E10    8.017320295847539E-5  -2.106118317762459E-3  
 2.038200000000000E10   -3.108923006544097E-4  -1.980689561201467E-3  
 2.038400000000000E10   -5.647008484056979E-4  -1.809856242120818E-3  
 2.038600000000000E10   -7.513518514180626E-4  -1.743277793543207E-3  
 2.038800000000000E10   -1.004318741184694E-3  -1.706248356236352E-3  
 2.039000000000000E10   -1.342555098408075E-3  -1.585135771030629E-3  
 2.039200000000000E10   -1.679711940663832E-3  -1.325390672449161E-3  
 2.039400000000000E10   -1.904148095356370E-3  -9.308796617443916E-4  
 2.039600000000000E10   -1.991072203963995E-3  -5.612712939856230E-4  
 2.039800000000000E10   -2.009744997377749E-3  -2.339640125649533E-4  
 2.040000000000000E10   -1.950391240555931E-3   1.109675593532437E-4  
 2.040200000000000E10   -1.770526545846628E-3   3.091500461946621E-4  
 2.040400000000000E10   -1.740577544465109E-3   3.818282501823787E-4  
 2.040600000000000E10   -1.864911755546928E-3   5.452049706407168E-4  
 2.040800000000000E10   -1.994408356646697E-3   8.210068421990233E-4  
 2.041000000000000E10   -2.063135711338233E-3   1.311075084635781E-3  
 2.041200000000000E10   -1.849007404719790E-3   1.908877752376376E-3  
 2.041400000000000E10   -1.392202650162357E-3   2.378883745728268E-3  
 2.041600000000000E10   -8.316645226268858E-4   2.664575534355310E-3  
 2.041800000000000E10   -2.257710633178552E-4   2.741480823951187E-3  
 2.042000000000000E10    2.980439156224883E-4   2.651729862447138E-3  
 2.042200000000000E10    7.509781970401054E-4   2.479992686184469E-3  
 2.042400000000000E10    1.142801005496747E-3   2.280537547819593E-3  
 2.042600000000000E10    1.450006069649977E-3   2.084619891657322E-3  
 2.042800000000000E10    1.799136555443208E-3   1.856597834611657E-3  
 2.043000000000000E10    2.139791070173184E-3   1.494540229301762E-3  
 2.043200000000000E10    2.380492777943060E-3   1.016309152840188E-3  
 2.043400000000000E10    2.433246907053723E-3   5.078168620389922E-4  
 2.043600000000000E10    2.318835955251146E-3   1.085996346201110E-4  
 2.043800000000000E10    2.189811284619350E-3  -1.683750333204107E-4  
 2.044000000000000E10    2.091472589031414E-3  -3.876895579095517E-4  
 2.044200000000000E10    2.027135626930330E-3  -5.914851553151729E-4  
 2.044400000000000E10    2.059071160921897E-3  -7.898785837891478E-4  
 2.044600000000000E10    2.147625933435780E-3  -1.094041909608576E-3  
 2.044800000000000E10    2.123219099033762E-3  -1.593932004955908E-3  
 2.045000000000000E10    1.872662924816487E-3  -2.181166170716838E-3  
 2.045200000000000E10    1.352955526844771E-3  -2.739753004991346E-3  
 2.045400000000000E10    5.325226919484084E-4  -3.058007573363958E-3  
 2.045600000000000E10   -3.103777373864972E-4  -2.903129362190763E-3  
 2.045800000000000E10   -8.915236965684152E-4  -2.437923448505225E-3  
 2.046000000000000E10   -1.137458909027003E-3  -1.916643344210806E-3  
 2.046200000000000E10   -1.176005789872121E-3  -1.556124878805821E-3  
 2.046400000000000E10   -1.151128969569173E-3  -1.404295528859452E-3  
 2.046600000000000E10   -1.187966192244656E-3  -1.336693073864336E-3  
 2.046800000000000E10   -1.324861017228277E-3  -1.294352252174307E-3  
 2.047000000000000E10   -1.577441093373906E-3  -1.200602941766933E-3  
 2.047200000000000E10   -1.861615149580218E-3  -9.582715488418386E-4  
 2.047400000000000E10   -2.029265104620545E-3  -6.027230453953423E-4  
 2.047600000000000E10   -2.017552274520751E-3  -2.579534047981724E-4  
 2.047800000000000E10   -1.934462558926532E-3  -4.043691261880737E-5  
 2.048000000000000E10   -1.945356972067169E-3   9.220285843454164E-5  
 2.048200000000000E10   -2.115642056903906E-3   3.291131988926619E-4  
 2.048400000000000E10   -2.264982511944793E-3   7.387160267508417E-4  
 2.048600000000000E10   -2.234568888390506E-3   1.284104366614311E-3  
 2.048800000000000E10   -1.941366323821799E-3   1.875962277322456E-3  
 2.049000000000000E10   -1.404366585322552E-3   2.295344697173547E-3  
 2.049200000000000E10   -8.229093294142298E-4   2.472338378774348E-3  
 2.049400000000000E10   -2.611228954736834E-4   2.501667822124782E-3  
 2.049600000000000E10    2.706489192658208E-4   2.326277515816468E-3  
 2.049800000000000E10    6.322186371242560E-4   1.981079798295266E-3  
 2.050000000000000E10    7.796616280554899E-4   1.601384280042516E-3  
 2.050200000000000E10    6.916460093904150E-4   1.411963314576834E-3  
 2.050400000000000E10    6.577684996753104E-4   1.533328089863062E-3  
 2.050600000000000E10    9.322413825429976E-4   1.685973498280402E-3  
 2.050800000000000E10    1.343056507822540E-3   1.587561348936072E-3  
 2.051000000000000E10    1.656243357703918E-3   1.353619051062399E-3  
 2.051200000000000E10    1.943634598757382E-3   1.103357127350238E-3  
 2.051400000000000E10    2.239697207524269E-3   7.545097399054579E-4  
 2.051600000000000E10    2.392740635615257E-3   2.394220737861125E-4  
 2.051800000000000E10    2.300929424732372E-3  -2.656346860695286E-4  
 2.052000000000000E10    2.146654253549598E-3  -6.374274380505085E-4  
 2.052200000000000E10    2.056393599896520E-3  -9.954349456906871E-4  
 2.052400000000000E10    1.868882552824087E-3  -1.428334615883176E-3  
 2.052600000000000E10    1.445173855043120E-3  -1.835116732831079E-3  
 2.052800000000000E10    8.640004671178760E-4  -1.980948352461888E-3  
 2.053000000000000E10    3.840944458109638E-4  -1.890771910203276E-3  
 2.053200000000000E10    6.172579203309769E-5  -1.720476028923359E-3  
 2.053400000000000E10   -1.363052777176361E-4  -1.480065264601123E-3  
 2.053600000000000E10   -1.508776183106454E-4  -1.264216016150183E-3  
 2.053800000000000E10   -9.745257746005710E-5  -1.164096730968191E-3  
 2.054000000000000E10   -1.560115534057669E-5  -1.206541701254470E-3  
 2.054200000000000E10    3.328217833229615E-5  -1.477716042211762E-3  
 2.054400000000000E10   -1.800688384079237E-4  -1.870786003699458E-3  
 2.054600000000000E10   -7.307741390023795E-4  -2.189779688638670E-3  
 2.054800000000000E10   -1.582485865111704E-3  -2.143388924499353E-3  
 2.055000000000000E10   -2.345478567467244E-3  -1.569505642961573E-3  
 2.055200000000000E10   -2.671955386176705E-3  -7.435927076989579E-4  
 2.055400000000000E10   -2.610408640639098E-3   2.513909836394577E-5  
 2.055600000000000E10   -2.311877613128336E-3   6.114929813150042E-4  
