#  HZ   S   RI   R     50.00 
! Rohde & Schwarz ZVA40 4Ports - Version 3.90 - 1145.1110k42 SN: 100403
! Date: 2023-10-03 12:54:39
! Measurement: S12 
! 
 2.000000000000000E10    2.343491226976383E-3  -1.766210348780979E-3  
 2.000200000000000E10    2.043957847894894E-3  -2.259162401228592E-3  
 2.000400000000000E10    1.584508860150329E-3  -2.696371181843744E-3  
 2.000600000000000E10    9.740274552823096E-4  -2.992182439231456E-3  
 2.000800000000000E10    3.345711383887469E-4  -3.110587406540687E-3  
 2.001000000000000E10   -3.063465223538425E-4  -3.053038987549551E-3  
 2.001200000000000E10   -8.045639171244626E-4  -2.844795252519707E-3  
 2.001400000000000E10   -1.228467384525747E-3  -2.695049109085577E-3  
 2.001600000000000E10   -1.809399562858465E-3  -2.502407923989785E-3  
 2.001800000000000E10   -2.362230384469401E-3  -2.003115715218813E-3  
 2.002000000000000E10   -2.666845823164176E-3  -1.330663203019061E-3  
 2.002200000000000E10   -2.726219971990022E-3  -6.380792722694925E-4  
 2.002400000000000E10   -2.588970757847134E-3  -6.240692999920494E-5  
 2.002600000000000E10   -2.320038181230100E-3   3.306638128479891E-4  
 2.002800000000000E10   -2.097909264036535E-3   5.635286475990393E-4  
 2.003000000000000E10   -1.933600942301468E-3   7.416629140643437E-4  
 2.003200000000000E10   -1.795398530681888E-3   8.976151237317933E-4  
 2.003400000000000E10   -1.737040832136670E-3   1.036392782740704E-3  
 2.003600000000000E10   -1.773990238940060E-3   1.281890465139535E-3  
 2.003800000000000E10   -1.718393349074676E-3   1.746603173896190E-3  
 2.004000000000000E10   -1.368478374442007E-3   2.271327742634773E-3  
 2.004200000000000E10   -7.420615579732357E-4   2.635551781990196E-3  
 2.004400000000000E10    1.798357890763309E-5   2.675078810858240E-3  
 2.004600000000000E10    6.208574926015629E-4   2.379318706267124E-3  
 2.004800000000000E10    9.148016024894492E-4   1.997283208586368E-3  
 2.005000000000000E10    1.026905936077851E-3   1.742170443496474E-3  
 2.005200000000000E10    1.187438001397573E-3   1.621381196337759E-3  
 2.005400000000000E10    1.433609597083432E-3   1.496979399215027E-3  
 2.005600000000000E10    1.723280662781877E-3   1.266252085954892E-3  
 2.005800000000000E10    1.910997841146932E-3   9.183318286959149E-4  
 2.006000000000000E10    2.036902905966888E-3   6.002355266339435E-4  
 2.006200000000000E10    2.161278004217664E-3   2.259829768509220E-4  
 2.006400000000000E10    2.163113143731967E-3  -2.576608202178721E-4  
 2.006600000000000E10    1.982399947885092E-3  -6.877058069061984E-4  
 2.006800000000000E10    1.680640209132783E-3  -9.451083136615135E-4  
 2.007000000000000E10    1.468726959039901E-3  -1.000746461500213E-3  
 2.007200000000000E10    1.478531665043505E-3  -1.109211242039764E-3  
 2.007400000000000E10    1.456071054965350E-3  -1.448713948046955E-3  
 2.007600000000000E10    1.224677064692390E-3  -1.839238376738645E-3  
 2.007800000000000E10    8.275285233048512E-4  -2.147829559004377E-3  
 2.008000000000000E10    3.263968554362452E-4  -2.330987563801340E-3  
 2.008200000000000E10   -2.330859639331832E-4  -2.342063929458930E-3  
 2.008400000000000E10   -7.716831852572067E-4  -2.175469307257029E-3  
 2.008600000000000E10   -1.174662377658480E-3  -1.834809578430107E-3  
 2.008800000000000E10   -1.402410086108926E-3  -1.436107610390664E-3  
 2.009000000000000E10   -1.470838902091457E-3  -1.049617952309467E-3  
 2.009200000000000E10   -1.391940015439706E-3  -7.939277235476049E-4  
 2.009400000000000E10   -1.361678534414778E-3  -7.256512299073997E-4  
 2.009600000000000E10   -1.455850954153492E-3  -6.708298282524054E-4  
 2.009800000000000E10   -1.635866788208271E-3  -5.474739390379394E-4  
 2.010000000000000E10   -1.818760578770993E-3  -2.824293559369062E-4  
 2.010200000000000E10   -1.889297761028155E-3   3.663985549837327E-5  
 2.010400000000000E10   -1.911548282810588E-3   3.235016384804609E-4  
 2.010600000000000E10   -1.929536827684052E-3   6.110018754150561E-4  
 2.010800000000000E10   -1.952390074864061E-3   9.793626438041919E-4  
 2.011000000000000E10   -1.839132810079216E-3   1.478217031477104E-3  
 2.011200000000000E10   -1.528185625070009E-3   1.921338728975265E-3  
 2.011400000000000E10   -1.114008612215356E-3   2.251301973863967E-3  
 2.011600000000000E10   -6.234962152239238E-4   2.474953787112596E-3  
 2.011800000000000E10   -6.205391075416853E-5   2.581184611761807E-3  
 2.012000000000000E10    5.603079389127941E-4   2.496344691451604E-3  
 2.012200000000000E10    1.079323668663987E-3   2.180405664711230E-3  
 2.012400000000000E10    1.374915158516627E-3   1.797926953938804E-3  
 2.012600000000000E10    1.512325670319739E-3   1.430109794959375E-3  
 2.012800000000000E10    1.579120002089092E-3   1.138899598458452E-3  
 2.013000000000000E10    1.616739563194241E-3   9.421147065957695E-4  
 2.013200000000000E10    1.711488257300247E-3   8.485184875265819E-4  
 2.013400000000000E10    1.941435397232133E-3   6.776567585561912E-4  
 2.013600000000000E10    2.129712002799018E-3   3.354459224410601E-4  
 2.013800000000000E10    2.192311236105951E-3  -8.755639410008097E-5  
 2.014000000000000E10    2.089710668526560E-3  -5.474603463913506E-4  
 2.014200000000000E10    1.860942171288678E-3  -8.471392975629543E-4  
 2.014400000000000E10    1.698206617996424E-3  -9.911235542303600E-4  
 2.014600000000000E10    1.615802716401205E-3  -1.152489999141825E-3  
 2.014800000000000E10    1.536419682379746E-3  -1.411663424555821E-3  
 2.015000000000000E10    1.404728007468361E-3  -1.715624041916657E-3  
 2.015200000000000E10    1.202913607050383E-3  -2.064714856593984E-3  
 2.015400000000000E10    8.224532186546824E-4  -2.429394780265983E-3  
 2.015600000000000E10    2.505925532068869E-4  -2.636437826829520E-3  
 2.015800000000000E10   -3.795892107431409E-4  -2.608593137786610E-3  
 2.016000000000000E10   -9.478375660440797E-4  -2.347261410472284E-3  
 2.016200000000000E10   -1.298840695369953E-3  -1.928083526433046E-3  
 2.016400000000000E10   -1.355965703212246E-3  -1.531897477143852E-3  
 2.016600000000000E10   -1.302089188433162E-3  -1.353543436356574E-3  
 2.016800000000000E10   -1.374947550241543E-3  -1.369172188361394E-3  
 2.017000000000000E10   -1.650276729122919E-3  -1.391691673133109E-3  
 2.017200000000000E10   -2.041294555331802E-3  -1.245063109181576E-3  
 2.017400000000000E10   -2.403450632194474E-3  -9.369923751858743E-4  
 2.017600000000000E10   -2.707578807772842E-3  -4.676268490709095E-4  
 2.017800000000000E10   -2.831743771736658E-3   1.588785155624885E-4  
 2.018000000000000E10   -2.744889674409304E-3   8.106527310912339E-4  
 2.018200000000000E10   -2.420664414257547E-3   1.375520600591095E-3  
 2.018400000000000E10   -1.930782323114227E-3   1.667765194175839E-3  
 2.018600000000000E10   -1.593221583408757E-3   1.722662479537495E-3  
 2.018800000000000E10   -1.458051615102097E-3   1.848158761775901E-3  
 2.019000000000000E10   -1.311842522223637E-3   2.129407275074631E-3  
 2.019200000000000E10   -1.010176760179025E-3   2.452974947072331E-3  
 2.019400000000000E10   -5.445411822130069E-4   2.698257575399244E-3  
 2.019600000000000E10   -4.584732589925730E-6   2.777299151943667E-3  
 2.019800000000000E10    5.573775911185029E-4   2.703443066113525E-3  
 2.020000000000000E10    1.044722614568417E-3   2.463361555621008E-3  
 2.020200000000000E10    1.302701827497650E-3   2.139994034298347E-3  
 2.020400000000000E10    1.454482331395467E-3   1.965863051771893E-3  
 2.020600000000000E10    1.756369441125507E-3   1.839791709462639E-3  
 2.020800000000000E10    2.096017920354634E-3   1.602167025526579E-3  
 2.021000000000000E10    2.395962642835369E-3   1.323766864271546E-3  
 2.021200000000000E10    2.736842354940984E-3   1.002164170962333E-3  
 2.021400000000000E10    3.100428642099532E-3   4.549503055898108E-4  
 2.021600000000000E10    3.237447859489440E-3  -3.527127857788228E-4  
 2.021800000000000E10    2.971721747609058E-3  -1.193308505416172E-3  
 2.022000000000000E10    2.436389055598748E-3  -1.746935082761768E-3  
 2.022200000000000E10    1.892012228425311E-3  -2.032901698899736E-3  
 2.022400000000000E10    1.348489339575836E-3  -2.162778021228616E-3  
 2.022600000000000E10    8.563687085092263E-4  -2.117086293249914E-3  
 2.022800000000000E10    5.971343248229173E-4  -1.925410757119805E-3  
 2.023000000000000E10    6.216927110543283E-4  -1.889917895546636E-3  
 2.023200000000000E10    5.279619070102139E-4  -2.180487562011831E-3  
 2.023400000000000E10    1.143413761016480E-4  -2.430936459589888E-3  
 2.023600000000000E10   -4.018059671717213E-4  -2.461068807438078E-3  
 2.023800000000000E10   -8.754353588306448E-4  -2.346181593367777E-3  
 2.024000000000000E10   -1.273845216714163E-3  -2.147278375093237E-3  
 2.024200000000000E10   -1.665121026142962E-3  -1.864492789419325E-3  
 2.024400000000000E10   -1.962892795320146E-3  -1.465084426461455E-3  
 2.024600000000000E10   -2.134124884785591E-3  -1.059811674722755E-3  
 2.024800000000000E10   -2.265596983951756E-3  -6.763422298781696E-4  
 2.025000000000000E10   -2.346729877914605E-3  -2.670925740482840E-4  
 2.025200000000000E10   -2.340290203258722E-3   1.855216836258169E-4  
 2.025400000000000E10   -2.195272676452525E-3   6.747447124002719E-4  
 2.025600000000000E10   -1.897845934662554E-3   1.080198312626669E-3  
 2.025800000000000E10   -1.501789355659487E-3   1.329617288323894E-3  
 2.026000000000000E10   -1.136065396864801E-3   1.353108083295275E-3  
 2.026200000000000E10   -9.059744074382402E-4   1.291708604736696E-3  
 2.026400000000000E10   -8.311200291633771E-4   1.278465966481987E-3  
 2.026600000000000E10   -7.965858748332128E-4   1.443034977733895E-3  
 2.026800000000000E10   -6.086623923890089E-4   1.661270464334857E-3  
 2.027000000000000E10   -3.375488623883448E-4   1.832336282379292E-3  
 2.027200000000000E10    1.833619707486297E-5   1.953750477007633E-3  
 2.027400000000000E10    4.748904577581614E-4   1.955249805746930E-3  
 2.027600000000000E10    9.542222748624241E-4   1.747082473821325E-3  
 2.027800000000000E10    1.239395966761029E-3   1.393697542024697E-3  
 2.028000000000000E10    1.344559531989770E-3   1.054825639864494E-3  
 2.028200000000000E10    1.384895215697577E-3   7.468594454704122E-4  
 2.028400000000000E10    1.343775346724442E-3   5.040928160590318E-4  
 2.028600000000000E10    1.341022665558743E-3   3.954580665146997E-4  
 2.028800000000000E10    1.423945325006449E-3   2.355986752536784E-4  
 2.029000000000000E10    1.446525163058095E-3   5.005214026526600E-5  
 2.029200000000000E10    1.466875013400927E-3  -1.231371313906805E-4  
 2.029400000000000E10    1.510052491568377E-3  -3.787656862413912E-4  
 2.029600000000000E10    1.466769673344162E-3  -7.228977840575193E-4  
 2.029800000000000E10    1.279778157192217E-3  -1.019284035084292E-3  
 2.030000000000000E10    9.769334590199199E-4  -1.210681699179317E-3  
 2.030200000000000E10    6.782524659782548E-4  -1.220816827477537E-3  
 2.030400000000000E10    5.498538708789543E-4  -1.162452355924028E-3  
 2.030600000000000E10    5.589781375506073E-4  -1.242896423302080E-3  
 2.030800000000000E10    4.892385581033037E-4  -1.491568283949544E-3  
 2.031000000000000E10    2.305641422454308E-4  -1.779192581929942E-3  
 2.031200000000000E10   -2.030867783457171E-4  -1.966199930885038E-3  
 2.031400000000000E10   -8.085337150503405E-4  -2.016080692710690E-3  
 2.031600000000000E10   -1.499130379406043E-3  -1.732351936288792E-3  
 2.031800000000000E10   -1.886556413828234E-3  -1.058893942638890E-3  
 2.032000000000000E10   -1.827430076653136E-3  -3.914627187392855E-4  
 2.032200000000000E10   -1.548383457123702E-3   9.543248119688007E-6  
 2.032400000000000E10   -1.301421619541637E-3   1.390688889186855E-4  
 2.032600000000000E10   -1.195790195347044E-3   1.858879595639476E-4  
 2.032800000000000E10   -1.168710234241537E-3   2.304493456495101E-4  
 2.033000000000000E10   -1.184377372162660E-3   3.031263733075086E-4  
 2.033200000000000E10   -1.251394395743317E-3   4.305109133834048E-4  
 2.033400000000000E10   -1.300760514974155E-3   7.412682559030752E-4  
 2.033600000000000E10   -1.243452469189747E-3   9.512407327516694E-4  
 2.033800000000000E10   -8.754422254981769E-4   1.233521293508929E-3  
 2.034000000000000E10   -6.652974402397842E-4   1.299292754588856E-3  
 2.034200000000000E10   -5.151207421635457E-4   1.368949419259259E-3  
 2.034400000000000E10   -3.650023807791945E-4   1.506876856132075E-3  
 2.034600000000000E10   -1.859852447413948E-4   1.685509558630384E-3  
 2.034800000000000E10    1.223986337096488E-4   1.932676456611865E-3  
 2.035000000000000E10    6.837235826427892E-4   2.065050006244940E-3  
 2.035200000000000E10    1.365491884839766E-3   1.873559333014830E-3  
 2.035400000000000E10    1.919621848903689E-3   1.349031304319700E-3  
 2.035600000000000E10    2.092641208350240E-3   6.249623896301162E-4  
 2.035800000000000E10    1.867509560099968E-3   1.780107210293898E-5  
 2.036000000000000E10    1.503727343240025E-3  -2.595354386190763E-4  
 2.036200000000000E10    1.269032751671224E-3  -3.207487184956762E-4  
 2.036400000000000E10    1.147290992273327E-3  -3.217989836146529E-4  
 2.036600000000000E10    1.137905234990920E-3  -2.876207475925429E-4  
 2.036800000000000E10    1.273027517250260E-3  -3.010648727633854E-4  
 2.037000000000000E10    1.448903004932684E-3  -5.485787695073824E-4  
 2.037200000000000E10    1.459533012847689E-3  -9.456501320478431E-4  
 2.037400000000000E10    1.319295541633723E-3  -1.340724074790211E-3  
 2.037600000000000E10    1.020563323854307E-3  -1.667616551292266E-3  
 2.037800000000000E10    6.058912405511685E-4  -1.871805180238486E-3  
 2.038000000000000E10    1.642969292821682E-4  -1.901434648549504E-3  
 2.038200000000000E10   -1.780778641800686E-4  -1.793888688153896E-3  
 2.038400000000000E10   -3.903069606786071E-4  -1.669460466829102E-3  
 2.038600000000000E10   -5.615476661953253E-4  -1.633976889577463E-3  
 2.038800000000000E10   -8.215624703329432E-4  -1.608709114046694E-3  
 2.039000000000000E10   -1.148415205933777E-3  -1.494413921552032E-3  
 2.039200000000000E10   -1.467017187169704E-3  -1.278360119882833E-3  
 2.039400000000000E10   -1.656548758529240E-3  -9.387809944828394E-4  
 2.039600000000000E10   -1.714684744972343E-3  -6.292493417776040E-4  
 2.039800000000000E10   -1.739865972498236E-3  -3.625741706738206E-4  
 2.040000000000000E10   -1.718394891218384E-3  -1.040318220200986E-4  
 2.040200000000000E10   -1.625496463113004E-3   3.816581531546773E-5  
 2.040400000000000E10   -1.681092811942571E-3   7.773623241549034E-5  
 2.040600000000000E10   -1.867658431342815E-3   2.337452643027144E-4  
 2.040800000000000E10   -2.054369767913174E-3   5.643893335003724E-4  
 2.041000000000000E10   -2.149664461536050E-3   1.108568405415684E-3  
 2.041200000000000E10   -1.970137470109269E-3   1.724968643428500E-3  
 2.041400000000000E10   -1.548926364208875E-3   2.208565454419054E-3  
 2.041600000000000E10   -9.893674955323893E-4   2.518087585899974E-3  
 2.041800000000000E10   -4.020142200098224E-4   2.633682968585519E-3  
 2.042000000000000E10    1.075810591560253E-4   2.589745632920859E-3  
 2.042200000000000E10    5.462927380413845E-4   2.472342199879726E-3  
 2.042400000000000E10    9.038770850492319E-4   2.300492693850227E-3  
 2.042600000000000E10    1.215175798019734E-3   2.131824348114217E-3  
 2.042800000000000E10    1.588630961734592E-3   1.937042496362586E-3  
 2.043000000000000E10    1.974241906426980E-3   1.637473193972036E-3  
 2.043200000000000E10    2.246993660622766E-3   1.204630595712382E-3  
 2.043400000000000E10    2.341071505288611E-3   7.041465739856267E-4  
 2.043600000000000E10    2.273109488557151E-3   2.949813846578574E-4  
 2.043800000000000E10    2.195392657692234E-3   1.918730835555942E-5  
 2.044000000000000E10    2.151126942350766E-3  -2.114961902861355E-4  
 2.044200000000000E10    2.124615837928465E-3  -4.073120937481477E-4  
 2.044400000000000E10    2.181110826329890E-3  -6.025295965060521E-4  
 2.044600000000000E10    2.286161659528158E-3  -9.694262870826309E-4  
 2.044800000000000E10    2.264581420120307E-3  -1.521757165090129E-3  
 2.045000000000000E10    2.032490307592950E-3  -2.117217029732319E-3  
 2.045200000000000E10    1.555273407879855E-3  -2.678171583976398E-3  
 2.045400000000000E10    7.588764298413416E-4  -3.033312310340760E-3  
 2.045600000000000E10   -9.727333657972423E-5  -2.955607904136611E-3  
 2.045800000000000E10   -6.970399341530670E-4  -2.582043788775250E-3  
 2.046000000000000E10   -9.843270733201335E-4  -2.130716687147551E-3  
 2.046200000000000E10   -1.057180794484822E-3  -1.808068719028211E-3  
 2.046400000000000E10   -1.094166971442887E-3  -1.652990319333021E-3  
 2.046600000000000E10   -1.214504872246892E-3  -1.568476232413883E-3  
 2.046800000000000E10   -1.411693325408049E-3  -1.505250642516884E-3  
 2.047000000000000E10   -1.695936449595174E-3  -1.395248621606379E-3  
 2.047200000000000E10   -1.985774704463402E-3  -1.141905435520660E-3  
 2.047400000000000E10   -2.173844238472349E-3  -7.445289348878111E-4  
 2.047600000000000E10   -2.207973626709259E-3  -3.547943743336716E-4  
 2.047800000000000E10   -2.175838593265811E-3  -8.935650442220289E-5  
 2.048000000000000E10   -2.231385224448985E-3   9.943712592070525E-5  
 2.048200000000000E10   -2.399809145277931E-3   3.914177755183900E-4  
 2.048400000000000E10   -2.484998237776005E-3   8.683608915460066E-4  
 2.048600000000000E10   -2.384359749680480E-3   1.467307917907865E-3  
 2.048800000000000E10   -2.049788206992020E-3   2.087999416632765E-3  
 2.049000000000000E10   -1.482401439851081E-3   2.514219349722886E-3  
 2.049200000000000E10   -8.330842117882438E-4   2.667898270691169E-3  
 2.049400000000000E10   -2.206175327015177E-4   2.658873350284126E-3  
 2.049600000000000E10    3.325248499457126E-4   2.472829783657267E-3  
 2.049800000000000E10    7.113159378825731E-4   2.154680999284623E-3  
 2.050000000000000E10    8.785129199475204E-4   1.787072157299476E-3  
 2.050200000000000E10    7.989732384111924E-4   1.575251603665135E-3  
 2.050400000000000E10    7.949329962007273E-4   1.654147457929306E-3  
 2.050600000000000E10    1.100222318080626E-3   1.771023782833757E-3  
 2.050800000000000E10    1.544545956986953E-3   1.683133657969310E-3  
 2.051000000000000E10    1.898657158304604E-3   1.422140426487906E-3  
 2.051200000000000E10    2.189306969293208E-3   1.106834041008366E-3  
 2.051400000000000E10    2.468589347734823E-3   6.555778129168101E-4  
 2.051600000000000E10    2.593137147237224E-3   4.623914717064067E-5  
 2.051800000000000E10    2.447014689874748E-3  -4.957067998655049E-4  
 2.052000000000000E10    2.248452654726732E-3  -8.584057430919411E-4  
 2.052200000000000E10    2.087017628255675E-3  -1.194426183370345E-3  
 2.052400000000000E10    1.836756873647178E-3  -1.622293363082567E-3  
 2.052600000000000E10    1.379325886899593E-3  -2.012475746312015E-3  
 2.052800000000000E10    7.911772423759819E-4  -2.145907527029985E-3  
 2.053000000000000E10    3.014487841256623E-4  -2.006241193536889E-3  
 2.053200000000000E10   -2.780082446027329E-5  -1.797475852870698E-3  
 2.053400000000000E10   -2.529272613283605E-4  -1.554108286450205E-3  
 2.053600000000000E10   -3.126146800724077E-4  -1.321885959003811E-3  
 2.053800000000000E10   -2.696876685516411E-4  -1.188011533058209E-3  
 2.054000000000000E10   -1.467731184655397E-4  -1.201748634772874E-3  
 2.054200000000000E10   -7.179666822101501E-5  -1.442629754682556E-3  
 2.054400000000000E10   -2.858575777189337E-4  -1.819798580098729E-3  
 2.054600000000000E10   -8.580078195527567E-4  -2.127854336840095E-3  
 2.054800000000000E10   -1.683239625455155E-3  -2.067804148430912E-3  
 2.055000000000000E10   -2.388998290871376E-3  -1.491425294794439E-3  
 2.055200000000000E10   -2.677852056654802E-3  -6.553195198948032E-4  
 2.055400000000000E10   -2.608723680083787E-3   1.294923839387669E-4  
 2.055600000000000E10   -2.307370028475144E-3   7.302602104694469E-4  
