#  HZ   S   RI   R     50.00 
! Rohde & Schwarz ZVA40 4Ports - Version 3.90 - 1145.1110k42 SN: 100403
! Date: 2023-10-03 12:55:15
! Measurement: S12 
! 
 2.000000000000000E10    2.471838094707993E-3  -1.818402937647921E-3  
 2.000200000000000E10    2.156353891930647E-3  -2.307222285135477E-3  
 2.000400000000000E10    1.720727649862292E-3  -2.735087147879380E-3  
 2.000600000000000E10    1.128152172357120E-3  -3.024694311467035E-3  
 2.000800000000000E10    4.884290414068986E-4  -3.172546280203043E-3  
 2.001000000000000E10   -1.499974707796895E-4  -3.176393246071206E-3  
 2.001200000000000E10   -7.010423556763542E-4  -3.047015052288771E-3  
 2.001400000000000E10   -1.197287217817373E-3  -2.930917173486065E-3  
 2.001600000000000E10   -1.852075922889290E-3  -2.723702712467423E-3  
 2.001800000000000E10   -2.471791649306263E-3  -2.183696729372497E-3  
 2.002000000000000E10   -2.812393233869915E-3  -1.452288284242429E-3  
 2.002200000000000E10   -2.864249378304791E-3  -7.144381805254079E-4  
 2.002400000000000E10   -2.675442180285851E-3  -1.235083812692513E-4  
 2.002600000000000E10   -2.365531141145362E-3   2.596639932124634E-4  
 2.002800000000000E10   -2.159804631783455E-3   4.751474264560751E-4  
 2.003000000000000E10   -2.038585772323940E-3   6.881110635327384E-4  
 2.003200000000000E10   -1.930954771254350E-3   8.731279953348417E-4  
 2.003400000000000E10   -1.886085262177167E-3   1.026480064158225E-3  
 2.003600000000000E10   -1.935145498632833E-3   1.301714891774787E-3  
 2.003800000000000E10   -1.867537679909556E-3   1.831313207124671E-3  
 2.004000000000000E10   -1.460648641956074E-3   2.411215497111833E-3  
 2.004200000000000E10   -8.025659912231345E-4   2.766534625725062E-3  
 2.004400000000000E10   -7.031693854110522E-5   2.760960323805059E-3  
 2.004600000000000E10    5.159174281827830E-4   2.472185046860466E-3  
 2.004800000000000E10    8.425819256377442E-4   2.126413311257407E-3  
 2.005000000000000E10    1.008485648694828E-3   1.910432923102269E-3  
 2.005200000000000E10    1.224101999671095E-3   1.823363342770824E-3  
 2.005400000000000E10    1.529168682517829E-3   1.694143301358930E-3  
 2.005600000000000E10    1.871207444411186E-3   1.421071390655858E-3  
 2.005800000000000E10    2.119606360793114E-3   1.017972628620488E-3  
 2.006000000000000E10    2.266864913205306E-3   6.209783713091856E-4  
 2.006200000000000E10    2.355993458035368E-3   2.125591682097702E-4  
 2.006400000000000E10    2.309797943949148E-3  -2.628148461183258E-4  
 2.006600000000000E10    2.116498537361622E-3  -6.922847608587257E-4  
 2.006800000000000E10    1.832093741675770E-3  -9.980106713353761E-4  
 2.007000000000000E10    1.617251886744742E-3  -1.122174051555771E-3  
 2.007200000000000E10    1.592784632790696E-3  -1.284211662735928E-3  
 2.007400000000000E10    1.519179756373719E-3  -1.650888408120308E-3  
 2.007600000000000E10    1.207332458795497E-3  -2.055576062519794E-3  
 2.007800000000000E10    7.510929739240695E-4  -2.369342138990760E-3  
 2.008000000000000E10    2.154587820297349E-4  -2.529099135211221E-3  
 2.008200000000000E10   -3.353469892991363E-4  -2.498365335028481E-3  
 2.008400000000000E10   -8.862306346633922E-4  -2.303072277249562E-3  
 2.008600000000000E10   -1.326881353398440E-3  -1.933808904141188E-3  
 2.008800000000000E10   -1.607785811992708E-3  -1.508514875442618E-3  
 2.009000000000000E10   -1.710778593810068E-3  -1.070860643974609E-3  
 2.009200000000000E10   -1.639008836786229E-3  -7.580677133605437E-4  
 2.009400000000000E10   -1.594567235938653E-3  -6.102594283961312E-4  
 2.009600000000000E10   -1.669068622437341E-3  -4.633118558019676E-4  
 2.009800000000000E10   -1.794637698266242E-3  -2.758006044637619E-4  
 2.010000000000000E10   -1.892470280398374E-3  -3.660749522775099E-6  
 2.010200000000000E10   -1.877519483160642E-3   2.777348175489655E-4  
 2.010400000000000E10   -1.832854468375445E-3   5.373260851397560E-4  
 2.010600000000000E10   -1.798387935937003E-3   8.138033164734091E-4  
 2.010800000000000E10   -1.767990179359913E-3   1.155759449358340E-3  
 2.011000000000000E10   -1.632308225250907E-3   1.586051054160904E-3  
 2.011200000000000E10   -1.327090336147834E-3   1.955013730804677E-3  
 2.011400000000000E10   -8.995250035594737E-4   2.248289322273599E-3  
 2.011600000000000E10   -3.884998759194450E-4   2.452417164696036E-3  
 2.011800000000000E10    1.714326467158066E-4   2.527256867054988E-3  
 2.012000000000000E10    7.393194526364959E-4   2.383991946569748E-3  
 2.012200000000000E10    1.190838485921699E-3   2.019703707278327E-3  
 2.012400000000000E10    1.414282221554054E-3   1.604204005734236E-3  
 2.012600000000000E10    1.516001820736737E-3   1.256929210352677E-3  
 2.012800000000000E10    1.564961310510558E-3   1.009618186529864E-3  
 2.013000000000000E10    1.585064589528850E-3   8.408165045289532E-4  
 2.013200000000000E10    1.665961174121886E-3   7.298861725117874E-4  
 2.013400000000000E10    1.866122276556713E-3   5.228596219913690E-4  
 2.013600000000000E10    2.024544747891250E-3   1.664398220816145E-4  
 2.013800000000000E10    2.068640586609642E-3  -2.054248686396965E-4  
 2.014000000000000E10    1.964938598340033E-3  -5.937710779512095E-4  
 2.014200000000000E10    1.736130336885927E-3  -8.585100424372489E-4  
 2.014400000000000E10    1.551956585091022E-3  -9.953433354557666E-4  
 2.014600000000000E10    1.443623086541063E-3  -1.154935228879805E-3  
 2.014800000000000E10    1.353147275814856E-3  -1.370755226903216E-3  
 2.015000000000000E10    1.236458434033449E-3  -1.582479854631755E-3  
 2.015200000000000E10    1.068980120450121E-3  -1.851919107139111E-3  
 2.015400000000000E10    7.530883045142725E-4  -2.176064040718807E-3  
 2.015600000000000E10    2.577916384325363E-4  -2.421268339579304E-3  
 2.015800000000000E10   -3.115491503935859E-4  -2.447612971688311E-3  
 2.016000000000000E10   -8.362911434637177E-4  -2.225122009231537E-3  
 2.016200000000000E10   -1.176160842145759E-3  -1.837129376966644E-3  
 2.016400000000000E10   -1.253038705154150E-3  -1.469229348003865E-3  
 2.016600000000000E10   -1.221709906261552E-3  -1.316260442965561E-3  
 2.016800000000000E10   -1.302148474173414E-3  -1.345878156522910E-3  
 2.017000000000000E10   -1.555534467721979E-3  -1.350767487935998E-3  
 2.017200000000000E10   -1.885250128840131E-3  -1.177892513590417E-3  
 2.017400000000000E10   -2.203243638009385E-3  -9.008352666299930E-4  
 2.017600000000000E10   -2.522899683013007E-3  -5.238981663111460E-4  
 2.017800000000000E10   -2.713245951949998E-3   2.735344956077081E-5  
 2.018000000000000E10   -2.684663360317548E-3   6.522951039692594E-4  
 2.018200000000000E10   -2.411559043038223E-3   1.226545884963815E-3  
 2.018400000000000E10   -1.965742105514639E-3   1.556860050186515E-3  
 2.018600000000000E10   -1.657698881226006E-3   1.661687132178082E-3  
 2.018800000000000E10   -1.530156000862243E-3   1.796742978816231E-3  
 2.019000000000000E10   -1.367847482604837E-3   2.057708321242697E-3  
 2.019200000000000E10   -1.061243401771342E-3   2.388789206398307E-3  
 2.019400000000000E10   -5.973271327093244E-4   2.674920225722923E-3  
 2.019600000000000E10   -5.108939688027562E-5   2.798722022109562E-3  
 2.019800000000000E10    5.251770446732365E-4   2.731300295434065E-3  
 2.020000000000000E10    1.029012233225836E-3   2.479298549048879E-3  
 2.020200000000000E10    1.301870927111142E-3   2.133951005008486E-3  
 2.020400000000000E10    1.477105555952424E-3   1.948586708210685E-3  
 2.020600000000000E10    1.771934308905017E-3   1.822513713570381E-3  
 2.020800000000000E10    2.063769562583831E-3   1.591348930055069E-3  
 2.021000000000000E10    2.326536337258640E-3   1.315474743023515E-3  
 2.021200000000000E10    2.664750010740978E-3   9.710576743128952E-4  
 2.021400000000000E10    3.015222821246695E-3   4.416352107741491E-4  
 2.021600000000000E10    3.143765937743916E-3  -2.977986226108409E-4  
 2.021800000000000E10    2.910231136613423E-3  -1.068572209785796E-3  
 2.022000000000000E10    2.448556867117683E-3  -1.586903477329071E-3  
 2.022200000000000E10    1.966622709814046E-3  -1.902176256946944E-3  
 2.022400000000000E10    1.488723231617499E-3  -2.107146122768798E-3  
 2.022600000000000E10    1.021404604048089E-3  -2.128663800518822E-3  
 2.022800000000000E10    7.304207193320273E-4  -1.966206813920980E-3  
 2.023000000000000E10    7.100531926240635E-4  -1.969873361910383E-3  
 2.023200000000000E10    5.362433191664793E-4  -2.287155784735526E-3  
 2.023400000000000E10    5.747509270871954E-5  -2.514941540236275E-3  
 2.023600000000000E10   -4.543277232355819E-4  -2.487284312438634E-3  
 2.023800000000000E10   -9.056539899945535E-4  -2.332796454774561E-3  
 2.024000000000000E10   -1.281922010497915E-3  -2.109567971072264E-3  
 2.024200000000000E10   -1.636843378138211E-3  -1.838925505850326E-3  
 2.024400000000000E10   -1.918240372712414E-3  -1.496578312340986E-3  
 2.024600000000000E10   -2.094477320227910E-3  -1.150537881551794E-3  
 2.024800000000000E10   -2.240624162368476E-3  -7.856872096588767E-4  
 2.025000000000000E10   -2.370437598545795E-3  -3.680376987041975E-4  
 2.025200000000000E10   -2.432113866908131E-3   1.057202214185425E-4  
 2.025400000000000E10   -2.310192833344142E-3   6.354512901183357E-4  
 2.025600000000000E10   -1.988724848531463E-3   1.087708256414367E-3  
 2.025800000000000E10   -1.544366349224691E-3   1.332070695719233E-3  
 2.026000000000000E10   -1.164853672014067E-3   1.335413962671602E-3  
 2.026200000000000E10   -9.739665719852957E-4   1.294704296419190E-3  
 2.026400000000000E10   -9.478934721469329E-4   1.306646382781091E-3  
 2.026600000000000E10   -9.047156587863964E-4   1.476241258421430E-3  
 2.026800000000000E10   -6.818808313390172E-4   1.699612527671788E-3  
 2.027000000000000E10   -3.989962063281349E-4   1.880082413899126E-3  
 2.027200000000000E10   -3.338329379739997E-5   2.029443004479011E-3  
 2.027400000000000E10    4.338138252798538E-4   2.042822626039938E-3  
 2.027600000000000E10    9.092634729178693E-4   1.846131049441519E-3  
 2.027800000000000E10    1.238740389925186E-3   1.497267240968843E-3  
 2.028000000000000E10    1.406897221588426E-3   1.142742138149010E-3  
 2.028200000000000E10    1.475680856620548E-3   8.143570739775896E-4  
 2.028400000000000E10    1.425376808684733E-3   5.723175601343867E-4  
 2.028600000000000E10    1.387241080886236E-3   4.391248243067552E-4  
 2.028800000000000E10    1.448549261247670E-3   2.798169363005501E-4  
 2.029000000000000E10    1.505963625041423E-3   7.926042760825819E-5  
 2.029200000000000E10    1.543402037997213E-3  -1.018178887466935E-4  
 2.029400000000000E10    1.600007953432699E-3  -3.632328012759832E-4  
 2.029600000000000E10    1.557552876571814E-3  -7.213678478297814E-4  
 2.029800000000000E10    1.334615633822978E-3  -1.065066196369352E-3  
 2.030000000000000E10    1.013373576656536E-3  -1.288699115523034E-3  
 2.030200000000000E10    7.016267692152825E-4  -1.318553704078551E-3  
 2.030400000000000E10    5.596799051596059E-4  -1.241838266314180E-3  
 2.030600000000000E10    5.447490947079604E-4  -1.278188252062709E-3  
 2.030800000000000E10    4.678609030735163E-4  -1.510720493064987E-3  
 2.031000000000000E10    2.157494659682184E-4  -1.804424837852518E-3  
 2.031200000000000E10   -2.166766148379625E-4  -2.006342281001034E-3  
 2.031400000000000E10   -8.267776079096454E-4  -2.038678895958044E-3  
 2.031600000000000E10   -1.500231269919486E-3  -1.727061777341145E-3  
 2.031800000000000E10   -1.884741217104925E-3  -1.059189137002384E-3  
 2.032000000000000E10   -1.857018727740204E-3  -4.395463232261440E-4  
 2.032200000000000E10   -1.640051258382974E-3  -6.698506627731991E-5  
 2.032400000000000E10   -1.424463168304000E-3   1.274537886880959E-4  
 2.032600000000000E10   -1.303744385950267E-3   2.487405576243031E-4  
 2.032800000000000E10   -1.236881478689611E-3   3.542954552728959E-4  
 2.033000000000000E10   -1.178621922412680E-3   4.310844858452955E-4  
 2.033200000000000E10   -1.202327190656905E-3   5.010041209903581E-4  
 2.033400000000000E10   -1.253979858355942E-3   7.452295782665412E-4  
 2.033600000000000E10   -1.212881649499414E-3   9.466433311226192E-4  
 2.033800000000000E10   -8.723697866554615E-4   1.285486725262470E-3  
 2.034000000000000E10   -6.339104557237416E-4   1.398651649382104E-3  
 2.034200000000000E10   -4.540147471103680E-4   1.456002131345923E-3  
 2.034400000000000E10   -2.756599763718745E-4   1.555865583079005E-3  
 2.034600000000000E10   -5.223297544203151E-5   1.700775383074803E-3  
 2.034800000000000E10    2.594098181429285E-4   1.879514367492111E-3  
 2.035000000000000E10    7.526228954601620E-4   1.959794321683822E-3  
 2.035200000000000E10    1.362284270322158E-3   1.792779778716741E-3  
 2.035400000000000E10    1.872701811845656E-3   1.293768097336094E-3  
 2.035600000000000E10    2.060436505686354E-3   5.933158444585624E-4  
 2.035800000000000E10    1.892980136391190E-3   6.151750885355470E-6  
 2.036000000000000E10    1.568881122188436E-3  -2.812115740703626E-4  
 2.036200000000000E10    1.325897014423929E-3  -3.826922146362011E-4  
 2.036400000000000E10    1.173275121901598E-3  -4.371442957091387E-4  
 2.036600000000000E10    1.110392501922669E-3  -4.190670787701729E-4  
 2.036800000000000E10    1.214371166295476E-3  -3.829930868017039E-4  
 2.037000000000000E10    1.399678583429368E-3  -5.961869675148693E-4  
 2.037200000000000E10    1.420885246867935E-3  -9.890787165474009E-4  
 2.037400000000000E10    1.241773819654352E-3  -1.380538921458302E-3  
 2.037600000000000E10    9.080220156142282E-4  -1.712959660734568E-3  
 2.037800000000000E10    4.777731686502833E-4  -1.882392158559351E-3  
 2.038000000000000E10    6.599860514850460E-5  -1.849419273505056E-3  
 2.038200000000000E10   -2.475993595133467E-4  -1.708322553895414E-3  
 2.038400000000000E10   -4.165742516138212E-4  -1.593333888902433E-3  
 2.038600000000000E10   -5.536903519424852E-4  -1.601179070011886E-3  
 2.038800000000000E10   -8.015971290189084E-4  -1.609125308244041E-3  
 2.039000000000000E10   -1.117404446833664E-3  -1.517924829386175E-3  
 2.039200000000000E10   -1.428712892380578E-3  -1.304730376297677E-3  
 2.039400000000000E10   -1.655852387624758E-3  -9.737666308258971E-4  
 2.039600000000000E10   -1.760520674805675E-3  -6.763743823049247E-4  
 2.039800000000000E10   -1.832581362342117E-3  -4.116254804776637E-4  
 2.040000000000000E10   -1.827677224624764E-3  -9.314943842279416E-5  
 2.040200000000000E10   -1.720146172576481E-3   1.268293739553041E-4  
 2.040400000000000E10   -1.736163351408861E-3   2.038924451173645E-4  
 2.040600000000000E10   -1.893389051676625E-3   3.679095416036607E-4  
 2.040800000000000E10   -2.052173121935792E-3   6.884886749537179E-4  
 2.041000000000000E10   -2.094731670459388E-3   1.188042871136632E-3  
 2.041200000000000E10   -1.864873058231617E-3   1.756202011300182E-3  
 2.041400000000000E10   -1.445986033003364E-3   2.210968001573175E-3  
 2.041600000000000E10   -9.404020879797087E-4   2.500251452955935E-3  
 2.041800000000000E10   -3.954240959568847E-4   2.604664881127301E-3  
 2.042000000000000E10    1.064669775722130E-4   2.565945231321234E-3  
 2.042200000000000E10    5.591635816489106E-4   2.468058089208272E-3  
 2.042400000000000E10    9.488779706535517E-4   2.317419775796158E-3  
 2.042600000000000E10    1.279247592686227E-3   2.147143284134843E-3  
 2.042800000000000E10    1.634046819095535E-3   1.956954887309285E-3  
 2.043000000000000E10    1.998741800586383E-3   1.633696443470264E-3  
 2.043200000000000E10    2.267239287633587E-3   1.163233250500289E-3  
 2.043400000000000E10    2.355709439143539E-3   6.552927047272938E-4  
 2.043600000000000E10    2.269434113124455E-3   2.735598321090004E-4  
 2.043800000000000E10    2.162936665290208E-3   1.283682892487074E-5  
 2.044000000000000E10    2.111459866649023E-3  -2.132952558221641E-4  
 2.044200000000000E10    2.116898320511811E-3  -4.156267516211504E-4  
 2.044400000000000E10    2.201221710829824E-3  -6.363503397787335E-4  
 2.044600000000000E10    2.304817058352961E-3  -1.012517130692248E-3  
 2.044800000000000E10    2.264852282004776E-3  -1.553856595246880E-3  
 2.045000000000000E10    1.997155702189991E-3  -2.120588181747331E-3  
 2.045200000000000E10    1.500670457500275E-3  -2.680856406826664E-3  
 2.045400000000000E10    7.120353143869175E-4  -3.032966973949914E-3  
 2.045600000000000E10   -1.174915795403380E-4  -2.914620252947013E-3  
 2.045800000000000E10   -6.881686061172298E-4  -2.503649961134350E-3  
 2.046000000000000E10   -9.790924636440147E-4  -2.065890869643126E-3  
 2.046200000000000E10   -1.062303686652471E-3  -1.764652026058348E-3  
 2.046400000000000E10   -1.097146637254843E-3  -1.602149827198850E-3  
 2.046600000000000E10   -1.192202364715437E-3  -1.524782368775319E-3  
 2.046800000000000E10   -1.348836701018391E-3  -1.485471518848230E-3  
 2.047000000000000E10   -1.646994246618340E-3  -1.366695966916504E-3  
 2.047200000000000E10   -1.953124965506572E-3  -1.100748893804848E-3  
 2.047400000000000E10   -2.132814343052882E-3  -7.258225103012391E-4  
 2.047600000000000E10   -2.129503879351197E-3  -3.624057959920417E-4  
 2.047800000000000E10   -2.080883744552180E-3  -1.179129230203452E-4  
 2.048000000000000E10   -2.146194826949526E-3   6.705889082965129E-5  
 2.048200000000000E10   -2.322245208132599E-3   3.508962065636837E-4  
 2.048400000000000E10   -2.427942938757716E-3   8.216765752338150E-4  
 2.048600000000000E10   -2.357642778574869E-3   1.388204986815927E-3  
 2.048800000000000E10   -2.035931227038856E-3   1.963638114156547E-3  
 2.049000000000000E10   -1.495781104528794E-3   2.389125439717814E-3  
 2.049200000000000E10   -9.137738530558570E-4   2.611771613980333E-3  
 2.049400000000000E10   -3.123515052720904E-4   2.654151913399498E-3  
 2.049600000000000E10    2.635657103921943E-4   2.467382311200102E-3  
 2.049800000000000E10    6.808404038936176E-4   2.119424727020992E-3  
 2.050000000000000E10    8.669526669783174E-4   1.728808421089694E-3  
 2.050200000000000E10    7.454731773274641E-4   1.508697487965778E-3  
 2.050400000000000E10    7.045471726019902E-4   1.643338693409331E-3  
 2.050600000000000E10    1.014015512299483E-3   1.830870721109764E-3  
 2.050800000000000E10    1.485533309514048E-3   1.739926015337308E-3  
 2.051000000000000E10    1.881234770364784E-3   1.456205582211691E-3  
 2.051200000000000E10    2.200796070543153E-3   1.134744884135823E-3  
 2.051400000000000E10    2.481570467352867E-3   6.837788063825833E-4  
 2.051600000000000E10    2.573264642032209E-3   8.610790273114282E-5  
 2.051800000000000E10    2.413481663636588E-3  -4.644484660174284E-4  
 2.052000000000000E10    2.215625623379041E-3  -8.267234532266029E-4  
 2.052200000000000E10    2.079367904958350E-3  -1.161197885974414E-3  
 2.052400000000000E10    1.871853911628326E-3  -1.581626651049765E-3  
 2.052600000000000E10    1.419147592969239E-3  -1.974189227136473E-3  
 2.052800000000000E10    8.080131827025779E-4  -2.122305988989495E-3  
 2.053000000000000E10    3.104853471827315E-4  -2.018866163712961E-3  
 2.053200000000000E10   -2.410028442951713E-5  -1.815285494861504E-3  
 2.053400000000000E10   -2.365355073750295E-4  -1.544620406262025E-3  
 2.053600000000000E10   -2.966541462767594E-4  -1.296661522549888E-3  
 2.053800000000000E10   -2.377728669671342E-4  -1.162945780109752E-3  
 2.054000000000000E10   -1.087315357398001E-4  -1.203518382411588E-3  
 2.054200000000000E10   -5.122790928537682E-5  -1.475276550519522E-3  
 2.054400000000000E10   -2.858496445696801E-4  -1.871245589831637E-3  
 2.054600000000000E10   -8.591208369816069E-4  -2.140459414847471E-3  
 2.054800000000000E10   -1.675706718944841E-3  -2.037245357685067E-3  
 2.055000000000000E10   -2.373345868868961E-3  -1.473075235952382E-3  
 2.055200000000000E10   -2.666030484424146E-3  -6.872598982967989E-4  
 2.055400000000000E10   -2.598317719444081E-3   7.648430053248176E-5  
 2.055600000000000E10   -2.314736040447045E-3   6.754599313286169E-4  
