#  HZ   S   RI   R     50.00 
! Rohde & Schwarz ZVA40 4Ports - Version 3.90 - 1145.1110k42 SN: 100403
! Date: 2023-10-03 12:55:45
! Measurement: S12 
! 
 2.000000000000000E10    2.964289712340192E-3  -8.413380990667201E-4  
 2.000200000000000E10    2.795181711445804E-3  -1.452481792377377E-3  
 2.000400000000000E10    2.441440364000974E-3  -1.994596725260770E-3  
 2.000600000000000E10    1.929829401584963E-3  -2.418622788455752E-3  
 2.000800000000000E10    1.381639447235675E-3  -2.706614736881522E-3  
 2.001000000000000E10    8.224489456215116E-4  -2.837200407628660E-3  
 2.001200000000000E10    3.515083528192783E-4  -2.833016992857059E-3  
 2.001400000000000E10   -8.668593525524356E-5  -2.871806319389079E-3  
 2.001600000000000E10   -6.996838061173482E-4  -2.845350635686407E-3  
 2.001800000000000E10   -1.337858900013897E-3  -2.545667708747917E-3  
 2.002000000000000E10   -1.741066432764961E-3  -2.046584462126096E-3  
 2.002200000000000E10   -1.933476814344802E-3  -1.518304606347725E-3  
 2.002400000000000E10   -1.935143441962148E-3  -1.073261334871253E-3  
 2.002600000000000E10   -1.862897572142107E-3  -7.813265805857050E-4  
 2.002800000000000E10   -1.857489028393671E-3  -6.091575250374499E-4  
 2.003000000000000E10   -1.886464707139466E-3  -4.384961513871396E-4  
 2.003200000000000E10   -1.926489277846284E-3  -2.974557581991475E-4  
 2.003400000000000E10   -2.063883822066365E-3  -1.473857509726831E-4  
 2.003600000000000E10   -2.311410218546237E-3   1.954462279374841E-4  
 2.003800000000000E10   -2.431963794623261E-3   8.238700339225708E-4  
 2.004000000000000E10   -2.168349525028909E-3   1.494156244141912E-3  
 2.004200000000000E10   -1.615498240830170E-3   1.919324794370267E-3  
 2.004400000000000E10   -9.908570338868434E-4   2.041657334538522E-3  
 2.004600000000000E10   -5.401830874486931E-4   1.899672210802911E-3  
 2.004800000000000E10   -3.543634428987625E-4   1.713200360191642E-3  
 2.005000000000000E10   -3.277223634844025E-4   1.708599574932898E-3  
 2.005200000000000E10   -1.978867355016216E-4   1.863364789945384E-3  
 2.005400000000000E10    8.802925017166508E-5   2.010105031163053E-3  
 2.005600000000000E10    5.085243351964487E-4   2.059977191189925E-3  
 2.005800000000000E10    9.223189661969190E-4   1.972958221341725E-3  
 2.006000000000000E10    1.300219662004599E-3   1.810979822443591E-3  
 2.006200000000000E10    1.671716773503081E-3   1.519084274251428E-3  
 2.006400000000000E10    1.940768677741289E-3   1.065363486607870E-3  
 2.006600000000000E10    2.006163536053565E-3   5.975657517814803E-4  
 2.006800000000000E10    1.918218223619516E-3   2.614941978309717E-4  
 2.007000000000000E10    1.852383699130129E-3   1.049877863368709E-4  
 2.007200000000000E10    1.957320250329320E-3  -7.081090593096129E-5  
 2.007400000000000E10    2.060090562466670E-3  -4.604293154207645E-4  
 2.007600000000000E10    1.991071850406351E-3  -9.232656706848907E-4  
 2.007800000000000E10    1.801360372660889E-3  -1.359083788917849E-3  
 2.008000000000000E10    1.445381604652438E-3  -1.726925709388323E-3  
 2.008200000000000E10    9.591513597923850E-4  -1.967205161539217E-3  
 2.008400000000000E10    4.042484484940630E-4  -2.021717813072933E-3  
 2.008600000000000E10   -1.439536599382000E-5  -1.840369155009588E-3  
 2.008800000000000E10   -2.208475720922084E-4  -1.596474700986787E-3  
 2.009000000000000E10   -2.629564567339710E-4  -1.409597384432952E-3  
 2.009200000000000E10   -2.313361719306731E-4  -1.396326313692111E-3  
 2.009400000000000E10   -3.604873291570349E-4  -1.558624897842054E-3  
 2.009600000000000E10   -6.812795914744063E-4  -1.664686266815773E-3  
 2.009800000000000E10   -1.052607756315006E-3  -1.646308336165493E-3  
 2.010000000000000E10   -1.421972290026369E-3  -1.443164121290600E-3  
 2.010200000000000E10   -1.673112256900856E-3  -1.132808987879091E-3  
 2.010400000000000E10   -1.876234301124458E-3  -8.415730920171849E-4  
 2.010600000000000E10   -2.075454375396173E-3  -5.529859249859498E-4  
 2.010800000000000E10   -2.278176860676872E-3  -1.804589003397807E-4  
 2.011000000000000E10   -2.347906137368194E-3   3.364854211987997E-4  
 2.011200000000000E10   -2.209677335081829E-3   8.542320121907527E-4  
 2.011400000000000E10   -1.970862969756127E-3   1.307802447290332E-3  
 2.011600000000000E10   -1.665369986935898E-3   1.709524818040707E-3  
 2.011800000000000E10   -1.247851721321543E-3   2.011251368525404E-3  
 2.012000000000000E10   -6.936833271066901E-4   2.139475213846675E-3  
 2.012200000000000E10   -1.708833911430298E-4   2.035553403267706E-3  
 2.012400000000000E10    1.212775246973184E-4   1.827966926308970E-3  
 2.012600000000000E10    2.558946591172436E-4   1.683511064146404E-3  
 2.012800000000000E10    3.457597426690714E-4   1.624946857595610E-3  
 2.013000000000000E10    4.860454333808136E-4   1.614464123526381E-3  
 2.013200000000000E10    6.998764432932217E-4   1.639300099298082E-3  
 2.013400000000000E10    1.030467334203422E-3   1.599506535394876E-3  
 2.013600000000000E10    1.349468379177981E-3   1.457645751846334E-3  
 2.013800000000000E10    1.611845050421026E-3   1.226895885473048E-3  
 2.014000000000000E10    1.765655181198209E-3   8.540750541551798E-4  
 2.014200000000000E10    1.773199596856203E-3   5.504279591453573E-4  
 2.014400000000000E10    1.813921823028337E-3   3.973923513614056E-4  
 2.014600000000000E10    1.956018123396293E-3   2.365217477307414E-4  
 2.014800000000000E10    2.108900083435907E-3  -2.977674321974282E-5  
 2.015000000000000E10    2.201961232694211E-3  -3.576088455264215E-4  
 2.015200000000000E10    2.268339248581065E-3  -7.924794335849583E-4  
 2.015400000000000E10    2.190148587235146E-3  -1.361762837472337E-3  
 2.015600000000000E10    1.865083709600623E-3  -1.885041801465882E-3  
 2.015800000000000E10    1.355711280161308E-3  -2.196976854638369E-3  
 2.016000000000000E10    8.002312431387882E-4  -2.241816906327451E-3  
 2.016200000000000E10    4.286564933998442E-4  -2.129238840468504E-3  
 2.016400000000000E10    3.225959210087442E-4  -2.034123124623741E-3  
 2.016600000000000E10    3.016064109504913E-4  -2.162568943781985E-3  
 2.016800000000000E10    9.693342198497030E-5  -2.477499768482867E-3  
 2.017000000000000E10   -3.765950246748550E-4  -2.757393401461067E-3  
 2.017200000000000E10   -1.064517423165617E-3  -2.811731046272649E-3  
 2.017400000000000E10   -1.747154910979724E-3  -2.626678958121274E-3  
 2.017600000000000E10   -2.330217493215093E-3  -2.271096299712857E-3  
 2.017800000000000E10   -2.743722638115287E-3  -1.711959821275539E-3  
 2.018000000000000E10   -2.956863561714138E-3  -1.076775822891957E-3  
 2.018200000000000E10   -2.990204616691228E-3  -4.900475614704192E-4  
 2.018400000000000E10   -2.909245098837548E-3  -7.857647277112982E-5  
 2.018600000000000E10   -2.912831130541034E-3   1.910294565648117E-4  
 2.018800000000000E10   -3.037618757742975E-3   5.856287381094364E-4  
 2.019000000000000E10   -3.070573313851600E-3   1.158832460296927E-3  
 2.019200000000000E10   -2.910667331889272E-3   1.836481805959786E-3  
 2.019400000000000E10   -2.556621571312900E-3   2.459099145468187E-3  
 2.019600000000000E10   -2.040032823397606E-3   2.898637619283465E-3  
 2.019800000000000E10   -1.443785399681441E-3   3.163834111075159E-3  
 2.020000000000000E10   -8.561135963881735E-4   3.269684526862370E-3  
 2.020200000000000E10   -4.099066783156661E-4   3.320542750535188E-3  
 2.020400000000000E10    5.948552320155091E-6   3.476696994362607E-3  
 2.020600000000000E10    5.968231039501176E-4   3.596771887882992E-3  
 2.020800000000000E10    1.248473508490457E-3   3.578147842307334E-3  
 2.021000000000000E10    1.963806795646195E-3   3.426850316356178E-3  
 2.021200000000000E10    2.782460828139275E-3   3.095900614021554E-3  
 2.021400000000000E10    3.542319121253160E-3   2.457810212271633E-3  
 2.021600000000000E10    3.974947992160366E-3   1.529108689821981E-3  
 2.021800000000000E10    3.993915445688698E-3   5.571573187976525E-4  
 2.022000000000000E10    3.774180922105357E-3  -1.901397670196646E-4  
 2.022200000000000E10    3.536126809194685E-3  -7.665609419173390E-4  
 2.022400000000000E10    3.231983562862432E-3  -1.249685465289211E-3  
 2.022600000000000E10    2.860766775147231E-3  -1.585449708660168E-3  
 2.022800000000000E10    2.623299007407493E-3  -1.760477372617634E-3  
 2.023000000000000E10    2.588029355845518E-3  -2.085168414783699E-3  
 2.023200000000000E10    2.398381518475988E-3  -2.727171561370294E-3  
 2.023400000000000E10    1.860986627569353E-3  -3.281942810173388E-3  
 2.023600000000000E10    1.198871255231401E-3  -3.584038285124633E-3  
 2.023800000000000E10    4.966741113026662E-4  -3.729409762416725E-3  
 2.024000000000000E10   -2.008314180851880E-4  -3.748909173602308E-3  
 2.024200000000000E10   -8.738724109544248E-4  -3.638429748308328E-3  
 2.024400000000000E10   -1.482195768470842E-3  -3.387638764386928E-3  
 2.024600000000000E10   -2.023683412483445E-3  -3.048116220506254E-3  
 2.024800000000000E10   -2.507906113923700E-3  -2.623487445008424E-3  
 2.025000000000000E10   -2.964952848506747E-3  -2.110356551215605E-3  
 2.025200000000000E10   -3.305351551346205E-3  -1.513726910127810E-3  
 2.025400000000000E10   -3.429632271743483E-3  -8.163044177409676E-4  
 2.025600000000000E10   -3.335810585499362E-3  -1.621885371773883E-4  
 2.025800000000000E10   -3.132647438043798E-3   3.345967173421135E-4  
 2.026000000000000E10   -2.965276336504354E-3   6.835278623771889E-4  
 2.026200000000000E10   -2.855506380675016E-3   9.833964782215105E-4  
 2.026400000000000E10   -2.811280389626821E-3   1.333117282397493E-3  
 2.026600000000000E10   -2.699726951067095E-3   1.853382197657117E-3  
 2.026800000000000E10   -2.358391173873787E-3   2.405279669565736E-3  
 2.027000000000000E10   -1.897360004174213E-3   2.886143245699782E-3  
 2.027200000000000E10   -1.325834495084429E-3   3.258434926263161E-3  
 2.027400000000000E10   -6.278645725817316E-4   3.450809003509306E-3  
 2.027600000000000E10    1.273649174469972E-4   3.399579320102931E-3  
 2.027800000000000E10    7.542007585504542E-4   3.165971185943043E-3  
 2.028000000000000E10    1.212925749347994E-3   2.891603658941610E-3  
 2.028200000000000E10    1.572466205322632E-3   2.584587178986382E-3  
 2.028400000000000E10    1.847472222935823E-3   2.241495211988136E-3  
 2.028600000000000E10    2.088577965170973E-3   1.962940596664946E-3  
 2.028800000000000E10    2.396041777467838E-3   1.635360423716958E-3  
 2.029000000000000E10    2.670018373195220E-3   1.247009788467377E-3  
 2.029200000000000E10    2.868635321242942E-3   8.678214055382544E-4  
 2.029400000000000E10    3.041084252159905E-3   3.850496416109511E-4  
 2.029600000000000E10    3.126980478150977E-3  -2.068222148847310E-4  
 2.029800000000000E10    3.050935773730830E-3  -8.365546538563516E-4  
 2.030000000000000E10    2.801390045701906E-3  -1.406508980801812E-3  
 2.030200000000000E10    2.429671240625559E-3  -1.782046549056692E-3  
 2.030400000000000E10    2.113034698629269E-3  -2.031625015661120E-3  
 2.030600000000000E10    1.875930961600885E-3  -2.342192594099928E-3  
 2.030800000000000E10    1.550363626813999E-3  -2.791569619956944E-3  
 2.031000000000000E10    1.038134826726660E-3  -3.253422858607438E-3  
 2.031200000000000E10    3.234852456780909E-4  -3.550232862363812E-3  
 2.031400000000000E10   -5.973777173224976E-4  -3.615612647047749E-3  
 2.031600000000000E10   -1.559837052978024E-3  -3.306531502554814E-3  
 2.031800000000000E10   -2.238714041326333E-3  -2.593009672300132E-3  
 2.032000000000000E10   -2.444954502775714E-3  -1.853718172275910E-3  
 2.032200000000000E10   -2.411535440909642E-3  -1.318557248278349E-3  
 2.032400000000000E10   -2.375119848659745E-3  -9.701457176426496E-4  
 2.032600000000000E10   -2.424869048236697E-3  -6.363283437504262E-4  
 2.032800000000000E10   -2.486111259915763E-3  -3.203332113722960E-4  
 2.033000000000000E10   -2.533235552686233E-3  -3.649259674097668E-5  
 2.033200000000000E10   -2.613424702926919E-3   2.989834115228237E-4  
 2.033400000000000E10   -2.654159872758168E-3   8.404431605918540E-4  
 2.033600000000000E10   -2.564702010541051E-3   1.162099729602536E-3  
 2.033800000000000E10   -2.124865953293112E-3   1.815681582903145E-3  
 2.034000000000000E10   -1.795446319091651E-3   2.121753024834174E-3  
 2.034200000000000E10   -1.456472138805246E-3   2.376963246475768E-3  
 2.034400000000000E10   -1.066947200646003E-3   2.631889699302890E-3  
 2.034600000000000E10   -6.072308514612141E-4   2.905758166754688E-3  
 2.034800000000000E10   -4.048420318954244E-5   3.170460850621264E-3  
 2.035000000000000E10    6.931675123740678E-4   3.249941514460026E-3  
 2.035200000000000E10    1.528775677326377E-3   3.014720407211118E-3  
 2.035400000000000E10    2.259522512624110E-3   2.463817639552333E-3  
 2.035600000000000E10    2.668732535783892E-3   1.684632704213814E-3  
 2.035800000000000E10    2.666704615371095E-3   9.788614007885811E-4  
 2.036000000000000E10    2.472359730206706E-3   5.298257369927511E-4  
 2.036200000000000E10    2.343291735828475E-3   2.423855988093203E-4  
 2.036400000000000E10    2.249978706930523E-3  -3.181961653387624E-5  
 2.036600000000000E10    2.224977705972615E-3  -2.222039868313544E-4  
 2.036800000000000E10    2.330695839460802E-3  -3.942499493455722E-4  
 2.037000000000000E10    2.466337556985242E-3  -7.621541692599380E-4  
 2.037200000000000E10    2.443167932883457E-3  -1.336870702087052E-3  
 2.037400000000000E10    2.197007864230761E-3  -1.951661047146276E-3  
 2.037600000000000E10    1.736265758086962E-3  -2.468020586227930E-3  
 2.037800000000000E10    1.141363172791898E-3  -2.748303865599964E-3  
 2.038000000000000E10    5.447114127929565E-4  -2.797524548239179E-3  
 2.038200000000000E10    3.461777938624706E-5  -2.684099677329262E-3  
 2.038400000000000E10   -3.225916254989528E-4  -2.557651398496496E-3  
 2.038600000000000E10   -6.363324290658865E-4  -2.550902155538400E-3  
 2.038800000000000E10   -1.027732492528028E-3  -2.533305074191756E-3  
 2.039000000000000E10   -1.506978089714216E-3  -2.349971914318977E-3  
 2.039200000000000E10   -1.971561625530875E-3  -2.013314601585821E-3  
 2.039400000000000E10   -2.312636847987219E-3  -1.554361824808574E-3  
 2.039600000000000E10   -2.484664527906312E-3  -1.137009295807393E-3  
 2.039800000000000E10   -2.582582075976663E-3  -7.346199708990754E-4  
 2.040000000000000E10   -2.585788067706206E-3  -3.140538831724337E-4  
 2.040200000000000E10   -2.483692451345700E-3   2.307184937914523E-5  
 2.040400000000000E10   -2.502529088545729E-3   2.565339252921856E-4  
 2.040600000000000E10   -2.626551763602981E-3   5.554800003732521E-4  
 2.040800000000000E10   -2.728676845974945E-3   9.595959024779776E-4  
 2.041000000000000E10   -2.704394662200853E-3   1.589958771580348E-3  
 2.041200000000000E10   -2.388281195803925E-3   2.295367048915338E-3  
 2.041400000000000E10   -1.850106904317660E-3   2.843837279619442E-3  
 2.041600000000000E10   -1.231661579502678E-3   3.195515592341071E-3  
 2.041800000000000E10   -5.492754366800742E-4   3.329484007769713E-3  
 2.042000000000000E10    9.707901109255480E-5   3.264358215447930E-3  
 2.042200000000000E10    7.062031676199425E-4   3.088352960292940E-3  
 2.042400000000000E10    1.191831064513988E-3   2.843513989959050E-3  
 2.042600000000000E10    1.545147849591794E-3   2.629536747311553E-3  
 2.042800000000000E10    1.932416680372424E-3   2.368841328899618E-3  
 2.043000000000000E10    2.355376137765470E-3   1.997825749977320E-3  
 2.043200000000000E10    2.705894229519699E-3   1.484826646952166E-3  
 2.043400000000000E10    2.884528047784611E-3   9.011036535311078E-4  
 2.043600000000000E10    2.849933156674659E-3   3.876658361318901E-4  
 2.043800000000000E10    2.720847234336867E-3   1.138599502694518E-5  
 2.044000000000000E10    2.584235509857535E-3  -2.938283470467906E-4  
 2.044200000000000E10    2.527110235489630E-3  -5.595585982384230E-4  
 2.044400000000000E10    2.571344884388425E-3  -8.181921137427843E-4  
 2.044600000000000E10    2.674973621550534E-3  -1.200973060568450E-3  
 2.044800000000000E10    2.594325562111206E-3  -1.796469661510653E-3  
 2.045000000000000E10    2.269560962708460E-3  -2.450371583647751E-3  
 2.045200000000000E10    1.702860933383582E-3  -3.065143556644519E-3  
 2.045400000000000E10    8.430409879009757E-4  -3.457357891386858E-3  
 2.045600000000000E10   -7.410620606538875E-5  -3.379729524668721E-3  
 2.045800000000000E10   -7.354268584296936E-4  -2.950324435476904E-3  
 2.046000000000000E10   -1.124700682272238E-3  -2.447235725682091E-3  
 2.046200000000000E10   -1.288828750451406E-3  -2.053272194677481E-3  
 2.046400000000000E10   -1.356826422529088E-3  -1.837721792981029E-3  
 2.046600000000000E10   -1.422599833286195E-3  -1.705479609814507E-3  
 2.046800000000000E10   -1.591557610986962E-3  -1.614151945061706E-3  
 2.047000000000000E10   -1.926339067587698E-3  -1.433700745649360E-3  
 2.047200000000000E10   -2.245692863922429E-3  -1.074235541401086E-3  
 2.047400000000000E10   -2.374671761774355E-3  -6.240472214779369E-4  
 2.047600000000000E10   -2.317461349001086E-3  -2.509465950963744E-4  
 2.047800000000000E10   -2.198738735859041E-3  -1.241906823081621E-5  
 2.048000000000000E10   -2.188425131694035E-3   1.574807640820466E-4  
 2.048200000000000E10   -2.343332507061186E-3   4.276132892334351E-4  
 2.048400000000000E10   -2.457317447772733E-3   8.702579739124135E-4  
 2.048600000000000E10   -2.384847616431890E-3   1.399773030748798E-3  
 2.048800000000000E10   -2.062601175297190E-3   1.965161680278403E-3  
 2.049000000000000E10   -1.515483332763392E-3   2.386592561379075E-3  
 2.049200000000000E10   -9.147992866389730E-4   2.587220467696036E-3  
 2.049400000000000E10   -3.467330324282456E-4   2.595603276320078E-3  
 2.049600000000000E10    1.447041016675670E-4   2.413317914707242E-3  
 2.049800000000000E10    4.749651243737727E-4   2.089804978351350E-3  
 2.050000000000000E10    6.343842811744522E-4   1.767153981038266E-3  
 2.050200000000000E10    5.759968254197803E-4   1.626834031884317E-3  
 2.050400000000000E10    5.640685019359269E-4   1.799633053855764E-3  
 2.050600000000000E10    8.711806903765711E-4   1.977904316003401E-3  
 2.050800000000000E10    1.339777424517605E-3   1.906770872193630E-3  
 2.051000000000000E10    1.747950549340911E-3   1.644126441398705E-3  
 2.051200000000000E10    2.098595438939002E-3   1.351300251877143E-3  
 2.051400000000000E10    2.435358724108449E-3   9.473862915506795E-4  
 2.051600000000000E10    2.582965996461335E-3   3.844620740791369E-4  
 2.051800000000000E10    2.475866780581850E-3  -1.483410095614898E-4  
 2.052000000000000E10    2.324763883802075E-3  -5.356336844636611E-4  
 2.052200000000000E10    2.244516258576402E-3  -8.775482161177531E-4  
 2.052400000000000E10    2.104748273268342E-3  -1.292099275074348E-3  
 2.052600000000000E10    1.735965001258861E-3  -1.707013049680326E-3  
 2.052800000000000E10    1.205108428149726E-3  -1.909826791638302E-3  
 2.053000000000000E10    7.587105070275290E-4  -1.905404828937242E-3  
 2.053200000000000E10    4.397472652339343E-4  -1.833470904751233E-3  
 2.053400000000000E10    1.926374128810562E-4  -1.692710047656740E-3  
 2.053600000000000E10    1.083905379480847E-4  -1.504671031229750E-3  
 2.053800000000000E10    1.176648302471559E-4  -1.423593080188665E-3  
 2.054000000000000E10    1.714917927057724E-4  -1.496685746436318E-3  
 2.054200000000000E10    1.823840564746341E-4  -1.813961753483724E-3  
 2.054400000000000E10   -9.278046733622131E-5  -2.231741944948833E-3  
 2.054600000000000E10   -6.978053802244918E-4  -2.535550467049082E-3  
 2.054800000000000E10   -1.564667228160909E-3  -2.483715087658277E-3  
 2.055000000000000E10   -2.344550918442784E-3  -1.944688873158561E-3  
 2.055200000000000E10   -2.736371251995917E-3  -1.178975618030462E-3  
 2.055400000000000E10   -2.774267250465022E-3  -4.316957503626193E-4  
 2.055600000000000E10   -2.594565550141313E-3   1.866787023135220E-4  
