#  HZ   S   RI   R     50.00 
! Rohde & Schwarz ZVA40 4Ports - Version 3.90 - 1145.1110k42 SN: 100403
! Date: 2023-10-03 12:56:19
! Measurement: S12 
! 
 2.000000000000000E10    3.070671913317509E-3  -1.049896089912013E-3  
 2.000200000000000E10    2.815352571714256E-3  -1.651867021185657E-3  
 2.000400000000000E10    2.410014090990579E-3  -2.168349835469767E-3  
 2.000600000000000E10    1.875374970647196E-3  -2.550237734491627E-3  
 2.000800000000000E10    1.333843450993300E-3  -2.770258751870306E-3  
 2.001000000000000E10    8.154853734325756E-4  -2.885547164758599E-3  
 2.001200000000000E10    3.478347379886718E-4  -2.927971270832199E-3  
 2.001400000000000E10   -1.518410779816029E-4  -2.998661974238025E-3  
 2.001600000000000E10   -8.409451801088399E-4  -2.965568970129998E-3  
 2.001800000000000E10   -1.486614825100535E-3  -2.594443348546823E-3  
 2.002000000000000E10   -1.849612363407182E-3  -2.046272063765813E-3  
 2.002200000000000E10   -2.008594296596669E-3  -1.515405213770767E-3  
 2.002400000000000E10   -2.022366884543940E-3  -1.093795214762429E-3  
 2.002600000000000E10   -1.973181311903453E-3  -8.111620145091029E-4  
 2.002800000000000E10   -1.994497125485429E-3  -6.469513453474200E-4  
 2.003000000000000E10   -2.067858456737466E-3  -4.155524204381639E-4  
 2.003200000000000E10   -2.105423046655401E-3  -1.670412090822572E-4  
 2.003400000000000E10   -2.172130332500847E-3   8.868275795571714E-5  
 2.003600000000000E10   -2.316771299336796E-3   4.377022042818782E-4  
 2.003800000000000E10   -2.364913631161606E-3   9.855912562839137E-4  
 2.004000000000000E10   -2.097371637959171E-3   1.599334753808324E-3  
 2.004200000000000E10   -1.553957208266689E-3   2.028811679877065E-3  
 2.004400000000000E10   -9.110030455135363E-4   2.152551776143136E-3  
 2.004600000000000E10   -4.355658785681482E-4   1.976214073322438E-3  
 2.004800000000000E10   -2.562616912958523E-4   1.750753463797823E-3  
 2.005000000000000E10   -2.332095038447598E-4   1.714686147385726E-3  
 2.005200000000000E10   -9.296715803362466E-5   1.852931420284289E-3  
 2.005400000000000E10    2.172707646860983E-4   1.988748726607473E-3  
 2.005600000000000E10    6.154846244802078E-4   2.000407139011832E-3  
 2.005800000000000E10    9.653407851820467E-4   1.879162318935549E-3  
 2.006000000000000E10    1.301316630647139E-3   1.721688356526472E-3  
 2.006200000000000E10    1.663043650936474E-3   1.468002369316916E-3  
 2.006400000000000E10    1.930544523660232E-3   1.064011753812708E-3  
 2.006600000000000E10    2.028637582919112E-3   6.280258724776407E-4  
 2.006800000000000E10    1.966628151152421E-3   2.937938246490106E-4  
 2.007000000000000E10    1.925657917228010E-3   1.298869874854400E-4  
 2.007200000000000E10    2.091458731296438E-3  -1.028405571964363E-4  
 2.007400000000000E10    2.222158859863326E-3  -5.846867958704631E-4  
 2.007600000000000E10    2.096899129726269E-3  -1.128776628455078E-3  
 2.007800000000000E10    1.776909615189113E-3  -1.622012290344746E-3  
 2.008000000000000E10    1.275613231377469E-3  -1.957145433321044E-3  
 2.008200000000000E10    7.258325414214698E-4  -2.064408527480232E-3  
 2.008400000000000E10    2.460093935412631E-4  -1.994649698543880E-3  
 2.008600000000000E10   -1.000554543511330E-4  -1.778309272291760E-3  
 2.008800000000000E10   -2.542994927218253E-4  -1.536148867604358E-3  
 2.009000000000000E10   -2.908202753773097E-4  -1.353512867353857E-3  
 2.009200000000000E10   -2.652140370897811E-4  -1.346273218385048E-3  
 2.009400000000000E10   -3.683793076089826E-4  -1.533282045447440E-3  
 2.009600000000000E10   -6.854554026008205E-4  -1.653399702196044E-3  
 2.009800000000000E10   -1.072028177548890E-3  -1.606818241136218E-3  
 2.010000000000000E10   -1.445063363967671E-3  -1.388133050770395E-3  
 2.010200000000000E10   -1.685358868497941E-3  -1.104191273312878E-3  
 2.010400000000000E10   -1.884705227523766E-3  -8.538090861057520E-4  
 2.010600000000000E10   -2.098756100706481E-3  -5.678833716686953E-4  
 2.010800000000000E10   -2.311254006431059E-3  -1.686233525914658E-4  
 2.011000000000000E10   -2.362161107292330E-3   3.961875842866937E-4  
 2.011200000000000E10   -2.203421003219706E-3   9.284939927359425E-4  
 2.011400000000000E10   -1.971255056560040E-3   1.354901568481216E-3  
 2.011600000000000E10   -1.650921922797959E-3   1.723425937126632E-3  
 2.011800000000000E10   -1.232771215856903E-3   2.015834174084443E-3  
 2.012000000000000E10   -7.260189762476971E-4   2.186073154142058E-3  
 2.012200000000000E10   -2.286785661622330E-4   2.160213447900282E-3  
 2.012400000000000E10    1.167852587547747E-4   2.012151043379197E-3  
 2.012600000000000E10    3.398913783409323E-4   1.854633489899614E-3  
 2.012800000000000E10    5.304711931212634E-4   1.731951285533055E-3  
 2.013000000000000E10    7.144874737908443E-4   1.619898304515691E-3  
 2.013200000000000E10    8.866525582831217E-4   1.571718616307610E-3  
 2.013400000000000E10    1.149101592427879E-3   1.520283852220962E-3  
 2.013600000000000E10    1.442260742704902E-3   1.347901049518475E-3  
 2.013800000000000E10    1.704806060944167E-3   1.071609776570565E-3  
 2.014000000000000E10    1.840929634420684E-3   6.975127271962939E-4  
 2.014200000000000E10    1.851739137674924E-3   4.095547828236941E-4  
 2.014400000000000E10    1.861566005067693E-3   2.214788697461633E-4  
 2.014600000000000E10    1.917253300133679E-3   6.603583312459739E-5  
 2.014800000000000E10    2.019098942616472E-3  -1.622104892804702E-4  
 2.015000000000000E10    2.137460676884210E-3  -4.795772062304119E-4  
 2.015200000000000E10    2.225610712129209E-3  -9.503217362281351E-4  
 2.015400000000000E10    2.092375928812005E-3  -1.541681009931145E-3  
 2.015600000000000E10    1.657252450025192E-3  -2.066469682311571E-3  
 2.015800000000000E10    1.041910947403974E-3  -2.344351037646885E-3  
 2.016000000000000E10    4.474527948466993E-4  -2.303572673419560E-3  
 2.016200000000000E10    8.611903063461393E-5  -2.067067074003043E-3  
 2.016400000000000E10    3.091519425248003E-5  -1.873301631012173E-3  
 2.016600000000000E10    4.933683265806865E-5  -1.945469700903805E-3  
 2.016800000000000E10   -1.177464647399676E-4  -2.184567662576835E-3  
 2.017000000000000E10   -5.181540036574006E-4  -2.411691471934319E-3  
 2.017200000000000E10   -1.067320704115210E-3  -2.468850066954340E-3  
 2.017400000000000E10   -1.624740742112476E-3  -2.308767582117408E-3  
 2.017600000000000E10   -2.133934318812357E-3  -1.964984642755655E-3  
 2.017800000000000E10   -2.505006415217563E-3  -1.483706934205084E-3  
 2.018000000000000E10   -2.738877768731780E-3  -9.601778562042726E-4  
 2.018200000000000E10   -2.798216020757402E-3  -4.362756196685412E-4  
 2.018400000000000E10   -2.716481280340641E-3  -3.633147113120047E-5  
 2.018600000000000E10   -2.693509907220249E-3   2.254901348216529E-4  
 2.018800000000000E10   -2.816627923123263E-3   5.707782326714585E-4  
 2.019000000000000E10   -2.878105949127564E-3   1.107625809877559E-3  
 2.019200000000000E10   -2.748677110368455E-3   1.705027219873888E-3  
 2.019400000000000E10   -2.410085199193822E-3   2.274840354436526E-3  
 2.019600000000000E10   -1.921539225063666E-3   2.721913521074587E-3  
 2.019800000000000E10   -1.355350754844646E-3   3.029428534554663E-3  
 2.020000000000000E10   -7.769635111024535E-4   3.165541354704786E-3  
 2.020200000000000E10   -3.189523434870084E-4   3.197210168259012E-3  
 2.020400000000000E10    9.858219116857206E-5   3.265882411074859E-3  
 2.020600000000000E10    6.497571313822711E-4   3.321423591976918E-3  
 2.020800000000000E10    1.223697939335748E-3   3.262224960727273E-3  
 2.021000000000000E10    1.831029748751058E-3   3.129711253913465E-3  
 2.021200000000000E10    2.493957876814185E-3   2.846558035040895E-3  
 2.021400000000000E10    3.132347733265273E-3   2.291188126912824E-3  
 2.021600000000000E10    3.557802626380215E-3   1.509118044783396E-3  
 2.021800000000000E10    3.662707085755689E-3   6.631775823835698E-4  
 2.022000000000000E10    3.542190227933504E-3  -2.987708878073909E-5  
 2.022200000000000E10    3.325429839875412E-3  -5.837267273347136E-4  
 2.022400000000000E10    3.015007125213743E-3  -1.032403243395190E-3  
 2.022600000000000E10    2.731468442275569E-3  -1.306520718908697E-3  
 2.022800000000000E10    2.612293352959333E-3  -1.493291200690524E-3  
 2.023000000000000E10    2.680761713741554E-3  -1.857620987316801E-3  
 2.023200000000000E10    2.516058118393024E-3  -2.506838102514545E-3  
 2.023400000000000E10    1.965520493858667E-3  -3.100798266974313E-3  
 2.023600000000000E10    1.280287573872893E-3  -3.462034682915719E-3  
 2.023800000000000E10    5.495986444185731E-4  -3.607172018813867E-3  
 2.024000000000000E10   -1.070335650486717E-4  -3.574283319283967E-3  
 2.024200000000000E10   -6.962342476644727E-4  -3.432447694379975E-3  
 2.024400000000000E10   -1.245331230435383E-3  -3.220529588698238E-3  
 2.024600000000000E10   -1.745455001515371E-3  -2.956348799031091E-3  
 2.024800000000000E10   -2.195256175818267E-3  -2.648366132268200E-3  
 2.025000000000000E10   -2.632323471415374E-3  -2.262290575783010E-3  
 2.025200000000000E10   -3.001404339792552E-3  -1.735721529392457E-3  
 2.025400000000000E10   -3.225165255436743E-3  -1.095030918130996E-3  
 2.025600000000000E10   -3.263143227539129E-3  -4.354482322620850E-4  
 2.025800000000000E10   -3.121495807405424E-3   9.696439169433523E-5  
 2.026000000000000E10   -2.947499958315382E-3   4.321862954249675E-4  
 2.026200000000000E10   -2.855416421812994E-3   7.411590583312016E-4  
 2.026400000000000E10   -2.859489638703289E-3   1.121091919399246E-3  
 2.026600000000000E10   -2.792220226385527E-3   1.672231924237201E-3  
 2.026800000000000E10   -2.513498921568195E-3   2.247415810685467E-3  
 2.027000000000000E10   -2.082916528538422E-3   2.737645913536350E-3  
 2.027200000000000E10   -1.482755307936006E-3   3.122726179383420E-3  
 2.027400000000000E10   -7.656889243258372E-4   3.341189516639268E-3  
 2.027600000000000E10   -4.211772439130409E-5   3.299989056325069E-3  
 2.027800000000000E10    5.158327026206450E-4   3.087704647677365E-3  
 2.028000000000000E10    9.193623403984089E-4   2.828951062703575E-3  
 2.028200000000000E10    1.282102760375926E-3   2.566798452149939E-3  
 2.028400000000000E10    1.582943459248378E-3   2.318113809451461E-3  
 2.028600000000000E10    1.876004837901780E-3   2.131352054507092E-3  
 2.028800000000000E10    2.220087029315808E-3   1.890712805713217E-3  
 2.029000000000000E10    2.506671042216045E-3   1.547759338454516E-3  
 2.029200000000000E10    2.783302623019727E-3   1.168127387279162E-3  
 2.029400000000000E10    3.055055298049142E-3   6.635748539809828E-4  
 2.029600000000000E10    3.194505046984112E-3   2.561874485022767E-5  
 2.029800000000000E10    3.129611352320623E-3  -6.001386338741416E-4  
 2.030000000000000E10    2.871767617762089E-3  -1.163347456086841E-3  
 2.030200000000000E10    2.537231185232048E-3  -1.564826617983205E-3  
 2.030400000000000E10    2.295135563515403E-3  -1.848049716230620E-3  
 2.030600000000000E10    2.134586658535732E-3  -2.233310274917771E-3  
 2.030800000000000E10    1.853819462229257E-3  -2.721674490237126E-3  
 2.031000000000000E10    1.329856364194442E-3  -3.205451355488212E-3  
 2.031200000000000E10    5.838219550679681E-4  -3.557872199625881E-3  
 2.031400000000000E10   -3.314102769191205E-4  -3.694509897657015E-3  
 2.031600000000000E10   -1.298909761115081E-3  -3.442682912228285E-3  
 2.031800000000000E10   -1.981397426721675E-3  -2.749601189323046E-3  
 2.032000000000000E10   -2.204910722664661E-3  -2.024637699058211E-3  
 2.032200000000000E10   -2.225989562079863E-3  -1.556253560853226E-3  
 2.032400000000000E10   -2.285590947226242E-3  -1.283198194060889E-3  
 2.032600000000000E10   -2.422486285299615E-3  -1.009116932335827E-3  
 2.032800000000000E10   -2.506210175515325E-3  -7.039740362584041E-4  
 2.033000000000000E10   -2.623065314428122E-3  -4.042197553509915E-4  
 2.033200000000000E10   -2.825617893702454E-3  -2.941155576586930E-5  
 2.033400000000000E10   -2.943051021753086E-3   5.639545539721710E-4  
 2.033600000000000E10   -2.901890487582596E-3   8.837179349804368E-4  
 2.033800000000000E10   -2.531678622795476E-3   1.649479562830594E-3  
 2.034000000000000E10   -2.202774449768994E-3   2.096934873541748E-3  
 2.034200000000000E10   -1.834336832096732E-3   2.489545615389943E-3  
 2.034400000000000E10   -1.424767089904183E-3   2.849529574935635E-3  
 2.034600000000000E10   -9.392481814655994E-4   3.168943743393929E-3  
 2.034800000000000E10   -3.192525256491974E-4   3.455671723242160E-3  
 2.035000000000000E10    5.048769914234679E-4   3.595915959320135E-3  
 2.035200000000000E10    1.445698228457736E-3   3.433118695048271E-3  
 2.035400000000000E10    2.293620982931720E-3   2.882926914564990E-3  
 2.035600000000000E10    2.754483932491254E-3   2.028659374142687E-3  
 2.035800000000000E10    2.779673284816522E-3   1.220278403100868E-3  
 2.036000000000000E10    2.596398039410512E-3   7.135296279254060E-4  
 2.036200000000000E10    2.495833853673604E-3   4.451081018756938E-4  
 2.036400000000000E10    2.480919852300927E-3   2.347099599083541E-4  
 2.036600000000000E10    2.537348471512949E-3   5.789231444295081E-5  
 2.036800000000000E10    2.718228924398621E-3  -2.348077905480751E-4  
 2.037000000000000E10    2.898386541616034E-3  -7.632571979667303E-4  
 2.037200000000000E10    2.862699769644274E-3  -1.443708143024533E-3  
 2.037400000000000E10    2.581523386416612E-3  -2.123153742609753E-3  
 2.037600000000000E10    2.018486416933162E-3  -2.684602358688911E-3  
 2.037800000000000E10    1.328660183827634E-3  -3.008420708485776E-3  
 2.038000000000000E10    6.670522939034359E-4  -3.115296458687496E-3  
 2.038200000000000E10    1.093016388175009E-4  -3.060691162115998E-3  
 2.038400000000000E10   -3.122239933064622E-4  -2.966799350731351E-3  
 2.038600000000000E10   -7.417506615941724E-4  -2.900610876235146E-3  
 2.038800000000000E10   -1.273583288787416E-3  -2.777225174078787E-3  
 2.039000000000000E10   -1.769073307514191E-3  -2.511740748391108E-3  
 2.039200000000000E10   -2.192529565137294E-3  -2.158816722739074E-3  
 2.039400000000000E10   -2.494421546105986E-3  -1.689320796652249E-3  
 2.039600000000000E10   -2.678374207958027E-3  -1.210675044502649E-3  
 2.039800000000000E10   -2.818255961217262E-3  -7.275635941402504E-4  
 2.040000000000000E10   -2.837303154929369E-3  -2.372657941628455E-4  
 2.040200000000000E10   -2.735467041256252E-3   1.498562401307195E-4  
 2.040400000000000E10   -2.663807917593254E-3   4.158065658649085E-4  
 2.040600000000000E10   -2.668362059113053E-3   7.033090978102001E-4  
 2.040800000000000E10   -2.734255916611464E-3   1.088636496138794E-3  
 2.041000000000000E10   -2.759515609661187E-3   1.656160612280170E-3  
 2.041200000000000E10   -2.532265226667126E-3   2.309733829288571E-3  
 2.041400000000000E10   -2.058797102007601E-3   2.868422410554356E-3  
 2.041600000000000E10   -1.398070637757580E-3   3.310190660327122E-3  
 2.041800000000000E10   -6.332177867147107E-4   3.546253217522194E-3  
 2.042000000000000E10    5.207540272278020E-5   3.544779615131794E-3  
 2.042200000000000E10    6.893229869159836E-4   3.430252808525607E-3  
 2.042400000000000E10    1.267874591845881E-3   3.180866146943084E-3  
 2.042600000000000E10    1.762844074551982E-3   2.890361093536572E-3  
 2.042800000000000E10    2.249261028029853E-3   2.555482753518004E-3  
 2.043000000000000E10    2.692902322720599E-3   2.120981156757033E-3  
 2.043200000000000E10    3.013181362163138E-3   1.570982267838662E-3  
 2.043400000000000E10    3.180962745790129E-3   9.139794252674891E-4  
 2.043600000000000E10    3.138993521807371E-3   2.692540842367130E-4  
 2.043800000000000E10    2.978233792991550E-3  -2.045970188057119E-4  
 2.044000000000000E10    2.819325016052635E-3  -5.483401753870702E-4  
 2.044200000000000E10    2.697473607474455E-3  -8.317705726733915E-4  
 2.044400000000000E10    2.629565402727436E-3  -1.128974405151827E-3  
 2.044600000000000E10    2.619773735878645E-3  -1.545954340447983E-3  
 2.044800000000000E10    2.496632980182767E-3  -2.102868122704052E-3  
 2.045000000000000E10    2.172945170766778E-3  -2.705723280087113E-3  
 2.045200000000000E10    1.598187618785434E-3  -3.255200417091450E-3  
 2.045400000000000E10    6.980472998866054E-4  -3.607164171558840E-3  
 2.045600000000000E10   -2.802296377787436E-4  -3.516910080280569E-3  
 2.045800000000000E10   -9.948790366588922E-4  -3.088204155641574E-3  
 2.046000000000000E10   -1.395664039861273E-3  -2.557688323711908E-3  
 2.046200000000000E10   -1.552318968741154E-3  -2.092387380630330E-3  
 2.046400000000000E10   -1.639407598068593E-3  -1.771994219678972E-3  
 2.046600000000000E10   -1.729909516008640E-3  -1.561451004818082E-3  
 2.046800000000000E10   -1.867819749922664E-3  -1.421732103659047E-3  
 2.047000000000000E10   -2.089985370360039E-3  -1.219749968085024E-3  
 2.047200000000000E10   -2.287657862460172E-3  -8.675592080517500E-4  
 2.047400000000000E10   -2.348565151570020E-3  -4.340316119379606E-4  
 2.047600000000000E10   -2.306153877051893E-3  -7.199205437144784E-5  
 2.047800000000000E10   -2.235373663198617E-3   1.632053107540641E-4  
 2.048000000000000E10   -2.237929005382790E-3   3.376583691634652E-4  
 2.048200000000000E10   -2.324059329651021E-3   6.277423235587776E-4  
 2.048400000000000E10   -2.325507907058906E-3   1.093653927522677E-3  
 2.048600000000000E10   -2.184843075358206E-3   1.610090546482415E-3  
 2.048800000000000E10   -1.858549860857979E-3   2.120036390368586E-3  
 2.049000000000000E10   -1.321543452191960E-3   2.503088451232071E-3  
 2.049200000000000E10   -6.682632417694010E-4   2.641794366624069E-3  
 2.049400000000000E10   -2.670830050461789E-5   2.555560975990914E-3  
 2.049600000000000E10    4.730984197791529E-4   2.270889873788865E-3  
 2.049800000000000E10    7.131135056692142E-4   1.876647152972442E-3  
 2.050000000000000E10    7.444768885357514E-4   1.528742214388870E-3  
 2.050200000000000E10    6.090860762115982E-4   1.379850480050125E-3  
 2.050400000000000E10    6.030818093913021E-4   1.549322511655865E-3  
 2.050600000000000E10    9.044458878364552E-4   1.731913032320639E-3  
 2.050800000000000E10    1.334059754972933E-3   1.663311470851854E-3  
 2.051000000000000E10    1.646188117943153E-3   1.416090138566991E-3  
 2.051200000000000E10    1.889451139572042E-3   1.145443180575967E-3  
 2.051400000000000E10    2.158634795772809E-3   7.816403457481002E-4  
 2.051600000000000E10    2.294177422299981E-3   3.149309050058946E-4  
 2.051800000000000E10    2.212446588264020E-3  -1.260853311274938E-4  
 2.052000000000000E10    2.091444528627176E-3  -4.243406906930938E-4  
 2.052200000000000E10    2.023642943068236E-3  -7.158667280304212E-4  
 2.052400000000000E10    1.929408840455667E-3  -1.111870898899657E-3  
 2.052600000000000E10    1.645940545670412E-3  -1.534341782745388E-3  
 2.052800000000000E10    1.188362219922797E-3  -1.752471029585987E-3  
 2.053000000000000E10    7.759867951756829E-4  -1.748494208893843E-3  
 2.053200000000000E10    4.467777724602019E-4  -1.686596475472605E-3  
 2.053400000000000E10    1.927289553417790E-4  -1.559533433195342E-3  
 2.053600000000000E10    9.933131810545025E-5  -1.380952816732504E-3  
 2.053800000000000E10    1.292437456733617E-4  -1.270657254348475E-3  
 2.054000000000000E10    2.465937232719390E-4  -1.316043427558961E-3  
 2.054200000000000E10    2.963741329343369E-4  -1.619712501350377E-3  
 2.054400000000000E10    6.574264767146410E-5  -2.070338318676309E-3  
 2.054600000000000E10   -5.006750838624107E-4  -2.444200786865420E-3  
 2.054800000000000E10   -1.347432456289729E-3  -2.466767120899426E-3  
 2.055000000000000E10   -2.121844372056701E-3  -1.965775331309825E-3  
 2.055200000000000E10   -2.503098928611036E-3  -1.213660804313366E-3  
 2.055400000000000E10   -2.558702206308092E-3  -5.454021868192488E-4  
 2.055600000000000E10   -2.444289521210724E-3   1.022749327401280E-6  
