#  HZ   S   RI   R     50.00 
! Rohde & Schwarz ZVA40 4Ports - Version 3.90 - 1145.1110k42 SN: 100403
! Date: 2023-10-03 12:56:46
! Measurement: S12 
! 
 2.000000000000000E10    3.972623686961554E-3   1.237084085274815E-4  
 2.000200000000000E10    3.970796897731446E-3  -6.613627580615382E-4  
 2.000400000000000E10    3.739982843399049E-3  -1.459057658427844E-3  
 2.000600000000000E10    3.297428324542664E-3  -2.131636608047066E-3  
 2.000800000000000E10    2.787864284106979E-3  -2.611126440266768E-3  
 2.001000000000000E10    2.272660059302494E-3  -2.974395967881989E-3  
 2.001200000000000E10    1.770139296746089E-3  -3.263597169684040E-3  
 2.001400000000000E10    1.208669902687824E-3  -3.584714106249589E-3  
 2.001600000000000E10    4.143186896625493E-4  -3.807094474150627E-3  
 2.001800000000000E10   -4.306306698169836E-4  -3.679088541065102E-3  
 2.002000000000000E10   -1.063614913383154E-3  -3.293095044446765E-3  
 2.002200000000000E10   -1.457326045190847E-3  -2.853156162287902E-3  
 2.002400000000000E10   -1.701716139602165E-3  -2.518424548691622E-3  
 2.002600000000000E10   -1.920491504413938E-3  -2.302662685030589E-3  
 2.002800000000000E10   -2.223327281643395E-3  -2.107935750650035E-3  
 2.003000000000000E10   -2.534124163772773E-3  -1.817796788937240E-3  
 2.003200000000000E10   -2.835516059012325E-3  -1.488142474382012E-3  
 2.003400000000000E10   -3.176408776737474E-3  -1.080130735688188E-3  
 2.003600000000000E10   -3.540054049894766E-3  -4.910035770282978E-4  
 2.003800000000000E10   -3.700478916504869E-3   3.588068680579050E-4  
 2.004000000000000E10   -3.459380301474422E-3   1.224469117544316E-3  
 2.004200000000000E10   -2.923535226188876E-3   1.856817596557516E-3  
 2.004400000000000E10   -2.301043813565263E-3   2.188905099130892E-3  
 2.004600000000000E10   -1.821178253050204E-3   2.231496472463564E-3  
 2.004800000000000E10   -1.629809435043070E-3   2.219797112047672E-3  
 2.005000000000000E10   -1.557152261267658E-3   2.449058780998544E-3  
 2.005200000000000E10   -1.287440502050298E-3   2.878804242721311E-3  
 2.005400000000000E10   -7.671949095782583E-4   3.270923634301182E-3  
 2.005600000000000E10   -6.091622668059749E-5   3.461696155783203E-3  
 2.005800000000000E10    6.282455977742320E-4   3.414994028086464E-3  
 2.006000000000000E10    1.272127679031756E-3   3.264268325572765E-3  
 2.006200000000000E10    1.884553960903927E-3   2.936090446180768E-3  
 2.006400000000000E10    2.372516543362980E-3   2.445546228921524E-3  
 2.006600000000000E10    2.664121894027900E-3   1.955766558509182E-3  
 2.006800000000000E10    2.838688005727751E-3   1.526309966316654E-3  
 2.007000000000000E10    3.049532244740813E-3   1.190772711264867E-3  
 2.007200000000000E10    3.399779175028758E-3   7.517868739173370E-4  
 2.007400000000000E10    3.681985463050229E-3   1.889305820912813E-5  
 2.007600000000000E10    3.668011899140698E-3  -8.380846055741940E-4  
 2.007800000000000E10    3.362400008848421E-3  -1.649417388425381E-3  
 2.008000000000000E10    2.803316753771571E-3  -2.291700052511361E-3  
 2.008200000000000E10    2.136834681516996E-3  -2.660680829581839E-3  
 2.008400000000000E10    1.527978667851400E-3  -2.808273804408533E-3  
 2.008600000000000E10    1.035863930290496E-3  -2.819576869822211E-3  
 2.008800000000000E10    6.562574999406934E-4  -2.768667388914360E-3  
 2.009000000000000E10    3.794251727716377E-4  -2.724640045521988E-3  
 2.009200000000000E10    1.759813179281386E-4  -2.822296409350303E-3  
 2.009400000000000E10   -1.853584986680222E-4  -3.049669485470211E-3  
 2.009600000000000E10   -7.511219031315435E-4  -3.198002197745222E-3  
 2.009800000000000E10   -1.433492090587539E-3  -3.159007040300855E-3  
 2.010000000000000E10   -2.122975894491430E-3  -2.870931798868158E-3  
 2.010200000000000E10   -2.670309851291004E-3  -2.432898687267746E-3  
 2.010400000000000E10   -3.132908406701905E-3  -1.933696882419840E-3  
 2.010600000000000E10   -3.536473312932585E-3  -1.362140764723774E-3  
 2.010800000000000E10   -3.859713199306970E-3  -6.369598214169621E-4  
 2.011000000000000E10   -3.946504503902462E-3   2.423189219337440E-4  
 2.011200000000000E10   -3.764264673615496E-3   1.055463695795172E-3  
 2.011400000000000E10   -3.454929002112261E-3   1.766761799377424E-3  
 2.011600000000000E10   -3.039753271473779E-3   2.405707939976344E-3  
 2.011800000000000E10   -2.448157045162387E-3   2.963355888991996E-3  
 2.012000000000000E10   -1.716620689775381E-3   3.327359385029586E-3  
 2.012200000000000E10   -9.779643646820829E-4   3.459988368882074E-3  
 2.012400000000000E10   -3.447390891206279E-4   3.425277200424009E-3  
 2.012600000000000E10    2.006877556494955E-4   3.290599056830009E-3  
 2.012800000000000E10    6.601427341121492E-4   3.142282513349697E-3  
 2.013000000000000E10    1.104599140860416E-3   2.965884722976222E-3  
 2.013200000000000E10    1.517046540458169E-3   2.768097178044695E-3  
 2.013400000000000E10    1.945878758474633E-3   2.536812314280758E-3  
 2.013600000000000E10    2.367880721404045E-3   2.195306674197868E-3  
 2.013800000000000E10    2.745260243062620E-3   1.741547620406858E-3  
 2.014000000000000E10    2.979623196922519E-3   1.139676758881521E-3  
 2.014200000000000E10    3.033222682360146E-3   6.148639066075838E-4  
 2.014400000000000E10    3.021103209229532E-3   1.921892830136198E-4  
 2.014600000000000E10    3.000921466284329E-3  -1.798860299728673E-4  
 2.014800000000000E10    3.034096745843137E-3  -5.598110254612511E-4  
 2.015000000000000E10    3.071097251786678E-3  -1.024843573018357E-3  
 2.015200000000000E10    3.041094281124297E-3  -1.639851144756432E-3  
 2.015400000000000E10    2.787656185251695E-3  -2.364448349302014E-3  
 2.015600000000000E10    2.198932675161848E-3  -3.007654014422938E-3  
 2.015800000000000E10    1.380160295714935E-3  -3.380945116212523E-3  
 2.016000000000000E10    5.431328663016084E-4  -3.408000537159819E-3  
 2.016200000000000E10   -8.728647716688336E-5  -3.146969178622520E-3  
 2.016400000000000E10   -4.042904345422156E-4  -2.841891022399068E-3  
 2.016600000000000E10   -5.670705663592176E-4  -2.709472879629445E-3  
 2.016800000000000E10   -8.024768537358830E-4  -2.750628912407491E-3  
 2.017000000000000E10   -1.203360661208906E-3  -2.822429441881401E-3  
 2.017200000000000E10   -1.759249544530004E-3  -2.765690804355674E-3  
 2.017400000000000E10   -2.328093594836969E-3  -2.508231585293457E-3  
 2.017600000000000E10   -2.831211098021379E-3  -2.061679372908893E-3  
 2.017800000000000E10   -3.174119887666571E-3  -1.455751515028102E-3  
 2.018000000000000E10   -3.366953150058786E-3  -8.313480023018741E-4  
 2.018200000000000E10   -3.375019507344675E-3  -2.218815772923538E-4  
 2.018400000000000E10   -3.243774917252638E-3   2.508288450068600E-4  
 2.018600000000000E10   -3.193779003426985E-3   5.897235004576268E-4  
 2.018800000000000E10   -3.256020282774613E-3   1.032355017270203E-3  
 2.019000000000000E10   -3.235715622496274E-3   1.639938676143410E-3  
 2.019200000000000E10   -3.007917802918841E-3   2.321083926492267E-3  
 2.019400000000000E10   -2.547846934585660E-3   2.941129194503582E-3  
 2.019600000000000E10   -1.926423986097453E-3   3.386776264825905E-3  
 2.019800000000000E10   -1.201273420722120E-3   3.678970004397411E-3  
 2.020000000000000E10   -4.697535693628231E-4   3.741951469607928E-3  
 2.020200000000000E10    1.014686244565787E-4   3.618407235653313E-3  
 2.020400000000000E10    5.478589122907984E-4   3.548209883134675E-3  
 2.020600000000000E10    1.062602524783600E-3   3.523028481544720E-3  
 2.020800000000000E10    1.638913333105545E-3   3.422356986751160E-3  
 2.021000000000000E10    2.277785748312319E-3   3.253961818430711E-3  
 2.021200000000000E10    3.007491058842452E-3   2.897760882559750E-3  
 2.021400000000000E10    3.673078621634179E-3   2.226189063448045E-3  
 2.021600000000000E10    4.051337208322905E-3   1.294944336189440E-3  
 2.021800000000000E10    4.069861283318864E-3   3.265460152222120E-4  
 2.022000000000000E10    3.822466901813944E-3  -4.499582832472193E-4  
 2.022200000000000E10    3.450624825846818E-3  -1.055727790420254E-3  
 2.022400000000000E10    3.002519727926012E-3  -1.479217644642901E-3  
 2.022600000000000E10    2.589919888931844E-3  -1.711804906975616E-3  
 2.022800000000000E10    2.376733735824625E-3  -1.815412939457154E-3  
 2.023000000000000E10    2.373297215887794E-3  -2.104682080378687E-3  
 2.023200000000000E10    2.158306771889329E-3  -2.676124305084900E-3  
 2.023400000000000E10    1.569646229553554E-3  -3.129372864754664E-3  
 2.023600000000000E10    9.136354266148475E-4  -3.310479758376325E-3  
 2.023800000000000E10    3.128245546206557E-4  -3.334827341691212E-3  
 2.024000000000000E10   -1.937927413059192E-4  -3.262972019405829E-3  
 2.024200000000000E10   -6.776619637902413E-4  -3.153331224220219E-3  
 2.024400000000000E10   -1.161392541015866E-3  -2.978827994040869E-3  
 2.024600000000000E10   -1.624686936675399E-3  -2.717301249504089E-3  
 2.024800000000000E10   -2.020824907554521E-3  -2.404727973043919E-3  
 2.025000000000000E10   -2.352570838950299E-3  -2.050033796371685E-3  
 2.025200000000000E10   -2.642915239212690E-3  -1.631904893589241E-3  
 2.025400000000000E10   -2.826278546342144E-3  -1.123942301125714E-3  
 2.025600000000000E10   -2.897157273427756E-3  -5.948209867778201E-4  
 2.025800000000000E10   -2.812716014752234E-3  -1.396532404248353E-4  
 2.026000000000000E10   -2.677366672152723E-3   1.686394643911627E-4  
 2.026200000000000E10   -2.624700777232647E-3   4.130141956179783E-4  
 2.026400000000000E10   -2.676479527036901E-3   7.344936796774469E-4  
 2.026600000000000E10   -2.638599999179995E-3   1.227171147345669E-3  
 2.026800000000000E10   -2.441567877583482E-3   1.716611247199277E-3  
 2.027000000000000E10   -2.155904011386964E-3   2.163984769679331E-3  
 2.027200000000000E10   -1.724907003032665E-3   2.569602103903890E-3  
 2.027400000000000E10   -1.123922514832682E-3   2.836399651304992E-3  
 2.027600000000000E10   -4.991768790339982E-4   2.866822639825168E-3  
 2.027800000000000E10   -3.538581815384397E-5   2.717970318540379E-3  
 2.028000000000000E10    2.718367980344705E-4   2.552679826126055E-3  
 2.028200000000000E10    5.217799043748528E-4   2.429443290802064E-3  
 2.028400000000000E10    7.607768143147784E-4   2.341750672914916E-3  
 2.028600000000000E10    1.043959598367413E-3   2.345684777807307E-3  
 2.028800000000000E10    1.447656903312438E-3   2.286240001450534E-3  
 2.029000000000000E10    1.836214322355335E-3   2.114490985318467E-3  
 2.029200000000000E10    2.214327497683742E-3   1.894826974926724E-3  
 2.029400000000000E10    2.646139383109080E-3   1.531900389602891E-3  
 2.029600000000000E10    2.989256616543841E-3   1.002108941234097E-3  
 2.029800000000000E10    3.165383314437889E-3   3.973436310102612E-4  
 2.030000000000000E10    3.146679485561672E-3  -2.207240554357500E-4  
 2.030200000000000E10    2.962314860067434E-3  -7.095249904388632E-4  
 2.030400000000000E10    2.829252983684893E-3  -1.093028686699216E-3  
 2.030600000000000E10    2.784812857431394E-3  -1.562230060463426E-3  
 2.030800000000000E10    2.616259338403190E-3  -2.163605462690747E-3  
 2.031000000000000E10    2.209013845357630E-3  -2.786184281662659E-3  
 2.031200000000000E10    1.565456890535576E-3  -3.278991474804503E-3  
 2.031400000000000E10    7.431252635325548E-4  -3.598008278964295E-3  
 2.031600000000000E10   -1.733984029636270E-4  -3.586217122911304E-3  
 2.031800000000000E10   -9.073294026570190E-4  -3.169995197957313E-3  
 2.032000000000000E10   -1.260970391471077E-3  -2.678572433069348E-3  
 2.032200000000000E10   -1.411237913459816E-3  -2.347676186925835E-3  
 2.032400000000000E10   -1.618477063150042E-3  -2.215029119893357E-3  
 2.032600000000000E10   -1.949482554293893E-3  -2.050228477283209E-3  
 2.032800000000000E10   -2.253608243470943E-3  -1.814334097111391E-3  
 2.033000000000000E10   -2.549906959757209E-3  -1.560891262704024E-3  
 2.033200000000000E10   -2.958304102153138E-3  -1.211070658259646E-3  
 2.033400000000000E10   -3.323956185744869E-3  -6.192763717586382E-4  
 2.033600000000000E10   -3.448224143573532E-3  -2.562562879541441E-4  
 2.033800000000000E10   -3.431546122387604E-3   7.522036235227631E-4  
 2.034000000000000E10   -3.257711719790543E-3   1.421981370421472E-3  
 2.034200000000000E10   -2.941461961233506E-3   2.037630752763815E-3  
 2.034400000000000E10   -2.547542633557762E-3   2.599013650237962E-3  
 2.034600000000000E10   -2.068818555454965E-3   3.108870841700722E-3  
 2.034800000000000E10   -1.456157744137778E-3   3.573227535795283E-3  
 2.035000000000000E10   -6.400092690320756E-4   3.884525848897519E-3  
 2.035200000000000E10    3.493252108994596E-4   3.968261561735914E-3  
 2.035400000000000E10    1.339256384030537E-3   3.647517326667354E-3  
 2.035600000000000E10    2.027127529597945E-3   2.964439129249917E-3  
 2.035800000000000E10    2.290445095342067E-3   2.238063779832037E-3  
 2.036000000000000E10    2.281683376403871E-3   1.700827722541160E-3  
 2.036200000000000E10    2.284079695258428E-3   1.391752855852247E-3  
 2.036400000000000E10    2.319494581401900E-3   1.202229841577786E-3  
 2.036600000000000E10    2.481448524459093E-3   1.106752186185784E-3  
 2.036800000000000E10    2.836765074688528E-3   9.106902828164125E-4  
 2.037000000000000E10    3.237211731848894E-3   3.837664639663504E-4  
 2.037200000000000E10    3.420596985422351E-3  -3.553163818550174E-4  
 2.037400000000000E10    3.327886763684176E-3  -1.139304234163353E-3  
 2.037600000000000E10    2.942120216579902E-3  -1.828781665406294E-3  
 2.037800000000000E10    2.428518849666472E-3  -2.272716749252545E-3  
 2.038000000000000E10    1.919847568152128E-3  -2.543257463171527E-3  
 2.038200000000000E10    1.483323914861238E-3  -2.691375764293803E-3  
 2.038400000000000E10    1.187717291974911E-3  -2.851266500160650E-3  
 2.038600000000000E10    8.303785580210389E-4  -3.137908832825445E-3  
 2.038800000000000E10    2.427943006666654E-4  -3.350813433320986E-3  
 2.039000000000000E10   -4.091447443459874E-4  -3.369320597913531E-3  
 2.039200000000000E10   -1.035087776404840E-3  -3.238609612539963E-3  
 2.039400000000000E10   -1.560399757215271E-3  -2.949427261396691E-3  
 2.039600000000000E10   -1.959820506507876E-3  -2.659339173179534E-3  
 2.039800000000000E10   -2.336662133327789E-3  -2.335375217996814E-3  
 2.040000000000000E10   -2.669538785186079E-3  -1.928515529639468E-3  
 2.040200000000000E10   -2.903115883883503E-3  -1.576531829346938E-3  
 2.040400000000000E10   -3.206754750054744E-3  -1.283927027274061E-3  
 2.040600000000000E10   -3.553729314632991E-3  -8.473534425893041E-4  
 2.040800000000000E10   -3.868130346139272E-3  -2.525107044709364E-4  
 2.041000000000000E10   -4.089409899380473E-3   5.499025595512379E-4  
 2.041200000000000E10   -4.017939894563623E-3   1.438549879282989E-3  
 2.041400000000000E10   -3.713460501145434E-3   2.269872283149097E-3  
 2.041600000000000E10   -3.213446199273070E-3   3.008811915707258E-3  
 2.041800000000000E10   -2.518105717306888E-3   3.613279761608552E-3  
 2.042000000000000E10   -1.751851402568045E-3   3.990238015022543E-3  
 2.042200000000000E10   -9.738061193342287E-4   4.195306829556272E-3  
 2.042400000000000E10   -2.765781828202307E-4   4.228404015992528E-3  
 2.042600000000000E10    3.650668443663529E-4   4.237022406111161E-3  
 2.042800000000000E10    1.121164791079031E-3   4.194807468189134E-3  
 2.043000000000000E10    1.930520123871113E-3   3.976694015027197E-3  
 2.043200000000000E10    2.660117112100124E-3   3.519224994643419E-3  
 2.043400000000000E10    3.217236328594111E-3   2.875680397092193E-3  
 2.043600000000000E10    3.512873840345829E-3   2.229714921365182E-3  
 2.043800000000000E10    3.726517488421114E-3   1.677833096538153E-3  
 2.044000000000000E10    3.950883806855591E-3   1.159324521992218E-3  
 2.044200000000000E10    4.176157819866031E-3   5.884447471342154E-4  
 2.044400000000000E10    4.347160372331188E-3  -2.971634401344798E-5  
 2.044600000000000E10    4.480251076596755E-3  -7.860245252097096E-4  
 2.044800000000000E10    4.437763675081510E-3  -1.712134552050244E-3  
 2.045000000000000E10    4.128371468848653E-3  -2.680570180355399E-3  
 2.045200000000000E10    3.505247326015874E-3  -3.590919206746751E-3  
 2.045400000000000E10    2.543149904037516E-3  -4.281443785186168E-3  
 2.045600000000000E10    1.433290295406349E-3  -4.526419185653881E-3  
 2.045800000000000E10    4.879621038627294E-4  -4.410528974538601E-3  
 2.046000000000000E10   -2.052406764252940E-4  -4.150629043579102E-3  
 2.046200000000000E10   -6.921267076567921E-4  -3.911823301610572E-3  
 2.046400000000000E10   -1.150459193417596E-3  -3.711026394739748E-3  
 2.046600000000000E10   -1.611925497720087E-3  -3.511759383534944E-3  
 2.046800000000000E10   -2.091895961375149E-3  -3.325913523979210E-3  
 2.047000000000000E10   -2.649551085023969E-3  -3.047076743785983E-3  
 2.047200000000000E10   -3.184486568594973E-3  -2.591723558941373E-3  
 2.047400000000000E10   -3.592101900182941E-3  -1.983630721008888E-3  
 2.047600000000000E10   -3.818316247176241E-3  -1.308205024408246E-3  
 2.047800000000000E10   -3.913878256248103E-3  -7.152721152157972E-4  
 2.048000000000000E10   -4.001710667378373E-3  -1.946843380951409E-4  
 2.048200000000000E10   -4.143555734858469E-3   3.899902372655494E-4  
 2.048400000000000E10   -4.162621943073140E-3   1.137897579206361E-3  
 2.048600000000000E10   -3.986665099445317E-3   1.956422140614854E-3  
 2.048800000000000E10   -3.590947698318848E-3   2.777818987077033E-3  
 2.049000000000000E10   -2.943664332161899E-3   3.469443155659570E-3  
 2.049200000000000E10   -2.127861026329575E-3   3.933012451010722E-3  
 2.049400000000000E10   -1.233932557860735E-3   4.131982154730294E-3  
 2.049600000000000E10   -3.898398588514992E-4   4.071212684114775E-3  
 2.049800000000000E10    2.721441765229598E-4   3.840154666384613E-3  
 2.050000000000000E10    7.458742087086042E-4   3.519505184764664E-3  
 2.050200000000000E10    9.697311152531596E-4   3.287041007920548E-3  
 2.050400000000000E10    1.235490095698171E-3   3.319981999488341E-3  
 2.050600000000000E10    1.824803301133216E-3   3.366162715893653E-3  
 2.050800000000000E10    2.544336486607790E-3   3.141403776007119E-3  
 2.051000000000000E10    3.160622902214528E-3   2.679955688546653E-3  
 2.051200000000000E10    3.661661477828468E-3   2.107324759924302E-3  
 2.051400000000000E10    4.086847658510562E-3   1.353666035423952E-3  
 2.051600000000000E10    4.284426121524087E-3   4.487743706839091E-4  
 2.051800000000000E10    4.180708382692602E-3  -3.983594306865363E-4  
 2.052000000000000E10    3.976577203030940E-3  -1.087558408336783E-3  
 2.052200000000000E10    3.719276524390336E-3  -1.747824381002122E-3  
 2.052400000000000E10    3.327610238489730E-3  -2.429028395218430E-3  
 2.052600000000000E10    2.723637062849270E-3  -3.025769264678713E-3  
 2.052800000000000E10    1.985864265373460E-3  -3.369201267896980E-3  
 2.053000000000000E10    1.294099303238370E-3  -3.481466668071571E-3  
 2.053200000000000E10    6.625995134796810E-4  -3.489502731503712E-3  
 2.053400000000000E10    6.084593506885642E-5  -3.370739786920173E-3  
 2.053600000000000E10   -4.177377699374188E-4  -3.160963102278334E-3  
 2.053800000000000E10   -7.855201881654838E-4  -2.920855362727135E-3  
 2.054000000000000E10   -1.004347566911882E-3  -2.700696820048271E-3  
 2.054200000000000E10   -1.154031513983177E-3  -2.651101616383703E-3  
 2.054400000000000E10   -1.483551800009553E-3  -2.741364822550505E-3  
 2.054600000000000E10   -2.059865872272187E-3  -2.820058975851646E-3  
 2.054800000000000E10   -2.897669768167867E-3  -2.624023835071259E-3  
 2.055000000000000E10   -3.683124306715197E-3  -1.899295719340444E-3  
 2.055200000000000E10   -4.042818642186898E-3  -8.913598506263012E-4  
 2.055400000000000E10   -4.038623706610115E-3   8.279640752772577E-5  
 2.055600000000000E10   -3.792359493672848E-3   9.350056535805818E-4  
