#  HZ   S   RI   R     50.00 
! Rohde & Schwarz ZVA40 4Ports - Version 3.90 - 1145.1110k42 SN: 100403
! Date: 2023-10-03 12:57:33
! Measurement: S12 
! 
 2.000000000000000E10    4.250405281552195E-3  -1.765581164419665E-6  
 2.000200000000000E10    4.242794933142486E-3  -8.741246772079189E-4  
 2.000400000000000E10    3.955851837900686E-3  -1.755704067038074E-3  
 2.000600000000000E10    3.416460297748815E-3  -2.460900651015066E-3  
 2.000800000000000E10    2.813871550362236E-3  -2.943105461006916E-3  
 2.001000000000000E10    2.217713890045330E-3  -3.312900564690800E-3  
 2.001200000000000E10    1.621328872042122E-3  -3.605480788758508E-3  
 2.001400000000000E10    9.718040222830979E-4  -3.861867443278984E-3  
 2.001600000000000E10    1.370379198946197E-4  -3.986314680703261E-3  
 2.001800000000000E10   -7.194669128188657E-4  -3.764158488469728E-3  
 2.002000000000000E10   -1.338074603232981E-3  -3.289076068473083E-3  
 2.002200000000000E10   -1.687405457041790E-3  -2.785074498711361E-3  
 2.002400000000000E10   -1.869291759866440E-3  -2.434499475553080E-3  
 2.002600000000000E10   -2.029218748326839E-3  -2.213373998708931E-3  
 2.002800000000000E10   -2.319542935440018E-3  -2.024021203756149E-3  
 2.003000000000000E10   -2.650954099487008E-3  -1.722965386615676E-3  
 2.003200000000000E10   -2.955038615008012E-3  -1.382318964906405E-3  
 2.003400000000000E10   -3.277321211004883E-3  -9.833192402485438E-4  
 2.003600000000000E10   -3.626351043535972E-3  -3.916457919813970E-4  
 2.003800000000000E10   -3.784985603465710E-3   4.725925344830081E-4  
 2.004000000000000E10   -3.550518010915430E-3   1.385559842427388E-3  
 2.004200000000000E10   -2.999076220195419E-3   2.090862130079372E-3  
 2.004400000000000E10   -2.314435835513804E-3   2.458752920552168E-3  
 2.004600000000000E10   -1.748132492116664E-3   2.509081923046414E-3  
 2.004800000000000E10   -1.453068459486980E-3   2.501021889555786E-3  
 2.005000000000000E10   -1.264027563458378E-3   2.683656738588104E-3  
 2.005200000000000E10   -9.409883900338578E-4   3.011405301268822E-3  
 2.005400000000000E10   -4.286194546253167E-4   3.287338608599924E-3  
 2.005600000000000E10    2.299951463808409E-4   3.399980352202684E-3  
 2.005800000000000E10    8.978604563270455E-4   3.309575139464420E-3  
 2.006000000000000E10    1.529679645174815E-3   3.090859859330971E-3  
 2.006200000000000E10    2.093751923422571E-3   2.729659348174378E-3  
 2.006400000000000E10    2.513791408596768E-3   2.235381401224453E-3  
 2.006600000000000E10    2.769251859942336E-3   1.718344095013576E-3  
 2.006800000000000E10    2.910913396511733E-3   1.259043660405794E-3  
 2.007000000000000E10    3.083608576016111E-3   9.004291348923920E-4  
 2.007200000000000E10    3.390729013416503E-3   4.487494458356387E-4  
 2.007400000000000E10    3.603794626362714E-3  -2.886426091096422E-4  
 2.007600000000000E10    3.497510153892232E-3  -1.128816251344059E-3  
 2.007800000000000E10    3.111615202125208E-3  -1.909260514456733E-3  
 2.008000000000000E10    2.485640229151389E-3  -2.488942670256452E-3  
 2.008200000000000E10    1.783886812282382E-3  -2.775350099797418E-3  
 2.008400000000000E10    1.162251206776013E-3  -2.801463680548801E-3  
 2.008600000000000E10    6.907604229464024E-4  -2.705833659058920E-3  
 2.008800000000000E10    3.429608829360348E-4  -2.591629046946764E-3  
 2.009000000000000E10    1.288176773627646E-4  -2.510460205721083E-3  
 2.009200000000000E10   -1.227343697488925E-5  -2.577790317849981E-3  
 2.009400000000000E10   -3.364952396095535E-4  -2.786882106720666E-3  
 2.009600000000000E10   -8.569064702447734E-4  -2.890396064124358E-3  
 2.009800000000000E10   -1.461424206578989E-3  -2.837627189072931E-3  
 2.010000000000000E10   -2.100433021737838E-3  -2.558543723375525E-3  
 2.010200000000000E10   -2.593536042021933E-3  -2.135530867280416E-3  
 2.010400000000000E10   -2.975246710932734E-3  -1.636508155188719E-3  
 2.010600000000000E10   -3.271083218149013E-3  -1.068134395474637E-3  
 2.010800000000000E10   -3.499964766641274E-3  -4.188517695307204E-4  
 2.011000000000000E10   -3.561062787165061E-3   3.148984321375826E-4  
 2.011200000000000E10   -3.415085579395111E-3   1.017673017261665E-3  
 2.011400000000000E10   -3.131542846353518E-3   1.672213888485675E-3  
 2.011600000000000E10   -2.715963631707394E-3   2.256287704509350E-3  
 2.011800000000000E10   -2.171108217473016E-3   2.731423940003655E-3  
 2.012000000000000E10   -1.525765230281302E-3   3.051103397421999E-3  
 2.012200000000000E10   -8.894857306631260E-4   3.164763194451362E-3  
 2.012400000000000E10   -3.321720511658100E-4   3.122549478171601E-3  
 2.012600000000000E10    1.503484162651462E-4   3.023795177010291E-3  
 2.012800000000000E10    5.791875832702643E-4   2.925492187869954E-3  
 2.013000000000000E10    9.883795864880085E-4   2.804479504257073E-3  
 2.013200000000000E10    1.405586617895299E-3   2.634229457557754E-3  
 2.013400000000000E10    1.845469831971935E-3   2.382100798350609E-3  
 2.013600000000000E10    2.230063129653350E-3   2.020837420045778E-3  
 2.013800000000000E10    2.536623327659420E-3   1.597983670639403E-3  
 2.014000000000000E10    2.742777109996957E-3   1.100055639126143E-3  
 2.014200000000000E10    2.796913114847777E-3   6.566736495041831E-4  
 2.014400000000000E10    2.803563988296154E-3   2.810219766278924E-4  
 2.014600000000000E10    2.819151281275684E-3  -5.759663084366669E-5  
 2.014800000000000E10    2.908808256809911E-3  -4.207825005761589E-4  
 2.015000000000000E10    2.978720279686430E-3  -8.777772984754894E-4  
 2.015200000000000E10    2.958276720119664E-3  -1.486246464026655E-3  
 2.015400000000000E10    2.722661697915124E-3  -2.189776587104540E-3  
 2.015600000000000E10    2.176707455267509E-3  -2.818684884128563E-3  
 2.015800000000000E10    1.408289196717059E-3  -3.193139676349583E-3  
 2.016000000000000E10    6.346639409592307E-4  -3.224182644008119E-3  
 2.016200000000000E10    7.288695660126571E-5  -2.994748611394087E-3  
 2.016400000000000E10   -2.162230215797109E-4  -2.744104247540236E-3  
 2.016600000000000E10   -4.081310694289889E-4  -2.681529362122587E-3  
 2.016800000000000E10   -6.656731046983445E-4  -2.762451287887899E-3  
 2.017000000000000E10   -1.102899247205552E-3  -2.841278338620877E-3  
 2.017200000000000E10   -1.677684097861250E-3  -2.744267818253534E-3  
 2.017400000000000E10   -2.218791287978767E-3  -2.465185030926893E-3  
 2.017600000000000E10   -2.680882739685016E-3  -2.036769224767700E-3  
 2.017800000000000E10   -3.021560666829716E-3  -1.493877279974612E-3  
 2.018000000000000E10   -3.223571975221053E-3  -9.509549306613614E-4  
 2.018200000000000E10   -3.286624689482981E-3  -3.904870306687821E-4  
 2.018400000000000E10   -3.215344323788161E-3   8.703680932852385E-5  
 2.018600000000000E10   -3.212172609903379E-3   4.498705696918209E-4  
 2.018800000000000E10   -3.301870736098033E-3   9.236606527809744E-4  
 2.019000000000000E10   -3.275306093403036E-3   1.578142770198117E-3  
 2.019200000000000E10   -3.005678676367727E-3   2.293213581045469E-3  
 2.019400000000000E10   -2.499172294420409E-3   2.899198157620835E-3  
 2.019600000000000E10   -1.835779712339978E-3   3.296726495372477E-3  
 2.019800000000000E10   -1.159856338801299E-3   3.505433478427155E-3  
 2.020000000000000E10   -5.551336906608885E-4   3.521876648229398E-3  
 2.020200000000000E10   -8.991219546720613E-5   3.452108508941753E-3  
 2.020400000000000E10    3.319143895764066E-4   3.484457098867423E-3  
 2.020600000000000E10    8.713612728177306E-4   3.546928196432598E-3  
 2.020800000000000E10    1.492364921342628E-3   3.502155139605389E-3  
 2.021000000000000E10    2.193771492413901E-3   3.312642674571203E-3  
 2.021200000000000E10    2.933923839189021E-3   2.927996005495022E-3  
 2.021400000000000E10    3.582691624300716E-3   2.259771049275627E-3  
 2.021600000000000E10    3.977281676697328E-3   1.370948418848401E-3  
 2.021800000000000E10    4.046753140879267E-3   4.311717046355760E-4  
 2.022000000000000E10    3.828560827115988E-3  -3.634516160897797E-4  
 2.022200000000000E10    3.461863721985325E-3  -1.006256252883669E-3  
 2.022400000000000E10    3.008018006329184E-3  -1.439545822421802E-3  
 2.022600000000000E10    2.596830747975612E-3  -1.650943035650769E-3  
 2.022800000000000E10    2.380025205144912E-3  -1.736046687446903E-3  
 2.023000000000000E10    2.376547735759322E-3  -2.015967215238898E-3  
 2.023200000000000E10    2.181832793594143E-3  -2.596653555232434E-3  
 2.023400000000000E10    1.623979308297513E-3  -3.073126882498648E-3  
 2.023600000000000E10    9.789554313124147E-4  -3.300095534664982E-3  
 2.023800000000000E10    3.541155098822473E-4  -3.341836380530839E-3  
 2.024000000000000E10   -1.843679709301437E-4  -3.249715769341515E-3  
 2.024200000000000E10   -6.756112080090393E-4  -3.123339032754302E-3  
 2.024400000000000E10   -1.143917202788555E-3  -2.952736736286754E-3  
 2.024600000000000E10   -1.571740295427541E-3  -2.701621080093362E-3  
 2.024800000000000E10   -1.946465141013449E-3  -2.393091042859503E-3  
 2.025000000000000E10   -2.290399285194315E-3  -2.044306559212230E-3  
 2.025200000000000E10   -2.584963772491909E-3  -1.638971684489078E-3  
 2.025400000000000E10   -2.788022623316926E-3  -1.142154395994213E-3  
 2.025600000000000E10   -2.851779960716764E-3  -6.330307547209992E-4  
 2.025800000000000E10   -2.766058725638339E-3  -2.005434532888394E-4  
 2.026000000000000E10   -2.648582650394536E-3   1.111912688766434E-4  
 2.026200000000000E10   -2.625223082478768E-3   3.565509561420546E-4  
 2.026400000000000E10   -2.711353702815595E-3   6.707434788242811E-4  
 2.026600000000000E10   -2.701064956914864E-3   1.169111887223007E-3  
 2.026800000000000E10   -2.482724387520625E-3   1.658171166688848E-3  
 2.027000000000000E10   -2.194695959419564E-3   2.093504881486297E-3  
 2.027200000000000E10   -1.800297549638300E-3   2.509908497701457E-3  
 2.027400000000000E10   -1.257404485246006E-3   2.815965922365403E-3  
 2.027600000000000E10   -6.630846082209898E-4   2.897544045369199E-3  
 2.027800000000000E10   -1.676079853406222E-4   2.802166409422586E-3  
 2.028000000000000E10    2.128359697109526E-4   2.668029864399154E-3  
 2.028200000000000E10    5.306778418153158E-4   2.541107717717504E-3  
 2.028400000000000E10    7.746128428635407E-4   2.429062974880691E-3  
 2.028600000000000E10    1.019650203589764E-3   2.423656296651857E-3  
 2.028800000000000E10    1.410236733068747E-3   2.386044912086226E-3  
 2.029000000000000E10    1.835469018529963E-3   2.218031781484132E-3  
 2.029200000000000E10    2.290797046167247E-3   1.992112425167436E-3  
 2.029400000000000E10    2.742060414159004E-3   1.599683605973828E-3  
 2.029600000000000E10    3.062066757177681E-3   1.060010197020516E-3  
 2.029800000000000E10    3.208499186223856E-3   4.604050873801757E-4  
 2.030000000000000E10    3.210021953247948E-3  -1.609716997381277E-4  
 2.030200000000000E10    3.076144290030187E-3  -6.733672178844796E-4  
 2.030400000000000E10    2.973314371810836E-3  -1.080515563062588E-3  
 2.030600000000000E10    2.927000694735735E-3  -1.588374548764141E-3  
 2.030800000000000E10    2.712771399981446E-3  -2.230925698201230E-3  
 2.031000000000000E10    2.242095133197713E-3  -2.866553752050724E-3  
 2.031200000000000E10    1.571758647368830E-3  -3.365602646092022E-3  
 2.031400000000000E10    7.378009045899006E-4  -3.647999053269074E-3  
 2.031600000000000E10   -1.544649370951020E-4  -3.575311453415104E-3  
 2.031800000000000E10   -8.447990245415750E-4  -3.123299707371144E-3  
 2.032000000000000E10   -1.149802089289383E-3  -2.660460413698061E-3  
 2.032200000000000E10   -1.266346918131558E-3  -2.421540808921427E-3  
 2.032400000000000E10   -1.477961986107223E-3  -2.363061431772364E-3  
 2.032600000000000E10   -1.854594364290896E-3  -2.246011652190376E-3  
 2.032800000000000E10   -2.242488685972345E-3  -2.004352455705773E-3  
 2.033000000000000E10   -2.623987456001802E-3  -1.717463145779883E-3  
 2.033200000000000E10   -3.076773326568030E-3  -1.343150539783600E-3  
 2.033400000000000E10   -3.462654029674553E-3  -7.421917614044140E-4  
 2.033600000000000E10   -3.578549874716520E-3  -3.575134122698212E-4  
 2.033800000000000E10   -3.576313303553580E-3   7.250724787202975E-4  
 2.034000000000000E10   -3.395702137991235E-3   1.454111504839894E-3  
 2.034200000000000E10   -3.058495893959463E-3   2.084758675967654E-3  
 2.034400000000000E10   -2.631543123703680E-3   2.630213994164894E-3  
 2.034600000000000E10   -2.128939607100171E-3   3.105530753892698E-3  
 2.034800000000000E10   -1.513042646736183E-3   3.556615178599770E-3  
 2.035000000000000E10   -7.195100389466979E-4   3.895687387773285E-3  
 2.035200000000000E10    2.105285163485894E-4   3.999092322946699E-3  
 2.035400000000000E10    1.145050906932648E-3   3.726073747707739E-3  
 2.035600000000000E10    1.842326787875299E-3   3.119246985326395E-3  
 2.035800000000000E10    2.188464169631954E-3   2.474118751347249E-3  
 2.036000000000000E10    2.287168547304140E-3   1.996411099731003E-3  
 2.036200000000000E10    2.377020129014129E-3   1.678957174141190E-3  
 2.036400000000000E10    2.492485142508407E-3   1.429289155409752E-3  
 2.036600000000000E10    2.701313559678786E-3   1.226254960200117E-3  
 2.036800000000000E10    3.067842242020516E-3   9.137441592440471E-4  
 2.037000000000000E10    3.432787641491971E-3   3.325032288737504E-4  
 2.037200000000000E10    3.570932279812334E-3  -3.950892139893071E-4  
 2.037400000000000E10    3.444512058509353E-3  -1.155599642740448E-3  
 2.037600000000000E10    3.071954462355302E-3  -1.839460879794242E-3  
 2.037800000000000E10    2.597719287200843E-3  -2.320764275888602E-3  
 2.038000000000000E10    2.117216127154268E-3  -2.630337210441078E-3  
 2.038200000000000E10    1.700161888701037E-3  -2.820671262955409E-3  
 2.038400000000000E10    1.374615129244364E-3  -3.056203992462453E-3  
 2.038600000000000E10    9.265899799051294E-4  -3.399763230441346E-3  
 2.038800000000000E10    2.569084836854198E-4  -3.668609198849695E-3  
 2.039000000000000E10   -4.630359069352257E-4  -3.729014223395491E-3  
 2.039200000000000E10   -1.169849895688211E-3  -3.600486927884229E-3  
 2.039400000000000E10   -1.814846721201859E-3  -3.261161266745609E-3  
 2.039600000000000E10   -2.320591860485298E-3  -2.869043395751053E-3  
 2.039800000000000E10   -2.781471864170867E-3  -2.434962133037640E-3  
 2.040000000000000E10   -3.116955095327195E-3  -1.890492363959367E-3  
 2.040200000000000E10   -3.267813741263968E-3  -1.405700216253783E-3  
 2.040400000000000E10   -3.455286995036367E-3  -1.013483969281991E-3  
 2.040600000000000E10   -3.715074782110292E-3  -5.290039946514838E-4  
 2.040800000000000E10   -3.962946061136915E-3   7.404790228997343E-5  
 2.041000000000000E10   -4.108696428621993E-3   8.507131851841639E-4  
 2.041200000000000E10   -3.959107186852231E-3   1.688797084361683E-3  
 2.041400000000000E10   -3.602132169575788E-3   2.469229325077232E-3  
 2.041600000000000E10   -3.087524701208797E-3   3.176811108089708E-3  
 2.041800000000000E10   -2.426059083024293E-3   3.749710691655861E-3  
 2.042000000000000E10   -1.693452579072780E-3   4.122317601915128E-3  
 2.042200000000000E10   -8.893657445528166E-4   4.340393756182842E-3  
 2.042400000000000E10   -1.012069523660754E-4   4.372187280728494E-3  
 2.042600000000000E10    6.287659131806850E-4   4.352204932796735E-3  
 2.042800000000000E10    1.422138413253390E-3   4.246983694395533E-3  
 2.043000000000000E10    2.206309215614090E-3   3.934753866130372E-3  
 2.043200000000000E10    2.883190645571845E-3   3.384075883522998E-3  
 2.043400000000000E10    3.374548723783207E-3   2.701005047578135E-3  
 2.043600000000000E10    3.648890961352506E-3   2.046138447720880E-3  
 2.043800000000000E10    3.831209129090479E-3   1.499051709636402E-3  
 2.044000000000000E10    4.003401017851301E-3   9.683613524553770E-4  
 2.044200000000000E10    4.150129446506869E-3   3.843613933300439E-4  
 2.044400000000000E10    4.264611354166711E-3  -2.261487207300731E-4  
 2.044600000000000E10    4.387680734335273E-3  -9.563606416369663E-4  
 2.044800000000000E10    4.337616644247816E-3  -1.844154969777590E-3  
 2.045000000000000E10    4.011742879901036E-3  -2.760655919296874E-3  
 2.045200000000000E10    3.377400700830751E-3  -3.650928100134120E-3  
 2.045400000000000E10    2.392467588508203E-3  -4.329389754544806E-3  
 2.045600000000000E10    1.286416990038606E-3  -4.560970477069971E-3  
 2.045800000000000E10    3.649841826610314E-4  -4.415425868635929E-3  
 2.046000000000000E10   -3.056615029812366E-4  -4.122786655056256E-3  
 2.046200000000000E10   -8.147277238341854E-4  -3.843701464687417E-3  
 2.046400000000000E10   -1.285451718744029E-3  -3.623919555756414E-3  
 2.046600000000000E10   -1.728004192427537E-3  -3.398736967578715E-3  
 2.046800000000000E10   -2.142912049973269E-3  -3.189526400586338E-3  
 2.047000000000000E10   -2.654179157459258E-3  -2.899901642475600E-3  
 2.047200000000000E10   -3.146626894580730E-3  -2.456759870121325E-3  
 2.047400000000000E10   -3.545935760125703E-3  -1.871107893501535E-3  
 2.047600000000000E10   -3.775182826858428E-3  -1.246896974834395E-3  
 2.047800000000000E10   -3.882492794712753E-3  -6.967862575015997E-4  
 2.048000000000000E10   -3.983192462014196E-3  -1.855653865704095E-4  
 2.048200000000000E10   -4.139172108728945E-3   4.519699198872220E-4  
 2.048400000000000E10   -4.159831965089213E-3   1.271938820323551E-3  
 2.048600000000000E10   -3.943916266485130E-3   2.120115549912976E-3  
 2.048800000000000E10   -3.470159644536950E-3   2.909708589913301E-3  
 2.049000000000000E10   -2.765912341275885E-3   3.533402345729647E-3  
 2.049200000000000E10   -1.944316450483454E-3   3.933554222048433E-3  
 2.049400000000000E10   -1.076086454472884E-3   4.113821272542816E-3  
 2.049600000000000E10   -2.667104532452801E-4   4.029720624977792E-3  
 2.049800000000000E10    3.448136101971254E-4   3.772898275336182E-3  
 2.050000000000000E10    8.063633145798965E-4   3.449072118526624E-3  
 2.050200000000000E10    1.052575387106634E-3   3.227247922669775E-3  
 2.050400000000000E10    1.358833425551837E-3   3.269433133005177E-3  
 2.050600000000000E10    1.945290918588455E-3   3.296259943004928E-3  
 2.050800000000000E10    2.651313196200832E-3   3.021416938461272E-3  
 2.051000000000000E10    3.229667622320079E-3   2.498270877648467E-3  
 2.051200000000000E10    3.681312292170378E-3   1.873737402306295E-3  
 2.051400000000000E10    4.041613775224966E-3   1.137334982761079E-3  
 2.051600000000000E10    4.187571103282182E-3   3.019900384206716E-4  
 2.051800000000000E10    4.058886382636833E-3  -4.932620460390298E-4  
 2.052000000000000E10    3.833959017086913E-3  -1.147960421893700E-3  
 2.052200000000000E10    3.597650938540882E-3  -1.800933887285215E-3  
 2.052400000000000E10    3.226732211417439E-3  -2.486896925364380E-3  
 2.052600000000000E10    2.595758209303942E-3  -3.075263888379675E-3  
 2.052800000000000E10    1.812442789360145E-3  -3.358277115671908E-3  
 2.053000000000000E10    1.144339938441085E-3  -3.391534524084426E-3  
 2.053200000000000E10    5.818940778147936E-4  -3.376301079068656E-3  
 2.053400000000000E10    4.817958796155399E-5  -3.298225844232941E-3  
 2.053600000000000E10   -3.972773294303750E-4  -3.135431727486445E-3  
 2.053800000000000E10   -7.823245918930131E-4  -2.937339349753327E-3  
 2.054000000000000E10   -1.078301393944356E-3  -2.735536973808467E-3  
 2.054200000000000E10   -1.297264825552702E-3  -2.639540611984737E-3  
 2.054400000000000E10   -1.616911131911624E-3  -2.666919647405545E-3  
 2.054600000000000E10   -2.156225593622636E-3  -2.696293690759275E-3  
 2.054800000000000E10   -2.963396809696232E-3  -2.451731817635857E-3  
 2.055000000000000E10   -3.704880145780834E-3  -1.681929500198659E-3  
 2.055200000000000E10   -3.988275689613305E-3  -6.616135928377418E-4  
 2.055400000000000E10   -3.900072261415147E-3   2.760326606221497E-4  
 2.055600000000000E10   -3.597796359961784E-3   1.055267678263287E-3  
