#  HZ   S   RI   R     50.00 
! Rohde & Schwarz ZVA40 4Ports - Version 3.90 - 1145.1110k42 SN: 100403
! Date: 2023-10-03 12:58:08
! Measurement: S12 
! 
 2.000000000000000E10    4.183038896708577E-3  -2.436122007633528E-5  
 2.000200000000000E10    4.151933895492996E-3  -8.823320709375873E-4  
 2.000400000000000E10    3.869648729623468E-3  -1.739867674014359E-3  
 2.000600000000000E10    3.338596179943395E-3  -2.425882180600807E-3  
 2.000800000000000E10    2.722317499488041E-3  -2.895595333366483E-3  
 2.001000000000000E10    2.120064200695466E-3  -3.220047284331587E-3  
 2.001200000000000E10    1.568328804784903E-3  -3.450577940653872E-3  
 2.001400000000000E10    1.006598523990424E-3  -3.691183368640918E-3  
 2.001600000000000E10    2.555782794607458E-4  -3.854775490860145E-3  
 2.001800000000000E10   -5.713130726858423E-4  -3.723679852016546E-3  
 2.002000000000000E10   -1.219495134945545E-3  -3.336803918635405E-3  
 2.002200000000000E10   -1.649918431347167E-3  -2.850521398984172E-3  
 2.002400000000000E10   -1.868930770325716E-3  -2.477194260184964E-3  
 2.002600000000000E10   -2.044510691323214E-3  -2.221703063696623E-3  
 2.002800000000000E10   -2.308430365735182E-3  -1.996248270626421E-3  
 2.003000000000000E10   -2.596696649022677E-3  -1.696887404519927E-3  
 2.003200000000000E10   -2.863388336091130E-3  -1.396160477910329E-3  
 2.003400000000000E10   -3.176678248025753E-3  -1.042612423016517E-3  
 2.003600000000000E10   -3.533804495991381E-3  -5.033508081127096E-4  
 2.003800000000000E10   -3.738452559681955E-3   3.087327522398146E-4  
 2.004000000000000E10   -3.568187209398107E-3   1.201588380219484E-3  
 2.004200000000000E10   -3.083893391131251E-3   1.896994779127892E-3  
 2.004400000000000E10   -2.478511822927330E-3   2.309243022291749E-3  
 2.004600000000000E10   -1.948593986324138E-3   2.435466093528602E-3  
 2.004800000000000E10   -1.645686329100971E-3   2.491489613290738E-3  
 2.005000000000000E10   -1.464767890326955E-3   2.711864283170413E-3  
 2.005200000000000E10   -1.145126582640741E-3   3.083288203924895E-3  
 2.005400000000000E10   -6.231084332318494E-4   3.419518763958305E-3  
 2.005600000000000E10    8.652448364214422E-5   3.587719984352589E-3  
 2.005800000000000E10    8.205879173517503E-4   3.539127375309667E-3  
 2.006000000000000E10    1.528665574302000E-3   3.347820947291675E-3  
 2.006200000000000E10    2.180384540999378E-3   2.953233671616073E-3  
 2.006400000000000E10    2.651741685069822E-3   2.381699021767687E-3  
 2.006600000000000E10    2.911576250981954E-3   1.796968363190967E-3  
 2.006800000000000E10    3.041964076045487E-3   1.312194034215753E-3  
 2.007000000000000E10    3.203928936272860E-3   9.407623567514950E-4  
 2.007200000000000E10    3.507640264514420E-3   4.758944075244169E-4  
 2.007400000000000E10    3.700919388965876E-3  -2.812242180678166E-4  
 2.007600000000000E10    3.566931631347096E-3  -1.109480012760118E-3  
 2.007800000000000E10    3.208403441089172E-3  -1.860741249941014E-3  
 2.008000000000000E10    2.671816731216731E-3  -2.443527725214760E-3  
 2.008200000000000E10    2.020094664422450E-3  -2.810431618450417E-3  
 2.008400000000000E10    1.350976362893427E-3  -2.963360649085155E-3  
 2.008600000000000E10    7.789061141752260E-4  -2.932005027240074E-3  
 2.008800000000000E10    3.686745228521803E-4  -2.810475657935496E-3  
 2.009000000000000E10    1.120293074766071E-4  -2.709326420531229E-3  
 2.009200000000000E10   -7.850156463165250E-5  -2.768893338118990E-3  
 2.009400000000000E10   -4.464584958946540E-4  -2.948971146165773E-3  
 2.009600000000000E10   -1.007918988492478E-3  -3.008483339928919E-3  
 2.009800000000000E10   -1.633068749301688E-3  -2.923940765429978E-3  
 2.010000000000000E10   -2.263874013873715E-3  -2.613732358440757E-3  
 2.010200000000000E10   -2.748352165023486E-3  -2.148415531135268E-3  
 2.010400000000000E10   -3.142096464418704E-3  -1.621473084755794E-3  
 2.010600000000000E10   -3.456352442433989E-3  -1.019757051296808E-3  
 2.010800000000000E10   -3.682337554723577E-3  -3.319196844973637E-4  
 2.011000000000000E10   -3.720402269175759E-3   4.479675553739071E-4  
 2.011200000000000E10   -3.547467230991633E-3   1.190094738612297E-3  
 2.011400000000000E10   -3.211780330511156E-3   1.868064135864929E-3  
 2.011600000000000E10   -2.739226600776116E-3   2.481132340445011E-3  
 2.011800000000000E10   -2.132107960750108E-3   2.963987765488802E-3  
 2.012000000000000E10   -1.435255420532216E-3   3.230708237323497E-3  
 2.012200000000000E10   -7.504256230916967E-4   3.292969100315262E-3  
 2.012400000000000E10   -1.602682508140182E-4   3.216979947562019E-3  
 2.012600000000000E10    3.223183769107521E-4   3.071603166905267E-3  
 2.012800000000000E10    7.178941676910553E-4   2.937355570288168E-3  
 2.013000000000000E10    1.138112783707954E-3   2.807759188322558E-3  
 2.013200000000000E10    1.548315635537384E-3   2.630217604477097E-3  
 2.013400000000000E10    1.988113538741514E-3   2.356464129493193E-3  
 2.013600000000000E10    2.405609668198008E-3   1.973757283175710E-3  
 2.013800000000000E10    2.716943776855866E-3   1.524494331399048E-3  
 2.014000000000000E10    2.889702682969747E-3   9.765637029583256E-4  
 2.014200000000000E10    2.907868569578838E-3   4.850146813421615E-4  
 2.014400000000000E10    2.885797681907813E-3   7.678876102511792E-5  
 2.014600000000000E10    2.847617604183378E-3  -2.778132925245532E-4  
 2.014800000000000E10    2.867388590756390E-3  -6.277564766437368E-4  
 2.015000000000000E10    2.925601072126517E-3  -1.064521989233240E-3  
 2.015200000000000E10    2.900158425931026E-3  -1.676800087335761E-3  
 2.015400000000000E10    2.596411888522131E-3  -2.399136191578927E-3  
 2.015600000000000E10    1.975209133147642E-3  -3.030399015794198E-3  
 2.015800000000000E10    1.151767175610143E-3  -3.335230242185019E-3  
 2.016000000000000E10    3.311554502471592E-4  -3.254647608156558E-3  
 2.016200000000000E10   -2.334398843096871E-4  -2.902902067742414E-3  
 2.016400000000000E10   -4.496250476222486E-4  -2.588955452665687E-3  
 2.016600000000000E10   -5.373207817750950E-4  -2.507056558021793E-3  
 2.016800000000000E10   -7.640708117159429E-4  -2.593570181892978E-3  
 2.017000000000000E10   -1.178559610033753E-3  -2.667964574087549E-3  
 2.017200000000000E10   -1.716244172442843E-3  -2.566430700459966E-3  
 2.017400000000000E10   -2.246054553392309E-3  -2.266131677768297E-3  
 2.017600000000000E10   -2.688836797864901E-3  -1.846971292117680E-3  
 2.017800000000000E10   -2.996136477493026E-3  -1.323471535687094E-3  
 2.018000000000000E10   -3.154457081109286E-3  -7.464915376018596E-4  
 2.018200000000000E10   -3.156594199093956E-3  -1.819081668078003E-4  
 2.018400000000000E10   -3.047365902198686E-3   2.386421967659973E-4  
 2.018600000000000E10   -3.024952891455205E-3   5.490299620389663E-4  
 2.018800000000000E10   -3.083786633969458E-3   9.821565364728925E-4  
 2.019000000000000E10   -3.045966762497470E-3   1.568705179832048E-3  
 2.019200000000000E10   -2.778163748896785E-3   2.226331504061818E-3  
 2.019400000000000E10   -2.294696134480614E-3   2.795143880777889E-3  
 2.019600000000000E10   -1.703550689853728E-3   3.162739608712771E-3  
 2.019800000000000E10   -1.071373513830757E-3   3.349092625150527E-3  
 2.020000000000000E10   -4.589175449736003E-4   3.352000860980264E-3  
 2.020200000000000E10   -2.515050949080401E-5   3.265524627985779E-3  
 2.020400000000000E10    3.270048937001438E-4   3.293594586904403E-3  
 2.020600000000000E10    8.192068910122747E-4   3.359544798041935E-3  
 2.020800000000000E10    1.395400229806978E-3   3.331085563533837E-3  
 2.021000000000000E10    2.040208869234280E-3   3.185399670015883E-3  
 2.021200000000000E10    2.780812533779277E-3   2.830277197062969E-3  
 2.021400000000000E10    3.458195400458795E-3   2.163828928368511E-3  
 2.021600000000000E10    3.809266327017988E-3   1.276411073006414E-3  
 2.021800000000000E10    3.795105075739600E-3   3.745002511466199E-4  
 2.022000000000000E10    3.546751889020757E-3  -3.345935601154688E-4  
 2.022200000000000E10    3.233197317631157E-3  -8.733155102365548E-4  
 2.022400000000000E10    2.852169469136883E-3  -1.253068878280896E-3  
 2.022600000000000E10    2.488787018659491E-3  -1.437624377474465E-3  
 2.022800000000000E10    2.338676627173468E-3  -1.497483717415620E-3  
 2.023000000000000E10    2.397989966320219E-3  -1.771024462801439E-3  
 2.023200000000000E10    2.248048730608490E-3  -2.381143367124929E-3  
 2.023400000000000E10    1.757948422218087E-3  -2.897211298760441E-3  
 2.023600000000000E10    1.153632394831490E-3  -3.166400655000299E-3  
 2.023800000000000E10    5.284591170493513E-4  -3.254646331899697E-3  
 2.024000000000000E10   -2.126457736637720E-5  -3.228392917662860E-3  
 2.024200000000000E10   -5.410859313862468E-4  -3.147947800311226E-3  
 2.024400000000000E10   -1.049013622967458E-3  -2.972515196435982E-3  
 2.024600000000000E10   -1.492191515690475E-3  -2.717356404496564E-3  
 2.024800000000000E10   -1.844921658091523E-3  -2.402877400594730E-3  
 2.025000000000000E10   -2.168152817628450E-3  -2.054374039828502E-3  
 2.025200000000000E10   -2.461890181250595E-3  -1.663193339481950E-3  
 2.025400000000000E10   -2.651041080416353E-3  -1.230895333854413E-3  
 2.025600000000000E10   -2.713270304310653E-3  -7.703081872831618E-4  
 2.025800000000000E10   -2.683102248098564E-3  -3.621135320928362E-4  
 2.026000000000000E10   -2.643882598796929E-3  -4.972631258068659E-5  
 2.026200000000000E10   -2.663522794911707E-3   2.049116209727126E-4  
 2.026400000000000E10   -2.773598276285662E-3   5.397343344089611E-4  
 2.026600000000000E10   -2.806241555070436E-3   1.067098626797950E-3  
 2.026800000000000E10   -2.598367622812038E-3   1.600941988053145E-3  
 2.027000000000000E10   -2.272481305731668E-3   2.069209305638517E-3  
 2.027200000000000E10   -1.864570568108724E-3   2.494287470148670E-3  
 2.027400000000000E10   -1.336822678610959E-3   2.788915893890792E-3  
 2.027600000000000E10   -7.449558513514975E-4   2.854551335244819E-3  
 2.027800000000000E10   -2.544423940115074E-4   2.773270312765683E-3  
 2.028000000000000E10    9.814860876994554E-5   2.682697614309965E-3  
 2.028200000000000E10    4.014067289298746E-4   2.615517134674721E-3  
 2.028400000000000E10    6.910989048062928E-4   2.568895290433257E-3  
 2.028600000000000E10    1.011890139327281E-3   2.561639468358071E-3  
 2.028800000000000E10    1.441547112470424E-3   2.471877089529126E-3  
 2.029000000000000E10    1.887216047314858E-3   2.268265277423241E-3  
 2.029200000000000E10    2.334202467291444E-3   2.020714709673215E-3  
 2.029400000000000E10    2.758581053327631E-3   1.621746501229980E-3  
 2.029600000000000E10    3.057484765088669E-3   1.069855496839241E-3  
 2.029800000000000E10    3.218878310656659E-3   4.692046183023464E-4  
 2.030000000000000E10    3.227499339522588E-3  -1.497021822379557E-4  
 2.030200000000000E10    3.094049636274576E-3  -6.698408375356209E-4  
 2.030400000000000E10    3.001159315721856E-3  -1.083374407176894E-3  
 2.030600000000000E10    2.950292813626153E-3  -1.570060349035043E-3  
 2.030800000000000E10    2.742255744696768E-3  -2.218105968225886E-3  
 2.031000000000000E10    2.269365359097719E-3  -2.883259163893484E-3  
 2.031200000000000E10    1.611470990745282E-3  -3.379126588158586E-3  
 2.031400000000000E10    7.862304207972357E-4  -3.669970573995401E-3  
 2.031600000000000E10   -1.453517389664840E-4  -3.634419300834891E-3  
 2.031800000000000E10   -8.938194174940389E-4  -3.197238487363966E-3  
 2.032000000000000E10   -1.234409386395580E-3  -2.685764494041602E-3  
 2.032200000000000E10   -1.357668217409540E-3  -2.390538859698508E-3  
 2.032400000000000E10   -1.537851088128432E-3  -2.300255216175208E-3  
 2.032600000000000E10   -1.857634586351061E-3  -2.171155315375439E-3  
 2.032800000000000E10   -2.224577978874247E-3  -1.947344724882256E-3  
 2.033000000000000E10   -2.618145602927716E-3  -1.670506998413691E-3  
 2.033200000000000E10   -3.046241450916839E-3  -1.312647683166520E-3  
 2.033400000000000E10   -3.394448250118230E-3  -7.031247584597657E-4  
 2.033600000000000E10   -3.496233494607387E-3  -3.163708714526837E-4  
 2.033800000000000E10   -3.472631210806194E-3   7.124007075887036E-4  
 2.034000000000000E10   -3.304394419063573E-3   1.403259850728015E-3  
 2.034200000000000E10   -2.991592399431048E-3   2.030040064171233E-3  
 2.034400000000000E10   -2.564656211891108E-3   2.550160503704791E-3  
 2.034600000000000E10   -2.061307870058550E-3   3.004001660479440E-3  
 2.034800000000000E10   -1.458827820089128E-3   3.433003504243162E-3  
 2.035000000000000E10   -7.187659546077528E-4   3.733514420067271E-3  
 2.035200000000000E10    1.343646128791281E-4   3.799734085246369E-3  
 2.035400000000000E10    1.014938800061053E-3   3.552157267997111E-3  
 2.035600000000000E10    1.651328458036814E-3   3.015149884891732E-3  
 2.035800000000000E10    1.950402899334828E-3   2.435055802817698E-3  
 2.036000000000000E10    2.051474819718688E-3   2.038314291793440E-3  
 2.036200000000000E10    2.182391748108246E-3   1.793542178347707E-3  
 2.036400000000000E10    2.328595310380614E-3   1.580481896073454E-3  
 2.036600000000000E10    2.585978747380001E-3   1.399324629110871E-3  
 2.036800000000000E10    3.013726004778788E-3   1.124999343624546E-3  
 2.037000000000000E10    3.446495307057545E-3   5.740135006986008E-4  
 2.037200000000000E10    3.643852486102670E-3  -1.930695337553819E-4  
 2.037400000000000E10    3.565948447902446E-3  -1.028397625001768E-3  
 2.037600000000000E10    3.205423924589048E-3  -1.744552912121570E-3  
 2.037800000000000E10    2.715038515075490E-3  -2.248671380113121E-3  
 2.038000000000000E10    2.216466167872703E-3  -2.587813901266566E-3  
 2.038200000000000E10    1.799939928955778E-3  -2.769064813576363E-3  
 2.038400000000000E10    1.486167428083718E-3  -2.991298705132472E-3  
 2.038600000000000E10    1.081572405786978E-3  -3.360741711394103E-3  
 2.038800000000000E10    4.642375106750815E-4  -3.699698450940627E-3  
 2.039000000000000E10   -2.729405985317297E-4  -3.814789000898601E-3  
 2.039200000000000E10   -1.047003738306187E-3  -3.708706841010739E-3  
 2.039400000000000E10   -1.722902533839699E-3  -3.380431250358622E-3  
 2.039600000000000E10   -2.215657995461866E-3  -3.001030206818273E-3  
 2.039800000000000E10   -2.669984923192749E-3  -2.606268118446072E-3  
 2.040000000000000E10   -3.052840457746277E-3  -2.124817938440376E-3  
 2.040200000000000E10   -3.280505520740041E-3  -1.662128945571129E-3  
 2.040400000000000E10   -3.574863127950165E-3  -1.246764182320072E-3  
 2.040600000000000E10   -3.917002800369153E-3  -6.927385822766358E-4  
 2.040800000000000E10   -4.168274674426627E-3  -2.084276423341146E-5  
 2.041000000000000E10   -4.263088072615642E-3   8.230107077569875E-4  
 2.041200000000000E10   -4.090136141274815E-3   1.697827359075072E-3  
 2.041400000000000E10   -3.733636751012119E-3   2.448998348511480E-3  
 2.041600000000000E10   -3.260320630269470E-3   3.152510435837839E-3  
 2.041800000000000E10   -2.626740149463768E-3   3.761901356348837E-3  
 2.042000000000000E10   -1.908547081122244E-3   4.195041402622507E-3  
 2.042200000000000E10   -1.075084165980419E-3   4.467101026050471E-3  
 2.042400000000000E10   -2.396771117303245E-4   4.551296501799867E-3  
 2.042600000000000E10    5.213514410166277E-4   4.552120273863829E-3  
 2.042800000000000E10    1.344340262693112E-3   4.455671731934504E-3  
 2.043000000000000E10    2.200177956924395E-3   4.153057432698983E-3  
 2.043200000000000E10    2.953635106139162E-3   3.628192348750654E-3  
 2.043400000000000E10    3.505756509386831E-3   2.934185512087964E-3  
 2.043600000000000E10    3.831531714510035E-3   2.234439572526349E-3  
 2.043800000000000E10    4.051477958758673E-3   1.627750341194096E-3  
 2.044000000000000E10    4.235942278885180E-3   1.027174324176654E-3  
 2.044200000000000E10    4.355324156306409E-3   3.844197921420414E-4  
 2.044400000000000E10    4.457228851539118E-3  -2.555188532116720E-4  
 2.044600000000000E10    4.575113903869083E-3  -9.834376116352227E-4  
 2.044800000000000E10    4.496796022134799E-3  -1.904096855368051E-3  
 2.045000000000000E10    4.144729391016342E-3  -2.867069423060727E-3  
 2.045200000000000E10    3.516583065329879E-3  -3.767737998040739E-3  
 2.045400000000000E10    2.555639060490110E-3  -4.464359419351376E-3  
 2.045600000000000E10    1.417199244584751E-3  -4.756532540475882E-3  
 2.045800000000000E10    4.414481399753304E-4  -4.639692759762208E-3  
 2.046000000000000E10   -2.929942156360657E-4  -4.337801218584732E-3  
 2.046200000000000E10   -8.510703251145230E-4  -4.048631940450934E-3  
 2.046400000000000E10   -1.334135869035015E-3  -3.834001901042131E-3  
 2.046600000000000E10   -1.796418977728873E-3  -3.586412812755616E-3  
 2.046800000000000E10   -2.269752651315045E-3  -3.342494885954593E-3  
 2.047000000000000E10   -2.815976074931247E-3  -3.036006207198457E-3  
 2.047200000000000E10   -3.336192307027954E-3  -2.584993649550059E-3  
 2.047400000000000E10   -3.761234727722628E-3  -1.984735088491882E-3  
 2.047600000000000E10   -4.039451031497231E-3  -1.309340172964666E-3  
 2.047800000000000E10   -4.144480210487490E-3  -6.683027518361257E-4  
 2.048000000000000E10   -4.201688786485682E-3  -8.434383036930943E-5  
 2.048200000000000E10   -4.314267473226345E-3   5.765759765549944E-4  
 2.048400000000000E10   -4.318253102677840E-3   1.389650718515946E-3  
 2.048600000000000E10   -4.049520611900975E-3   2.251990656885836E-3  
 2.048800000000000E10   -3.522379030645998E-3   3.068540029710642E-3  
 2.049000000000000E10   -2.795844088756928E-3   3.685739124193788E-3  
 2.049200000000000E10   -2.003110565797047E-3   4.060239910527513E-3  
 2.049400000000000E10   -1.160780623279236E-3   4.285489709151012E-3  
 2.049600000000000E10   -3.174073979068824E-4   4.273369718618967E-3  
 2.049800000000000E10    3.845082828775049E-4   4.032226331118081E-3  
 2.050000000000000E10    9.133014935758657E-4   3.695681070288023E-3  
 2.050200000000000E10    1.221375246704729E-3   3.459281650268369E-3  
 2.050400000000000E10    1.557192717747832E-3   3.456059101693057E-3  
 2.050600000000000E10    2.172373019641748E-3   3.396308377247167E-3  
 2.050800000000000E10    2.910020390387487E-3   3.055708896782664E-3  
 2.051000000000000E10    3.519399660742946E-3   2.475961792731175E-3  
 2.051200000000000E10    3.970150387397519E-3   1.796740089991579E-3  
 2.051400000000000E10    4.305986325360008E-3   9.958947646535106E-4  
 2.051600000000000E10    4.408584821417377E-3   9.936664880822517E-5  
 2.051800000000000E10    4.212382318520988E-3  -7.358822687011627E-4  
 2.052000000000000E10    3.935034093619497E-3  -1.415987037708638E-3  
 2.052200000000000E10    3.650024171090789E-3  -2.060486874715598E-3  
 2.052400000000000E10    3.234307971541529E-3  -2.718459538839482E-3  
 2.052600000000000E10    2.564847684913764E-3  -3.315484021893806E-3  
 2.052800000000000E10    1.733618594395618E-3  -3.658338561999026E-3  
 2.053000000000000E10    9.569666494994805E-4  -3.712003533211020E-3  
 2.053200000000000E10    2.869597271826395E-4  -3.635097441642925E-3  
 2.053400000000000E10   -3.065774766986982E-4  -3.449626180722758E-3  
 2.053600000000000E10   -7.641170372220654E-4  -3.186896383003505E-3  
 2.053800000000000E10   -1.136923601195492E-3  -2.902453273741736E-3  
 2.054000000000000E10   -1.398002741754883E-3  -2.633692084432200E-3  
 2.054200000000000E10   -1.571213826537133E-3  -2.505021333625472E-3  
 2.054400000000000E10   -1.848154330488157E-3  -2.471606980112416E-3  
 2.054600000000000E10   -2.350084380143219E-3  -2.432711215482818E-3  
 2.054800000000000E10   -3.090773338314009E-3  -2.128568745252711E-3  
 2.055000000000000E10   -3.751777440171551E-3  -1.372940230390264E-3  
 2.055200000000000E10   -3.991899287535085E-3  -3.907279083419040E-4  
 2.055400000000000E10   -3.870808640150009E-3   5.289753898978233E-4  
 2.055600000000000E10   -3.536025984902626E-3   1.302980882529583E-3  
