#  HZ   S   RI   R     50.00 
! Rohde & Schwarz ZVA40 4Ports - Version 3.90 - 1145.1110k42 SN: 100403
! Date: 2023-10-03 12:59:54
! Measurement: S12 
! 
 2.000000000000000E10    3.732783665282675E-3  -9.722935228413088E-4  
 2.000200000000000E10    3.610933751419739E-3  -1.757509989181051E-3  
 2.000400000000000E10    3.204023540249946E-3  -2.525899496021463E-3  
 2.000600000000000E10    2.599071191025921E-3  -3.209578428118501E-3  
 2.000800000000000E10    1.774683351812447E-3  -3.628473266108353E-3  
 2.001000000000000E10    9.393335383293439E-4  -3.655459996266866E-3  
 2.001200000000000E10    3.743692352235271E-4  -3.499794282869977E-3  
 2.001400000000000E10   -3.965714258642782E-5  -3.476743606482576E-3  
 2.001600000000000E10   -5.853800419258116E-4  -3.506238718896553E-3  
 2.001800000000000E10   -1.166694087585734E-3  -3.372775384995305E-3  
 2.002000000000000E10   -1.661644716758603E-3  -3.130124263856331E-3  
 2.002200000000000E10   -2.168718861979375E-3  -2.838478872069606E-3  
 2.002400000000000E10   -2.692861936664508E-3  -2.414656291359369E-3  
 2.002600000000000E10   -3.047364585699491E-3  -1.887769274482573E-3  
 2.002800000000000E10   -3.274185674977892E-3  -1.371942358493897E-3  
 2.003000000000000E10   -3.425002618359379E-3  -7.790795076109561E-4  
 2.003200000000000E10   -3.418855831877870E-3  -1.981236230306051E-4  
 2.003400000000000E10   -3.395900486704009E-3   2.817413046557951E-4  
 2.003600000000000E10   -3.408918844214009E-3   7.778710044667493E-4  
 2.003800000000000E10   -3.332679987781579E-3   1.374481937181159E-3  
 2.004000000000000E10   -3.044799950410739E-3   2.012587827917787E-3  
 2.004200000000000E10   -2.543866591252111E-3   2.535691990712543E-3  
 2.004400000000000E10   -1.965335360440759E-3   2.872019822214857E-3  
 2.004600000000000E10   -1.426743109204611E-3   2.973850865353957E-3  
 2.004800000000000E10   -1.035366453126901E-3   2.971368873445892E-3  
 2.005000000000000E10   -7.302761933030447E-4   3.034870827248619E-3  
 2.005200000000000E10   -3.731121464681318E-4   3.170612590088521E-3  
 2.005400000000000E10    2.447846755212926E-5   3.303255451797152E-3  
 2.005600000000000E10    4.751512394171715E-4   3.434787099077195E-3  
 2.005800000000000E10    1.013553367904675E-3   3.529157012379097E-3  
 2.006000000000000E10    1.727354718533195E-3   3.536057100849756E-3  
 2.006200000000000E10    2.573770180597534E-3   3.260243474218398E-3  
 2.006400000000000E10    3.284449125697584E-3   2.644622362115317E-3  
 2.006600000000000E10    3.679887414622455E-3   1.911835290813520E-3  
 2.006800000000000E10    3.843793326436922E-3   1.175852120928697E-3  
 2.007000000000000E10    3.847649329583403E-3   5.458409331715955E-4  
 2.007200000000000E10    3.898324338535284E-3   4.476702514817419E-6  
 2.007400000000000E10    3.972230022083279E-3  -6.455997613051700E-4  
 2.007600000000000E10    3.895558520323701E-3  -1.338867463435932E-3  
 2.007800000000000E10    3.671176225682836E-3  -2.083715422216941E-3  
 2.008000000000000E10    3.223016593651272E-3  -2.878964858497551E-3  
 2.008200000000000E10    2.518025560327518E-3  -3.561688086914796E-3  
 2.008400000000000E10    1.603428717058750E-3  -3.924282353923277E-3  
 2.008600000000000E10    7.472551006674308E-4  -3.857119115253474E-3  
 2.008800000000000E10    1.627057110768582E-4  -3.644805289460002E-3  
 2.009000000000000E10   -2.998585079672293E-4  -3.502710679270052E-3  
 2.009200000000000E10   -7.092741642860168E-4  -3.394130145969951E-3  
 2.009400000000000E10   -1.113788459743201E-3  -3.370185023357655E-3  
 2.009600000000000E10   -1.650977250257576E-3  -3.309113706496579E-3  
 2.009800000000000E10   -2.289280542574915E-3  -3.032497823077404E-3  
 2.010000000000000E10   -2.886038868584567E-3  -2.556610335078505E-3  
 2.010200000000000E10   -3.315427165225517E-3  -2.009340587796437E-3  
 2.010400000000000E10   -3.639723131157182E-3  -1.390965784796410E-3  
 2.010600000000000E10   -3.785996260926312E-3  -6.573009358598265E-4  
 2.010800000000000E10   -3.728673730137540E-3   6.443236303132356E-5  
 2.011000000000000E10   -3.568340851752847E-3   6.681313913568488E-4  
 2.011200000000000E10   -3.367470031213246E-3   1.191030473471332E-3  
 2.011400000000000E10   -3.114827184213533E-3   1.636781460996487E-3  
 2.011600000000000E10   -2.855389841751736E-3   2.010598899451671E-3  
 2.011800000000000E10   -2.602859742272600E-3   2.464014142866672E-3  
 2.012000000000000E10   -2.199635720225396E-3   2.997598866644649E-3  
 2.012200000000000E10   -1.652136222275411E-3   3.373513828940046E-3  
 2.012400000000000E10   -1.086075875022805E-3   3.602453280401268E-3  
 2.012600000000000E10   -4.496501888404314E-4   3.772371230118069E-3  
 2.012800000000000E10    2.661987921412758E-4   3.852274337852443E-3  
 2.013000000000000E10    1.016751864499608E-3   3.732170101922052E-3  
 2.013200000000000E10    1.618208695651481E-3   3.468502746940948E-3  
 2.013400000000000E10    2.131057512245061E-3   3.180219593492372E-3  
 2.013600000000000E10    2.705187821346853E-3   2.826937980214019E-3  
 2.013800000000000E10    3.300314179886087E-3   2.307549429436525E-3  
 2.014000000000000E10    3.787237794402941E-3   1.535746902744803E-3  
 2.014200000000000E10    3.936291088775537E-3   7.016780415411902E-4  
 2.014400000000000E10    3.873688818449960E-3  -6.596423846520022E-5  
 2.014600000000000E10    3.653951544015680E-3  -7.973454546263833E-4  
 2.014800000000000E10    3.298431821742360E-3  -1.372790921272503E-3  
 2.015000000000000E10    2.934185152781415E-3  -1.773875686742458E-3  
 2.015200000000000E10    2.634134482776310E-3  -2.113290997739468E-3  
 2.015400000000000E10    2.360260387146731E-3  -2.456801032279561E-3  
 2.015600000000000E10    1.982239362450294E-3  -2.894142041856677E-3  
 2.015800000000000E10    1.464217727325489E-3  -3.301630992396379E-3  
 2.016000000000000E10    8.196861118101228E-4  -3.604814163006751E-3  
 2.016200000000000E10    7.351050670776099E-5  -3.676384681674802E-3  
 2.016400000000000E10   -6.108659328202960E-4  -3.545906469455840E-3  
 2.016600000000000E10   -1.266966383461553E-3  -3.307019006805840E-3  
 2.016800000000000E10   -1.786202771508676E-3  -2.931797385422720E-3  
 2.017000000000000E10   -2.150952689533617E-3  -2.557956512994421E-3  
 2.017200000000000E10   -2.456907410013639E-3  -2.197844531088148E-3  
 2.017400000000000E10   -2.770576281128107E-3  -1.822872857712670E-3  
 2.017600000000000E10   -3.069656921182702E-3  -1.328439027772365E-3  
 2.017800000000000E10   -3.241535675723428E-3  -8.016378420439584E-4  
 2.018000000000000E10   -3.333399509206231E-3  -3.142230263709977E-4  
 2.018200000000000E10   -3.338728738189848E-3   2.232445871930305E-4  
 2.018400000000000E10   -3.252118601705190E-3   7.242453126466754E-4  
 2.018600000000000E10   -3.184192819681801E-3   1.173114234489608E-3  
 2.018800000000000E10   -3.124042764811973E-3   1.703353101433611E-3  
 2.019000000000000E10   -2.888561079830483E-3   2.313222851098320E-3  
 2.019200000000000E10   -2.492619905459844E-3   2.800121521117327E-3  
 2.019400000000000E10   -2.079143502209106E-3   3.240388990552338E-3  
 2.019600000000000E10   -1.622022215828852E-3   3.742258300153930E-3  
 2.019800000000000E10   -9.409996097401521E-4   4.259025953986027E-3  
 2.020000000000000E10    2.513583253689658E-5   4.556192763517669E-3  
 2.020200000000000E10    1.071721367124054E-3   4.453974402291172E-3  
 2.020400000000000E10    1.987323929544217E-3   4.078801203933028E-3  
 2.020600000000000E10    2.759184834926769E-3   3.556524389021007E-3  
 2.020800000000000E10    3.346109001057936E-3   2.888396209864706E-3  
 2.021000000000000E10    3.707825597145676E-3   2.163834384079149E-3  
 2.021200000000000E10    3.933473593658872E-3   1.451207041728920E-3  
 2.021400000000000E10    4.061916814312156E-3   7.744781970460383E-4  
 2.021600000000000E10    4.140604149412227E-3   1.190887686126739E-4  
 2.021800000000000E10    4.113087298371542E-3  -5.674851996490709E-4  
 2.022000000000000E10    3.983823605525641E-3  -1.250625825142143E-3  
 2.022200000000000E10    3.779408895629056E-3  -2.008451309836941E-3  
 2.022400000000000E10    3.309262551390279E-3  -2.819952336542400E-3  
 2.022600000000000E10    2.542091628398609E-3  -3.424921463945030E-3  
 2.022800000000000E10    1.695192963701248E-3  -3.645105307553838E-3  
 2.023000000000000E10    1.039514826168019E-3  -3.617189907940266E-3  
 2.023200000000000E10    5.164736165754199E-4  -3.623376169276459E-3  
 2.023400000000000E10    8.144042954814654E-6  -3.652335526881579E-3  
 2.023600000000000E10   -5.122392828559022E-4  -3.639745227072711E-3  
 2.023800000000000E10   -1.122373949598383E-3  -3.564275042326363E-3  
 2.024000000000000E10   -1.779903307051203E-3  -3.306260458941078E-3  
 2.024200000000000E10   -2.363083749020725E-3  -2.871052974283144E-3  
 2.024400000000000E10   -2.816593366456621E-3  -2.309514600553631E-3  
 2.024600000000000E10   -3.056252326379405E-3  -1.692226275882144E-3  
 2.024800000000000E10   -3.086158830419551E-3  -1.097238323662752E-3  
 2.025000000000000E10   -2.999547843096985E-3  -6.342054801751619E-4  
 2.025200000000000E10   -2.927102510713869E-3  -3.519653925459465E-4  
 2.025400000000000E10   -3.011410343058316E-3  -1.572864701436764E-4  
 2.025600000000000E10   -3.220005478296015E-3   1.885971964109132E-4  
 2.025800000000000E10   -3.336291869435414E-3   7.667987353030455E-4  
 2.026000000000000E10   -3.231603603373156E-3   1.433353912786661E-3  
 2.026200000000000E10   -2.937604288030186E-3   2.046899555285496E-3  
 2.026400000000000E10   -2.566338740979080E-3   2.528496974803232E-3  
 2.026600000000000E10   -2.129859891777605E-3   2.995636638966792E-3  
 2.026800000000000E10   -1.480599628175023E-3   3.362127119836249E-3  
 2.027000000000000E10   -7.648202439735610E-4   3.463899811591816E-3  
 2.027200000000000E10   -2.116598311041332E-4   3.415510731024875E-3  
 2.027400000000000E10    2.297014634004208E-4   3.340725352941656E-3  
 2.027600000000000E10    6.537854960360738E-4   3.253035362303993E-3  
 2.027800000000000E10    1.114309459269323E-3   3.151657789899611E-3  
 2.028000000000000E10    1.607087368927436E-3   2.962053917279398E-3  
 2.028200000000000E10    2.074326480520361E-3   2.658677163798316E-3  
 2.028400000000000E10    2.401099767374956E-3   2.274196224149179E-3  
 2.028600000000000E10    2.575587188066156E-3   1.935857793684175E-3  
 2.028800000000000E10    2.791404019880258E-3   1.676666546026590E-3  
 2.029000000000000E10    3.091708831719043E-3   1.408019899333149E-3  
 2.029200000000000E10    3.473276401766473E-3   1.087232455496251E-3  
 2.029400000000000E10    3.904205574481576E-3   5.987444418241029E-4  
 2.029600000000000E10    4.223530606171232E-3  -1.563900962391478E-4  
 2.029800000000000E10    4.314669011229719E-3  -1.097351245087698E-3  
 2.030000000000000E10    4.074248186324114E-3  -2.148671892046193E-3  
 2.030200000000000E10    3.420183078650340E-3  -3.066226397353559E-3  
 2.030400000000000E10    2.538103156113698E-3  -3.555471741559881E-3  
 2.030600000000000E10    1.784712832168113E-3  -3.686781009705163E-3  
 2.030800000000000E10    1.206431657156367E-3  -3.803260900356152E-3  
 2.031000000000000E10    5.874589335656277E-4  -3.955941178755445E-3  
 2.031200000000000E10   -9.181972995133111E-5  -3.967393155175227E-3  
 2.031400000000000E10   -7.026032990212611E-4  -3.827519999403093E-3  
 2.031600000000000E10   -1.271122756822288E-3  -3.635266088639145E-3  
 2.031800000000000E10   -1.830155721198722E-3  -3.343604295227079E-3  
 2.032000000000000E10   -2.312258823004402E-3  -2.978633479847585E-3  
 2.032200000000000E10   -2.738367863873273E-3  -2.572756412979446E-3  
 2.032400000000000E10   -3.073431660685643E-3  -2.079845133042078E-3  
 2.032600000000000E10   -3.301272723524843E-3  -1.546554735942203E-3  
 2.032800000000000E10   -3.471645282259511E-3  -1.037839207982208E-3  
 2.033000000000000E10   -3.614302701604220E-3  -5.536254065651677E-4  
 2.033200000000000E10   -3.728171316101964E-3  -7.166842485197395E-5  
 2.033400000000000E10   -3.824817925047728E-3   5.286120217477466E-4  
 2.033600000000000E10   -3.868461362327691E-3   8.622487837356735E-4  
 2.033800000000000E10   -3.535548748195541E-3   1.995877193195033E-3  
 2.034000000000000E10   -3.079219111873780E-3   2.726204609958294E-3  
 2.034200000000000E10   -2.402191378038239E-3   3.251329995691776E-3  
 2.034400000000000E10   -1.646857707255325E-3   3.502023647780772E-3  
 2.034600000000000E10   -9.528492292803195E-4   3.552906404904746E-3  
 2.034800000000000E10   -4.287901067555927E-4   3.505103795984646E-3  
 2.035000000000000E10   -1.464128518695546E-5   3.488602536374037E-3  
 2.035200000000000E10    4.428673620381749E-4   3.522577031550033E-3  
 2.035400000000000E10    1.033914606029421E-3   3.502009493977200E-3  
 2.035600000000000E10    1.680822758417991E-3   3.290435123935710E-3  
 2.035800000000000E10    2.240245796763051E-3   2.932236239567032E-3  
 2.036000000000000E10    2.714062675856698E-3   2.508947775227788E-3  
 2.036200000000000E10    3.132295553331022E-3   1.960413750364549E-3  
 2.036400000000000E10    3.388660890912569E-3   1.313754286973473E-3  
 2.036600000000000E10    3.528432983813095E-3   7.000486700605878E-4  
 2.036800000000000E10    3.591174354638767E-3   6.348615437516098E-5  
 2.037000000000000E10    3.464213457464437E-3  -5.665056157374272E-4  
 2.037200000000000E10    3.231340300659707E-3  -1.042483786960351E-3  
 2.037400000000000E10    3.043688391047864E-3  -1.484354443411217E-3  
 2.037600000000000E10    2.800483831468924E-3  -2.009045424652689E-3  
 2.037800000000000E10    2.403034975200340E-3  -2.503666578343621E-3  
 2.038000000000000E10    1.846395908670937E-3  -2.883250437056025E-3  
 2.038200000000000E10    1.199520362633062E-3  -3.044752585184244E-3  
 2.038400000000000E10    6.664847260927438E-4  -3.018757463490339E-3  
 2.038600000000000E10    2.722950893156748E-4  -2.993355160234152E-3  
 2.038800000000000E10   -8.732598435915552E-5  -2.971009463416758E-3  
 2.039000000000000E10   -4.022542994834461E-4  -2.921319333836437E-3  
 2.039200000000000E10   -7.376772082801679E-4  -2.963268198072910E-3  
 2.039400000000000E10   -1.240334308269307E-3  -2.976710761517838E-3  
 2.039600000000000E10   -1.812022781562934E-3  -2.856098190179946E-3  
 2.039800000000000E10   -2.384787396654303E-3  -2.583884746181193E-3  
 2.040000000000000E10   -2.918331271589354E-3  -2.110220813824807E-3  
 2.040200000000000E10   -3.279180467174746E-3  -1.471072771689958E-3  
 2.040400000000000E10   -3.456287744259577E-3  -8.528823159451103E-4  
 2.040600000000000E10   -3.551149979394712E-3  -2.841613098064921E-4  
 2.040800000000000E10   -3.557744389974777E-3   2.568593671988052E-4  
 2.041000000000000E10   -3.595419518396627E-3   8.061045879946540E-4  
 2.041200000000000E10   -3.562439391159534E-3   1.509036393088783E-3  
 2.041400000000000E10   -3.251992884655426E-3   2.304835710674524E-3  
 2.041600000000000E10   -2.686630796503138E-3   2.958071481344509E-3  
 2.041800000000000E10   -1.998041354027796E-3   3.368266510351757E-3  
 2.042000000000000E10   -1.262913484637982E-3   3.592242754098995E-3  
 2.042200000000000E10   -5.366690720957532E-4   3.636210084674352E-3  
 2.042400000000000E10    5.947832039229394E-5   3.524635421158172E-3  
 2.042600000000000E10    5.084175722857501E-4   3.387979979132429E-3  
 2.042800000000000E10    9.131196499687196E-4   3.280101530828778E-3  
 2.043000000000000E10    1.331005297187302E-3   3.210870080547017E-3  
 2.043200000000000E10    1.826478629717948E-3   3.136471034614025E-3  
 2.043400000000000E10    2.455233984316389E-3   2.998286076349977E-3  
 2.043600000000000E10    3.168768947944046E-3   2.658428224723465E-3  
 2.043800000000000E10    3.814718033543524E-3   2.000017419319462E-3  
 2.044000000000000E10    4.230383453016849E-3   1.102906443397112E-3  
 2.044200000000000E10    4.358793649086614E-3   1.767469474105855E-4  
 2.044400000000000E10    4.281770713903286E-3  -6.871049164472447E-4  
 2.044600000000000E10    4.009530735834514E-3  -1.497495200852921E-3  
 2.044800000000000E10    3.577390553452719E-3  -2.170861980383411E-3  
 2.045000000000000E10    3.111625150604933E-3  -2.694387388427133E-3  
 2.045200000000000E10    2.654000294659241E-3  -3.186112657810252E-3  
 2.045400000000000E10    2.080371787334666E-3  -3.678676827500265E-3  
 2.045600000000000E10    1.297091792142134E-3  -4.044677855239974E-3  
 2.045800000000000E10    4.137252841179294E-4  -4.137133641950327E-3  
 2.046000000000000E10   -3.991085386699940E-4  -3.952332657336454E-3  
 2.046200000000000E10   -9.432992672283251E-4  -3.613654535585716E-3  
 2.046400000000000E10   -1.295530202764052E-3  -3.401832560215284E-3  
 2.046600000000000E10   -1.719846499416931E-3  -3.258314495331344E-3  
 2.046800000000000E10   -2.220861018738813E-3  -3.076051364733298E-3  
 2.047000000000000E10   -2.775378568373897E-3  -2.800129034935876E-3  
 2.047200000000000E10   -3.343443331642100E-3  -2.401394335507059E-3  
 2.047400000000000E10   -3.866328170844987E-3  -1.807142603843485E-3  
 2.047600000000000E10   -4.221051046049890E-3  -1.013283587612764E-3  
 2.047800000000000E10   -4.334548913678270E-3  -1.545502004044038E-4  
 2.048000000000000E10   -4.277665110557905E-3   6.835576690112551E-4  
 2.048200000000000E10   -4.063562058878166E-3   1.458513081924599E-3  
 2.048400000000000E10   -3.653234353771917E-3   2.164088790362448E-3  
 2.048600000000000E10   -3.081797236967603E-3   2.655478010391012E-3  
 2.048800000000000E10   -2.595672668475244E-3   2.935956111522737E-3  
 2.049000000000000E10   -2.265137048254227E-3   3.202155399147743E-3  
 2.049200000000000E10   -1.913915097966423E-3   3.596064286812405E-3  
 2.049400000000000E10   -1.410930589945228E-3   4.035462619575822E-3  
 2.049600000000000E10   -7.156938548705737E-4   4.400383635067647E-3  
 2.049800000000000E10    1.611173913575548E-4   4.613903063682863E-3  
 2.050000000000000E10    1.126277164188156E-3   4.539421782541422E-3  
 2.050200000000000E10    1.910957445988409E-3   4.185351658106587E-3  
 2.050400000000000E10    2.500603467019068E-3   3.785752751692027E-3  
 2.050600000000000E10    3.103966057231581E-3   3.410478010428725E-3  
 2.050800000000000E10    3.713092341283222E-3   2.924570776407182E-3  
 2.051000000000000E10    4.251608113401835E-3   2.324971422139142E-3  
 2.051200000000000E10    4.742869302446461E-3   1.611787141703162E-3  
 2.051400000000000E10    5.126006171153284E-3   7.113124018270570E-4  
 2.051600000000000E10    5.282878421568944E-3  -3.537596370464330E-4  
 2.051800000000000E10    5.122249934500383E-3  -1.490096805939152E-3  
 2.052000000000000E10    4.648257639075136E-3  -2.492880379712141E-3  
 2.052200000000000E10    3.954046365609508E-3  -3.246824762979408E-3  
 2.052400000000000E10    3.234433047588409E-3  -3.762554567031287E-3  
 2.052600000000000E10    2.546553603476949E-3  -4.157407381744297E-3  
 2.052800000000000E10    1.836615482368219E-3  -4.468522247294954E-3  
 2.053000000000000E10    1.103074693718902E-3  -4.696270318724860E-3  
 2.053200000000000E10    3.409889421747699E-4  -4.825323791369613E-3  
 2.053400000000000E10   -4.785794633250960E-4  -4.856857344692137E-3  
 2.053600000000000E10   -1.363599450143492E-3  -4.740323325228177E-3  
 2.053800000000000E10   -2.217711981408942E-3  -4.390134562358813E-3  
 2.054000000000000E10   -2.931094765778125E-3  -3.849582781118376E-3  
 2.054200000000000E10   -3.418385850288619E-3  -3.232905629700350E-3  
 2.054400000000000E10   -3.780918782231985E-3  -2.664559782356208E-3  
 2.054600000000000E10   -4.105939564329607E-3  -2.172801453896143E-3  
 2.054800000000000E10   -4.548203343824473E-3  -1.662736968424769E-3  
 2.055000000000000E10   -5.048641866004027E-3  -9.181881150989622E-4  
 2.055200000000000E10   -5.374802707659978E-3   1.424849479120400E-4  
 2.055400000000000E10   -5.329892665929634E-3   1.350776387240600E-3  
 2.055600000000000E10   -4.916130294908345E-3   2.506930978945744E-3  
