#  HZ   S   RI   R     50.00 
! Rohde & Schwarz ZVA40 4Ports - Version 3.90 - 1145.1110k42 SN: 100403
! Date: 2023-10-03 12:58:48
! Measurement: S12 
! 
 2.000000000000000E10    4.467779632519793E-3  -1.467494000314252E-4  
 2.000200000000000E10    4.413002705270494E-3  -1.121328095905483E-3  
 2.000400000000000E10    4.025207487521349E-3  -2.068859938946036E-3  
 2.000600000000000E10    3.374497776989032E-3  -2.796573331579566E-3  
 2.000800000000000E10    2.645214605662558E-3  -3.257174441521919E-3  
 2.001000000000000E10    1.947211377598622E-3  -3.486641872398280E-3  
 2.001200000000000E10    1.383442358389773E-3  -3.645946866729194E-3  
 2.001400000000000E10    7.641261758248288E-4  -3.885171341675300E-3  
 2.001600000000000E10   -8.758555378773490E-5  -3.980524544776590E-3  
 2.001800000000000E10   -9.058837054504289E-4  -3.690308658406139E-3  
 2.002000000000000E10   -1.449597710571080E-3  -3.235375163731753E-3  
 2.002200000000000E10   -1.842992121560707E-3  -2.768044325488586E-3  
 2.002400000000000E10   -2.094803127908597E-3  -2.351147088187713E-3  
 2.002600000000000E10   -2.232369173456122E-3  -2.024670855866538E-3  
 2.002800000000000E10   -2.414488285366032E-3  -1.782871666364372E-3  
 2.003000000000000E10   -2.613558942728021E-3  -1.505340259798147E-3  
 2.003200000000000E10   -2.846202631998394E-3  -1.259287664045890E-3  
 2.003400000000000E10   -3.208508878877318E-3  -9.473350170689325E-4  
 2.003600000000000E10   -3.642903821956781E-3  -3.787581690293910E-4  
 2.003800000000000E10   -3.833568275526719E-3   5.318041668808158E-4  
 2.004000000000000E10   -3.551703826006916E-3   1.449351332633308E-3  
 2.004200000000000E10   -2.991281010003554E-3   2.104573796882674E-3  
 2.004400000000000E10   -2.350834112062499E-3   2.438665971297909E-3  
 2.004600000000000E10   -1.868163192368768E-3   2.484466147574562E-3  
 2.004800000000000E10   -1.664105406100000E-3   2.521475604562848E-3  
 2.005000000000000E10   -1.531787807363327E-3   2.796916567065098E-3  
 2.005200000000000E10   -1.201453325511129E-3   3.265592950844655E-3  
 2.005400000000000E10   -5.982441383551944E-4   3.690462154163807E-3  
 2.005600000000000E10    2.032855277152353E-4   3.893272571817593E-3  
 2.005800000000000E10    1.050460477859748E-3   3.828390880867287E-3  
 2.006000000000000E10    1.858053991950497E-3   3.562736281849169E-3  
 2.006200000000000E10    2.557289812506901E-3   3.060560475138051E-3  
 2.006400000000000E10    3.034106076315598E-3   2.416946588911944E-3  
 2.006600000000000E10    3.325321978923899E-3   1.807608253632983E-3  
 2.006800000000000E10    3.506432063187714E-3   1.230542069404490E-3  
 2.007000000000000E10    3.652839628220709E-3   7.034016372118560E-4  
 2.007200000000000E10    3.897271688199706E-3   9.606552069911873E-5  
 2.007400000000000E10    4.012308687109639E-3  -7.618850601526599E-4  
 2.007600000000000E10    3.764603856123156E-3  -1.702145811308314E-3  
 2.007800000000000E10    3.198679536581040E-3  -2.510149256084805E-3  
 2.008000000000000E10    2.446984622144589E-3  -3.042492929294154E-3  
 2.008200000000000E10    1.643002128090572E-3  -3.291302498567988E-3  
 2.008400000000000E10    9.198582632018738E-4  -3.283983708738730E-3  
 2.008600000000000E10    3.895156578100460E-4  -3.115493097101098E-3  
 2.008800000000000E10    3.838860788231684E-5  -2.939712773594592E-3  
 2.009000000000000E10   -2.390294426327778E-4  -2.828544160972039E-3  
 2.009200000000000E10   -4.647642091623750E-4  -2.839286811649799E-3  
 2.009400000000000E10   -8.604510545006229E-4  -2.984538484640696E-3  
 2.009600000000000E10   -1.474145394577473E-3  -2.966846770572442E-3  
 2.009800000000000E10   -2.144260806272979E-3  -2.712408710202134E-3  
 2.010000000000000E10   -2.697383510638719E-3  -2.194379266627409E-3  
 2.010200000000000E10   -3.020223764771665E-3  -1.593172347552523E-3  
 2.010400000000000E10   -3.203247078797884E-3  -1.007745464987777E-3  
 2.010600000000000E10   -3.288284237324088E-3  -4.745155305567164E-4  
 2.010800000000000E10   -3.337952041032690E-3   6.721709804777575E-5  
 2.011000000000000E10   -3.287902834859712E-3   6.660214017352298E-4  
 2.011200000000000E10   -3.102624504309562E-3   1.223786013994228E-3  
 2.011400000000000E10   -2.844945527613163E-3   1.739617678578253E-3  
 2.011600000000000E10   -2.526560263639247E-3   2.216683006500481E-3  
 2.011800000000000E10   -2.112466945416398E-3   2.690394038196515E-3  
 2.012000000000000E10   -1.521284424665350E-3   3.056883294549254E-3  
 2.012200000000000E10   -8.613604327870740E-4   3.216491511988420E-3  
 2.012400000000000E10   -3.097821843564614E-4   3.211296129005927E-3  
 2.012600000000000E10    1.377458110154193E-4   3.168595221790451E-3  
 2.012800000000000E10    6.000199775573696E-4   3.150039438710169E-3  
 2.013000000000000E10    1.111302792129142E-3   3.081167392708637E-3  
 2.013200000000000E10    1.647465543269560E-3   2.917977920905860E-3  
 2.013400000000000E10    2.217412960750086E-3   2.643283887731809E-3  
 2.013600000000000E10    2.735930477717409E-3   2.191164418710051E-3  
 2.013800000000000E10    3.102689791746714E-3   1.593925278737313E-3  
 2.014000000000000E10    3.289083105132536E-3   9.055227360308723E-4  
 2.014200000000000E10    3.266071081506434E-3   2.972103555091760E-4  
 2.014400000000000E10    3.156741520527889E-3  -1.746162432499222E-4  
 2.014600000000000E10    3.072429551846452E-3  -5.542298841410904E-4  
 2.014800000000000E10    3.039147196061634E-3  -9.558145086177522E-4  
 2.015000000000000E10    2.984063199686784E-3  -1.438344915018038E-3  
 2.015200000000000E10    2.823086955619079E-3  -2.020557091950819E-3  
 2.015400000000000E10    2.483588867579346E-3  -2.657427771568850E-3  
 2.015600000000000E10    1.881597908558669E-3  -3.216202000018072E-3  
 2.015800000000000E10    1.071612962901041E-3  -3.542309851144200E-3  
 2.016000000000000E10    2.156815376279324E-4  -3.564267264058193E-3  
 2.016200000000000E10   -5.002990532105927E-4  -3.283802488887752E-3  
 2.016400000000000E10   -9.409203323432141E-4  -2.853460290848657E-3  
 2.016600000000000E10   -1.099226086538423E-3  -2.480937857870703E-3  
 2.016800000000000E10   -1.166665094421694E-3  -2.353568613115285E-3  
 2.017000000000000E10   -1.390238102801420E-3  -2.365135053103721E-3  
 2.017200000000000E10   -1.780133487449752E-3  -2.327204224894996E-3  
 2.017400000000000E10   -2.231692343398377E-3  -2.143221122592136E-3  
 2.017600000000000E10   -2.662692650186795E-3  -1.784333385768588E-3  
 2.017800000000000E10   -2.977742813527585E-3  -1.286713777247955E-3  
 2.018000000000000E10   -3.173396681193953E-3  -7.550755399279298E-4  
 2.018200000000000E10   -3.220769938909346E-3  -2.381401594633375E-4  
 2.018400000000000E10   -3.201657845811160E-3   1.943063053423194E-4  
 2.018600000000000E10   -3.233384987753299E-3   6.137851009110887E-4  
 2.018800000000000E10   -3.240733459177945E-3   1.135530747921655E-3  
 2.019000000000000E10   -3.122520615795145E-3   1.705961530441763E-3  
 2.019200000000000E10   -2.916228431449445E-3   2.271299828188839E-3  
 2.019400000000000E10   -2.569489603586220E-3   2.857561292195762E-3  
 2.019600000000000E10   -2.027457821424361E-3   3.373921089978130E-3  
 2.019800000000000E10   -1.313993099352552E-3   3.760701605912160E-3  
 2.020000000000000E10   -5.491195048240049E-4   3.915190938170310E-3  
 2.020200000000000E10    1.088689560775594E-4   3.858812981181675E-3  
 2.020400000000000E10    6.552416081022886E-4   3.808271157106868E-3  
 2.020600000000000E10    1.260360651132133E-3   3.754874268822648E-3  
 2.020800000000000E10    1.913067983911821E-3   3.612553657687925E-3  
 2.021000000000000E10    2.621940535458702E-3   3.368825513731551E-3  
 2.021200000000000E10    3.379035197819273E-3   2.931515832811042E-3  
 2.021400000000000E10    4.037951239971100E-3   2.170506218034361E-3  
 2.021600000000000E10    4.407876205665094E-3   1.165871077251655E-3  
 2.021800000000000E10    4.396389376510074E-3   1.199235624948482E-4  
 2.022000000000000E10    4.110290513684353E-3  -7.227978311237638E-4  
 2.022200000000000E10    3.707797232049484E-3  -1.409636469799335E-3  
 2.022400000000000E10    3.194323637419278E-3  -1.911311005069702E-3  
 2.022600000000000E10    2.654511766094301E-3  -2.202596532663814E-3  
 2.022800000000000E10    2.266785828396678E-3  -2.328426482293893E-3  
 2.023000000000000E10    2.100445334454654E-3  -2.530668189542161E-3  
 2.023200000000000E10    1.794715877622366E-3  -2.912411129929953E-3  
 2.023400000000000E10    1.266687073641353E-3  -3.208483577947374E-3  
 2.023600000000000E10    6.915762917035157E-4  -3.338030893010674E-3  
 2.023800000000000E10    1.239528781432590E-4  -3.375255131956053E-3  
 2.024000000000000E10   -4.273353072305866E-4  -3.281053750672275E-3  
 2.024200000000000E10   -9.282329076625132E-4  -3.107246847961237E-3  
 2.024400000000000E10   -1.385972089203144E-3  -2.831393499272290E-3  
 2.024600000000000E10   -1.758341936187612E-3  -2.482136168206732E-3  
 2.024800000000000E10   -2.015363942417834E-3  -2.176827216451919E-3  
 2.025000000000000E10   -2.240960227532520E-3  -1.901358378947609E-3  
 2.025200000000000E10   -2.447937123684420E-3  -1.599090954254347E-3  
 2.025400000000000E10   -2.694408064363180E-3  -1.252154905900911E-3  
 2.025600000000000E10   -2.922772481623624E-3  -7.951970242343293E-4  
 2.025800000000000E10   -2.974178693774674E-3  -2.529387417814212E-4  
 2.026000000000000E10   -2.861091970569558E-3   1.953736538308915E-4  
 2.026200000000000E10   -2.747087834264945E-3   5.028163798636309E-4  
 2.026400000000000E10   -2.723548276763824E-3   8.221336217873076E-4  
 2.026600000000000E10   -2.673781269954311E-3   1.321914967977339E-3  
 2.026800000000000E10   -2.476083244093590E-3   1.819921148664974E-3  
 2.027000000000000E10   -2.182022056162909E-3   2.242262363088904E-3  
 2.027200000000000E10   -1.771086650141688E-3   2.618701412790904E-3  
 2.027400000000000E10   -1.237733207677526E-3   2.914717455429060E-3  
 2.027600000000000E10   -6.550019197338433E-4   3.057226116113641E-3  
 2.027800000000000E10   -1.073690326410104E-4   3.015320463519958E-3  
 2.028000000000000E10    3.027711801998387E-4   2.895403834473756E-3  
 2.028200000000000E10    6.458237077350971E-4   2.800815204089439E-3  
 2.028400000000000E10    1.035773924000010E-3   2.719925526805498E-3  
 2.028600000000000E10    1.495012034731055E-3   2.662831020575983E-3  
 2.028800000000000E10    2.044680148915009E-3   2.485836045471607E-3  
 2.029000000000000E10    2.490210579708219E-3   2.144339580640749E-3  
 2.029200000000000E10    2.906780224293470E-3   1.726882420135317E-3  
 2.029400000000000E10    3.290966506702481E-3   1.121092479917462E-3  
 2.029600000000000E10    3.448776659314280E-3   3.827823944717508E-4  
 2.029800000000000E10    3.375901280108977E-3  -2.982903237420100E-4  
 2.030000000000000E10    3.160197218811071E-3  -8.498591185478426E-4  
 2.030200000000000E10    2.854917198419571E-3  -1.261997834296415E-3  
 2.030400000000000E10    2.650152115772168E-3  -1.605036435648799E-3  
 2.030600000000000E10    2.543162899436775E-3  -2.058244258579281E-3  
 2.030800000000000E10    2.275409332166116E-3  -2.625654244588481E-3  
 2.031000000000000E10    1.746026152330968E-3  -3.153499060620864E-3  
 2.031200000000000E10    1.046670527473368E-3  -3.510705911105982E-3  
 2.031400000000000E10    2.163081414807864E-4  -3.722027797872822E-3  
 2.031600000000000E10   -7.347554050351460E-4  -3.594688950451436E-3  
 2.031800000000000E10   -1.476255474025729E-3  -3.028403113906583E-3  
 2.032000000000000E10   -1.726787761543636E-3  -2.332703883035316E-3  
 2.032200000000000E10   -1.733280541547747E-3  -1.892296407647707E-3  
 2.032400000000000E10   -1.791865780466685E-3  -1.694396220113117E-3  
 2.032600000000000E10   -1.908559123640536E-3  -1.567247560834167E-3  
 2.032800000000000E10   -2.061257940820522E-3  -1.468237454968471E-3  
 2.033000000000000E10   -2.332881308609137E-3  -1.369425134422879E-3  
 2.033200000000000E10   -2.776514712928071E-3  -1.144836967190107E-3  
 2.033400000000000E10   -3.208629976682090E-3  -5.935865458552683E-4  
 2.033600000000000E10   -3.377664722157298E-3  -2.301200233718932E-4  
 2.033800000000000E10   -3.367332232840084E-3   7.517172359964915E-4  
 2.034000000000000E10   -3.198030189162604E-3   1.402063006362706E-3  
 2.034200000000000E10   -2.903923521646195E-3   2.009489086318623E-3  
 2.034400000000000E10   -2.566917523465775E-3   2.540126675739884E-3  
 2.034600000000000E10   -2.184553580634572E-3   3.063279704225284E-3  
 2.034800000000000E10   -1.645711004837520E-3   3.611772657475539E-3  
 2.035000000000000E10   -8.508264802879206E-4   4.093740169924719E-3  
 2.035200000000000E10    1.930350758980409E-4   4.298188861597468E-3  
 2.035400000000000E10    1.304347917472047E-3   4.072382666722493E-3  
 2.035600000000000E10    2.163177718304926E-3   3.456095112832608E-3  
 2.035800000000000E10    2.599942230584997E-3   2.675569357557429E-3  
 2.036000000000000E10    2.764069958141557E-3   2.009425553734656E-3  
 2.036200000000000E10    2.843561487410356E-3   1.509158320173070E-3  
 2.036400000000000E10    2.865958786397069E-3   1.190732845484659E-3  
 2.036600000000000E10    3.016965377523944E-3   9.853308244297903E-4  
 2.036800000000000E10    3.364281056241857E-3   6.206808460841853E-4  
 2.037000000000000E10    3.645238794248413E-3  -2.315266734782467E-5  
 2.037200000000000E10    3.687948747365564E-3  -7.871335083446294E-4  
 2.037400000000000E10    3.548679787113711E-3  -1.565118380649775E-3  
 2.037600000000000E10    3.150609106308333E-3  -2.275344294806322E-3  
 2.037800000000000E10    2.549856745948394E-3  -2.827124118253037E-3  
 2.038000000000000E10    1.859781306443943E-3  -3.186088158852525E-3  
 2.038200000000000E10    1.250155890981356E-3  -3.321589833056486E-3  
 2.038400000000000E10    7.621703294312790E-4  -3.369669999099440E-3  
 2.038600000000000E10    2.713942753702955E-4  -3.448109547780068E-3  
 2.038800000000000E10   -2.952556371585363E-4  -3.478023232202288E-3  
 2.039000000000000E10   -8.592564522081781E-4  -3.387530110086557E-3  
 2.039200000000000E10   -1.446778441917290E-3  -3.216007077652548E-3  
 2.039400000000000E10   -1.915897268594967E-3  -2.891655105890499E-3  
 2.039600000000000E10   -2.237374790840679E-3  -2.549239029004067E-3  
 2.039800000000000E10   -2.595447909293904E-3  -2.218040603178519E-3  
 2.040000000000000E10   -2.939027302932960E-3  -1.827576003658275E-3  
 2.040200000000000E10   -3.158949168950872E-3  -1.448452951283091E-3  
 2.040400000000000E10   -3.430184364939730E-3  -1.119828985624567E-3  
 2.040600000000000E10   -3.774170962127823E-3  -6.639066398040289E-4  
 2.040800000000000E10   -4.088730189121433E-3  -5.191533569746685E-5  
 2.041000000000000E10   -4.304034118023184E-3   7.674180195425396E-4  
 2.041200000000000E10   -4.261685311104413E-3   1.696234948381230E-3  
 2.041400000000000E10   -3.964712532858054E-3   2.585060282230929E-3  
 2.041600000000000E10   -3.395246117617246E-3   3.431387116304703E-3  
 2.041800000000000E10   -2.578553269375806E-3   4.119520748241081E-3  
 2.042000000000000E10   -1.677953491539315E-3   4.513204753122948E-3  
 2.042200000000000E10   -8.044419659267146E-4   4.627558799391545E-3  
 2.042400000000000E10   -6.172078105414077E-5   4.600660547752072E-3  
 2.042600000000000E10    6.379174484647122E-4   4.615480097493640E-3  
 2.042800000000000E10    1.482249198791882E-3   4.545683386149231E-3  
 2.043000000000000E10    2.365633051980425E-3   4.249749049820282E-3  
 2.043200000000000E10    3.122350218257419E-3   3.722047726451247E-3  
 2.043400000000000E10    3.698840814953049E-3   3.009671957611486E-3  
 2.043600000000000E10    4.068814562978569E-3   2.246225959862824E-3  
 2.043800000000000E10    4.307054431626091E-3   1.542692158923105E-3  
 2.044000000000000E10    4.460539530824733E-3   8.802768274175902E-4  
 2.044200000000000E10    4.543883536286928E-3   2.103548970437799E-4  
 2.044400000000000E10    4.591881469995888E-3  -4.798925214412588E-4  
 2.044600000000000E10    4.601874595714941E-3  -1.244356842815048E-3  
 2.044800000000000E10    4.456864049037298E-3  -2.118721095569156E-3  
 2.045000000000000E10    4.136459884682188E-3  -3.014788557602852E-3  
 2.045200000000000E10    3.521241057940104E-3  -3.895696718245745E-3  
 2.045400000000000E10    2.545147910024281E-3  -4.610249531213885E-3  
 2.045600000000000E10    1.385077070962224E-3  -4.930655230526572E-3  
 2.045800000000000E10    3.519871841288276E-4  -4.868961525736033E-3  
 2.046000000000000E10   -4.879237859751340E-4  -4.565010882086225E-3  
 2.046200000000000E10   -1.100578586812373E-3  -4.195931988457839E-3  
 2.046400000000000E10   -1.609160202658839E-3  -3.898727931772118E-3  
 2.046600000000000E10   -2.094901684257720E-3  -3.573949569491326E-3  
 2.046800000000000E10   -2.573196698601048E-3  -3.279767921884303E-3  
 2.047000000000000E10   -3.078621838034855E-3  -2.907304903837267E-3  
 2.047200000000000E10   -3.516511603568992E-3  -2.377533293501647E-3  
 2.047400000000000E10   -3.858699195983786E-3  -1.727983704768121E-3  
 2.047600000000000E10   -4.042406790648346E-3  -1.056312492841648E-3  
 2.047800000000000E10   -4.063579667773512E-3  -4.800398579660666E-4  
 2.048000000000000E10   -4.099679834864758E-3   8.277182604177590E-6  
 2.048200000000000E10   -4.209803227611162E-3   5.829021899478028E-4  
 2.048400000000000E10   -4.196553353082251E-3   1.295934875357758E-3  
 2.048600000000000E10   -4.033874513374435E-3   2.055115044910323E-3  
 2.048800000000000E10   -3.736263753294394E-3   2.850314878203252E-3  
 2.049000000000000E10   -3.196710746528374E-3   3.581746938396936E-3  
 2.049200000000000E10   -2.421791397931952E-3   4.176724598639542E-3  
 2.049400000000000E10   -1.510723205110817E-3   4.580573609995622E-3  
 2.049600000000000E10   -5.581079081080303E-4   4.691561321831413E-3  
 2.049800000000000E10    2.946136524702457E-4   4.514300212677983E-3  
 2.050000000000000E10    9.544472322212880E-4   4.169194010534773E-3  
 2.050200000000000E10    1.342389353171543E-3   3.869753425802898E-3  
 2.050400000000000E10    1.723511209194031E-3   3.816568999792691E-3  
 2.050600000000000E10    2.404836911915077E-3   3.786428210635981E-3  
 2.050800000000000E10    3.217049305223757E-3   3.484996854914008E-3  
 2.051000000000000E10    3.947738454573685E-3   2.881341372375135E-3  
 2.051200000000000E10    4.564973267002239E-3   2.092875928307573E-3  
 2.051400000000000E10    5.027665515188818E-3   1.088340374365173E-3  
 2.051600000000000E10    5.115522761587744E-3  -4.078427223753858E-5  
 2.051800000000000E10    4.835889950670578E-3  -1.047500642016530E-3  
 2.052000000000000E10    4.433695226907730E-3  -1.817757802739464E-3  
 2.052200000000000E10    4.025880092134079E-3  -2.513138913652963E-3  
 2.052400000000000E10    3.540896939941579E-3  -3.215549737904912E-3  
 2.052600000000000E10    2.846999706148550E-3  -3.885467519500742E-3  
 2.052800000000000E10    1.926550559734029E-3  -4.311532523758986E-3  
 2.053000000000000E10    9.665744620616791E-4  -4.440996951113145E-3  
 2.053200000000000E10    7.049821067118536E-5  -4.365776424054747E-3  
 2.053400000000000E10   -7.085093314311019E-4  -4.087410349812773E-3  
 2.053600000000000E10   -1.303260641482969E-3  -3.669988915876106E-3  
 2.053800000000000E10   -1.717113126586709E-3  -3.214769358574241E-3  
 2.054000000000000E10   -1.958431447511194E-3  -2.809996802911715E-3  
 2.054200000000000E10   -2.130762122019574E-3  -2.561992318886850E-3  
 2.054400000000000E10   -2.412388903192348E-3  -2.453616725418855E-3  
 2.054600000000000E10   -2.882503490481112E-3  -2.347843281717764E-3  
 2.054800000000000E10   -3.581274895825320E-3  -1.975215557548735E-3  
 2.055000000000000E10   -4.228146591534218E-3  -1.117769421802627E-3  
 2.055200000000000E10   -4.443425185012597E-3  -6.222703733429721E-6  
 2.055400000000000E10   -4.238949295271327E-3   1.048608389855535E-3  
 2.055600000000000E10   -3.762588819005975E-3   1.921537431405375E-3  
