#  HZ   S   RI   R     50.00 
! Rohde & Schwarz ZVA40 4Ports - Version 3.90 - 1145.1110k42 SN: 100403
! Date: 2023-10-03 13:03:01
! Measurement: S12 
! 
 2.000000000000000E10    4.307699040988837E-4   1.261079639824943E-3  
 2.000200000000000E10    7.068502185904564E-4   1.004701670941441E-3  
 2.000400000000000E10    8.663320844444935E-4   6.660689478126881E-4  
 2.000600000000000E10    8.499451319844206E-4   3.033123969473137E-4  
 2.000800000000000E10    6.714138519038053E-4   7.269858934956321E-5  
 2.001000000000000E10    5.054643218129598E-4   1.794602904558338E-6  
 2.001200000000000E10    3.726400768886409E-4   3.903547360036250E-6  
 2.001400000000000E10    3.427520555773666E-4   7.495452580305676E-5  
 2.001600000000000E10    3.900522226755175E-4   5.677740274997497E-5  
 2.001800000000000E10    3.962304045248839E-4   1.135762049895595E-5  
 2.002000000000000E10    3.749182240111915E-4  -5.132804276568266E-5  
 2.002200000000000E10    2.954430572033205E-4  -5.900259421040773E-5  
 2.002400000000000E10    3.223041436106059E-4   8.023306971737805E-6  
 2.002600000000000E10    3.795460708019681E-4  -3.044007712092570E-5  
 2.002800000000000E10    3.576713010291244E-4  -7.230607259045116E-6  
 2.003000000000000E10    4.973434342489169E-4   9.213524409823712E-5  
 2.003200000000000E10    8.398711975039187E-4  -1.256055087344566E-5  
 2.003400000000000E10    1.025955731704555E-3  -4.852755469990581E-4  
 2.003600000000000E10    8.039392122266808E-4  -9.977585945562021E-4  
 2.003800000000000E10    3.486056886364251E-4  -1.218280382741841E-3  
 2.004000000000000E10   -4.114957448236889E-5  -1.176440477497692E-3  
 2.004200000000000E10   -2.844964254430952E-4  -1.062811859174337E-3  
 2.004400000000000E10   -4.643763155856558E-4  -9.580331779307392E-4  
 2.004600000000000E10   -6.173975418854521E-4  -8.187173149996887E-4  
 2.004800000000000E10   -6.846952469590210E-4  -6.947768202967514E-4  
 2.005000000000000E10   -7.538082029712636E-4  -6.743391648551964E-4  
 2.005200000000000E10   -9.621171383263829E-4  -6.853961694790167E-4  
 2.005400000000000E10   -1.319335838262406E-3  -5.291689392332556E-4  
 2.005600000000000E10   -1.566073127136922E-3  -1.157903933606337E-4  
 2.005800000000000E10   -1.634102026307228E-3   3.485241300022085E-4  
 2.006000000000000E10   -1.546212543882890E-3   9.117087916041813E-4  
 2.006200000000000E10   -1.130001234281578E-3   1.406014269340492E-3  
 2.006400000000000E10   -5.394348998289602E-4   1.602505908612116E-3  
 2.006600000000000E10    1.520727137513286E-5   1.489327434802988E-3  
 2.006800000000000E10    3.276121458936356E-4   1.164601594516279E-3  
 2.007000000000000E10    3.478341460910170E-4   9.068712753094275E-4  
 2.007200000000000E10    3.385532548202685E-4   8.735671189590646E-4  
 2.007400000000000E10    4.853518273003032E-4   9.124860725147122E-4  
 2.007600000000000E10    7.366445044883424E-4   8.313288376091718E-4  
 2.007800000000000E10    9.618206586834398E-4   5.988196374986459E-4  
 2.008000000000000E10    1.085117283476509E-3   2.576062259831516E-4  
 2.008200000000000E10    1.012092125659556E-3  -1.652547245253062E-4  
 2.008400000000000E10    6.582987958990774E-4  -4.797596060440957E-4  
 2.008600000000000E10    2.056903112631813E-4  -4.598404913939490E-4  
 2.008800000000000E10   -5.295626868718062E-5  -1.700413034277405E-4  
 2.009000000000000E10   -5.543727022662774E-5   1.582796753067025E-4  
 2.009200000000000E10    1.563471511419319E-4   3.765749889033093E-4  
 2.009400000000000E10    3.801108162597191E-4   4.002241701138716E-4  
 2.009600000000000E10    5.856915597455125E-4   3.748544512906806E-4  
 2.009800000000000E10    7.863747233375449E-4   2.451485015476821E-4  
 2.010000000000000E10    9.052024492150780E-4   8.739246050213989E-5  
 2.010200000000000E10    1.057997576838720E-3  -1.084456271650040E-4  
 2.010400000000000E10    1.123140741392602E-3  -4.660921075971560E-4  
 2.010600000000000E10    9.429569034204809E-4  -8.476035029401261E-4  
 2.010800000000000E10    6.114002647752197E-4  -9.836003192941901E-4  
 2.011000000000000E10    4.430944022172564E-4  -9.351638081069622E-4  
 2.011200000000000E10    4.190874912147507E-4  -9.925599845218255E-4  
 2.011400000000000E10    3.157434848505130E-4  -1.207349146428852E-3  
 2.011600000000000E10   -1.193891356530532E-5  -1.405710531705262E-3  
 2.011800000000000E10   -4.295017395394667E-4  -1.346614058014512E-3  
 2.012000000000000E10   -6.676869739494729E-4  -1.134815975571427E-3  
 2.012200000000000E10   -8.087494602683674E-4  -9.978578472414168E-4  
 2.012400000000000E10   -9.876761447500302E-4  -8.724583025423835E-4  
 2.012600000000000E10   -1.191740069411879E-3  -6.858477476263735E-4  
 2.012800000000000E10   -1.361409468583977E-3  -3.793110328184158E-4  
 2.013000000000000E10   -1.366464069990802E-3  -1.986237348394121E-5  
 2.013200000000000E10   -1.258804586930622E-3   2.761101531039219E-4  
 2.013400000000000E10   -1.127963069320461E-3   4.759349634127362E-4  
 2.013600000000000E10   -1.011847782834077E-3   7.094339220382183E-4  
 2.013800000000000E10   -7.618275078668916E-4   9.570445141030684E-4  
 2.014000000000000E10   -3.846290599412971E-4   1.035007992146131E-3  
 2.014200000000000E10   -1.131848224863667E-4   9.648990539504301E-4  
 2.014400000000000E10    1.785912186409435E-4   8.729875026416388E-4  
 2.014600000000000E10    4.134628468541882E-4   5.790714716822401E-4  
 2.014800000000000E10    4.004997994373228E-4   2.090055957808325E-4  
 2.015000000000000E10    1.713355040583001E-4   4.747949110555089E-6  
 2.015200000000000E10   -4.872824449545834E-5   2.404484853417701E-5  
 2.015400000000000E10   -1.084090856889861E-4   1.589214860307390E-4  
 2.015600000000000E10   -5.076177068926115E-5   1.899962717812861E-4  
 2.015800000000000E10   -3.079000494918123E-5   1.120838383236640E-4  
 2.016000000000000E10   -1.444646028445547E-4   2.159940962988208E-5  
 2.016200000000000E10   -3.644548218319799E-4   4.498565534577434E-5  
 2.016400000000000E10   -5.589009165848174E-4   2.611664088142063E-4  
 2.016600000000000E10   -6.166119188350078E-4   5.959935024967073E-4  
 2.016800000000000E10   -4.835394023076361E-4   9.854751540378597E-4  
 2.017000000000000E10   -1.127386768444330E-4   1.301066188233686E-3  
 2.017200000000000E10    4.223991611085204E-4   1.369260399556363E-3  
 2.017400000000000E10    8.883589077185181E-4   1.135189444547205E-3  
 2.017600000000000E10    1.142865533120317E-3   7.838685184797664E-4  
 2.017800000000000E10    1.243125328721302E-3   4.406387510722880E-4  
 2.018000000000000E10    1.237471948220652E-3   1.182853703678360E-4  
 2.018200000000000E10    1.149985513845344E-3  -1.275982637254909E-4  
 2.018400000000000E10    1.048262209014454E-3  -2.771552660264873E-4  
 2.018600000000000E10    1.036807796017194E-3  -4.097968053672494E-4  
 2.018800000000000E10    1.009520634322776E-3  -6.657185800921617E-4  
 2.019000000000000E10    8.298367069777364E-4  -9.608894731243883E-4  
 2.019200000000000E10    4.839452004889908E-4  -1.161224524003795E-3  
 2.019400000000000E10    1.067620137048389E-4  -1.139611007699383E-3  
 2.019600000000000E10   -1.459685989048087E-4  -1.032477203534280E-3  
 2.019800000000000E10   -4.002636437708658E-4  -8.890045145162433E-4  
 2.020000000000000E10   -5.475086439784173E-4  -6.141119105779709E-4  
 2.020200000000000E10   -5.560785322641733E-4  -3.897139623879989E-4  
 2.020400000000000E10   -4.993243063435940E-4  -1.537688986739381E-4  
 2.020600000000000E10   -2.828935785108887E-4  -5.165100595116167E-5  
 2.020800000000000E10   -1.765148846050265E-4  -1.377853052726556E-4  
 2.021000000000000E10   -1.935964220164176E-4  -1.521650757453761E-4  
 2.021200000000000E10   -1.167005081955677E-4  -1.508670020297576E-4  
 2.021400000000000E10   -1.018081165068312E-4  -2.723154001064415E-4  
 2.021600000000000E10   -2.178268392384436E-4  -3.664026190926213E-4  
 2.021800000000000E10   -3.690730790902742E-4  -3.261278220428415E-4  
 2.022000000000000E10   -4.084578042403401E-4  -2.444227659162671E-4  
 2.022200000000000E10   -4.683590507031315E-4  -2.528877298629349E-4  
 2.022400000000000E10   -6.340136377853744E-4  -1.528023064786611E-4  
 2.022600000000000E10   -6.389760449643674E-4   6.296985397985351E-5  
 2.022800000000000E10   -5.601410355913327E-4   1.485171488927219E-4  
 2.023000000000000E10   -5.936312868639276E-4   1.949960390563840E-4  
 2.023200000000000E10   -6.089264341561056E-4   3.663330873543466E-4  
 2.023400000000000E10   -5.024584704184131E-4   5.170197527685085E-4  
 2.023600000000000E10   -3.901201706578948E-4   6.448688798051314E-4  
 2.023800000000000E10   -1.883870282343593E-4   7.283394397408875E-4  
 2.024000000000000E10   -2.094433451697893E-5   7.230482505415970E-4  
 2.024200000000000E10    1.763543012262602E-4   7.005099438556275E-4  
 2.024400000000000E10    3.461483438401542E-4   5.137924042170094E-4  
 2.024600000000000E10    2.936393370705278E-4   3.586387678064836E-4  
 2.024800000000000E10    2.680152502301851E-4   3.510891917878341E-4  
 2.025000000000000E10    2.648951679778596E-4   3.751065329803776E-4  
 2.025200000000000E10    3.814259341605576E-4   4.676337682770436E-4  
 2.025400000000000E10    6.320003485747848E-4   3.820064089810975E-4  
 2.025600000000000E10    7.665451676412315E-4   1.377163453932100E-4  
 2.025800000000000E10    7.548881158110048E-4  -1.282138846475807E-4  
 2.026000000000000E10    6.190431045575275E-4  -3.349892804068571E-4  
 2.026200000000000E10    4.736077492681060E-4  -4.182484833554293E-4  
 2.026400000000000E10    3.689807739564881E-4  -5.057160803663004E-4  
 2.026600000000000E10    1.820022784450873E-4  -5.342263398776330E-4  
 2.026800000000000E10    1.107834058803211E-4  -4.817876052647952E-4  
 2.027000000000000E10    6.762475349965272E-5  -5.455907279004654E-4  
 2.027200000000000E10   -1.025080496612735E-4  -5.978484850744776E-4  
 2.027400000000000E10   -2.723775798413681E-4  -5.037253391986461E-4  
 2.027600000000000E10   -2.852358397550560E-4  -4.271697902135981E-4  
 2.027800000000000E10   -3.803558733866171E-4  -4.889618075038824E-4  
 2.028000000000000E10   -6.200028066005972E-4  -4.438772698655465E-4  
 2.028200000000000E10   -8.295765489152033E-4  -2.441330629146041E-4  
 2.028400000000000E10   -9.436459719383547E-4   5.711583117798734E-5  
 2.028600000000000E10   -9.148815958645702E-4   4.090580024752659E-4  
 2.028800000000000E10   -7.297946355754027E-4   6.909868011630521E-4  
 2.029000000000000E10   -5.010930567868669E-4   9.010741923104038E-4  
 2.029200000000000E10   -1.783514966773360E-4   1.032325152188938E-3  
 2.029400000000000E10    1.461544672842617E-4   1.021927510533835E-3  
 2.029600000000000E10    4.555514818172397E-4   9.349653518417614E-4  
 2.029800000000000E10    7.465719834636944E-4   7.214462746283493E-4  
 2.030000000000000E10    8.986876935433645E-4   3.730380686561467E-4  
 2.030200000000000E10    8.246300762630388E-4   4.553673856873969E-5  
 2.030400000000000E10    6.829648874623418E-4  -1.077153613966211E-4  
 2.030600000000000E10    6.211246871638569E-4  -2.230663526704566E-4  
 2.030800000000000E10    5.015311215346902E-4  -3.839274493492604E-4  
 2.031000000000000E10    2.933460560942514E-4  -4.660828571302871E-4  
 2.031200000000000E10    7.193912607651212E-5  -4.261941100478388E-4  
 2.031400000000000E10   -4.757782356926611E-5  -2.781983293447291E-4  
 2.031600000000000E10   -7.820150833155333E-5  -1.843995201785152E-4  
 2.031800000000000E10   -1.525937992789703E-4  -3.096014807822102E-5  
 2.032000000000000E10   -6.918291188944170E-5   2.051544872129580E-4  
 2.032200000000000E10    1.891615312860765E-4   3.373050685433495E-4  
 2.032400000000000E10    5.134585971748573E-4   2.426690286180626E-4  
 2.032600000000000E10    6.519142110015693E-4  -4.374602757119566E-5  
 2.032800000000000E10    6.111267191902141E-4  -2.356706824419070E-4  
 2.033000000000000E10    6.251322570709136E-4  -3.577787630305982E-4  
 2.033200000000000E10    6.362305433822820E-4  -6.092805801047619E-4  
 2.033400000000000E10    4.352937664965038E-4  -8.436387707575115E-4  
 2.033600000000000E10    3.152117175059662E-4  -9.069209733935757E-4  
 2.033800000000000E10    4.598940882835166E-5  -9.839452485507932E-4  
 2.034000000000000E10   -1.390951075624683E-4  -1.043858996845414E-3  
 2.034200000000000E10   -3.992141304209967E-4  -1.080203900562117E-3  
 2.034400000000000E10   -6.828773932037071E-4  -9.788220473795121E-4  
 2.034600000000000E10   -8.732138564254431E-4  -7.980252091998979E-4  
 2.034800000000000E10   -9.862368877540217E-4  -6.439696545635998E-4  
 2.035000000000000E10   -1.138171171980293E-3  -5.210092554248319E-4  
 2.035200000000000E10   -1.318051596172154E-3  -2.924878032372138E-4  
 2.035400000000000E10   -1.417179512906314E-3  -7.648986229843563E-6  
 2.035600000000000E10   -1.480473182930653E-3   3.444599209270928E-4  
 2.035800000000000E10   -1.370322294130830E-3   7.540445921869775E-4  
 2.036000000000000E10   -1.148465262925245E-3   1.072375749624929E-3  
 2.036200000000000E10   -8.694445453258425E-4   1.385860055504911E-3  
 2.036400000000000E10   -3.545352878430360E-4   1.650402698964801E-3  
 2.036600000000000E10    3.328339923498961E-4   1.528574785681388E-3  
 2.036800000000000E10    7.513456512242556E-4   9.781112266827085E-4  
 2.037000000000000E10    6.694181150576645E-4   4.088085202486810E-4  
 2.037200000000000E10    3.299661871302613E-4   1.728829272666759E-4  
 2.037400000000000E10    7.668985394040437E-5   2.037043926780833E-4  
 2.037600000000000E10   -8.347579961333140E-5   3.489404539491430E-4  
 2.037800000000000E10   -1.018420845095774E-4   5.697030698642934E-4  
 2.038000000000000E10    2.978020959411649E-5   7.453343628353820E-4  
 2.038200000000000E10    2.405839031293927E-4   8.543688346873280E-4  
 2.038400000000000E10    4.792783124067672E-4   8.259211446986432E-4  
 2.038600000000000E10    6.499545923683318E-4   6.972479738425387E-4  
 2.038800000000000E10    7.091376330672838E-4   5.910506425521226E-4  
 2.039000000000000E10    8.135204332298122E-4   5.828356279305532E-4  
 2.039200000000000E10    1.023892187245129E-3   4.907049698115101E-4  
 2.039400000000000E10    1.179976196223755E-3   2.818299516596652E-4  
 2.039600000000000E10    1.278961835229777E-3   7.950266060813902E-5  
 2.039800000000000E10    1.389236566457330E-3  -2.193224232848887E-4  
 2.040000000000000E10    1.324229076535368E-3  -6.120889236836277E-4  
 2.040200000000000E10    1.092883801842760E-3  -8.757397225375744E-4  
 2.040400000000000E10    8.721554373034542E-4  -1.017404468672603E-3  
 2.040600000000000E10    6.923144441308769E-4  -1.121008606271152E-3  
 2.040800000000000E10    4.904013167330881E-4  -1.248321630091334E-3  
 2.041000000000000E10    2.104207993292924E-4  -1.298098757847714E-3  
 2.041200000000000E10    1.207195205490369E-5  -1.221334345642585E-3  
 2.041400000000000E10   -7.869176361316993E-5  -1.220725083899964E-3  
 2.041600000000000E10   -2.794097579628567E-4  -1.327388140913329E-3  
 2.041800000000000E10   -6.286339276688703E-4  -1.265379952347297E-3  
 2.042000000000000E10   -8.017659698011271E-4  -1.082326161460530E-3  
 2.042200000000000E10   -9.562943953304044E-4  -1.029461503906536E-3  
 2.042400000000000E10   -1.300836202339749E-3  -9.275114536477033E-4  
 2.042600000000000E10   -1.633535682534178E-3  -5.093273058066092E-4  
 2.042800000000000E10   -1.658377451285597E-3   2.829852012466830E-5  
 2.043000000000000E10   -1.468063623897364E-3   4.448904944516704E-4  
 2.043200000000000E10   -1.217561737546092E-3   7.033949622543292E-4  
 2.043400000000000E10   -9.736749048942679E-4   8.900532917667626E-4  
 2.043600000000000E10   -6.960311558657163E-4   1.039706697541868E-3  
 2.043800000000000E10   -3.426636526324699E-4   1.071665708144261E-3  
 2.044000000000000E10   -8.200299121648485E-5   9.354560464954028E-4  
 2.044200000000000E10    4.327991006188306E-5   8.027954582784158E-4  
 2.044400000000000E10    1.623396358214158E-4   7.438580730715346E-4  
 2.044600000000000E10    3.436371677367347E-4   5.676703898374129E-4  
 2.044800000000000E10    3.077859228329327E-4   2.552881505610536E-4  
 2.045000000000000E10    3.632601239639930E-5   1.800518634191565E-4  
 2.045200000000000E10   -1.037588381110748E-4   3.972767729842997E-4  
 2.045400000000000E10    5.917107022162374E-5   5.916673575102548E-4  
 2.045600000000000E10    2.628725145798782E-4   5.868939843810637E-4  
 2.045800000000000E10    4.148063104486653E-4   5.145624539634758E-4  
 2.046000000000000E10    5.452637450478266E-4   4.075272564504128E-4  
 2.046200000000000E10    6.886114473665449E-4   2.345681070676960E-4  
 2.046400000000000E10    7.159789876127041E-4  -1.115310448389539E-4  
 2.046600000000000E10    4.320441713602640E-4  -3.838834146549351E-4  
 2.046800000000000E10    6.857450188299519E-5  -3.500014368431267E-4  
 2.047000000000000E10   -1.294020893746401E-4  -8.304337612803596E-5  
 2.047200000000000E10   -5.893946175919577E-5   2.273782630093634E-4  
 2.047400000000000E10    2.422328413667257E-4   3.785376524200104E-4  
 2.047600000000000E10    5.523581179951169E-4   2.439252618046808E-4  
 2.047800000000000E10    6.799251945409542E-4  -3.356942602014314E-5  
 2.048000000000000E10    6.600962276283055E-4  -3.137339164987744E-4  
 2.048200000000000E10    5.134890182231220E-4  -5.882428032001136E-4  
 2.048400000000000E10    2.112156438326019E-4  -7.280441314372937E-4  
 2.048600000000000E10   -6.239620182177421E-5  -6.926250780564678E-4  
 2.048800000000000E10   -2.802005259237739E-4  -6.025790073046531E-4  
 2.049000000000000E10   -4.642723024479755E-4  -4.289419979044838E-4  
 2.049200000000000E10   -5.531388858559354E-4  -1.599555241074337E-4  
 2.049400000000000E10   -4.378972843829773E-4   9.188856533105744E-5  
 2.049600000000000E10   -2.636837543907227E-4   1.490526557650893E-4  
 2.049800000000000E10   -1.935993012595623E-4   1.385582065320353E-4  
 2.050000000000000E10   -1.263664912005097E-4   1.800222708419667E-4  
 2.050200000000000E10   -3.128046199639612E-5   1.390322372104126E-4  
 2.050400000000000E10   -4.416549881144595E-5   3.264015834962275E-5  
 2.050600000000000E10   -1.688594709199838E-4   5.473461156733023E-5  
 2.050800000000000E10   -1.724622694357114E-4   2.117757487265056E-4  
 2.051000000000000E10   -4.157560012531330E-5   2.649729268255533E-4  
 2.051200000000000E10   -8.119081270137458E-6   2.454134799471057E-4  
 2.051400000000000E10    1.077902562408205E-5   3.210809123711929E-4  
 2.051600000000000E10    1.511695669482965E-4   4.119600031386924E-4  
 2.051800000000000E10    3.537784326714253E-4   3.935173168249520E-4  
 2.052000000000000E10    5.408577942442718E-4   2.715959433569677E-4  
 2.052200000000000E10    6.559547235702506E-4   9.441573961844875E-5  
 2.052400000000000E10    7.634267817948920E-4  -1.142610764775786E-4  
 2.052600000000000E10    7.969320959166276E-4  -4.738861293227263E-4  
 2.052800000000000E10    5.603316079522388E-4  -8.930055103111446E-4  
 2.053000000000000E10   -1.381892443794701E-5  -1.074180531568458E-3  
 2.053200000000000E10   -4.842774324510017E-4  -7.357906857735398E-4  
 2.053400000000000E10   -4.802131631321547E-4  -3.321395183045326E-4  
 2.053600000000000E10   -3.456012226081619E-4  -2.354440962466500E-4  
 2.053800000000000E10   -4.011879462141300E-4  -2.137897933791143E-4  
 2.054000000000000E10   -4.227521594320598E-4  -9.806046469044606E-6  
 2.054200000000000E10   -2.268396312928540E-4   1.140239824221849E-4  
 2.054400000000000E10   -6.593945624665864E-5   9.502521992424870E-6  
 2.054600000000000E10   -1.214050739709434E-4  -1.297740848342612E-4  
 2.054800000000000E10   -2.487449186476553E-4  -1.132369426409896E-4  
 2.055000000000000E10   -2.766855394251170E-4   2.703346384386434E-5  
 2.055200000000000E10   -1.671287139703773E-4   8.094453123741143E-5  
 2.055400000000000E10   -1.299738924813346E-4   4.790241736271935E-5  
 2.055600000000000E10   -1.116000706661223E-4   5.388704962214482E-5  
