#  HZ   S   RI   R     50.00 
! Rohde & Schwarz ZVA40 4Ports - Version 3.90 - 1145.1110k42 SN: 100403
! Date: 2023-10-03 13:04:29
! Measurement: S12 
! 
 2.000000000000000E10   -5.576257151264101E-4   2.786124268845644E-3  
 2.000200000000000E10    4.104746107326785E-5   2.535512751359263E-3  
 2.000400000000000E10    4.143408786384735E-4   2.170871615547825E-3  
 2.000600000000000E10    5.677235018128507E-4   1.821411911536147E-3  
 2.000800000000000E10    5.511551661370898E-4   1.630259729507897E-3  
 2.001000000000000E10    5.612840572728512E-4   1.663385196244000E-3  
 2.001200000000000E10    7.903395309745348E-4   1.795017193531457E-3  
 2.001400000000000E10    1.222615301275603E-3   1.762200402739791E-3  
 2.001600000000000E10    1.612498200739975E-3   1.473195891091486E-3  
 2.001800000000000E10    1.820050126780975E-3   1.107353209747853E-3  
 2.002000000000000E10    1.930772553968393E-3   7.530338314856277E-4  
 2.002200000000000E10    1.907405406121671E-3   4.024369707532274E-4  
 2.002400000000000E10    1.869279799270041E-3   2.346077476150966E-4  
 2.002600000000000E10    1.968877997973727E-3   9.860182107342868E-5  
 2.002800000000000E10    2.128538724471942E-3  -1.729268602997045E-4  
 2.003000000000000E10    2.215963713594793E-3  -5.244162353330558E-4  
 2.003200000000000E10    2.317781824572587E-3  -9.671564840562183E-4  
 2.003400000000000E10    2.260721455339665E-3  -1.626378330574544E-3  
 2.003600000000000E10    1.836541545703824E-3  -2.287040085152344E-3  
 2.003800000000000E10    1.121975567743734E-3  -2.681259203840185E-3  
 2.004000000000000E10    4.428122257296410E-4  -2.671914738545448E-3  
 2.004200000000000E10   -1.605310580437361E-5  -2.541181999316186E-3  
 2.004400000000000E10   -3.482976229142766E-4  -2.411760677250080E-3  
 2.004600000000000E10   -5.991756542367332E-4  -2.376630764316630E-3  
 2.004800000000000E10   -9.488855010002025E-4  -2.410220652013834E-3  
 2.005000000000000E10   -1.439514252311194E-3  -2.399376133617796E-3  
 2.005200000000000E10   -2.025363322945289E-3  -2.237864318706187E-3  
 2.005400000000000E10   -2.655937135173583E-3  -1.872043300672998E-3  
 2.005600000000000E10   -3.225240459734644E-3  -1.218951140518910E-3  
 2.005800000000000E10   -3.563802695062793E-3  -2.822020751521865E-4  
 2.006000000000000E10   -3.439940483435805E-3   7.892941271334336E-4  
 2.006200000000000E10   -2.840040196998068E-3   1.602512278398614E-3  
 2.006400000000000E10   -2.116499868233079E-3   1.962090497491536E-3  
 2.006600000000000E10   -1.559197094958322E-3   2.019407003428097E-3  
 2.006800000000000E10   -1.217543146067104E-3   1.980562234458364E-3  
 2.007000000000000E10   -1.045678441849664E-3   2.026746811253238E-3  
 2.007200000000000E10   -8.406004139774101E-4   2.259387120167599E-3  
 2.007400000000000E10   -4.178652845978462E-4   2.537488098037832E-3  
 2.007600000000000E10    2.174625955780761E-4   2.628855389991293E-3  
 2.007800000000000E10    8.723811529588277E-4   2.400414201856396E-3  
 2.008000000000000E10    1.346236491506850E-3   1.940521356983134E-3  
 2.008200000000000E10    1.543709183295752E-3   1.335940872790453E-3  
 2.008400000000000E10    1.354293291238539E-3   7.955688289021729E-4  
 2.008600000000000E10    9.673245202313052E-4   6.488096191731777E-4  
 2.008800000000000E10    7.590946438147423E-4   8.319582974101291E-4  
 2.009000000000000E10    8.024228528360434E-4   1.126021379604936E-3  
 2.009200000000000E10    1.179334888648656E-3   1.394985286794879E-3  
 2.009400000000000E10    1.780778789076449E-3   1.325651409713851E-3  
 2.009600000000000E10    2.266326350056463E-3   8.993485941045723E-4  
 2.009800000000000E10    2.483760256803146E-3   3.188289772003407E-4  
 2.010000000000000E10    2.456363494634445E-3  -2.083843582910543E-4  
 2.010200000000000E10    2.362496728353479E-3  -6.291930632734741E-4  
 2.010400000000000E10    2.176656077305476E-3  -1.000719669527938E-3  
 2.010600000000000E10    1.968152266294684E-3  -1.252780080611967E-3  
 2.010800000000000E10    1.857835203006772E-3  -1.444740496851780E-3  
 2.011000000000000E10    1.805985041744547E-3  -1.759929537922604E-3  
 2.011200000000000E10    1.639151635269324E-3  -2.182795413206389E-3  
 2.011400000000000E10    1.326035915149583E-3  -2.638387298326434E-3  
 2.011600000000000E10    8.012746075559178E-4  -3.084455254591174E-3  
 2.011800000000000E10    1.989690576639403E-5  -3.300782773114833E-3  
 2.012000000000000E10   -7.220634214729531E-4  -3.155315076403413E-3  
 2.012200000000000E10   -1.262356295756260E-3  -2.870063288827186E-3  
 2.012400000000000E10   -1.686154466616795E-3  -2.600063940648128E-3  
 2.012600000000000E10   -2.126340768702420E-3  -2.297422489335324E-3  
 2.012800000000000E10   -2.517255442791883E-3  -1.880959839054188E-3  
 2.013000000000000E10   -2.781772552012110E-3  -1.438771074143365E-3  
 2.013200000000000E10   -3.067102202754699E-3  -9.998712519091774E-4  
 2.013400000000000E10   -3.358626226538126E-3  -3.624022697575713E-4  
 2.013600000000000E10   -3.391908763413445E-3   4.837434059066446E-4  
 2.013800000000000E10   -3.046469314506761E-3   1.272569413377363E-3  
 2.014000000000000E10   -2.456035398889655E-3   1.793027322244957E-3  
 2.014200000000000E10   -1.865937235121282E-3   2.006465761726838E-3  
 2.014400000000000E10   -1.340441517876806E-3   2.023629576864619E-3  
 2.014600000000000E10   -1.024599816581166E-3   1.857172939236517E-3  
 2.014800000000000E10   -9.677485113009168E-4   1.790736902528155E-3  
 2.015000000000000E10   -8.958577031821565E-4   1.947665666115045E-3  
 2.015200000000000E10   -6.947441990947191E-4   2.165499433622133E-3  
 2.015400000000000E10   -3.422133952959867E-4   2.377841193343938E-3  
 2.015600000000000E10    1.397470901950182E-4   2.412418737133712E-3  
 2.015800000000000E10    5.625781572975771E-4   2.242255487398785E-3  
 2.016000000000000E10    7.908420858582782E-4   1.990849083220518E-3  
 2.016200000000000E10    8.911254354407667E-4   1.857015633392206E-3  
 2.016400000000000E10    1.042648679921749E-3   1.801210648184757E-3  
 2.016600000000000E10    1.190121945304175E-3   1.776892492076221E-3  
 2.016800000000000E10    1.448709474600576E-3   1.858206317806042E-3  
 2.017000000000000E10    1.945541945952969E-3   1.838035229018625E-3  
 2.017200000000000E10    2.518847486993045E-3   1.531291707062427E-3  
 2.017400000000000E10    2.937338041877490E-3   9.624707817249461E-4  
 2.017600000000000E10    3.118531623234352E-3   3.074567203042040E-4  
 2.017800000000000E10    3.120739829301099E-3  -3.276655416688480E-4  
 2.018000000000000E10    2.977656508094552E-3  -9.272112856032672E-4  
 2.018200000000000E10    2.722447942137535E-3  -1.396480375716900E-3  
 2.018400000000000E10    2.503570772845436E-3  -1.820852804676067E-3  
 2.018600000000000E10    2.199793263212031E-3  -2.317255653188001E-3  
 2.018800000000000E10    1.706653493054120E-3  -2.745620739634759E-3  
 2.019000000000000E10    1.165824686464520E-3  -3.017468251471903E-3  
 2.019200000000000E10    5.614790450321673E-4  -3.253472690114086E-3  
 2.019400000000000E10   -1.828839653351253E-4  -3.313721378943251E-3  
 2.019600000000000E10   -9.204213576460327E-4  -3.136470689679738E-3  
 2.019800000000000E10   -1.577563371141384E-3  -2.701600438650744E-3  
 2.020000000000000E10   -1.955250286738630E-3  -2.098677697143069E-3  
 2.020200000000000E10   -2.072234477065964E-3  -1.545560745993790E-3  
 2.020400000000000E10   -2.058753051024712E-3  -1.092909244579022E-3  
 2.020600000000000E10   -1.946163392499273E-3  -7.911184989490812E-4  
 2.020800000000000E10   -1.905844493677127E-3  -6.407690198551634E-4  
 2.021000000000000E10   -1.965762337347792E-3  -4.646397033349876E-4  
 2.021200000000000E10   -2.019716406608990E-3  -2.562213472786280E-4  
 2.021400000000000E10   -2.117697687037750E-3  -1.195083588058485E-5  
 2.021600000000000E10   -2.165824787139341E-3   3.504757738864786E-4  
 2.021800000000000E10   -2.060363270388342E-3   7.335256819647773E-4  
 2.022000000000000E10   -1.852070648269153E-3   1.052216735932930E-3  
 2.022200000000000E10   -1.592657211190665E-3   1.226615466832839E-3  
 2.022400000000000E10   -1.434219582868671E-3   1.321010178035516E-3  
 2.022600000000000E10   -1.348376840376008E-3   1.447508810088038E-3  
 2.022800000000000E10   -1.335206872749108E-3   1.658753522119865E-3  
 2.023000000000000E10   -1.220865892303855E-3   2.091056236100418E-3  
 2.023200000000000E10   -7.850562709521642E-4   2.533753643985148E-3  
 2.023400000000000E10   -1.488099270643966E-4   2.751958424248446E-3  
 2.023600000000000E10    5.368143341642011E-4   2.695684016532736E-3  
 2.023800000000000E10    1.073184770957372E-3   2.360726982631066E-3  
 2.024000000000000E10    1.358103867976662E-3   2.001695918425182E-3  
 2.024200000000000E10    1.553294080723492E-3   1.707425319451701E-3  
 2.024400000000000E10    1.687580726776318E-3   1.459986283328890E-3  
 2.024600000000000E10    1.818264426410566E-3   1.297537731811588E-3  
 2.024800000000000E10    2.064885051323124E-3   1.157031513831038E-3  
 2.025000000000000E10    2.404766030793573E-3   8.998277495086285E-4  
 2.025200000000000E10    2.774813175086439E-3   4.347746262620032E-4  
 2.025400000000000E10    2.931844256243404E-3  -2.821869382858967E-4  
 2.025600000000000E10    2.738002923397739E-3  -1.001530020773687E-3  
 2.025800000000000E10    2.350564571787362E-3  -1.516641373458652E-3  
 2.026000000000000E10    1.902024475800127E-3  -1.854927763400347E-3  
 2.026200000000000E10    1.493312419898072E-3  -2.016553560409833E-3  
 2.026400000000000E10    1.188344882663202E-3  -2.148451571019344E-3  
 2.026600000000000E10    8.774346587202156E-4  -2.309158887070271E-3  
 2.026800000000000E10    5.468378047585304E-4  -2.469299798026498E-3  
 2.027000000000000E10    1.032045571870792E-4  -2.657469011337301E-3  
 2.027200000000000E10   -4.845109989544677E-4  -2.682893315652087E-3  
 2.027400000000000E10   -1.041785259098735E-3  -2.488326744095963E-3  
 2.027600000000000E10   -1.463405468880579E-3  -2.173562364560771E-3  
 2.027800000000000E10   -1.776997870938094E-3  -1.844841729631119E-3  
 2.028000000000000E10   -2.022625662869326E-3  -1.506251560374635E-3  
 2.028200000000000E10   -2.247611851212971E-3  -1.182842453550778E-3  
 2.028400000000000E10   -2.485948425062277E-3  -8.045801645673720E-4  
 2.028600000000000E10   -2.665702839968382E-3  -3.078492515703181E-4  
 2.028800000000000E10   -2.703931541929459E-3   2.655704505022984E-4  
 2.029000000000000E10   -2.599415938473410E-3   8.613029638604251E-4  
 2.029200000000000E10   -2.306442417457332E-3   1.417728618109300E-3  
 2.029400000000000E10   -1.856146196340338E-3   1.840846355786018E-3  
 2.029600000000000E10   -1.325208084358846E-3   2.113579783910587E-3  
 2.029800000000000E10   -7.051289890731836E-4   2.175347002821021E-3  
 2.030000000000000E10   -2.185679096541724E-4   1.916261096657427E-3  
 2.030200000000000E10   -1.049108493280523E-4   1.598473097899078E-3  
 2.030400000000000E10   -1.720547617519459E-4   1.541267601876623E-3  
 2.030600000000000E10   -1.020953022704401E-4   1.706179983074559E-3  
 2.030800000000000E10    1.467419644069634E-4   1.824857723140330E-3  
 2.031000000000000E10    4.187102650901602E-4   1.845841569090147E-3  
 2.031200000000000E10    6.710555918951647E-4   1.867022638404627E-3  
 2.031400000000000E10    1.039578225808563E-3   1.870797655292224E-3  
 2.031600000000000E10    1.447637500758800E-3   1.731312708687727E-3  
 2.031800000000000E10    1.781105551075328E-3   1.430761103552801E-3  
 2.032000000000000E10    1.970192850107488E-3   1.101123603106833E-3  
 2.032200000000000E10    2.074889680600645E-3   8.593660047749220E-4  
 2.032400000000000E10    2.288340725993485E-3   6.924325472353326E-4  
 2.032600000000000E10    2.629970444688275E-3   3.856120625349844E-4  
 2.032800000000000E10    2.948029119130454E-3  -1.343016481791612E-4  
 2.033000000000000E10    3.117972680218058E-3  -8.894672644623546E-4  
 2.033200000000000E10    2.935597072297961E-3  -1.780241622911468E-3  
 2.033400000000000E10    2.387120037765047E-3  -2.516109944769630E-3  
 2.033600000000000E10    1.933363747760010E-3  -2.800118548933555E-3  
 2.033800000000000E10    8.699689484431329E-4  -3.125950501495858E-3  
 2.034000000000000E10    2.422755261463470E-4  -3.036258897433679E-3  
 2.034200000000000E10   -2.177086912805537E-4  -2.916402447922731E-3  
 2.034400000000000E10   -6.290285375233695E-4  -2.820573178016477E-3  
 2.034600000000000E10   -1.040305603111600E-3  -2.719709595067450E-3  
 2.034800000000000E10   -1.493672496800162E-3  -2.623327389750400E-3  
 2.035000000000000E10   -2.060984893713469E-3  -2.419674366620588E-3  
 2.035200000000000E10   -2.633891387463168E-3  -1.934632457746768E-3  
 2.035400000000000E10   -2.954007169507720E-3  -1.257599666312245E-3  
 2.035600000000000E10   -3.041877333695690E-3  -6.133868016969460E-4  
 2.035800000000000E10   -2.991239083240982E-3  -1.206804473092491E-5  
 2.036000000000000E10   -2.803823108681374E-3   5.068187185068743E-4  
 2.036200000000000E10   -2.557325378106333E-3   9.117305528855435E-4  
 2.036400000000000E10   -2.280398269103450E-3   1.220570039291533E-3  
 2.036600000000000E10   -2.032549298701831E-3   1.410238466363538E-3  
 2.036800000000000E10   -1.887348250566442E-3   1.594412347508802E-3  
 2.037000000000000E10   -1.775089254671777E-3   1.881379075060932E-3  
 2.037200000000000E10   -1.533240574285572E-3   2.296272142111888E-3  
 2.037400000000000E10   -1.034637867835247E-3   2.635355107486248E-3  
 2.037600000000000E10   -4.764471029184392E-4   2.705064990247290E-3  
 2.037800000000000E10   -3.565937836468453E-5   2.623230992115023E-3  
 2.038000000000000E10    2.931438513634796E-4   2.510897177099078E-3  
 2.038200000000000E10    5.388658531125131E-4   2.435379799593378E-3  
 2.038400000000000E10    8.051348433335439E-4   2.431233292790475E-3  
 2.038600000000000E10    1.143872913226118E-3   2.440197102978458E-3  
 2.038800000000000E10    1.572196044165779E-3   2.387079404506051E-3  
 2.039000000000000E10    2.050535279084687E-3   2.269318080104796E-3  
 2.039200000000000E10    2.621782337096922E-3   2.004288913061222E-3  
 2.039400000000000E10    3.184898969153931E-3   1.502218611687882E-3  
 2.039600000000000E10    3.593854292836271E-3   7.499378292395932E-4  
 2.039800000000000E10    3.680116359006476E-3  -1.726191024508695E-4  
 2.040000000000000E10    3.348143673559398E-3  -9.835394527648151E-4  
 2.040200000000000E10    2.892682041374990E-3  -1.402480925870255E-3  
 2.040400000000000E10    2.647028229900717E-3  -1.667946666180168E-3  
 2.040600000000000E10    2.504321197507742E-3  -2.056494335080555E-3  
 2.040800000000000E10    2.220594444898544E-3  -2.620703267669421E-3  
 2.041000000000000E10    1.615702679070334E-3  -3.137058679037440E-3  
 2.041200000000000E10    8.457200522649529E-4  -3.367582701123608E-3  
 2.041400000000000E10    9.891656041693271E-5  -3.332560669262836E-3  
 2.041600000000000E10   -5.462578868631412E-4  -3.043893693060971E-3  
 2.041800000000000E10   -8.966770945806748E-4  -2.595984747771312E-3  
 2.042000000000000E10   -9.436940351777056E-4  -2.337488357299640E-3  
 2.042200000000000E10   -1.052541649658923E-3  -2.360245336514013E-3  
 2.042400000000000E10   -1.378095856821740E-3  -2.454804092714633E-3  
 2.042600000000000E10   -1.933259770193678E-3  -2.418045339714966E-3  
 2.042800000000000E10   -2.521906553963085E-3  -2.131896691373837E-3  
 2.043000000000000E10   -3.069766791376435E-3  -1.636833541762130E-3  
 2.043200000000000E10   -3.478673088398797E-3  -9.039131318000548E-4  
 2.043400000000000E10   -3.570208170761665E-3   6.782651909793750E-6  
 2.043600000000000E10   -3.270346254547254E-3   8.098170280537029E-4  
 2.043800000000000E10   -2.780949665279485E-3   1.313907235147961E-3  
 2.044000000000000E10   -2.344939323073184E-3   1.570001146813602E-3  
 2.044200000000000E10   -2.022652288921822E-3   1.731757502887904E-3  
 2.044400000000000E10   -1.752652820015763E-3   1.905396572072749E-3  
 2.044600000000000E10   -1.491473741932876E-3   2.038365442673734E-3  
 2.044800000000000E10   -1.290485137832110E-3   2.199639885306910E-3  
 2.045000000000000E10   -1.030944731879842E-3   2.469702787628329E-3  
 2.045200000000000E10   -5.952901319014254E-4   2.710300733415801E-3  
 2.045400000000000E10   -4.417285010366656E-5   2.753043969817184E-3  
 2.045600000000000E10    4.063523834410274E-4   2.604625205060950E-3  
 2.045800000000000E10    7.174566329203914E-4   2.398728154438698E-3  
 2.046000000000000E10    8.888997821666210E-4   2.248680811191415E-3  
 2.046200000000000E10    1.076053408330973E-3   2.265760407748598E-3  
 2.046400000000000E10    1.439419994705621E-3   2.317616138262330E-3  
 2.046600000000000E10    1.971306546625716E-3   2.255891377888160E-3  
 2.046800000000000E10    2.567068052788576E-3   1.960763368571615E-3  
 2.047000000000000E10    3.092653049087084E-3   1.429882038522650E-3  
 2.047200000000000E10    3.445617601643375E-3   7.004058340644855E-4  
 2.047400000000000E10    3.505507084529526E-3  -1.336351259975165E-4  
 2.047600000000000E10    3.308461688711872E-3  -9.002999724521314E-4  
 2.047800000000000E10    2.911102351514094E-3  -1.505311378737751E-3  
 2.048000000000000E10    2.425559500324322E-3  -1.919688290433476E-3  
 2.048200000000000E10    1.947885951211239E-3  -2.137165099819318E-3  
 2.048400000000000E10    1.603947368875882E-3  -2.231118717679271E-3  
 2.048600000000000E10    1.408775446269615E-3  -2.403772930488175E-3  
 2.048800000000000E10    1.096736447149773E-3  -2.752239927994433E-3  
 2.049000000000000E10    5.462378591161084E-4  -3.050590094960767E-3  
 2.049200000000000E10   -1.269820552099393E-4  -3.100462844250380E-3  
 2.049400000000000E10   -7.265638481009247E-4  -2.947073386706136E-3  
 2.049600000000000E10   -1.220006819090082E-3  -2.676822279614431E-3  
 2.049800000000000E10   -1.595659322323807E-3  -2.351681014844849E-3  
 2.050000000000000E10   -1.860887696104194E-3  -2.039092742366556E-3  
 2.050200000000000E10   -2.153785407750143E-3  -1.807207563593064E-3  
 2.050400000000000E10   -2.545561468987554E-3  -1.470402051280770E-3  
 2.050600000000000E10   -2.874536034478634E-3  -9.314232968644780E-4  
 2.050800000000000E10   -3.025385907586711E-3  -2.890288880824997E-4  
 2.051000000000000E10   -3.010371651063547E-3   4.070190684783652E-4  
 2.051200000000000E10   -2.734583023544631E-3   1.114096164841343E-3  
 2.051400000000000E10   -2.181064124782512E-3   1.634913260968012E-3  
 2.051600000000000E10   -1.526170345540676E-3   1.808153600489468E-3  
 2.051800000000000E10   -1.041644160854228E-3   1.648014631225831E-3  
 2.052000000000000E10   -8.993512860292364E-4   1.429267694748203E-3  
 2.052200000000000E10   -9.445638178824736E-4   1.414682821048723E-3  
 2.052400000000000E10   -9.323257929932926E-4   1.603744237074330E-3  
 2.052600000000000E10   -7.812407523117685E-4   1.844840608594686E-3  
 2.052800000000000E10   -5.485953275907648E-4   2.051719220033215E-3  
 2.053000000000000E10   -2.428607801032932E-4   2.277229587765940E-3  
 2.053200000000000E10    2.396907341195110E-4   2.471896816895884E-3  
 2.053400000000000E10    8.648199109751503E-4   2.400417863908742E-3  
 2.053600000000000E10    1.306012860660292E-3   2.077680862980125E-3  
 2.053800000000000E10    1.575392744227968E-3   1.786050296181606E-3  
 2.054000000000000E10    1.836764085807918E-3   1.514939334025078E-3  
 2.054200000000000E10    2.077326069321530E-3   1.206441336874793E-3  
 2.054400000000000E10    2.284796557814619E-3   8.359647853253986E-4  
 2.054600000000000E10    2.423066050849027E-3   4.056404164365644E-4  
 2.054800000000000E10    2.478323802121996E-3  -7.693290374138288E-5  
 2.055000000000000E10    2.358212359939461E-3  -5.991558758484453E-4  
 2.055200000000000E10    2.047206749449726E-3  -9.898275185813324E-4  
 2.055400000000000E10    1.719186265010065E-3  -1.141896449822795E-3  
 2.055600000000000E10    1.556836292837505E-3  -1.189256850112644E-3  
