#  HZ   S   RI   R     50.00 
! Rohde & Schwarz ZVA40 4Ports - Version 3.90 - 1145.1110k42 SN: 100403
! Date: 2023-09-28 08:14:10
! Measurement: S22 
! 
 2.000000000000000E10    2.427937536363755E-1  -1.475017439725190E-1  
 2.000200000000000E10    2.299742715568772E-1  -1.562772813257904E-1  
 2.000400000000000E10    2.232466761337357E-1  -1.611032682734604E-1  
 2.000600000000000E10    2.009532447759400E-1  -1.727556502444840E-1  
 2.000800000000000E10    1.845324534613190E-1  -1.785754406738969E-1  
 2.001000000000000E10    1.645580581450806E-1  -1.819227799370805E-1  
 2.001200000000000E10    1.476663524374314E-1  -1.887261922051316E-1  
 2.001400000000000E10    1.255875330269013E-1  -1.938754298875275E-1  
 2.001600000000000E10    1.044584165818940E-1  -1.998153998336487E-1  
 2.001800000000000E10    7.845578896662904E-2  -2.030070703486634E-1  
 2.002000000000000E10    5.409384165609361E-2  -2.042549085333634E-1  
 2.002200000000000E10    3.048651654406357E-2  -2.090077786423111E-1  
 2.002400000000000E10    6.174066319036962E-3  -2.076539644334107E-1  
 2.002600000000000E10   -1.960813152525044E-2  -2.119031214746399E-1  
 2.002800000000000E10   -4.299234695409966E-2  -2.072036111306000E-1  
 2.003000000000000E10   -6.625774427601244E-2  -2.074486859631730E-1  
 2.003200000000000E10   -9.200625906436158E-2  -2.011124708687135E-1  
 2.003400000000000E10   -1.129405811778946E-1  -1.975971302921982E-1  
 2.003600000000000E10   -1.317249432313614E-1  -1.937754856594391E-1  
 2.003800000000000E10   -1.484981575491257E-1  -1.845697602564469E-1  
 2.004000000000000E10   -1.644170323070756E-1  -1.793667485146943E-1  
 2.004200000000000E10   -1.733981749360581E-1  -1.705825458869019E-1  
 2.004400000000000E10   -1.872726116943512E-1  -1.564519583132096E-1  
 2.004600000000000E10   -1.947029447179490E-1  -1.505839514263230E-1  
 2.004800000000000E10   -2.026461169344178E-1  -1.460772383583298E-1  
 2.005000000000000E10   -2.038575180531464E-1  -1.339586305367889E-1  
 2.005200000000000E10   -2.063871759238206E-1  -1.288085140727616E-1  
 2.005400000000000E10   -2.044364941702805E-1  -1.186107911121445E-1  
 2.005600000000000E10   -2.006860974124833E-1  -1.123036031424446E-1  
 2.005800000000000E10   -1.921257641574784E-1  -1.027184917284737E-1  
 2.006000000000000E10   -1.832965615139008E-1  -9.241603292214587E-2  
 2.006200000000000E10   -1.722152817476807E-1  -8.871202839643479E-2  
 2.006400000000000E10   -1.595752848363648E-1  -8.050043867885209E-2  
 2.006600000000000E10   -1.460286498927994E-1  -7.813876460688402E-2  
 2.006800000000000E10   -1.294290326894570E-1  -6.932131778100588E-2  
 2.007000000000000E10   -1.091849204823418E-1  -6.230254184720041E-2  
 2.007200000000000E10   -9.374089024207308E-2  -5.603045208043100E-2  
 2.007400000000000E10   -6.997108672032167E-2  -5.309066316105844E-2  
 2.007600000000000E10   -4.944676747102739E-2  -4.965742876720049E-2  
 2.007800000000000E10   -3.091183563332749E-2  -4.715313352551080E-2  
 2.008000000000000E10   -6.462520161031844E-3  -4.506786503389168E-2  
 2.008200000000000E10    1.103449559574175E-2  -4.557960834063721E-2  
 2.008400000000000E10    3.269004209660149E-2  -4.430677593914033E-2  
 2.008600000000000E10    5.428943271154216E-2  -4.323866862608148E-2  
 2.008800000000000E10    6.664011884338761E-2  -4.137307823258973E-2  
 2.009000000000000E10    8.801324621063997E-2  -4.508713826253129E-2  
 2.009200000000000E10    1.038113106663704E-1  -4.895324764354517E-2  
 2.009400000000000E10    1.173322945762215E-1  -5.018315540014650E-2  
 2.009600000000000E10    1.341530746437378E-1  -5.637052514928820E-2  
 2.009800000000000E10    1.440350284206772E-1  -6.001884595909693E-2  
 2.010000000000000E10    1.550000905432816E-1  -6.153253810214235E-2  
 2.010200000000000E10    1.609281049060517E-1  -6.938223597860718E-2  
 2.010400000000000E10    1.653759514127350E-1  -7.269942269073107E-2  
 2.010600000000000E10    1.722913042369004E-1  -7.593593151897050E-2  
 2.010800000000000E10    1.679137401065445E-1  -8.101791534204483E-2  
 2.011000000000000E10    1.697276879294663E-1  -8.794823666287994E-2  
 2.011200000000000E10    1.674365211249619E-1  -9.331267586563112E-2  
 2.011400000000000E10    1.619682501661606E-1  -9.919555692556002E-2  
 2.011600000000000E10    1.529308945118027E-1  -1.039249166568337E-1  
 2.011800000000000E10    1.452414169955140E-1  -1.109946453901863E-1  
 2.012000000000000E10    1.328569362131500E-1  -1.178579682581597E-1  
 2.012200000000000E10    1.207578903258019E-1  -1.226040526399918E-1  
 2.012400000000000E10    1.053988900261650E-1  -1.277321354674454E-1  
 2.012600000000000E10    9.112551849269106E-2  -1.372365640463944E-1  
 2.012800000000000E10    7.394275890641404E-2  -1.407186474310608E-1  
 2.013000000000000E10    5.805824723275949E-2  -1.503781267265244E-1  
 2.013200000000000E10    3.636218077010728E-2  -1.550265443809205E-1  
 2.013400000000000E10    1.471929664261723E-2  -1.553321932354279E-1  
 2.013600000000000E10   -5.164580479441227E-3  -1.639962652417450E-1  
 2.013800000000000E10   -2.562282391587544E-2  -1.698318253018036E-1  
 2.014000000000000E10   -4.762808210313036E-2  -1.714131362770692E-1  
 2.014200000000000E10   -7.121280740590288E-2  -1.788454069718400E-1  
 2.014400000000000E10   -9.046736406787873E-2  -1.807649760905991E-1  
 2.014600000000000E10   -1.123813354523468E-1  -1.830608723004074E-1  
 2.014800000000000E10   -1.347176526921387E-1  -1.857920900110627E-1  
 2.015000000000000E10   -1.529684172279358E-1  -1.866663831334992E-1  
 2.015200000000000E10   -1.727009522127991E-1  -1.832549333450394E-1  
 2.015400000000000E10   -1.882606158643876E-1  -1.844674812526551E-1  
 2.015600000000000E10   -2.011069476788407E-1  -1.811859924739914E-1  
 2.015800000000000E10   -2.148942328791047E-1  -1.801261409703827E-1  
 2.016000000000000E10   -2.288969746445542E-1  -1.719154106632081E-1  
 2.016200000000000E10   -2.394915998735734E-1  -1.651879851286774E-1  
 2.016400000000000E10   -2.485331973744355E-1  -1.616556287192536E-1  
 2.016600000000000E10   -2.572356057757874E-1  -1.544754803338318E-1  
 2.016800000000000E10   -2.579911100730439E-1  -1.490572252224579E-1  
 2.017000000000000E10   -2.608708519091645E-1  -1.356444634101792E-1  
 2.017200000000000E10   -2.605033317781526E-1  -1.230633804286347E-1  
 2.017400000000000E10   -2.577967771296693E-1  -1.138049205525017E-1  
 2.017600000000000E10   -2.512396349733506E-1  -9.701673585206226E-2  
 2.017800000000000E10   -2.423370021347581E-1  -8.555791550685885E-2  
 2.018000000000000E10   -2.343564761346665E-1  -7.186694341119387E-2  
 2.018200000000000E10   -2.219943433527146E-1  -5.994743635234644E-2  
 2.018400000000000E10   -2.081516733149491E-1  -4.408317709053804E-2  
 2.018600000000000E10   -1.895137396148148E-1  -2.723695861229230E-2  
 2.018800000000000E10   -1.723322178319932E-1  -1.162994526721525E-2  
 2.019000000000000E10   -1.523741713739930E-1   3.389491810115814E-3  
 2.019200000000000E10   -1.317044632056885E-1   1.689867948012782E-2  
 2.019400000000000E10   -1.053369411134758E-1   3.278358393915749E-2  
 2.019600000000000E10   -8.684939836536408E-2   4.278696085890389E-2  
 2.019800000000000E10   -5.758570849375917E-2   5.390985929683496E-2  
 2.020000000000000E10   -3.491890318283655E-2   6.508805696070863E-2  
 2.020200000000000E10   -8.915670729500773E-3   7.785579331060030E-2  
 2.020400000000000E10    1.778385682261372E-2   8.432736650773623E-2  
 2.020600000000000E10    4.017183600903131E-2   9.035306541472628E-2  
 2.020800000000000E10    6.462491126509476E-2   9.670844983047869E-2  
 2.021000000000000E10    8.336688598890688E-2   9.877210539001467E-2  
 2.021200000000000E10    1.052858905686951E-1   1.038296045490647E-1  
 2.021400000000000E10    1.214837585082093E-1   1.033600983186722E-1  
 2.021600000000000E10    1.377642108030090E-1   1.060694551701775E-1  
 2.021800000000000E10    1.544622994432144E-1   1.026938151815949E-1  
 2.022000000000000E10    1.639215942526093E-1   1.024005631564980E-1  
 2.022200000000000E10    1.733748354359436E-1   9.922426529712682E-2  
 2.022400000000000E10    1.791699478130112E-1   9.345113690758516E-2  
 2.022600000000000E10    1.809870149886093E-1   8.945299738819887E-2  
 2.022800000000000E10    1.847406431961823E-1   8.225076773043062E-2  
 2.023000000000000E10    1.836189011341629E-1   7.049938071522904E-2  
 2.023200000000000E10    1.797624585548172E-1   6.328049573477557E-2  
 2.023400000000000E10    1.753228334066163E-1   5.684607647072412E-2  
 2.023600000000000E10    1.605409585346909E-1   4.655008349112702E-2  
 2.023800000000000E10    1.529731318823166E-1   3.971791700084878E-2  
 2.024000000000000E10    1.356262230713577E-1   3.051696454251481E-2  
 2.024200000000000E10    1.214193952873154E-1   2.020691521922876E-2  
 2.024400000000000E10    1.086429264108963E-1   1.480846033571625E-2  
 2.024600000000000E10    9.344352990036012E-2   3.259513004330875E-3  
 2.024800000000000E10    7.384720775262071E-2  -4.932141081545831E-3  
 2.025000000000000E10    5.158521541936113E-2  -1.176559091784001E-2  
 2.025200000000000E10    3.292251479703713E-2  -2.013437603208161E-2  
 2.025400000000000E10    1.531624765347099E-2  -3.171811128017426E-2  
 2.025600000000000E10   -7.779870948044302E-3  -3.719612325395966E-2  
 2.025800000000000E10   -2.894325119078732E-2  -4.554615472122956E-2  
 2.026000000000000E10   -4.825753881829836E-2  -4.781001584459878E-2  
 2.026200000000000E10   -6.588891054138948E-2  -4.953244625582505E-2  
 2.026400000000000E10   -8.484510765474704E-2  -5.905348849089052E-2  
 2.026600000000000E10   -1.001325253096886E-1  -5.837805303414537E-2  
 2.026800000000000E10   -1.169121447172471E-1  -5.912289551919367E-2  
 2.027000000000000E10   -1.338848001949921E-1  -6.321687167677689E-2  
 2.027200000000000E10   -1.389638691776810E-1  -6.266646503524209E-2  
 2.027400000000000E10   -1.532415086566849E-1  -6.367402844637302E-2  
 2.027600000000000E10   -1.611864269553223E-1  -6.120815894626810E-2  
 2.027800000000000E10   -1.699145804637680E-1  -5.757474847546579E-2  
 2.028000000000000E10   -1.727086912660752E-1  -5.650679307627299E-2  
 2.028200000000000E10   -1.734548004883957E-1  -5.708639268408396E-2  
 2.028400000000000E10   -1.741177965186310E-1  -5.117833028610039E-2  
 2.028600000000000E10   -1.721689443785325E-1  -4.222525663543321E-2  
 2.028800000000000E10   -1.674273225216370E-1  -3.936945967625809E-2  
 2.029000000000000E10   -1.613203838367768E-1  -3.134144780585290E-2  
 2.029200000000000E10   -1.583340789992676E-1  -2.430867649885464E-2  
 2.029400000000000E10   -1.447620364399262E-1  -1.431222768846941E-2  
 2.029600000000000E10   -1.336681410093918E-1  -5.452546872127773E-3  
 2.029800000000000E10   -1.207392428221474E-1   5.281571016220094E-3  
 2.030000000000000E10   -1.026241414857445E-1   1.344154187121916E-2  
 2.030200000000000E10   -8.699561728285601E-2   2.610603944995595E-2  
 2.030400000000000E10   -7.046422550520326E-2   3.774757204886628E-2  
 2.030600000000000E10   -5.289452439931108E-2   4.992627210526658E-2  
 2.030800000000000E10   -3.034668712833214E-2   6.097985132361223E-2  
 2.031000000000000E10   -1.015371099373484E-2   7.042702708206941E-2  
 2.031200000000000E10    1.117994079849721E-2   8.223114613160326E-2  
 2.031400000000000E10    3.559613907249165E-2   9.658719768755723E-2  
 2.031600000000000E10    6.036027322909166E-2   1.045712967902832E-1  
 2.031800000000000E10    8.237842109508517E-2   1.167645220528031E-1  
 2.032000000000000E10    1.024532719064866E-1   1.216610000492401E-1  
 2.032200000000000E10    1.232453394489823E-1   1.305695266375352E-1  
 2.032400000000000E10    1.429081769769364E-1   1.362021549917374E-1  
 2.032600000000000E10    1.643222766631928E-1   1.428170751739731E-1  
 2.032800000000000E10    1.800167402816925E-1   1.484300568251420E-1  
 2.033000000000000E10    1.988234212873001E-1   1.510172068254929E-1  
 2.033200000000000E10    2.159937407560197E-1   1.593239397315522E-1  
 2.033400000000000E10    2.270481774868622E-1   1.608448249158783E-1  
 2.033600000000000E10    2.412304591829300E-1   1.561598060509568E-1  
 2.033800000000000E10    2.565216089203797E-1   1.567636655572968E-1  
 2.034000000000000E10    2.644746133516236E-1   1.496797915050354E-1  
 2.034200000000000E10    2.717004420452729E-1   1.461141965041581E-1  
 2.034400000000000E10    2.788350121617280E-1   1.424583492108765E-1  
 2.034600000000000E10    2.784844652763978E-1   1.331567015591431E-1  
 2.034800000000000E10    2.802255293210907E-1   1.207067515338097E-1  
 2.035000000000000E10    2.755114323750611E-1   1.106635060562516E-1  
 2.035200000000000E10    2.745020612606202E-1   1.016906678799324E-1  
 2.035400000000000E10    2.697317439128266E-1   8.813641213666154E-2  
 2.035600000000000E10    2.618604215078889E-1   6.854974109474184E-2  
 2.035800000000000E10    2.480226466625291E-1   5.402011033015634E-2  
 2.036000000000000E10    2.368055086240616E-1   3.841481751403619E-2  
 2.036200000000000E10    2.237890528462296E-1   2.238411130836869E-2  
 2.036400000000000E10    2.078730924489976E-1   6.358095113808157E-3  
 2.036600000000000E10    1.889663391388551E-1  -1.696524398400784E-2  
 2.036800000000000E10    1.729561697162018E-1  -3.616851634079552E-2  
 2.037000000000000E10    1.518381567728501E-1  -5.396538918923571E-2  
 2.037200000000000E10    1.306024279571457E-1  -6.778060812580491E-2  
 2.037400000000000E10    1.088732730398522E-1  -9.011713354944992E-2  
 2.037600000000000E10    8.859414844515612E-2  -1.057670678700867E-1  
 2.037800000000000E10    6.365511907566453E-2  -1.192822642743378E-1  
 2.038000000000000E10    4.189365769860841E-2  -1.349645967657776E-1  
 2.038200000000000E10    1.941955868993617E-2  -1.445507675452729E-1  
 2.038400000000000E10   -1.093861227251828E-3  -1.616696262178650E-1  
 2.038600000000000E10   -1.928989342279244E-2  -1.687908021288148E-1  
 2.038800000000000E10   -3.669626358282472E-2  -1.795387906343384E-1  
 2.039000000000000E10   -5.295605233142473E-2  -1.874415086124115E-1  
 2.039200000000000E10   -6.708399265000534E-2  -1.910271138196793E-1  
 2.039400000000000E10   -8.201123371414186E-2  -1.913753467632218E-1  
 2.039600000000000E10   -9.392149298831179E-2  -1.937805194578553E-1  
 2.039800000000000E10   -9.999608590354539E-2  -1.932755020014725E-1  
 2.040000000000000E10   -1.119589518952217E-1  -1.905664642374955E-1  
 2.040200000000000E10   -1.166699786912690E-1  -1.911497221423188E-1  
 2.040400000000000E10   -1.185136095374871E-1  -1.835943768527146E-1  
 2.040600000000000E10   -1.177732968903008E-1  -1.752863576991501E-1  
 2.040800000000000E10   -1.131105302782250E-1  -1.734077003989258E-1  
 2.041000000000000E10   -1.078035237891808E-1  -1.635127293032150E-1  
 2.041200000000000E10   -9.981688298196415E-2  -1.532335559724427E-1  
 2.041400000000000E10   -9.328779090261843E-2  -1.452795291712189E-1  
 2.041600000000000E10   -8.293519017391207E-2  -1.315740260336151E-1  
 2.041800000000000E10   -7.236915714120484E-2  -1.218760435614052E-1  
 2.042000000000000E10   -5.858273579138185E-2  -1.079212298592759E-1  
 2.042200000000000E10   -3.958701725035096E-2  -9.426163549446108E-2  
 2.042400000000000E10   -2.647756868735601E-2  -8.253337063805391E-2  
 2.042600000000000E10   -6.292007661929371E-3  -6.790488961173251E-2  
 2.042800000000000E10    1.335638644670582E-2  -5.490205224182894E-2  
 2.043000000000000E10    3.167094342373276E-2  -4.334614453795625E-2  
 2.043200000000000E10    5.206707335752489E-2  -2.898998161870194E-2  
 2.043400000000000E10    6.755523931758502E-2  -1.741632974603749E-2  
 2.043600000000000E10    8.857025288306429E-2  -8.999639056233945E-3  
 2.043800000000000E10    1.092866460213356E-1  -5.202609134533402E-4  
 2.044000000000000E10    1.303079230546875E-1   8.235477427469018E-3  
 2.044200000000000E10    1.474452189297257E-1   2.105016517796422E-2  
 2.044400000000000E10    1.615438447946702E-1   2.626926302447415E-2  
 2.044600000000000E10    1.781343158032684E-1   3.111595024433232E-2  
 2.044800000000000E10    1.899198981294862E-1   3.523551994607545E-2  
 2.045000000000000E10    2.046307936258241E-1   4.098404592057420E-2  
 2.045200000000000E10    2.139128039905472E-1   3.945280433271790E-2  
 2.045400000000000E10    2.245190467850571E-1   4.186161490225793E-2  
 2.045600000000000E10    2.327201853698274E-1   4.055279737583734E-2  
 2.045800000000000E10    2.368020136186372E-1   3.177271997807789E-2  
 2.046000000000000E10    2.454264953595429E-1   3.111015394661999E-2  
 2.046200000000000E10    2.458088912244187E-1   2.675815167611981E-2  
 2.046400000000000E10    2.459554075715180E-1   1.683537616653157E-2  
 2.046600000000000E10    2.422761503294831E-1   8.409007050866129E-3  
 2.046800000000000E10    2.407300058043748E-1   2.864767509510518E-4  
 2.047000000000000E10    2.419437830319825E-1  -1.099487650017500E-2  
 2.047200000000000E10    2.280635188666382E-1  -2.205127537931538E-2  
 2.047400000000000E10    2.203248147122803E-1  -3.521707191651440E-2  
 2.047600000000000E10    2.096121731134186E-1  -5.040716415494348E-2  
 2.047800000000000E10    1.985419693179627E-1  -6.562008428314974E-2  
 2.048000000000000E10    1.869601504615021E-1  -8.005223202917101E-2  
 2.048200000000000E10    1.681102062572251E-1  -9.847601388463215E-2  
 2.048400000000000E10    1.537979148985672E-1  -1.140167343574334E-1  
 2.048600000000000E10    1.348179668486557E-1  -1.323161332395783E-1  
 2.048800000000000E10    1.199338404936981E-1  -1.482971405807343E-1  
 2.049000000000000E10    9.695197774164585E-2  -1.662386900193940E-1  
 2.049200000000000E10    8.137181155754091E-2  -1.813929521041336E-1  
 2.049400000000000E10    6.154317046759035E-2  -1.963190060245515E-1  
 2.049600000000000E10    4.477461879598809E-2  -2.076222288145600E-1  
 2.049800000000000E10    2.265342157266904E-2  -2.229279229255296E-1  
 2.050000000000000E10    7.856074257580760E-3  -2.372544938936082E-1  
 2.050200000000000E10   -1.037960917361570E-2  -2.474879985732575E-1  
 2.050400000000000E10   -2.622300297777939E-2  -2.598746906025392E-1  
 2.050600000000000E10   -4.452594504961015E-2  -2.643793104691773E-1  
 2.050800000000000E10   -6.116592002267077E-2  -2.674924559117279E-1  
 2.051000000000000E10   -7.449777162900927E-2  -2.750818340240480E-1  
 2.051200000000000E10   -8.641227654645541E-2  -2.738499908334504E-1  
 2.051400000000000E10   -9.525494944802096E-2  -2.790969813240509E-1  
 2.051600000000000E10   -1.077959898772736E-1  -2.783664313022156E-1  
 2.051800000000000E10   -1.116606633341332E-1  -2.734817102444458E-1  
 2.052000000000000E10   -1.214882184600449E-1  -2.710127435328828E-1  
 2.052200000000000E10   -1.248624688056183E-1  -2.620166637354127E-1  
 2.052400000000000E10   -1.271751697862931E-1  -2.529432653109742E-1  
 2.052600000000000E10   -1.279006224184647E-1  -2.421115621507111E-1  
 2.052800000000000E10   -1.247362968277207E-1  -2.311219853339768E-1  
 2.053000000000000E10   -1.206012138033486E-1  -2.130504381513672E-1  
 2.053200000000000E10   -1.140012012984734E-1  -1.968744629611893E-1  
 2.053400000000000E10   -1.072058009154091E-1  -1.820867174749909E-1  
 2.053600000000000E10   -1.005570264230347E-1  -1.647358002673035E-1  
 2.053800000000000E10   -9.116691862647630E-2  -1.495210424579010E-1  
 2.054000000000000E10   -7.954101294852449E-2  -1.324458238525773E-1  
 2.054200000000000E10   -6.565367208199313E-2  -1.139940074920655E-1  
 2.054400000000000E10   -5.011748468973733E-2  -9.659634479025271E-2  
 2.054600000000000E10   -3.514128440489770E-2  -7.720352400069429E-2  
 2.054800000000000E10   -1.992033824053383E-2  -5.917065437178803E-2  
 2.055000000000000E10   -2.901155036869526E-3  -3.906231488264085E-2  
 2.055200000000000E10    1.010059954316092E-2  -2.450870082080842E-2  
 2.055400000000000E10    2.749383092092515E-2  -1.530339873586989E-2  
 2.055600000000000E10    4.278588784702683E-2  -2.904226433699247E-3  
