#  HZ   S   RI   R     50.00 
! Rohde & Schwarz ZVA40 4Ports - Version 3.90 - 1145.1110k42 SN: 100403
! Date: 2023-09-28 08:07:59
! Measurement: S22 
! 
 2.000000000000000E10    2.418334628582002E-1  -1.488996032953263E-1  
 2.000200000000000E10    2.339387793779374E-1  -1.561852123737335E-1  
 2.000400000000000E10    2.195854822397232E-1  -1.630779113769532E-1  
 2.000600000000000E10    2.053769248723985E-1  -1.697682956218720E-1  
 2.000800000000000E10    1.844691754341126E-1  -1.757469280719757E-1  
 2.001000000000000E10    1.656338836908341E-1  -1.837768455982208E-1  
 2.001200000000000E10    1.472630543947220E-1  -1.946185980558396E-1  
 2.001400000000000E10    1.236330983638764E-1  -1.926660142183304E-1  
 2.001600000000000E10    1.015557667016983E-1  -1.971535758972168E-1  
 2.001800000000000E10    7.764000507593155E-2  -2.029597375631333E-1  
 2.002000000000000E10    5.425974314212800E-2  -2.067764695644379E-1  
 2.002200000000000E10    2.722126252651215E-2  -2.065715802669526E-1  
 2.002400000000000E10    5.371478067338467E-3  -2.063105607271195E-1  
 2.002600000000000E10   -1.859147262275220E-2  -2.043798879861832E-1  
 2.002800000000000E10   -4.527857706546784E-2  -2.087335811853409E-1  
 2.003000000000000E10   -7.162565186023713E-2  -2.044644844770432E-1  
 2.003200000000000E10   -9.102023190259936E-2  -2.007980395078660E-1  
 2.003400000000000E10   -1.106961273312569E-1  -1.954381402730942E-1  
 2.003600000000000E10   -1.338352470636368E-1  -1.939770713329315E-1  
 2.003800000000000E10   -1.491469986200333E-1  -1.832133060932160E-1  
 2.004000000000000E10   -1.631529294013978E-1  -1.796653993368149E-1  
 2.004200000000000E10   -1.755973403930665E-1  -1.677232129812241E-1  
 2.004400000000000E10   -1.861914099216462E-1  -1.541021582126618E-1  
 2.004600000000000E10   -1.960515918970108E-1  -1.511801923990250E-1  
 2.004800000000000E10   -2.008402499437333E-1  -1.436919080257416E-1  
 2.005000000000000E10   -2.027774709224701E-1  -1.344111139535904E-1  
 2.005200000000000E10   -2.075999576568604E-1  -1.293361068964005E-1  
 2.005400000000000E10   -2.023897061109543E-1  -1.207473108768463E-1  
 2.005600000000000E10   -2.004631515502930E-1  -1.076124984502793E-1  
 2.005800000000000E10   -1.920462556600571E-1  -1.007928525805474E-1  
 2.006000000000000E10   -1.850633289098740E-1  -9.371957964897157E-2  
 2.006200000000000E10   -1.708718744516373E-1  -8.409471364021304E-2  
 2.006400000000000E10   -1.576896790981293E-1  -7.863299823999406E-2  
 2.006600000000000E10   -1.445238336324692E-1  -7.353679792881013E-2  
 2.006800000000000E10   -1.284010103702545E-1  -6.923122708797456E-2  
 2.007000000000000E10   -1.084159777879715E-1  -6.230985054969788E-2  
 2.007200000000000E10   -8.928155132532122E-2  -5.646527866125108E-2  
 2.007400000000000E10   -7.000163893699647E-2  -4.983778549432755E-2  
 2.007600000000000E10   -4.879997470378877E-2  -4.893067132234576E-2  
 2.007800000000000E10   -2.921495389938355E-2  -4.600737537145615E-2  
 2.008000000000000E10   -1.008667245060206E-2  -4.476782952547074E-2  
 2.008200000000000E10    1.376731726825238E-2  -4.428153569698334E-2  
 2.008400000000000E10    3.192904956936837E-2  -4.434086159467698E-2  
 2.008600000000000E10    5.064971691370011E-2  -4.683752147555353E-2  
 2.008800000000000E10    7.562126525640489E-2  -4.865324136018755E-2  
 2.009000000000000E10    8.963925269842150E-2  -4.528687674403192E-2  
 2.009200000000000E10    1.039795263528824E-1  -4.733220229148866E-2  
 2.009400000000000E10    1.212301340579987E-1  -5.504679824709893E-2  
 2.009600000000000E10    1.326989776849747E-1  -5.612900731563569E-2  
 2.009800000000000E10    1.460660684108734E-1  -5.801224342584611E-2  
 2.010000000000000E10    1.557530931949616E-1  -6.448179272413256E-2  
 2.010200000000000E10    1.603563006401062E-1  -7.052841451168061E-2  
 2.010400000000000E10    1.656495296478271E-1  -7.446051129102708E-2  
 2.010600000000000E10    1.705098684549332E-1  -7.600353404283525E-2  
 2.010800000000000E10    1.696773246049881E-1  -8.328516744375231E-2  
 2.011000000000000E10    1.704709267854691E-1  -8.714873549938203E-2  
 2.011200000000000E10    1.670817238330841E-1  -9.454343773126604E-2  
 2.011400000000000E10    1.594398619651795E-1  -1.013512816071511E-1  
 2.011600000000000E10    1.539553540229797E-1  -1.084732396841049E-1  
 2.011800000000000E10    1.450265272140503E-1  -1.097716036081314E-1  
 2.012000000000000E10    1.347145211935044E-1  -1.160150366306305E-1  
 2.012200000000000E10    1.185599990367890E-1  -1.232099521875382E-1  
 2.012400000000000E10    1.045119907736779E-1  -1.319220022439957E-1  
 2.012600000000000E10    9.085042620897295E-2  -1.367669116258621E-1  
 2.012800000000000E10    7.095820336341858E-2  -1.393034162759781E-1  
 2.013000000000000E10    5.222301391363146E-2  -1.452430412530899E-1  
 2.013200000000000E10    3.253698492646218E-2  -1.557978392124176E-1  
 2.013400000000000E10    1.665222648084164E-2  -1.596151394128799E-1  
 2.013600000000000E10   -5.284820287488402E-3  -1.651869174003601E-1  
 2.013800000000000E10   -2.579393105804921E-2  -1.702168947935105E-1  
 2.014000000000000E10   -5.243256054520609E-2  -1.720473219156266E-1  
 2.014200000000000E10   -7.034076340198518E-2  -1.769180871725083E-1  
 2.014400000000000E10   -8.956620659828188E-2  -1.785169582605363E-1  
 2.014600000000000E10   -1.128851453542710E-1  -1.829663758754730E-1  
 2.014800000000000E10   -1.327099024295807E-1  -1.812440106868744E-1  
 2.015000000000000E10   -1.524507813215256E-1  -1.837351870536804E-1  
 2.015200000000000E10   -1.705002140998840E-1  -1.835056807041168E-1  
 2.015400000000000E10   -1.864729407310486E-1  -1.819665747880936E-1  
 2.015600000000000E10   -2.009736975908280E-1  -1.765916896104813E-1  
 2.015800000000000E10   -2.153619022607804E-1  -1.790441092014313E-1  
 2.016000000000000E10   -2.295686742305756E-1  -1.747244109869004E-1  
 2.016200000000000E10   -2.404863897562028E-1  -1.658377110481263E-1  
 2.016400000000000E10   -2.518957412719727E-1  -1.605640582084656E-1  
 2.016600000000000E10   -2.550274198293687E-1  -1.506550218105316E-1  
 2.016800000000000E10   -2.585408898353577E-1  -1.435654738426209E-1  
 2.017000000000000E10   -2.584639434337617E-1  -1.363611584663391E-1  
 2.017200000000000E10   -2.637556119441987E-1  -1.232536384105682E-1  
 2.017400000000000E10   -2.582744058132172E-1  -1.091785886406899E-1  
 2.017600000000000E10   -2.526745413303376E-1  -9.918176357746127E-2  
 2.017800000000000E10   -2.439589653015137E-1  -8.273201746940614E-2  
 2.018000000000000E10   -2.338338588237763E-1  -7.066718648672105E-2  
 2.018200000000000E10   -2.197508050441743E-1  -5.480495745539666E-2  
 2.018400000000000E10   -2.035121335268021E-1  -4.080974482893944E-2  
 2.018600000000000E10   -1.892800863981247E-1  -2.413038862645626E-2  
 2.018800000000000E10   -1.718698923349381E-1  -1.028429136946798E-2  
 2.019000000000000E10   -1.505981495618820E-1   3.517750684358180E-3  
 2.019200000000000E10   -1.289727755308151E-1   1.584080339223146E-2  
 2.019400000000000E10   -1.085312417030335E-1   3.044662166535854E-2  
 2.019600000000000E10   -8.104874477386477E-2   4.556949521303177E-2  
 2.019800000000000E10   -5.811919602155687E-2   5.725749093294145E-2  
 2.020000000000000E10   -3.147635582089425E-2   6.601868184804918E-2  
 2.020200000000000E10   -4.403122482448818E-3   7.695418835878375E-2  
 2.020400000000000E10    1.920665327906609E-2   8.170492119789125E-2  
 2.020600000000000E10    4.281596599221230E-2   9.242212480306626E-2  
 2.020800000000000E10    6.237186829447747E-2   9.460697728395463E-2  
 2.021000000000000E10    8.199877779483795E-2   9.985085064172747E-2  
 2.021200000000000E10    1.019343024253845E-1   1.055521406173706E-1  
 2.021400000000000E10    1.224951646566391E-1   1.078542354345322E-1  
 2.021600000000000E10    1.417138543367386E-1   1.082649462342263E-1  
 2.021800000000000E10    1.514674475193024E-1   1.018761685252190E-1  
 2.022000000000000E10    1.651206411123276E-1   9.907628306150439E-2  
 2.022200000000000E10    1.730985442638398E-1   9.459055404663087E-2  
 2.022400000000000E10    1.823940021276475E-1   9.064681599140168E-2  
 2.022600000000000E10    1.838465620756150E-1   8.616433811187746E-2  
 2.022800000000000E10    1.850173610210419E-1   8.074381604194643E-2  
 2.023000000000000E10    1.825813435554505E-1   7.149870573282241E-2  
 2.023200000000000E10    1.788171584129334E-1   6.097144600152971E-2  
 2.023400000000000E10    1.738780396938324E-1   5.191668430566789E-2  
 2.023600000000000E10    1.621019574642182E-1   4.524329490661622E-2  
 2.023800000000000E10    1.497351144313813E-1   3.777640687227250E-2  
 2.024000000000000E10    1.388707151889801E-1   2.745364263355733E-2  
 2.024200000000000E10    1.202527094244957E-1   2.431893429458142E-2  
 2.024400000000000E10    1.098928448438645E-1   1.078603982776404E-2  
 2.024600000000000E10    9.117510639429094E-2   1.159429772011936E-3  
 2.024800000000000E10    7.198842570781709E-2  -9.200961772352459E-3  
 2.025000000000000E10    5.628182446360590E-2  -1.197195625007153E-2  
 2.025200000000000E10    3.304329850077629E-2  -2.150801506638527E-2  
 2.025400000000000E10    1.169599002152682E-2  -3.125934670567513E-2  
 2.025600000000000E10   -8.667809179425241E-3  -4.128668945431711E-2  
 2.025800000000000E10   -3.060748769640923E-2  -4.323708729743958E-2  
 2.026000000000000E10   -5.416814397573472E-2  -4.693659796714784E-2  
 2.026200000000000E10   -6.561498953104020E-2  -5.270051750540734E-2  
 2.026400000000000E10   -8.795440170764923E-2  -6.002763392925263E-2  
 2.026600000000000E10   -1.035857499957085E-1  -5.831926130056382E-2  
 2.026800000000000E10   -1.168714289188385E-1  -5.702165615558626E-2  
 2.027000000000000E10   -1.309495064258576E-1  -6.312418618202211E-2  
 2.027200000000000E10   -1.463955251216889E-1  -5.983750694394112E-2  
 2.027400000000000E10   -1.511753705501557E-1  -6.174404956102372E-2  
 2.027600000000000E10   -1.653777084350586E-1  -5.821985484957696E-2  
 2.027800000000000E10   -1.681930477380753E-1  -6.270517224073410E-2  
 2.028000000000000E10   -1.735052356243134E-1  -5.558285536170007E-2  
 2.028200000000000E10   -1.737584376811981E-1  -5.350222708582879E-2  
 2.028400000000000E10   -1.762361836910248E-1  -4.847330625653268E-2  
 2.028600000000000E10   -1.732405839204788E-1  -4.183643125295640E-2  
 2.028800000000000E10   -1.695771693706513E-1  -3.563496060371400E-2  
 2.029000000000000E10   -1.623781477689743E-1  -2.766808398962022E-2  
 2.029200000000000E10   -1.546419848203659E-1  -2.342895621955395E-2  
 2.029400000000000E10   -1.438334270715714E-1  -1.487411276996136E-2  
 2.029600000000000E10   -1.317387504816056E-1  -5.254143324494362E-3  
 2.029800000000000E10   -1.171434286952019E-1   7.645437133312226E-3  
 2.030000000000000E10   -1.043570176959038E-1   1.441337929964066E-2  
 2.030200000000000E10   -8.900647729635239E-2   2.473334071338177E-2  
 2.030400000000000E10   -6.820376917123797E-2   3.935958621799947E-2  
 2.030600000000000E10   -5.109315373301507E-2   5.121514774560930E-2  
 2.030800000000000E10   -2.872995399534703E-2   6.358209211826325E-2  
 2.031000000000000E10   -6.980612000823022E-3   7.392439172267915E-2  
 2.031200000000000E10    1.181147544085980E-2   8.602223464250566E-2  
 2.031400000000000E10    3.602018869817258E-2   9.645481045246125E-2  
 2.031600000000000E10    5.979108672738077E-2   1.039653526067734E-1  
 2.031800000000000E10    7.982792731523516E-2   1.163913710951805E-1  
 2.032000000000000E10    1.006262595534325E-1   1.221205379366875E-1  
 2.032200000000000E10    1.254118734717369E-1   1.300529659271240E-1  
 2.032400000000000E10    1.431330956220627E-1   1.370935755252838E-1  
 2.032600000000000E10    1.647366058111191E-1   1.443086826801300E-1  
 2.032800000000000E10    1.810318542242050E-1   1.505832103252411E-1  
 2.033000000000000E10    2.023919851779938E-1   1.536205808639527E-1  
 2.033200000000000E10    2.199379869461060E-1   1.537606656789780E-1  
 2.033400000000000E10    2.312407425642014E-1   1.572880394458771E-1  
 2.033600000000000E10    2.436544658422470E-1   1.570063276529312E-1  
 2.033800000000000E10    2.562934396266938E-1   1.550871653318405E-1  
 2.034000000000000E10    2.649279804706574E-1   1.538793034076691E-1  
 2.034200000000000E10    2.699190156459809E-1   1.451435898542404E-1  
 2.034400000000000E10    2.752933796882630E-1   1.397644383668900E-1  
 2.034600000000000E10    2.774266707897187E-1   1.334024898529053E-1  
 2.034800000000000E10    2.758227171421051E-1   1.208089894056321E-1  
 2.035000000000000E10    2.770208263397218E-1   1.137949126958847E-1  
 2.035200000000000E10    2.735868988990784E-1   1.006368322730065E-1  
 2.035400000000000E10    2.667356931209565E-1   8.295427286624910E-2  
 2.035600000000000E10    2.588927927017212E-1   7.283760033845901E-2  
 2.035800000000000E10    2.491387667655945E-1   4.948403996229173E-2  
 2.036000000000000E10    2.353097802877427E-1   4.088839195370675E-2  
 2.036200000000000E10    2.214334870338440E-1   1.977991564273834E-2  
 2.036400000000000E10    2.021943693876267E-1   2.872815737128258E-3  
 2.036600000000000E10    1.899609965801240E-1  -1.931805691272021E-2  
 2.036800000000000E10    1.712035547494888E-1  -3.752879751324654E-2  
 2.037000000000000E10    1.501498487472535E-1  -5.404154172539712E-2  
 2.037200000000000E10    1.277680325031281E-1  -7.177209808826447E-2  
 2.037400000000000E10    1.056465275883675E-1  -8.714068595170975E-2  
 2.037600000000000E10    8.492750939130783E-2  -1.052310042619706E-1  
 2.037800000000000E10    6.426884013414386E-2  -1.202596290588379E-1  
 2.038000000000000E10    4.341435421705246E-2  -1.313231500625610E-1  
 2.038200000000000E10    2.176541789770127E-2  -1.481040311336518E-1  
 2.038400000000000E10    4.549567576497789E-4  -1.573544058322907E-1  
 2.038600000000000E10   -2.118358244895936E-2  -1.687907619237900E-1  
 2.038800000000000E10   -3.533974854350091E-2  -1.783985078811646E-1  
 2.039000000000000E10   -5.273072392344476E-2  -1.838407175064087E-1  
 2.039200000000000E10   -7.081193343400956E-2  -1.886345627784729E-1  
 2.039400000000000E10   -8.547208600044251E-2  -1.934076456308365E-1  
 2.039600000000000E10   -9.663863906860354E-2  -1.956839282035828E-1  
 2.039800000000000E10   -1.040550593495369E-1  -1.908325060129166E-1  
 2.040000000000000E10   -1.117130542874337E-1  -1.885078744649887E-1  
 2.040200000000000E10   -1.134529872298241E-1  -1.865946021080018E-1  
 2.040400000000000E10   -1.151317242980004E-1  -1.829228711128235E-1  
 2.040600000000000E10   -1.152933560132980E-1  -1.774085877418518E-1  
 2.040800000000000E10   -1.130265933513642E-1  -1.698074666023254E-1  
 2.041000000000000E10   -1.087080675721169E-1  -1.636387840032578E-1  
 2.041200000000000E10   -1.030537341833115E-1  -1.535250900268555E-1  
 2.041400000000000E10   -9.449953243732455E-2  -1.425867743492127E-1  
 2.041600000000000E10   -8.347570561170579E-2  -1.318855139017106E-1  
 2.041800000000000E10   -6.966044147014619E-2  -1.173474373340607E-1  
 2.042000000000000E10   -5.726367987990381E-2  -1.076637994289399E-1  
 2.042200000000000E10   -4.435362373590470E-2  -9.042960020303728E-2  
 2.042400000000000E10   -2.213228161036969E-2  -7.894533417224886E-2  
 2.042600000000000E10   -5.345350744575263E-3  -6.781056882143022E-2  
 2.042800000000000E10    1.376178975552321E-2  -5.625338656902314E-2  
 2.043000000000000E10    3.420729846358300E-2  -4.441116380095482E-2  
 2.043200000000000E10    5.219066498279573E-2  -3.001441103816033E-2  
 2.043400000000000E10    7.119606657028199E-2  -2.050089766979218E-2  
 2.043600000000000E10    8.936353172063830E-2  -8.980942626297474E-3  
 2.043800000000000E10    1.073579456090927E-1   4.003554403781897E-4  
 2.044000000000000E10    1.327470382928849E-1   1.271568057835102E-2  
 2.044200000000000E10    1.448491325616837E-1   1.686889048963786E-2  
 2.044400000000000E10    1.660044793367386E-1   2.291223036646844E-2  
 2.044600000000000E10    1.745712983608246E-1   3.128280363082886E-2  
 2.044800000000000E10    1.935649372577667E-1   3.154076977670194E-2  
 2.045000000000000E10    2.039859439134598E-1   3.648935354351998E-2  
 2.045200000000000E10    2.186232891559601E-1   3.907366920113565E-2  
 2.045400000000000E10    2.283519983768464E-1   3.808508100509644E-2  
 2.045600000000000E10    2.345020500659943E-1   3.899652058482171E-2  
 2.045800000000000E10    2.393410267829895E-1   3.541362038254739E-2  
 2.046000000000000E10    2.478771815776826E-1   3.531553595066071E-2  
 2.046200000000000E10    2.498908010005951E-1   2.391491555571557E-2  
 2.046400000000000E10    2.480822436571122E-1   1.632145913541317E-2  
 2.046600000000000E10    2.457195565223694E-1   1.018370183855295E-2  
 2.046800000000000E10    2.473458889007568E-1   2.258505262061954E-3  
 2.047000000000000E10    2.411268128395081E-1  -8.917458292841914E-3  
 2.047200000000000E10    2.278051518201829E-1  -2.431995697319508E-2  
 2.047400000000000E10    2.206489733457566E-1  -3.913470765352250E-2  
 2.047600000000000E10    2.106547155618668E-1  -5.293951403498651E-2  
 2.047800000000000E10    1.968858002662659E-1  -7.046063817739487E-2  
 2.048000000000000E10    1.848545043230057E-1  -8.143001977205276E-2  
 2.048200000000000E10    1.710612321615219E-1  -1.011128080844879E-1  
 2.048400000000000E10    1.511574938535691E-1  -1.177559938549996E-1  
 2.048600000000000E10    1.331457980394364E-1  -1.302245866894722E-1  
 2.048800000000000E10    1.184412056684494E-1  -1.523908201932907E-1  
 2.049000000000000E10    1.015207632780075E-1  -1.652693670034409E-1  
 2.049200000000000E10    8.039878746271136E-2  -1.836942827463150E-1  
 2.049400000000000E10    5.987466412782670E-2  -1.970233340024949E-1  
 2.049600000000000E10    4.244355213642122E-2  -2.085353579998017E-1  
 2.049800000000000E10    2.370376215279103E-2  -2.242638767004014E-1  
 2.050000000000000E10    3.379799147928134E-3  -2.399632008552552E-1  
 2.050200000000000E10   -1.562293863892555E-2  -2.472540632247925E-1  
 2.050400000000000E10   -2.963275916874410E-2  -2.539021160125733E-1  
 2.050600000000000E10   -4.278369651436806E-2  -2.636634456634522E-1  
 2.050800000000000E10   -5.995699292421343E-2  -2.711194436073304E-1  
 2.051000000000000E10   -7.521492716073991E-2  -2.732806969642640E-1  
 2.051200000000000E10   -8.375077928304675E-2  -2.727764500617981E-1  
 2.051400000000000E10   -9.539017351865772E-2  -2.788848438739777E-1  
 2.051600000000000E10   -1.046451465606690E-1  -2.752282472610474E-1  
 2.051800000000000E10   -1.120038042306900E-1  -2.693332849502564E-1  
 2.052000000000000E10   -1.196205707788468E-1  -2.637408312797547E-1  
 2.052200000000000E10   -1.272601393342019E-1  -2.566099627017975E-1  
 2.052400000000000E10   -1.233391519188881E-1  -2.480302540302277E-1  
 2.052600000000000E10   -1.225896718859673E-1  -2.396077788591385E-1  
 2.052800000000000E10   -1.235287421464920E-1  -2.270063531875611E-1  
 2.053000000000000E10   -1.189492992281914E-1  -2.162952325105668E-1  
 2.053200000000000E10   -1.169164236783982E-1  -2.006461551189423E-1  
 2.053400000000000E10   -1.079431802988053E-1  -1.815608332395554E-1  
 2.053600000000000E10   -1.008609674334526E-1  -1.662935626506806E-1  
 2.053800000000000E10   -9.052394483089447E-2  -1.507115242481232E-1  
 2.054000000000000E10   -7.929949237108233E-2  -1.305249099731446E-1  
 2.054200000000000E10   -6.100175461769106E-2  -1.098183325767517E-1  
 2.054400000000000E10   -4.835106790661813E-2  -9.132490708827974E-2  
 2.054600000000000E10   -3.597819548845292E-2  -7.548957461118699E-2  
 2.054800000000000E10   -2.025897543728352E-2  -5.727310120463373E-2  
 2.055000000000000E10   -1.739095387607813E-3  -4.374813570380211E-2  
 2.055200000000000E10    1.380938871353865E-2  -2.442292555868626E-2  
 2.055400000000000E10    2.851567694544793E-2  -1.171592528820038E-2  
 2.055600000000000E10    4.082637965679169E-2  -2.276652071624995E-3  
