#  HZ   S   RI   R     50.00 
! Rohde & Schwarz ZVA40 4Ports - Version 3.90 - 1145.1110k42 SN: 100403
! Date: 2023-09-28 08:20:55
! Measurement: S22 
! 
 2.000000000000000E10    2.399652197790146E-1  -1.481836554098130E-1  
 2.000200000000000E10    2.334999555587769E-1  -1.555230521440506E-1  
 2.000400000000000E10    2.201425023841858E-1  -1.629688024902344E-1  
 2.000600000000000E10    2.028561090373993E-1  -1.711752240133286E-1  
 2.000800000000000E10    1.851152973937989E-1  -1.777171826744080E-1  
 2.001000000000000E10    1.677742554044724E-1  -1.822176414823532E-1  
 2.001200000000000E10    1.452107314109803E-1  -1.863287716865540E-1  
 2.001400000000000E10    1.217007798290253E-1  -1.935551567220688E-1  
 2.001600000000000E10    1.052990080976487E-1  -1.958562474393845E-1  
 2.001800000000000E10    7.883320280313494E-2  -1.984148569583893E-1  
 2.002000000000000E10    5.687183537006380E-2  -2.008135657978058E-1  
 2.002200000000000E10    2.955994006752968E-2  -2.073419997739793E-1  
 2.002400000000000E10    4.575297012850645E-3  -2.105257906103135E-1  
 2.002600000000000E10   -1.898485553026200E-2  -2.050390470504762E-1  
 2.002800000000000E10   -4.049011887073518E-2  -2.083778754663468E-1  
 2.003000000000000E10   -6.448637934207918E-2  -2.016006410741807E-1  
 2.003200000000000E10   -8.746317740678790E-2  -2.047449176883698E-1  
 2.003400000000000E10   -1.106749252319336E-1  -1.971532005071640E-1  
 2.003600000000000E10   -1.322268668127060E-1  -1.935962139511109E-1  
 2.003800000000000E10   -1.460305409479142E-1  -1.847868673229218E-1  
 2.004000000000000E10   -1.613068133783341E-1  -1.785480708265305E-1  
 2.004200000000000E10   -1.742659775209428E-1  -1.687310034608841E-1  
 2.004400000000000E10   -1.854753220796585E-1  -1.554839823532105E-1  
 2.004600000000000E10   -1.972929176282883E-1  -1.479192356681824E-1  
 2.004800000000000E10   -2.032892771959305E-1  -1.469838946294785E-1  
 2.005000000000000E10   -2.026980984687806E-1  -1.354764788055420E-1  
 2.005200000000000E10   -2.079495783615113E-1  -1.248565211558342E-1  
 2.005400000000000E10   -2.040453600311280E-1  -1.220894813632965E-1  
 2.005600000000000E10   -1.953819180917740E-1  -1.141018891334534E-1  
 2.005800000000000E10   -1.945080430746079E-1  -1.022371512460709E-1  
 2.006000000000000E10   -1.856518503379822E-1  -9.387046352148058E-2  
 2.006200000000000E10   -1.735550621557236E-1  -8.868789754629136E-2  
 2.006400000000000E10   -1.622584167528153E-1  -8.282693419933321E-2  
 2.006600000000000E10   -1.441065378284455E-1  -7.529765412330629E-2  
 2.006800000000000E10   -1.294205202102661E-1  -6.983269130706789E-2  
 2.007000000000000E10   -1.132778780388832E-1  -6.316147115468979E-2  
 2.007200000000000E10   -9.248132413148881E-2  -5.663085298061372E-2  
 2.007400000000000E10   -7.231362820148470E-2  -5.178527791023255E-2  
 2.007600000000000E10   -5.125123712182046E-2  -5.324657844305041E-2  
 2.007800000000000E10   -3.028892540395260E-2  -5.033977500438692E-2  
 2.008000000000000E10   -8.004588176980614E-3  -4.807600236415865E-2  
 2.008200000000000E10    1.096797436803580E-2  -4.392810104727745E-2  
 2.008400000000000E10    3.264643403887749E-2  -4.305357217550279E-2  
 2.008600000000000E10    5.111945572614670E-2  -4.519024545311928E-2  
 2.008800000000000E10    6.902337429761889E-2  -4.290485017418862E-2  
 2.009000000000000E10    8.808690715551379E-2  -4.689866312623025E-2  
 2.009200000000000E10    1.031467030978203E-1  -5.167797141075136E-2  
 2.009400000000000E10    1.190839711523056E-1  -5.282849098086358E-2  
 2.009600000000000E10    1.293233416461945E-1  -5.310379817247392E-2  
 2.009800000000000E10    1.466696894598008E-1  -5.863057511329652E-2  
 2.010000000000000E10    1.525412657737732E-1  -6.081443413972856E-2  
 2.010200000000000E10    1.605216952037812E-1  -6.795062103033067E-2  
 2.010400000000000E10    1.655671420526505E-1  -6.967307892084124E-2  
 2.010600000000000E10    1.701752999734879E-1  -7.591556850910189E-2  
 2.010800000000000E10    1.701411420726776E-1  -8.367776782035830E-2  
 2.011000000000000E10    1.685226107072830E-1  -8.728903328657152E-2  
 2.011200000000000E10    1.659976042366028E-1  -9.368688879966736E-2  
 2.011400000000000E10    1.580706182003022E-1  -1.010254794335366E-1  
 2.011600000000000E10    1.554435675907135E-1  -1.038602342367172E-1  
 2.011800000000000E10    1.435597047805786E-1  -1.103388671088219E-1  
 2.012000000000000E10    1.309086210584641E-1  -1.139651722407341E-1  
 2.012200000000000E10    1.206857227945328E-1  -1.220036941742898E-1  
 2.012400000000000E10    1.076066414093972E-1  -1.264361175203324E-1  
 2.012600000000000E10    9.157986248493195E-2  -1.333925950908661E-1  
 2.012800000000000E10    7.315012964725495E-2  -1.410246444082260E-1  
 2.013000000000000E10    5.475965054273607E-2  -1.472130519056321E-1  
 2.013200000000000E10    3.424408681035043E-2  -1.540081143283844E-1  
 2.013400000000000E10    1.687710452854634E-2  -1.593406884860993E-1  
 2.013600000000000E10   -6.633720572441818E-3  -1.640249847507477E-1  
 2.013800000000000E10   -2.857091744542123E-2  -1.653856011533738E-1  
 2.014000000000000E10   -4.598192057132722E-2  -1.734556010150910E-1  
 2.014200000000000E10   -7.071703305244446E-2  -1.760218133974076E-1  
 2.014400000000000E10   -9.126289548873903E-2  -1.819752304410935E-1  
 2.014600000000000E10   -1.098388114619256E-1  -1.783968248033524E-1  
 2.014800000000000E10   -1.347365634584427E-1  -1.827345656919480E-1  
 2.015000000000000E10   -1.508833641004563E-1  -1.824533843755722E-1  
 2.015200000000000E10   -1.645875145721436E-1  -1.842228294420243E-1  
 2.015400000000000E10   -1.871215230369569E-1  -1.805594402074814E-1  
 2.015600000000000E10   -2.009048742055894E-1  -1.801268748855591E-1  
 2.015800000000000E10   -2.169735491561890E-1  -1.772724950075150E-1  
 2.016000000000000E10   -2.252792383813859E-1  -1.734393255281449E-1  
 2.016200000000000E10   -2.419016018152237E-1  -1.674584326124192E-1  
 2.016400000000000E10   -2.475858890008927E-1  -1.603683833312989E-1  
 2.016600000000000E10   -2.543646762800217E-1  -1.527472713851929E-1  
 2.016800000000000E10   -2.578434975624085E-1  -1.469267301750183E-1  
 2.017000000000000E10   -2.597282730007172E-1  -1.348189560461044E-1  
 2.017200000000000E10   -2.646605678653717E-1  -1.219058969974518E-1  
 2.017400000000000E10   -2.594233561801911E-1  -1.140575237035752E-1  
 2.017600000000000E10   -2.515009152698517E-1  -1.009179003834725E-1  
 2.017800000000000E10   -2.459510527038575E-1  -8.563369058370592E-2  
 2.018000000000000E10   -2.346497215795518E-1  -7.263192012310028E-2  
 2.018200000000000E10   -2.229400020790101E-1  -5.363056980729104E-2  
 2.018400000000000E10   -2.100039419794083E-1  -4.418504263997078E-2  
 2.018600000000000E10   -1.938428216838837E-1  -2.730019971609116E-2  
 2.018800000000000E10   -1.721159177303314E-1  -1.223018782228232E-2  
 2.019000000000000E10   -1.538676487636567E-1   3.067036904394631E-5  
 2.019200000000000E10   -1.318371627998352E-1   1.431288510918618E-2  
 2.019400000000000E10   -1.108946432638168E-1   2.881203134357930E-2  
 2.019600000000000E10   -8.476977185010912E-2   4.296359904766083E-2  
 2.019800000000000E10   -5.902950996518137E-2   5.521969945430758E-2  
 2.020000000000000E10   -3.192694191336632E-2   6.825287274360659E-2  
 2.020200000000000E10   -7.655782321691514E-3   7.635675879001619E-2  
 2.020400000000000E10    2.029550988852978E-2   8.387557575702670E-2  
 2.020600000000000E10    4.020241073489189E-2   8.987267252206804E-2  
 2.020800000000000E10    6.220023524880411E-2   9.624033650875093E-2  
 2.021000000000000E10    8.229552965164186E-2   1.013949915170670E-1  
 2.021200000000000E10    1.034226594948769E-1   1.045426672840119E-1  
 2.021400000000000E10    1.241883685064316E-1   1.040691779446602E-1  
 2.021600000000000E10    1.399848995733262E-1   1.033807589721680E-1  
 2.021800000000000E10    1.513788904857636E-1   1.016064305901528E-1  
 2.022000000000000E10    1.650704300546647E-1   9.975831353902817E-2  
 2.022200000000000E10    1.714742404651642E-1   9.686411954402927E-2  
 2.022400000000000E10    1.802744590091706E-1   9.507074792623524E-2  
 2.022600000000000E10    1.811389059829712E-1   8.883139241456987E-2  
 2.022800000000000E10    1.845530861234666E-1   8.080657092094423E-2  
 2.023000000000000E10    1.828981651735306E-1   7.441101282835008E-2  
 2.023200000000000E10    1.813829115772248E-1   6.657634899616242E-2  
 2.023400000000000E10    1.739745428752900E-1   5.462866217374802E-2  
 2.023600000000000E10    1.664384102869034E-1   4.714924585580826E-2  
 2.023800000000000E10    1.563213885688782E-1   3.689149324417115E-2  
 2.024000000000000E10    1.411280701160431E-1   2.914658781409264E-2  
 2.024200000000000E10    1.255243616724015E-1   2.040191727042199E-2  
 2.024400000000000E10    1.083487641477585E-1   1.312019521653652E-2  
 2.024600000000000E10    9.053632449388505E-2   5.987573808655144E-3  
 2.024800000000000E10    7.289734544515611E-2  -6.196137090921402E-3  
 2.025000000000000E10    5.233419267892838E-2  -1.654986260890961E-2  
 2.025200000000000E10    3.526026342630387E-2  -2.026803019046784E-2  
 2.025400000000000E10    1.251675304859877E-2  -2.829121812880039E-2  
 2.025600000000000E10   -8.973951528519394E-3  -3.476195748388768E-2  
 2.025800000000000E10   -2.586725185573102E-2  -4.244693936347962E-2  
 2.026000000000000E10   -4.818483522534371E-2  -4.587365176081659E-2  
 2.026200000000000E10   -6.612516834497453E-2  -5.023140447854997E-2  
 2.026400000000000E10   -8.308814819335939E-2  -5.510428983211518E-2  
 2.026600000000000E10   -1.002627745914460E-1  -5.526308084726335E-2  
 2.026800000000000E10   -1.184040452098847E-1  -5.957674282789231E-2  
 2.027000000000000E10   -1.321248829936982E-1  -6.391580902099611E-2  
 2.027200000000000E10   -1.451285910654068E-1  -6.254581259727479E-2  
 2.027400000000000E10   -1.543269368076325E-1  -6.272047324657441E-2  
 2.027600000000000E10   -1.596101256513596E-1  -5.685626329779626E-2  
 2.027800000000000E10   -1.674768201017380E-1  -5.770956946015358E-2  
 2.028000000000000E10   -1.726080606079102E-1  -5.639740634322167E-2  
 2.028200000000000E10   -1.726025152778626E-1  -5.332654459476472E-2  
 2.028400000000000E10   -1.745722816514969E-1  -5.126951972603799E-2  
 2.028600000000000E10   -1.713349816370011E-1  -4.153033685445787E-2  
 2.028800000000000E10   -1.685707729196549E-1  -3.922575894236566E-2  
 2.029000000000000E10   -1.641438687419892E-1  -2.816627011418343E-2  
 2.029200000000000E10   -1.546935104370117E-1  -2.034322132825852E-2  
 2.029400000000000E10   -1.460704270410538E-1  -1.540682647556067E-2  
 2.029600000000000E10   -1.336478257131577E-1  -5.221042598634960E-3  
 2.029800000000000E10   -1.176762856578827E-1   4.982437052428723E-3  
 2.030000000000000E10   -1.034907460689545E-1   1.784565235674381E-2  
 2.030200000000000E10   -8.616790312290193E-2   2.620862824141980E-2  
 2.030400000000000E10   -7.237464956998828E-2   3.526696522712708E-2  
 2.030600000000000E10   -4.937917529106142E-2   4.689842573642732E-2  
 2.030800000000000E10   -3.006090653240681E-2   6.250621863007547E-2  
 2.031000000000000E10   -9.480854416787626E-3   7.286948541641236E-2  
 2.031200000000000E10    1.285299449056387E-2   8.182266761541369E-2  
 2.031400000000000E10    3.738229919314385E-2   9.118301849126818E-2  
 2.031600000000000E10    5.724991277575494E-2   1.061290109443665E-1  
 2.031800000000000E10    8.001091033697130E-2   1.172914111924172E-1  
 2.032000000000000E10    1.019551019716263E-1   1.258188347816468E-1  
 2.032200000000000E10    1.224067645025254E-1   1.285327078962326E-1  
 2.032400000000000E10    1.454128106546402E-1   1.396803862714768E-1  
 2.032600000000000E10    1.622645196008683E-1   1.431102430105210E-1  
 2.032800000000000E10    1.821010012006760E-1   1.465660855484009E-1  
 2.033000000000000E10    2.012272935676575E-1   1.550208536577225E-1  
 2.033200000000000E10    2.170611590719224E-1   1.559523863172531E-1  
 2.033400000000000E10    2.293771706438065E-1   1.575844718503952E-1  
 2.033600000000000E10    2.413307255220414E-1   1.564032612895966E-1  
 2.033800000000000E10    2.549124324703217E-1   1.509813512086868E-1  
 2.034000000000000E10    2.667383380889893E-1   1.485665863037110E-1  
 2.034200000000000E10    2.742039265537263E-1   1.473841509294510E-1  
 2.034400000000000E10    2.739659645938873E-1   1.410153708839417E-1  
 2.034600000000000E10    2.800456769275665E-1   1.342651663160324E-1  
 2.034800000000000E10    2.792229112339020E-1   1.218337608838082E-1  
 2.035000000000000E10    2.766041102313996E-1   1.097805716085434E-1  
 2.035200000000000E10    2.739736212062837E-1   9.936987275123596E-2  
 2.035400000000000E10    2.702760312843323E-1   8.753331878900529E-2  
 2.035600000000000E10    2.621384203720093E-1   7.165222697973252E-2  
 2.035800000000000E10    2.468887492942811E-1   5.461490181803704E-2  
 2.036000000000000E10    2.357160187339783E-1   3.886438911795617E-2  
 2.036200000000000E10    2.239630637979508E-1   1.900660959839821E-2  
 2.036400000000000E10    2.050485080146790E-1   4.263964865282179E-3  
 2.036600000000000E10    1.867301835298539E-1  -1.543979795694351E-2  
 2.036800000000000E10    1.675839629030228E-1  -3.231948103487492E-2  
 2.037000000000000E10    1.519434381055832E-1  -5.769487047791482E-2  
 2.037200000000000E10    1.295487990140915E-1  -7.145532648324969E-2  
 2.037400000000000E10    1.086050944256783E-1  -8.690255431890490E-2  
 2.037600000000000E10    8.569042937040330E-2  -1.064323796749115E-1  
 2.037800000000000E10    6.482704067945481E-2  -1.215949245357514E-1  
 2.038000000000000E10    4.232789845585824E-2  -1.344145904970169E-1  
 2.038200000000000E10    2.448877323389054E-2  -1.460777052164078E-1  
 2.038400000000000E10   -3.810980634838343E-3  -1.547287856817246E-1  
 2.038600000000000E10   -1.976649286329747E-2  -1.657083759403229E-1  
 2.038800000000000E10   -3.868964192867280E-2  -1.753572690677643E-1  
 2.039000000000000E10   -5.306807233214379E-2  -1.863739679765702E-1  
 2.039200000000000E10   -6.962179474592209E-2  -1.910694835758210E-1  
 2.039400000000000E10   -8.231547037839891E-2  -1.905572446203232E-1  
 2.039600000000000E10   -9.518985310316087E-2  -1.946127981710435E-1  
 2.039800000000000E10   -1.038036670470238E-1  -1.923211012649537E-1  
 2.040000000000000E10   -1.082121931576729E-1  -1.933029076051713E-1  
 2.040200000000000E10   -1.182180193519593E-1  -1.880001431274415E-1  
 2.040400000000000E10   -1.170806952714920E-1  -1.858898046588898E-1  
 2.040600000000000E10   -1.185405430436135E-1  -1.793419341230393E-1  
 2.040800000000000E10   -1.097444641661644E-1  -1.721127236366272E-1  
 2.041000000000000E10   -1.073934499740601E-1  -1.616363504171372E-1  
 2.041200000000000E10   -1.033075483751297E-1  -1.553079626989365E-1  
 2.041400000000000E10   -9.400136088848116E-2  -1.446547975015640E-1  
 2.041600000000000E10   -8.633647438764576E-2  -1.312438041782379E-1  
 2.041800000000000E10   -7.264565227508546E-2  -1.200457991766930E-1  
 2.042000000000000E10   -5.856627582192422E-2  -1.069998788213730E-1  
 2.042200000000000E10   -4.220615483999254E-2  -9.417658855915072E-2  
 2.042400000000000E10   -2.494356795966626E-2  -8.209884103775025E-2  
 2.042600000000000E10   -9.629404021203519E-3  -7.337064068078997E-2  
 2.042800000000000E10    1.082979632407427E-2  -5.721653242826463E-2  
 2.043000000000000E10    2.927642176330090E-2  -4.345550130009653E-2  
 2.043200000000000E10    4.919988705277444E-2  -3.538054088830949E-2  
 2.043400000000000E10    7.184631939649584E-2  -1.805998493790627E-2  
 2.043600000000000E10    8.756938007354739E-2  -8.575799669325354E-3  
 2.043800000000000E10    1.099817647600174E-1   1.324001164436341E-3  
 2.044000000000000E10    1.287886531090737E-1   1.394889914393425E-2  
 2.044200000000000E10    1.477518099164963E-1   1.881450812637806E-2  
 2.044400000000000E10    1.637889612007142E-1   2.623184186339379E-2  
 2.044600000000000E10    1.809155487203598E-1   2.995347555279732E-2  
 2.044800000000000E10    1.953286195898056E-1   3.594420666694641E-2  
 2.045000000000000E10    2.027780128908158E-1   3.601865342736246E-2  
 2.045200000000000E10    2.169888446664811E-1   3.991925853610040E-2  
 2.045400000000000E10    2.241878973340989E-1   3.688392029285431E-2  
 2.045600000000000E10    2.359190523004532E-1   3.666245785951615E-2  
 2.045800000000000E10    2.409364504718781E-1   3.507871503710747E-2  
 2.046000000000000E10    2.477487269783021E-1   2.909382412612439E-2  
 2.046200000000000E10    2.471729437017441E-1   2.424677200853825E-2  
 2.046400000000000E10    2.449830731964112E-1   1.836631876230240E-2  
 2.046600000000000E10    2.427392905998231E-1   1.224983473777771E-2  
 2.046800000000000E10    2.455566870737076E-1  -1.804103736877442E-3  
 2.047000000000000E10    2.406119957590103E-1  -8.272512558102610E-3  
 2.047200000000000E10    2.331403189659119E-1  -2.297795089900494E-2  
 2.047400000000000E10    2.219769415283203E-1  -4.034832577705384E-2  
 2.047600000000000E10    2.098643334627152E-1  -5.263483504295350E-2  
 2.047800000000000E10    1.977807227754593E-1  -6.961004255533219E-2  
 2.048000000000000E10    1.852074940776825E-1  -8.085842721700669E-2  
 2.048200000000000E10    1.645042196798325E-1  -9.852364552021029E-2  
 2.048400000000000E10    1.513638773250580E-1  -1.114504207253456E-1  
 2.048600000000000E10    1.389034792327881E-1  -1.309098067998886E-1  
 2.048800000000000E10    1.165326901888848E-1  -1.478784321403504E-1  
 2.049000000000000E10    9.923341364860537E-2  -1.633531900548935E-1  
 2.049200000000000E10    8.239158112764360E-2  -1.821040763092042E-1  
 2.049400000000000E10    6.480012625455857E-2  -1.958478086948395E-1  
 2.049600000000000E10    4.329562529206277E-2  -2.101185922956467E-1  
 2.049800000000000E10    2.537494838774205E-2  -2.236053030776978E-1  
 2.050000000000000E10    8.128145666718484E-3  -2.377076389312745E-1  
 2.050200000000000E10   -7.226283996570856E-3  -2.469183980321885E-1  
 2.050400000000000E10   -3.001845137715340E-2  -2.562403411674500E-1  
 2.050600000000000E10   -4.608057129502298E-2  -2.619072317790986E-1  
 2.050800000000000E10   -6.092708970069886E-2  -2.698456107711793E-1  
 2.051000000000000E10   -7.617046865940096E-2  -2.731830098342896E-1  
 2.051200000000000E10   -8.611320777416232E-2  -2.750303332996368E-1  
 2.051400000000000E10   -9.475063042640687E-2  -2.785816525459290E-1  
 2.051600000000000E10   -1.069053092098237E-1  -2.770913727951050E-1  
 2.051800000000000E10   -1.117067997741700E-1  -2.722205560398102E-1  
 2.052000000000000E10   -1.220154235816002E-1  -2.636526880931855E-1  
 2.052200000000000E10   -1.261195111942292E-1  -2.619058554935455E-1  
 2.052400000000000E10   -1.247659009647370E-1  -2.492303074026108E-1  
 2.052600000000000E10   -1.218585976791382E-1  -2.414624875545502E-1  
 2.052800000000000E10   -1.228683261299134E-1  -2.274864140605927E-1  
 2.053000000000000E10   -1.199767805671692E-1  -2.149940015029908E-1  
 2.053200000000000E10   -1.171333562207222E-1  -2.007020463800431E-1  
 2.053400000000000E10   -1.080438317966461E-1  -1.830172493934631E-1  
 2.053600000000000E10   -1.011368534421921E-1  -1.661847216415406E-1  
 2.053800000000000E10   -8.850545728683473E-2  -1.486861592435837E-1  
 2.054000000000000E10   -7.438309505462647E-2  -1.304107542419434E-1  
 2.054200000000000E10   -6.384675515890123E-2  -1.146509765076638E-1  
 2.054400000000000E10   -5.016314264535904E-2  -9.545052903413775E-2  
 2.054600000000000E10   -3.393319311261177E-2  -7.677369597196579E-2  
 2.054800000000000E10   -2.104740363180638E-2  -5.771260975360872E-2  
 2.055000000000000E10   -5.580090932548047E-3  -4.373402703404427E-2  
 2.055200000000000E10    7.916381583958864E-3  -2.489726164758206E-2  
 2.055400000000000E10    2.774302935361863E-2  -1.283156868964434E-2  
 2.055600000000000E10    4.299509880423547E-2  -6.267900370061376E-5  
