#  HZ   S   RI   R     50.00 
! Rohde & Schwarz ZVA40 4Ports - Version 3.90 - 1145.1110k42 SN: 100403
! Date: 2023-09-21 06:59:51
! Measurements: S11 S21 S12 S22 
! 
 2.000000000000000E10   -1.400580369176428E-1  -1.259829285034821E-1  -2.395252148173033E-4   2.670008048771427E-4  -2.906851670916168E-4   4.552340409340635E-4   1.647913048174156E-1   2.933035585691455E-2  
 2.000200040008002E10   -1.209676756497952E-1  -1.246454698422427E-1  -3.995982128871223E-5   3.015616703784894E-4  -6.813275856115665E-4   8.736330415880925E-4   1.612165181525251E-1   2.961961527924749E-2  
 2.000400080016003E10   -1.014460999283378E-1  -1.215934612499301E-1   1.391793956026222E-5   1.879233472843178E-4  -6.741357552579300E-4  -5.073884784246414E-4   1.499249694693569E-1   3.721199188346799E-2  
 2.000600120024005E10   -8.038239483599717E-2  -1.186288746656493E-1  -1.738786595550164E-5   3.820835723735579E-4   3.628876152283138E-5  -4.319421982306127E-4   1.527340396317393E-1   3.181235095417816E-2  
 2.000800160032007E10   -5.925287018059135E-2  -1.150577251945564E-1   1.190966691770375E-4   2.246132852956436E-4   6.753969481672428E-4  -2.917386318716373E-4   1.446593506102251E-1   3.717760383414313E-2  
 2.001000200040008E10   -4.039671933915789E-2  -1.094049001084664E-1   1.113157382137153E-4   7.239036274550478E-5  -5.532721961812691E-5   4.490813277997095E-4   1.367915017410234E-1   3.984409463740683E-2  
 2.001200240048010E10   -2.309862064103122E-2  -1.027963106226026E-1   2.023266511031819E-4  -1.168346365635842E-5  -2.138532063687094E-6   2.883342180036232E-4   1.284031639410181E-1   3.660636782753682E-2  
 2.001400280056011E10   -7.315730163952927E-3  -9.222497796956913E-2   1.537490686689726E-4   5.707287853219182E-5  -6.686600386799748E-6  -2.283200982910573E-4   1.205996511994154E-1   3.557280250987992E-2  
 2.001600320064013E10    7.825540845084454E-3  -7.939968321811002E-2   1.704721471197686E-4   5.035566121147707E-5   5.140605318377869E-4   2.174939438900823E-4   1.152688523408408E-1   3.540488324220217E-2  
 2.001800360072014E10    2.294506497390810E-2  -6.304787853920552E-2   2.246557406195891E-4   2.820410397036793E-5   6.096186132218239E-4   4.131047489460316E-4   1.100498310930511E-1   3.752209942159340E-2  
 2.002000400080016E10    3.919554220468317E-2  -4.465216700096857E-2   2.330057088291174E-4   2.173715917062257E-5  -4.057696928110091E-4   3.657354294374222E-5   9.558299309668464E-2   3.573235846695932E-2  
 2.002200440088018E10    5.540863076368860E-2  -2.661454326477483E-2   3.626778507846035E-4   2.235401823064227E-5   5.762849886376255E-5  -8.288210091826115E-4   9.642968338465707E-2   3.195093594993412E-2  
 2.002400480096019E10    7.038805288110925E-2  -9.417860340477492E-3   3.269925665696644E-4  -3.596204937973103E-4   2.865375989474415E-4  -8.059849718429280E-4   8.253377272990616E-2   2.879562964370970E-2  
 2.002600520104021E10    8.227033253814223E-2   6.841295489121837E-3   1.639844593792195E-4  -4.322483968953868E-4  -5.423843097435486E-6  -9.704732407622187E-4   7.947941691778071E-2   2.094297014187823E-2  
 2.002800560112022E10    9.024445142464288E-2   2.412974009012971E-2   1.354985062816622E-4  -3.497738568244385E-4  -5.475073864468978E-4  -9.152687822446767E-4   6.971917800014416E-2   1.661628424052532E-2  
 2.003000600120024E10    9.522024188547462E-2   4.262887914762752E-2   1.497493150533681E-4  -4.451825708874895E-4  -4.501375944440655E-4  -1.578196827152735E-4   6.122819087467853E-2   1.267542824761781E-2  
 2.003200640128025E10    9.769820985449820E-2   6.404641892408772E-2   5.844777682972077E-5  -5.778392431835711E-4   5.924564656360867E-4  -2.458675932106522E-5   5.286535276455384E-2   9.654886984059903E-3  
 2.003400680136027E10    1.001859303235081E-1   8.641694353239776E-2  -1.402543292111156E-4  -5.524527693415219E-4  -1.559906561705247E-4  -6.293785448313331E-4   4.568295486591996E-2   7.124240475648605E-3  
 2.003600720144029E10    1.024068798675852E-1   1.099351384727953E-1  -2.231068472437788E-4  -4.076598786593466E-4  -1.093571268032340E-4   2.415641308769703E-4   4.673244228647783E-2  -1.150366241254040E-3  
 2.003800760152031E10    1.030658255812660E-1   1.320509175511024E-1  -9.400050246033980E-5  -3.025238381708830E-4   3.081558478950275E-4   3.776369653863617E-4   4.346932080838216E-2  -1.363767328228428E-2  
 2.004000800160032E10    1.028907729409965E-1   1.525787773842989E-1   1.962344621744332E-4  -3.805219633578207E-4   5.795592097087523E-4   1.052751721014746E-4   3.742267460051891E-2  -1.814994313597289E-2  
 2.004200840168034E10    1.004087489581124E-1   1.704883081913722E-1   2.311770610807100E-4  -7.251154266734829E-4  -5.340796486290354E-5  -1.975835835866724E-3   3.638707083213538E-2  -2.240811604371475E-2  
 2.004400880176035E10    9.513517741746236E-2   1.861040692942805E-1  -2.408263524433673E-5  -1.192087142592993E-3   6.061970252522876E-5  -2.164185258179414E-3   3.663982092854981E-2  -3.276146983729990E-2  
 2.004600920184037E10    8.623014868436801E-2   2.020183238937792E-1  -3.428131284196747E-4  -1.260319673275978E-3  -1.748906085805647E-3  -1.423131629211138E-3   3.376110909140547E-2  -4.921997825548440E-2  
 2.004800960192038E10    7.516885703080482E-2   2.168249779056317E-1  -6.271140994795800E-4  -1.369148284994934E-3  -6.454435451769970E-4  -1.052915232015879E-3   2.856336346916544E-2  -6.031253023809979E-2  
 2.005001000200040E10    6.266400480860286E-2   2.318135585161036E-1  -1.010715254270037E-3  -1.226294451319705E-3  -1.167729321274191E-3  -8.946248521634517E-4   2.628717855128527E-2  -6.688252703261584E-2  
 2.005201040208042E10    4.915610737260182E-2   2.460137311845559E-1  -1.368352942684600E-3  -1.081373691326753E-3  -2.455807482471320E-3  -7.858577518625867E-4   2.999854006455381E-2  -7.188499338293879E-2  
 2.005401080216043E10    3.617948261700238E-2   2.590879638514335E-1  -1.448236527031875E-3  -8.018162874243978E-4  -2.110858416479184E-3  -1.393347144474335E-4   3.552417462611323E-2  -9.012669249964048E-2  
 2.005601120224045E10    2.363805203944005E-2   2.682636432962521E-1  -1.346726172771119E-3  -5.131901874792167E-4  -8.485716915436412E-4   9.464412929023388E-4   3.580952741204557E-2  -1.030348813539688E-1  
 2.005801160232047E10    9.405576779646164E-3   2.742337692663909E-1  -1.510755694921986E-3  -6.211386007052023E-4  -1.330523422888411E-3  -1.356111780731343E-3   3.341052797926986E-2  -1.103563752533162E-1  
 2.006001200240048E10   -5.998870054220058E-3   2.766277461794342E-1  -1.658228670380993E-3  -5.679343384302592E-4  -2.144512166038931E-3   6.968379005993344E-5   3.260393875898951E-2  -1.197537495991004E-1  
 2.006201240248050E10   -2.339432330657580E-2   2.775107318339464E-1  -1.852727510736358E-3  -4.189722787950615E-4  -2.387288926132465E-3  -9.717133539222395E-4   3.833868995370198E-2  -1.200310563774502E-1  
 2.006401280256051E10   -4.182356893838359E-2   2.770918989147603E-1  -2.074758410889578E-3  -2.203545454015525E-4  -1.800719743078025E-3  -1.161462881703355E-4   4.193433849333579E-2  -1.278068147838549E-1  
 2.006601320264053E10   -6.091780298872735E-2   2.763072353900948E-1  -2.257816125533978E-3  -9.793194202303539E-5  -2.576760219024720E-3   1.446027775670863E-3   4.391818978727055E-2  -1.341114958222729E-1  
 2.006801360272054E10   -7.751117921695293E-2   2.750023432465484E-1  -2.549967663637529E-3   3.080206827265239E-4  -2.471891334226905E-3   7.656778154456517E-4   5.572554450220000E-2  -1.494313038839035E-1  
 2.007001400280056E10   -9.298588826692925E-2   2.719598030169454E-1  -2.429892996039638E-3   7.419152148201384E-4  -2.229330951659950E-3   1.712189742719050E-3   5.621928579074572E-2  -1.525298924855947E-1  
 2.007201440288058E10   -1.057624107785343E-1   2.658209016378447E-1  -2.214743036387654E-3   1.234307542974115E-3  -2.369899817460924E-3   9.240894955299497E-4   6.147638107381938E-2  -1.566591705362868E-1  
 2.007401480296059E10   -1.172539890508963E-1   2.569001565884147E-1  -1.972696822278731E-3   1.299042004816006E-3  -1.683478224982809E-3   8.415929754338824E-4   7.130508766699473E-2  -1.567015897111486E-1  
 2.007601520304061E10   -1.278261068213042E-1   2.438798823450141E-1  -1.752653661000095E-3   1.329119945248179E-3  -1.384553750224122E-3   2.413186100991273E-3   7.550284899712544E-2  -1.627716291178196E-1  
 2.007801560312063E10   -1.378735736506818E-1   2.279998648920989E-1  -1.805897272239353E-3   1.149931927055913E-3  -1.105611603450504E-3   9.853945024634147E-4   7.800601280649183E-2  -1.635851254158193E-1  
 2.008001600320064E10   -1.475604198513820E-1   2.109646791434111E-1  -1.943239485651921E-3   1.190264621469267E-3  -1.659272274182045E-3   7.922380022625861E-4   8.095471218840801E-2  -1.625853551957009E-1  
 2.008201640328066E10   -1.577128088947284E-1   1.935005884488678E-1  -2.219526621144997E-3   1.527658603184642E-3  -2.128754766438733E-3   1.818183612731201E-3   9.017476067382294E-2  -1.617293807836481E-1  
 2.008401680336067E10   -1.659877952164596E-1   1.763140501334574E-1  -2.249526359219513E-3   1.945184989404983E-3  -1.618485076159242E-3   2.670400022200078E-3   1.033244123070583E-1  -1.628208984525528E-1  
 2.008601720344069E10   -1.704935858173111E-1   1.606837490569078E-1  -2.173623435649427E-3   2.250259489875043E-3  -1.782799536553542E-3   3.177033026129184E-3   1.078174626168449E-1  -1.643717258718933E-1  
 2.008801760352070E10   -1.725029884309284E-1   1.435958045686533E-1  -2.148404419022802E-3   2.594166951555320E-3  -2.255093247098769E-3   2.975422265048784E-3   1.019443007817157E-1  -1.595749186423532E-1  
 2.009001800360072E10   -1.714106352310600E-1   1.256240216476406E-1  -2.041736647552646E-3   2.898893875850585E-3  -1.538286079209824E-3   3.340622336684470E-3   1.090206001446947E-1  -1.590078842815258E-1  
 2.009201840368074E10   -1.670508156595619E-1   1.055415837239070E-1  -1.894939491994290E-3   3.477958139021338E-3  -6.793691827445303E-5   3.518617561590740E-3   1.176293518522743E-1  -1.542838998118086E-1  
 2.009401880376075E10   -1.623775328893291E-1   8.310978620205749E-2  -1.498656859708940E-3   3.942887463138891E-3  -7.791326009349832E-4   4.802845006755929E-3   1.189711517286950E-1  -1.493863785461592E-1  
 2.009601920384077E10   -1.576611944095988E-1   6.112358886931193E-2  -9.764907354782472E-4   4.211041962009931E-3  -1.348594854262238E-4   3.943734890053386E-3   1.218632738139216E-1  -1.420261321671397E-1  
 2.009801960392078E10   -1.524683404620184E-1   4.078678148025264E-2  -5.078836436842180E-4   4.654061399882481E-3   1.449841663115715E-3   4.842266876645880E-3   1.207625995328749E-1  -1.390040079372562E-1  
 2.010002000400080E10   -1.449165573528262E-1   2.229118249602194E-2   2.290065393228655E-5   4.664825158716929E-3   1.862091481905327E-3   3.549346984183582E-3   1.245390481458401E-1  -1.381868663714413E-1  
 2.010202040408081E10   -1.341538800748330E-1   5.697698084764237E-3   6.721700660828832E-4   4.634119513807187E-3   2.029476915789690E-3   4.286573775748937E-3   1.206907293776462E-1  -1.304337552616656E-1  
 2.010402080416083E10   -1.215395802938677E-1  -9.530243520546251E-3   1.110994304461336E-3   4.614037099326871E-3   1.974731578523756E-3   4.255676549202457E-3   1.254639955452229E-1  -1.257931758434691E-1  
 2.010602120424085E10   -1.053936841006184E-1  -2.437057656423412E-2   1.564673355345991E-3   4.774230077829809E-3   3.128337871647817E-3   3.631746374089193E-3   1.157230217096277E-1  -1.152422935825165E-1  
 2.010802160432087E10   -8.721752561750328E-2  -3.964617427831979E-2   2.160031533602900E-3   4.649903518812322E-3   3.877943310113383E-3   3.395656700315733E-3   1.091485085774079E-1  -1.044697956943521E-1  
 2.011002200440088E10   -6.915459576722588E-2  -5.468434105205512E-2   2.843296330272928E-3   4.263813034680758E-3   3.975447455268922E-3   4.132203600697153E-3   1.134815163202919E-1  -9.489379738228163E-2  
 2.011202240448090E10   -5.206490803370086E-2  -6.812218766804665E-2   3.233931196720750E-3   3.907207792685113E-3   3.310048923693946E-3   3.611419075948676E-3   1.036683882603266E-1  -9.049263232806493E-2  
 2.011402280456091E10   -3.486965235881234E-2  -7.932975043073356E-2   3.351033956198270E-3   3.368772918302896E-3   3.673483178120119E-3   1.992813219244952E-3   9.517865979467982E-2  -8.138674450363989E-2  
 2.011602320464093E10   -1.750636766061640E-2  -8.703226691771226E-2   3.397568977486981E-3   3.338417964971607E-3   4.736025985569763E-3   9.798847909506256E-4   9.445409694600326E-2  -8.365555718160347E-2  
 2.011802360472094E10    9.124286134889547E-4  -9.083173559405229E-2   3.718805720908795E-3   3.313462352575100E-3   3.955903399851331E-3   2.134019438362259E-3   8.484597943724340E-2  -7.389037510258927E-2  
 2.012002400480096E10    2.168620935512672E-2  -9.258940903100761E-2   4.296282145060285E-3   3.344884946688621E-3   5.016076429672996E-3   2.075800853618872E-3   8.331608840034473E-2  -6.643954020061491E-2  
 2.012202440488098E10    4.372704496944738E-2  -9.276805495309473E-2   5.003885825509125E-3   3.120597457567722E-3   6.219299727302194E-3   1.297169562119459E-3   7.873716377626921E-2  -6.351034970464720E-2  
 2.012402480496099E10    6.642900135568541E-2  -9.298073915602964E-2   5.734124794355026E-3   2.506918156983609E-3   5.873152937527923E-3   1.552236153768671E-3   6.352276793799708E-2  -6.784880368416311E-2  
 2.012602520504101E10    8.894644582211922E-2  -9.357855180814513E-2   6.116961510211794E-3   1.685257118407461E-3   6.994217966809497E-3   2.124528840787444E-4   5.797690610687454E-2  -5.824212906211700E-2  
 2.012802560512103E10    1.090247605688863E-1  -9.326529913269481E-2   6.176326962103948E-3   6.682897073730401E-4   5.220066797506267E-3  -1.700349036122347E-3   4.514262289348605E-2  -4.975810822818463E-2  
 2.013002600520104E10    1.254754522382405E-1  -9.107882761308131E-2   5.927388695174316E-3   2.451713970969771E-5   5.902915559304047E-3  -9.270185166580015E-4   3.747009425527899E-2  -5.329968458813654E-2  
 2.013202640528106E10    1.398725062154485E-1  -8.536666594602796E-2   5.793314599415254E-3  -5.445010788528030E-4   4.450643126891753E-3  -1.627419336373368E-3   2.527682967476427E-2  -5.081480183757728E-2  
 2.013402680536107E10    1.524008367679435E-1  -7.480195342588976E-2   5.588428929420875E-3  -8.707714962012374E-4   5.351608008385139E-3  -2.693422316918826E-3   1.311119097208652E-2  -4.538845622563141E-2  
 2.013602720544109E10    1.644908384768840E-1  -6.238530296174631E-2   5.418154316645957E-3  -1.220552596960648E-3   4.675900171631201E-3  -2.561797644670553E-3   9.956706833579444E-3  -5.374759344503974E-2  
 2.013802760552110E10    1.767356480950960E-1  -4.843985737475391E-2   5.385855478108966E-3  -1.713104727166515E-3   3.910802321908632E-3  -2.737619108037589E-3  -4.062018097593937E-4  -5.339259941567889E-2  
 2.014002800560112E10    1.895047217616583E-1  -3.418807212763193E-2   5.270597082417249E-3  -1.977556412424929E-3   5.107151112758956E-3  -2.978135170376246E-3  -5.504948668385736E-3  -4.599811075135944E-2  
 2.014202840568114E10    2.005557624326697E-1  -1.981160849469459E-2   5.324037101812276E-3  -2.417522112006208E-3   4.573830938366905E-3  -3.845183736236963E-3  -1.460664549823834E-2  -5.484672556283732E-2  
 2.014402880576115E10    2.099857205301804E-1  -6.784511130816620E-3   5.306574048042247E-3  -3.030587355308877E-3   4.497225873494222E-3  -4.585273051263001E-3  -2.824200244311658E-2  -5.559533489882714E-2  
 2.014602920584117E10    2.169115008542265E-1   6.642065213028229E-3   5.249604698640004E-3  -3.642561021365250E-3   3.893503481617308E-3  -4.351201559577021E-3  -4.108422235436467E-2  -6.291230222126919E-2  
 2.014802960592119E10    2.186018171660731E-1   2.067332688213888E-2   4.943864971809255E-3  -4.405544669503313E-3   3.932398233694437E-3  -5.728311462165355E-3  -4.306083191315836E-2  -7.223953594205367E-2  
 2.015003000600120E10    2.175017761200272E-1   3.610070325748009E-2   4.425760154355768E-3  -5.003860555121717E-3   2.977776089371362E-3  -6.642206790691176E-3  -4.874719192586628E-2  -7.587690357110707E-2  
 2.015203040608122E10    2.150374413428435E-1   5.314356834566983E-2   3.802512006877964E-3  -5.392963340018509E-3   1.835175923117036E-3  -5.804953188679178E-3  -4.746011470402911E-2  -7.848305852341531E-2  
 2.015403080616123E10    2.116335017223072E-1   7.119654320467721E-2   3.311242642110024E-3  -5.580145484121848E-3   1.031263434993616E-3  -5.371193565962551E-3  -5.979815174276672E-2  -8.584793878465882E-2  
 2.015603120624125E10    2.081044843741285E-1   8.776648959989733E-2   2.795313622396335E-3  -6.007979097416277E-3  -1.637193061786384E-4  -5.992647468452661E-3  -6.854353667854483E-2  -8.724727758573081E-2  
 2.015803160632127E10    2.039992410636788E-1   1.037168222707728E-1   2.103594465736534E-3  -6.499748904156190E-3   9.488003368815028E-4  -7.210433946300974E-3  -6.575972306834654E-2  -9.910897418583325E-2  
 2.016003200640128E10    1.989192696889048E-1   1.160107780334421E-1   1.287164939507592E-3  -6.652546677997154E-3  -8.668546574434983E-6  -6.247699832242708E-3  -7.426886111142064E-2  -1.051589249209443E-1  
 2.016203240648130E10    1.893575530614104E-1   1.250979199211378E-1   6.496400176247011E-4  -6.560257496049658E-3  -6.661363058196268E-4  -7.577794197085068E-3  -7.470025364878290E-2  -1.106200329605468E-1  
 2.016403280656131E10    1.758167494338430E-1   1.330946292500122E-1   1.026962018092311E-4  -6.597284309963290E-3  -2.446725608959882E-3  -6.444181581730215E-3  -8.125487074913827E-2  -1.164125483349645E-1  
 2.016603320664133E10    1.599296528331416E-1   1.418094187732672E-1  -7.226255810487882E-4  -6.542724568411193E-3  -2.554683501420112E-3  -5.644607468613368E-3  -7.376845478246910E-2  -1.303719515634348E-1  
 2.016803360672134E10    1.426421375714781E-1   1.507300480443918E-1  -1.379089517325971E-3  -6.341497565769688E-3  -3.515533649557614E-3  -6.095411964088282E-3  -7.045658991238164E-2  -1.303271786001515E-1  
 2.017003400680136E10    1.264067741421031E-1   1.596213106122957E-1  -1.962643660587353E-3  -6.032128060116486E-3  -3.072803902533885E-3  -5.353467639594149E-3  -6.903866193921733E-2  -1.392624100826078E-1  
 2.017203440688138E10    1.108492934364817E-1   1.661073583364790E-1  -2.433638351719167E-3  -5.724056351761269E-3  -3.546092636322186E-3  -3.985621633162563E-3  -6.377507518402131E-2  -1.346645658312548E-1  
 2.017403480696139E10    9.531103302727738E-2   1.695498366440505E-1  -2.596434657781089E-3  -5.541175443961856E-3  -3.854394950956237E-3  -4.404531233097846E-3  -6.131377119101785E-2  -1.390236445289496E-1  
 2.017603520704141E10    8.013921420333628E-2   1.698146963408098E-1  -3.214474519167172E-3  -5.473264270094782E-3  -4.832388554473406E-3  -6.072492638677329E-3  -5.772806218921948E-2  -1.472559053143647E-1  
 2.017803560712143E10    6.367798326737162E-2   1.664806352921184E-1  -3.743668209943265E-3  -5.228596576135822E-3  -4.670241232477846E-3  -4.634067803851817E-3  -5.452960244930839E-2  -1.601866160379413E-1  
 2.018003600720144E10    4.517156329123869E-2   1.595989298593076E-1  -4.495962587368460E-3  -4.963261932354176E-3  -5.633941793286539E-3  -4.144288972886034E-3  -4.621716862866073E-2  -1.482348006042845E-1  
 2.018203640728146E10    2.583556219710950E-2   1.536371386023016E-1  -5.256786795873094E-3  -4.332450208041852E-3  -5.656737686328730E-3  -3.727452861063661E-3  -3.948456389603441E-2  -1.578128970593558E-1  
 2.018403680736147E10    6.598467571594729E-3   1.471819381380944E-1  -5.817658625908777E-3  -3.421476481975232E-3  -7.038377594062325E-3  -1.656543203159090E-3  -3.886315855991337E-2  -1.624798181383056E-1  
 2.018603720744149E10   -1.096934725420720E-2   1.400084049183379E-1  -5.987998185480495E-3  -2.526164928372920E-3  -5.782666254244694E-3  -6.280763025823443E-4  -2.685082636479091E-2  -1.563783988825209E-1  
