#Parameters = {Hsub_bottom=0.101; Hpre1_2=0.306; Sigma_copper=58000000; C=4.48e-14; C_off=4.48e-14; C_on=0; H_add_decoupl=0.338; Hair=10; Hair_lower=10; Hpre1=0.204; Hsub1=0.508; Hsub_add1=0.168; Hsub_top2=0.762; L=0; L1=0.02; L2_buf=0.29; L_add_cut=0.66; L_off=0; L_on=1.3e-10; L_stub_low=1.5; Ldiode=0.3302; Lline_low=1; Lp=1.52; Px=5; R=2.5; R_bottom_in=0.83; R_bottom_out=0.93; R_off=2.5; R_on=5.2; W_ring_inner=0.15; WcircleInner_2=0.4; Wcut=0.9; Wp=1.52; X1Stub=-1.15; angle_stub=30; delta=0.3; deltaHAdd=0.101; deltaL1=0.14; deltaR2=0.15; deltaRCircle=0.2; deltaStubY=0.1; deltaStubY_top=0.3; delta_annual_ring=0.1; delta_edge=0.1; delta_via=0.9; delta_via_screen_center=0.25; h2_fr4=0.25; h2_prepreg=0.138; hSub=1.067; hfr4=0.102; l_add=0.76; phi=0; r_area=0.2; r_area_center=0.275; r_bottom_2=1.8; r_circle=0; r_out1=0; r_par=0.1; r_par_w=0.05; r_per=0.1; r_rez=0; r_road=0.05; r_shaped=1.15; r_shaped_2=1.2; r_shaped_low=1.2; r_via=0.1; r_via_center=0.175; r_via_wall=0.15; rad_circle=0.65; rez=0; t_pog=0; th=0.018; th2=0.204; th3=0.5; th_top=0.07; theta=0; wDiode=0.3048; w_add=0.1; wstub=0.2}
#"Frequency / GHz"	"SZmax(1),Zmax(1) (1) [Re]"	"SZmax(1),Zmax(1) (1) [Im]"	"Ref.Imp. [Re]"	"Ref.Imp. [Im]"
#---------------------------------------------------------------------------------------------------------
22.000000000000	0.82697350667914	-0.14029214082169	376.73031346177	0.00000000000000
22.007000000000	0.82190849298987	-0.16145074470265	376.73031346177	0.00000000000000
22.014000000000	0.81630854876644	-0.18256956452944	376.73031346177	0.00000000000000
22.021000000000	0.81017191741870	-0.20362954653440	376.73031346177	0.00000000000000
22.028000000000	0.80349772373867	-0.22461141741196	376.73031346177	0.00000000000000
22.035000000000	0.79628599412884	-0.24549573437720	376.73031346177	0.00000000000000
22.042000000000	0.78853767346772	-0.26626293711474	376.73031346177	0.00000000000000
22.049000000000	0.78025463842362	-0.28689340135737	376.73031346177	0.00000000000000
22.056000000000	0.77143970705007	-0.30736749381344	376.73031346177	0.00000000000000
22.063000000000	0.76209664452175	-0.32766562814351	376.73031346177	0.00000000000000
22.070000000000	0.75223016489733	-0.34776832167119	376.73031346177	0.00000000000000
22.077000000000	0.74184592882501	-0.36765625249991	376.73031346177	0.00000000000000
22.084000000000	0.73095053713729	-0.38731031669777	376.73031346177	0.00000000000000
22.091000000000	0.71955152031392	-0.40671168520597	376.73031346177	0.00000000000000
22.098000000000	0.70765732382500	-0.42584186012290	376.73031346177	0.00000000000000
22.105000000000	0.69527728939923	-0.44468273001714	376.73031346177	0.00000000000000
22.112000000000	0.68242163229617	-0.46321662392577	376.73031346177	0.00000000000000
22.119000000000	0.66910141469392	-0.48142636370293	376.73031346177	0.00000000000000
22.126000000000	0.65532851533598	-0.49929531439392	376.73031346177	0.00000000000000
22.133000000000	0.64111559561151	-0.51680743232565	376.73031346177	0.00000000000000
22.140000000000	0.62647606227250	-0.53394731062131	376.73031346177	0.00000000000000
22.147000000000	0.61142402701826	-0.55070022186860	376.73031346177	0.00000000000000
22.154000000000	0.59597426320182	-0.56705215769439	376.73031346177	0.00000000000000
22.161000000000	0.58014215993532	-0.58298986502470	376.73031346177	0.00000000000000
22.168000000000	0.56394367388939	-0.59850087883711	376.73031346177	0.00000000000000
22.175000000000	0.54739527909771	-0.61357355124295	376.73031346177	0.00000000000000
22.182000000000	0.53051391508988	-0.62819707676719	376.73031346177	0.00000000000000
22.189000000000	0.51331693368430	-0.64236151372691	376.73031346177	0.00000000000000
22.196000000000	0.49582204477813	-0.65605780164084	376.73031346177	0.00000000000000
22.203000000000	0.47804726147296	-0.66927777463607	376.73031346177	0.00000000000000
22.210000000000	0.46001084487285	-0.68201417084941	376.73031346177	0.00000000000000
22.217000000000	0.44173124888651	-0.69426063785272	376.73031346177	0.00000000000000
22.224000000000	0.42322706535667	-0.70601173416213	376.73031346177	0.00000000000000
22.231000000000	0.40451696982864	-0.71726292691911	376.73031346177	0.00000000000000
22.238000000000	0.38561966825576	-0.72801058585921	376.73031346177	0.00000000000000
22.245000000000	0.36655384492292	-0.73825197370879	376.73031346177	0.00000000000000
22.252000000000	0.34733811185077	-0.74798523317282	376.73031346177	0.00000000000000
22.259000000000	0.32799095992221	-0.75720937069702	376.73031346177	0.00000000000000
22.266000000000	0.30853071195131	-0.76592423720537	376.73031346177	0.00000000000000
22.273000000000	0.28897547789088	-0.77413050602862	376.73031346177	0.00000000000000
22.280000000000	0.26934311235115	-0.78182964825182	376.73031346177	0.00000000000000
22.287000000000	0.24965117457751	-0.78902390571811	376.73031346177	0.00000000000000
22.294000000000	0.22991689100993	-0.79571626193275	376.73031346177	0.00000000000000
22.301000000000	0.21015712052269	-0.80191041111537	376.73031346177	0.00000000000000
22.308000000000	0.19038832241799	-0.80761072564993	376.73031346177	0.00000000000000
22.315000000000	0.17062652722408	-0.81282222218085	376.73031346177	0.00000000000000
22.322000000000	0.15088731032523	-0.81755052660077	376.73031346177	0.00000000000000
22.329000000000	0.13118576842945	-0.82180183817004	376.73031346177	0.00000000000000
22.336000000000	0.11153649885966	-0.82558289300094	376.73031346177	0.00000000000000
22.343000000000	0.091953581634327	-0.82890092713099	376.73031346177	0.00000000000000
22.350000000000	0.072450564287107	-0.83176363939943	376.73031346177	0.00000000000000
22.357000000000	0.053040449358296	-0.83417915432951	376.73031346177	0.00000000000000
22.364000000000	0.033735684477100	-0.83615598520682	376.73031346177	0.00000000000000
22.371000000000	0.014548154941342	-0.83770299753074	376.73031346177	0.00000000000000
22.378000000000	-0.0045108213100660	-0.83882937300205	376.73031346177	0.00000000000000
22.385000000000	-0.023430496445078	-0.83954457419579	376.73031346177	0.00000000000000
22.392000000000	-0.042200693328160	-0.83985831005378	376.73031346177	0.00000000000000
22.399000000000	-0.060811804078451	-0.83978050231692	376.73031346177	0.00000000000000
22.406000000000	-0.079254786727676	-0.83932125300281	376.73031346177	0.00000000000000
22.413000000000	-0.097521160112368	-0.83849081302038	376.73031346177	0.00000000000000
22.420000000000	-0.11560299713606	-0.83729955199909	376.73031346177	0.00000000000000
22.427000000000	-0.13349291653806	-0.83575792939746	376.73031346177	0.00000000000000
22.434000000000	-0.15118407330436	-0.83387646694242	376.73031346177	0.00000000000000
22.441000000000	-0.16867014785454	-0.83166572243951	376.73031346177	0.00000000000000
22.448000000000	-0.18594533413611	-0.82913626498195	376.73031346177	0.00000000000000
22.455000000000	-0.20300432675400	-0.82629865157663	376.73031346177	0.00000000000000
22.462000000000	-0.21984230725904	-0.82316340519467	376.73031346177	0.00000000000000
22.469000000000	-0.23645492971438	-0.81974099424549	376.73031346177	0.00000000000000
22.476000000000	-0.25283830565374	-0.81604181346501	376.73031346177	0.00000000000000
22.483000000000	-0.26898898853982	-0.81207616620103	376.73031346177	0.00000000000000
22.490000000000	-0.28490395782510	-0.80785424807248	376.73031346177	0.00000000000000
22.497000000000	-0.30058060271159	-0.80338613197297	376.73031346177	0.00000000000000
22.504000000000	-0.31601670569948	-0.79868175438436	376.73031346177	0.00000000000000
22.511000000000	-0.33121042600852	-0.79375090296130	376.73031346177	0.00000000000000
22.518000000000	-0.34616028294972	-0.78860320534420	376.73031346177	0.00000000000000
22.525000000000	-0.36086513931856	-0.78324811915499	376.73031346177	0.00000000000000
22.532000000000	-0.37532418487495	-0.77769492312737	376.73031346177	0.00000000000000
22.539000000000	-0.38953691996892	-0.77195270932163	376.73031346177	0.00000000000000
22.546000000000	-0.40350313936542	-0.76603037637255	376.73031346177	0.00000000000000
22.553000000000	-0.41722291631596	-0.75993662371781	376.73031346177	0.00000000000000
22.560000000000	-0.43069658691918	-0.75367994675450	376.73031346177	0.00000000000000
22.567000000000	-0.44392473480764	-0.74726863287022	376.73031346177	0.00000000000000
22.574000000000	-0.45690817619298	-0.74071075829666	376.73031346177	0.00000000000000
22.581000000000	-0.46964794529715	-0.73401418573305	376.73031346177	0.00000000000000
22.588000000000	-0.48214528019297	-0.72718656268860	376.73031346177	0.00000000000000
22.595000000000	-0.49440160907330	-0.72023532049346	376.73031346177	0.00000000000000
22.602000000000	-0.50641853696438	-0.71316767392942	376.73031346177	0.00000000000000
22.609000000000	-0.51819783289523	-0.70599062143292	376.73031346177	0.00000000000000
22.616000000000	-0.52974141753212	-0.69871094582424	376.73031346177	0.00000000000000
22.623000000000	-0.54105135128387	-0.69133521551901	376.73031346177	0.00000000000000
22.630000000000	-0.55212982288118	-0.68386978617937	376.73031346177	0.00000000000000
22.637000000000	-0.56297913843099	-0.67632080276435	376.73031346177	0.00000000000000
22.644000000000	-0.57360171094412	-0.66869420194083	376.73031346177	0.00000000000000
22.651000000000	-0.58400005033324	-0.66099571481822	376.73031346177	0.00000000000000
22.658000000000	-0.59417675387587	-0.65323086997224	376.73031346177	0.00000000000000
22.665000000000	-0.60413449713579	-0.64540499672473	376.73031346177	0.00000000000000
22.672000000000	-0.61387602533501	-0.63752322864866	376.73031346177	0.00000000000000
22.679000000000	-0.62340414516720	-0.62959050726922	376.73031346177	0.00000000000000
22.686000000000	-0.63272171704230	-0.62161158593374	376.73031346177	0.00000000000000
22.693000000000	-0.64183164775168	-0.61359103382492	376.73031346177	0.00000000000000
22.700000000000	-0.65073688354180	-0.60553324009389	376.73031346177	0.00000000000000
22.707000000000	-0.65944040358463	-0.59744241809081	376.73031346177	0.00000000000000
22.714000000000	-0.66794521383177	-0.58932260967297	376.73031346177	0.00000000000000
22.721000000000	-0.67625434123953	-0.58117768957119	376.73031346177	0.00000000000000
22.728000000000	-0.68437082835168	-0.57301136979755	376.73031346177	0.00000000000000
22.735000000000	-0.69229772822643	-0.56482720407840	376.73031346177	0.00000000000000
22.742000000000	-0.70003809969431	-0.55662859229813	376.73031346177	0.00000000000000
22.749000000000	-0.70759500293347	-0.54841878494049	376.73031346177	0.00000000000000
22.756000000000	-0.71497149534889	-0.54020088751543	376.73031346177	0.00000000000000
22.763000000000	-0.72217062774253	-0.53197786496060	376.73031346177	0.00000000000000
22.770000000000	-0.72919544076098	-0.52375254600777	376.73031346177	0.00000000000000
22.777000000000	-0.73604896160808	-0.51552762750525	376.73031346177	0.00000000000000
22.784000000000	-0.74273420100964	-0.50730567868876	376.73031346177	0.00000000000000
22.791000000000	-0.74925415041796	-0.49908914539350	376.73031346177	0.00000000000000
22.798000000000	-0.75561177944425	-0.49088035420168	376.73031346177	0.00000000000000
22.805000000000	-0.76181003350703	-0.48268151651984	376.73031346177	0.00000000000000
22.812000000000	-0.76785183168525	-0.47449473258168	376.73031346177	0.00000000000000
22.819000000000	-0.77374006476515	-0.46632199537219	376.73031346177	0.00000000000000
22.826000000000	-0.77947759347007	-0.45816519446995	376.73031346177	0.00000000000000
22.833000000000	-0.78506724686305	-0.45002611980469	376.73031346177	0.00000000000000
22.840000000000	-0.79051182091229	-0.44190646532802	376.73031346177	0.00000000000000
22.847000000000	-0.79581407720995	-0.43380783259537	376.73031346177	0.00000000000000
22.854000000000	-0.80097674183511	-0.42573173425799	376.73031346177	0.00000000000000
22.861000000000	-0.80600250435218	-0.41767959746398	376.73031346177	0.00000000000000
22.868000000000	-0.81089401693636	-0.40965276716771	376.73031346177	0.00000000000000
22.875000000000	-0.81565389361810	-0.40165250934758	376.73031346177	0.00000000000000
22.882000000000	-0.82028470963893	-0.39368001413193	376.73031346177	0.00000000000000
22.889000000000	-0.82478900091135	-0.38573639883358	376.73031346177	0.00000000000000
22.896000000000	-0.82916926357580	-0.37782271089342	376.73031346177	0.00000000000000
22.903000000000	-0.83342795364819	-0.36993993073395	376.73031346177	0.00000000000000
22.910000000000	-0.83756748675150	-0.36208897452354	376.73031346177	0.00000000000000
22.917000000000	-0.84159023792577	-0.35427069685277	376.73031346177	0.00000000000000
22.924000000000	-0.84549854151047	-0.34648589332375	376.73031346177	0.00000000000000
22.931000000000	-0.84929469109427	-0.33873530305421	376.73031346177	0.00000000000000
22.938000000000	-0.85298093952678	-0.33101961109757	376.73031346177	0.00000000000000
22.945000000000	-0.85655949898773	-0.32333945078063	376.73031346177	0.00000000000000
22.952000000000	-0.86003254110890	-0.31569540596073	376.73031346177	0.00000000000000
22.959000000000	-0.86340219714456	-0.30808801320382	376.73031346177	0.00000000000000
22.966000000000	-0.86667055818650	-0.30051776388548	376.73031346177	0.00000000000000
22.973000000000	-0.86983967541967	-0.29298510621658	376.73031346177	0.00000000000000
22.980000000000	-0.87291156041496	-0.28549044719557	376.73031346177	0.00000000000000
22.987000000000	-0.87588818545579	-0.27803415448907	376.73031346177	0.00000000000000
22.994000000000	-0.87877148389534	-0.27061655824297	376.73031346177	0.00000000000000
23.001000000000	-0.88156335054135	-0.26323795282561	376.73031346177	0.00000000000000
23.008000000000	-0.88426564206589	-0.25589859850529	376.73031346177	0.00000000000000
23.015000000000	-0.88688017743741	-0.24859872306373	376.73031346177	0.00000000000000
23.022000000000	-0.88940873837262	-0.24133852334758	376.73031346177	0.00000000000000
23.029000000000	-0.89185306980597	-0.23411816675971	376.73031346177	0.00000000000000
23.036000000000	-0.89421488037467	-0.22693779269230	376.73031346177	0.00000000000000
23.043000000000	-0.89649584291705	-0.21979751390342	376.73031346177	0.00000000000000
23.050000000000	-0.89869759498276	-0.21269741783897	376.73031346177	0.00000000000000
23.057000000000	-0.90082173935273	-0.20563756790188	376.73031346177	0.00000000000000
23.064000000000	-0.90286984456763	-0.19861800467007	376.73031346177	0.00000000000000
23.071000000000	-0.90484344546302	-0.19163874706515	376.73031346177	0.00000000000000
23.078000000000	-0.90674404371017	-0.18469979347340	376.73031346177	0.00000000000000
23.085000000000	-0.90857310836095	-0.17780112282068	376.73031346177	0.00000000000000
23.092000000000	-0.91033207639581	-0.17094269560300	376.73031346177	0.00000000000000
23.099000000000	-0.91202235327376	-0.16412445487413	376.73031346177	0.00000000000000
23.106000000000	-0.91364531348325	-0.15734632719199	376.73031346177	0.00000000000000
23.113000000000	-0.91520230109307	-0.15060822352517	376.73031346177	0.00000000000000
23.120000000000	-0.91669463030246	-0.14391004012104	376.73031346177	0.00000000000000
23.127000000000	-0.91812358598968	-0.13725165933703	376.73031346177	0.00000000000000
23.134000000000	-0.91949042425814	-0.13063295043621	376.73031346177	0.00000000000000
23.141000000000	-0.92079637297970	-0.12405377034862	376.73031346177	0.00000000000000
23.148000000000	-0.92204263233437	-0.11751396439978	376.73031346177	0.00000000000000
23.155000000000	-0.92323037534596	-0.11101336700735	376.73031346177	0.00000000000000
23.162000000000	-0.92436074841308	-0.10455180234740	376.73031346177	0.00000000000000
23.169000000000	-0.92543487183523	-0.098129084991319	376.73031346177	0.00000000000000
23.176000000000	-0.92645384033344	-0.091745020514609	376.73031346177	0.00000000000000
23.183000000000	-0.92741872356511	-0.085399406078593	376.73031346177	0.00000000000000
23.190000000000	-0.92833056663284	-0.079092030986102	376.73031346177	0.00000000000000
23.197000000000	-0.92919039058689	-0.072822677212241	376.73031346177	0.00000000000000
23.204000000000	-0.92999919292097	-0.066591119911129	376.73031346177	0.00000000000000
23.211000000000	-0.93075794806131	-0.060397127899671	376.73031346177	0.00000000000000
23.218000000000	-0.93146760784864	-0.054240464119215	376.73031346177	0.00000000000000
23.225000000000	-0.93212910201305	-0.048120886076007	376.73031346177	0.00000000000000
23.232000000000	-0.93274333864154	-0.042038146261348	376.73031346177	0.00000000000000
23.239000000000	-0.93331120463812	-0.035991992552209	376.73031346177	0.00000000000000
23.246000000000	-0.93383356617644	-0.029982168593174	376.73031346177	0.00000000000000
23.253000000000	-0.93431126914485	-0.024008414160442	376.73031346177	0.00000000000000
23.260000000000	-0.93474513958376	-0.018070465508622	376.73031346177	0.00000000000000
23.267000000000	-0.93513598411540	-0.012168055701099	376.73031346177	0.00000000000000
23.274000000000	-0.93548459036585	-0.0063009149245578	376.73031346177	0.00000000000000
23.281000000000	-0.93579172737940	-0.00046877078844167	376.73031346177	0.00000000000000
23.288000000000	-0.93605814602515	0.0053286513901313	376.73031346177	0.00000000000000
23.295000000000	-0.93628457939600	0.011091628315280	376.73031346177	0.00000000000000
23.302000000000	-0.93647174319998	0.016820438454584	376.73031346177	0.00000000000000
23.309000000000	-0.93662033614389	0.022515361794037	376.73031346177	0.00000000000000
23.316000000000	-0.93673104030951	0.028176679605134	376.73031346177	0.00000000000000
23.323000000000	-0.93680452152214	0.033804674223655	376.73031346177	0.00000000000000
23.330000000000	-0.93684142971184	0.039399628839591	376.73031346177	0.00000000000000
23.337000000000	-0.93684239926715	0.044961827297711	376.73031346177	0.00000000000000
23.344000000000	-0.93680804938163	0.050491553908383	376.73031346177	0.00000000000000
23.351000000000	-0.93673898439309	0.055989093268103	376.73031346177	0.00000000000000
23.358000000000	-0.93663579411568	0.061454730089417	376.73031346177	0.00000000000000
23.365000000000	-0.93649905416501	0.066888749039715	376.73031346177	0.00000000000000
23.372000000000	-0.93632932627617	0.072291434588590	376.73031346177	0.00000000000000
23.379000000000	-0.93612715861505	0.077663070863355	376.73031346177	0.00000000000000
23.386000000000	-0.93589308608274	0.083003941512320	376.73031346177	0.00000000000000
23.393000000000	-0.93562763061337	0.088314329575566	376.73031346177	0.00000000000000
23.400000000000	-0.93533130146538	0.093594517362779	376.73031346177	0.00000000000000
23.407000000000	-0.93500459550624	0.098844786337921	376.73031346177	0.00000000000000
23.414000000000	-0.93464799749096	0.10406541701038	376.73031346177	0.00000000000000
23.421000000000	-0.93426198033428	0.10925668883227	376.73031346177	0.00000000000000
23.428000000000	-0.93384700537668	0.11441888010177	376.73031346177	0.00000000000000
23.435000000000	-0.93340352264449	0.11955226787190	376.73031346177	0.00000000000000
23.442000000000	-0.93293197110397	0.12465712786491	376.73031346177	0.00000000000000
23.449000000000	-0.93243277890966	0.12973373439165	376.73031346177	0.00000000000000
23.456000000000	-0.93190636364698	0.13478236027592	376.73031346177	0.00000000000000
23.463000000000	-0.93135313256926	0.13980327678344	376.73031346177	0.00000000000000
23.470000000000	-0.93077348282932	0.14479675355532	376.73031346177	0.00000000000000
23.477000000000	-0.93016780170565	0.14976305854575	376.73031346177	0.00000000000000
23.484000000000	-0.92953646682331	0.15470245796379	376.73031346177	0.00000000000000
23.491000000000	-0.92887984636970	0.15961521621892	376.73031346177	0.00000000000000
23.498000000000	-0.92819829930530	0.16450159587036	376.73031346177	0.00000000000000
23.505000000000	-0.92749217556939	0.16936185757982	376.73031346177	0.00000000000000
23.512000000000	-0.92676181628101	0.17419626006762	376.73031346177	0.00000000000000
23.519000000000	-0.92600755393515	0.17900506007201	376.73031346177	0.00000000000000
23.526000000000	-0.92522971259425	0.18378851231137	376.73031346177	0.00000000000000
23.533000000000	-0.92442860807526	0.18854686944947	376.73031346177	0.00000000000000
