#Parameters = {Hsub_bottom=0.101; Hpre1_2=0.306; Sigma_copper=58000000; C=0; C_off=4.48e-14; C_on=0; H_add_decoupl=0.338; Hair=10; Hair_lower=10; Hpre1=0.204; Hsub1=0.508; Hsub_add1=0.168; Hsub_top2=0.762; L=1.3e-10; L1=0.02; L2_buf=0.29; L_add_cut=0.66; L_off=0; L_on=1.3e-10; L_stub_low=1.5; Ldiode=0.3302; Lline_low=1; Lp=1.52; Px=5; R=5.2; R_bottom_in=0.83; R_bottom_out=0.93; R_off=2.5; R_on=5.2; W_ring_inner=0.15; WcircleInner_2=0.4; Wcut=0.9; Wp=1.52; X1Stub=-1.15; angle_stub=30; delta=0.3; deltaHAdd=0.101; deltaL1=0.14; deltaR2=0.15; deltaRCircle=0.2; deltaStubY=0.1; deltaStubY_top=0.3; delta_annual_ring=0.1; delta_edge=0.1; delta_via=0.9; delta_via_screen_center=0.25; h2_fr4=0.25; h2_prepreg=0.138; hSub=1.067; hfr4=0.102; l_add=0.76; phi=0; r_area=0.2; r_area_center=0.275; r_bottom_2=1.8; r_circle=0; r_out1=0; r_par=0.1; r_par_w=0.05; r_per=0.1; r_rez=0; r_road=0.05; r_shaped=1.15; r_shaped_2=1.2; r_shaped_low=1.2; r_via=0.1; r_via_center=0.175; r_via_wall=0.15; rad_circle=0.65; rez=0; t_pog=0; th=0.018; th2=0.204; th3=0.5; th_top=0.07; theta=0; wDiode=0.3048; w_add=0.1; wstub=0.2}
#"Frequency / GHz"	"SZmax(1),Zmax(1) (2) [Re]"	"SZmax(1),Zmax(1) (2) [Im]"	"Ref.Imp. [Re]"	"Ref.Imp. [Im]"
#---------------------------------------------------------------------------------------------------------
22.000000000000	0.54104826139208	0.76852740631097	376.73031346177	0.00000000000000
22.007000000000	0.54505436199494	0.76530440097347	376.73031346177	0.00000000000000
22.014000000000	0.54905119384928	0.76205351126660	376.73031346177	0.00000000000000
22.021000000000	0.55303854272797	0.75877469453486	376.73031346177	0.00000000000000
22.028000000000	0.55701619227446	0.75546791016507	376.73031346177	0.00000000000000
22.035000000000	0.56098392402860	0.75213311962688	376.73031346177	0.00000000000000
22.042000000000	0.56494151745289	0.74877028651315	376.73031346177	0.00000000000000
22.049000000000	0.56888874995936	0.74537937658021	376.73031346177	0.00000000000000
22.056000000000	0.57282539693682	0.74196035778795	376.73031346177	0.00000000000000
22.063000000000	0.57675123177875	0.73851320033969	376.73031346177	0.00000000000000
22.070000000000	0.58066602591169	0.73503787672197	376.73031346177	0.00000000000000
22.077000000000	0.58456954882419	0.73153436174410	376.73031346177	0.00000000000000
22.084000000000	0.58846156809628	0.72800263257752	376.73031346177	0.00000000000000
22.091000000000	0.59234184942959	0.72444266879493	376.73031346177	0.00000000000000
22.098000000000	0.59621015667798	0.72085445240930	376.73031346177	0.00000000000000
22.105000000000	0.60006625187878	0.71723796791254	376.73031346177	0.00000000000000
22.112000000000	0.60390989528460	0.71359320231400	376.73031346177	0.00000000000000
22.119000000000	0.60774084539579	0.70992014517871	376.73031346177	0.00000000000000
22.126000000000	0.61155885899343	0.70621878866534	376.73031346177	0.00000000000000
22.133000000000	0.61536369117303	0.70248912756391	376.73031346177	0.00000000000000
22.140000000000	0.61915509537880	0.69873115933321	376.73031346177	0.00000000000000
22.147000000000	0.62293282343846	0.69494488413791	376.73031346177	0.00000000000000
22.154000000000	0.62669662559888	0.69113030488538	376.73031346177	0.00000000000000
22.161000000000	0.63044625056218	0.68728742726215	376.73031346177	0.00000000000000
22.168000000000	0.63418144552253	0.68341625977008	376.73031346177	0.00000000000000
22.175000000000	0.63790195620361	0.67951681376211	376.73031346177	0.00000000000000
22.182000000000	0.64160752689673	0.67558910347773	376.73031346177	0.00000000000000
22.189000000000	0.64529790049953	0.67163314607800	376.73031346177	0.00000000000000
22.196000000000	0.64897281855542	0.66764896168016	376.73031346177	0.00000000000000
22.203000000000	0.65263202129362	0.66363657339194	376.73031346177	0.00000000000000
22.210000000000	0.65627524766987	0.65959600734530	376.73031346177	0.00000000000000
22.217000000000	0.65990223540783	0.65552729272980	376.73031346177	0.00000000000000
22.224000000000	0.66351272104112	0.65143046182556	376.73031346177	0.00000000000000
22.231000000000	0.66710643995598	0.64730555003564	376.73031346177	0.00000000000000
22.238000000000	0.67068312643467	0.64315259591800	376.73031346177	0.00000000000000
22.245000000000	0.67424251369949	0.63897164121693	376.73031346177	0.00000000000000
22.252000000000	0.67778433395747	0.63476273089397	376.73031346177	0.00000000000000
22.259000000000	0.68130831844564	0.63052591315831	376.73031346177	0.00000000000000
22.266000000000	0.68481419747718	0.62626123949657	376.73031346177	0.00000000000000
22.273000000000	0.68830170048787	0.62196876470208	376.73031346177	0.00000000000000
22.280000000000	0.69177055608363	0.61764854690353	376.73031346177	0.00000000000000
22.287000000000	0.69522049208827	0.61330064759302	376.73031346177	0.00000000000000
22.294000000000	0.69865123559220	0.60892513165351	376.73031346177	0.00000000000000
22.301000000000	0.70206251300165	0.60452206738561	376.73031346177	0.00000000000000
22.308000000000	0.70545405008853	0.60009152653368	376.73031346177	0.00000000000000
22.315000000000	0.70882557204098	0.59563358431132	376.73031346177	0.00000000000000
22.322000000000	0.71217680351440	0.59114831942619	376.73031346177	0.00000000000000
22.329000000000	0.71550746868334	0.58663581410397	376.73031346177	0.00000000000000
22.336000000000	0.71881729129373	0.58209615411178	376.73031346177	0.00000000000000
22.343000000000	0.72210599471591	0.57752942878074	376.73031346177	0.00000000000000
22.350000000000	0.72537330199818	0.57293573102781	376.73031346177	0.00000000000000
22.357000000000	0.72861893592094	0.56831515737685	376.73031346177	0.00000000000000
22.364000000000	0.73184261905138	0.56366780797889	376.73031346177	0.00000000000000
22.371000000000	0.73504407379882	0.55899378663157	376.73031346177	0.00000000000000
22.378000000000	0.73822302247053	0.55429320079775	376.73031346177	0.00000000000000
22.385000000000	0.74137918732811	0.54956616162336	376.73031346177	0.00000000000000
22.392000000000	0.74451229064447	0.54481278395422	376.73031346177	0.00000000000000
22.399000000000	0.74762205476122	0.54003318635216	376.73031346177	0.00000000000000
22.406000000000	0.75070820214670	0.53522749111013	376.73031346177	0.00000000000000
22.413000000000	0.75377045545441	0.53039582426644	376.73031346177	0.00000000000000
22.420000000000	0.75680853758195	0.52553831561808	376.73031346177	0.00000000000000
22.427000000000	0.75982217173051	0.52065509873307	376.73031346177	0.00000000000000
22.434000000000	0.76281108146466	0.51574631096191	376.73031346177	0.00000000000000
22.441000000000	0.76577499077275	0.51081209344794	376.73031346177	0.00000000000000
22.448000000000	0.76871362412763	0.50585259113685	376.73031346177	0.00000000000000
22.455000000000	0.77162670654782	0.50086795278512	376.73031346177	0.00000000000000
22.462000000000	0.77451396365907	0.49585833096740	376.73031346177	0.00000000000000
22.469000000000	0.77737512175630	0.49082388208294	376.73031346177	0.00000000000000
22.476000000000	0.78020990786592	0.48576476636094	376.73031346177	0.00000000000000
22.483000000000	0.78301804980840	0.48068114786478	376.73031346177	0.00000000000000
22.490000000000	0.78579927626134	0.47557319449531	376.73031346177	0.00000000000000
22.497000000000	0.78855331682266	0.47044107799288	376.73031346177	0.00000000000000
22.504000000000	0.79127990207421	0.46528497393844	376.73031346177	0.00000000000000
22.511000000000	0.79397876364555	0.46010506175342	376.73031346177	0.00000000000000
22.518000000000	0.79664963427807	0.45490152469850	376.73031346177	0.00000000000000
22.525000000000	0.79929224788925	0.44967454987128	376.73031346177	0.00000000000000
22.532000000000	0.80190633963718	0.44442432820278	376.73031346177	0.00000000000000
22.539000000000	0.80449164598527	0.43915105445278	376.73031346177	0.00000000000000
22.546000000000	0.80704790476701	0.43385492720399	376.73031346177	0.00000000000000
22.553000000000	0.80957485525105	0.42853614885507	376.73031346177	0.00000000000000
22.560000000000	0.81207223820626	0.42319492561240	376.73031346177	0.00000000000000
22.567000000000	0.81453979596693	0.41783146748076	376.73031346177	0.00000000000000
22.574000000000	0.81697727249802	0.41244598825268	376.73031346177	0.00000000000000
22.581000000000	0.81938441346044	0.40703870549667	376.73031346177	0.00000000000000
22.588000000000	0.82176096627645	0.40160984054420	376.73031346177	0.00000000000000
22.595000000000	0.82410668019491	0.39615961847545	376.73031346177	0.00000000000000
22.602000000000	0.82642130635665	0.39068826810382	376.73031346177	0.00000000000000
22.609000000000	0.82870459785960	0.38519602195927	376.73031346177	0.00000000000000
22.616000000000	0.83095630982405	0.37968311627027	376.73031346177	0.00000000000000
22.623000000000	0.83317619945767	0.37414979094468	376.73031346177	0.00000000000000
22.630000000000	0.83536402612039	0.36859628954927	376.73031346177	0.00000000000000
22.637000000000	0.83751955138924	0.36302285928797	376.73031346177	0.00000000000000
22.644000000000	0.83964253912286	0.35742975097899	376.73031346177	0.00000000000000
22.651000000000	0.84173275552591	0.35181721903052	376.73031346177	0.00000000000000
22.658000000000	0.84378996921317	0.34618552141530	376.73031346177	0.00000000000000
22.665000000000	0.84581395127343	0.34053491964385	376.73031346177	0.00000000000000
22.672000000000	0.84780447533302	0.33486567873647	376.73031346177	0.00000000000000
22.679000000000	0.84976131761910	0.32917806719402	376.73031346177	0.00000000000000
22.686000000000	0.85168425702252	0.32347235696734	376.73031346177	0.00000000000000
22.693000000000	0.85357307516037	0.31774882342553	376.73031346177	0.00000000000000
22.700000000000	0.85542755643809	0.31200774532292	376.73031346177	0.00000000000000
22.707000000000	0.85724748811115	0.30624940476476	376.73031346177	0.00000000000000
22.714000000000	0.85903266034630	0.30047408717176	376.73031346177	0.00000000000000
22.721000000000	0.86078286628225	0.29468208124329	376.73031346177	0.00000000000000
22.728000000000	0.86249790208996	0.28887367891940	376.73031346177	0.00000000000000
22.735000000000	0.86417756703228	0.28304917534162	376.73031346177	0.00000000000000
22.742000000000	0.86582166352307	0.27720886881250	376.73031346177	0.00000000000000
22.749000000000	0.86742999718569	0.27135306075397	376.73031346177	0.00000000000000
22.756000000000	0.86900237691088	0.26548205566451	376.73031346177	0.00000000000000
22.763000000000	0.87053861491402	0.25959616107506	376.73031346177	0.00000000000000
22.770000000000	0.87203852679160	0.25369568750383	376.73031346177	0.00000000000000
22.777000000000	0.87350193157709	0.24778094840986	376.73031346177	0.00000000000000
22.784000000000	0.87492865179602	0.24185226014549	376.73031346177	0.00000000000000
22.791000000000	0.87631851352032	0.23590994190762	376.73031346177	0.00000000000000
22.798000000000	0.87767134642182	0.22995431568787	376.73031346177	0.00000000000000
22.805000000000	0.87898698382497	0.22398570622159	376.73031346177	0.00000000000000
22.812000000000	0.88026526275873	0.21800444093580	376.73031346177	0.00000000000000
22.819000000000	0.88150602400753	0.21201084989601	376.73031346177	0.00000000000000
22.826000000000	0.88270911216137	0.20600526575194	376.73031346177	0.00000000000000
22.833000000000	0.88387437566501	0.19998802368226	376.73031346177	0.00000000000000
22.840000000000	0.88500166686619	0.19395946133818	376.73031346177	0.00000000000000
22.847000000000	0.88609084206284	0.18791991878610	376.73031346177	0.00000000000000
22.854000000000	0.88714176154939	0.18186973844919	376.73031346177	0.00000000000000
22.861000000000	0.88815428966193	0.17580926504808	376.73031346177	0.00000000000000
22.868000000000	0.88912829482244	0.16973884554043	376.73031346177	0.00000000000000
22.875000000000	0.89006364958187	0.16365882905970	376.73031346177	0.00000000000000
22.882000000000	0.89096023066217	0.15756956685292	376.73031346177	0.00000000000000
22.889000000000	0.89181791899717	0.15147141221757	376.73031346177	0.00000000000000
22.896000000000	0.89263659977237	0.14536472043756	376.73031346177	0.00000000000000
22.903000000000	0.89341616246349	0.13924984871843	376.73031346177	0.00000000000000
22.910000000000	0.89415650087397	0.13312715612158	376.73031346177	0.00000000000000
22.917000000000	0.89485751317110	0.12699700349782	376.73031346177	0.00000000000000
22.924000000000	0.89551910192111	0.12085975342011	376.73031346177	0.00000000000000
22.931000000000	0.89614117412285	0.11471577011543	376.73031346177	0.00000000000000
22.938000000000	0.89672364124035	0.10856541939608	376.73031346177	0.00000000000000
22.945000000000	0.89726641923400	0.10240906859017	376.73031346177	0.00000000000000
22.952000000000	0.89776942859053	0.096247086471439	376.73031346177	0.00000000000000
22.959000000000	0.89823259435159	0.090079843188476	376.73031346177	0.00000000000000
22.966000000000	0.89865584614106	0.083907710193241	376.73031346177	0.00000000000000
22.973000000000	0.89903911819101	0.077731060169067	376.73031346177	0.00000000000000
22.980000000000	0.89938234936626	0.071550266958027	376.73031346177	0.00000000000000
22.987000000000	0.89968548318767	0.065365705487820	376.73031346177	0.00000000000000
22.994000000000	0.89994846785390	0.059177751698117	376.73031346177	0.00000000000000
23.001000000000	0.90017125626191	0.052986782466427	376.73031346177	0.00000000000000
23.008000000000	0.90035380602598	0.046793175533550	376.73031346177	0.00000000000000
23.015000000000	0.90049607949532	0.040597309428569	376.73031346177	0.00000000000000
23.022000000000	0.90059804377025	0.034399563393495	376.73031346177	0.00000000000000
23.029000000000	0.90065967071695	0.028200317307542	376.73031346177	0.00000000000000
23.036000000000	0.90068093698077	0.021999951611062	376.73031346177	0.00000000000000
23.043000000000	0.90066182399807	0.015798847229245	376.73031346177	0.00000000000000
23.050000000000	0.90060231800656	0.0095973854954856	376.73031346177	0.00000000000000
23.057000000000	0.90050241005427	0.0033959480745999	376.73031346177	0.00000000000000
23.064000000000	0.90036209600694	-0.0028050831142044	376.73031346177	0.00000000000000
23.071000000000	0.90018137655398	-0.0090053259745036	376.73031346177	0.00000000000000
23.078000000000	0.89996025721298	-0.015204398309936	376.73031346177	0.00000000000000
23.085000000000	0.89969874833262	-0.021401917901620	376.73031346177	0.00000000000000
23.092000000000	0.89939686509425	-0.027597502585581	376.73031346177	0.00000000000000
23.099000000000	0.89905462751184	-0.033790770330262	376.73031346177	0.00000000000000
23.106000000000	0.89867206043051	-0.039981339313975	376.73031346177	0.00000000000000
23.113000000000	0.89824919352356	-0.046168828002351	376.73031346177	0.00000000000000
23.120000000000	0.89778606128801	-0.052352855225716	376.73031346177	0.00000000000000
23.127000000000	0.89728270303864	-0.058533040256343	376.73031346177	0.00000000000000
23.134000000000	0.89673916290057	-0.064709002885576	376.73031346177	0.00000000000000
23.141000000000	0.89615548980032	-0.070880363500802	376.73031346177	0.00000000000000
23.148000000000	0.89553173745547	-0.077046743162178	376.73031346177	0.00000000000000
23.155000000000	0.89486796436273	-0.083207763679179	376.73031346177	0.00000000000000
23.162000000000	0.89416423378468	-0.089363047686820	376.73031346177	0.00000000000000
23.169000000000	0.89342061373494	-0.095512218721623	376.73031346177	0.00000000000000
23.176000000000	0.89263717696197	-0.10165490129721	376.73031346177	0.00000000000000
23.183000000000	0.89181400093140	-0.10779072097957	376.73031346177	0.00000000000000
23.190000000000	0.89095116780690	-0.11391930446192	376.73031346177	0.00000000000000
23.197000000000	0.89004876442969	-0.12004027963911	376.73031346177	0.00000000000000
23.204000000000	0.88910688229655	-0.12615327568159	376.73031346177	0.00000000000000
23.211000000000	0.88812561753657	-0.13225792310892	376.73031346177	0.00000000000000
23.218000000000	0.88710507088637	-0.13835385386265	376.73031346177	0.00000000000000
23.225000000000	0.88604534766404	-0.14444070137883	376.73031346177	0.00000000000000
23.232000000000	0.88494655774166	-0.15051810065976	376.73031346177	0.00000000000000
23.239000000000	0.88380881551656	-0.15658568834521	376.73031346177	0.00000000000000
23.246000000000	0.88263223988115	-0.16264310278303	376.73031346177	0.00000000000000
23.253000000000	0.88141695419151	-0.16868998409904	376.73031346177	0.00000000000000
23.260000000000	0.88016308623470	-0.17472597426625	376.73031346177	0.00000000000000
23.267000000000	0.87887076819468	-0.18075071717333	376.73031346177	0.00000000000000
23.274000000000	0.87754013661711	-0.18676385869241	376.73031346177	0.00000000000000
23.281000000000	0.87617133237285	-0.19276504674596	376.73031346177	0.00000000000000
23.288000000000	0.87476450062019	-0.19875393137305	376.73031346177	0.00000000000000
23.295000000000	0.87331979076598	-0.20473016479462	376.73031346177	0.00000000000000
23.302000000000	0.87183735642549	-0.21069340147797	376.73031346177	0.00000000000000
23.309000000000	0.87031735538118	-0.21664329820040	376.73031346177	0.00000000000000
23.316000000000	0.86875994954029	-0.22257951411191	376.73031346177	0.00000000000000
23.323000000000	0.86716530489133	-0.22850171079695	376.73031346177	0.00000000000000
23.330000000000	0.86553359145949	-0.23440955233529	376.73031346177	0.00000000000000
23.337000000000	0.86386498326094	-0.24030270536187	376.73031346177	0.00000000000000
23.344000000000	0.86215965825617	-0.24618083912573	376.73031346177	0.00000000000000
23.351000000000	0.86041779830222	-0.25204362554780	376.73031346177	0.00000000000000
23.358000000000	0.85863958910398	-0.25789073927780	376.73031346177	0.00000000000000
23.365000000000	0.85682522016445	-0.26372185775003	376.73031346177	0.00000000000000
23.372000000000	0.85497488473417	-0.26953666123806	376.73031346177	0.00000000000000
23.379000000000	0.85308877975964	-0.27533483290842	376.73031346177	0.00000000000000
23.386000000000	0.85116710583083	-0.28111605887310	376.73031346177	0.00000000000000
23.393000000000	0.84921006712794	-0.28688002824100	376.73031346177	0.00000000000000
23.400000000000	0.84721787136721	-0.29262643316821	376.73031346177	0.00000000000000
23.407000000000	0.84519072974600	-0.29835496890710	376.73031346177	0.00000000000000
23.414000000000	0.84312885688701	-0.30406533385441	376.73031346177	0.00000000000000
23.421000000000	0.84103247078180	-0.30975722959792	376.73031346177	0.00000000000000
23.428000000000	0.83890179273362	-0.31543036096214	376.73031346177	0.00000000000000
23.435000000000	0.83673704729944	-0.32108443605272	376.73031346177	0.00000000000000
23.442000000000	0.83453846223138	-0.32671916629959	376.73031346177	0.00000000000000
23.449000000000	0.83230626841751	-0.33233426649901	376.73031346177	0.00000000000000
23.456000000000	0.83004069982198	-0.33792945485424	376.73031346177	0.00000000000000
23.463000000000	0.82774199342465	-0.34350445301511	376.73031346177	0.00000000000000
23.470000000000	0.82541038916006	-0.34905898611621	376.73031346177	0.00000000000000
23.477000000000	0.82304612985600	-0.35459278281393	376.73031346177	0.00000000000000
23.484000000000	0.82064946117147	-0.36010557532220	376.73031346177	0.00000000000000
23.491000000000	0.81822063153426	-0.36559709944689	376.73031346177	0.00000000000000
23.498000000000	0.81575989207802	-0.37106709461908	376.73031346177	0.00000000000000
23.505000000000	0.81326749657902	-0.37651530392690	376.73031346177	0.00000000000000
23.512000000000	0.81074370139242	-0.38194147414620	376.73031346177	0.00000000000000
23.519000000000	0.80818876538828	-0.38734535576990	376.73031346177	0.00000000000000
23.526000000000	0.80560294988719	-0.39272670303601	376.73031346177	0.00000000000000
23.533000000000	0.80298651859567	-0.39808527395440	376.73031346177	0.00000000000000
23.540000000000	0.80033973754124	-0.40342083033232	376.73031346177	0.00000000000000
23.547000000000	0.79766287500732	-0.40873313779853	376.73031346177	0.00000000000000
23.554000000000	0.79495620146788	-0.41402196582624	376.73031346177	0.00000000000000
