#  HZ   S   RI   R     50.00 
! Rohde & Schwarz ZVA40 4Ports - Version 3.90 - 1145.1110k42 SN: 100403
! Date: 2023-09-21 07:06:11
! Measurements: S11 S21 S12 S22 
! 
 2.000000000000000E10   -2.777810633040200E-1  -1.329278349566010E-1   4.748083987577850E-3   4.383602573942829E-3   5.372538094238520E-3   2.281898528822280E-3   1.635391790430605E-1   3.077085764094206E-2  
 2.000200040008002E10   -2.608321201799484E-1  -1.191069861290199E-1   5.298257702967716E-3   3.703258024693851E-3   4.920063271418480E-3   1.778484676143742E-3   1.526434763880672E-1   2.833576931048990E-2  
 2.000400080016003E10   -2.418062453511793E-1  -1.025940677340254E-1   5.819507079283276E-3   3.183555499764713E-3   6.193296396527132E-3   7.783234459050169E-4   1.563759693520187E-1   3.537866230182506E-2  
 2.000600120024005E10   -2.210869041218940E-1  -8.416731067477631E-2   6.213215370709117E-3   2.404822029881413E-3   6.291172563152833E-3   1.519279086941956E-4   1.452670849003104E-1   3.020924191168867E-2  
 2.000800160032007E10   -1.983584099716695E-1  -6.400004561788178E-2   6.402549718976059E-3   1.641530624014930E-3   5.041483693678045E-3   3.953953650644461E-4   1.383013312366504E-1   3.933043888018807E-2  
 2.001000200040008E10   -1.741857509396701E-1  -4.233260951553553E-2   6.584446897799978E-3   7.735891334018096E-4   5.189094863185093E-3  -1.445683358554733E-3   1.317715276770250E-1   4.274121414477679E-2  
 2.001200240048010E10   -1.489005498851163E-1  -1.937410036525985E-2   6.542978237959332E-3  -1.578387069331623E-4   6.455508700514182E-3  -1.807733604846578E-3   1.335677142030115E-1   4.312802400826645E-2  
 2.001400280056011E10   -1.225631271824389E-1   4.780439246031974E-3   6.404924295579192E-3  -9.359564920219959E-4   4.800435501155851E-3  -1.815471333318706E-3   1.213763532217081E-1   4.310937157569908E-2  
 2.001600320064013E10   -9.523302313486011E-2   2.997132503889229E-2   6.033833868779263E-3  -1.732594885702773E-3   5.818848716269119E-3  -3.960047692497862E-3   1.156667775378863E-1   4.421346766392233E-2  
 2.001800360072014E10   -6.808499438901178E-2   5.541898721172026E-2   5.390293634256407E-3  -2.488580838684528E-3   3.720261896937490E-3  -4.036670938293744E-3   1.173635315567729E-1   4.275766628174674E-2  
 2.002000400080016E10   -4.071260365672982E-2   8.164690820880582E-2   4.880949012174888E-3  -2.888449829012426E-3   4.530268647658649E-3  -3.856948765907185E-3   1.069612570032413E-1   4.549572248147531E-2  
 2.002200440088018E10   -1.305046159175422E-2   1.075943456997246E-1   4.518487520546391E-3  -3.114220866862397E-3   2.764910093422026E-3  -3.410060177852660E-3   9.203100608849996E-2   4.298813580203904E-2  
 2.002400480096019E10    1.452361779957548E-2   1.330150494423241E-1   4.008411972537983E-3  -3.391070240215778E-3   2.365329906718968E-3  -3.976430916163287E-3   8.994287160065144E-2   3.417927593879298E-2  
 2.002600520104021E10    4.149734450724015E-2   1.583547951061297E-1   3.627515853513382E-3  -3.449911100418285E-3   3.417927156082455E-3  -3.667450365296479E-3   7.963860732684600E-2   3.572126571642628E-2  
 2.002800560112022E10    6.674965182552553E-2   1.817869518069737E-1   3.475689799185825E-3  -3.490002519366245E-3   2.971600190341406E-3  -4.839754527989158E-3   8.093952914445449E-2   2.212926279691936E-2  
 2.003000600120024E10    9.182016460836974E-2   2.035169569076225E-1   3.492232107502518E-3  -3.928573338392206E-3   2.278254372432557E-3  -4.431029583870615E-3   6.902751487359971E-2   2.015979955583146E-2  
 2.003200640128025E10    1.142805934074218E-1   2.241095863629035E-1   3.407247974212489E-3  -4.364595467450227E-3   1.460456588991948E-3  -3.794167494251912E-3   6.474879644847115E-2   1.263705485597914E-2  
 2.003400680136027E10    1.355508775880156E-1   2.423455618775752E-1   2.954861111220696E-3  -4.890657934871552E-3   2.205203684663961E-3  -5.765614141651668E-3   5.554991844525391E-2   5.470617418311095E-3  
 2.003600720144029E10    1.542652249979742E-1   2.590586106563883E-1   2.603739236554308E-3  -5.264657392139444E-3   1.424776445294479E-3  -4.734848793338631E-3   4.749156819287521E-2   3.878836010563866E-3  
 2.003800760152031E10    1.697304977591140E-1   2.736247533802967E-1   2.022718841425580E-3  -5.633485284586856E-3  -2.458226942583923E-4  -5.322043448728239E-3   4.830139707137050E-2  -1.712259628105405E-2  
 2.004000800160032E10    1.826963449953194E-1   2.859862857746023E-1   1.461869139308845E-3  -5.958128456923999E-3   2.776678783515144E-4  -6.172266426576032E-3   4.190834538181860E-2  -1.408028605841250E-2  
 2.004200840168034E10    1.923769298981211E-1   2.962554701398267E-1   8.090216797283110E-4  -6.311918066412641E-3  -1.409946663827251E-4  -5.493909856348531E-3   3.808010190816931E-2  -3.037324968199478E-2  
 2.004400880176035E10    1.989622936610411E-1   3.043954478560598E-1   2.541488623037651E-4  -6.434449203691305E-3  -1.709062691253399E-3  -6.073880765795472E-3   3.981379509390064E-2  -3.470069361628329E-2  
 2.004600920184037E10    2.034696145701904E-1   3.097901782257034E-1  -6.899641288611143E-4  -6.536218320941120E-3  -2.210097912322254E-3  -6.812025983344006E-3   3.466609006545375E-2  -4.527824130570757E-2  
 2.004800960192038E10    2.043836163024269E-1   3.123371324400250E-1  -1.388719255572239E-3  -6.377870366792072E-3  -3.199537401046181E-3  -6.697773031968181E-3   3.088697189447091E-2  -6.191019964123964E-2  
 2.005001000200040E10    2.030601896716952E-1   3.131307703550043E-1  -2.031898112603845E-3  -6.207828427831632E-3  -3.615183459745974E-3  -5.488587755580998E-3   3.735135059919366E-2  -6.827461277164290E-2  
 2.005201040208042E10    1.983931589034529E-1   3.105450210102883E-1  -2.552301123979034E-3  -6.080282413741056E-3  -3.643514228766492E-3  -5.314756279022694E-3   2.834029925970754E-2  -7.729745775412747E-2  
 2.005401080216043E10    1.915134786143812E-1   3.049846253098678E-1  -3.206876324628255E-3  -6.010333886927921E-3  -4.677777256041968E-3  -5.016104449905876E-3   3.142666938048804E-2  -8.808386633882848E-2  
 2.005601120224045E10    1.803601883449842E-1   2.967812911282406E-1  -3.905126671741861E-3  -5.932328841547126E-3  -5.074202733268897E-3  -4.562222316960707E-3   3.218302313396040E-2  -1.032265172457935E-1  
 2.005801160232047E10    1.670179339046735E-1   2.871283853719652E-1  -4.791038694425223E-3  -5.684212654634462E-3  -4.944104093434461E-3  -4.631495205135211E-3   2.884635397305984E-2  -1.129219538220811E-1  
 2.006001200240048E10    1.515686835809579E-1   2.744439516871561E-1  -5.634917764552705E-3  -5.148198969708750E-3  -7.179877826879550E-3  -4.426196924202713E-3   3.962900165283165E-2  -1.223645697466631E-1  
 2.006201240248050E10    1.337116606806447E-1   2.600195368197624E-1  -6.218301056284404E-3  -4.492921871801489E-3  -6.617293203238124E-3  -2.880980519962352E-3   3.350339791803882E-2  -1.270829437891352E-1  
 2.006401280256051E10    1.138735223151390E-1   2.435175386385081E-1  -6.718818684955183E-3  -3.951083498233358E-3  -8.041724534207990E-3  -2.113433536445407E-3   5.023691334939068E-2  -1.345032055211226E-1  
 2.006601320264053E10    9.228280839577310E-2   2.250203149755548E-1  -7.441190717812728E-3  -3.219431414287980E-3  -7.828864748743711E-3  -2.103815433325906E-3   4.859143036782897E-2  -1.454998645531189E-1  
 2.006801360272054E10    6.909094879808075E-2   2.061251999454238E-1  -7.973993290059590E-3  -2.519643458678334E-3  -7.944055866185670E-3  -6.782787479392815E-4   4.877220501936150E-2  -1.474075696971403E-1  
 2.007001400280056E10    4.558759376252231E-2   1.859654297611490E-1  -8.404958200604686E-3  -1.626217471859761E-3  -8.221317666618678E-3  -4.341625896422219E-4   4.946563427645442E-2  -1.540059188178041E-1  
 2.007201440288058E10    2.097803946036165E-2   1.649127251893072E-1  -8.791254289631470E-3  -5.328611394346390E-4  -9.338586364729340E-3   2.300682403130187E-3   5.833366116043158E-2  -1.524911913946018E-1  
 2.007401480296059E10   -3.731056349505780E-3   1.424820113557871E-1  -8.936193393983310E-3   6.028412002665565E-4  -8.572784676558877E-3   2.879796463136723E-3   7.220573498545846E-2  -1.652781530682503E-1  
 2.007601520304061E10   -2.890536956025767E-2   1.192995664518684E-1  -8.898424172302407E-3   1.916344982144589E-3  -8.537708837256009E-3   3.812702597516228E-3   6.856399022414847E-2  -1.670712425662076E-1  
 2.007801560312063E10   -5.388667422587091E-2   9.612116536372248E-2  -8.516180685930051E-3   3.053309886080331E-3  -7.021948522786632E-3   5.231734503577083E-3   7.740507482791925E-2  -1.645524722104247E-1  
 2.008001600320064E10   -7.817307875784518E-2   7.290325956661843E-2  -7.952371533457230E-3   3.942886690183265E-3  -7.049565119075972E-3   5.888289878175050E-3   8.581408680277206E-2  -1.677608143606183E-1  
 2.008201640328066E10   -1.018300417975149E-1   5.023684356497331E-2  -7.368101558450222E-3   4.404823622182115E-3  -5.763343530750357E-3   6.243934626115445E-3   8.865575100983365E-2  -1.728303397791370E-1  
 2.008401680336067E10   -1.246918051911038E-1   2.898809863085510E-2  -7.067609137408760E-3   5.123711900480566E-3  -5.394869749616223E-3   6.309713711520646E-3   9.276294125166329E-2  -1.643357883372492E-1  
 2.008601720344069E10   -1.454921658961613E-1   8.290879870555538E-3  -6.689850080047457E-3   5.781697199620720E-3  -5.109875153714979E-3   7.515781188754374E-3   1.020930154749771E-1  -1.663711134894910E-1  
 2.008801760352070E10   -1.645682434743663E-1  -1.117353317091832E-2  -6.294911139927303E-3   6.410276398508615E-3  -4.395243737627824E-3   6.964977556262425E-3   9.906106754953480E-2  -1.653201975375422E-1  
 2.009001800360072E10   -1.808259491285633E-1  -2.956605118294394E-2  -5.699162237197223E-3   7.147192717608616E-3  -2.695300298277029E-3   7.487658563291014E-3   1.057764023344812E-1  -1.579783635550578E-1  
 2.009201840368074E10   -1.948079112865138E-1  -4.633379326683323E-2  -5.125544144025488E-3   7.847541649217624E-3  -2.783492276892547E-3   8.437092442201560E-3   1.106928568423288E-1  -1.548825049402753E-1  
 2.009401880376075E10   -2.060398841014161E-1  -6.227421446001726E-2  -4.339866755240759E-3   8.472121465026270E-3  -1.572974467957990E-3   8.717260531182502E-3   1.158541584040027E-1  -1.500354294281377E-1  
 2.009601920384077E10   -2.145540953433497E-1  -7.625105209667159E-2  -3.549805574873973E-3   9.064759670132708E-3  -1.118535477973615E-3   9.294245676217236E-3   1.193261596911299E-1  -1.470470589924433E-1  
 2.009801960392078E10   -2.208082973071305E-1  -8.836132963842139E-2  -2.648110829203071E-3   9.618358255138257E-3  -1.148352412089988E-4   1.015877084278419E-2   1.211961050723824E-1  -1.379153281503266E-1  
 2.010002000400080E10   -2.233147346713900E-1  -9.930238189976411E-2  -1.676887959150169E-3   9.984438980560065E-3   2.192514742177766E-3   9.145284376516868E-3   1.180436957578516E-1  -1.407721605081296E-1  
 2.010202040408081E10   -2.241774017761280E-1  -1.089280650719167E-1  -4.993387399937373E-4   1.033070052178590E-2   2.901689883311871E-3   9.456314329963186E-3   1.167458933544603E-1  -1.311239537345814E-1  
 2.010402080416083E10   -2.218910399045558E-1  -1.160378260011354E-1   5.709375232630441E-4   1.047901917436904E-2   2.849317822604047E-3   1.050017223317410E-2   1.142683628548520E-1  -1.200886149806735E-1  
 2.010602120424085E10   -2.176378378476614E-1  -1.216334683304576E-1   1.977532221447624E-3   1.030597933434866E-2   5.535927331646179E-3   9.167786848818450E-3   1.128193664867535E-1  -1.109648150845780E-1  
 2.010802160432087E10   -2.108270835954896E-1  -1.249865298226846E-1   3.208760479967152E-3   9.977467914029065E-3   5.687049048849752E-3   9.649123138702830E-3   1.113723356532068E-1  -9.838837655674231E-2  
 2.011002200440088E10   -2.021692996306287E-1  -1.245362060659816E-1   4.065330612933056E-3   9.445687654591283E-3   6.833391049691806E-3   7.685501330616785E-3   1.115795914209580E-1  -9.350307843358469E-2  
 2.011202240448090E10   -1.901801846266968E-1  -1.224185666744589E-1   4.662735469799987E-3   8.883735278180049E-3   6.301380606661641E-3   7.528909068637540E-3   1.006553782628894E-1  -8.763626768298553E-2  
 2.011402280456091E10   -1.765451425937160E-1  -1.180738513239884E-1   5.375722437627246E-3   8.573630038717549E-3   7.367908566959647E-3   7.495861709922645E-3   1.008005095391698E-1  -8.601939448917301E-2  
 2.011602320464093E10   -1.601855830406626E-1  -1.111493993995121E-1   6.155814815524412E-3   8.147003465305454E-3   7.826790245641552E-3   6.728257941906273E-3   9.655290638407831E-2  -7.629233596210819E-2  
 2.011802360472094E10   -1.415510664430508E-1  -1.019064969847020E-1   7.196860173342872E-3   7.755066659804964E-3   9.562955015634068E-3   6.571876304633419E-3   8.475300468709215E-2  -6.965587547395566E-2  
 2.012002400480096E10   -1.212319607490575E-1  -9.178657664836548E-2   7.940039661905665E-3   7.190295604274745E-3   8.644812943229607E-3   4.522665323724500E-3   7.385078861023217E-2  -6.965009049538802E-2  
 2.012202440488098E10   -9.950714638686756E-2  -7.883626080170121E-2   8.733124072427240E-3   6.504365813436783E-3   9.748538253686085E-3   3.270389175278903E-3   6.997685322312511E-2  -5.905578251161004E-2  
 2.012402480496099E10   -7.736702105773755E-2  -6.533873283606578E-2   9.399719746387909E-3   5.803324061487106E-3   1.180803903081827E-2   2.899095531023469E-3   6.603871320437194E-2  -5.090445624044113E-2  
 2.012602520504101E10   -5.308539738406110E-2  -4.972963199066371E-2   1.014702879277575E-2   4.786535153783503E-3   1.038220969914008E-2   1.880027545618492E-3   5.930626455162416E-2  -5.313714733136742E-2  
 2.012802560512103E10   -2.833955473679281E-2  -3.303292404926691E-2   1.077158715130595E-2   3.813145611572771E-3   1.120037825507763E-2   5.203099464692225E-4   4.937278015223642E-2  -4.743137551945794E-2  
 2.013002600520104E10   -3.941580780376260E-3  -1.399479250700457E-2   1.119408078994374E-2   2.533210237845359E-3   1.041848211534223E-2  -1.413561730918469E-3   4.387202093236992E-2  -4.805254759729252E-2  
 2.013202640528106E10    2.067573510289423E-2   5.607264499524813E-3   1.141518422806568E-2   1.235116651285358E-3   1.162176387374976E-2  -1.287741034937266E-3   2.798447881350263E-2  -4.733027735449571E-2  
 2.013402680536107E10    4.549837197463233E-2   2.665646521889667E-2   1.150704744361220E-2   5.321924248949200E-6   1.084058184626376E-2  -3.128950398159158E-3   2.538120946352686E-2  -4.672245738595107E-2  
 2.013602720544109E10    7.083783732562607E-2   4.766273797970293E-2   1.130592839556074E-2  -1.106855970968627E-3   1.093120912469135E-2  -4.751717411726412E-3   1.354497734970918E-2  -4.202527430767586E-2  
 2.013802760552110E10    9.363883308737356E-2   6.913873681445884E-2   1.130869322963317E-2  -2.305511986838306E-3   9.797700144890313E-3  -5.596236436236171E-3  -3.169701962861378E-3  -4.998900352797936E-2  
 2.014002800560112E10    1.174019668191658E-1   9.058662288688472E-2   1.094782202649505E-2  -3.394477848248037E-3   9.614385310633333E-3  -5.941096172824042E-3  -7.364608718610641E-3  -5.152489273024728E-2  
 2.014202840568114E10    1.403187949673914E-1   1.116189279832994E-1   1.044965469377428E-2  -4.343643495350735E-3   8.835428420259134E-3  -6.757243914681189E-3  -2.100650017177048E-2  -5.435950425095065E-2  
 2.014402880576115E10    1.622567782373937E-1   1.320978099042030E-1   1.010544322358599E-2  -5.158813133074383E-3   7.977670503473923E-3  -7.705785968382431E-3  -1.656754679398935E-2  -5.547173785493639E-2  
 2.014602920584117E10    1.836480701568680E-1   1.507393070413579E-1   9.875884544673457E-3  -6.028908513415791E-3   7.167961635495173E-3  -8.303192930744337E-3  -3.086785384452556E-2  -6.327243186187098E-2  
 2.014802960592119E10    2.013890460683934E-1   1.687217034312070E-1   9.479063445988837E-3  -6.999931304016195E-3   7.682342876249667E-3  -8.914902273976047E-3  -3.399491067596285E-2  -6.793174153965180E-2  
 2.015003000600120E10    2.175661796193016E-1   1.856176050350820E-1   8.820141854428689E-3  -8.204574508496248E-3   7.196111720117232E-3  -9.723770685267965E-3  -4.522822206717939E-2  -7.372190003117575E-2  
 2.015203040608122E10    2.313051749856796E-1   2.013993362290452E-1   7.826007927652435E-3  -9.160494938277395E-3   5.250013996931434E-3  -1.107946352737270E-2  -5.303899396419290E-2  -7.958020402280101E-2  
 2.015403080616123E10    2.439067752253312E-1   2.144520665180488E-1   6.773143693307356E-3  -9.950139830027578E-3   4.163244610853611E-3  -1.115358958222089E-2  -5.459605671436251E-2  -8.089199808585611E-2  
 2.015603120624125E10    2.529490493404147E-1   2.259603850640024E-1   5.739479715004848E-3  -1.047025242621560E-2   2.734852417967924E-3  -1.249263787719058E-2  -5.952662509838474E-2  -9.124903869097151E-2  
 2.015803160632127E10    2.611673244696314E-1   2.360729527909213E-1   4.685224212983551E-3  -1.097858666344816E-2   8.556546754048684E-4  -1.172645268639565E-2  -6.685806862032949E-2  -9.653075699465116E-2  
 2.016003200640128E10    2.655061484579330E-1   2.435414743601825E-1   3.633272128757589E-3  -1.134823452452672E-2   8.422566456142504E-4  -1.264997863055589E-2  -6.952209848012891E-2  -1.006923425926194E-1  
 2.016203240648130E10    2.681704118642685E-1   2.482211952027356E-1   2.538998426040723E-3  -1.156042617085780E-2  -3.710711404102483E-4  -1.186008365936580E-2  -6.710629889638675E-2  -1.054319141743321E-1  
 2.016403280656131E10    2.679208600320620E-1   2.504323092695479E-1   1.439243012649158E-3  -1.189904153671226E-2  -7.809210957359259E-4  -1.223068326166195E-2  -6.719037953572855E-2  -1.140278028828163E-1  
 2.016603320664133E10    2.660296337016320E-1   2.495946537173147E-1   3.251504351894581E-4  -1.210704768875330E-2  -3.108227025107214E-3  -1.085987075167194E-2  -6.456770647438491E-2  -1.214296425839559E-1  
 2.016803360672134E10    2.616270052607223E-1   2.467657322254159E-1  -1.149576536593576E-3  -1.221370557202442E-2  -4.553857610608696E-3  -1.135987810180540E-2  -6.816055469874693E-2  -1.302419535068879E-1  
 2.017003400680136E10    2.558269739962567E-1   2.409565454809876E-1  -2.513487145575518E-3  -1.188314159945890E-2  -5.819279400013176E-3  -1.148601749786328E-2  -6.368082119363454E-2  -1.328647764213128E-1  
 2.017203440688138E10    2.468212040619402E-1   2.319189854678249E-1  -3.772665563432253E-3  -1.141877261049160E-2  -6.761938032817610E-3  -9.615339379045443E-3  -6.435356324465061E-2  -1.437132882109226E-1  
 2.017403480696139E10    2.359538261765830E-1   2.206779610329102E-1  -4.922545021091829E-3  -1.086265612911256E-2  -6.230879122412068E-3  -8.997465948488274E-3  -5.930690399506366E-2  -1.476072768975957E-1  
 2.017603520704141E10    2.231070487367994E-1   2.067251387615063E-1  -6.024742080885256E-3  -1.016521383943169E-2  -7.903078783742405E-3  -7.767437308216101E-3  -6.033847243277390E-2  -1.536060095769097E-1  
 2.017803560712143E10    2.092333251305399E-1   1.904947455109956E-1  -6.966305665169519E-3  -9.287385268154178E-3  -9.079447526897138E-3  -7.694998659147715E-3  -5.426322820921507E-2  -1.522820814622586E-1  
 2.018003600720144E10    1.935243040984926E-1   1.716842809614900E-1  -7.873963078035668E-3  -8.372228998890140E-3  -9.616390839156639E-3  -6.787720053210066E-3  -4.236753609557405E-2  -1.558798313328620E-1  
 2.018203640728146E10    1.766187915310581E-1   1.513119734029172E-1  -8.533457319325961E-3  -7.458360124434664E-3  -1.063976951292852E-2  -4.830681596928681E-3  -3.988650122391786E-2  -1.640962559616445E-1  
 2.018403680736147E10    1.592928872957636E-1   1.283586525312316E-1  -8.973991415595260E-3  -6.446041772239052E-3  -1.049629203530051E-2  -3.497006179655946E-3  -3.705710521051023E-2  -1.624285770263250E-1  
 2.018603720744149E10    1.407862537701985E-1   1.031265321973075E-1  -9.436120225145664E-3  -5.445013484888578E-3  -9.897038611500469E-3  -2.983227400334397E-3  -2.812584953310029E-2  -1.660079124676941E-1  
