#  HZ   S   RI   R     50.00 
! Rohde & Schwarz ZVA40 4Ports - Version 3.90 - 1145.1110k42 SN: 100403
! Date: 2023-09-21 06:51:35
! Measurements: S11 S21 S12 S22 
! 
 2.000000000000000E10   -1.955495236353342E-1  -2.462857601038213E-1  -9.252593604893892E-3  -8.983360849356949E-3  -1.179897798692006E-2  -5.394226221653048E-3   1.455162409305327E-1   1.717769470439307E-2  
 2.000200040008002E10   -1.891168783411161E-1  -2.410989468292696E-1  -9.804409265188717E-3  -7.953701753949931E-3  -1.247392674505635E-2  -5.370692721229899E-3   1.428008318184992E-1   2.833940610189054E-2  
 2.000400080016003E10   -1.827854256168713E-1  -2.321327466452938E-1  -1.014534260840032E-2  -7.024173656504824E-3  -1.206742970445308E-2  -4.210464141283199E-3   1.406721260088633E-1   2.701198370528777E-2  
 2.000600120024005E10   -1.746490278079009E-1  -2.208602319969299E-1  -1.047175564030983E-2  -6.277211002622645E-3  -1.215064386924122E-2  -2.827065965918213E-3   1.339473383733978E-1   3.056220145264226E-2  
 2.000800160032007E10   -1.654433869629669E-1  -2.059586159818547E-1  -1.092856355514213E-2  -5.356931584944108E-3  -1.146702339000627E-2  -2.401203407974067E-3   1.315033778343751E-1   3.233598461840950E-2  
 2.001000200040008E10   -1.555772776566046E-1  -1.886928944477999E-1  -1.128345133396681E-2  -4.547570008230487E-3  -1.220150734899415E-2  -1.904784818423715E-3   1.226598378829861E-1   3.774214330325006E-2  
 2.001200240048010E10   -1.454257527041289E-1  -1.685171201002333E-1  -1.173810306018360E-2  -3.748776398855833E-3  -1.228025375688601E-2   8.343862308074564E-4   1.216106866948167E-1   4.047449729825134E-2  
 2.001400280056011E10   -1.339793092117037E-1  -1.453830821544634E-1  -1.222976700165072E-2  -2.867716873906188E-3  -1.208052431977385E-2   3.137377559467835E-4   1.090879431740251E-1   4.230175727761253E-2  
 2.001600320064013E10   -1.224790944873892E-1  -1.203083565942713E-1  -1.267570739931213E-2  -1.786952136437143E-3  -1.309138333294085E-2   1.944815922187767E-3   1.093271016937025E-1   4.509096044886009E-2  
 2.001800360072014E10   -1.108514275778011E-1  -9.318551874098903E-2  -1.292575692612578E-2  -4.418992108026506E-4  -1.210430350715471E-2   2.975153255038482E-3   9.642717833194323E-2   4.207508300932068E-2  
 2.002000400080016E10   -9.967499679130559E-2  -6.379485517546332E-2  -1.300451173947721E-2   7.984201685534817E-4  -1.175182478163648E-2   3.428527901672125E-3   8.743323333357955E-2   3.631271099264780E-2  
 2.002200440088018E10   -8.779593555717413E-2  -3.259900758437538E-2  -1.293005906800882E-2   1.966057801940589E-3  -1.313302553281550E-2   4.886169255353729E-3   8.018668414665189E-2   4.147253115627927E-2  
 2.002400480096019E10   -7.651140236337131E-2   5.521277452318036E-4  -1.290973626659311E-2   3.252782555132316E-3  -1.063249622147517E-2   6.960879833976787E-3   7.910526597280089E-2   3.699216156177916E-2  
 2.002600520104021E10   -6.485554198326503E-2   3.430231359320159E-2  -1.254224505121574E-2   4.610286065625567E-3  -1.075623111686674E-2   8.853413343176037E-3   7.154960690599976E-2   3.373606509209957E-2  
 2.002800560112022E10   -5.288431695160022E-2   6.890674153688438E-2  -1.199961265754069E-2   6.058660566499472E-3  -1.037452550529139E-2   8.051417673094245E-3   6.717034186111263E-2   2.730894712251651E-2  
 2.003000600120024E10   -4.144099691697598E-2   1.037469700595887E-1  -1.109435616310987E-2   7.149388772570811E-3  -8.557516999305797E-3   1.045487667304876E-2   5.615907341636713E-2   2.165545148910415E-2  
 2.003200640128025E10   -2.886873666960715E-2   1.389074142856651E-1  -1.033336416822252E-2   7.988064435821052E-3  -7.367418168739659E-3   9.929129185501387E-3   5.254452141029044E-2   2.100822890529117E-2  
 2.003400680136027E10   -1.748550120341508E-2   1.726769600686418E-1  -9.523763929514803E-3   8.728879436955262E-3  -7.204773157623923E-3   1.194421688356022E-2   4.950667712323326E-2   1.533654145848418E-2  
 2.003600720144029E10   -6.513218089006998E-3   2.056657655378851E-1  -8.863214457453899E-3   9.414681515564195E-3  -7.269336000186808E-3   1.185105255814877E-2   4.619220302850382E-2   4.938908709122737E-3  
 2.003800760152031E10    3.378507682338822E-3   2.367032096640198E-1  -8.010511526298583E-3   1.024676149680769E-2  -5.173142763563586E-3   1.180575316267767E-2   4.211240240022129E-2  -2.760327351424704E-3  
 2.004000800160032E10    1.285717071995034E-2   2.673217162547456E-1  -7.006983714432251E-3   1.126429290405250E-2  -3.748292225124273E-3   1.262212654402673E-2   3.662758564151816E-2  -9.120416390716290E-3  
 2.004200840168034E10    2.101160337713703E-2   2.953165012921689E-1  -5.828349591721838E-3   1.185932818726454E-2  -2.202420236131168E-3   1.220564289310354E-2   3.216146261027035E-2  -1.734501490300824E-2  
 2.004400880176035E10    2.834307067985005E-2   3.212547243787803E-1  -4.604873795605900E-3   1.213034187365254E-2  -1.740079484848786E-3   1.243461578992982E-2   3.481105080714805E-2  -2.239532135380524E-2  
 2.004600920184037E10    3.400309301747369E-2   3.444109749607692E-1  -3.483158966561891E-3   1.241447131509447E-2  -5.772324434610110E-4   1.255286981346674E-2   2.894594584912685E-2  -3.497946788524341E-2  
 2.004800960192038E10    3.969415584411699E-2   3.650014182947056E-1  -2.463147753987558E-3   1.246479528133476E-2   1.097270995141195E-3   1.203794104612710E-2   2.889556726362436E-2  -5.368304509366517E-2  
 2.005001000200040E10    4.355400914734628E-2   3.830022213505857E-1  -1.430338050766377E-3   1.267833297444917E-2   1.834067882783333E-3   1.290788366923437E-2   2.849754899669098E-2  -6.530388937795278E-2  
 2.005201040208042E10    4.629462609683956E-2   3.969892506025826E-1  -4.377937610969895E-4   1.277914086745659E-2   3.330961371376466E-3   1.301065151308524E-2   2.993988407044755E-2  -6.953767770683864E-2  
 2.005401080216043E10    4.843751968850913E-2   4.078144784408221E-1   7.763753153158276E-4   1.292550236425579E-2   3.808260132588750E-3   1.176566873079138E-2   3.413686877487145E-2  -8.581697237173791E-2  
 2.005601120224045E10    4.938846087217379E-2   4.153690915926598E-1   1.999182082003862E-3   1.283063442690897E-2   4.882183407108258E-3   1.092963913497654E-2   3.278828685175735E-2  -8.574291664136767E-2  
 2.005801160232047E10    4.898606994032007E-2   4.196150850164333E-1   3.305654537111261E-3   1.267550890932578E-2   6.423069555865784E-3   1.214695676563927E-2   3.800640224020617E-2  -1.031121430494542E-1  
 2.006001200240048E10    4.804772773445709E-2   4.194198290688807E-1   4.521279222265947E-3   1.222259786122755E-2   8.162356891308582E-3   1.020138883440953E-2   4.206555859564984E-2  -1.104049407706226E-1  
 2.006201240248050E10    4.768659024040218E-2   4.163374979988133E-1   5.588780605593246E-3   1.184736921169136E-2   7.694941213963667E-3   1.031315261100411E-2   4.647553197002490E-2  -1.159911401071826E-1  
 2.006401280256051E10    4.542305651816993E-2   4.089354098619071E-1   6.538568588561939E-3   1.110366848212380E-2   9.565990110628883E-3   8.274978536319200E-3   4.925054376583773E-2  -1.272102872132968E-1  
 2.006601320264053E10    4.250781425332317E-2   3.983260531679162E-1   7.474570579540013E-3   1.072196705072161E-2   9.623837569455909E-3   8.205885420623242E-3   5.862169341764889E-2  -1.314598694671521E-1  
 2.006801360272054E10    4.011241327117463E-2   3.842557773643234E-1   8.413321048546339E-3   9.983882470924344E-3   9.961811437181983E-3   7.367928083964770E-3   6.234281956552834E-2  -1.414666615378888E-1  
 2.007001400280056E10    3.691507890269787E-2   3.669421816397266E-1   9.269379307498318E-3   9.385345120800814E-3   1.104216744742667E-2   5.985786628427886E-3   6.980763872245793E-2  -1.454730555831676E-1  
 2.007201440288058E10    3.286918250104494E-2   3.448928276735032E-1   1.025974633782648E-2   8.573507040287266E-3   1.206950779554389E-2   5.333223544240607E-3   6.820071687375866E-2  -1.499705920909963E-1  
 2.007401480296059E10    2.824269540101738E-2   3.194888168783124E-1   1.119588143716187E-2   7.608318467596784E-3   1.273408139272773E-2   5.240778928783889E-3   7.697548100590829E-2  -1.590129397934630E-1  
 2.007601520304061E10    2.351021143126624E-2   2.919530889534973E-1   1.195332322180956E-2   6.497370171772219E-3   1.284288769738399E-2   3.384848830226899E-3   8.181494738424974E-2  -1.658478283234784E-1  
 2.007801560312063E10    1.741621858857649E-2   2.608561446800920E-1   1.272658741938175E-2   5.328383685742616E-3   1.373996725665780E-2   1.793502917608841E-3   8.523865901631710E-2  -1.741585653895906E-1  
 2.008001600320064E10    1.083288214189275E-2   2.289261277947186E-1   1.342827501998753E-2   4.187292349979688E-3   1.352885711197468E-2   1.747172559407443E-3   8.949080187870383E-2  -1.598577391187077E-1  
 2.008201640328066E10    4.070862234384185E-3   1.945878743776784E-1   1.383159453650543E-2   2.718477296773060E-3   1.447133922400851E-2  -1.042978614028019E-3   9.969575345581649E-2  -1.697533036389580E-1  
 2.008401680336067E10   -3.403472122844989E-3   1.589732625697650E-1   1.432456312491139E-2   1.010432145549176E-3   1.323626265486384E-2  -2.066709990056051E-3   1.119475983431453E-1  -1.666067702580462E-1  
 2.008601720344069E10   -1.051241013331036E-2   1.236348697471348E-1   1.427653369166508E-2  -4.947667868304124E-4   1.324484598050467E-2  -3.062088999339793E-3   1.065445333129001E-1  -1.619715194846171E-1  
 2.008801760352070E10   -1.843984942682430E-2   8.732086215904653E-2   1.403801682418950E-2  -1.869241681925336E-3   1.317629876104267E-2  -5.322803829574905E-3   1.142872969567870E-1  -1.680054123835327E-1  
 2.009001800360072E10   -2.571979791116731E-2   5.107748788483302E-2   1.360574426159417E-2  -3.245672291826561E-3   1.269649183704227E-2  -6.599319239460774E-3   1.192852656730986E-1  -1.625509520966354E-1  
 2.009201840368074E10   -3.351194989340967E-2   1.618083949952520E-2   1.317538060937276E-2  -4.650651346728686E-3   1.118001235999083E-2  -8.039169623877761E-3   1.212782147570757E-1  -1.602345110391785E-1  
 2.009401880376075E10   -4.087524735957848E-2  -1.811977080963275E-2   1.249617437077301E-2  -5.942680200812311E-3   1.018225846083290E-2  -9.018308870258741E-3   1.228125529307277E-1  -1.575103968388387E-1  
 2.009601920384077E10   -4.714272507971430E-2  -5.085394496015373E-2   1.171429602552156E-2  -7.037600170949751E-3   8.032299656115068E-3  -1.147508380333468E-2   1.220772890922318E-1  -1.509940061619745E-1  
 2.009801960392078E10   -5.369679397164567E-2  -8.074408344760942E-2   1.111748224599566E-2  -8.042392101803143E-3   8.995446831609686E-3  -1.148314215931575E-2   1.258718807810786E-1  -1.474423996347125E-1  
 2.010002000400080E10   -5.887690586292760E-2  -1.090376169930081E-1   1.019801267522988E-2  -9.095256286860630E-3   7.557559641148330E-3  -1.152313018038650E-2   1.263109399703754E-1  -1.426683054715712E-1  
 2.010202040408081E10   -6.295176437837105E-2  -1.347561488441413E-1   9.141186633179952E-3  -9.998124876808097E-3   6.337290882034792E-3  -1.117992743292497E-2   1.254900546297518E-1  -1.377410958063478E-1  
 2.010402080416083E10   -6.622300269085046E-2  -1.578395358611368E-1   8.208911142356955E-3  -1.085385538345912E-2   4.351266711153472E-3  -1.249236401527725E-2   1.193839803799071E-1  -1.304384613128417E-1  
 2.010602120424085E10   -6.827086224470917E-2  -1.780597132312239E-1   7.166239625722125E-3  -1.156037046583683E-2   4.451891694231366E-3  -1.266166398478476E-2   1.230144480616565E-1  -1.265783416095882E-1  
 2.010802160432087E10   -6.947707314418414E-2  -1.957648283739798E-1   6.152060654454832E-3  -1.234037786664451E-2   1.901358601927525E-3  -1.348951923018033E-2   1.175122700230392E-1  -1.161625328875375E-1  
 2.011002200440088E10   -6.994536903034329E-2  -2.087929425683944E-1   4.882029594071680E-3  -1.320536586014589E-2   1.579201630393785E-3  -1.297785368171474E-2   1.100820035800357E-1  -1.113874765985151E-1  
 2.011202240448090E10   -6.849682051590822E-2  -2.185145786120366E-1   3.266669257959334E-3  -1.374513018265313E-2  -4.685586148267421E-5  -1.457202813013653E-2   1.104847817048551E-1  -1.056403127804165E-1  
 2.011402280456091E10   -6.552653566319214E-2  -2.241106757024142E-1   1.425119978955268E-3  -1.403259351275286E-2  -2.826839646244380E-3  -1.495598233765856E-2   9.980748351487161E-2  -1.036146777317689E-1  
 2.011602320464093E10   -6.082600456737711E-2  -2.268907945389622E-1  -2.570368529406742E-4  -1.386941811088370E-2  -2.846843533020516E-3  -1.246575899023172E-2   9.446903306069238E-2  -8.699831999242733E-2  
 2.011802360472094E10   -5.484314143722961E-2  -2.265469134896690E-1  -1.871850568100004E-3  -1.337015368147736E-2  -4.556652314882819E-3  -1.302050747640449E-2   8.487284599349634E-2  -8.288900837661700E-2  
 2.012002400480096E10   -4.774419163599469E-2  -2.231111582542631E-1  -2.986519679267135E-3  -1.288328728189264E-2  -7.089860998010000E-3  -1.109152747103204E-2   7.968352683352376E-2  -7.890375783609618E-2  
 2.012202440488098E10   -3.994157721516536E-2  -2.167789042166481E-1  -4.062589834618631E-3  -1.248105698137121E-2  -7.854933527713652E-3  -1.072626559922636E-2   6.747485155265397E-2  -7.268988875188663E-2  
 2.012402480496099E10   -3.135984252935840E-2  -2.072668145060797E-1  -5.205813319294992E-3  -1.214566728813508E-2  -8.078169302726210E-3  -1.186157730303453E-2   5.663905378692948E-2  -6.980197019627114E-2  
 2.012602520504101E10   -2.207415089576420E-2  -1.954477237835641E-1  -6.358605066943327E-3  -1.160010574782857E-2  -1.009456753326001E-2  -9.266027545841660E-3   4.795187925021534E-2  -6.485124732818041E-2  
 2.012802560512103E10   -1.281628201775367E-2  -1.807155070968461E-1  -7.548220015075899E-3  -1.097430923409059E-2  -1.095801606524684E-2  -7.466711187178466E-3   4.224517517624402E-2  -6.100410413367188E-2  
 2.013002600520104E10   -3.004392272056205E-3  -1.633376993180479E-1  -8.974514032378395E-3  -1.020012367043350E-2  -1.145067227747193E-2  -7.145813067326367E-3   3.098540124016336E-2  -6.241718419602577E-2  
 2.013202640528106E10    7.062250196592147E-3  -1.433233898885366E-1  -1.014741321115754E-2  -8.901566952967156E-3  -1.199975844823081E-2  -7.454859398512823E-3   1.983665986566486E-2  -5.058148254989396E-2  
 2.013402680536107E10    1.697616923405262E-2  -1.205351901367754E-1  -1.108975690608106E-2  -7.418406258781365E-3  -1.333176156690619E-2  -4.412889762059337E-3   7.497030579386077E-3  -4.983736794026127E-2  
 2.013602720544109E10    2.655613833850301E-2  -9.541102985050175E-2  -1.184642754021367E-2  -6.048446690233012E-3  -1.157092140365982E-2  -3.372436979354733E-3  -7.704659937253181E-3  -5.278353747776778E-2  
 2.013802760552110E10    3.659841836181620E-2  -6.954471850798419E-2  -1.235296214882081E-2  -4.576515082562510E-3  -1.306857670850108E-2  -2.482973098147268E-3  -1.594800931141661E-2  -5.101696234350956E-2  
 2.014002800560112E10    4.618104967211056E-2  -4.190381238665754E-2  -1.268717305279128E-2  -3.044329451174715E-3  -1.357713968278382E-2  -4.895907557644714E-5  -2.028958479742510E-2  -5.550963549200720E-2  
 2.014202840568114E10    5.576490838637917E-2  -1.339754414745711E-2  -1.270687394691962E-2  -1.624326247999721E-3  -1.240547984642569E-2   2.086581628694502E-3  -2.871871368071613E-2  -5.513736292903107E-2  
 2.014402880576115E10    6.572354674817475E-2   1.568742960827709E-2  -1.250937852487555E-2  -1.901218736114448E-4  -1.203695605676842E-2   2.757803100557885E-3  -3.473713778541707E-2  -5.128663124049022E-2  
 2.014602920584117E10    7.538455391204356E-2   4.504013188771472E-2  -1.220542925552855E-2   1.159400094549046E-3  -1.216186668516732E-2   3.967273146930737E-3  -4.697739774718343E-2  -5.727259679443954E-2  
 2.014802960592119E10    8.267949297215670E-2   7.396769478236416E-2  -1.180033062592632E-2   2.342763078269075E-3  -1.103585657780958E-2   4.896388546123771E-3  -5.114553225323667E-2  -6.214031912191616E-2  
 2.015003000600120E10    8.945176171773098E-2   1.028576847446110E-1  -1.142602176936402E-2   3.425892797997482E-3  -1.047825949499478E-2   6.323754178411652E-3  -5.727407308917192E-2  -6.817330062481455E-2  
 2.015203040608122E10    9.612920640205715E-2   1.312647775067884E-1  -1.090749024342505E-2   4.582223141447465E-3  -8.332731512245754E-3   7.288400918479906E-3  -6.581714809585397E-2  -6.476633678047028E-2  
 2.015403080616123E10    1.021807067880167E-1   1.586552362217044E-1  -1.023607278169304E-2   5.731176332126386E-3  -8.303339892891438E-3   7.569094916883852E-3  -6.709678021179000E-2  -7.306515339039565E-2  
 2.015603120624125E10    1.074042532784120E-1   1.839343547719095E-1  -9.539177449763306E-3   6.492700205212382E-3  -8.019603610174874E-3   8.121576790568970E-3  -7.061456611473595E-2  -8.327598212610238E-2  
 2.015803160632127E10    1.110501177058208E-1   2.082928398054346E-1  -8.830040590785921E-3   7.380434305369582E-3  -6.339594507547756E-3   9.309193114093280E-3  -7.691763448591132E-2  -8.878301069201869E-2  
 2.016003200640128E10    1.139332620341553E-1   2.305445740421554E-1  -8.134986514949753E-3   8.205172560294474E-3  -6.209779498756922E-3   8.927803286725964E-3  -7.964518990189835E-2  -1.010539879751594E-1  
 2.016203240648130E10    1.157261211974767E-1   2.504406353586190E-1  -7.232593747250538E-3   9.274923583509452E-3  -4.936180845947656E-3   1.020029812087462E-2  -7.440272367014814E-2  -1.002045361104452E-1  
 2.016403280656131E10    1.175016212216741E-1   2.678606090219800E-1  -5.898829671945466E-3   9.930418000075629E-3  -2.758509584862756E-3   1.008517214955023E-2  -7.285928378458788E-2  -1.015256819709014E-1  
 2.016603320664133E10    1.173537790917935E-1   2.823452549321504E-1  -4.699051769153552E-3   1.047024005500011E-2  -1.116050295645738E-3   1.067628717915410E-2  -7.686121309570611E-2  -1.130255297568167E-1  
 2.016803360672134E10    1.172475033862595E-1   2.936630980628027E-1  -3.548665370633120E-3   1.061646909496525E-2  -2.656203212620630E-4   1.131365973308885E-2  -7.390265243501282E-2  -1.217625644451694E-1  
 2.017003400680136E10    1.159292840831898E-1   3.018303955632188E-1  -2.461100120974128E-3   1.069124750068063E-2  -2.308627040154028E-4   1.132984323831347E-2  -7.495785653742289E-2  -1.252654844258555E-1  
 2.017203440688138E10    1.141085372490398E-1   3.063686594288322E-1  -1.599674670387205E-3   1.077226759636895E-2   1.376453917012898E-3   1.135077204249667E-2  -6.182988900004698E-2  -1.313563506727692E-1  
 2.017403480696139E10    1.110920399726985E-1   3.078773449745554E-1  -6.477013576760804E-4   1.092997127260095E-2   1.720154355577931E-3   1.050818489785360E-2  -6.338793441861948E-2  -1.387441793566234E-1  
 2.017603520704141E10    1.068215333070072E-1   3.067825682341353E-1   5.254008803786967E-4   1.118610103991803E-2   2.725856288824322E-3   1.089104905435007E-2  -5.497190460249033E-2  -1.485729414424510E-1  
 2.017803560712143E10    1.024935221127274E-1   3.019875427135488E-1   1.671612748372470E-3   1.108085067810320E-2   4.309789837692830E-3   1.053339059898850E-2  -4.905657554313637E-2  -1.439307110320595E-1  
 2.018003600720144E10    9.826490518026848E-2   2.941009364463152E-1   2.705705207362226E-3   1.110952793889109E-2   5.901247097282686E-3   9.790044541046962E-3  -4.250481012296872E-2  -1.498730429832000E-1  
 2.018203640728146E10    9.441799423602447E-2   2.832240321260561E-1   3.739321902343264E-3   1.120595443572455E-2   7.261414337413074E-3   1.013632752131528E-2  -3.304869523941652E-2  -1.486458328700176E-1  
 2.018403680736147E10    9.047697023075171E-2   2.695021221810048E-1   5.024940824623203E-3   1.104742475240232E-2   7.691693955113031E-3   8.976153513545129E-3  -3.256522601051100E-2  -1.490968450218363E-1  
 2.018603720744149E10    8.767871212982598E-2   2.519187398360734E-1   6.530365471601879E-3   1.064180242688768E-2   9.331630865899523E-3   8.103077459668821E-3  -2.607655847508594E-2  -1.483285312464077E-1  
