#  HZ   S   RI   R     50.00 
! Rohde & Schwarz ZVA40 4Ports - Version 3.90 - 1145.1110k42 SN: 100403
! Date: 2023-09-21 06:47:59
! Measurements: S11 S21 S12 S22 
! 
 2.000000000000000E10   -1.266395203053655E-1  -2.595726684613635E-1  -9.414021015126863E-3  -6.976071184215205E-3  -1.106912666573686E-2  -3.630084088294502E-3   1.620566532688995E-1   2.236254287378844E-2  
 2.000200040008002E10   -1.216864274194076E-1  -2.602638168642679E-1  -9.730098541646122E-3  -5.768029396328979E-3  -9.709858168358291E-3  -3.123334192043734E-3   1.529062218748255E-1   2.480215819406217E-2  
 2.000400080016003E10   -1.165688724100589E-1  -2.573218051692685E-1  -9.919594485697215E-3  -4.849606298555083E-3  -1.033121144164030E-2  -3.220581636973436E-3   1.422658930317722E-1   2.488409234055054E-2  
 2.000600120024005E10   -1.109324274982205E-1  -2.519300904647497E-1  -1.024848087983303E-2  -3.980017857467189E-3  -1.081936393263753E-2  -1.612462533347179E-3   1.485113580992371E-1   3.472758761829359E-2  
 2.000800160032007E10   -1.049664952842478E-1  -2.430553969901457E-1  -1.039409228750347E-2  -2.997448228883240E-3  -1.092039625325799E-2  -4.315298729822233E-4   1.401905361448959E-1   3.326592427372004E-2  
 2.001000200040008E10   -9.840894239961402E-2  -2.313511934051793E-1  -1.055680398049112E-2  -2.079053124798234E-3  -1.021944649381393E-2   1.239587211146921E-3   1.305131148779004E-1   3.899715245941662E-2  
 2.001200240048010E10   -9.236433023074363E-2  -2.167967707664533E-1  -1.066584386914617E-2  -1.161719411117436E-3  -9.459907227519934E-3   1.432629489116940E-3   1.217453217303547E-1   3.468586902694795E-2  
 2.001400280056011E10   -8.582248118112000E-2  -1.993375385747302E-1  -1.070268764048192E-2  -2.893192045703766E-4  -1.014048827225638E-2   2.901415307779744E-3   1.200790670214292E-1   3.878129104286007E-2  
 2.001600320064013E10   -7.951661563259180E-2  -1.784996169802077E-1  -1.073244095584019E-2   6.798146111333382E-4  -9.566426623922349E-3   3.100835123783579E-3   1.117405949000188E-1   4.455977299425985E-2  
 2.001800360072014E10   -7.299620844733611E-2  -1.557459220463344E-1  -1.074949803585048E-2   1.627271759656938E-3  -1.012217761197296E-2   4.135370752101775E-3   1.070149834272157E-1   3.912517270241364E-2  
 2.002000400080016E10   -6.697847525702341E-2  -1.298234295076812E-1  -1.063932403463145E-2   2.716831781430461E-3  -1.058670989291262E-2   5.766363644103737E-3   9.828691241217145E-2   4.219689347559746E-2  
 2.002200440088018E10   -6.224851464929691E-2  -1.024682675388689E-1  -1.026044342411732E-2   3.652500132478399E-3  -8.679771668891671E-3   6.554308602557544E-3   8.754465536054980E-2   3.800833274545131E-2  
 2.002400480096019E10   -5.781405342566062E-2  -7.266803563182092E-2  -9.930975120562936E-3   4.691221991454503E-3  -9.186386405701321E-3   7.247157044050196E-3   8.751351116419175E-2   3.132255454778624E-2  
 2.002600520104021E10   -5.285176141537740E-2  -4.122299612347676E-2  -9.530741025089341E-3   5.774090179948305E-3  -8.237999779947866E-3   8.888733565017865E-3   7.671246858222046E-2   2.839446163093885E-2  
 2.002800560112022E10   -4.897228138452225E-2  -8.516709683218937E-3  -8.670440884708759E-3   6.918434481897778E-3  -6.737452906377010E-3   8.971741725464739E-3   7.039449014578533E-2   2.613421356852264E-2  
 2.003000600120024E10   -4.518480609157690E-2   2.542909969653651E-2  -7.743156051358367E-3   7.705721790476565E-3  -4.890163355813405E-3   9.267684063937211E-3   6.468390539703195E-2   1.812725528858079E-2  
 2.003200640128025E10   -4.165541355837410E-2   6.004936951227934E-2  -6.927376172505017E-3   8.142763924042574E-3  -3.940859817884638E-3   9.529995904608180E-3   6.532715862651420E-2   1.133363627313889E-2  
 2.003400680136027E10   -3.805765992957416E-2   9.541536409176281E-2  -5.952253007259625E-3   8.682070344627230E-3  -4.045678287076577E-3   9.245557393713043E-3   4.826748214978431E-2  -3.111187746149740E-5  
 2.003600720144029E10   -3.518075525482109E-2   1.303361124380467E-1  -5.130698197052629E-3   8.996013759144286E-3  -2.451577868741364E-3   1.078971806817616E-2   4.873621093638628E-2  -3.380707713919790E-3  
 2.003800760152031E10   -3.285370957641284E-2   1.651709591189224E-1  -4.360181192578834E-3   9.413494073177783E-3  -1.445609133650877E-3   1.025240434531572E-2   4.164756884737252E-2  -1.475667371896291E-2  
 2.004000800160032E10   -3.167461918749363E-2   1.986768461162209E-1  -3.319338246835306E-3   9.703382762265792E-3  -8.542711703621946E-4   1.028346996297903E-2   4.071078382617945E-2  -1.891126529688753E-2  
 2.004200840168034E10   -2.994134352729239E-2   2.306734423326395E-1  -2.313064080347247E-3   9.953345097986404E-3   4.769353950521771E-4   1.029302717903997E-2   3.373788562318538E-2  -3.114298719136170E-2  
 2.004400880176035E10   -2.949476739315526E-2   2.614995750356915E-1  -1.423983705623100E-3   9.895459758244357E-3   1.332706571194665E-3   9.125242354707784E-3   2.870781931012802E-2  -3.086080911112559E-2  
 2.004600920184037E10   -2.896489892535656E-2   2.904402500127060E-1  -5.553558115130910E-4   9.815368583192995E-3   1.298838767460090E-3   9.437067290165141E-3   3.271103273548212E-2  -4.261669536492119E-2  
 2.004800960192038E10   -2.942353750823031E-2   3.175066462585440E-1   4.565107345434188E-4   9.675479929586950E-3   3.433212767449747E-3   9.058127773954483E-3   2.874730862169826E-2  -5.774317258898377E-2  
 2.005001000200040E10   -3.092119866066287E-2   3.416878061975011E-1   1.211822984904907E-3   9.348926397253630E-3   3.455005913452637E-3   9.125510606003499E-3   2.830373761325506E-2  -5.986750184225387E-2  
 2.005201040208042E10   -3.241867207748525E-2   3.634573264531223E-1   1.942928410847358E-3   9.136773284500521E-3   3.291743059225728E-3   8.202323118676786E-3   2.822837980818202E-2  -7.561486897788658E-2  
 2.005401080216043E10   -3.360562126762656E-2   3.820514662241255E-1   2.639963600263092E-3   8.919625272823417E-3   4.617618624680832E-3   8.094968011080650E-3   2.237324905816675E-2  -8.685098696613924E-2  
 2.005601120224045E10   -3.652355660236972E-2   3.977450610589594E-1   3.456354479671435E-3   8.659148775572414E-3   5.454592920660840E-3   6.899087222449252E-3   3.100367692574468E-2  -9.543831453343477E-2  
 2.005801160232047E10   -3.938319394841260E-2   4.099482170784865E-1   4.212446688763141E-3   8.241213109582313E-3   6.558749829711677E-3   7.067444414123566E-3   2.869071169497157E-2  -1.132602064126413E-1  
 2.006001200240048E10   -4.149868700329398E-2   4.196788701587459E-1   4.898256190930352E-3   7.743732621155471E-3   6.064454015724828E-3   6.271155692509711E-3   3.171264997899449E-2  -1.189133982185109E-1  
 2.006201240248050E10   -4.304339443119325E-2   4.254850912834823E-1   5.389467830363023E-3   7.122609205731921E-3   7.547649540728183E-3   5.028005956338937E-3   3.432352069470133E-2  -1.274524380990061E-1  
 2.006401280256051E10   -4.473918939381161E-2   4.282654761534800E-1   5.746592581527895E-3   6.594339783051975E-3   6.051906148867553E-3   5.159410665959546E-3   3.871821190807390E-2  -1.255473569016926E-1  
 2.006601320264053E10   -4.530215747064820E-2   4.278558089570531E-1   6.233028129473448E-3   6.227313263527648E-3   8.561166197929349E-3   4.484311961706755E-3   4.405809194996135E-2  -1.394566914939117E-1  
 2.006801360272054E10   -4.572505280955287E-2   4.236206536162998E-1   6.835293158995921E-3   5.701236720360202E-3   7.655962856734533E-3   4.531182896043379E-3   5.478583571974859E-2  -1.451148386554001E-1  
 2.007001400280056E10   -4.448196521021973E-2   4.153412422079760E-1   7.268976195951085E-3   5.127557541077179E-3   7.981131492809195E-3   3.081290509376227E-3   5.725028929435611E-2  -1.529459353132976E-1  
 2.007201440288058E10   -4.319971508243128E-2   4.030320754504254E-1   7.638843960286142E-3   4.497221104177183E-3   8.627275182393306E-3   1.962444875560038E-3   6.239400538798597E-2  -1.563496310745449E-1  
 2.007401480296059E10   -4.121002744278176E-2   3.873945736830801E-1   8.134485321176511E-3   3.893971301568989E-3   8.621191491738260E-3   1.171396194191068E-3   7.060116085964134E-2  -1.616022882894662E-1  
 2.007601520304061E10   -3.928731199476011E-2   3.676598168332366E-1   8.553706942974269E-3   2.856490844637495E-3   8.998961280866462E-3   8.704973787271150E-4   7.538206500957860E-2  -1.572627657138004E-1  
 2.007801560312063E10   -3.659155031511031E-2   3.434514365589482E-1   8.629925064007218E-3   2.217864537041211E-3   8.452298316298420E-3   1.238167348516905E-3   8.393237172685419E-2  -1.615452594032737E-1  
 2.008001600320064E10   -3.339509678803283E-2   3.179441046521497E-1   8.791483435622166E-3   1.288914335766853E-3   9.467188460095782E-3  -2.360491494926797E-4   8.927626504793834E-2  -1.709888389872167E-1  
 2.008201640328066E10   -3.011220538981397E-2   2.887335216674348E-1   8.978499521233321E-3   5.849209963687496E-4   8.394846129670772E-3  -1.405806527143735E-3   8.585375379128746E-2  -1.593674302115988E-1  
 2.008401680336067E10   -2.545048173836847E-2   2.576308664149795E-1   9.031357334936385E-3  -4.308788263339446E-4   9.152059177605710E-3  -1.519682724466871E-3   9.401310765694415E-2  -1.624166965561427E-1  
 2.008601720344069E10   -2.105380790983429E-2   2.243114810906802E-1   8.759136885885005E-3  -1.434390178394890E-3   7.428750364448421E-3  -3.698605616278869E-3   1.017966217158635E-1  -1.584366813210943E-1  
 2.008801760352070E10   -1.639389291349142E-2   1.890409584251653E-1   8.377366280611870E-3  -2.223915080988397E-3   7.298566928666752E-3  -3.692150737675263E-3   1.078226925034402E-1  -1.579222459740460E-1  
 2.009001800360072E10   -1.192238609009105E-2   1.527009247416214E-1   7.893343159967653E-3  -2.928862092178889E-3   7.069317341009522E-3  -4.000880406909104E-3   1.082597690747883E-1  -1.561570427100453E-1  
 2.009201840368074E10   -7.045604171738410E-3   1.151636225074964E-1   7.455896543790896E-3  -3.539049444165452E-3   6.582236054544059E-3  -5.638791665490261E-3   1.148636127654265E-1  -1.561578443636547E-1  
 2.009401880376075E10   -2.623485896407494E-3   7.753240881717374E-2   7.056417233798361E-3  -4.123016274758652E-3   6.374784827315783E-3  -5.632372383004512E-3   1.270170647281542E-1  -1.493713293601706E-1  
 2.009601920384077E10    1.976675330751227E-3   3.942567693615680E-2   6.559143202152529E-3  -4.500029902285338E-3   5.038895155788896E-3  -5.842738071537240E-3   1.269496235692729E-1  -1.433603019847919E-1  
 2.009801960392078E10    5.655493882086722E-3   1.897478309666250E-3   6.068228747227964E-3  -4.876427811547662E-3   4.546894792525572E-3  -5.128580159081752E-3   1.306093226422801E-1  -1.380042275223441E-1  
 2.010002000400080E10    9.494096978852432E-3  -3.439959533105871E-2   5.607095799357027E-3  -5.175308587801837E-3   5.527080027504253E-3  -5.739870176758782E-3   1.239630959137240E-1  -1.353377583402404E-1  
 2.010202040408081E10    1.252067616033482E-2  -6.890840666420317E-2   5.326045242277006E-3  -5.653550294706856E-3   3.204122474534764E-3  -6.459045102443309E-3   1.201222787309798E-1  -1.291717637855633E-1  
 2.010402080416083E10    1.556059619882204E-2  -1.014189885565867E-1   4.939258500806657E-3  -6.105541463485997E-3   2.552133749097080E-3  -7.220648511623216E-3   1.255826741602760E-1  -1.252895209819899E-1  
 2.010602120424085E10    1.814523504613593E-2  -1.318269703741954E-1   4.459798032854483E-3  -6.508187066262567E-3   2.139604944468659E-3  -7.053626166299743E-3   1.272064703927128E-1  -1.120615082236532E-1  
 2.010802160432087E10    2.119186269295520E-2  -1.597308303561110E-1   4.035921787332211E-3  -7.101999112561685E-3   1.754600018342246E-3  -7.283516622261283E-3   1.208827817400753E-1  -1.090361156930180E-1  
 2.011002200440088E10    2.312271151187994E-2  -1.838266996139842E-1   3.345045016046214E-3  -7.605209561715218E-3   6.960482758573667E-4  -8.447188247092452E-3   1.131700922482736E-1  -1.004890225123886E-1  
 2.011202240448090E10    2.563116420530507E-2  -2.035866793782118E-1   2.513191338597572E-3  -8.000706926909055E-3  -8.718252398517009E-5  -9.248402997080556E-3   9.885518247673295E-2  -9.274067681515275E-2  
 2.011402280456091E10    2.828981736904637E-2  -2.202008851556236E-1   1.372208268253561E-3  -8.379580089351404E-3  -1.418794842621364E-3  -7.788728264873146E-3   1.020791852101755E-1  -8.693346326546847E-2  
 2.011602320464093E10    3.206012198040197E-2  -2.330527350608672E-1   3.642527581615311E-4  -8.289193948027443E-3  -9.488840621575670E-4  -7.822301164405165E-3   9.813414504993460E-2  -8.047356718661131E-2  
 2.011802360472094E10    3.648660957465753E-2  -2.417914830031090E-1  -5.389095418424741E-4  -7.892774641294864E-3  -2.438172783721110E-3  -7.924308702783114E-3   8.956481377270043E-2  -7.688714562629002E-2  
 2.012002400480096E10    4.001350206679699E-2  -2.481864437665002E-1  -1.089910570256865E-3  -7.667327262693964E-3  -2.319717862339077E-3  -7.010747036246375E-3   8.614991982844977E-2  -7.270380866418710E-2  
 2.012202440488098E10    4.331819211019237E-2  -2.508025728235841E-1  -1.652165362658712E-3  -7.645748361541615E-3  -4.501305747606762E-3  -6.335943141512947E-3   7.613228440023867E-2  -6.867314208022742E-2  
 2.012402480496099E10    4.681164486151981E-2  -2.495444394008972E-1  -2.302273580861661E-3  -7.625793454869209E-3  -3.877888793695185E-3  -7.122199141186350E-3   6.813969988241495E-2  -5.828607352826706E-2  
 2.012602520504101E10    5.026656404828567E-2  -2.453191835714359E-1  -3.011315071785088E-3  -7.500739219261253E-3  -4.115284941998665E-3  -6.159320804186717E-3   5.783866410473613E-2  -5.498931776309783E-2  
 2.012802560512103E10    5.389779432126656E-2  -2.364959734911402E-1  -3.905167417178543E-3  -7.308245633865248E-3  -5.454762854327238E-3  -6.277770132496438E-3   4.315612440141345E-2  -5.405769733516161E-2  
 2.013002600520104E10    5.727924422500172E-2  -2.254821623476051E-1  -4.864507337904369E-3  -7.048614543094691E-3  -6.179719745663721E-3  -5.707765640599506E-3   3.919399247618496E-2  -5.504358604963366E-2  
 2.013202640528106E10    6.002624881173423E-2  -2.105136768621574E-1  -5.980853893884476E-3  -6.245946005614006E-3  -7.355748094820355E-3  -4.863506521135265E-3   2.667614788840559E-2  -5.648023313229003E-2  
 2.013402680536107E10    6.263130741164605E-2  -1.920339356875059E-1  -6.606898945452454E-3  -5.244869439969310E-3  -7.309641637997014E-3  -3.865741429309922E-3   1.628840768455528E-2  -5.350221103910194E-2  
 2.013602720544109E10    6.435842113438499E-2  -1.714714309734295E-1  -7.081696374689336E-3  -4.323464246455092E-3  -7.275058680621787E-3  -1.968396130152481E-3   1.163181903434174E-2  -5.504571730812402E-2  
 2.013802760552110E10    6.657141970135948E-2  -1.483418257350670E-1  -7.440719353069461E-3  -3.366642588652069E-3  -8.052323808747861E-3  -5.314817804225726E-4  -1.403980295042673E-3  -5.453043226024346E-2  
 2.014002800560112E10    6.774614602815623E-2  -1.229240526273508E-1  -7.632929534675110E-3  -2.481718997922162E-3  -7.929340952405247E-3   8.503869718726043E-6  -7.655194533338645E-3  -5.636691636049634E-2  
 2.014202840568114E10    6.919123168051211E-2  -9.614665673565098E-2  -7.827731545679261E-3  -1.530759440924600E-3  -8.065253125735174E-3  -6.869166583766491E-4  -1.718118897740150E-2  -6.188594203394934E-2  
 2.014402880576115E10    7.032561621928808E-2  -6.797807947121436E-2  -7.822979648872349E-3  -6.547089492348534E-4  -8.023837613747149E-3   1.570362252646644E-3  -2.543373830150700E-2  -6.022602728838138E-2  
 2.014602920584117E10    7.083652641678269E-2  -3.800569308388210E-2  -7.696553992736130E-3   2.273547924996868E-4  -7.591093599020110E-3   2.759194043802696E-3  -4.094463781933321E-2  -6.192956472606028E-2  
 2.014802960592119E10    6.997994801474521E-2  -8.267356987921443E-3  -7.517749520926802E-3   1.072721084089240E-3  -6.142774445406352E-3   2.316743039650096E-3  -4.134468248437153E-2  -7.721885007850163E-2  
 2.015003000600120E10    6.912198485345854E-2   2.236328567908339E-2  -7.229834814530141E-3   1.810496045543007E-3  -5.954111288268279E-3   4.131237088757976E-3  -5.202518897497347E-2  -7.805936032597492E-2  
 2.015203040608122E10    6.762435158571965E-2   5.373028123638250E-2  -6.783710616920458E-3   2.727835558444287E-3  -5.855689057146800E-3   4.579723025344999E-3  -6.052367553995256E-2  -8.159632401368025E-2  
 2.015403080616123E10    6.628674702403778E-2   8.385623280230398E-2  -6.371393662099482E-3   3.218816152318274E-3  -5.021455715450466E-3   3.924296682655658E-3  -6.965313834039667E-2  -8.906581759455644E-2  
 2.015603120624125E10    6.365657386370877E-2   1.142519298668251E-1  -5.727525819017563E-3   3.710362528511034E-3  -4.628381086000012E-3   5.056683019948310E-3  -6.507925467367107E-2  -8.923754264158743E-2  
 2.015803160632127E10    6.122835659549783E-2   1.430239825193316E-1  -5.431195086548722E-3   4.222798440762201E-3  -3.311553928707545E-3   4.611141663966971E-3  -7.085897383191914E-2  -9.817007480465001E-2  
 2.016003200640128E10    5.800534307751330E-2   1.705813002207237E-1  -4.974478699540329E-3   4.840473818016562E-3  -3.339572838330750E-3   6.376312122520916E-3  -7.508811433847068E-2  -1.065840612578666E-1  
 2.016203240648130E10    5.482451751778503E-2   1.964897394905482E-1  -4.451483350936607E-3   5.445713381279098E-3  -4.024796069542563E-3   6.161033680516064E-3  -7.369777645466792E-2  -1.084860167598308E-1  
 2.016403280656131E10    5.122187489965640E-2   2.197321413563635E-1  -3.667984925416430E-3   5.855827194237897E-3  -2.352277174974665E-3   6.195672963948275E-3  -7.758947499404048E-2  -1.156456017565456E-1  
 2.016603320664133E10    4.825645708844058E-2   2.401638040068675E-1  -2.868188745252994E-3   6.053126461804340E-3  -8.653438005211218E-4   7.198636740760092E-3  -7.126656641143174E-2  -1.270162943103001E-1  
 2.016803360672134E10    4.382615535480301E-2   2.589015771972067E-1  -2.134476175794209E-3   6.127984901264007E-3  -6.396070131252308E-4   5.894788344294769E-3  -7.315886411327804E-2  -1.300586070396087E-1  
 2.017003400680136E10    4.022330196733671E-2   2.738475702441172E-1  -1.582881367570318E-3   6.025508809688145E-3   2.769642522300687E-4   6.034356524269952E-3  -7.337543421497325E-2  -1.381707374461091E-1  
 2.017203440688138E10    3.558067543508254E-2   2.864304767255799E-1  -1.241048721898894E-3   6.094735565682800E-3  -5.323924951267166E-6   5.861444910327032E-3  -6.930063784114759E-2  -1.502225146992808E-1  
 2.017403480696139E10    3.177750641757376E-2   2.956416200858333E-1  -7.478325668788319E-4   6.206737330437456E-3   1.484196762947316E-3   6.981223283710793E-3  -7.090421383811049E-2  -1.472251031184910E-1  
 2.017603520704141E10    2.617983630447988E-2   3.014103409236806E-1  -2.299510590611897E-4   6.489185149342670E-3   1.864486055476140E-3   5.781065360974496E-3  -6.226008597011128E-2  -1.499832262882443E-1  
 2.017803560712143E10    2.169738358550471E-2   3.047556171663245E-1   4.728880138547345E-4   6.678677612260813E-3   1.965495840538862E-3   6.011873094825972E-3  -6.090797370430181E-2  -1.529735010921748E-1  
 2.018003600720144E10    1.818254313608289E-2   3.043949179025180E-1   1.121920924411278E-3   6.668789645632742E-3   3.660214161047961E-3   5.258993648392361E-3  -5.270991390893259E-2  -1.547791604572096E-1  
 2.018203640728146E10    1.493504608599750E-2   3.015877201869589E-1   1.614556795083567E-3   6.867182079759783E-3   3.037252347982775E-3   5.810280062603613E-3  -4.883578100802390E-2  -1.543204706993003E-1  
 2.018403680736147E10    1.308122915515524E-2   2.960305381159076E-1   2.652363943338165E-3   6.979045921140391E-3   4.434711101862923E-3   6.042472147653064E-3  -3.836824179789854E-2  -1.561834296366166E-1  
 2.018603720744149E10    1.249931181550545E-2   2.865434852355852E-1   3.556534500208864E-3   6.820294867024346E-3   4.716724311920054E-3   5.494022405599968E-3  -3.415305531940087E-2  -1.589220449530074E-1  
