#  HZ   S   RI   R     50.00 
! Rohde & Schwarz ZVA40 4Ports - Version 3.90 - 1145.1110k42 SN: 100403
! Date: 2023-09-21 06:55:07
! Measurements: S11 S21 S12 S22 
! 
 2.000000000000000E10   -1.339475079809251E-1  -2.599472579421588E-1  -9.687735263886277E-3  -6.547170466950691E-3  -1.154968105068941E-2  -3.169923205125027E-3   1.534753044998120E-1   1.962924358425475E-2  
 2.000200040008002E10   -1.282016771453695E-1  -2.598150373188783E-1  -9.909907929198578E-3  -5.070224922093076E-3  -1.156798321330630E-2  -2.392616573713383E-3   1.509750232360607E-1   2.652904260425074E-2  
 2.000400080016003E10   -1.232233760153551E-1  -2.572937694466218E-1  -1.011909119021459E-2  -4.240220341705299E-3  -1.051535159565378E-2  -1.108910457111602E-3   1.435518504286372E-1   3.019987436623147E-2  
 2.000600120024005E10   -1.172350753758565E-1  -2.511254656646969E-1  -1.018865339487346E-2  -3.464066961803590E-3  -1.000118192381838E-2   1.198362562446247E-4   1.408159546523877E-1   2.939514465687563E-2  
 2.000800160032007E10   -1.113003343035865E-1  -2.416787871738803E-1  -1.030233071842612E-2  -2.358028225049404E-3  -1.036026004283488E-2   7.402851557617948E-4   1.391075298700907E-1   3.157613048057700E-2  
 2.001000200040008E10   -1.042432008865546E-1  -2.295162699286914E-1  -1.027329282476333E-2  -1.670898716291432E-3  -1.047456157369071E-2   1.090966283431124E-3   1.354371941707939E-1   3.560198807412381E-2  
 2.001200240048010E10   -9.843749081346434E-2  -2.143808167072782E-1  -1.048987017623418E-2  -7.953199713356367E-4  -1.081532949698032E-2   1.572145009736951E-3   1.323007359348147E-1   3.270741885291953E-2  
 2.001400280056011E10   -9.111513927550635E-2  -1.959731545665547E-1  -1.041282393446425E-2   5.256451828583794E-5  -9.508699909561016E-3   2.976764794451328E-3   1.215664604705931E-1   3.548309833746546E-2  
 2.001600320064013E10   -8.440980950859081E-2  -1.750007879474879E-1  -1.039401575517092E-2   9.632346477460142E-4  -1.009293951103004E-2   3.608389821178696E-3   1.149042215999841E-1   3.663936009993855E-2  
 2.001800360072014E10   -7.716740000179451E-2  -1.516350344408919E-1  -1.037268455816838E-2   1.945156685958150E-3  -9.622355102290699E-3   3.922118375673224E-3   1.038622822031335E-1   3.958085804554603E-2  
 2.002000400080016E10   -7.075399009070385E-2  -1.251617041707995E-1  -1.032416567158422E-2   2.929510985814223E-3  -9.096358588964367E-3   6.337047380575680E-3   9.929506982500919E-2   3.585262292566641E-2  
 2.002200440088018E10   -6.517777348953546E-2  -9.785170239418159E-2  -1.005593416000532E-2   3.911414667682154E-3  -8.582470133240015E-3   7.021399223526128E-3   9.327499062655487E-2   3.311834397232295E-2  
 2.002400480096019E10   -5.997718661918371E-2  -6.788158384183363E-2  -9.626039131102188E-3   4.842893865422700E-3  -8.116795662776203E-3   7.494698629592305E-3   8.090457237089817E-2   2.647279027447614E-2  
 2.002600520104021E10   -5.474137342885073E-2  -3.577136688084143E-2  -9.259897451947018E-3   5.889494476244031E-3  -6.722698971345781E-3   7.419117447673680E-3   7.373069751247996E-2   2.383077872789721E-2  
 2.002800560112022E10   -5.018707166152035E-2  -2.848489817109605E-3  -8.451643126589501E-3   6.930950124914029E-3  -5.323429807613479E-3   9.871866971966601E-3   6.733402301167218E-2   2.287227298456488E-2  
 2.003000600120024E10   -4.575717033035172E-2   3.148284360231789E-2  -7.616433727648099E-3   7.810753888883406E-3  -5.253276368143006E-3   9.547697859986042E-3   6.373801063381741E-2   1.228771823028045E-2  
 2.003200640128025E10   -4.163265305677802E-2   6.671517655024584E-2  -6.654638019601987E-3   8.185593979561093E-3  -4.462611577219486E-3   8.745794538945504E-3   5.421398516927311E-2   1.345979055934342E-2  
 2.003400680136027E10   -3.719118192109130E-2   1.018385175266118E-1  -5.790224523526641E-3   8.627971467376155E-3  -3.379933305892353E-3   8.926785218330392E-3   4.688338644329397E-2   6.586731005485919E-3  
 2.003600720144029E10   -3.337369853100453E-2   1.373199231029565E-1  -5.079355727168572E-3   8.978039476378329E-3  -1.782924863153790E-3   9.509440072336721E-3   4.510464615219342E-2  -2.645708078377280E-4  
 2.003800760152031E10   -3.090402295646276E-2   1.717979951401137E-1  -4.225998860336607E-3   9.455456487711195E-3  -1.176631786098363E-3   1.071934041264441E-2   3.512091357395215E-2  -1.470081453199372E-2  
 2.004000800160032E10   -2.748151576152923E-2   2.052263836707241E-1  -3.350161501195924E-3   9.915167811458800E-3  -6.583312569680220E-4   9.810009634044520E-3   3.684298492793638E-2  -2.429096680584039E-2  
 2.004200840168034E10   -2.651163233821421E-2   2.374611868385672E-1  -2.220707160875061E-3   9.962800090759914E-3  -3.625517490771631E-4   1.000331863313619E-2   2.890199961580796E-2  -1.712635068630882E-2  
 2.004400880176035E10   -2.532042300412664E-2   2.678396326572468E-1  -1.168935026266815E-3   1.008545992064821E-2   1.232520829757483E-3   1.063807666741865E-2   2.910413640368505E-2  -2.279446527514768E-2  
 2.004600920184037E10   -2.351459569362279E-2   2.969975790240748E-1  -7.828513266703776E-5   9.956910759909253E-3   1.811293672723906E-3   1.057285041260159E-2   2.832716378439959E-2  -4.126773112646555E-2  
 2.004800960192038E10   -2.346055916823652E-2   3.229176320888320E-1   7.041953062132463E-4   9.680882771105638E-3   2.603175291823057E-3   9.525704851858441E-3   3.702316516521591E-2  -5.212543881905590E-2  
 2.005001000200040E10   -2.454605837034139E-2   3.469740685028535E-1   1.455250360373972E-3   9.335770269230027E-3   3.865441135249701E-3   7.512012011555143E-3   3.164176333790304E-2  -5.777117021068365E-2  
 2.005201040208042E10   -2.623558289902453E-2   3.688143600312077E-1   2.122677721955063E-3   9.068880388117210E-3   4.858598825933830E-3   7.307464419378385E-3   2.950618172683287E-2  -7.915695295314611E-2  
 2.005401080216043E10   -2.675810665053801E-2   3.871416161413004E-1   2.875777061456687E-3   8.880268368308894E-3   5.275793049084002E-3   7.565641249713439E-3   3.115484763067263E-2  -8.675758796793337E-2  
 2.005601120224045E10   -2.897495933256140E-2   4.019530836049528E-1   3.611073334273624E-3   8.614830790869934E-3   5.397874830422976E-3   6.253897270983626E-3   2.911402213196801E-2  -9.767387398368962E-2  
 2.005801160232047E10   -3.148053032706015E-2   4.141140299486212E-1   4.425525289902766E-3   8.158777621582824E-3   6.319549247010579E-3   6.881392477531815E-3   3.003718273163465E-2  -1.022332444308285E-1  
 2.006001200240048E10   -3.325872942149735E-2   4.228306654162827E-1   5.132728219926282E-3   7.665634695406745E-3   5.689428440915508E-3   6.759808516814068E-3   3.870631706025882E-2  -1.105782085717303E-1  
 2.006201240248050E10   -3.503082678265686E-2   4.280049479750356E-1   5.664973953447016E-3   7.050951654120763E-3   7.240110854364612E-3   5.815549403646014E-3   3.751930052563604E-2  -1.198165566587280E-1  
 2.006401280256051E10   -3.594714748017357E-2   4.303518320214230E-1   6.032911204552943E-3   6.578251136742112E-3   7.937169902401665E-3   5.158969627656534E-3   4.213830648154758E-2  -1.248544954416279E-1  
 2.006601320264053E10   -3.666083298837908E-2   4.286773196091699E-1   6.492256104332446E-3   6.111184242340577E-3   6.484764830404369E-3   4.501591720774268E-3   4.704938668781252E-2  -1.356494096747276E-1  
 2.006801360272054E10   -3.669220603997948E-2   4.232833710523872E-1   6.975657070493743E-3   5.504420185809555E-3   9.016341702735655E-3   3.179822671279039E-3   5.860583882689250E-2  -1.418359685704990E-1  
 2.007001400280056E10   -3.647834112279919E-2   4.141429130012512E-1   7.448863695665598E-3   4.813382876292297E-3   8.984746405989140E-3   3.369092698698098E-3   5.696674508204286E-2  -1.494776216877065E-1  
 2.007201440288058E10   -3.562173132901804E-2   4.015144973328270E-1   7.772108486664518E-3   4.307659032190055E-3   8.272512506711849E-3   2.060287041184967E-3   6.640680627637091E-2  -1.520609233406174E-1  
 2.007401480296059E10   -3.370678443998572E-2   3.844809746731864E-1   8.175741799632794E-3   3.636847664680094E-3   8.041472755158406E-3   4.913190598220248E-4   6.695228114796417E-2  -1.578794712257972E-1  
 2.007601520304061E10   -3.180703648314483E-2   3.637315579806358E-1   8.521569666006118E-3   2.829915876112256E-3   8.119201133986623E-3   1.174553792514296E-3   7.050974620649256E-2  -1.641003688624539E-1  
 2.007801560312063E10   -2.945348087454372E-2   3.389994059992018E-1   8.810577992894799E-3   2.004294192929064E-3   7.750090678042080E-3   9.394038738461805E-5   7.628374735985775E-2  -1.640435017160268E-1  
 2.008001600320064E10   -2.745566650128227E-2   3.126566612190057E-1   8.918728512725738E-3   1.186837774398573E-3   9.499510803282454E-3  -1.839476799675372E-4   8.675312328769216E-2  -1.729101957984957E-1  
 2.008201640328066E10   -2.485862077038718E-2   2.826901425116865E-1   9.134040196721290E-3   3.525892405015523E-4   8.236534170836580E-3  -1.756470025927183E-3   8.965669545252111E-2  -1.616718141700844E-1  
 2.008401680336067E10   -2.145602458583232E-2   2.506563026693071E-1   9.164074650231583E-3  -7.236878756114542E-4   8.619922190127555E-3  -2.500943990332812E-3   1.046993461361907E-1  -1.667047562051898E-1  
 2.008601720344069E10   -1.763549079748690E-2   2.170577339566984E-1   8.985806204355292E-3  -1.677088478811840E-3   7.796970096816658E-3  -3.227262478976419E-3   1.044215712955809E-1  -1.644087772052276E-1  
 2.008801760352070E10   -1.422869341790199E-2   1.812962042854094E-1   8.522229029208787E-3  -2.534465926180096E-3   7.369791364716279E-3  -4.627973009380386E-3   1.075998349270537E-1  -1.523079976193657E-1  
 2.009001800360072E10   -1.079821657415661E-2   1.441551840173758E-1   8.055096348207709E-3  -3.226451346581912E-3   6.077562774647208E-3  -5.637559237764123E-3   1.131138218108171E-1  -1.535738261926303E-1  
 2.009201840368074E10   -6.799272043402128E-3   1.063715888240708E-1   7.489300572274225E-3  -3.822232229755608E-3   5.339756794681824E-3  -5.897471136388955E-3   1.226324342151586E-1  -1.536311536116311E-1  
 2.009401880376075E10   -3.329802607425655E-3   6.829458555013318E-2   7.149230799923422E-3  -4.299238042487412E-3   5.385904353260198E-3  -6.357622377666154E-3   1.179116434236548E-1  -1.484413317997536E-1  
 2.009601920384077E10    2.002291685964470E-5   2.990984900925147E-2   6.703118934408947E-3  -4.933183528436159E-3   5.569762500174396E-3  -6.095995386811225E-3   1.210117755338232E-1  -1.437738709621639E-1  
 2.009801960392078E10    2.626735574179366E-3  -7.294326991600950E-3   6.334520445512271E-3  -5.324834404885555E-3   3.561392699264093E-3  -6.295851895727400E-3   1.248703167900070E-1  -1.394919941250241E-1  
 2.010002000400080E10    5.451834101197886E-3  -4.363055245064750E-2   5.727190484014978E-3  -5.918527064901421E-3   4.220226384109619E-3  -6.453105024795991E-3   1.305017341218487E-1  -1.323765921693788E-1  
 2.010202040408081E10    7.569244679304858E-3  -7.754653756994923E-2   5.113773014861487E-3  -6.333769580051968E-3   2.893178473433304E-3  -7.193702046226970E-3   1.193088138127638E-1  -1.268707105138394E-1  
 2.010402080416083E10    1.006566714333705E-2  -1.096195121085195E-1   4.618031448900446E-3  -6.607383755747745E-3   2.186740612122919E-3  -7.817697630476555E-3   1.248262676238632E-1  -1.281182729572589E-1  
 2.010602120424085E10    1.227128170545551E-2  -1.397938715662463E-1   4.078238725887934E-3  -6.913911550965478E-3   2.645726386251742E-3  -7.686161273961139E-3   1.221292520322877E-1  -1.188130231585110E-1  
 2.010802160432087E10    1.385710437608839E-2  -1.662286959888841E-1   3.588910518742005E-3  -7.470383304781477E-3   1.551160617968450E-3  -8.509713030795566E-3   1.196287627537477E-1  -1.093328886691212E-1  
 2.011002200440088E10    1.571928146301568E-2  -1.891423675274278E-1   2.913185942222678E-3  -8.119621138949471E-3   2.023405248585420E-4  -8.066768743369510E-3   1.147692989888907E-1  -1.070845430581293E-1  
 2.011202240448090E10    1.750041599212265E-2  -2.086896778301444E-1   1.844242483281716E-3  -8.527242556893555E-3   6.710925609802578E-4  -8.312193347349889E-3   1.105541406137289E-1  -9.752500425492444E-2  
 2.011402280456091E10    1.994154663242136E-2  -2.242371286259813E-1   6.613787540537184E-4  -8.631884991868939E-3  -1.470690619062949E-3  -8.083936760209269E-3   1.075038465717781E-1  -9.237069021935421E-2  
 2.011602320464093E10    2.349972627183696E-2  -2.366811415844101E-1  -3.840467128464006E-4  -8.407319887378204E-3  -2.933941654613837E-3  -8.149462066427067E-3   9.353188067685407E-2  -8.335143524822727E-2  
 2.011802360472094E10    2.739119044766808E-2  -2.446006469290433E-1  -1.172012697752520E-3  -7.982298692722559E-3  -3.166781901159481E-3  -7.482098287495185E-3   9.313323772771644E-2  -7.953506837289326E-2  
 2.012002400480096E10    3.139815607981918E-2  -2.494908630719680E-1  -1.652835442999659E-3  -7.666179012953417E-3  -4.000247452559249E-3  -7.125902044563148E-3   8.293758730328887E-2  -6.867440028966287E-2  
 2.012202440488098E10    3.572687052566043E-2  -2.512463535455317E-1  -2.250597236034047E-3  -7.570638837032880E-3  -3.973420745420732E-3  -6.608824663267153E-3   7.190634456894547E-2  -7.546859284868110E-2  
 2.012402480496099E10    3.882750825937338E-2  -2.493844646541557E-1  -2.781632943586508E-3  -7.470819565125273E-3  -4.393111872194717E-3  -6.660448864170198E-3   6.472654476784279E-2  -6.282652988133894E-2  
 2.012602520504101E10    4.312660009604034E-2  -2.444664732836876E-1  -3.656081548746227E-3  -7.377225007937426E-3  -5.031439924535426E-3  -5.970324432565354E-3   5.358101621987058E-2  -6.815038206650693E-2  
 2.012802560512103E10    4.671972985419363E-2  -2.352096831930832E-1  -4.670755656501246E-3  -7.116003473176088E-3  -6.443269151138848E-3  -4.844382232417871E-3   4.094866056164744E-2  -5.928230694723313E-2  
 2.013002600520104E10    5.017418239352792E-2  -2.220721162543704E-1  -5.665306530422339E-3  -6.498025932436543E-3  -7.598619311169528E-3  -4.865313885478249E-3   3.987994789646108E-2  -5.364044072733323E-2  
 2.013202640528106E10    5.381760372409168E-2  -2.071247287102374E-1  -6.477232964170248E-3  -5.630882809473649E-3  -7.422117790464608E-3  -4.489295278402402E-3   2.670422534238087E-2  -5.525538223402116E-2  
 2.013402680536107E10    5.711525033156974E-2  -1.878669759965962E-1  -7.070508951485980E-3  -4.625800507495323E-3  -8.027491278847479E-3  -2.534636076305937E-3   1.890405034461772E-2  -5.190073302902868E-2  
 2.013602720544109E10    5.991001991997333E-2  -1.663269209341483E-1  -7.403198812013328E-3  -3.623542186708649E-3  -8.276047153752381E-3  -1.379313098163866E-3   8.066671982760150E-3  -4.714318447042819E-2  
 2.013802760552110E10    6.265135588825596E-2  -1.432115745214895E-1  -7.595473402052612E-3  -2.647387739725178E-3  -8.868215900054077E-3  -5.658641997000521E-4  -5.632525421907855E-3  -5.320040029218649E-2  
 2.014002800560112E10    6.477942080878815E-2  -1.174422167046631E-1  -7.821881920584407E-3  -1.946647406969480E-3  -8.037878866835251E-3   3.441669332251346E-4  -7.431369736831428E-3  -4.803597052175566E-2  
 2.014202840568114E10    6.634162345672093E-2  -9.014365401959000E-2  -7.955897760906449E-3  -9.365646112873147E-4  -7.786744569286674E-3   4.943479746740719E-4  -2.199837926125221E-2  -5.753678216306510E-2  
 2.014402880576115E10    6.812010914981073E-2  -6.135248766299216E-2  -7.976378357107501E-3   2.168099636595345E-5  -8.570264789606291E-3   1.380564075447037E-3  -2.858561847374203E-2  -6.423261994324513E-2  
 2.014602920584117E10    6.953324689727627E-2  -3.110125914379455E-2  -7.697883131755991E-3   9.205379053785386E-4  -6.573695668035379E-3   3.130265170208687E-3  -3.473265786226633E-2  -6.385514637313933E-2  
 2.014802960592119E10    6.977044794225931E-2  -1.089449751535885E-3  -7.440300232531093E-3   1.670746488450946E-3  -6.197485791899885E-3   3.759440516317089E-3  -4.636625275148877E-2  -6.962841560290038E-2  
 2.015003000600120E10    6.940557241252182E-2   2.941846564118520E-2  -6.991096400417404E-3   2.401192965160381E-3  -7.452383940387945E-3   3.918815765039873E-3  -5.007413128164588E-2  -7.726308311813568E-2  
 2.015203040608122E10    6.867588396005520E-2   6.075984478279854E-2  -6.633138795423391E-3   2.943230599650791E-3  -6.068854252720989E-3   3.905150101269236E-3  -6.268140150603244E-2  -7.832608820710413E-2  
 2.015403080616123E10    6.805184172587833E-2   9.197287918145043E-2  -6.175000993652285E-3   3.748599653247503E-3  -5.207535587811690E-3   4.832652723307422E-3  -5.713044266372757E-2  -8.572294644025136E-2  
 2.015603120624125E10    6.634947795107429E-2   1.210455270136177E-1  -5.492532593242695E-3   4.205711072857223E-3  -4.295777886096806E-3   5.527777153717199E-3  -6.848123861033681E-2  -9.667167232989682E-2  
 2.015803160632127E10    6.467323024010910E-2   1.504404000444912E-1  -5.085671056081688E-3   4.539583520434917E-3  -4.661698611096431E-3   5.351718308995369E-3  -7.062323930810099E-2  -1.027772265415503E-1  
 2.016003200640128E10    6.222489752010452E-2   1.780497751004218E-1  -4.682225211144597E-3   5.157764726316834E-3  -2.924295790008173E-3   6.473271647532796E-3  -7.941698209888420E-2  -1.063218930466458E-1  
 2.016203240648130E10    5.971561510331645E-2   2.029474817040325E-1  -4.145646011568287E-3   5.726782306616281E-3  -1.522727846785808E-3   6.420137183374983E-3  -7.182873637052221E-2  -1.097424071259500E-1  
 2.016403280656131E10    5.621367590896049E-2   2.262019752660197E-1  -3.224299215965038E-3   6.115830471352749E-3  -1.045879614384204E-3   7.220571150254145E-3  -7.504495531599002E-2  -1.228459317781961E-1  
 2.016603320664133E10    5.248754139532921E-2   2.466877421601642E-1  -2.516410140712377E-3   6.435849977670950E-3  -9.679167187204863E-4   5.732544695655116E-3  -7.003712474333662E-2  -1.271998702265728E-1  
 2.016803360672134E10    4.962795592369798E-2   2.644514917889584E-1  -1.707108042372443E-3   6.433109980822913E-3   5.341073629049301E-4   6.964426915014250E-3  -7.356391471497167E-2  -1.251332853742112E-1  
 2.017003400680136E10    4.640226794300816E-2   2.790242163336797E-1  -1.072689667690469E-3   6.338986961948941E-3   1.693865349222527E-3   6.595605501229408E-3  -7.297100013839419E-2  -1.391368720490812E-1  
 2.017203440688138E10    4.230726220223287E-2   2.912482688348287E-1  -6.186039369332852E-4   6.265229389670082E-3   1.100171553061721E-3   6.244347155656747E-3  -6.697034870603622E-2  -1.440488270531117E-1  
 2.017403480696139E10    3.757908825713578E-2   2.995786261649246E-1  -2.472295142858568E-4   6.368980273089638E-3   1.334434992193006E-3   5.972358879897874E-3  -7.112492761245944E-2  -1.407326788420366E-1  
 2.017603520704141E10    3.346547660560244E-2   3.048673395058811E-1   3.013786490673229E-4   6.523542519538230E-3   1.002899474714057E-3   6.745036999388377E-3  -5.794803532629267E-2  -1.546345180053106E-1  
 2.017803560712143E10    2.816178147374203E-2   3.074243870325226E-1   1.013602870017303E-3   6.735710531664367E-3   3.451256611739886E-3   6.906379000275218E-3  -5.512665152421858E-2  -1.566232661613465E-1  
 2.018003600720144E10    2.423695666013042E-2   3.069543049280954E-1   1.838722149452883E-3   6.822787038293555E-3   3.290803531196226E-3   5.509964943460795E-3  -5.120685268914196E-2  -1.547535249449372E-1  
 2.018203640728146E10    2.182440972042316E-2   3.037113021294722E-1   2.381781494284283E-3   6.865201493154701E-3   3.857132464735673E-3   5.428609409687021E-3  -4.605109377956124E-2  -1.572530796006790E-1  
 2.018403680736147E10    2.023305170097570E-2   2.966496148665370E-1   3.285700607700378E-3   6.875140499770658E-3   4.889678157612241E-3   5.467785905708071E-3  -3.978643646422524E-2  -1.597565588728440E-1  
 2.018603720744149E10    1.941508525920557E-2   2.866999752840946E-1   4.200914730020598E-3   6.534064258853466E-3   6.110717222907154E-3   4.902852760689892E-3  -2.804415132479907E-2  -1.620743751203092E-1  
