#  HZ   S   RI   R     50.00 
! Rohde & Schwarz ZVA40 4Ports - Version 3.90 - 1145.1110k42 SN: 100403
! Date: 2023-09-28 08:45:29
! Measurement: S22 
! 
 2.000000000000000E10    6.030475210547449E-2  -1.228032939195633E-1  
 2.000200000000000E10    4.656363645195961E-2  -1.097751275181770E-1  
 2.000400000000000E10    3.788181122541429E-2  -9.671191189289094E-2  
 2.000600000000000E10    2.992314841747285E-2  -8.483063628673555E-2  
 2.000800000000000E10    2.405219749510289E-2  -6.910529202222826E-2  
 2.001000000000000E10    1.730519135892392E-2  -5.888969841003419E-2  
 2.001200000000000E10    6.272975246235730E-3  -5.170503011941911E-2  
 2.001400000000000E10    9.211288545280698E-4  -4.309041936993600E-2  
 2.001600000000000E10   -4.557135013304651E-3  -3.635554047822952E-2  
 2.001800000000000E10   -1.120473092943430E-2  -2.423195841908455E-2  
 2.002000000000000E10   -1.146643293797970E-2  -1.692160171270371E-2  
 2.002200000000000E10   -1.629554921090603E-2  -1.007129745632410E-2  
 2.002400000000000E10   -2.100927511751652E-2  -1.032696761637926E-2  
 2.002600000000000E10   -2.342550811171532E-2  -6.011297862976791E-3  
 2.002800000000000E10   -2.645193023085595E-2  -5.856924037635328E-3  
 2.003000000000000E10   -2.786479324996472E-2  -8.589119724929335E-3  
 2.003200000000000E10   -2.830892861485482E-2  -7.968616759032014E-3  
 2.003400000000000E10   -3.444621870517731E-2  -1.446234058141709E-2  
 2.003600000000000E10   -3.166876215934754E-2  -1.703447381258011E-2  
 2.003800000000000E10   -3.167431266307832E-2  -2.366462894380093E-2  
 2.004000000000000E10   -2.877457218766213E-2  -2.734878237247468E-2  
 2.004200000000000E10   -2.446562733948231E-2  -3.341846925914288E-2  
 2.004400000000000E10   -2.576994929015637E-2  -3.369362032413483E-2  
 2.004600000000000E10   -2.211043592691422E-2  -4.978173201084138E-2  
 2.004800000000000E10   -1.743719401061535E-2  -6.815287228822708E-2  
 2.005000000000000E10   -1.625093046724797E-2  -7.896851172447206E-2  
 2.005200000000000E10   -1.165006240010262E-2  -8.937235585451128E-2  
 2.005400000000000E10   -8.812846706807615E-3  -1.034596536278725E-1  
 2.005600000000000E10   -2.413080570846797E-3  -1.146922962665558E-1  
 2.005800000000000E10   -1.929678663611413E-4  -1.264116426944733E-1  
 2.006000000000000E10    6.460169175267220E-3  -1.383974985837936E-1  
 2.006200000000000E10    1.515037809014320E-2  -1.535326741218567E-1  
 2.006400000000000E10    1.571519102603198E-2  -1.680610898971558E-1  
 2.006600000000000E10    2.057041092216969E-2  -1.813478567123414E-1  
 2.006800000000000E10    2.504114116430283E-2  -1.936063604593277E-1  
 2.007000000000000E10    2.662548198997975E-2  -1.996979629278183E-1  
 2.007200000000000E10    2.848861869573593E-2  -2.070564113378525E-1  
 2.007400000000000E10    3.441131501197815E-2  -2.175056806564332E-1  
 2.007600000000000E10    3.545162035226822E-2  -2.214519713401795E-1  
 2.007800000000000E10    3.979156445860864E-2  -2.289317499637605E-1  
 2.008000000000000E10    3.483893312811853E-2  -2.330247121572495E-1  
 2.008200000000000E10    4.055188938379289E-2  -2.363577567815781E-1  
 2.008400000000000E10    4.263353763818742E-2  -2.379179970502854E-1  
 2.008600000000000E10    3.827785497903824E-2  -2.373912079811097E-1  
 2.008800000000000E10    3.787661082744599E-2  -2.393661550998688E-1  
 2.009000000000000E10    3.391078095436097E-2  -2.321604175090790E-1  
 2.009200000000000E10    3.220484253168107E-2  -2.291135212659836E-1  
 2.009400000000000E10    2.930089488625527E-2  -2.213497926473618E-1  
 2.009600000000000E10    2.773322726786137E-2  -2.172606419086457E-1  
 2.009800000000000E10    2.330448246002198E-2  -2.093857863664628E-1  
 2.010000000000000E10    2.055714581310749E-2  -1.985399746179581E-1  
 2.010200000000000E10    1.283017101883889E-2  -1.920020033121110E-1  
 2.010400000000000E10    5.445370285212994E-3  -1.797077667951584E-1  
 2.010600000000000E10   -1.250128818862141E-3  -1.625874797582627E-1  
 2.010800000000000E10   -1.106466673873365E-2  -1.531815946578980E-1  
 2.011000000000000E10   -1.493036684989929E-2  -1.384736814975739E-1  
 2.011200000000000E10   -2.364594725072385E-2  -1.220148428797722E-1  
 2.011400000000000E10   -3.006336951851845E-2  -1.095665293931961E-1  
 2.011600000000000E10   -3.813138514161110E-2  -9.872410978078844E-2  
 2.011800000000000E10   -4.740039482712747E-2  -8.561536904573441E-2  
 2.012000000000000E10   -6.032008473873140E-2  -7.255808774232865E-2  
 2.012200000000000E10   -6.660545581579210E-2  -5.927127676010133E-2  
 2.012400000000000E10   -7.136541296243669E-2  -3.903394286036492E-2  
 2.012600000000000E10   -7.922508080005647E-2  -3.187643827199937E-2  
 2.012800000000000E10   -8.211168292760851E-2  -1.793647156655789E-2  
 2.013000000000000E10   -9.114338811635973E-2  -1.169476027786732E-2  
 2.013200000000000E10   -9.489127396345139E-2  -2.834565976262093E-3  
 2.013400000000000E10   -1.000781428098679E-1   8.588902769237759E-3  
 2.013600000000000E10   -1.059312736034394E-1   1.367725878953934E-2  
 2.013800000000000E10   -1.028302386879921E-1   1.656378335356713E-2  
 2.014000000000000E10   -1.085409369707108E-1   1.964247172474861E-2  
 2.014200000000000E10   -1.086278834819794E-1   2.533658522069455E-2  
 2.014400000000000E10   -1.097122999072075E-1   2.367215877473354E-2  
 2.014600000000000E10   -1.084101545810700E-1   2.524401486217976E-2  
 2.014800000000000E10   -1.094033644437790E-1   2.150842116773129E-2  
 2.015000000000000E10   -1.080873436570168E-1   1.755212337076664E-2  
 2.015200000000000E10   -1.053674387097359E-1   1.068195826858282E-2  
 2.015400000000000E10   -9.795290069580080E-2   2.594775450136513E-3  
 2.015600000000000E10   -9.744717938899997E-2  -1.109220895916224E-3  
 2.015800000000000E10   -9.300632491111756E-2  -8.277818018198015E-3  
 2.016000000000000E10   -8.814840505123141E-2  -2.071202482879162E-2  
 2.016200000000000E10   -8.107075721025467E-2  -2.752048078477383E-2  
 2.016400000000000E10   -7.342118824720384E-2  -3.813163835406304E-2  
 2.016600000000000E10   -6.867623406648636E-2  -4.932531595826150E-2  
 2.016800000000000E10   -6.395036794543269E-2  -6.458168141245843E-2  
 2.017000000000000E10   -5.639101881384850E-2  -7.695964443683626E-2  
 2.017200000000000E10   -5.340699285268785E-2  -8.621640188694003E-2  
 2.017400000000000E10   -4.580755388736725E-2  -9.779817363023760E-2  
 2.017600000000000E10   -4.050596872568131E-2  -1.027813163757325E-1  
 2.017800000000000E10   -3.220675247013569E-2  -1.173423555970192E-1  
 2.018000000000000E10   -2.586644298136235E-2  -1.245906859874725E-1  
 2.018200000000000E10   -1.947189428508282E-2  -1.343560450792313E-1  
 2.018400000000000E10   -1.236176100373268E-2  -1.424325746297837E-1  
 2.018600000000000E10   -1.016279399394989E-2  -1.456792723178864E-1  
 2.018800000000000E10   -5.324224301427604E-3  -1.559697262287141E-1  
 2.019000000000000E10   -3.125041709095240E-3  -1.570795469760895E-1  
 2.019200000000000E10    1.940881937742234E-3  -1.576518893957138E-1  
 2.019400000000000E10    3.265400732308627E-3  -1.592136031150818E-1  
 2.019600000000000E10    9.161941926181317E-3  -1.566436046123505E-1  
 2.019800000000000E10    1.256893869340420E-2  -1.544455944538117E-1  
 2.020000000000000E10    1.145373178422451E-2  -1.499916196107865E-1  
 2.020200000000000E10    1.426032814830542E-2  -1.448446694612503E-1  
 2.020400000000000E10    1.269174043834210E-2  -1.395546992778778E-1  
 2.020600000000000E10    1.256010620296002E-2  -1.311131916999817E-1  
 2.020800000000000E10    1.236167384386063E-2  -1.187031642675400E-1  
 2.021000000000000E10    1.168272511214018E-2  -1.106959225058556E-1  
 2.021200000000000E10    1.001135496795177E-2  -9.797556782960894E-2  
 2.021400000000000E10    8.259299902617931E-3  -8.305412535667420E-2  
 2.021600000000000E10    6.695532128214775E-5  -6.729861679077150E-2  
 2.021800000000000E10   -1.376882813125849E-3  -5.363866062760354E-2  
 2.022000000000000E10   -7.163448487501591E-3  -4.130421546101571E-2  
 2.022200000000000E10   -8.909089604578913E-3  -2.659796239435673E-2  
 2.022400000000000E10   -1.882218392044306E-2  -5.370215807855130E-3  
 2.022600000000000E10   -2.549085863232613E-2   1.196726030260325E-2  
 2.022800000000000E10   -2.727372930049896E-2   2.760766739547253E-2  
 2.023000000000000E10   -3.379994435310364E-2   4.226310025453568E-2  
 2.023200000000000E10   -4.088389927744866E-2   5.766417527794840E-2  
 2.023400000000000E10   -4.542070066928864E-2   7.373184077739717E-2  
 2.023600000000000E10   -5.060378295779229E-2   8.622881274223329E-2  
 2.023800000000000E10   -5.371079676151277E-2   9.589483691453934E-2  
 2.024000000000000E10   -5.969100034832955E-2   1.124894138813019E-1  
 2.024200000000000E10   -6.491991385221484E-2   1.296447659015656E-1  
 2.024400000000000E10   -6.865857354402542E-2   1.374724729061127E-1  
 2.024600000000000E10   -7.003730075359345E-2   1.456417596340180E-1  
 2.024800000000000E10   -7.459222562313081E-2   1.507992238283157E-1  
 2.025000000000000E10   -7.684723720550538E-2   1.595621562480927E-1  
 2.025200000000000E10   -7.382261024713517E-2   1.603760127782822E-1  
 2.025400000000000E10   -7.780241640806200E-2   1.675371481657028E-1  
 2.025600000000000E10   -7.885823146104815E-2   1.640387457609177E-1  
 2.025800000000000E10   -7.673889321088792E-2   1.669135106325150E-1  
 2.026000000000000E10   -7.626700531244279E-2   1.675838697910310E-1  
 2.026200000000000E10   -7.056617552042009E-2   1.627580300092697E-1  
 2.026400000000000E10   -6.482956243753435E-2   1.566225448846818E-1  
 2.026600000000000E10   -5.738520011305810E-2   1.487374128818512E-1  
 2.026800000000000E10   -5.112130134701731E-2   1.408302429437638E-1  
 2.027000000000000E10   -4.515152824521065E-2   1.295732882738114E-1  
 2.027200000000000E10   -3.916149063706399E-2   1.223500962734223E-1  
 2.027400000000000E10   -3.052091037631035E-2   1.080883048653603E-1  
 2.027600000000000E10   -2.332232273519039E-2   9.564089839458467E-2  
 2.027800000000000E10   -1.542265006303788E-2   8.449077473878862E-2  
 2.028000000000000E10   -3.205139137338847E-3   7.091262948513033E-2  
 2.028200000000000E10    4.160319849103690E-3   5.217547701597215E-2  
 2.028400000000000E10    1.259305906444788E-2   3.797338932752609E-2  
 2.028600000000000E10    2.316166195571423E-2   2.077795868217945E-2  
 2.028800000000000E10    2.993601876497270E-2   5.415360319614411E-3  
 2.029000000000000E10    4.302779624462129E-2  -5.223935559205712E-3  
 2.029200000000000E10    4.933707226514817E-2  -2.285232699513436E-2  
 2.029400000000000E10    5.931220301985742E-2  -3.837015718817712E-2  
 2.029600000000000E10    6.545050550699234E-2  -4.578154748082162E-2  
 2.029800000000000E10    7.505671215057375E-2  -5.940507371425630E-2  
 2.030000000000000E10    8.551489450931550E-2  -6.823884215354921E-2  
 2.030200000000000E10    9.088329480886462E-2  -8.020373275280002E-2  
 2.030400000000000E10    1.020649287223816E-1  -8.558602913618088E-2  
 2.030600000000000E10    1.018232382535935E-1  -9.322521108388904E-2  
 2.030800000000000E10    1.044462751269341E-1  -9.422012969255450E-2  
 2.031000000000000E10    1.098320766448975E-1  -9.410630445480350E-2  
 2.031200000000000E10    1.155278555512428E-1  -9.724061133861545E-2  
 2.031400000000000E10    1.196032159805298E-1  -9.176150542497635E-2  
 2.031600000000000E10    1.210696307420731E-1  -9.099270956516269E-2  
 2.031800000000000E10    1.240770060300827E-1  -8.988173038959504E-2  
 2.032000000000000E10    1.229827606201172E-1  -8.275514495372772E-2  
 2.032200000000000E10    1.227236633777619E-1  -7.978488737344744E-2  
 2.032400000000000E10    1.209498553156853E-1  -6.975343304872515E-2  
 2.032600000000000E10    1.242353898763657E-1  -5.803881124258042E-2  
 2.032800000000000E10    1.137535582780838E-1  -4.528330973386765E-2  
 2.033000000000000E10    1.119763733983040E-1  -3.587838521003724E-2  
 2.033200000000000E10    1.132463138699532E-1  -2.429579454064370E-2  
 2.033400000000000E10    1.099378018975258E-1  -1.205533615797758E-2  
 2.033600000000000E10    1.051427849054337E-1  -1.777462366223335E-3  
 2.033800000000000E10    1.001066897988320E-1   1.767847168445588E-2  
 2.034000000000000E10    9.700370801687244E-2   2.975742104053498E-2  
 2.034200000000000E10    8.875883711576463E-2   4.020419112443924E-2  
 2.034400000000000E10    8.445346940755845E-2   5.594980495572090E-2  
 2.034600000000000E10    7.895155413150790E-2   6.739834237098695E-2  
 2.034800000000000E10    7.104008446931841E-2   7.817320148944856E-2  
 2.035000000000000E10    6.847411665916443E-2   9.063288749456407E-2  
 2.035200000000000E10    6.348981673717501E-2   9.947900354862216E-2  
 2.035400000000000E10    5.832811015844346E-2   1.103231964230538E-1  
 2.035600000000000E10    5.094434895515443E-2   1.167103060483933E-1  
 2.035800000000000E10    4.433532570004464E-2   1.204932863116265E-1  
 2.036000000000000E10    3.942989801168443E-2   1.262030682206154E-1  
 2.036200000000000E10    3.711230116486550E-2   1.283404218435287E-1  
 2.036400000000000E10    3.583118650913239E-2   1.289593767881394E-1  
 2.036600000000000E10    3.281748620867730E-2   1.302367781639099E-1  
 2.036800000000000E10    3.051173807084561E-2   1.300813926815987E-1  
 2.037000000000000E10    2.606037463992834E-2   1.222310772538186E-1  
 2.037200000000000E10    2.462382920980454E-2   1.191354044198990E-1  
 2.037400000000000E10    2.923048997819424E-2   1.096333641529084E-1  
 2.037600000000000E10    2.737565877139569E-2   1.014534658193589E-1  
 2.037800000000000E10    2.741765850782395E-2   9.115645720958711E-2  
 2.038000000000000E10    2.866763783395291E-2   8.183752272129061E-2  
 2.038200000000000E10    3.140164706110955E-2   6.553592880964279E-2  
 2.038400000000000E10    3.459433236718179E-2   5.406715252995492E-2  
 2.038600000000000E10    3.619853698015214E-2   4.171156742572785E-2  
 2.038800000000000E10    4.325459865033627E-2   2.261309268176556E-2  
 2.039000000000000E10    4.429228798151016E-2   2.944633311033249E-3  
 2.039200000000000E10    4.990285217165948E-2  -1.479206847846508E-2  
 2.039400000000000E10    5.355663393139840E-2  -3.216870777606964E-2  
 2.039600000000000E10    5.805040408372880E-2  -5.192808839678766E-2  
 2.039800000000000E10    6.277698913812638E-2  -6.649545485973359E-2  
 2.040000000000000E10    6.651591014862063E-2  -8.224060798883441E-2  
 2.040200000000000E10    7.354308673143389E-2  -1.008630648970604E-1  
 2.040400000000000E10    8.162325212955476E-2  -1.214337213158608E-1  
 2.040600000000000E10    8.478436192274096E-2  -1.317737325668335E-1  
 2.040800000000000E10    8.842759847640992E-2  -1.523669509649277E-1  
 2.041000000000000E10    9.544076621532441E-2  -1.679896230459213E-1  
 2.041200000000000E10    9.964680597782137E-2  -1.770939472913742E-1  
 2.041400000000000E10    1.060975712776184E-1  -1.886402288913728E-1  
 2.041600000000000E10    1.096207408070564E-1  -2.003604317903519E-1  
 2.041800000000000E10    1.169166890859604E-1  -2.082453002452850E-1  
 2.042000000000000E10    1.185109063863754E-1  -2.178443529844285E-1  
 2.042200000000000E10    1.216943084836007E-1  -2.187716347932816E-1  
 2.042400000000000E10    1.211161986112595E-1  -2.259057021617890E-1  
 2.042600000000000E10    1.204652192234993E-1  -2.265625981092453E-1  
 2.042800000000000E10    1.223176812887192E-1  -2.261250399827958E-1  
 2.043000000000000E10    1.232017123937607E-1  -2.214920364379883E-1  
 2.043200000000000E10    1.260150286912918E-1  -2.157706679105759E-1  
 2.043400000000000E10    1.260885232448578E-1  -2.133563640356064E-1  
 2.043600000000000E10    1.220021410465241E-1  -2.069643212795258E-1  
 2.043800000000000E10    1.190344329953194E-1  -2.005479580402375E-1  
 2.044000000000000E10    1.154311664938927E-1  -1.934185829401017E-1  
 2.044200000000000E10    1.148194367051125E-1  -1.811583251953126E-1  
 2.044400000000000E10    1.061685025215149E-1  -1.698575928688050E-1  
 2.044600000000000E10    1.012890648841858E-1  -1.524262521743774E-1  
 2.044800000000000E10    9.950503572225573E-2  -1.406984716653824E-1  
 2.045000000000000E10    9.327344266176227E-2  -1.254691113233566E-1  
 2.045200000000000E10    9.133973517417909E-2  -1.134169947147370E-1  
 2.045400000000000E10    8.733155046701432E-2  -9.502806644439699E-2  
 2.045600000000000E10    7.861635687351229E-2  -8.501798849105836E-2  
 2.045800000000000E10    7.378216061592102E-2  -7.093912091255189E-2  
 2.046000000000000E10    6.308368231058122E-2  -5.545671299099923E-2  
 2.046200000000000E10    5.635221454501153E-2  -4.084901305437089E-2  
 2.046400000000000E10    5.254916748404503E-2  -2.566646307408810E-2  
 2.046600000000000E10    5.035792776942254E-2  -1.498024860322476E-2  
 2.046800000000000E10    4.538617926836015E-2  -4.755356796085835E-3  
 2.047000000000000E10    4.171022563576699E-2   4.327518247067929E-3  
 2.047200000000000E10    3.428874862790108E-2   9.066558148711922E-3  
 2.047400000000000E10    3.125733023881913E-2   1.725929228663445E-2  
 2.047600000000000E10    2.404684732556344E-2   2.435017523914576E-2  
 2.047800000000000E10    2.182314219176770E-2   2.447882843017579E-2  
 2.048000000000000E10    2.222796986997128E-2   3.064141163825989E-2  
 2.048200000000000E10    1.848441721051932E-2   2.889277344048024E-2  
 2.048400000000000E10    1.861144762784243E-2   2.712700958549977E-2  
 2.048600000000000E10    1.554751453697682E-2   2.259423954784871E-2  
 2.048800000000000E10    1.434857863038779E-2   2.166393295228481E-2  
 2.049000000000000E10    1.335080431848765E-2   1.186971615254879E-2  
 2.049200000000000E10    1.544274158328772E-2   2.372057916782798E-3  
 2.049400000000000E10    1.951871021986008E-2  -6.576088017690929E-3  
 2.049600000000000E10    1.710354701578618E-2  -1.974334811568260E-2  
 2.049800000000000E10    1.377261746376753E-2  -2.749546822309495E-2  
 2.050000000000000E10    1.986437418758869E-2  -3.839349691271783E-2  
 2.050200000000000E10    2.337206567674876E-2  -5.144856945872309E-2  
 2.050400000000000E10    2.692804286777974E-2  -6.976022933721544E-2  
 2.050600000000000E10    2.893249856233597E-2  -8.482426984310151E-2  
 2.050800000000000E10    3.495923876166345E-2  -9.871227353811266E-2  
 2.051000000000000E10    3.576468167603016E-2  -1.171591069459915E-1  
 2.051200000000000E10    3.867196028232575E-2  -1.307201943874360E-1  
 2.051400000000000E10    4.264605639576912E-2  -1.481803062915802E-1  
 2.051600000000000E10    4.424281997680665E-2  -1.587199199199677E-1  
 2.051800000000000E10    4.921460239291192E-2  -1.755605619668961E-1  
 2.052000000000000E10    5.429385394454003E-2  -1.863431155920029E-1  
 2.052200000000000E10    6.053709552884103E-2  -2.019114023685456E-1  
 2.052400000000000E10    6.343318982124330E-2  -2.150324968099595E-1  
 2.052600000000000E10    6.593441885709764E-2  -2.272032650232316E-1  
 2.052800000000000E10    6.987626937627794E-2  -2.319747637033463E-1  
 2.053000000000000E10    6.818371430635453E-2  -2.389194435119629E-1  
 2.053200000000000E10    7.260223267078400E-2  -2.446017605304718E-1  
 2.053400000000000E10    7.363960769176485E-2  -2.501271715879441E-1  
 2.053600000000000E10    7.553918319940567E-2  -2.479866363525391E-1  
 2.053800000000000E10    7.207425980567932E-2  -2.516158711910248E-1  
 2.054000000000000E10    7.347404552698136E-2  -2.547765791893006E-1  
 2.054200000000000E10    6.957241438627243E-2  -2.458616147279740E-1  
 2.054400000000000E10    6.853928246498109E-2  -2.447101739406586E-1  
 2.054600000000000E10    6.617249766588212E-2  -2.368897665500642E-1  
 2.054800000000000E10    6.083806527256967E-2  -2.288349380731583E-1  
 2.055000000000000E10    6.072491775751115E-2  -2.191711505651474E-1  
 2.055200000000000E10    5.375173883438111E-2  -2.124402848005295E-1  
 2.055400000000000E10    5.197139957547189E-2  -1.971828965425492E-1  
 2.055600000000000E10    4.675126052498819E-2  -1.891497376441956E-1  
