#  HZ   S   RI   R     50.00 
! Rohde & Schwarz ZVA40 4Ports - Version 3.90 - 1145.1110k42 SN: 100403
! Date: 2023-09-28 09:27:31
! Measurement: S12 
! 
 2.000000000000000E10    3.059762167847820E-3  -3.317076133357155E-2  
 2.000200000000000E10    5.149695013339322E-4  -3.390440303418372E-2  
 2.000400000000000E10   -3.155106989045938E-3  -3.332352348499829E-2  
 2.000600000000000E10   -6.946959636277623E-3  -3.310538828372955E-2  
 2.000800000000000E10   -1.012679572320647E-2  -3.166561159822676E-2  
 2.001000000000000E10   -1.279381290078163E-2  -3.077274126311144E-2  
 2.001200000000000E10   -1.720337859458394E-2  -2.953283488750458E-2  
 2.001400000000000E10   -2.081767759389348E-2  -2.710336591634486E-2  
 2.001600000000000E10   -2.411581824223201E-2  -2.556390066941580E-2  
 2.001800000000000E10   -2.628106623888016E-2  -2.280410793092516E-2  
 2.002000000000000E10   -2.862576912674639E-2  -1.951776237951385E-2  
 2.002200000000000E10   -3.040835199256738E-2  -1.666821001304521E-2  
 2.002400000000000E10   -3.317589312791824E-2  -1.338442611611552E-2  
 2.002600000000000E10   -3.437408349580236E-2  -9.791655465960503E-3  
 2.002800000000000E10   -3.393826302554873E-2  -5.244303029030561E-3  
 2.003000000000000E10   -3.487238743238980E-2  -2.043738055767285E-3  
 2.003200000000000E10   -3.634808543655608E-2   1.748867358805405E-3  
 2.003400000000000E10   -3.455900359484885E-2   6.355157794637814E-3  
 2.003600000000000E10   -3.459080681204796E-2   9.551573337780107E-3  
 2.003800000000000E10   -3.309575675262345E-2   1.498816803925568E-2  
 2.004000000000000E10   -3.061255460811986E-2   1.731227276225885E-2  
 2.004200000000000E10   -2.793457462555833E-2   2.038636265529527E-2  
 2.004400000000000E10   -2.692274231877592E-2   2.301118378010061E-2  
 2.004600000000000E10   -2.463880326184962E-2   2.606132005651792E-2  
 2.004800000000000E10   -2.125031480358707E-2   2.762074665062958E-2  
 2.005000000000000E10   -1.725364310873880E-2   3.029974198175801E-2  
 2.005200000000000E10   -1.381084654066298E-2   3.222868467370670E-2  
 2.005400000000000E10   -1.104662484592862E-2   3.354915190074179E-2  
 2.005600000000000E10   -7.201047614216805E-3   3.445424180891779E-2  
 2.005800000000000E10   -3.458603104162548E-3   3.565534245636728E-2  
 2.006000000000000E10   -7.499503650857757E-4   3.661597354544534E-2  
 2.006200000000000E10    4.120228346437217E-3   3.682596153683133E-2  
 2.006400000000000E10    8.069339208304882E-3   3.618927382760578E-2  
 2.006600000000000E10    1.207459873209397E-2   3.477243168486489E-2  
 2.006800000000000E10    1.469913259562519E-2   3.204757099350294E-2  
 2.007000000000000E10    1.832567196753290E-2   3.089769764078989E-2  
 2.007200000000000E10    2.236607629391883E-2   2.946036578052574E-2  
 2.007400000000000E10    2.700160547263093E-2   2.574302752812704E-2  
 2.007600000000000E10    2.874712956448397E-2   2.279042783710692E-2  
 2.007800000000000E10    2.968755985299746E-2   1.929851186772188E-2  
 2.008000000000000E10    3.102500115831693E-2   1.661656051874161E-2  
 2.008200000000000E10    3.250535701711973E-2   1.330893124557204E-2  
 2.008400000000000E10    3.444245912962490E-2   9.796204873257214E-3  
 2.008600000000000E10    3.653787117865351E-2   6.455610661456983E-3  
 2.008800000000000E10    3.667155404885610E-2   1.708506296078364E-3  
 2.009000000000000E10    3.641640187965500E-2  -2.439661003235314E-3  
 2.009200000000000E10    3.598323133256701E-2  -5.811550861431493E-3  
 2.009400000000000E10    3.420015962587463E-2  -1.091565833323532E-2  
 2.009600000000000E10    3.474602599938711E-2  -1.335028838366270E-2  
 2.009800000000000E10    3.271889355447558E-2  -1.840722416010168E-2  
 2.010000000000000E10    3.000828189154466E-2  -2.261543480886354E-2  
 2.010200000000000E10    2.661688046322929E-2  -2.471738950245911E-2  
 2.010400000000000E10    2.261227348612415E-2  -2.660178724262450E-2  
 2.010600000000000E10    1.986735769444042E-2  -2.710378025141028E-2  
 2.010800000000000E10    1.814610055751271E-2  -2.932194889419609E-2  
 2.011000000000000E10    1.548237767484453E-2  -3.221847737828891E-2  
 2.011200000000000E10    1.201211516227987E-2  -3.392508336239392E-2  
 2.011400000000000E10    7.423898877782956E-3  -3.590061556961802E-2  
 2.011600000000000E10    3.720085317682889E-3  -3.461170941591263E-2  
 2.011800000000000E10    4.353552875626418E-4  -3.576660363210572E-2  
 2.012000000000000E10   -4.270625197225147E-3  -3.503948118951586E-2  
 2.012200000000000E10   -7.083271630108357E-3  -3.473095595836639E-2  
 2.012400000000000E10   -1.200585263884730E-2  -3.488645619816251E-2  
 2.012600000000000E10   -1.603389365805520E-2  -3.307228866550658E-2  
 2.012800000000000E10   -1.907583077748617E-2  -3.079974651336670E-2  
 2.013000000000000E10   -2.235782312022315E-2  -2.723614333404435E-2  
 2.013200000000000E10   -2.499397864772214E-2  -2.500607859757212E-2  
 2.013400000000000E10   -2.794839628040791E-2  -2.291453195114931E-2  
 2.013600000000000E10   -3.048777911398146E-2  -1.969342720177439E-2  
 2.013800000000000E10   -3.293209771315257E-2  -1.551439292314980E-2  
 2.014000000000000E10   -3.396180189318128E-2  -1.120704857425557E-2  
 2.014200000000000E10   -3.361595090892580E-2  -7.302249109165536E-3  
 2.014400000000000E10   -3.313477295968268E-2  -4.594818300878009E-3  
 2.014600000000000E10   -3.287675190303061E-2  -8.034870649377506E-4  
 2.014800000000000E10   -3.572041168808937E-2   2.468932730456193E-3  
 2.015000000000000E10   -3.367703656355540E-2   6.869957782328130E-3  
 2.015200000000000E10   -3.245879026750724E-2   1.082009956654575E-2  
 2.015400000000000E10   -3.060989764829477E-2   1.420801950411664E-2  
 2.015600000000000E10   -2.835851183368101E-2   1.730338856577873E-2  
 2.015800000000000E10   -2.667267103162077E-2   2.039624481565423E-2  
 2.016000000000000E10   -2.411993075576094E-2   2.260277647938994E-2  
 2.016200000000000E10   -2.177196016742124E-2   2.610111919542154E-2  
 2.016400000000000E10   -1.767729139990277E-2   2.812850123478307E-2  
 2.016600000000000E10   -1.614010064966149E-2   2.964062864581744E-2  
 2.016800000000000E10   -1.152424048632383E-2   3.030465563966169E-2  
 2.017000000000000E10   -8.689191399349108E-3   3.172779000467725E-2  
 2.017200000000000E10   -5.021699290308688E-3   3.261569266517957E-2  
 2.017400000000000E10   -1.449007385720809E-3   3.323733848002222E-2  
 2.017600000000000E10    2.419164714713891E-3   3.312169512112936E-2  
 2.017800000000000E10    6.629902869462967E-3   3.219681108991306E-2  
 2.018000000000000E10    9.895203531616265E-3   3.103555531965362E-2  
 2.018200000000000E10    1.321868401848608E-2   2.910233206219144E-2  
 2.018400000000000E10    1.635964473502504E-2   2.859497028920386E-2  
 2.018600000000000E10    1.923949561185307E-2   2.738386951386929E-2  
 2.018800000000000E10    2.271532950301965E-2   2.398078247076936E-2  
 2.019000000000000E10    2.501005637976859E-2   2.179858605894778E-2  
 2.019200000000000E10    2.753414482706123E-2   1.861289930012491E-2  
 2.019400000000000E10    2.939650126629406E-2   1.630978431138728E-2  
 2.019600000000000E10    3.072796058323649E-2   1.251157455974155E-2  
 2.019800000000000E10    3.348603803250525E-2   8.285529601077240E-3  
 2.020000000000000E10    3.350131379233467E-2   3.986214235838917E-3  
 2.020200000000000E10    3.402186971571711E-2  -3.569540050294664E-4  
 2.020400000000000E10    3.301873327129418E-2  -3.796327910903428E-3  
 2.020600000000000E10    3.220007775558366E-2  -7.362643567224345E-3  
 2.020800000000000E10    3.200695705082682E-2  -9.487455814248987E-3  
 2.021000000000000E10    3.073918508986633E-2  -1.353728833297889E-2  
 2.021200000000000E10    2.844262288676368E-2  -1.880837335354752E-2  
 2.021400000000000E10    2.650609115759532E-2  -2.100552183886369E-2  
 2.021600000000000E10    2.366277968717946E-2  -2.360162635644277E-2  
 2.021800000000000E10    2.147589851584700E-2  -2.521933656599787E-2  
 2.022000000000000E10    1.807400439348486E-2  -2.806708258059290E-2  
 2.022200000000000E10    1.629052083525393E-2  -3.108078075779809E-2  
 2.022400000000000E10    1.204381717575921E-2  -3.270820652445158E-2  
 2.022600000000000E10    8.690696313149400E-3  -3.471830156114367E-2  
 2.022800000000000E10    3.830290891023146E-3  -3.517634959684479E-2  
 2.023000000000000E10    4.396639576750912E-4  -3.523300339778265E-2  
 2.023200000000000E10   -2.445909582699339E-3  -3.537631862693363E-2  
 2.023400000000000E10   -7.927401405241756E-3  -3.520942479372025E-2  
 2.023600000000000E10   -1.130487552533547E-2  -3.495842756496536E-2  
 2.023800000000000E10   -1.689507315556208E-2  -3.172023615075482E-2  
 2.024000000000000E10   -1.965192043119007E-2  -2.932615557478534E-2  
 2.024200000000000E10   -2.205497854285770E-2  -2.772184213002523E-2  
 2.024400000000000E10   -2.447861557205518E-2  -2.440998247928090E-2  
 2.024600000000000E10   -2.627403620216582E-2  -2.262121852901247E-2  
 2.024800000000000E10   -2.932516050835451E-2  -1.896917406055663E-2  
 2.025000000000000E10   -3.093081774810950E-2  -1.649532436082761E-2  
 2.025200000000000E10   -3.264267204536332E-2  -1.265882193628285E-2  
 2.025400000000000E10   -3.438548536764251E-2  -9.379136272602612E-3  
 2.025600000000000E10   -3.477030123273532E-2  -6.604764610528946E-3  
 2.025800000000000E10   -3.533824574616221E-2  -2.762245143660241E-3  
 2.026000000000000E10   -3.587471776538426E-2   2.122985470729570E-3  
 2.026200000000000E10   -3.607140067550872E-2   5.864671586702268E-3  
 2.026400000000000E10   -3.516412816113897E-2   1.043809867567486E-2  
 2.026600000000000E10   -3.313921971453561E-2   1.406018622219563E-2  
 2.026800000000000E10   -3.149681414167087E-2   1.809106125599808E-2  
 2.027000000000000E10   -2.951120688683458E-2   2.082753409114149E-2  
 2.027200000000000E10   -2.747764873007934E-2   2.428600543902981E-2  
 2.027400000000000E10   -2.445747910274400E-2   2.630029639436140E-2  
 2.027600000000000E10   -2.099083550274372E-2   2.806018127335443E-2  
 2.027800000000000E10   -1.643590070307255E-2   3.096927040153080E-2  
 2.028000000000000E10   -1.424058392230007E-2   3.166333523889383E-2  
 2.028200000000000E10   -1.066518616345194E-2   3.404000567065346E-2  
 2.028400000000000E10   -7.337492631955280E-3   3.443909974561798E-2  
 2.028600000000000E10   -3.012600225499935E-3   3.633636401759254E-2  
 2.028800000000000E10    6.456791630221737E-4   3.631403338578013E-2  
 2.029000000000000E10    4.453240428119898E-3   3.554240034686195E-2  
 2.029200000000000E10    8.718011072940297E-3   3.578870122631391E-2  
 2.029400000000000E10    1.190527435392141E-2   3.469694861107403E-2  
 2.029600000000000E10    1.548755448311568E-2   3.293138452702099E-2  
 2.029800000000000E10    1.987622305750847E-2   3.217904145518939E-2  
 2.030000000000000E10    2.444235814942255E-2   2.719878156979879E-2  
 2.030200000000000E10    2.599974245660835E-2   2.462922036647797E-2  
 2.030400000000000E10    2.671485228670968E-2   2.060130611062050E-2  
 2.030600000000000E10    2.951674804919296E-2   1.823424713479148E-2  
 2.030800000000000E10    3.048723915384876E-2   1.600701858599981E-2  
 2.031000000000000E10    3.303818239106073E-2   1.278071498705281E-2  
 2.031200000000000E10    3.466022511323293E-2   8.771739175750151E-3  
 2.031400000000000E10    3.339415374729369E-2   3.920138606594669E-3  
 2.031600000000000E10    3.393403275145425E-2   1.683178677922115E-3  
 2.031800000000000E10    3.300325531098578E-2  -1.765877868617989E-3  
 2.032000000000000E10    3.430920466780663E-2  -4.641914533244239E-3  
 2.032200000000000E10    3.536173039012486E-2  -8.889798488881854E-3  
 2.032400000000000E10    3.347818512055609E-2  -1.381361111998558E-2  
 2.032600000000000E10    3.100115433335304E-2  -1.645882469084528E-2  
 2.032800000000000E10    2.897829272680813E-2  -2.073347651296192E-2  
 2.033000000000000E10    2.636491445203623E-2  -2.310158415800995E-2  
 2.033200000000000E10    2.391173235244221E-2  -2.523488820426995E-2  
 2.033400000000000E10    2.186124502784676E-2  -2.798871013025443E-2  
 2.033600000000000E10    1.739421962863869E-2  -3.071048069331381E-2  
 2.033800000000000E10    1.321785969452726E-2  -3.270108790861236E-2  
 2.034000000000000E10    9.136938386493260E-3  -3.267128434446123E-2  
 2.034200000000000E10    5.590498913079500E-3  -3.266966467102369E-2  
 2.034400000000000E10    3.719257242563698E-3  -3.298142014278306E-2  
 2.034600000000000E10    4.702917326034772E-4  -3.414994685186280E-2  
 2.034800000000000E10   -4.263128567900923E-3  -3.496473241183493E-2  
 2.035000000000000E10   -7.746142283495931E-3  -3.397994281517135E-2  
 2.035200000000000E10   -1.197873842385080E-2  -3.124307323661116E-2  
 2.035400000000000E10   -1.464252960350779E-2  -3.021357311970658E-2  
 2.035600000000000E10   -1.677931276046568E-2  -2.863043753637208E-2  
 2.035800000000000E10   -1.939958064920373E-2  -2.732666023075581E-2  
 2.036000000000000E10   -2.354421839118004E-2  -2.553559322324064E-2  
 2.036200000000000E10   -2.701871324744490E-2  -2.152031370335155E-2  
 2.036400000000000E10   -2.968838293519285E-2  -1.797490360008346E-2  
 2.036600000000000E10   -2.980892525778877E-2  -1.440602499577734E-2  
 2.036800000000000E10   -2.998117605845134E-2  -1.121022945476903E-2  
 2.037000000000000E10   -3.177782106730673E-2  -8.717978994051617E-3  
 2.037200000000000E10   -3.275137767195702E-2  -5.617828418811163E-3  
 2.037400000000000E10   -3.404280957248476E-2  -1.699617216622250E-3  
 2.037600000000000E10   -3.327861469652918E-2   2.692398873882161E-3  
 2.037800000000000E10   -3.247357035676639E-2   6.431359849456285E-3  
 2.038000000000000E10   -3.182974623309242E-2   1.031061572333177E-2  
 2.038200000000000E10   -3.049121134810978E-2   1.289967830396361E-2  
 2.038400000000000E10   -2.927785635822349E-2   1.663221315377289E-2  
 2.038600000000000E10   -2.735866523451275E-2   1.938898095654117E-2  
 2.038800000000000E10   -2.525568691392740E-2   2.327849446899361E-2  
 2.039000000000000E10   -2.172529386977355E-2   2.567690010699961E-2  
 2.039200000000000E10   -1.862297972871198E-2   2.869550718201532E-2  
 2.039400000000000E10   -1.537310704588890E-2   2.995646682878336E-2  
 2.039600000000000E10   -1.199794126053651E-2   3.073896446989643E-2  
 2.039800000000000E10   -8.272670830289524E-3   3.205943811270926E-2  
 2.040000000000000E10   -4.026753207047781E-3   3.341966122388840E-2  
 2.040200000000000E10   -2.827816836846373E-4   3.377100452780724E-2  
 2.040400000000000E10    3.398209241115385E-3   3.284830951856243E-2  
 2.040600000000000E10    7.538486168616349E-3   3.144823118216462E-2  
 2.040800000000000E10    1.009205759813388E-2   3.120533045795229E-2  
 2.041000000000000E10    1.298550216274129E-2   3.068131787909402E-2  
 2.041200000000000E10    1.790244194368522E-2   2.788487718337112E-2  
 2.041400000000000E10    1.947449044220978E-2   2.622903531624212E-2  
 2.041600000000000E10    2.346807428532177E-2   2.415843908157614E-2  
 2.041800000000000E10    2.398963872757223E-2   2.140195377998882E-2  
 2.042000000000000E10    2.779581335683664E-2   1.782609253293938E-2  
 2.042200000000000E10    2.877363521191809E-2   1.548309044705497E-2  
 2.042400000000000E10    3.141964723666509E-2   1.003563818004396E-2  
 2.042600000000000E10    3.106197176708116E-2   8.321475030647386E-3  
 2.042800000000000E10    3.211935485402744E-2   4.003038785109918E-3  
 2.043000000000000E10    3.362022133337127E-2   9.051562519744041E-4  
 2.043200000000000E10    3.347217539946239E-2  -2.107888317873909E-3  
 2.043400000000000E10    3.297359123826027E-2  -6.489126270429957E-3  
 2.043600000000000E10    3.181484962503116E-2  -1.139443543636137E-2  
 2.043800000000000E10    2.954030492239529E-2  -1.440765646596750E-2  
 2.044000000000000E10    2.790180221199989E-2  -1.787808434002930E-2  
 2.044200000000000E10    2.506237497760190E-2  -2.108591567311022E-2  
 2.044400000000000E10    2.376809592048327E-2  -2.218258194625378E-2  
 2.044600000000000E10    2.183702629473475E-2  -2.575285732746125E-2  
 2.044800000000000E10    1.855895937316948E-2  -2.788386224872537E-2  
 2.045000000000000E10    1.522784887088670E-2  -3.007349413302210E-2  
 2.045200000000000E10    1.133659005992943E-2  -3.052381198439334E-2  
 2.045400000000000E10    8.660685995386708E-3  -3.135595098137856E-2  
 2.045600000000000E10    5.675266238136425E-3  -3.246350627806452E-2  
 2.045800000000000E10    2.230733852936990E-3  -3.458383555213611E-2  
 2.046000000000000E10   -3.075423133042124E-3  -3.581129635373752E-2  
 2.046200000000000E10   -7.573143165144656E-3  -3.429629156986873E-2  
 2.046400000000000E10   -1.175223446140687E-2  -3.249261445469327E-2  
 2.046600000000000E10   -1.400302029732201E-2  -2.934562497668797E-2  
 2.046800000000000E10   -1.659820911784967E-2  -2.842021381689443E-2  
 2.047000000000000E10   -2.026740502980021E-2  -2.767911843127675E-2  
 2.047200000000000E10   -2.220734022557735E-2  -2.594148719476329E-2  
 2.047400000000000E10   -2.725038222140737E-2  -2.192908380594519E-2  
 2.047600000000000E10   -2.853452021049129E-2  -1.886721638341745E-2  
 2.047800000000000E10   -2.958212420344353E-2  -1.584443449974060E-2  
 2.048000000000000E10   -3.125469365881550E-2  -1.349010608262486E-2  
 2.048200000000000E10   -3.164020967152384E-2  -1.049664502756463E-2  
 2.048400000000000E10   -3.381451591849327E-2  -7.298476476636198E-3  
 2.048600000000000E10   -3.533662151959208E-2  -4.039525959847703E-3  
 2.048800000000000E10   -3.611593238181539E-2   1.116861995089696E-3  
 2.049000000000000E10   -3.506706861986055E-2   5.006500286981463E-3  
 2.049200000000000E10   -3.451611391372152E-2   1.009167234102885E-2  
 2.049400000000000E10   -3.366822956336869E-2   1.266373331762023E-2  
 2.049600000000000E10   -3.259045092595948E-2   1.750518029762639E-2  
 2.049800000000000E10   -3.103163051936362E-2   2.028902516596847E-2  
 2.050000000000000E10   -2.750691999163893E-2   2.423898958497578E-2  
 2.050200000000000E10   -2.255422187348207E-2   2.771257671217124E-2  
 2.050400000000000E10   -2.105973888602522E-2   2.782568625277944E-2  
 2.050600000000000E10   -1.616389459619920E-2   2.919642937680086E-2  
 2.050800000000000E10   -1.413209612170855E-2   3.053963453405434E-2  
 2.051000000000000E10   -1.185143749333090E-2   3.292596298787329E-2  
 2.051200000000000E10   -7.406764301574893E-3   3.408822458651331E-2  
 2.051400000000000E10   -2.742838631901477E-3   3.473583070768251E-2  
 2.051600000000000E10    5.924403732125132E-4   3.462678401006593E-2  
 2.051800000000000E10    3.861534317062858E-3   3.391868496934573E-2  
 2.052000000000000E10    6.822868922932281E-3   3.309408947825432E-2  
 2.052200000000000E10    1.078571668929524E-2   3.209125250577927E-2  
 2.052400000000000E10    1.504846093141370E-2   3.105876201556789E-2  
 2.052600000000000E10    1.906662661996153E-2   2.976101202269395E-2  
 2.052800000000000E10    2.116171684530047E-2   2.756556640896533E-2  
 2.053000000000000E10    2.443194140990575E-2   2.388812829222944E-2  
 2.053200000000000E10    2.641146919793553E-2   2.217074959642357E-2  
 2.053400000000000E10    2.850686531100009E-2   1.966487595604526E-2  
 2.053600000000000E10    3.131247353222635E-2   1.591951979531182E-2  
 2.053800000000000E10    3.195530217554835E-2   1.159934347702397E-2  
 2.054000000000000E10    3.348131560617024E-2   8.262325906091267E-3  
 2.054200000000000E10    3.264075227909619E-2   5.362829607394006E-3  
 2.054400000000000E10    3.290371638205317E-2   2.147840559094523E-3  
 2.054600000000000E10    3.429742529988289E-2  -9.222089332373194E-4  
 2.054800000000000E10    3.460707267125448E-2  -4.465751608626710E-3  
 2.055000000000000E10    3.410387039184570E-2  -8.140740295251211E-3  
 2.055200000000000E10    3.261268056101270E-2  -1.240173365092940E-2  
 2.055400000000000E10    3.151893905467458E-2  -1.710466957754559E-2  
 2.055600000000000E10    3.074768516752455E-2  -1.962726459734970E-2  
