#  HZ   S   RI   R     50.00 
! Rohde & Schwarz ZVA40 4Ports - Version 3.90 - 1145.1110k42 SN: 100403
! Date: 2023-09-28 10:09:55
! Measurement: S12 
! 
 2.000000000000000E10   -1.114198561881813E-2   9.197218556138375E-3  
 2.000200000000000E10   -9.520806828082484E-3   1.111621269990667E-2  
 2.000400000000000E10   -7.503125388175881E-3   1.273386948436127E-2  
 2.000600000000000E10   -5.419513362018427E-3   1.388411208287757E-2  
 2.000800000000000E10   -3.200537425829843E-3   1.436761476093519E-2  
 2.001000000000000E10   -5.471939376505510E-4   1.446973575784022E-2  
 2.001200000000000E10    1.974898930017953E-3   1.430249618539864E-2  
 2.001400000000000E10    4.435546828567283E-3   1.354635746299864E-2  
 2.001600000000000E10    7.073981098556816E-3   1.249372210166914E-2  
 2.001800000000000E10    9.341114429934898E-3   1.115052055243567E-2  
 2.002000000000000E10    1.137945777467823E-2   9.385035131890115E-3  
 2.002200000000000E10    1.305070549679679E-2   7.156375643618266E-3  
 2.002400000000000E10    1.425082674084453E-2   4.931391793434663E-3  
 2.002600000000000E10    1.478448974841839E-2   2.666810121410071E-3  
 2.002800000000000E10    1.476795757821904E-2   1.203776303362216E-4  
 2.003000000000000E10    1.451607782547545E-2  -2.533422329388616E-3  
 2.003200000000000E10    1.379560692598805E-2  -4.996249924836924E-3  
 2.003400000000000E10    1.251910237141447E-2  -7.690254857682865E-3  
 2.003600000000000E10    1.093610581995070E-2  -1.007212931720583E-2  
 2.003800000000000E10    8.865323251194122E-3  -1.196254847668441E-2  
 2.004000000000000E10    6.620349266401473E-3  -1.336621640259414E-2  
 2.004200000000000E10    4.335809545605406E-3  -1.435874964126636E-2  
 2.004400000000000E10    2.003486795947871E-3  -1.481977067759399E-2  
 2.004600000000000E10   -4.385271138547609E-4  -1.462892998038773E-2  
 2.004800000000000E10   -2.996869328368524E-3  -1.407730772412194E-2  
 2.005000000000000E10   -5.106417701026144E-3  -1.330578988758291E-2  
 2.005200000000000E10   -7.216905502758256E-3  -1.207283443778300E-2  
 2.005400000000000E10   -9.458577305582919E-3  -1.074927310022867E-2  
 2.005600000000000E10   -1.140233740580482E-2  -9.080373893006311E-3  
 2.005800000000000E10   -1.312166926938263E-2  -6.978710585162606E-3  
 2.006000000000000E10   -1.441145441045143E-2  -4.678813944801030E-3  
 2.006200000000000E10   -1.517253449803674E-2  -2.248559917123150E-3  
 2.006400000000000E10   -1.517065159937768E-2   2.623728311517989E-4  
 2.006600000000000E10   -1.463725556195182E-2   2.965480728061282E-3  
 2.006800000000000E10   -1.385085551737752E-2   5.388922799092047E-3  
 2.007000000000000E10   -1.247062123387053E-2   7.556354122329290E-3  
 2.007200000000000E10   -1.078735761832378E-2   9.919520971015519E-3  
 2.007400000000000E10   -8.950135548416411E-3   1.179588486149901E-2  
 2.007600000000000E10   -6.635780493226757E-3   1.321172648250062E-2  
 2.007800000000000E10   -4.230952564674628E-3   1.420562776791334E-2  
 2.008000000000000E10   -1.973773534908282E-3   1.490246082002551E-2  
 2.008200000000000E10    2.629520652193633E-4   1.502122417353046E-2  
 2.008400000000000E10    2.798080020783341E-3   1.457591110139184E-2  
 2.008600000000000E10    5.378850064311303E-3   1.382386564857329E-2  
 2.008800000000000E10    7.517421931312831E-3   1.256214022001369E-2  
 2.009000000000000E10    9.695827201155752E-3   1.075397282981401E-2  
 2.009200000000000E10    1.168053097859393E-2   8.925847988785467E-3  
 2.009400000000000E10    1.306344470115312E-2   6.757509873460935E-3  
 2.009600000000000E10    1.411569635245070E-2   4.344708368352069E-3  
 2.009800000000000E10    1.483203742895369E-2   1.906897694470339E-3  
 2.010000000000000E10    1.505637291779407E-2  -4.331952173269980E-4  
 2.010200000000000E10    1.458323974319178E-2  -2.882645673968745E-3  
 2.010400000000000E10    1.374791532660813E-2  -5.382478916453415E-3  
 2.010600000000000E10    1.267381635422804E-2  -7.507463755120649E-3  
 2.010800000000000E10    1.085856077780721E-2  -9.454781781127662E-3  
 2.011000000000000E10    8.831780832509942E-3  -1.149179586411791E-2  
 2.011200000000000E10    6.765467284916257E-3  -1.287316788542745E-2  
 2.011400000000000E10    4.412838591527532E-3  -1.382867440204497E-2  
 2.011600000000000E10    1.934813580137118E-3  -1.449738332017275E-2  
 2.011800000000000E10   -3.908012011389862E-4  -1.487470386202836E-2  
 2.012000000000000E10   -2.569930320915872E-3  -1.465006549498642E-2  
 2.012200000000000E10   -5.122837132135060E-3  -1.383794669081015E-2  
 2.012400000000000E10   -7.500602605312184E-3  -1.274292091368983E-2  
 2.012600000000000E10   -9.390416628330917E-3  -1.112992038563416E-2  
 2.012800000000000E10   -1.130476303214939E-2  -9.002929183057038E-3  
 2.013000000000000E10   -1.292212141333203E-2  -6.960587742710495E-3  
 2.013200000000000E10   -1.395086593761777E-2  -4.621290259339760E-3  
 2.013400000000000E10   -1.464803416429018E-2  -2.071529115394225E-3  
 2.013600000000000E10   -1.507863329113447E-2   6.340288590727672E-4  
 2.013800000000000E10   -1.489635319022033E-2   2.989437684160560E-3  
 2.014000000000000E10   -1.385452033057510E-2   5.345551066134539E-3  
 2.014200000000000E10   -1.243238162469273E-2   7.668432119850389E-3  
 2.014400000000000E10   -1.087302824410580E-2   9.496631748021105E-3  
 2.014600000000000E10   -8.793008853383532E-3   1.111409486689384E-2  
 2.014800000000000E10   -6.676342027186139E-3   1.262081999007251E-2  
 2.015000000000000E10   -4.492131797793280E-3   1.353604258215092E-2  
 2.015200000000000E10   -2.042896462068928E-3   1.416737270187318E-2  
 2.015400000000000E10    4.582208071159292E-4   1.453663095405985E-2  
 2.015600000000000E10    2.797589479173260E-3   1.459111712607045E-2  
 2.015800000000000E10    5.006730202077390E-3   1.389811167125628E-2  
 2.016000000000000E10    7.208834028776248E-3   1.260832443527290E-2  
 2.016200000000000E10    9.221975585023903E-3   1.122894347026159E-2  
 2.016400000000000E10    1.094972588292187E-2   9.402923823992399E-3  
 2.016600000000000E10    1.272685902597721E-2   7.106270787547553E-3  
 2.016800000000000E10    1.390411528533601E-2   4.767182068898276E-3  
 2.017000000000000E10    1.452368368999967E-2   2.166596590367154E-3  
 2.017200000000000E10    1.471726838759441E-2  -6.227756325414595E-4  
 2.017400000000000E10    1.466147763994856E-2  -3.198130235479589E-3  
 2.017600000000000E10    1.405472545216421E-2  -5.393119181655283E-3  
 2.017800000000000E10    1.274784656433987E-2  -7.546938372234524E-3  
 2.018000000000000E10    1.109898466050716E-2  -9.544396421458953E-3  
 2.018200000000000E10    9.204209333085144E-3  -1.117897267878182E-2  
 2.018400000000000E10    6.813455974241751E-3  -1.265615428730644E-2  
 2.018600000000000E10    4.514775425119989E-3  -1.384188322951203E-2  
 2.018800000000000E10    2.056670046944502E-3  -1.442465657724845E-2  
 2.019000000000000E10   -6.050425135242891E-4  -1.466487474824763E-2  
 2.019200000000000E10   -3.283913487968445E-3  -1.458440288091215E-2  
 2.019400000000000E10   -5.634346197648624E-3  -1.406518542393388E-2  
 2.019600000000000E10   -7.751770184249282E-3  -1.283649220872702E-2  
 2.019800000000000E10   -9.764943967059131E-3  -1.108482914278343E-2  
 2.020000000000000E10   -1.140834376190973E-2  -9.206189650140084E-3  
 2.020200000000000E10   -1.270548527377820E-2  -6.818003354769571E-3  
 2.020400000000000E10   -1.392608206340779E-2  -4.310738655775919E-3  
 2.020600000000000E10   -1.449829931400645E-2  -1.909144067970691E-3  
 2.020800000000000E10   -1.462992827073181E-2   7.422373742404615E-4  
 2.021000000000000E10   -1.449738743242453E-2   3.511378544367290E-3  
 2.021200000000000E10   -1.408076550686152E-2   5.998223254051430E-3  
 2.021400000000000E10   -1.290255646734998E-2   8.170181241400221E-3  
 2.021600000000000E10   -1.111255345606508E-2   1.010777568681453E-2  
 2.021800000000000E10   -9.138568297444798E-3   1.174872858885009E-2  
 2.022000000000000E10   -6.827310939565229E-3   1.299468526969555E-2  
 2.022200000000000E10   -4.068333646287654E-3   1.409844011393458E-2  
 2.022400000000000E10   -1.477918621291739E-3   1.474402862940644E-2  
 2.022600000000000E10    1.077788437859894E-3   1.469835950399211E-2  
 2.022800000000000E10    3.679562369135613E-3   1.431952644789505E-2  
 2.023000000000000E10    6.234941700457247E-3   1.391781897049345E-2  
 2.023200000000000E10    8.565559439165777E-3   1.302491418684189E-2  
 2.023400000000000E10    1.063301929638144E-2   1.134191752005627E-2  
 2.023600000000000E10    1.232677548971407E-2   9.157491383134112E-3  
 2.023800000000000E10    1.353215592561545E-2   6.817958556992911E-3  
 2.024000000000000E10    1.443602555526442E-2   3.910858953813672E-3  
 2.024200000000000E10    1.514873803247985E-2   1.067506684100912E-3  
 2.024400000000000E10    1.510608177307926E-2  -1.550253159195501E-3  
 2.024600000000000E10    1.450993506712824E-2  -4.236748732811161E-3  
 2.024800000000000E10    1.370839413034834E-2  -6.867259864629386E-3  
 2.025000000000000E10    1.264365249974772E-2  -9.164014466541276E-3  
 2.025200000000000E10    1.101796883182754E-2  -1.113171692189030E-2  
 2.025400000000000E10    8.973110459214865E-3  -1.267892204880465E-2  
 2.025600000000000E10    6.667966213437499E-3  -1.390356704191212E-2  
 2.025800000000000E10    3.836810649971686E-3  -1.467735425491777E-2  
 2.026000000000000E10    7.457181122975287E-4  -1.530800052425213E-2  
 2.026200000000000E10   -1.978093850663993E-3  -1.523661689356733E-2  
 2.026400000000000E10   -4.577178306857910E-3  -1.446178313171330E-2  
 2.026600000000000E10   -7.117939256532471E-3  -1.345958036399286E-2  
 2.026800000000000E10   -9.305438664438493E-3  -1.240232651073847E-2  
 2.027000000000000E10   -1.128979729770612E-2  -1.081713298109238E-2  
 2.027200000000000E10   -1.298443799074753E-2  -8.852705910933196E-3  
 2.027400000000000E10   -1.424738146849458E-2  -6.603589453799150E-3  
 2.027600000000000E10   -1.495557678720354E-2  -4.054288589174381E-3  
 2.027800000000000E10   -1.537257844747418E-2  -8.568890334758294E-4  
 2.028000000000000E10   -1.551448946495730E-2   2.025402971551221E-3  
 2.028200000000000E10   -1.491747722298652E-2   4.632777128800203E-3  
 2.028400000000000E10   -1.372977428979768E-2   7.362435538670255E-3  
 2.028600000000000E10   -1.246667841233335E-2   9.935246781008909E-3  
 2.028800000000000E10   -1.072688148418680E-2   1.189210941117508E-2  
 2.029000000000000E10   -8.552549577371227E-3   1.352006431385921E-2  
 2.029200000000000E10   -6.245687218700278E-3   1.464095720808004E-2  
 2.029400000000000E10   -3.738426048214568E-3   1.537841339218901E-2  
 2.029600000000000E10   -6.929183693540589E-4   1.550995152207025E-2  
 2.029800000000000E10    2.534522743658397E-3   1.545802024114800E-2  
 2.030000000000000E10    5.116354436271814E-3   1.478498669026681E-2  
 2.030200000000000E10    7.519236084450230E-3   1.343013397922221E-2  
 2.030400000000000E10    9.987641611291133E-3   1.193988279275527E-2  
 2.030600000000000E10    1.193920936007682E-2   1.039891266683479E-2  
 2.030800000000000E10    1.345104571937674E-2   8.353756393546907E-3  
 2.031000000000000E10    1.454903546737378E-2   6.093701432068032E-3  
 2.031200000000000E10    1.524128975995851E-2   3.540368262854654E-3  
 2.031400000000000E10    1.529553449938145E-2   7.414907508534924E-4  
 2.031600000000000E10    1.512254427029062E-2  -2.249185300383153E-3  
 2.031800000000000E10    1.471717721494854E-2  -4.841659438741987E-3  
 2.032000000000000E10    1.360661575077175E-2  -7.172482416016691E-3  
 2.032200000000000E10    1.196636019584913E-2  -9.603251604292781E-3  
 2.032400000000000E10    1.044582650080879E-2  -1.179033763621999E-2  
 2.032600000000000E10    8.474072143598667E-3  -1.334204071292804E-2  
 2.032800000000000E10    6.218226593362583E-3  -1.454736861529548E-2  
 2.033000000000000E10    3.854012732930726E-3  -1.528776892103999E-2  
 2.033200000000000E10    1.204477652027666E-3  -1.557268797277318E-2  
 2.033400000000000E10   -1.845617089691468E-3  -1.529722651674235E-2  
 2.033600000000000E10   -3.344727248379040E-3  -1.520276732042698E-2  
 2.033800000000000E10   -7.202677891649852E-3  -1.379831661604533E-2  
 2.034000000000000E10   -9.485137591854083E-3  -1.199046657795465E-2  
 2.034200000000000E10   -1.175302103544925E-2  -1.017980668883361E-2  
 2.034400000000000E10   -1.338655357901439E-2  -8.268158201078849E-3  
 2.034600000000000E10   -1.458981402029372E-2  -5.961900119047672E-3  
 2.034800000000000E10   -1.533317004884796E-2  -3.639001902327525E-3  
 2.035000000000000E10   -1.558917541499498E-2  -1.068552271025540E-3  
 2.035200000000000E10   -1.514263367992892E-2   1.809605309486400E-3  
 2.035400000000000E10   -1.443419002722851E-2   4.830231719923190E-3  
 2.035600000000000E10   -1.356208604390104E-2   7.258039772289679E-3  
 2.035800000000000E10   -1.200041888541931E-2   9.221299933000079E-3  
 2.036000000000000E10   -1.002772451281738E-2   1.129562153877514E-2  
 2.036200000000000E10   -8.217857053477981E-3   1.308237799386909E-2  
 2.036400000000000E10   -5.985203684386039E-3   1.426194534631320E-2  
 2.036600000000000E10   -3.650157453855651E-3   1.507043533739101E-2  
 2.036800000000000E10   -1.178675547104927E-3   1.543992133223819E-2  
 2.037000000000000E10    1.442705820233161E-3   1.516627007811750E-2  
 2.037200000000000E10    4.443607370168301E-3   1.431179762763017E-2  
 2.037400000000000E10    7.146081213351897E-3   1.348259411285688E-2  
 2.037600000000000E10    9.191495459549386E-3   1.220150210099676E-2  
 2.037800000000000E10    1.115305051136253E-2   1.010934175857845E-2  
 2.038000000000000E10    1.303037817089750E-2   8.116762650412942E-3  
 2.038200000000000E10    1.411198574915030E-2   5.887576668629889E-3  
 2.038400000000000E10    1.484380039700015E-2   3.501288814040458E-3  
 2.038600000000000E10    1.516836590990613E-2   1.163746225941961E-3  
 2.038800000000000E10    1.512429748906183E-2  -1.266830280134368E-3  
 2.039000000000000E10    1.429429519435132E-2  -4.026807035987154E-3  
 2.039200000000000E10    1.330234670541593E-2  -6.945883417568238E-3  
 2.039400000000000E10    1.215519128296741E-2  -9.162088388733742E-3  
 2.039600000000000E10    1.015146511095601E-2  -1.100428808184555E-2  
 2.039800000000000E10    8.004865930112265E-3  -1.295991033707478E-2  
 2.040000000000000E10    5.806031831628371E-3  -1.420516502715378E-2  
 2.040200000000000E10    3.314839132938978E-3  -1.491688500851633E-2  
 2.040400000000000E10    9.006235853786704E-4  -1.516827882337778E-2  
 2.040600000000000E10   -1.631141143442755E-3  -1.505598904435341E-2  
 2.040800000000000E10   -4.095152110508754E-3  -1.423193307842842E-2  
 2.041000000000000E10   -6.759918489526432E-3  -1.283352468611542E-2  
 2.041200000000000E10   -9.099510440734933E-3  -1.169917611649773E-2  
 2.041400000000000E10   -1.081442491274146E-2  -1.000651055699693E-2  
 2.041600000000000E10   -1.258469220887026E-2  -7.700159779667120E-3  
 2.041800000000000E10   -1.406988015116769E-2  -5.545846259245273E-3  
 2.042000000000000E10   -1.472640317919671E-2  -3.120339699693964E-3  
 2.042200000000000E10   -1.492226165233473E-2  -7.906010481089136E-4  
 2.042400000000000E10   -1.464708250570750E-2   1.648382909315834E-3  
 2.042600000000000E10   -1.408967612623331E-2   4.091973508890594E-3  
 2.042800000000000E10   -1.282738366584061E-2   6.457556558296997E-3  
 2.043000000000000E10   -1.156141934030252E-2   8.942671332148114E-3  
 2.043200000000000E10   -1.014598203683010E-2   1.082288264856199E-2  
 2.043400000000000E10   -7.821120527360077E-3   1.240655816909141E-2  
 2.043600000000000E10   -5.469073977566926E-3   1.410679138284598E-2  
 2.043800000000000E10   -2.967895386098213E-3   1.495115033126286E-2  
 2.044000000000000E10   -3.145278878016150E-4   1.516164074428392E-2  
 2.044200000000000E10    2.106972395715541E-3   1.472521575918030E-2  
 2.044400000000000E10    4.573959113434905E-3   1.384381688163699E-2  
 2.044600000000000E10    6.784338516062748E-3   1.250239163107432E-2  
 2.044800000000000E10    8.985296138604559E-3   1.087834746750049E-2  
 2.045000000000000E10    1.079137353207774E-2   9.488221583869798E-3  
 2.045200000000000E10    1.204281416273323E-2   7.546813813979430E-3  
 2.045400000000000E10    1.353788075548740E-2   5.111880615246587E-3  
 2.045600000000000E10    1.463934366739117E-2   2.723644519138028E-3  
 2.045800000000000E10    1.489735932493578E-2   1.170601299049311E-4  
 2.046000000000000E10    1.475772449320915E-2  -2.212545069297758E-3  
 2.046200000000000E10    1.400104377113221E-2  -4.591060594891004E-3  
 2.046400000000000E10    1.273459894919888E-2  -6.996538689883350E-3  
 2.046600000000000E10    1.077631994032704E-2  -9.239552531642496E-3  
 2.046800000000000E10    9.033305614802614E-3  -1.124689482621459E-2  
 2.047000000000000E10    7.041000838979250E-3  -1.248098933255324E-2  
 2.047200000000000E10    4.480790856999297E-3  -1.333321180737952E-2  
 2.047400000000000E10    2.074697385240140E-3  -1.426051940571996E-2  
 2.047600000000000E10   -2.152813031205365E-4  -1.454591680338474E-2  
 2.047800000000000E10   -2.542230506871243E-3  -1.443308070083935E-2  
 2.048000000000000E10   -4.784228475381291E-3  -1.375407734408603E-2  
 2.048200000000000E10   -7.065102197243848E-3  -1.252177102270336E-2  
 2.048400000000000E10   -9.039025403182110E-3  -1.065018120308787E-2  
 2.048600000000000E10   -1.103553986510742E-2  -8.746407348668609E-3  
 2.048800000000000E10   -1.246304640747556E-2  -6.924221244070212E-3  
 2.049000000000000E10   -1.320136067158234E-2  -4.570597354720233E-3  
 2.049200000000000E10   -1.407823172910571E-2  -1.993778039149299E-3  
 2.049400000000000E10   -1.453672296453170E-2   4.057413274617250E-4  
 2.049600000000000E10   -1.444545091128752E-2   2.842901284532434E-3  
 2.049800000000000E10   -1.380355373904957E-2   5.084979691851592E-3  
 2.050000000000000E10   -1.254866632581973E-2   7.374999418879867E-3  
 2.050200000000000E10   -1.076767616214063E-2   9.247811938396938E-3  
 2.050400000000000E10   -8.501250540014799E-3   1.100596188488335E-2  
 2.050600000000000E10   -6.582208291895388E-3   1.256283883896732E-2  
 2.050800000000000E10   -4.437551940804953E-3   1.322093100292914E-2  
 2.051000000000000E10   -1.996104381452936E-3   1.373802732486772E-2  
 2.051200000000000E10    3.649410884044459E-4   1.430995455032282E-2  
 2.051400000000000E10    2.740484133591444E-3   1.433916171692505E-2  
 2.051600000000000E10    5.086301793337196E-3   1.400481980644801E-2  
 2.051800000000000E10    7.401439169901694E-3   1.295350650159339E-2  
 2.052000000000000E10    9.585857029862505E-3   1.133566035127505E-2  
 2.052200000000000E10    1.131586439911042E-2   8.871143933325699E-3  
 2.052400000000000E10    1.307801876970063E-2   6.552928551834199E-3  
 2.052600000000000E10    1.399192324047814E-2   4.359667661268451E-3  
 2.052800000000000E10    1.429122275581518E-2   1.777074850000709E-3  
 2.053000000000000E10    1.460305669208634E-2  -9.109254140008306E-4  
 2.053200000000000E10    1.437571296776342E-2  -3.337724678241508E-3  
 2.053400000000000E10    1.371880563371955E-2  -5.668495985425962E-3  
 2.053600000000000E10    1.262658773663584E-2  -7.708404794965050E-3  
 2.053800000000000E10    1.105707258196279E-2  -9.745813267935546E-3  
 2.054000000000000E10    8.869714192772124E-3  -1.113732209882654E-2  
 2.054200000000000E10    6.404491623946929E-3  -1.266796589916263E-2  
 2.054400000000000E10    4.492076716414125E-3  -1.388467177723130E-2  
 2.054600000000000E10    2.160141299981191E-3  -1.435184277588054E-2  
 2.054800000000000E10   -6.537164449096458E-4  -1.474337087737442E-2  
 2.055000000000000E10   -3.329104858560570E-3  -1.469698138293606E-2  
 2.055200000000000E10   -5.796003529520204E-3  -1.399393961446934E-2  
 2.055400000000000E10   -7.905687428980483E-3  -1.305914240116249E-2  
 2.055600000000000E10   -9.960319185694523E-3  -1.154843897997364E-2  
