#  HZ   S   RI   R     50.00 
! Rohde & Schwarz ZVA40 4Ports - Version 3.90 - 1145.1110k42 SN: 100403
! Date: 2023-09-28 08:39:33
! Measurement: S22 
! 
 2.000000000000000E10    2.145214485645294E-1   8.171538171917202E-3  
 2.000200000000000E10    2.174233488798142E-1   8.986403517005966E-3  
 2.000400000000000E10    2.226040128946305E-1  -2.885614931583405E-4  
 2.000600000000000E10    2.228897881269455E-1  -3.781740057468415E-3  
 2.000800000000000E10    2.185099828958512E-1  -1.750198003649712E-2  
 2.001000000000000E10    2.111122977495194E-1  -2.493230066001416E-2  
 2.001200000000000E10    2.146405172348023E-1  -3.478001807332039E-2  
 2.001400000000000E10    2.101074597120285E-1  -4.741137916445733E-2  
 2.001600000000000E10    1.988263570308686E-1  -5.874844095110895E-2  
 2.001800000000000E10    1.923278875112534E-1  -7.227375915050509E-2  
 2.002000000000000E10    1.805585412740708E-1  -8.727358870506288E-2  
 2.002200000000000E10    1.662903152704239E-1  -1.049532887339592E-1  
 2.002400000000000E10    1.527794082880020E-1  -1.162712177395821E-1  
 2.002600000000000E10    1.359553574085236E-1  -1.312273319959641E-1  
 2.002800000000000E10    1.201088858485222E-1  -1.480229779720307E-1  
 2.003000000000000E10    1.004357875347138E-1  -1.653510020256043E-1  
 2.003200000000000E10    8.574745999574664E-2  -1.779432988166809E-1  
 2.003400000000000E10    6.200226502418520E-2  -1.941682597160340E-1  
 2.003600000000000E10    4.272069767713548E-2  -2.043225590705872E-1  
 2.003800000000000E10    2.443886677026749E-2  -2.169225466012956E-1  
 2.004000000000000E10    4.651179812103511E-3  -2.254478127241135E-1  
 2.004200000000000E10   -1.041750433146954E-2  -2.358104815244675E-1  
 2.004400000000000E10   -3.066658670306206E-2  -2.413162515878678E-1  
 2.004600000000000E10   -5.121946430206300E-2  -2.530899851083757E-1  
 2.004800000000000E10   -7.047827727794648E-2  -2.651653462886811E-1  
 2.005000000000000E10   -8.485035595893861E-2  -2.709475713729859E-1  
 2.005200000000000E10   -1.026976704359055E-1  -2.728742303371430E-1  
 2.005400000000000E10   -1.154688093662262E-1  -2.781790316581727E-1  
 2.005600000000000E10   -1.289201345682144E-1  -2.777034895896913E-1  
 2.005800000000000E10   -1.415827421426773E-1  -2.723507948398591E-1  
 2.006000000000000E10   -1.543816360473633E-1  -2.704995160579681E-1  
 2.006200000000000E10   -1.594583035230637E-1  -2.663019039630890E-1  
 2.006400000000000E10   -1.652786548614502E-1  -2.604683698177338E-1  
 2.006600000000000E10   -1.720754961729050E-1  -2.546158578872682E-1  
 2.006800000000000E10   -1.741406117916107E-1  -2.433258874177933E-1  
 2.007000000000000E10   -1.739750354290009E-1  -2.270991118907929E-1  
 2.007200000000000E10   -1.767478821754456E-1  -2.170508792161942E-1  
 2.007400000000000E10   -1.720941276550293E-1  -2.053579182386399E-1  
 2.007600000000000E10   -1.668421301841736E-1  -1.878628330945969E-1  
 2.007800000000000E10   -1.574289731025696E-1  -1.722883951902390E-1  
 2.008000000000000E10   -1.479054273366928E-1  -1.568040122270585E-1  
 2.008200000000000E10   -1.409299162626267E-1  -1.404538061380387E-1  
 2.008400000000000E10   -1.279486851453781E-1  -1.198815455436707E-1  
 2.008600000000000E10   -1.167735858798027E-1  -1.035862912058830E-1  
 2.008800000000000E10   -9.928577357530598E-2  -8.847170202732088E-2  
 2.009000000000000E10   -8.425508574247360E-2  -7.220212010145188E-2  
 2.009200000000000E10   -6.931130008697511E-2  -5.395326130390168E-2  
 2.009400000000000E10   -5.305921735763552E-2  -4.046646971106530E-2  
 2.009600000000000E10   -3.573314202427864E-2  -2.758155663907529E-2  
 2.009800000000000E10   -1.914376850128174E-2  -1.139754549339414E-2  
 2.010000000000000E10   -4.414813365787269E-3  -2.247025195509196E-3  
 2.010200000000000E10    1.177873874157667E-2   9.617620823532345E-3  
 2.010400000000000E10    2.681199043989182E-2   2.126044165790082E-2  
 2.010600000000000E10    3.847334190607071E-2   3.209709953665734E-2  
 2.010800000000000E10    5.516854720711709E-2   3.714034335017205E-2  
 2.011000000000000E10    6.341421398520471E-2   3.769349874854087E-2  
 2.011200000000000E10    7.433365619182587E-2   4.650556874275208E-2  
 2.011400000000000E10    8.543774528503419E-2   4.371915682554245E-2  
 2.011600000000000E10    9.164839440584184E-2   4.706774773001671E-2  
 2.011800000000000E10    9.527466386556628E-2   4.409385207295419E-2  
 2.012000000000000E10    1.037805656313897E-1   4.271742199063301E-2  
 2.012200000000000E10    1.019959626436234E-1   4.041757680177689E-2  
 2.012400000000000E10    1.020887054800987E-1   3.392516733407975E-2  
 2.012600000000000E10    1.035299922227860E-1   2.691127510666848E-2  
 2.012800000000000E10    1.034690951585770E-1   1.823187971115113E-2  
 2.013000000000000E10    9.919168759584429E-2   8.027207973599435E-3  
 2.013200000000000E10    9.660151568651201E-2  -3.273320337384940E-3  
 2.013400000000000E10    9.009673259258272E-2  -1.449918194413185E-2  
 2.013600000000000E10    8.192006294727326E-2  -2.579065156579018E-2  
 2.013800000000000E10    7.010549402236939E-2  -4.172471463084222E-2  
 2.014000000000000E10    6.159725326299668E-2  -5.379368832707407E-2  
 2.014200000000000E10    5.218154588937761E-2  -6.617693729400637E-2  
 2.014400000000000E10    3.904113634824753E-2  -8.578517292737962E-2  
 2.014600000000000E10    2.846118164062500E-2  -9.823010818958283E-2  
 2.014800000000000E10    1.485489822924138E-2  -1.159647592186928E-1  
 2.015000000000000E10    3.124578304588797E-4  -1.263624330759049E-1  
 2.015200000000000E10   -1.055635691657663E-2  -1.388890227556229E-1  
 2.015400000000000E10   -2.534914491772652E-2  -1.569351307153702E-1  
 2.015600000000000E10   -3.857906083464623E-2  -1.717253587961197E-1  
 2.015800000000000E10   -5.187904907464983E-2  -1.857155778646469E-1  
 2.016000000000000E10   -6.348690255284310E-2  -1.954502284049988E-1  
 2.016200000000000E10   -7.680431293249132E-2  -2.055216304779053E-1  
 2.016400000000000E10   -8.479105962514878E-2  -2.157471562862397E-1  
 2.016600000000000E10   -1.046670664906502E-1  -2.250658392190933E-1  
 2.016800000000000E10   -1.107776936173439E-1  -2.305612364530564E-1  
 2.017000000000000E10   -1.231234261274338E-1  -2.316931679725648E-1  
 2.017200000000000E10   -1.315109549999237E-1  -2.415439979314805E-1  
 2.017400000000000E10   -1.399189144372940E-1  -2.409706267833710E-1  
 2.017600000000000E10   -1.478929440736771E-1  -2.416341341733933E-1  
 2.017800000000000E10   -1.564282423734665E-1  -2.367879294157028E-1  
 2.018000000000000E10   -1.584537742614746E-1  -2.363652995824814E-1  
 2.018200000000000E10   -1.633425239562988E-1  -2.308220212459564E-1  
 2.018400000000000E10   -1.717521355390549E-1  -2.235491468429566E-1  
 2.018600000000000E10   -1.703499687910081E-1  -2.137806806802750E-1  
 2.018800000000000E10   -1.723978812217713E-1  -2.001603516578675E-1  
 2.019000000000000E10   -1.694429149389267E-1  -1.863655923366547E-1  
 2.019200000000000E10   -1.697248424530030E-1  -1.703229131698609E-1  
 2.019400000000000E10   -1.649061638116837E-1  -1.572712193965912E-1  
 2.019600000000000E10   -1.641882000923157E-1  -1.373059079408646E-1  
 2.019800000000000E10   -1.618930448293686E-1  -1.145832955002785E-1  
 2.020000000000000E10   -1.557131728410721E-1  -9.710790326595310E-2  
 2.020200000000000E10   -1.469864817142487E-1  -6.955347524881364E-2  
 2.020400000000000E10   -1.414967631816864E-1  -4.588668851256372E-2  
 2.020600000000000E10   -1.288173280000687E-1  -2.286804390847683E-2  
 2.020800000000000E10   -1.188672441363335E-1   3.392918432503940E-3  
 2.021000000000000E10   -1.093274091005326E-1   2.549299753308297E-2  
 2.021200000000000E10   -9.790864179134372E-2   4.842490941286087E-2  
 2.021400000000000E10   -8.689083178043368E-2   7.169624217152595E-2  
 2.021600000000000E10   -7.313462783098222E-2   9.851594706773760E-2  
 2.021800000000000E10   -5.702096683382989E-2   1.220336989521981E-1  
 2.022000000000000E10   -4.943449269533158E-2   1.407484778642655E-1  
 2.022200000000000E10   -3.120266054868699E-2   1.619816672801972E-1  
 2.022400000000000E10   -1.476058101058007E-2   1.789901294231415E-1  
 2.022600000000000E10   -2.415518666058779E-3   1.898751546144486E-1  
 2.022800000000000E10    1.064455966800451E-2   2.082076813697815E-1  
 2.023000000000000E10    2.739312323927880E-2   2.195861207485200E-1  
 2.023200000000000E10    4.261634985208512E-2   2.282148116350174E-1  
 2.023400000000000E10    4.919411031603815E-2   2.361493313312531E-1  
 2.023600000000000E10    6.663910547494889E-2   2.351743415355683E-1  
 2.023800000000000E10    7.373259881734848E-2   2.404218191862107E-1  
 2.024000000000000E10    8.267432752847673E-2   2.337639058828354E-1  
 2.024200000000000E10    9.426265035867693E-2   2.302977183580399E-1  
 2.024400000000000E10    9.628033206462860E-2   2.243831754922867E-1  
 2.024600000000000E10    1.039075960636139E-1   2.115215421438218E-1  
 2.024800000000000E10    1.071138400673867E-1   2.042804102659226E-1  
 2.025000000000000E10    1.101918396115303E-1   1.888259353160858E-1  
 2.025200000000000E10    1.172338898062706E-1   1.721993217468262E-1  
 2.025400000000000E10    1.125353217959404E-1   1.567729750156403E-1  
 2.025600000000000E10    1.077050902128220E-1   1.357371125459671E-1  
 2.025800000000000E10    1.057627618074417E-1   1.150884896159172E-1  
 2.026000000000000E10    1.008037775039673E-1   9.942473273277286E-2  
 2.026200000000000E10    9.902790459394455E-2   7.024539864063265E-2  
 2.026400000000000E10    9.172537704706192E-2   4.888062431216241E-2  
 2.026600000000000E10    8.656877025365831E-2   2.839179336726666E-2  
 2.026800000000000E10    7.116004489660265E-2   3.552259960025549E-3  
 2.027000000000000E10    6.272901610136034E-2  -1.937808481752873E-2  
 2.027200000000000E10    5.507722567319871E-2  -3.835725454092027E-2  
 2.027400000000000E10    4.150287404060364E-2  -6.163629767894746E-2  
 2.027600000000000E10    2.796471350491048E-2  -8.257554962635041E-2  
 2.027800000000000E10    1.922302531003953E-2  -9.836607600450519E-2  
 2.028000000000000E10    7.611898560822011E-3  -1.155782076358796E-1  
 2.028200000000000E10   -3.572150807082653E-3  -1.276993813633919E-1  
 2.028400000000000E10   -1.303755135536194E-2  -1.391557036161423E-1  
 2.028600000000000E10   -2.012784265279770E-2  -1.504623208045960E-1  
 2.028800000000000E10   -3.048838020563126E-2  -1.560914255380630E-1  
 2.029000000000000E10   -3.718670591115952E-2  -1.613318012952805E-1  
 2.029200000000000E10   -4.656717541813851E-2  -1.655125456571579E-1  
 2.029400000000000E10   -4.735229499340058E-2  -1.695966258764267E-1  
 2.029600000000000E10   -5.352478469014169E-2  -1.657955311775208E-1  
 2.029800000000000E10   -5.664217500686647E-2  -1.630008421182633E-1  
 2.030000000000000E10   -5.599250850081444E-2  -1.576678656339646E-1  
 2.030200000000000E10   -6.009789186716081E-2  -1.491633343696594E-1  
 2.030400000000000E10   -6.008817499876024E-2  -1.417466078758240E-1  
 2.030600000000000E10   -5.660092085003854E-2  -1.269137437105179E-1  
 2.030800000000000E10   -5.282515186667443E-2  -1.149915214061737E-1  
 2.031000000000000E10   -4.818868594765664E-2  -1.042639254093171E-1  
 2.031200000000000E10   -4.244493216872217E-2  -8.553143900632861E-2  
 2.031400000000000E10   -3.857524815797806E-2  -6.625416080951690E-2  
 2.031600000000000E10   -2.850486673712731E-2  -4.455911920070649E-2  
 2.031800000000000E10   -2.332057937383652E-2  -2.853053846359254E-2  
 2.032000000000000E10   -1.149470637850464E-2  -9.388635383546354E-3  
 2.032200000000000E10   -5.020393127948046E-3   8.095620850659908E-3  
 2.032400000000000E10    3.697745953500272E-3   2.733289097845555E-2  
 2.032600000000000E10    1.040151755213738E-2   5.185034314393998E-2  
 2.032800000000000E10    2.295932477116585E-2   6.911714557409288E-2  
 2.033000000000000E10    3.580292928218842E-2   9.154663444757463E-2  
 2.033200000000000E10    4.253169647455216E-2   1.102181894898415E-1  
 2.033400000000000E10    5.153209309577943E-2   1.287946930408478E-1  
 2.033600000000000E10    6.381141176223755E-2   1.459152228355408E-1  
 2.033800000000000E10    7.558579680919648E-2   1.600463963031769E-1  
 2.034000000000000E10    8.743399828672410E-2   1.749931313276291E-1  
 2.034200000000000E10    9.504925372600556E-2   1.899861536502839E-1  
 2.034400000000000E10    1.014262544870377E-1   1.945153005838395E-1  
 2.034600000000000E10    1.085302003383637E-1   2.054869271993637E-1  
 2.034800000000000E10    1.187493572354317E-1   2.130391033411026E-1  
 2.035000000000000E10    1.253932106733322E-1   2.174068417072297E-1  
 2.035200000000000E10    1.352455014228821E-1   2.227688897371292E-1  
 2.035400000000000E10    1.363638375997544E-1   2.257915469169617E-1  
 2.035600000000000E10    1.444805985450745E-1   2.215196088314057E-1  
 2.035800000000000E10    1.502531875133515E-1   2.174562142372132E-1  
 2.036000000000000E10    1.534228992223740E-1   2.102925682783127E-1  
 2.036200000000000E10    1.570723482847214E-1   2.055645426750184E-1  
 2.036400000000000E10    1.611274907588959E-1   1.936322642803193E-1  
 2.036600000000000E10    1.622645627498627E-1   1.784019220829010E-1  
 2.036800000000000E10    1.645879111766815E-1   1.644823157072068E-1  
 2.037000000000000E10    1.681277871847153E-1   1.452695823907853E-1  
 2.037200000000000E10    1.638617140769959E-1   1.253899336457253E-1  
 2.037400000000000E10    1.614368989706040E-1   1.048248392820358E-1  
 2.037600000000000E10    1.617338942289353E-1   8.324417115449906E-2  
 2.037800000000000E10    1.563431228876114E-1   5.619136105179787E-2  
 2.038000000000000E10    1.590705638408661E-1   3.153768134713173E-2  
 2.038200000000000E10    1.526113215923310E-1   9.571502760425212E-3  
 2.038400000000000E10    1.495951678514481E-1  -1.653062298744917E-2  
 2.038600000000000E10    1.440525635004044E-1  -4.468660452961922E-2  
 2.038800000000000E10    1.404213813066483E-1  -7.238532191514970E-2  
 2.039000000000000E10    1.333260034799576E-1  -9.771979781389241E-2  
 2.039200000000000E10    1.242692739486695E-1  -1.253214221000672E-1  
 2.039400000000000E10    1.187605928659439E-1  -1.509326909303665E-1  
 2.039600000000000E10    1.086220369815827E-1  -1.773767819643021E-1  
 2.039800000000000E10    1.051529177427292E-1  -1.965958122491837E-1  
 2.040000000000000E10    9.430418206453325E-2  -2.160333587169647E-1  
 2.040200000000000E10    8.495300570726397E-2  -2.342524650335312E-1  
 2.040400000000000E10    7.713716223239900E-2  -2.495153043746949E-1  
 2.040600000000000E10    6.963771657943728E-2  -2.647642615318299E-1  
 2.040800000000000E10    5.808917746543885E-2  -2.775190822124482E-1  
 2.041000000000000E10    5.151795092821122E-2  -2.862012375354768E-1  
 2.041200000000000E10    4.090471503734590E-2  -2.954657373428345E-1  
 2.041400000000000E10    3.598105466961862E-2  -3.009590736865997E-1  
 2.041600000000000E10    3.108225905299188E-2  -3.041676900863648E-1  
 2.041800000000000E10    2.328454090356828E-2  -2.992634116172791E-1  
 2.042000000000000E10    1.185267339497805E-2  -2.975935566902161E-1  
 2.042200000000000E10    1.235920973531902E-2  -2.925326838970185E-1  
 2.042400000000000E10    5.611999931186438E-3  -2.841868173122407E-1  
 2.042600000000000E10    3.328461911156774E-3  -2.750008611202240E-1  
 2.042800000000000E10   -2.797208079136908E-4  -2.581657835960389E-1  
 2.043000000000000E10   -2.907011722773314E-3  -2.424887359857560E-1  
 2.043200000000000E10   -3.653760413825512E-3  -2.289323094606400E-1  
 2.043400000000000E10   -4.513962494581939E-3  -2.118054819822312E-1  
 2.043600000000000E10   -1.726928222179413E-3  -1.892532660007477E-1  
 2.043800000000000E10   -2.097314531676239E-3  -1.684794675111771E-1  
 2.044000000000000E10    1.339932235330343E-3  -1.458594652175904E-1  
 2.044200000000000E10    6.726852149702610E-4  -1.232710294604302E-1  
 2.044400000000000E10    5.342540722340346E-3  -1.027753323912621E-1  
 2.044600000000000E10    5.685281639825555E-3  -7.919528926610947E-2  
 2.044800000000000E10    1.120651138201356E-2  -5.671510694026948E-2  
 2.045000000000000E10    1.866146065890789E-2  -3.305632982254029E-2  
 2.045200000000000E10    2.283004697859288E-2  -9.809700334072115E-3  
 2.045400000000000E10    2.551993584036828E-2   1.073409276083112E-2  
 2.045600000000000E10    3.659125182628632E-2   2.802735155224801E-2  
 2.045800000000000E10    3.822657093405724E-2   4.379826287031174E-2  
 2.046000000000000E10    4.813985621929170E-2   6.133650523424149E-2  
 2.046200000000000E10    5.132480295896531E-2   7.822706675529480E-2  
 2.046400000000000E10    5.440711288452150E-2   8.574601664543151E-2  
 2.046600000000000E10    6.668624404668809E-2   9.937773414850237E-2  
 2.046800000000000E10    6.940738086700440E-2   1.079166927337647E-1  
 2.047000000000000E10    7.716393326520919E-2   1.116455437541008E-1  
 2.047200000000000E10    8.186430076360703E-2   1.157024101734162E-1  
 2.047400000000000E10    8.667834876775742E-2   1.140746499180794E-1  
 2.047600000000000E10    9.363498308658604E-2   1.158650047302246E-1  
 2.047800000000000E10    9.839557691812517E-2   1.094004075884819E-1  
 2.048000000000000E10    1.046428839206696E-1   1.004920488953591E-1  
 2.048200000000000E10    1.050357710838318E-1   9.202349567413330E-2  
 2.048400000000000E10    1.095879735827446E-1   8.449380708932879E-2  
 2.048600000000000E10    1.151278213977814E-1   7.154343323707582E-2  
 2.048800000000000E10    1.132210790991783E-1   5.685280521512032E-2  
 2.049000000000000E10    1.151077117919922E-1   3.643076057434082E-2  
 2.049200000000000E10    1.164607586622238E-1   1.750579132288695E-2  
 2.049400000000000E10    1.196116268754006E-1   3.043478336185218E-4  
 2.049600000000000E10    1.208617016315461E-1  -2.184949958622456E-2  
 2.049800000000000E10    1.199669408917427E-1  -4.618898243904115E-2  
 2.050000000000000E10    1.187880296230316E-1  -6.708524795770646E-2  
 2.050200000000000E10    1.199437722444535E-1  -9.103021498918536E-2  
 2.050400000000000E10    1.196637860178948E-1  -1.136908594250679E-1  
 2.050600000000000E10    1.144920090913773E-1  -1.345389904975891E-1  
 2.050800000000000E10    1.163301319837571E-1  -1.591627159595490E-1  
 2.051000000000000E10    1.115781535625458E-1  -1.810392493724823E-1  
 2.051200000000000E10    1.103213371038437E-1  -2.027296199083329E-1  
 2.051400000000000E10    1.040013202786446E-1  -2.269037896871567E-1  
 2.051600000000000E10    9.688673903942109E-2  -2.439701337575913E-1  
 2.051800000000000E10    9.295341466665269E-2  -2.631059018611908E-1  
 2.052000000000000E10    8.918728251457216E-2  -2.778392221927644E-1  
 2.052200000000000E10    8.729269596338275E-2  -2.966008012771607E-1  
 2.052400000000000E10    7.675528202056885E-2  -3.079241403102875E-1  
 2.052600000000000E10    7.180200402736665E-2  -3.198366437435151E-1  
 2.052800000000000E10    6.218763813972474E-2  -3.300447287559510E-1  
 2.053000000000000E10    5.676155242919923E-2  -3.328447438716889E-1  
 2.053200000000000E10    5.063853519558907E-2  -3.361208435058594E-1  
 2.053400000000000E10    4.090651007890703E-2  -3.399086455821991E-1  
 2.053600000000000E10    2.957918175160885E-2  -3.382924885272980E-1  
 2.053800000000000E10    2.574834409356118E-2  -3.334976312160493E-1  
 2.054000000000000E10    1.555839344710112E-2  -3.292712948322296E-1  
 2.054200000000000E10    8.200450091809036E-3  -3.220538099765778E-1  
 2.054400000000000E10    2.405867238715291E-3  -3.109481640815736E-1  
 2.054600000000000E10   -1.055655547380447E-2  -2.995969534873962E-1  
 2.054800000000000E10   -1.792677734792233E-2  -2.813336943626404E-1  
 2.055000000000000E10   -2.817137707471848E-2  -2.701053013324738E-1  
 2.055200000000000E10   -3.279942782521248E-2  -2.490380053758622E-1  
 2.055400000000000E10   -4.482741738557817E-2  -2.267023755311967E-1  
 2.055600000000000E10   -5.161077578067781E-2  -2.041692021369934E-1  
