#  HZ   S   RI   R     50.00 
! Rohde & Schwarz ZVA40 4Ports - Version 3.90 - 1145.1110k42 SN: 100403
! Date: 2023-09-28 10:07:52
! Measurement: S12 
! 
 2.000000000000000E10    4.289103229853586E-2   8.110639266250345E-2  
 2.000200000000000E10    5.552901855885343E-2   7.353332500498429E-2  
 2.000400000000000E10    6.723452267559038E-2   6.320850290924933E-2  
 2.000600000000000E10    7.712178207955717E-2   5.085171301702900E-2  
 2.000800000000000E10    8.458941513688445E-2   3.708565093700575E-2  
 2.001000000000000E10    8.965139671060213E-2   2.205837467061508E-2  
 2.001200000000000E10    9.204096519945422E-2   6.617679679078768E-3  
 2.001400000000000E10    9.186802830083736E-2  -8.966950717392916E-3  
 2.001600000000000E10    8.907906547326319E-2  -2.449162953225184E-2  
 2.001800000000000E10    8.380627910369254E-2  -3.918126817365271E-2  
 2.002000000000000E10    7.589160425073367E-2  -5.302143513167646E-2  
 2.002200000000000E10    6.496127084162895E-2  -6.597554774960640E-2  
 2.002400000000000E10    5.285947295092298E-2  -7.597693174402936E-2  
 2.002600000000000E10    3.923564434313337E-2  -8.371318708294857E-2  
 2.002800000000000E10    2.455063977888365E-2  -8.908677351812822E-2  
 2.003000000000000E10    9.255114796106781E-3  -9.188556019764491E-2  
 2.003200000000000E10   -6.351770045554581E-3  -9.212875952360344E-2  
 2.003400000000000E10   -2.191591919647904E-2  -8.968732535133658E-2  
 2.003600000000000E10   -3.675500619906123E-2  -8.465655727750496E-2  
 2.003800000000000E10   -5.046949950971758E-2  -7.724430527105658E-2  
 2.004000000000000E10   -6.289850170526506E-2  -6.748537162255150E-2  
 2.004200000000000E10   -7.340629343838123E-2  -5.573914516561788E-2  
 2.004400000000000E10   -8.167500291261573E-2  -4.240485168930579E-2  
 2.004600000000000E10   -8.745688966485238E-2  -2.804754429468480E-2  
 2.004800000000000E10   -9.084178677645877E-2  -1.270740138330272E-2  
 2.005000000000000E10   -9.157029467445886E-2   2.804862922838707E-3  
 2.005200000000000E10   -8.963729264913577E-2   1.800305440919966E-2  
 2.005400000000000E10   -8.521579797625886E-2   3.282083029666080E-2  
 2.005600000000000E10   -7.857178107343957E-2   4.653995522778550E-2  
 2.005800000000000E10   -6.963707657352095E-2   5.912452370478880E-2  
 2.006000000000000E10   -5.879390111005448E-2   6.987326133095351E-2  
 2.006200000000000E10   -4.609464572123283E-2   7.888191589222247E-2  
 2.006400000000000E10   -3.217915927756386E-2   8.547602187608039E-2  
 2.006600000000000E10   -1.735803315417416E-2   8.960439353265665E-2  
 2.006800000000000E10   -1.911913098236399E-3   9.118315220274194E-2  
 2.007000000000000E10    1.341302010530411E-2   9.012786996179453E-2  
 2.007200000000000E10    2.838655403813126E-2   8.652272439523104E-2  
 2.007400000000000E10    4.244475732315614E-2   8.057172279814923E-2  
 2.007600000000000E10    5.548371996882091E-2   7.219672965879662E-2  
 2.007800000000000E10    6.690056425063093E-2   6.166403896184076E-2  
 2.008000000000000E10    7.615625145009999E-2   4.959510270671869E-2  
 2.008200000000000E10    8.332212827385410E-2   3.604995315738259E-2  
 2.008400000000000E10    8.818773046229832E-2   2.168212488004895E-2  
 2.008600000000000E10    9.056165525897773E-2   6.561390111540201E-3  
 2.008800000000000E10    9.036067001839358E-2  -8.797094246804900E-3  
 2.009000000000000E10    8.766894471785702E-2  -2.361058514046977E-2  
 2.009200000000000E10    8.252663514999353E-2  -3.814502942294708E-2  
 2.009400000000000E10    7.506565462051427E-2  -5.153165582618877E-2  
 2.009600000000000E10    6.532623935907204E-2  -6.354568661664195E-2  
 2.009800000000000E10    5.378264328517584E-2  -7.364936180040799E-2  
 2.010000000000000E10    4.058731216436107E-2  -8.167549207278681E-2  
 2.010200000000000E10    2.606538567488628E-2  -8.739652574079804E-2  
 2.010400000000000E10    1.119483650683957E-2  -9.049857866887977E-2  
 2.010600000000000E10   -4.209347431269410E-3  -9.117984868137288E-2  
 2.010800000000000E10   -1.961298989149290E-2  -8.927393636091788E-2  
 2.011000000000000E10   -3.458947619491079E-2  -8.471102071441550E-2  
 2.011200000000000E10   -4.842345120480236E-2  -7.760262541616320E-2  
 2.011400000000000E10   -6.086335102640035E-2  -6.825737771368219E-2  
 2.011600000000000E10   -7.157483920537293E-2  -5.681886564312992E-2  
 2.011800000000000E10   -8.012547487479048E-2  -4.377472886007206E-2  
 2.012000000000000E10   -8.614825088772642E-2  -2.989327288411552E-2  
 2.012200000000000E10   -9.001974426184199E-2  -1.478393522158340E-2  
 2.012400000000000E10   -9.124989657785362E-2   4.955613384952511E-4  
 2.012600000000000E10   -8.988581285981641E-2   1.590687844407481E-2  
 2.012800000000000E10   -8.591124948592530E-2   3.085457716455902E-2  
 2.013000000000000E10   -7.941120458781620E-2   4.491008158091445E-2  
 2.013200000000000E10   -7.054059282813888E-2   5.764995821097625E-2  
 2.013400000000000E10   -5.992705024292180E-2   6.852856692998921E-2  
 2.013600000000000E10   -4.741493851581260E-2   7.774595794261750E-2  
 2.013800000000000E10   -3.385144166823592E-2   8.460702211376220E-2  
 2.014000000000000E10   -1.902856950136535E-2   8.915990326113940E-2  
 2.014200000000000E10   -3.654093424416770E-3   9.108736504864939E-2  
 2.014400000000000E10    1.174969464775685E-2   9.037808519740936E-2  
 2.014600000000000E10    2.660905294410137E-2   8.713666718415994E-2  
 2.014800000000000E10    4.096071608395750E-2   8.140596715427223E-2  
 2.015000000000000E10    5.409462507941399E-2   7.338999541323349E-2  
 2.015200000000000E10    6.584945622922642E-2   6.317459638610490E-2  
 2.015400000000000E10    7.546970484880579E-2   5.132096325500490E-2  
 2.015600000000000E10    8.317771435281449E-2   3.766614076872510E-2  
 2.015800000000000E10    8.840632074036463E-2   2.300742275908504E-2  
 2.016000000000000E10    9.095108102731014E-2   7.891921715711821E-3  
 2.016200000000000E10    9.092447721214013E-2  -7.597367874224291E-3  
 2.016400000000000E10    8.838915176782505E-2  -2.263152876036439E-2  
 2.016600000000000E10    8.350008871281411E-2  -3.714987250621807E-2  
 2.016800000000000E10    7.621754972153975E-2  -5.077916328815223E-2  
 2.017000000000000E10    6.661189083586735E-2  -6.308105251223889E-2  
 2.017200000000000E10    5.490666165037838E-2  -7.358850119139544E-2  
 2.017400000000000E10    4.158561364328709E-2  -8.183701236379271E-2  
 2.017600000000000E10    2.713367272721540E-2  -8.769355731320469E-2  
 2.017800000000000E10    1.179936440609385E-2  -9.110288214942651E-2  
 2.018000000000000E10   -3.660515964784822E-3  -9.172932353520576E-2  
 2.018200000000000E10   -1.920974187027453E-2  -8.976645779289333E-2  
 2.018400000000000E10   -3.414790766508823E-2  -8.519901416039853E-2  
 2.018600000000000E10   -4.797941426880763E-2  -7.821071498026413E-2  
 2.018800000000000E10   -6.049944581036611E-2  -6.893897616317420E-2  
 2.019000000000000E10   -7.132884442218354E-2  -5.772109963121639E-2  
 2.019200000000000E10   -8.016092886036925E-2  -4.478258029669313E-2  
 2.019400000000000E10   -8.666093614500521E-2  -3.031164890872617E-2  
 2.019600000000000E10   -9.046768862641318E-2  -1.536557477253497E-2  
 2.019800000000000E10   -9.169713281390160E-2   3.980893726951035E-4  
 2.020000000000000E10   -9.030090723102421E-2   1.582444013569392E-2  
 2.020200000000000E10   -8.628943015851387E-2   3.074458622808025E-2  
 2.020400000000000E10   -7.965954615033508E-2   4.485363527390268E-2  
 2.020600000000000E10   -7.093829530881028E-2   5.739180898674182E-2  
 2.020800000000000E10   -6.028832624474857E-2   6.842134296965069E-2  
 2.021000000000000E10   -4.800009848859179E-2   7.758780009116580E-2  
 2.021200000000000E10   -3.438901049255121E-2   8.463703812086051E-2  
 2.021400000000000E10   -1.960966082965887E-2   8.931867042965588E-2  
 2.021600000000000E10   -4.126739801044293E-3   9.143573149462517E-2  
 2.021800000000000E10    1.134820296194042E-2   9.079427587350168E-2  
 2.022000000000000E10    2.663435772626609E-2   8.747621586995308E-2  
 2.022200000000000E10    4.082078597517826E-2   8.167915734306486E-2  
 2.022400000000000E10    5.395240637246938E-2   7.353925700648772E-2  
 2.022600000000000E10    6.548561514235221E-2   6.332312921878003E-2  
 2.022800000000000E10    7.504357456243331E-2   5.157320530197937E-2  
 2.023000000000000E10    8.261000182803849E-2   3.838815028144482E-2  
 2.023200000000000E10    8.806407615588979E-2   2.401643998626767E-2  
 2.023400000000000E10    9.095657120616994E-2   8.801596808627063E-3  
 2.023600000000000E10    9.119304961648327E-2  -6.626846279862647E-3  
 2.023800000000000E10    8.886067027827334E-2  -2.177294406242331E-2  
 2.024000000000000E10    8.408197813027757E-2  -3.633108687295562E-2  
 2.024200000000000E10    7.680641623046622E-2  -5.001546785782945E-2  
 2.024400000000000E10    6.741176173195210E-2  -6.219420244654603E-2  
 2.024600000000000E10    5.605828816552748E-2  -7.273908690156714E-2  
 2.024800000000000E10    4.321167404291753E-2  -8.113443018564925E-2  
 2.025000000000000E10    2.896205971068187E-2  -8.733868060297295E-2  
 2.025200000000000E10    1.396075053846127E-2  -9.115719415982011E-2  
 2.025400000000000E10   -1.581224475063975E-3  -9.239359602503340E-2  
 2.025600000000000E10   -1.715793651386682E-2  -9.092162632019665E-2  
 2.025800000000000E10   -3.227274993153190E-2  -8.692355884407481E-2  
 2.026000000000000E10   -4.645464486490895E-2  -8.043280945439765E-2  
 2.026200000000000E10   -5.963955440649705E-2  -7.148596168538278E-2  
 2.026400000000000E10   -7.104864360619154E-2  -6.039468824846773E-2  
 2.026600000000000E10   -8.033427425592042E-2  -4.747938880506707E-2  
 2.026800000000000E10   -8.721964168541578E-2  -3.319046156514116E-2  
 2.027000000000000E10   -9.164609816862371E-2  -1.789152784323736E-2  
 2.027200000000000E10   -9.335339879069293E-2  -2.145093811321454E-3  
 2.027400000000000E10   -9.241924337152195E-2   1.372874320181195E-2  
 2.027600000000000E10   -8.893110987164787E-2   2.897860768615212E-2  
 2.027800000000000E10   -8.289697599436810E-2   4.374901858191291E-2  
 2.028000000000000E10   -7.435219033775557E-2   5.735105930303797E-2  
 2.028200000000000E10   -6.359532714314910E-2   6.923839707803421E-2  
 2.028400000000000E10   -5.082436162554375E-2   7.915005779449530E-2  
 2.028600000000000E10   -3.648944659064290E-2   8.672062577208829E-2  
 2.028800000000000E10   -2.123516058330884E-2   9.156150326012280E-2  
 2.029000000000000E10   -5.235614477555155E-3   9.373727240949444E-2  
 2.029200000000000E10    1.078663648037278E-2   9.313735478645235E-2  
 2.029400000000000E10    2.629519534075514E-2   8.990602959000020E-2  
 2.029600000000000E10    4.116494306118064E-2   8.405186388569530E-2  
 2.029800000000000E10    5.479170919617009E-2   7.572606218426417E-2  
 2.030000000000000E10    6.668344824082907E-2   6.538174328194714E-2  
 2.030200000000000E10    7.671384613500927E-2   5.316920900644878E-2  
 2.030400000000000E10    8.458255692354354E-2   3.951591204701405E-2  
 2.030600000000000E10    9.011114880282921E-2   2.453019528518807E-2  
 2.030800000000000E10    9.296817998247886E-2   8.812885041124503E-3  
 2.031000000000000E10    9.303064085727346E-2  -6.990885358686295E-3  
 2.031200000000000E10    9.031285143116299E-2  -2.280614893753156E-2  
 2.031400000000000E10    8.498284784325837E-2  -3.769051884994790E-2  
 2.031600000000000E10    7.756532546720704E-2  -5.078699084881840E-2  
 2.031800000000000E10    6.791594362243902E-2  -6.300504451366273E-2  
 2.032000000000000E10    5.625656369238657E-2  -7.355521123790113E-2  
 2.032200000000000E10    4.322005720641105E-2  -8.187334144233617E-2  
 2.032400000000000E10    2.871162989953716E-2  -8.794823446821565E-2  
 2.032600000000000E10    1.354771551737787E-2  -9.138371219066006E-2  
 2.032800000000000E10   -2.078615717545963E-3  -9.229320627113388E-2  
 2.033000000000000E10   -1.749700659580343E-2  -9.054850741405983E-2  
 2.033200000000000E10   -3.250375797921747E-2  -8.621762033969545E-2  
 2.033400000000000E10   -4.646825409528163E-2  -7.953528709079022E-2  
 2.033600000000000E10   -5.237455266305746E-2  -7.590850402566193E-2  
 2.033800000000000E10   -7.039666064629219E-2  -5.940009047086238E-2  
 2.034000000000000E10   -7.948266916766086E-2  -4.648641216332675E-2  
 2.034200000000000E10   -8.605785055734086E-2  -3.253809678342706E-2  
 2.034400000000000E10   -9.025067190986739E-2  -1.768762164170732E-2  
 2.034600000000000E10   -9.191459628009029E-2  -2.198381983807865E-3  
 2.034800000000000E10   -9.097738121410179E-2   1.329924345614155E-2  
 2.035000000000000E10   -8.745896024442462E-2   2.832434335959200E-2  
 2.035200000000000E10   -8.140740655345695E-2   4.274501713202580E-2  
 2.035400000000000E10   -7.309422964561911E-2   5.573857707100118E-2  
 2.035600000000000E10   -6.269430939152970E-2   6.722235325146775E-2  
 2.035800000000000E10   -5.051603023781555E-2   7.673216960493844E-2  
 2.036000000000000E10   -3.688526352896392E-2   8.416024332612911E-2  
 2.036200000000000E10   -2.215018928444839E-2   8.916906741557461E-2  
 2.036400000000000E10   -6.947375474524641E-3   9.168218115774235E-2  
 2.036600000000000E10    8.489114098799964E-3   9.159346186044802E-2  
 2.036800000000000E10    2.400895429880729E-2   8.882678856738641E-2  
 2.037000000000000E10    3.860539909542678E-2   8.348113943071872E-2  
 2.037200000000000E10    5.212003068594773E-2   7.585775784392385E-2  
 2.037400000000000E10    6.432643672753541E-2   6.590890133786261E-2  
 2.037600000000000E10    7.450395032555927E-2   5.409587416117299E-2  
 2.037800000000000E10    8.251617493514558E-2   4.058844534575785E-2  
 2.038000000000000E10    8.820900766485705E-2   2.596451131130168E-2  
 2.038200000000000E10    9.122964874248207E-2   1.067586308476839E-2  
 2.038400000000000E10    9.160630442541244E-2  -4.885481438439992E-3  
 2.038600000000000E10    8.934494713350359E-2  -2.020843422540134E-2  
 2.038800000000000E10    8.463559853465286E-2  -3.494315760670434E-2  
 2.039000000000000E10    7.762250072523473E-2  -4.862221695182380E-2  
 2.039200000000000E10    6.829402048818620E-2  -6.112015005435961E-2  
 2.039400000000000E10    5.692471563829148E-2  -7.179585393335544E-2  
 2.039600000000000E10    4.397879664797578E-2  -8.032981276787968E-2  
 2.039800000000000E10    2.978327459944202E-2  -8.648140486930964E-2  
 2.040000000000000E10    1.466792523947674E-2  -9.018633117465419E-2  
 2.040200000000000E10   -8.025602947990011E-4  -9.119832287808849E-2  
 2.040400000000000E10   -1.613348758848389E-2  -8.955143328907858E-2  
 2.040600000000000E10   -3.086062006565733E-2  -8.537091941041107E-2  
 2.040800000000000E10   -4.477687951697456E-2  -7.878166034867827E-2  
 2.041000000000000E10   -5.714830406808262E-2  -7.009217193756095E-2  
 2.041200000000000E10   -6.804111058505905E-2  -5.949496050688313E-2  
 2.041400000000000E10   -7.709691357663751E-2  -4.723071423452686E-2  
 2.041600000000000E10   -8.385718554380157E-2  -3.371395944123985E-2  
 2.041800000000000E10   -8.831121275525072E-2  -1.907471057009109E-2  
 2.042000000000000E10   -9.021258964285672E-2  -3.980264895222448E-3  
 2.042200000000000E10   -8.954694440607927E-2   1.108957898060156E-2  
 2.042400000000000E10   -8.642145224147396E-2   2.597935867396196E-2  
 2.042600000000000E10   -8.083019485521274E-2   4.020013111994500E-2  
 2.042800000000000E10   -7.293586151254586E-2   5.309872254915682E-2  
 2.043000000000000E10   -6.300649494531160E-2   6.456132010461753E-2  
 2.043200000000000E10   -5.130271705551296E-2   7.426986528732921E-2  
 2.043400000000000E10   -3.819588624353061E-2   8.189487168162295E-2  
 2.043600000000000E10   -2.403902890164692E-2   8.727211607330762E-2  
 2.043800000000000E10   -8.934523062024267E-3   9.020198620816526E-2  
 2.044000000000000E10    6.538831466766868E-3   9.043720704780678E-2  
 2.044200000000000E10    2.176546673601126E-2   8.796295301158444E-2  
 2.044400000000000E10    3.633649417022663E-2   8.290925639256992E-2  
 2.044600000000000E10    4.973501979864001E-2   7.550984637661820E-2  
 2.044800000000000E10    6.167742735643508E-2   6.592054730614276E-2  
 2.045000000000000E10    7.187628562939469E-2   5.454197001327943E-2  
 2.045200000000000E10    7.990344496655176E-2   4.181060821107242E-2  
 2.045400000000000E10    8.586441526371544E-2   2.781234643910039E-2  
 2.045600000000000E10    8.942619871542115E-2   1.299622193681065E-2  
 2.045800000000000E10    9.039780484514659E-2  -2.282906824906820E-3  
 2.046000000000000E10    8.872519971929148E-2  -1.754196219550189E-2  
 2.046200000000000E10    8.449058923232178E-2  -3.234237863283947E-2  
 2.046400000000000E10    7.771386866301808E-2  -4.618337435281297E-2  
 2.046600000000000E10    6.867027194234010E-2  -5.868784286344624E-2  
 2.046800000000000E10    5.776209046833673E-2  -6.931727202666460E-2  
 2.047000000000000E10    4.509122462758408E-2  -7.805214706393675E-2  
 2.047200000000000E10    3.138532936576740E-2  -8.436573558184320E-2  
 2.047400000000000E10    1.687460095862259E-2  -8.828699703965801E-2  
 2.047600000000000E10    1.872006809740999E-3  -8.983180524750234E-2  
 2.047800000000000E10   -1.316045351477774E-2  -8.890565650159180E-2  
 2.048000000000000E10   -2.772989924267177E-2  -8.552512694914032E-2  
 2.048200000000000E10   -4.173960748298402E-2  -7.972285278506207E-2  
 2.048400000000000E10   -5.470729808984171E-2  -7.166134403129523E-2  
 2.048600000000000E10   -6.602855336625833E-2  -6.155008612839578E-2  
 2.048800000000000E10   -7.570743792847688E-2  -4.939951331003581E-2  
 2.049000000000000E10   -8.298348956669073E-2  -3.597847499620795E-2  
 2.049200000000000E10   -8.794720925499437E-2  -2.154268820340894E-2  
 2.049400000000000E10   -9.044310753167677E-2  -6.397179458275813E-3  
 2.049600000000000E10   -9.034698198155798E-2   9.110260561679304E-3  
 2.049800000000000E10   -8.761704972670614E-2   2.416480289348722E-2  
 2.050000000000000E10   -8.232751095319715E-2   3.889344335765019E-2  
 2.050200000000000E10   -7.446866937437216E-2   5.245845945748832E-2  
 2.050400000000000E10   -6.442412974382576E-2   6.423494605616638E-2  
 2.050600000000000E10   -5.248994506984549E-2   7.416694617954961E-2  
 2.050800000000000E10   -3.914798598185557E-2   8.191838371400262E-2  
 2.051000000000000E10   -2.489271124071981E-2   8.729414124445406E-2  
 2.051200000000000E10   -9.830047383256210E-3   9.024445663443788E-2  
 2.051400000000000E10    5.603060628594366E-3   9.064501735521528E-2  
 2.051600000000000E10    2.081220922864572E-2   8.838037142147880E-2  
 2.051800000000000E10    3.557412379130217E-2   8.351770039574011E-2  
 2.052000000000000E10    4.920210501428460E-2   7.623573459594053E-2  
 2.052200000000000E10    6.139215321587912E-2   6.669225284026667E-2  
 2.052400000000000E10    7.169275311409028E-2   5.533513398399270E-2  
 2.052600000000000E10    7.991543197623004E-2   4.236185753646892E-2  
 2.052800000000000E10    8.580474928849063E-2   2.828057912311114E-2  
 2.053000000000000E10    8.929892791922904E-2   1.336956010353813E-2  
 2.053200000000000E10    9.019909117005742E-2  -1.831173539206499E-3  
 2.053400000000000E10    8.853433394494403E-2  -1.685825798961289E-2  
 2.053600000000000E10    8.439057102112743E-2  -3.152345250065586E-2  
 2.053800000000000E10    7.790359633486559E-2  -4.515562398209878E-2  
 2.054000000000000E10    6.920321624107464E-2  -5.755892337115454E-2  
 2.054200000000000E10    5.870615430249185E-2  -6.823831365422232E-2  
 2.054400000000000E10    4.667436142095895E-2  -7.710192347380990E-2  
 2.054600000000000E10    3.314299495979141E-2  -8.407282259247953E-2  
 2.054800000000000E10    1.854035285407487E-2  -8.867972760071712E-2  
 2.055000000000000E10    3.250855756946153E-3  -9.067611211656734E-2  
 2.055200000000000E10   -1.204743461431439E-2  -9.000741597704964E-2  
 2.055400000000000E10   -2.715421204344470E-2  -8.681219266468512E-2  
 2.055600000000000E10   -4.150487786131533E-2  -8.110133713266735E-2  
