#  HZ   S   RI   R     50.00 
! Rohde & Schwarz ZVA40 4Ports - Version 3.90 - 1145.1110k42 SN: 100403
! Date: 2023-09-28 09:34:03
! Measurement: S12 
! 
 2.000000000000000E10   -1.368796978099847E-1  -2.939385230894442E-2  
 2.000200000000000E10   -1.396874941793489E-1  -1.736063097408157E-2  
 2.000400000000000E10   -1.417245787602884E-1  -2.236117327148900E-3  
 2.000600000000000E10   -1.424263025875445E-1   1.121619972687813E-2  
 2.000800000000000E10   -1.400592369429859E-1   2.625216780529346E-2  
 2.001000000000000E10   -1.379183972323383E-1   3.918521598349384E-2  
 2.001200000000000E10   -1.315565685063233E-1   5.418338065530048E-2  
 2.001400000000000E10   -1.260462322352845E-1   6.730469969319711E-2  
 2.001600000000000E10   -1.195831905912470E-1   7.950985909980021E-2  
 2.001800000000000E10   -1.100421131209091E-1   9.212115397791805E-2  
 2.002000000000000E10   -1.000818905455095E-1   1.017071770297157E-1  
 2.002200000000000E10   -8.720590523731563E-2   1.106219421382304E-1  
 2.002400000000000E10   -7.799165419958257E-2   1.198003123755808E-1  
 2.002600000000000E10   -6.468803021642898E-2   1.280863454312454E-1  
 2.002800000000000E10   -5.002796967272406E-2   1.322359542051951E-1  
 2.003000000000000E10   -3.805872728979147E-2   1.383733802739485E-1  
 2.003200000000000E10   -2.363973168403279E-2   1.406142343709499E-1  
 2.003400000000000E10   -8.218944245190533E-3   1.439441328431353E-1  
 2.003600000000000E10    6.827950684560671E-3   1.440153931394036E-1  
 2.003800000000000E10    2.016182922194770E-2   1.402671212031518E-1  
 2.004000000000000E10    3.617951522270839E-2   1.369761059313645E-1  
 2.004200000000000E10    4.925995568434398E-2   1.323248263862398E-1  
 2.004400000000000E10    6.486928407792693E-2   1.262556789097963E-1  
 2.004600000000000E10    7.557506233821681E-2   1.200517450033883E-1  
 2.004800000000000E10    8.964749784381303E-2   1.118066281448176E-1  
 2.005000000000000E10    9.852382733866022E-2   1.005068109543235E-1  
 2.005200000000000E10    1.087507867702732E-1   8.911663257045512E-2  
 2.005400000000000E10    1.177496298411746E-1   7.806563460164601E-2  
 2.005600000000000E10    1.226002263066210E-1   6.617703573939242E-2  
 2.005800000000000E10    1.280444124598562E-1   5.220439869128628E-2  
 2.006000000000000E10    1.333096958236930E-1   3.989602818533227E-2  
 2.006200000000000E10    1.367114692190547E-1   2.594120770600843E-2  
 2.006400000000000E10    1.380390313304501E-1   1.024377779506239E-2  
 2.006600000000000E10    1.397900417631056E-1  -3.081438450694637E-3  
 2.006800000000000E10    1.371903927237899E-1  -1.746520455236789E-2  
 2.007000000000000E10    1.353514553220184E-1  -3.238044127270028E-2  
 2.007200000000000E10    1.322515089938670E-1  -4.506507612488889E-2  
 2.007400000000000E10    1.258400472593896E-1  -5.739126639601627E-2  
 2.007600000000000E10    1.189740563248411E-1  -7.003787886581304E-2  
 2.007800000000000E10    1.123804988132583E-1  -8.123014333807394E-2  
 2.008000000000000E10    1.018196144773637E-1  -9.129887203007570E-2  
 2.008200000000000E10    9.213888599180882E-2  -1.018438433975349E-1  
 2.008400000000000E10    8.213053165394584E-2  -1.126659313837687E-1  
 2.008600000000000E10    6.964772728122312E-2  -1.202542884850208E-1  
 2.008800000000000E10    5.779869928036208E-2  -1.263676046589275E-1  
 2.009000000000000E10    4.230722421665251E-2  -1.322937813805945E-1  
 2.009200000000000E10    2.937663049885521E-2  -1.366142446612135E-1  
 2.009400000000000E10    1.427822692296756E-2  -1.384434392790736E-1  
 2.009600000000000E10    4.573596201630101E-4  -1.391809492567439E-1  
 2.009800000000000E10   -1.303786555604067E-2  -1.389841615785787E-1  
 2.010000000000000E10   -2.947705807049333E-2  -1.372126874364453E-1  
 2.010200000000000E10   -4.233593190157856E-2  -1.332778628961540E-1  
 2.010400000000000E10   -5.524567027150851E-2  -1.272487108722145E-1  
 2.010600000000000E10   -6.825502262807187E-2  -1.216026487541788E-1  
 2.010800000000000E10   -8.152109586898193E-2  -1.136662270183917E-1  
 2.011000000000000E10   -9.390523882559791E-2  -1.040469593839881E-1  
 2.011200000000000E10   -1.035399753370403E-1  -9.336852052329500E-2  
 2.011400000000000E10   -1.136773106308631E-1  -8.293622272250094E-2  
 2.011600000000000E10   -1.205971882115176E-1  -6.913299076719050E-2  
 2.011800000000000E10   -1.281389457943999E-1  -5.705873571612218E-2  
 2.012000000000000E10   -1.324289194595667E-1  -4.341237844876301E-2  
 2.012200000000000E10   -1.365686452683108E-1  -2.917808087335693E-2  
 2.012400000000000E10   -1.380643038837998E-1  -1.618387717983606E-2  
 2.012600000000000E10   -1.386314374797139E-1  -3.577397673471290E-3  
 2.012800000000000E10   -1.388892422855637E-1   1.093018436689436E-2  
 2.013000000000000E10   -1.372407301340574E-1   2.532507971297076E-2  
 2.013200000000000E10   -1.329215069611867E-1   4.021238176910966E-2  
 2.013400000000000E10   -1.288964345499322E-1   5.227171082371548E-2  
 2.013600000000000E10   -1.226393847185889E-1   6.607887167253612E-2  
 2.013800000000000E10   -1.154150352985771E-1   7.772787007284754E-2  
 2.014000000000000E10   -1.051257168989123E-1   8.882154046017447E-2  
 2.014200000000000E10   -9.578769874793514E-2   9.977772703141344E-2  
 2.014400000000000E10   -8.540360951497232E-2   1.079195335875323E-1  
 2.014600000000000E10   -7.217080624383174E-2   1.187294097042378E-1  
 2.014800000000000E10   -5.995290482669703E-2   1.239778216422340E-1  
 2.015000000000000E10   -4.837480789901299E-2   1.300388933331878E-1  
 2.015200000000000E10   -3.342273339261244E-2   1.331924080480764E-1  
 2.015400000000000E10   -2.029358648499589E-2   1.379405576505779E-1  
 2.015600000000000E10   -5.831498250273275E-3   1.364146095735056E-1  
 2.015800000000000E10    8.529554834060465E-3   1.378800975687710E-1  
 2.016000000000000E10    2.298830638145223E-2   1.359858954394305E-1  
 2.016200000000000E10    3.574427433403922E-2   1.325905965066251E-1  
 2.016400000000000E10    4.965014199231879E-2   1.283472474710441E-1  
 2.016600000000000E10    6.211310523895571E-2   1.245394126500613E-1  
 2.016800000000000E10    7.299781369942207E-2   1.169748516914285E-1  
 2.017000000000000E10    8.613753364777860E-2   1.079224347148413E-1  
 2.017200000000000E10    9.721402529581096E-2   9.893435635316522E-2  
 2.017400000000000E10    1.067376765020100E-1   8.890019715936097E-2  
 2.017600000000000E10    1.163817292746203E-1   7.769818815552160E-2  
 2.017800000000000E10    1.220402626527680E-1   6.281519322483629E-2  
 2.018000000000000E10    1.293599300178481E-1   4.979613395752731E-2  
 2.018200000000000E10    1.349879668818580E-1   3.714089435927662E-2  
 2.018400000000000E10    1.368176690590235E-1   2.396628784912604E-2  
 2.018600000000000E10    1.405122370263677E-1   7.535196237128092E-3  
 2.018800000000000E10    1.388393528299567E-1  -7.079483004125918E-3  
 2.019000000000000E10    1.379892215316679E-1  -2.107684109589936E-2  
 2.019200000000000E10    1.353789888046406E-1  -3.543639661353312E-2  
 2.019400000000000E10    1.309761498813276E-1  -4.933914675572773E-2  
 2.019600000000000E10    1.263924822395231E-1  -6.388076146443686E-2  
 2.019800000000000E10    1.178202856286073E-1  -7.717800545103758E-2  
 2.020000000000000E10    1.096015339832247E-1  -8.900429271621470E-2  
 2.020200000000000E10    1.002884165004448E-1  -9.883877248675736E-2  
 2.020400000000000E10    8.922221851937566E-2  -1.098427130484287E-1  
 2.020600000000000E10    7.620651247324768E-2  -1.187368373811981E-1  
 2.020800000000000E10    6.538325272224568E-2  -1.258806050927551E-1  
 2.021000000000000E10    5.043258504183205E-2  -1.333020035131478E-1  
 2.021200000000000E10    3.572826087474823E-2  -1.378043952547474E-1  
 2.021400000000000E10    2.158457243148192E-2  -1.401832508452145E-1  
 2.021600000000000E10    7.045100063637452E-3  -1.424110171235638E-1  
 2.021800000000000E10   -6.713842340733536E-3  -1.422186766141727E-1  
 2.022000000000000E10   -2.205631159889845E-2  -1.410355676471451E-1  
 2.022200000000000E10   -3.540744853240473E-2  -1.385665870743034E-1  
 2.022400000000000E10   -5.003897326044096E-2  -1.354114748077628E-1  
 2.022600000000000E10   -6.398483706109319E-2  -1.281735197997388E-1  
 2.022800000000000E10   -7.631135658349522E-2  -1.204810507687522E-1  
 2.023000000000000E10   -8.883349992978722E-2  -1.122454877620862E-1  
 2.023200000000000E10   -1.004026251626604E-1  -1.031017772577427E-1  
 2.023400000000000E10   -1.110395613459893E-1  -9.162122636665535E-2  
 2.023600000000000E10   -1.183008648179196E-1  -7.912461717187624E-2  
 2.023800000000000E10   -1.275113210266020E-1  -6.714292275316923E-2  
 2.024000000000000E10   -1.313084985738919E-1  -5.521697275064610E-2  
 2.024200000000000E10   -1.376487068188044E-1  -4.059021639419191E-2  
 2.024400000000000E10   -1.409422413066582E-1  -2.579915891458959E-2  
 2.024600000000000E10   -1.431731559612133E-1  -1.168737460479692E-2  
 2.024800000000000E10   -1.438879317339556E-1   3.900326926399161E-3  
 2.025000000000000E10   -1.423058014960937E-1   1.862784868313207E-2  
 2.025200000000000E10   -1.408304875647580E-1   3.113983769291714E-2  
 2.025400000000000E10   -1.375581673633906E-1   4.487913014528193E-2  
 2.025600000000000E10   -1.321879240833683E-1   5.987074032977777E-2  
 2.025800000000000E10   -1.254347680527487E-1   7.170418456748681E-2  
 2.026000000000000E10   -1.181312189609916E-1   8.360430543069487E-2  
 2.026200000000000E10   -1.085812372189981E-1   9.769415496676058E-2  
 2.026400000000000E10   -9.850421621475691E-2   1.065413289599949E-1  
 2.026600000000000E10   -8.695122378843803E-2   1.170158437740656E-1  
 2.026800000000000E10   -7.282624577666508E-2   1.245385545455379E-1  
 2.027000000000000E10   -5.961039602572536E-2   1.320661527139170E-1  
 2.027200000000000E10   -4.703608661154170E-2   1.360962460806341E-1  
 2.027400000000000E10   -3.229427546906619E-2   1.414149725510751E-1  
 2.027600000000000E10   -1.637516267321728E-2   1.421996899593024E-1  
 2.027800000000000E10   -2.669473985687221E-3   1.444090985589557E-1  
 2.028000000000000E10    1.177591443015838E-2   1.433630420102014E-1  
 2.028200000000000E10    2.760725670758590E-2   1.405759898968685E-1  
 2.028400000000000E10    4.177132713389986E-2   1.382795018546376E-1  
 2.028600000000000E10    5.635539226141979E-2   1.338914809403596E-1  
 2.028800000000000E10    6.925222553588727E-2   1.262663488770709E-1  
 2.029000000000000E10    8.133961554662682E-2   1.192566292521395E-1  
 2.029200000000000E10    9.461168944835663E-2   1.097022050324782E-1  
 2.029400000000000E10    1.062137710827368E-1   9.891829409717043E-2  
 2.029600000000000E10    1.139482105219806E-1   8.628729638862023E-2  
 2.029800000000000E10    1.221680055245941E-1   7.547087958197536E-2  
 2.030000000000000E10    1.303049081269606E-1   6.154765942950309E-2  
 2.030200000000000E10    1.355547391706043E-1   4.812542546862438E-2  
 2.030400000000000E10    1.379872209128039E-1   3.126137312731626E-2  
 2.030600000000000E10    1.416706089620237E-1   1.809166217751709E-2  
 2.030800000000000E10    1.421446222581981E-1   2.273540938112103E-3  
 2.031000000000000E10    1.421484899373702E-1  -1.107131363249120E-2  
 2.031200000000000E10    1.396746269346756E-1  -2.599205550404243E-2  
 2.031400000000000E10    1.361030213258885E-1  -4.131830368696908E-2  
 2.031600000000000E10    1.312593777238587E-1  -5.513241404184590E-2  
 2.031800000000000E10    1.247859321258686E-1  -6.908274782292638E-2  
 2.032000000000000E10    1.171781949606943E-1  -8.059201113603734E-2  
 2.032200000000000E10    1.090767488435463E-1  -9.102986642607938E-2  
 2.032400000000000E10    9.933970546648828E-2  -1.026376280703663E-1  
 2.032600000000000E10    8.829120068270484E-2  -1.128001040146675E-1  
 2.032800000000000E10    7.538756121087958E-2  -1.201696009547622E-1  
 2.033000000000000E10    6.229622100974308E-2  -1.282673503881620E-1  
 2.033200000000000E10    5.011341141329873E-2  -1.333768772490231E-1  
 2.033400000000000E10    3.522758498603916E-2  -1.386487485817921E-1  
 2.033600000000000E10    2.001372474119251E-2  -1.403083924526050E-1  
 2.033800000000000E10    5.779406435235784E-3  -1.419348179558177E-1  
 2.034000000000000E10   -9.323438192591257E-3  -1.406995210750603E-1  
 2.034200000000000E10   -2.396185141930610E-2  -1.403517800348777E-1  
 2.034400000000000E10   -3.631030069089231E-2  -1.379779115503217E-1  
 2.034600000000000E10   -5.075982029055372E-2  -1.326322761582740E-1  
 2.034800000000000E10   -6.336859645850866E-2  -1.261951985918446E-1  
 2.035000000000000E10   -7.644748062263301E-2  -1.205011963108440E-1  
 2.035200000000000E10   -8.807125678400936E-2  -1.112929505330545E-1  
 2.035400000000000E10   -9.878731261432910E-2  -1.021646456218061E-1  
 2.035600000000000E10   -1.100073694998835E-1  -9.195705834362243E-2  
 2.035800000000000E10   -1.183950834804111E-1  -7.933245884415545E-2  
 2.036000000000000E10   -1.260724325238923E-1  -6.741333338949417E-2  
 2.036200000000000E10   -1.323678673785410E-1  -5.364490843113558E-2  
 2.036400000000000E10   -1.384958356250952E-1  -4.010027605626319E-2  
 2.036600000000000E10   -1.412560389733609E-1  -2.372790587905013E-2  
 2.036800000000000E10   -1.418183710840014E-1  -9.857393214824024E-3  
 2.037000000000000E10   -1.425371015513385E-1   4.271632971610001E-3  
 2.037200000000000E10   -1.400932791056457E-1   1.822420535034236E-2  
 2.037400000000000E10   -1.386762044312042E-1   3.303679134006854E-2  
 2.037600000000000E10   -1.325679739684235E-1   4.812879188929076E-2  
 2.037800000000000E10   -1.285365383934092E-1   6.116155562577424E-2  
 2.038000000000000E10   -1.216205117511161E-1   7.459086170535030E-2  
 2.038200000000000E10   -1.121161867071081E-1   8.534119885276867E-2  
 2.038400000000000E10   -1.028143272355751E-1   9.736942647047987E-2  
 2.038600000000000E10   -9.154167587374465E-2   1.078033937532225E-1  
 2.038800000000000E10   -8.068400695000166E-2   1.161361174818910E-1  
 2.039000000000000E10   -6.789659745531318E-2   1.245908286468483E-1  
 2.039200000000000E10   -5.378468081723026E-2   1.299254984399419E-1  
 2.039400000000000E10   -4.065722751396674E-2   1.362814406553904E-1  
 2.039600000000000E10   -2.547095578025889E-2   1.368736170324279E-1  
 2.039800000000000E10   -1.280004057435342E-2   1.394573599100113E-1  
 2.040000000000000E10    2.461210965577020E-3   1.397361422394529E-1  
 2.040200000000000E10    1.772275058851566E-2   1.395915310691904E-1  
 2.040400000000000E10    3.168513347613224E-2   1.354291100560883E-1  
 2.040600000000000E10    4.694893050156995E-2   1.304747872514490E-1  
 2.040800000000000E10    5.807272919718131E-2   1.266525396962225E-1  
 2.041000000000000E10    7.166694730152320E-2   1.188796181921606E-1  
 2.041200000000000E10    8.430161087969204E-2   1.115361972723478E-1  
 2.041400000000000E10    9.440141962266264E-2   1.012115392971922E-1  
 2.041600000000000E10    1.046798466532319E-1   9.229495891450365E-2  
 2.041800000000000E10    1.143758578432931E-1   8.005606861394130E-2  
 2.042000000000000E10    1.208466311663757E-1   6.735320554839241E-2  
 2.042200000000000E10    1.280559494539544E-1   5.375913457002170E-2  
 2.042400000000000E10    1.335153116120233E-1   4.075202387240198E-2  
 2.042600000000000E10    1.379938800761729E-1   2.679652063015067E-2  
 2.042800000000000E10    1.397459558498713E-1   1.217518105275101E-2  
 2.043000000000000E10    1.384273695724982E-1  -1.223171138446089E-3  
 2.043200000000000E10    1.390554899418796E-1  -1.735357305517903E-2  
 2.043400000000000E10    1.367827096471080E-1  -3.006738058670804E-2  
 2.043600000000000E10    1.332101485243550E-1  -4.544895031937848E-2  
 2.043800000000000E10    1.288761229794703E-1  -5.731588068567678E-2  
 2.044000000000000E10    1.209393420521124E-1  -7.141536391443677E-2  
 2.044200000000000E10    1.137906469312715E-1  -8.412727869955111E-2  
 2.044400000000000E10    1.039699364775493E-1  -9.573436648021511E-2  
 2.044600000000000E10    9.297214218495806E-2  -1.061556475397981E-1  
 2.044800000000000E10    8.132173939619536E-2  -1.149714563363864E-1  
 2.045000000000000E10    6.854101859125092E-2  -1.242955259886789E-1  
 2.045200000000000E10    5.734863049454160E-2  -1.297486899075685E-1  
 2.045400000000000E10    4.270972440272203E-2  -1.332721930963022E-1  
 2.045600000000000E10    2.805946590263903E-2  -1.396803526598731E-1  
 2.045800000000000E10    1.426966642432007E-2  -1.420094508815695E-1  
 2.046000000000000E10   -1.168333800964275E-3  -1.424587987087391E-1  
 2.046200000000000E10   -1.558529689080186E-2  -1.406423248994498E-1  
 2.046400000000000E10   -2.949020576973756E-2  -1.390650934643216E-1  
 2.046600000000000E10   -4.420134360775536E-2  -1.367794085799912E-1  
 2.046800000000000E10   -5.832101041336119E-2  -1.308903548820519E-1  
 2.047000000000000E10   -7.006176312764487E-2  -1.223350758721799E-1  
 2.047200000000000E10   -8.391465338659876E-2  -1.142914182977912E-1  
 2.047400000000000E10   -9.433276114272485E-2  -1.066584398533091E-1  
 2.047600000000000E10   -1.036390631839081E-1  -9.649371972054613E-2  
 2.047800000000000E10   -1.135372565484342E-1  -8.468308630916809E-2  
 2.048000000000000E10   -1.221700901234592E-1  -7.217253238698584E-2  
 2.048200000000000E10   -1.305329871398432E-1  -6.066519164560754E-2  
 2.048400000000000E10   -1.345708699506006E-1  -4.723829941617119E-2  
 2.048600000000000E10   -1.395260572065542E-1  -3.162293766199807E-2  
 2.048800000000000E10   -1.403882527424966E-1  -1.813218625331367E-2  
 2.049000000000000E10   -1.408014069368810E-1  -5.424470554485366E-3  
 2.049200000000000E10   -1.418588317838716E-1   1.011625527875659E-2  
 2.049400000000000E10   -1.393227409801366E-1   2.619797458159335E-2  
 2.049600000000000E10   -1.354568847167639E-1   3.847889220457019E-2  
 2.049800000000000E10   -1.317406557960275E-1   5.425654669050818E-2  
 2.050000000000000E10   -1.250855893264583E-1   6.616887956121823E-2  
 2.050200000000000E10   -1.170179907370497E-1   8.022431146215511E-2  
 2.050400000000000E10   -1.082798179101061E-1   8.978037655721477E-2  
 2.050600000000000E10   -9.984792060690165E-2   1.015006415086028E-1  
 2.050800000000000E10   -8.631281738663899E-2   1.104404906063904E-1  
 2.051000000000000E10   -7.599443546783778E-2   1.191496636580538E-1  
 2.051200000000000E10   -6.216983934059556E-2   1.265602812722877E-1  
 2.051400000000000E10   -4.892721188105184E-2   1.318942954142889E-1  
 2.051600000000000E10   -3.714582908116742E-2   1.373772698420066E-1  
 2.051800000000000E10   -2.172441527615359E-2   1.387813992706346E-1  
 2.052000000000000E10   -6.054987406565084E-3   1.411193439989915E-1  
 2.052200000000000E10    7.260595034394000E-3   1.399901157911913E-1  
 2.052400000000000E10    2.171832973850362E-2   1.387470079424941E-1  
 2.052600000000000E10    3.742924130257266E-2   1.351517070958644E-1  
 2.052800000000000E10    5.106009529144677E-2   1.296217892272973E-1  
 2.053000000000000E10    6.126510517464744E-2   1.246527433395386E-1  
 2.053200000000000E10    7.678861557333559E-2   1.191527376204361E-1  
 2.053400000000000E10    8.776009616292554E-2   1.086809881675391E-1  
 2.053600000000000E10    9.875042874504021E-2   1.003705925411648E-1  
 2.053800000000000E10    1.091707151061223E-1   8.884438890733837E-2  
 2.054000000000000E10    1.173490283113939E-1   7.731923157418216E-2  
 2.054200000000000E10    1.241787985703092E-1   6.548262746245774E-2  
 2.054400000000000E10    1.296037735394490E-1   5.197762817512325E-2  
 2.054600000000000E10    1.352125062250797E-1   3.764448659839454E-2  
 2.054800000000000E10    1.374711916770464E-1   2.461035351878332E-2  
 2.055000000000000E10    1.385119388132920E-1   1.012661617341233E-2  
 2.055200000000000E10    1.402378950589969E-1  -4.727358193953097E-3  
 2.055400000000000E10    1.392867324160941E-1  -1.797617410804019E-2  
 2.055600000000000E10    1.367200782269608E-1  -3.224018791023597E-2  
