#  HZ   S   RI   R     50.00 
! Rohde & Schwarz ZVA40 4Ports - Version 3.90 - 1145.1110k42 SN: 100403
! Date: 2023-09-28 08:55:52
! Measurement: S22 
! 
 2.000000000000000E10    1.875198218377304E-1  -2.134882704331589E-1  
 2.000200000000000E10    1.700914547235108E-1  -2.148095927382661E-1  
 2.000400000000000E10    1.541535372486878E-1  -2.179443955736924E-1  
 2.000600000000000E10    1.314324009396363E-1  -2.152785192880249E-1  
 2.000800000000000E10    1.053513178256989E-1  -2.128936357191086E-1  
 2.001000000000000E10    8.528743008430482E-2  -2.127420179457093E-1  
 2.001200000000000E10    6.355036627433777E-2  -2.057214175073243E-1  
 2.001400000000000E10    3.641691346647263E-2  -2.052004357910920E-1  
 2.001600000000000E10    1.377871477897644E-2  -2.005469417661668E-1  
 2.001800000000000E10   -8.540156746549609E-3  -1.903298685245133E-1  
 2.002000000000000E10   -3.500525957222225E-2  -1.828400692716599E-1  
 2.002200000000000E10   -5.721293626241209E-2  -1.771863753302384E-1  
 2.002400000000000E10   -8.253150346291545E-2  -1.693341062739182E-1  
 2.002600000000000E10   -9.787631887931826E-2  -1.585229935905457E-1  
 2.002800000000000E10   -1.183140742421913E-1  -1.521584456952668E-1  
 2.003000000000000E10   -1.344696186440277E-1  -1.404501571932602E-1  
 2.003200000000000E10   -1.530010894382096E-1  -1.306094400527192E-1  
 2.003400000000000E10   -1.665663212367249E-1  -1.212868575923920E-1  
 2.003600000000000E10   -1.787681152455903E-1  -1.111481974552155E-1  
 2.003800000000000E10   -1.797684559542084E-1  -9.867982132537845E-2  
 2.004000000000000E10   -1.894038498711396E-1  -8.736563575649264E-2  
 2.004200000000000E10   -1.915926684481431E-1  -7.615366744779589E-2  
 2.004400000000000E10   -1.910263546160508E-1  -6.155969867225648E-2  
 2.004600000000000E10   -1.950563680973054E-1  -5.663648343860628E-2  
 2.004800000000000E10   -1.860937900204850E-1  -5.432939159391405E-2  
 2.005000000000000E10   -1.837984737368393E-1  -4.629047029972078E-2  
 2.005200000000000E10   -1.714199172877121E-1  -4.375219975181580E-2  
 2.005400000000000E10   -1.617666051224518E-1  -3.764939087636948E-2  
 2.005600000000000E10   -1.496356962172699E-1  -3.809904034467698E-2  
 2.005800000000000E10   -1.352458552135850E-1  -3.336392935991288E-2  
 2.006000000000000E10   -1.182229222385407E-1  -3.203276330433846E-2  
 2.006200000000000E10   -1.005356803084946E-1  -3.222436212272645E-2  
 2.006400000000000E10   -8.439264058071137E-2  -3.223091151004792E-2  
 2.006600000000000E10   -6.670067367185595E-2  -3.619814266477586E-2  
 2.006800000000000E10   -4.603373920827866E-2  -4.268328575338364E-2  
 2.007000000000000E10   -2.713126384661675E-2  -4.502853157482147E-2  
 2.007200000000000E10   -6.912374545097352E-3  -4.636062671930315E-2  
 2.007400000000000E10    1.305761577096940E-2  -5.512155182183268E-2  
 2.007600000000000E10    3.017837249828816E-2  -6.144308445723536E-2  
 2.007800000000000E10    4.989232251009227E-2  -6.715083954674722E-2  
 2.008000000000000E10    7.131957834110261E-2  -6.991510406246188E-2  
 2.008200000000000E10    8.894239632228854E-2  -7.675794604228022E-2  
 2.008400000000000E10    1.035417739813042E-1  -9.039650498048787E-2  
 2.008600000000000E10    1.131099031587792E-1  -9.663803041095737E-2  
 2.008800000000000E10    1.282173958515549E-1  -1.039432253878975E-1  
 2.009000000000000E10    1.421316139348412E-1  -1.071285907896996E-1  
 2.009200000000000E10    1.501805047425843E-1  -1.158786323853684E-1  
 2.009400000000000E10    1.602477324400330E-1  -1.208953504785538E-1  
 2.009600000000000E10    1.646611148234177E-1  -1.274633899988938E-1  
 2.009800000000000E10    1.687074880657959E-1  -1.328797253314591E-1  
 2.010000000000000E10    1.712850799576569E-1  -1.362656028718567E-1  
 2.010200000000000E10    1.723206190601731E-1  -1.449857942267991E-1  
 2.010400000000000E10    1.705148698436737E-1  -1.514209799763108E-1  
 2.010600000000000E10    1.649610662849427E-1  -1.539589149497605E-1  
 2.010800000000000E10    1.589218138827897E-1  -1.583297429154206E-1  
 2.011000000000000E10    1.509058694096756E-1  -1.616285211739540E-1  
 2.011200000000000E10    1.403082785665131E-1  -1.650448180316163E-1  
 2.011400000000000E10    1.270537502641678E-1  -1.671007240477372E-1  
 2.011600000000000E10    1.120875081335068E-1  -1.717853841574097E-1  
 2.011800000000000E10    9.817938848625184E-2  -1.726319570938492E-1  
 2.012000000000000E10    8.304134522235872E-2  -1.738562365250779E-1  
 2.012200000000000E10    6.335237741188050E-2  -1.725427687011719E-1  
 2.012400000000000E10    4.407367940177918E-2  -1.738600419887543E-1  
 2.012600000000000E10    2.280764810880662E-2  -1.761925239628601E-1  
 2.012800000000000E10    2.965446758041379E-3  -1.744913290284730E-1  
 2.013000000000000E10   -2.257868534186840E-2  -1.726929484760666E-1  
 2.013200000000000E10   -4.173220532420338E-2  -1.718926047010422E-1  
 2.013400000000000E10   -6.293194710847855E-2  -1.695788715800858E-1  
 2.013600000000000E10   -8.653000023663522E-2  -1.666437961564255E-1  
 2.013800000000000E10   -1.067331538481808E-1  -1.595925761555863E-1  
 2.014000000000000E10   -1.324928508775521E-1  -1.570791481228257E-1  
 2.014200000000000E10   -1.492245513475037E-1  -1.515960108984757E-1  
 2.014400000000000E10   -1.709362466715622E-1  -1.488130601485443E-1  
 2.014600000000000E10   -1.891301861215211E-1  -1.386954684374238E-1  
 2.014800000000000E10   -2.034503634692765E-1  -1.349714387343216E-1  
 2.015000000000000E10   -2.210876310446168E-1  -1.315642616141129E-1  
 2.015200000000000E10   -2.347640421387864E-1  -1.227189634106064E-1  
 2.015400000000000E10   -2.438366447823716E-1  -1.126260556647110E-1  
 2.015600000000000E10   -2.521648575444794E-1  -1.060317418413162E-1  
 2.015800000000000E10   -2.575256105483246E-1  -9.740978317562105E-2  
 2.016000000000000E10   -2.637423076057435E-1  -9.294960315017702E-2  
 2.016200000000000E10   -2.645043319719697E-1  -8.243498505332948E-2  
 2.016400000000000E10   -2.651251115293885E-1  -7.134376997015002E-2  
 2.016600000000000E10   -2.622336046452332E-1  -6.201691880697252E-2  
 2.016800000000000E10   -2.525212124389649E-1  -5.289394097343446E-2  
 2.017000000000000E10   -2.470828727889253E-1  -4.339091602476121E-2  
 2.017200000000000E10   -2.357941508368683E-1  -3.582243258287073E-2  
 2.017400000000000E10   -2.237463561960602E-1  -2.394106935096741E-2  
 2.017600000000000E10   -2.098850051484681E-1  -1.598695857744217E-2  
 2.017800000000000E10   -1.923074538651657E-1  -7.306160548343658E-3  
 2.018000000000000E10   -1.755363840001298E-1  -2.328052067236901E-3  
 2.018200000000000E10   -1.533217534951401E-1   5.821257382798199E-3  
 2.018400000000000E10   -1.304784744172287E-1   1.417162769613207E-2  
 2.018600000000000E10   -1.041113614899063E-1   1.796101498635650E-2  
 2.018800000000000E10   -8.141485312084201E-2   2.814883536258698E-2  
 2.019000000000000E10   -5.968936696727754E-2   2.954649353157044E-2  
 2.019200000000000E10   -3.344131780389786E-2   3.127539750560761E-2  
 2.019400000000000E10   -1.003004388300896E-2   4.069978279593468E-2  
 2.019600000000000E10    1.477962757735253E-2   3.854272705863953E-2  
 2.019800000000000E10    3.508499136020661E-2   3.551431929603577E-2  
 2.020000000000000E10    6.144433081564428E-2   3.643135432971955E-2  
 2.020200000000000E10    8.020396345845224E-2   3.608012515525819E-2  
 2.020400000000000E10    1.006741651887322E-1   3.518405607450485E-2  
 2.020600000000000E10    1.182403743644905E-1   3.365194605693818E-2  
 2.020800000000000E10    1.345096834332466E-1   2.998068030512810E-2  
 2.021000000000000E10    1.465921250216294E-1   2.652737494651795E-2  
 2.021200000000000E10    1.583317184529496E-1   2.357564814283371E-2  
 2.021400000000000E10    1.670249381748581E-1   1.766918223136902E-2  
 2.021600000000000E10    1.728306192649079E-1   1.585656516338349E-2  
 2.021800000000000E10    1.761041481578828E-1   1.041273677678108E-2  
 2.022000000000000E10    1.766560989986039E-1   9.793615156593320E-3  
 2.022200000000000E10    1.772699321752167E-1   5.808046556491852E-3  
 2.022400000000000E10    1.761060620308686E-1  -6.317229288291953E-4  
 2.022600000000000E10    1.689600389343262E-1  -1.475187647333148E-3  
 2.022800000000000E10    1.598832917415619E-1  -4.825034362010958E-3  
 2.023000000000000E10    1.522709132475281E-1  -6.219109062705044E-3  
 2.023200000000000E10    1.395942401480866E-1  -1.026316443434239E-2  
 2.023400000000000E10    1.243927642028427E-1  -1.196576079411507E-2  
 2.023600000000000E10    1.092448922681046E-1  -1.575951043829918E-2  
 2.023800000000000E10    9.031954069274904E-2  -1.675251604491418E-2  
 2.024000000000000E10    7.518124717277529E-2  -2.055653407038689E-2  
 2.024200000000000E10    5.332381854490281E-2  -2.220046376484395E-2  
 2.024400000000000E10    3.395224600594521E-2  -2.094406510437966E-2  
 2.024600000000000E10    1.523461626416206E-2  -2.543678080333710E-2  
 2.024800000000000E10   -3.863170739297872E-3  -2.164200353977204E-2  
 2.025000000000000E10   -2.468790792706967E-2  -2.305329331021309E-2  
 2.025200000000000E10   -4.529928311499716E-2  -2.200289382686615E-2  
 2.025400000000000E10   -6.536689148941043E-2  -2.074377304945946E-2  
 2.025600000000000E10   -8.440205587951663E-2  -2.012743728360653E-2  
 2.025800000000000E10   -1.028961396891976E-1  -1.982526910196782E-2  
 2.026000000000000E10   -1.183877369047356E-1  -1.669082705669403E-2  
 2.026200000000000E10   -1.342088536912919E-1  -1.331612532520294E-2  
 2.026400000000000E10   -1.457673666816712E-1  -1.066337769487381E-2  
 2.026600000000000E10   -1.604189810376358E-1  -7.024082656059265E-3  
 2.026800000000000E10   -1.690631468465043E-1  -6.070893464412686E-3  
 2.027000000000000E10   -1.742015628318787E-1  -2.335023197765347E-3  
 2.027200000000000E10   -1.816477186265565E-1   1.333984301567226E-5  
 2.027400000000000E10   -1.846386120711899E-1   3.271012930016519E-3  
 2.027600000000000E10   -1.889401743059921E-1   9.186916943874366E-3  
 2.027800000000000E10   -1.850243312960053E-1   1.224555375925542E-2  
 2.028000000000000E10   -1.826048645170975E-1   1.480373541039467E-2  
 2.028200000000000E10   -1.800263129977036E-1   1.794287406884194E-2  
 2.028400000000000E10   -1.713998195178986E-1   2.227658361808539E-2  
 2.028600000000000E10   -1.634871941072083E-1   2.584233458772586E-2  
 2.028800000000000E10   -1.527364466224671E-1   3.204674623961837E-2  
 2.029000000000000E10   -1.371933526230622E-1   3.975388452781440E-2  
 2.029200000000000E10   -1.275737959740067E-1   4.203697324435116E-2  
 2.029400000000000E10   -1.101275446740723E-1   4.626558684253217E-2  
 2.029600000000000E10   -9.193750778388977E-2   5.314967581923485E-2  
 2.029800000000000E10   -7.478585198434831E-2   5.816125761034967E-2  
 2.030000000000000E10   -5.221251612094881E-2   6.405834729587556E-2  
 2.030200000000000E10   -3.070114833139420E-2   6.897176741479875E-2  
 2.030400000000000E10   -9.717091138496399E-3   7.224257982742310E-2  
 2.030600000000000E10    1.422199002099037E-2   8.226872451171877E-2  
 2.030800000000000E10    3.856361770311075E-2   8.330450373020173E-2  
 2.031000000000000E10    5.976702172648431E-2   8.675929576351169E-2  
 2.031200000000000E10    8.255669096424104E-2   9.172086827909472E-2  
 2.031400000000000E10    1.074408774703789E-1   9.223552442445757E-2  
 2.031600000000000E10    1.304472452895546E-1   9.672348995037081E-2  
 2.031800000000000E10    1.521435999601555E-1   1.001229502764511E-1  
 2.032000000000000E10    1.744218517616654E-1   1.066795560675812E-1  
 2.032200000000000E10    1.923632378152466E-1   1.045741837570572E-1  
 2.032400000000000E10    2.107156919804001E-1   1.039233785790634E-1  
 2.032600000000000E10    2.255303825432588E-1   9.996314559917452E-2  
 2.032800000000000E10    2.414112730865861E-1   1.013675503570175E-1  
 2.033000000000000E10    2.557517847480774E-1   1.016269103336335E-1  
 2.033200000000000E10    2.640249234933472E-1   9.948140102272034E-2  
 2.033400000000000E10    2.697781286044312E-1   9.744833982955933E-2  
 2.033600000000000E10    2.772512537210083E-1   8.927634782707215E-2  
 2.033800000000000E10    2.840506041392518E-1   8.535941335496904E-2  
 2.034000000000000E10    2.870248977436067E-1   7.691400551469804E-2  
 2.034200000000000E10    2.799954448186494E-1   6.998030398824694E-2  
 2.034400000000000E10    2.821094717409516E-1   6.530945197523118E-2  
 2.034600000000000E10    2.736360757282258E-1   5.625175643850328E-2  
 2.034800000000000E10    2.704915240618897E-1   4.771287728525163E-2  
 2.035000000000000E10    2.593187991297913E-1   3.736439672893525E-2  
 2.035200000000000E10    2.466555442587281E-1   2.938212483558655E-2  
 2.035400000000000E10    2.336112163420868E-1   1.865974495913506E-2  
 2.035600000000000E10    2.178974149235535E-1   7.920854017696382E-3  
 2.035800000000000E10    2.011976850859070E-1  -4.337750683459046E-3  
 2.036000000000000E10    1.804156354017640E-1  -1.525264103557349E-2  
 2.036200000000000E10    1.620537445302200E-1  -2.307379800081254E-2  
 2.036400000000000E10    1.403478537882615E-1  -3.372920095112802E-2  
 2.036600000000000E10    1.203500916845322E-1  -4.896590056474687E-2  
 2.036800000000000E10    9.952286922145845E-2  -5.899761367109301E-2  
 2.037000000000000E10    7.553732721378328E-2  -6.683189109889984E-2  
 2.037200000000000E10    5.358691654664994E-2  -7.661227436998368E-2  
 2.037400000000000E10    3.131078396926881E-2  -8.650888997377397E-2  
 2.037600000000000E10    1.123376626934052E-2  -9.617678811073306E-2  
 2.037800000000000E10   -8.298098086187840E-3  -1.039765729838562E-1  
 2.038000000000000E10   -2.994226490702392E-2  -1.098431411341477E-1  
 2.038200000000000E10   -4.364965109715463E-2  -1.138891204890061E-1  
 2.038400000000000E10   -5.966658061394692E-2  -1.218542677077866E-1  
 2.038600000000000E10   -7.478766902210238E-2  -1.230859424501038E-1  
 2.038800000000000E10   -9.147841755308155E-2  -1.298645359044266E-1  
 2.039000000000000E10   -1.000657263568497E-1  -1.284677841531754E-1  
 2.039200000000000E10   -1.072676700747872E-1  -1.278431233063507E-1  
 2.039400000000000E10   -1.151699758980560E-1  -1.284967826155853E-1  
 2.039600000000000E10   -1.176796667732621E-1  -1.298723644250489E-1  
 2.039800000000000E10   -1.215842007952118E-1  -1.326198177705384E-1  
 2.040000000000000E10   -1.228403996384430E-1  -1.284962175556946E-1  
 2.040200000000000E10   -1.206537106912995E-1  -1.250345848003006E-1  
 2.040400000000000E10   -1.137215151150513E-1  -1.179638519918442E-1  
 2.040600000000000E10   -1.041640243397331E-1  -1.147973990589524E-1  
 2.040800000000000E10   -9.704809764707569E-2  -1.105240280765915E-1  
 2.041000000000000E10   -8.719633801635743E-2  -1.044887733030892E-1  
 2.041200000000000E10   -7.333656965658189E-2  -1.009277383749581E-1  
 2.041400000000000E10   -5.991717413734438E-2  -9.485919327550889E-2  
 2.041600000000000E10   -4.449374048936845E-2  -8.631842825748444E-2  
 2.041800000000000E10   -2.797193853268624E-2  -7.817494931095126E-2  
 2.042000000000000E10   -1.063806984198570E-2  -7.417826941619875E-2  
 2.042200000000000E10    8.207903411409858E-3  -6.484068833594324E-2  
 2.042400000000000E10    2.660473878433586E-2  -5.693725414211275E-2  
 2.042600000000000E10    4.760783378796578E-2  -5.067068981674196E-2  
 2.042800000000000E10    6.463472492991448E-2  -4.457176072553636E-2  
 2.043000000000000E10    8.835992920382503E-2  -3.490765693860055E-2  
 2.043200000000000E10    1.063432621183205E-1  -3.133488121983529E-2  
 2.043400000000000E10    1.281364957804489E-1  -2.432966472813846E-2  
 2.043600000000000E10    1.447991965103913E-1  -1.747479935166717E-2  
 2.043800000000000E10    1.604054192509842E-1  -1.868963863976479E-2  
 2.044000000000000E10    1.762037236153412E-1  -8.352920149376395E-3  
 2.044200000000000E10    1.958146323526764E-1  -6.004502815411093E-3  
 2.044400000000000E10    2.068147633418656E-1  -3.242732564601900E-3  
 2.044600000000000E10    2.224080951073457E-1  -3.464818873406047E-6  
 2.044800000000000E10    2.315311940806199E-1  -2.609804864997866E-3  
 2.045000000000000E10    2.392844324162675E-1  -3.496018879971505E-3  
 2.045200000000000E10    2.455908569910050E-1   3.074821658205986E-3  
 2.045400000000000E10    2.535119729144288E-1  -7.856702721686365E-3  
 2.045600000000000E10    2.550912366870117E-1  -8.767611088936927E-3  
 2.045800000000000E10    2.556134922862244E-1  -1.097392413333495E-2  
 2.046000000000000E10    2.561015771382141E-1  -1.825923882761598E-2  
 2.046200000000000E10    2.540177571696473E-1  -2.402371756701709E-2  
 2.046400000000000E10    2.493281256721497E-1  -3.269247403825761E-2  
 2.046600000000000E10    2.429997529899216E-1  -3.624438763613702E-2  
 2.046800000000000E10    2.349974234701539E-1  -4.701969131572725E-2  
 2.047000000000000E10    2.251640653380967E-1  -6.133062196817399E-2  
 2.047200000000000E10    2.106731362599183E-1  -6.484356053068163E-2  
 2.047400000000000E10    1.940693509283066E-1  -8.034884548494339E-2  
 2.047600000000000E10    1.826445070890427E-1  -9.294579310470584E-2  
 2.047800000000000E10    1.694072165431214E-1  -1.047493997767067E-1  
 2.048000000000000E10    1.524509266019821E-1  -1.193899625821877E-1  
 2.048200000000000E10    1.316790532784653E-1  -1.329786343944550E-1  
 2.048400000000000E10    1.105254976663590E-1  -1.459427318033982E-1  
 2.048600000000000E10    9.366037542591098E-2  -1.564697558414459E-1  
 2.048800000000000E10    7.106361000246049E-2  -1.675378501422501E-1  
 2.049000000000000E10    5.248552207604409E-2  -1.799589895069504E-1  
 2.049200000000000E10    3.210108685012818E-2  -1.907163080474473E-1  
 2.049400000000000E10    1.005190210579157E-2  -2.023701909241105E-1  
 2.049600000000000E10   -9.163516472083480E-3  -2.078725817869950E-1  
 2.049800000000000E10   -2.704249097500325E-2  -2.256880733737183E-1  
 2.050000000000000E10   -4.155419644642831E-2  -2.267571384811783E-1  
 2.050200000000000E10   -5.917104843804361E-2  -2.347453477059555E-1  
 2.050400000000000E10   -7.741864250162125E-2  -2.396002105608368E-1  
 2.050600000000000E10   -9.063893562767031E-2  -2.422524926448823E-1  
 2.050800000000000E10   -1.042698314269257E-1  -2.442928518719483E-1  
 2.051000000000000E10   -1.162152274606324E-1  -2.460061862127686E-1  
 2.051200000000000E10   -1.229946235581017E-1  -2.401722547620393E-1  
 2.051400000000000E10   -1.330868679534531E-1  -2.381100857707596E-1  
 2.051600000000000E10   -1.338812995228577E-1  -2.343660254948426E-1  
 2.051800000000000E10   -1.396418565208054E-1  -2.287685436028672E-1  
 2.052000000000000E10   -1.400542623139954E-1  -2.226997323403931E-1  
 2.052200000000000E10   -1.405411525489807E-1  -2.113248780517579E-1  
 2.052400000000000E10   -1.354824094718552E-1  -1.994743276313019E-1  
 2.052600000000000E10   -1.319377979730225E-1  -1.902443786258698E-1  
 2.052800000000000E10   -1.229577968510819E-1  -1.778711942327500E-1  
 2.053000000000000E10   -1.149371015564537E-1  -1.642355443760301E-1  
 2.053200000000000E10   -1.036366910153580E-1  -1.507357164941025E-1  
 2.053400000000000E10   -9.313578410795213E-2  -1.361663019135666E-1  
 2.053600000000000E10   -8.051302776630404E-2  -1.229375686944580E-1  
 2.053800000000000E10   -6.081166117834093E-2  -1.069987627515412E-1  
 2.054000000000000E10   -4.336208795362474E-2  -9.360910873525621E-2  
 2.054200000000000E10   -2.896718332784654E-2  -7.537286108181002E-2  
 2.054400000000000E10   -1.007192753814698E-2  -6.071584755441668E-2  
 2.054600000000000E10    3.520077667348386E-3  -4.931092425687791E-2  
 2.054800000000000E10    2.514183661815167E-2  -3.518281452806474E-2  
 2.055000000000000E10    4.252976349987984E-2  -2.445866198368550E-2  
 2.055200000000000E10    5.945017361305237E-2  -1.226373116014243E-2  
 2.055400000000000E10    7.394077420597078E-2  -3.647977115270497E-3  
 2.055600000000000E10    9.276148213190080E-2   6.430621684040429E-3  
