#  HZ   S   RI   R     50.00 
! Rohde & Schwarz ZVA40 4Ports - Version 3.90 - 1145.1110k42 SN: 100403
! Date: 2023-09-28 09:23:46
! Measurement: S12 
! 
 2.000000000000000E10    3.898493087574565E-2   1.332215595024604E-1  
 2.000200000000000E10    5.190213528220301E-2   1.290399145196985E-1  
 2.000400000000000E10    6.477439072397020E-2   1.223814244623538E-1  
 2.000600000000000E10    7.762789519296753E-2   1.146726227468915E-1  
 2.000800000000000E10    8.917682203981614E-2   1.054334143797557E-1  
 2.001000000000000E10    9.994699502432790E-2   9.478236293351210E-2  
 2.001200000000000E10    1.090803052540179E-1   8.438640667332545E-2  
 2.001400000000000E10    1.167402256418158E-1   7.360010842482249E-2  
 2.001600000000000E10    1.232138469263360E-1   6.068657476592948E-2  
 2.001800000000000E10    1.293098507104097E-1   4.700170512552615E-2  
 2.002000000000000E10    1.342943396281313E-1   3.363487924690600E-2  
 2.002200000000000E10    1.351990026456339E-1   1.975606626796502E-2  
 2.002400000000000E10    1.379780725196556E-1   5.355376508776787E-3  
 2.002600000000000E10    1.376023822360569E-1  -9.029811593117543E-3  
 2.002800000000000E10    1.352942569388284E-1  -2.267223641414334E-2  
 2.003000000000000E10    1.316815410499220E-1  -3.651700522190098E-2  
 2.003200000000000E10    1.260617596131784E-1  -5.173011551852580E-2  
 2.003400000000000E10    1.207743623742351E-1  -6.329749110672210E-2  
 2.003600000000000E10    1.117007042522784E-1  -7.420953901277649E-2  
 2.003800000000000E10    1.043501871603507E-1  -8.692064826135283E-2  
 2.004000000000000E10    9.439947814853104E-2  -9.814976431705336E-2  
 2.004200000000000E10    8.475625514984131E-2  -1.051097385309361E-1  
 2.004400000000000E10    7.239451976837935E-2  -1.133161427246200E-1  
 2.004600000000000E10    5.885921253098382E-2  -1.195493784767610E-1  
 2.004800000000000E10    4.606396290991041E-2  -1.250815604020048E-1  
 2.005000000000000E10    3.385309612861386E-2  -1.297303945929916E-1  
 2.005200000000000E10    1.951640654631235E-2  -1.320250702125055E-1  
 2.005400000000000E10    6.310617240766684E-3  -1.337092987917088E-1  
 2.005600000000000E10   -8.586659268648544E-3  -1.319599835960953E-1  
 2.005800000000000E10   -2.199656285207581E-2  -1.305468242477488E-1  
 2.006000000000000E10   -3.682479949633558E-2  -1.280768966233289E-1  
 2.006200000000000E10   -5.098671583389795E-2  -1.239836315313975E-1  
 2.006400000000000E10   -6.187113084726865E-2  -1.154146028889550E-1  
 2.006600000000000E10   -7.507406326907654E-2  -1.095132595962949E-1  
 2.006800000000000E10   -8.392822618285815E-2  -1.005189981725481E-1  
 2.007000000000000E10   -9.350292853735114E-2  -9.170427504512999E-2  
 2.007200000000000E10   -1.022715066318159E-1  -8.101338479253982E-2  
 2.007400000000000E10   -1.093218470061267E-1  -6.996594672953641E-2  
 2.007600000000000E10   -1.174825719661183E-1  -5.775436427858141E-2  
 2.007800000000000E10   -1.226675689772323E-1  -4.578105539635376E-2  
 2.008000000000000E10   -1.268030057350795E-1  -3.185582688699166E-2  
 2.008200000000000E10   -1.288905328622571E-1  -2.001299922940908E-2  
 2.008400000000000E10   -1.304515164207529E-1  -4.769552378328861E-3  
 2.008600000000000E10   -1.293412662214703E-1   8.877013844472398E-3  
 2.008800000000000E10   -1.300980029282747E-1   2.112317616464916E-2  
 2.009000000000000E10   -1.272013982137045E-1   3.419536027919364E-2  
 2.009200000000000E10   -1.205853306584888E-1   4.844924717865608E-2  
 2.009400000000000E10   -1.161485568240837E-1   6.038954943694451E-2  
 2.009600000000000E10   -1.087636566824383E-1   7.208639466100270E-2  
 2.009800000000000E10   -1.017098929043170E-1   8.423385341410286E-2  
 2.010000000000000E10   -9.208917562608367E-2   9.429454858656283E-2  
 2.010200000000000E10   -8.331049592406663E-2   1.053548391770434E-1  
 2.010400000000000E10   -7.004862416673591E-2   1.119412076142099E-1  
 2.010600000000000E10   -5.971442107801085E-2   1.187135477860769E-1  
 2.010800000000000E10   -4.671675615288594E-2   1.246142547439646E-1  
 2.011000000000000E10   -3.237825866650652E-2   1.296668946743012E-1  
 2.011200000000000E10   -1.902915127747865E-2   1.325407502827821E-1  
 2.011400000000000E10   -4.613340107931028E-3   1.344986050217240E-1  
 2.011600000000000E10    9.698778045950117E-3   1.339390526215236E-1  
 2.011800000000000E10    2.142158833642801E-2   1.324367087196421E-1  
 2.012000000000000E10    3.685502000842934E-2   1.285726085857109E-1  
 2.012200000000000E10    4.999721436588854E-2   1.245495003682596E-1  
 2.012400000000000E10    6.362555969368530E-2   1.193491871710177E-1  
 2.012600000000000E10    7.621213710970350E-2   1.110974721334599E-1  
 2.012800000000000E10    8.519903128897705E-2   1.040022814715350E-1  
 2.013000000000000E10    9.688029934962594E-2   9.375721712907156E-2  
 2.013200000000000E10    1.072553647337137E-1   8.357100933790207E-2  
 2.013400000000000E10    1.168149872510522E-1   7.281139051472700E-2  
 2.013600000000000E10    1.219569519162178E-1   5.885155195439304E-2  
 2.013800000000000E10    1.272540089708788E-1   4.455217029209491E-2  
 2.014000000000000E10    1.298872533219832E-1   3.239771282231366E-2  
 2.014200000000000E10    1.330351592214019E-1   1.847818290331849E-2  
 2.014400000000000E10    1.347852763202456E-1   3.722115454298477E-3  
 2.014600000000000E10    1.338642912882346E-1  -1.058881405603003E-2  
 2.014800000000000E10    1.311335828569201E-1  -2.306026817057973E-2  
 2.015000000000000E10    1.285224258899689E-1  -3.788177798398668E-2  
 2.015200000000000E10    1.251763392377783E-1  -4.872872666628274E-2  
 2.015400000000000E10    1.180538049450627E-1  -6.134867102459626E-2  
 2.015600000000000E10    1.100369989871979E-1  -7.392319760940694E-2  
 2.015800000000000E10    1.019503468716586E-1  -8.446786883804534E-2  
 2.016000000000000E10    9.352457523345947E-2  -9.442788279718825E-2  
 2.016200000000000E10    8.264005487715757E-2  -1.029342859983444E-1  
 2.016400000000000E10    7.199638916386499E-2  -1.114903067549070E-1  
 2.016600000000000E10    5.960662359440769E-2  -1.188662283950382E-1  
 2.016800000000000E10    4.839463614755207E-2  -1.231729945650807E-1  
 2.017000000000000E10    3.488856402260286E-2  -1.282956556037621E-1  
 2.017200000000000E10    2.122113184520492E-2  -1.294469427731302E-1  
 2.017400000000000E10    6.320207397005073E-3  -1.322465969456567E-1  
 2.017600000000000E10   -6.502054010828338E-3  -1.314275237145248E-1  
 2.017800000000000E10   -2.023287645230691E-2  -1.311192755345945E-1  
 2.018000000000000E10   -3.316247418169278E-2  -1.265856005527355E-1  
 2.018200000000000E10   -4.690886968401848E-2  -1.228333209399824E-1  
 2.018400000000000E10   -5.824931379821566E-2  -1.178113994774995E-1  
 2.018600000000000E10   -7.077627146133672E-2  -1.112492917864411E-1  
 2.018800000000000E10   -8.112398672986915E-2  -1.034633782174852E-1  
 2.019000000000000E10   -9.121609010078290E-2  -9.360571067642284E-2  
 2.019200000000000E10   -1.010059841253140E-1  -8.478122756437020E-2  
 2.019400000000000E10   -1.098476761469135E-1  -7.448219369958949E-2  
 2.019600000000000E10   -1.162789486072682E-1  -6.245424322508000E-2  
 2.019800000000000E10   -1.223185917845479E-1  -4.914218587455926E-2  
 2.020000000000000E10   -1.276396314303080E-1  -3.641651543202223E-2  
 2.020200000000000E10   -1.303423129849964E-1  -2.096161570106805E-2  
 2.020400000000000E10   -1.331167728812606E-1  -9.234944599922055E-3  
 2.020600000000000E10   -1.327943321731356E-1   6.807953947120247E-3  
 2.020800000000000E10   -1.308549372134386E-1   2.039912401664037E-2  
 2.021000000000000E10   -1.279627735967990E-1   3.368105254122823E-2  
 2.021200000000000E10   -1.227453924991467E-1   4.712536951733961E-2  
 2.021400000000000E10   -1.181666028720362E-1   5.903733625180192E-2  
 2.021600000000000E10   -1.111325632642817E-1   7.057887688279152E-2  
 2.021800000000000E10   -1.027516833058110E-1   8.339015228880778E-2  
 2.022000000000000E10   -9.316228826840720E-2   9.227595036780395E-2  
 2.022200000000000E10   -8.330293524044533E-2   9.973016988348080E-2  
 2.022400000000000E10   -7.336433811320200E-2   1.088596996333864E-1  
 2.022600000000000E10   -6.056708511379030E-2   1.147499175535308E-1  
 2.022800000000000E10   -4.962572496798304E-2   1.206456022682014E-1  
 2.023000000000000E10   -3.483310721262738E-2   1.250230101523576E-1  
 2.023200000000000E10   -2.245944821172290E-2   1.280168179008696E-1  
 2.023400000000000E10   -9.920553649189295E-3   1.294770820273294E-1  
 2.023600000000000E10    4.656018689274790E-3   1.290888863581198E-1  
 2.023800000000000E10    1.885275018435938E-2   1.278219852182601E-1  
 2.024000000000000E10    3.101319268009522E-2   1.260635880408464E-1  
 2.024200000000000E10    4.324663899562978E-2   1.219933457948544E-1  
 2.024400000000000E10    5.525743878550000E-2   1.164801915486654E-1  
 2.024600000000000E10    6.675877780826005E-2   1.106207850906584E-1  
 2.024800000000000E10    7.721478961132192E-2   1.013940478916522E-1  
 2.025000000000000E10    8.695332843948295E-2   9.326936690895646E-2  
 2.025200000000000E10    9.591381334596211E-2   8.418614693261960E-2  
 2.025400000000000E10    1.031853992629934E-1   7.331070993785505E-2  
 2.025600000000000E10    1.111522821916474E-1   6.319136503669952E-2  
 2.025800000000000E10    1.182095943777650E-1   5.010485235187743E-2  
 2.026000000000000E10    1.206953313063692E-1   3.704693858270292E-2  
 2.026200000000000E10    1.240440943726787E-1   2.569673041364661E-2  
 2.026400000000000E10    1.265638713483457E-1   1.237570470699144E-2  
 2.026600000000000E10    1.246732936965095E-1  -2.114164470522494E-3  
 2.026800000000000E10    1.247361920498036E-1  -1.198938751110325E-2  
 2.027000000000000E10    1.226673021360680E-1  -2.428741841059593E-2  
 2.027200000000000E10    1.199081678081442E-1  -3.715367532438704E-2  
 2.027400000000000E10    1.167425844404433E-1  -4.973678615082194E-2  
 2.027600000000000E10    1.085521197981305E-1  -6.128818665941557E-2  
 2.027800000000000E10    1.015183561378055E-1  -7.289963022426324E-2  
 2.028000000000000E10    9.431785841782889E-2  -8.189528545847646E-2  
 2.028200000000000E10    8.496078628080864E-2  -9.300648696996550E-2  
 2.028400000000000E10    7.388973622410386E-2  -1.006140902086541E-1  
 2.028600000000000E10    6.396013111979873E-2  -1.066254725058874E-1  
 2.028800000000000E10    5.169761718975173E-2  -1.139586498891866E-1  
 2.029000000000000E10    3.908729146200198E-2  -1.174706068855745E-1  
 2.029200000000000E10    2.565502280507375E-2  -1.216051495737500E-1  
 2.029400000000000E10    1.262247438232104E-2  -1.247077567709817E-1  
 2.029600000000000E10   -3.500322086943553E-4  -1.220195619044481E-1  
 2.029800000000000E10   -1.332743610772822E-2  -1.231539911693997E-1  
 2.030000000000000E10   -2.723448672461220E-2  -1.192805767059326E-1  
 2.030200000000000E10   -3.749523349796181E-2  -1.165364092146909E-1  
 2.030400000000000E10   -5.129629787471560E-2  -1.111566374699275E-1  
 2.030600000000000E10   -6.204892005081530E-2  -1.054829485990383E-1  
 2.030800000000000E10   -7.387791822353999E-2  -9.718539703775336E-2  
 2.031000000000000E10   -8.240615990426806E-2  -8.928712705771129E-2  
 2.031200000000000E10   -9.197792604013727E-2  -8.016716578492414E-2  
 2.031400000000000E10   -9.860911965370178E-2  -7.132933095649438E-2  
 2.031600000000000E10   -1.053278007441097E-1  -5.799174225992627E-2  
 2.031800000000000E10   -1.109309171636899E-1  -4.751266815044263E-2  
 2.032000000000000E10   -1.146525398448662E-1  -3.579623948920657E-2  
 2.032200000000000E10   -1.177167484053859E-1  -2.409985558026367E-2  
 2.032400000000000E10   -1.196834207684906E-1  -1.161072316958948E-2  
 2.032600000000000E10   -1.187965792638284E-1  -9.820113579432147E-4  
 2.032800000000000E10   -1.198105210507358E-1   1.226536174201304E-2  
 2.033000000000000E10   -1.180742360927441E-1   2.485496180856394E-2  
 2.033200000000000E10   -1.127850021477099E-1   3.735648606110503E-2  
 2.033400000000000E10   -1.094698359568914E-1   4.958917987015513E-2  
 2.033600000000000E10   -1.034157094028261E-1   6.063101399275993E-2  
 2.033800000000000E10   -9.579101204872131E-2   7.103899245460829E-2  
 2.034000000000000E10   -8.815599012154121E-2   8.145003848605686E-2  
 2.034200000000000E10   -7.840288154504918E-2   8.732302128164858E-2  
 2.034400000000000E10   -6.861269474029541E-2   9.607659777005514E-2  
 2.034600000000000E10   -5.975200594575317E-2   1.037077848558073E-1  
 2.034800000000000E10   -4.808446723553870E-2   1.077329643346645E-1  
 2.035000000000000E10   -3.746224470712520E-2   1.124423477384779E-1  
 2.035200000000000E10   -2.532138872063822E-2   1.149792455964618E-1  
 2.035400000000000E10   -1.391071222584557E-2   1.171517465953474E-1  
 2.035600000000000E10   -3.225217193916991E-3   1.174618899822235E-1  
 2.035800000000000E10    8.838173174471766E-3   1.169810979454606E-1  
 2.036000000000000E10    2.135515025454677E-2   1.159233241169541E-1  
 2.036200000000000E10    3.190831081182869E-2   1.126714790308917E-1  
 2.036400000000000E10    4.491863103100548E-2   1.090692673568373E-1  
 2.036600000000000E10    5.430549810881969E-2   1.043893280956480E-1  
 2.036800000000000E10    6.564639674292672E-2   9.849832565696153E-2  
 2.037000000000000E10    7.403406749169032E-2   9.041627606859914E-2  
 2.037200000000000E10    8.610573990477458E-2   8.171954695825225E-2  
 2.037400000000000E10    9.201531057004576E-2   7.339207883234378E-2  
 2.037600000000000E10    9.793534047073789E-2   6.278221143616572E-2  
 2.037800000000000E10    1.053654926794547E-1   5.371061464150747E-2  
 2.038000000000000E10    1.101574958474548E-1   4.207208642253170E-2  
 2.038200000000000E10    1.124077422751321E-1   3.151362320339238E-2  
 2.038400000000000E10    1.148543573088116E-1   1.954037789255381E-2  
 2.038600000000000E10    1.169181162560428E-1   8.804139646667021E-3  
 2.038800000000000E10    1.171596982964763E-1  -3.217933837462357E-3  
 2.039000000000000E10    1.163560003042221E-1  -1.478013298388019E-2  
 2.039200000000000E10    1.141791084298381E-1  -2.724056884094522E-2  
 2.039400000000000E10    1.108990366812106E-1  -3.942473163759268E-2  
 2.039600000000000E10    1.040239930152893E-1  -5.219866666528914E-2  
 2.039800000000000E10    1.007482525375154E-1  -6.011949700337870E-2  
 2.040000000000000E10    9.318584865993924E-2  -7.065800991323260E-2  
 2.040200000000000E10    8.348818813209182E-2  -8.005147703267911E-2  
 2.040400000000000E10    7.633331252468958E-2  -8.866409322729818E-2  
 2.040600000000000E10    6.766831322952555E-2  -9.664530720975664E-2  
 2.040800000000000E10    5.712322780379543E-2  -1.026424216451469E-1  
 2.041000000000000E10    4.790750780591259E-2  -1.069989921870055E-1  
 2.041200000000000E10    3.546165109232620E-2  -1.099598178708995E-1  
 2.041400000000000E10    2.350162687125030E-2  -1.155812199468966E-1  
 2.041600000000000E10    1.224884107984878E-2  -1.173542026016447E-1  
 2.041800000000000E10   -5.418602032242030E-5  -1.171584852315762E-1  
 2.042000000000000E10   -1.096133940585855E-2  -1.172296884987090E-1  
 2.042200000000000E10   -2.418665574104698E-2  -1.146512136415199E-1  
 2.042400000000000E10   -3.579452730439328E-2  -1.126694177035933E-1  
 2.042600000000000E10   -4.630050573635985E-2  -1.061830476478294E-1  
 2.042800000000000E10   -5.899633011884160E-2  -1.012477063470417E-1  
 2.043000000000000E10   -6.827656317640235E-2  -9.508193698194292E-2  
 2.043200000000000E10   -7.714794714141776E-2  -8.824538549891225E-2  
 2.043400000000000E10   -8.531582300309783E-2  -8.089984429103359E-2  
 2.043600000000000E10   -9.483629051182006E-2  -7.297428862916100E-2  
 2.043800000000000E10   -1.006781737561579E-1  -6.126078190626922E-2  
 2.044000000000000E10   -1.070785837041007E-1  -5.141399083314119E-2  
 2.044200000000000E10   -1.129149893919627E-1  -3.991639172589338E-2  
 2.044400000000000E10   -1.144233390137002E-1  -2.828966715821514E-2  
 2.044600000000000E10   -1.160565101438099E-1  -1.650105634083351E-2  
 2.044800000000000E10   -1.183472684136144E-1  -4.320689925441036E-3  
 2.045000000000000E10   -1.186996582481596E-1   6.304167922482723E-3  
 2.045200000000000E10   -1.171947375491814E-1   1.861904451140651E-2  
 2.045400000000000E10   -1.156872339822628E-1   3.168738053904640E-2  
 2.045600000000000E10   -1.116832803796839E-1   4.234834663845875E-2  
 2.045800000000000E10   -1.070258769172209E-1   5.367760084293508E-2  
 2.046000000000000E10   -1.017272050182025E-1   6.614606551550054E-2  
 2.046200000000000E10   -9.494407061073516E-2   7.519515051885889E-2  
 2.046400000000000E10   -8.561101003929422E-2   8.484402988795882E-2  
 2.046600000000000E10   -7.708489067024656E-2   9.415992349386215E-2  
 2.046800000000000E10   -6.677631978635436E-2   1.025051836062361E-1  
 2.047000000000000E10   -5.715860454020678E-2   1.075055433644189E-1  
 2.047200000000000E10   -4.602644468347232E-2   1.128858355460344E-1  
 2.047400000000000E10   -3.559580431492241E-2   1.170255216183486E-1  
 2.047600000000000E10   -2.048335990144147E-2   1.205435306937606E-1  
 2.047800000000000E10   -9.962074769039951E-3   1.214492624556577E-1  
 2.048000000000000E10    3.405633287642289E-3   1.230861290737435E-1  
 2.048200000000000E10    1.497290593882402E-2   1.218552892958677E-1  
 2.048400000000000E10    2.783092746028194E-2   1.198848458351913E-1  
 2.048600000000000E10    3.931726529090493E-2   1.179378507313905E-1  
 2.048800000000000E10    5.176651574395322E-2   1.130541830703064E-1  
 2.049000000000000E10    6.271521443570102E-2   1.051246681147152E-1  
 2.049200000000000E10    7.477190842231116E-2   1.000821540753047E-1  
 2.049400000000000E10    8.351942427732327E-2   9.122720581513866E-2  
 2.049600000000000E10    9.321250352594589E-2   8.281692227831594E-2  
 2.049800000000000E10    1.017397611781403E-1   7.179645393733626E-2  
 2.050000000000000E10    1.077327863485725E-1   6.087158509978542E-2  
 2.050200000000000E10    1.141041086779701E-1   4.956822276667314E-2  
 2.050400000000000E10    1.184037162197961E-1   3.777337295037729E-2  
 2.050600000000000E10    1.212573487449576E-1   2.652988155130987E-2  
 2.050800000000000E10    1.235130412711038E-1   1.351197826227656E-2  
 2.051000000000000E10    1.241929028873091E-1   5.403830048938598E-4  
 2.051200000000000E10    1.224671072430081E-1  -1.366049130619676E-2  
 2.051400000000000E10    1.215380297766792E-1  -2.597172834255078E-2  
 2.051600000000000E10    1.170556134095899E-1  -3.824163973331451E-2  
 2.051800000000000E10    1.127498585868765E-1  -5.141118831104703E-2  
 2.052000000000000E10    1.071242496923164E-1  -6.264860183000565E-2  
 2.052200000000000E10    1.000864850702109E-1  -7.303034596972996E-2  
 2.052400000000000E10    9.153180817763011E-2  -8.243456620860984E-2  
 2.052600000000000E10    8.520231285580884E-2  -9.216661834054524E-2  
 2.052800000000000E10    7.268296044181896E-2  -1.015208090345065E-1  
 2.053000000000000E10    6.169685542031572E-2  -1.071953715549575E-1  
 2.053200000000000E10    4.964810982346535E-2  -1.134141115126787E-1  
 2.053400000000000E10    3.971878177037946E-2  -1.193882447701914E-1  
 2.053600000000000E10    2.533536770001606E-2  -1.216470715072420E-1  
 2.053800000000000E10    1.393421511683199E-2  -1.233103214590638E-1  
 2.054000000000000E10    1.805584481055001E-4  -1.238730765051312E-1  
 2.054200000000000E10   -1.247072892039325E-2  -1.240525328450733E-1  
 2.054400000000000E10   -2.714764547568781E-2  -1.213312615399008E-1  
 2.054600000000000E10   -3.956043278729475E-2  -1.183963831928041E-1  
 2.054800000000000E10   -5.064154333538480E-2  -1.143191749299014E-1  
 2.055000000000000E10   -6.340431780726823E-2  -1.074565693184182E-1  
 2.055200000000000E10   -7.438006914324231E-2  -1.011708420183924E-1  
 2.055400000000000E10   -8.526422911220127E-2  -9.368457341635671E-2  
 2.055600000000000E10   -9.434846512697362E-2  -8.479290759121931E-2  
