#  HZ   S   RI   R     50.00 
! Rohde & Schwarz ZVA40 4Ports - Version 3.90 - 1145.1110k42 SN: 100403
! Date: 2023-09-28 09:01:48
! Measurement: S22 
! 
 2.000000000000000E10    2.489587675333023E-1  -1.382125747203827E-1  
 2.000200000000000E10    2.356683355569840E-1  -1.401447826623917E-1  
 2.000400000000000E10    2.260059987306596E-1  -1.506663182973862E-1  
 2.000600000000000E10    2.156760739088059E-1  -1.586791523694993E-1  
 2.000800000000000E10    1.937953556776047E-1  -1.666255999803543E-1  
 2.001000000000000E10    1.770164592266083E-1  -1.717066491842270E-1  
 2.001200000000000E10    1.635777199268341E-1  -1.774254387617112E-1  
 2.001400000000000E10    1.368619072437287E-1  -1.881528921127320E-1  
 2.001600000000000E10    1.201517331004143E-1  -1.938283847570420E-1  
 2.001800000000000E10    9.689678692817691E-2  -1.980842484235764E-1  
 2.002000000000000E10    7.228366982936860E-2  -1.981606172323227E-1  
 2.002200000000000E10    4.374486890435220E-2  -2.048577286005021E-1  
 2.002400000000000E10    2.247849270701409E-2  -2.023292547464371E-1  
 2.002600000000000E10   -5.568590790033342E-3  -2.073077356815338E-1  
 2.002800000000000E10   -3.180450677871705E-2  -2.087182534933091E-1  
 2.003000000000000E10   -5.360360428690911E-2  -2.119435439109803E-1  
 2.003200000000000E10   -7.844484740495683E-2  -2.062342135906220E-1  
 2.003400000000000E10   -1.016179419159889E-1  -2.053160958290101E-1  
 2.003600000000000E10   -1.222147316336632E-1  -2.011271570920944E-1  
 2.003800000000000E10   -1.397023993730545E-1  -1.943716013431549E-1  
 2.004000000000000E10   -1.571110116243363E-1  -1.897756500244141E-1  
 2.004200000000000E10   -1.680747475624085E-1  -1.790897272825242E-1  
 2.004400000000000E10   -1.790812371969223E-1  -1.685435266494751E-1  
 2.004600000000000E10   -1.973692330121994E-1  -1.624556585550309E-1  
 2.004800000000000E10   -2.009821636676789E-1  -1.610358084440231E-1  
 2.005000000000000E10   -2.079426177740097E-1  -1.519894611835480E-1  
 2.005200000000000E10   -2.080174739360810E-1  -1.425633765459061E-1  
 2.005400000000000E10   -2.098392742872238E-1  -1.350237166881561E-1  
 2.005600000000000E10   -2.080379054546357E-1  -1.261550607681275E-1  
 2.005800000000000E10   -1.983206423521043E-1  -1.183982986807824E-1  
 2.006000000000000E10   -1.955975826978684E-1  -1.058302136659622E-1  
 2.006200000000000E10   -1.855295817852020E-1  -1.002864575982094E-1  
 2.006400000000000E10   -1.736494714021683E-1  -9.020444887876512E-2  
 2.006600000000000E10   -1.545303417444229E-1  -8.292718231678010E-2  
 2.006800000000000E10   -1.408537448644638E-1  -7.900863450765612E-2  
 2.007000000000000E10   -1.249480842351914E-1  -6.692289978265763E-2  
 2.007200000000000E10   -1.056433191895485E-1  -6.412533587217333E-2  
 2.007400000000000E10   -8.882160025835040E-2  -5.616449058055878E-2  
 2.007600000000000E10   -6.903406584262849E-2  -5.261245799064637E-2  
 2.007800000000000E10   -4.724412634968758E-2  -5.015401151776314E-2  
 2.008000000000000E10   -2.231505875289441E-2  -4.231047537922859E-2  
 2.008200000000000E10   -4.792585123330355E-3  -4.390250161290169E-2  
 2.008400000000000E10    1.806439823657274E-2  -4.019553342461586E-2  
 2.008600000000000E10    3.616853603720666E-2  -4.352626097202302E-2  
 2.008800000000000E10    5.724000486731530E-2  -4.045281150937082E-2  
 2.009000000000000E10    7.251575589179993E-2  -4.299071550369264E-2  
 2.009200000000000E10    9.303040891885760E-2  -4.217596966028213E-2  
 2.009400000000000E10    1.080110818147660E-1  -4.607238823175431E-2  
 2.009600000000000E10    1.231647229194641E-1  -4.400940847396851E-2  
 2.009800000000000E10    1.345620216131210E-1  -4.454512569308282E-2  
 2.010000000000000E10    1.457641217708588E-1  -5.185483783483507E-2  
 2.010200000000000E10    1.522695454359055E-1  -4.994429638981820E-2  
 2.010400000000000E10    1.587900204658509E-1  -5.658559823036195E-2  
 2.010600000000000E10    1.640521820783615E-1  -6.231983768939973E-2  
 2.010800000000000E10    1.682974252700806E-1  -6.918630170822145E-2  
 2.011000000000000E10    1.649825454950333E-1  -7.242541122436524E-2  
 2.011200000000000E10    1.659874407052994E-1  -8.506591922044755E-2  
 2.011400000000000E10    1.632738432884217E-1  -8.351739513874054E-2  
 2.011600000000000E10    1.563487240076065E-1  -8.810853701829911E-2  
 2.011800000000000E10    1.467166339159012E-1  -9.576975643634798E-2  
 2.012000000000000E10    1.402001270055771E-1  -1.051338716745377E-1  
 2.012200000000000E10    1.274041624069214E-1  -1.043829039335251E-1  
 2.012400000000000E10    1.137459472417832E-1  -1.166923561692238E-1  
 2.012600000000000E10    9.952247190475466E-2  -1.234870799779892E-1  
 2.012800000000000E10    8.202043044567109E-2  -1.278373683691025E-1  
 2.013000000000000E10    6.403682613372803E-2  -1.379355075359345E-1  
 2.013200000000000E10    4.345202037692071E-2  -1.416066764593124E-1  
 2.013400000000000E10    2.576098795235158E-2  -1.526134806871414E-1  
 2.013600000000000E10    7.868775932118297E-3  -1.551948946714401E-1  
 2.013800000000000E10   -8.767187211662532E-3  -1.614384753704071E-1  
 2.014000000000000E10   -3.444117188453675E-2  -1.691815323829651E-1  
 2.014200000000000E10   -5.726518714427949E-2  -1.695049117803574E-1  
 2.014400000000000E10   -7.739700013399126E-2  -1.750055084228516E-1  
 2.014600000000000E10   -9.754566711187365E-2  -1.794630988836289E-1  
 2.014800000000000E10   -1.204209159016609E-1  -1.882918760776520E-1  
 2.015000000000000E10   -1.404734426736832E-1  -1.843865076303483E-1  
 2.015200000000000E10   -1.594515755176544E-1  -1.855920344591141E-1  
 2.015400000000000E10   -1.745330404043198E-1  -1.830766612291336E-1  
 2.015600000000000E10   -1.863348727226258E-1  -1.826847225427628E-1  
 2.015800000000000E10   -2.018608177900315E-1  -1.821889654397965E-1  
 2.016000000000000E10   -2.159800208806992E-1  -1.823534159660340E-1  
 2.016200000000000E10   -2.289549632072449E-1  -1.769209810495377E-1  
 2.016400000000000E10   -2.383152503967286E-1  -1.723669373989105E-1  
 2.016600000000000E10   -2.464775642156601E-1  -1.677112261056901E-1  
 2.016800000000000E10   -2.566397678852082E-1  -1.548214386701584E-1  
 2.017000000000000E10   -2.570696675777436E-1  -1.487564892768860E-1  
 2.017200000000000E10   -2.599567131996155E-1  -1.401519094705582E-1  
 2.017400000000000E10   -2.532478094100952E-1  -1.305495790243149E-1  
 2.017600000000000E10   -2.523526394367219E-1  -1.121301139593125E-1  
 2.017800000000000E10   -2.452471145391465E-1  -1.026521955132485E-1  
 2.018000000000000E10   -2.376352039575577E-1  -8.996896153688432E-2  
 2.018200000000000E10   -2.269389705657960E-1  -7.345881527662279E-2  
 2.018400000000000E10   -2.150768239498139E-1  -6.037337651848793E-2  
 2.018600000000000E10   -2.011988044977189E-1  -4.185196208953858E-2  
 2.018800000000000E10   -1.837092478275299E-1  -2.992078256607056E-2  
 2.019000000000000E10   -1.663589315414429E-1  -8.381998838856817E-3  
 2.019200000000000E10   -1.462050019502640E-1   4.059510447084905E-3  
 2.019400000000000E10   -1.234959109425545E-1   2.061587266623974E-2  
 2.019600000000000E10   -1.000417444109917E-1   3.144923588633538E-2  
 2.019800000000000E10   -7.641728419065476E-2   4.764754799008370E-2  
 2.020000000000000E10   -5.186673215031624E-2   6.314021921157838E-2  
 2.020200000000000E10   -2.752836315333844E-2   7.546250563859941E-2  
 2.020400000000000E10   -3.707183895399794E-3   8.344575452804566E-2  
 2.020600000000000E10    2.279071240127087E-2   9.417959445714952E-2  
 2.020800000000000E10    4.402731740474701E-2   1.013634740114212E-1  
 2.021000000000000E10    6.781568211317063E-2   1.056174726486206E-1  
 2.021200000000000E10    9.086418229341509E-2   1.154699854254723E-1  
 2.021400000000000E10    1.062037843465805E-1   1.145581807494164E-1  
 2.021600000000000E10    1.239106358289719E-1   1.131191398501396E-1  
 2.021800000000000E10    1.404486540555954E-1   1.199495537281037E-1  
 2.022000000000000E10    1.554226349592209E-1   1.140780027508736E-1  
 2.022200000000000E10    1.674726055860520E-1   1.126324879527092E-1  
 2.022400000000000E10    1.756494619846344E-1   1.103726794123650E-1  
 2.022600000000000E10    1.783445408344269E-1   1.042942861318588E-1  
 2.022800000000000E10    1.864256616830826E-1   9.557724404335025E-2  
 2.023000000000000E10    1.852565008401871E-1   9.077970927953721E-2  
 2.023200000000000E10    1.843063040971756E-1   8.375954133272172E-2  
 2.023400000000000E10    1.759468621015549E-1   7.601061052083971E-2  
 2.023600000000000E10    1.723516260385513E-1   6.641292911767960E-2  
 2.023800000000000E10    1.608590383529663E-1   5.358835276961328E-2  
 2.024000000000000E10    1.481928915977478E-1   4.883895200490952E-2  
 2.024200000000000E10    1.355397087335587E-1   3.775218337774277E-2  
 2.024400000000000E10    1.200029748678208E-1   2.531031388044358E-2  
 2.024600000000000E10    1.063146858811379E-1   1.720634950697422E-2  
 2.024800000000000E10    8.723588836193086E-2   8.177221491932870E-3  
 2.025000000000000E10    6.710269498825075E-2  -4.976476201787592E-3  
 2.025200000000000E10    5.081408575177193E-2  -1.315213771164418E-2  
 2.025400000000000E10    2.752018049359322E-2  -2.331024797260762E-2  
 2.025600000000000E10    5.874135136604309E-3  -3.012583877146245E-2  
 2.025800000000000E10   -1.082572160661221E-2  -4.110502845048905E-2  
 2.026000000000000E10   -3.201117561757565E-2  -4.541740047931672E-2  
 2.026200000000000E10   -5.152119696140290E-2  -5.175370848178865E-2  
 2.026400000000000E10   -6.917706328630448E-2  -6.112928783893586E-2  
 2.026600000000000E10   -8.535197824239732E-2  -6.150100326538086E-2  
 2.026800000000000E10   -1.042029430270195E-1  -6.664045190811156E-2  
 2.027000000000000E10   -1.198011854887009E-1  -6.863122445344926E-2  
 2.027200000000000E10   -1.305134574174881E-1  -6.704596799612046E-2  
 2.027400000000000E10   -1.424831665754319E-1  -6.953366982936859E-2  
 2.027600000000000E10   -1.516435503959656E-1  -6.978669226169587E-2  
 2.027800000000000E10   -1.596426366567612E-1  -6.935946363210679E-2  
 2.028000000000000E10   -1.642172882556915E-1  -6.744986703991891E-2  
 2.028200000000000E10   -1.669661315679550E-1  -6.861239516735078E-2  
 2.028400000000000E10   -1.715066585540772E-1  -6.047780421376229E-2  
 2.028600000000000E10   -1.704097625017167E-1  -5.680234706401826E-2  
 2.028800000000000E10   -1.666726267337799E-1  -5.200999745726587E-2  
 2.029000000000000E10   -1.611482599973679E-1  -4.481519669294358E-2  
 2.029200000000000E10   -1.532453646659852E-1  -3.639687514305115E-2  
 2.029400000000000E10   -1.465253288745880E-1  -2.654931610822678E-2  
 2.029600000000000E10   -1.342448270320893E-1  -1.916829690337181E-2  
 2.029800000000000E10   -1.228885203599930E-1  -8.772595651447774E-3  
 2.030000000000000E10   -1.061657907962799E-1   1.637201088713483E-3  
 2.030200000000000E10   -9.288148987293246E-2   1.090940627455712E-2  
 2.030400000000000E10   -7.596593248844148E-2   2.415415439009667E-2  
 2.030600000000000E10   -6.051771575212479E-2   3.442769983410836E-2  
 2.030800000000000E10   -3.371050694584847E-2   4.898419767618180E-2  
 2.031000000000000E10   -1.921878353506327E-2   6.309899783134462E-2  
 2.031200000000000E10    4.493696622550488E-3   7.152270048856736E-2  
 2.031400000000000E10    2.651436538994313E-2   8.835462570190431E-2  
 2.031600000000000E10    4.461111062765123E-2   1.012872523665429E-1  
 2.031800000000000E10    6.953586101531983E-2   1.071816352605820E-1  
 2.032000000000000E10    8.762937349081040E-2   1.161641597747803E-1  
 2.032200000000000E10    1.174862994551659E-1   1.298262643814087E-1  
 2.032400000000000E10    1.283700865507126E-1   1.337201409339905E-1  
 2.032600000000000E10    1.552810273170471E-1   1.427126613855362E-1  
 2.032800000000000E10    1.744648383855820E-1   1.500041121244431E-1  
 2.033000000000000E10    1.845187871456147E-1   1.560840648412705E-1  
 2.033200000000000E10    1.988496876955033E-1   1.619527767896652E-1  
 2.033400000000000E10    2.167139210700989E-1   1.639929438829422E-1  
 2.033600000000000E10    2.330185058116913E-1   1.643336118459702E-1  
 2.033800000000000E10    2.481410405635834E-1   1.630881633758546E-1  
 2.034000000000000E10    2.553125865459442E-1   1.601818691492081E-1  
 2.034200000000000E10    2.632113347053529E-1   1.543728529214859E-1  
 2.034400000000000E10    2.632252802848816E-1   1.538567041158676E-1  
 2.034600000000000E10    2.692605710029602E-1   1.467578961849213E-1  
 2.034800000000000E10    2.721249742507935E-1   1.340226408243180E-1  
 2.035000000000000E10    2.741932783126831E-1   1.237264800071716E-1  
 2.035200000000000E10    2.727822339534760E-1   1.143935886621476E-1  
 2.035400000000000E10    2.722663605213166E-1   1.007085873484612E-1  
 2.035600000000000E10    2.626865041255951E-1   8.727453416585923E-2  
 2.035800000000000E10    2.513216438293457E-1   7.331589549779892E-2  
 2.036000000000000E10    2.411765112876892E-1   5.238783943653108E-2  
 2.036200000000000E10    2.312922079563141E-1   3.945715406537056E-2  
 2.036400000000000E10    2.112006244659424E-1   1.829157686233521E-2  
 2.036600000000000E10    1.984015804529190E-1  -1.591440243646503E-4  
 2.036800000000000E10    1.807214800119401E-1  -2.083299901336432E-2  
 2.037000000000000E10    1.640372494459153E-1  -3.690553674101831E-2  
 2.037200000000000E10    1.413405374288559E-1  -5.945039242506028E-2  
 2.037400000000000E10    1.226114372611046E-1  -7.635295909643174E-2  
 2.037600000000000E10    1.033274143338204E-1  -9.613204407691958E-2  
 2.037800000000000E10    7.840352261066438E-2  -1.159485267400742E-1  
 2.038000000000000E10    5.994942265748979E-2  -1.285190954208374E-1  
 2.038200000000000E10    3.252722816169262E-2  -1.413054684400559E-1  
 2.038400000000000E10    1.819626355171204E-2  -1.589602876901627E-1  
 2.038600000000000E10   -5.949933834373951E-3  -1.695178060531616E-1  
 2.038800000000000E10   -2.335695095360280E-2  -1.777521148920060E-1  
 2.039000000000000E10   -4.269483861327172E-2  -1.883803972005845E-1  
 2.039200000000000E10   -5.522347232699395E-2  -1.968706572055817E-1  
 2.039400000000000E10   -6.823169714212418E-2  -2.029692683219910E-1  
 2.039600000000000E10   -8.150006389617921E-2  -1.998613005876541E-1  
 2.039800000000000E10   -9.416898083686828E-2  -2.048254064321519E-1  
 2.040000000000000E10   -1.035382560491562E-1  -2.075449157953263E-1  
 2.040200000000000E10   -1.070400148630142E-1  -2.032952342033386E-1  
 2.040400000000000E10   -1.109192777872086E-1  -1.995221781730652E-1  
 2.040600000000000E10   -1.122391442060471E-1  -1.909190604686737E-1  
 2.040800000000000E10   -1.115514765977860E-1  -1.839199953079224E-1  
 2.041000000000000E10   -1.060606473088265E-1  -1.774101910591126E-1  
 2.041200000000000E10   -1.005509918928147E-1  -1.661972352266312E-1  
 2.041400000000000E10   -9.104914724826813E-2  -1.586344941854477E-1  
 2.041600000000000E10   -8.893899297714235E-2  -1.502195036411286E-1  
 2.041800000000000E10   -7.321638882160188E-2  -1.352799171209335E-1  
 2.042000000000000E10   -6.259403473138810E-2  -1.203228315711022E-1  
 2.042200000000000E10   -4.604900339245797E-2  -1.065042863488197E-1  
 2.042400000000000E10   -3.501612597703933E-2  -9.460724419355393E-2  
 2.042600000000000E10   -1.394251617789269E-2  -8.329341191053391E-2  
 2.042800000000000E10   -8.858886640518907E-4  -6.785274976491929E-2  
 2.043000000000000E10    2.159984616935253E-2  -5.229462629556657E-2  
 2.043200000000000E10    3.472431862354278E-2  -4.120827731490136E-2  
 2.043400000000000E10    5.961148312687874E-2  -2.737247015535832E-2  
 2.043600000000000E10    7.372686791419983E-2  -1.584399833530188E-2  
 2.043800000000000E10    9.373924362659457E-2  -4.689294703304769E-3  
 2.044000000000000E10    1.131913077235222E-1   5.776508465409280E-3  
 2.044200000000000E10    1.315603270530701E-1   1.487594792246819E-2  
 2.044400000000000E10    1.467238137722016E-1   2.572064995765687E-2  
 2.044600000000000E10    1.651163858175278E-1   3.235590600967409E-2  
 2.044800000000000E10    1.748348342180252E-1   3.671148145198823E-2  
 2.045000000000000E10    1.913278740644455E-1   4.483723795413971E-2  
 2.045200000000000E10    2.017535915374756E-1   4.635386362671853E-2  
 2.045400000000000E10    2.121105048656464E-1   4.621851825714112E-2  
 2.045600000000000E10    2.229172369241715E-1   5.100145304203034E-2  
 2.045800000000000E10    2.284907335042954E-1   4.861380964517593E-2  
 2.046000000000000E10    2.348105317354203E-1   4.283938768506051E-2  
 2.046200000000000E10    2.381887153387070E-1   3.780433523654937E-2  
 2.046400000000000E10    2.414903234243393E-1   3.532597997784615E-2  
 2.046600000000000E10    2.347679980993272E-1   2.620601710677148E-2  
 2.046800000000000E10    2.398913184404374E-1   1.409168070554734E-2  
 2.047000000000000E10    2.306585735082627E-1   8.201078683137894E-3  
 2.047200000000000E10    2.240935118198395E-1  -7.056939858943225E-3  
 2.047400000000000E10    2.157711296081543E-1  -2.010987984761596E-2  
 2.047600000000000E10    2.061535061597825E-1  -3.444837248325348E-2  
 2.047800000000000E10    1.991035695075989E-1  -4.597329300642014E-2  
 2.048000000000000E10    1.865346183776856E-1  -6.575744789838792E-2  
 2.048200000000000E10    1.756579279899597E-1  -7.951576763391496E-2  
 2.048400000000000E10    1.597872651815415E-1  -9.830872684717180E-2  
 2.048600000000000E10    1.433772935867310E-1  -1.155618553161621E-1  
 2.048800000000000E10    1.248178285956383E-1  -1.360752099752426E-1  
 2.049000000000000E10    1.068215065598488E-1  -1.521894246339798E-1  
 2.049200000000000E10    9.034519934654237E-2  -1.721658622026444E-1  
 2.049400000000000E10    7.311475497484207E-2  -1.849138573408127E-1  
 2.049600000000000E10    5.514511337876320E-2  -2.063427627086640E-1  
 2.049800000000000E10    3.712504476308823E-2  -2.173841023445130E-1  
 2.050000000000000E10    1.858954161405563E-2  -2.267509590387345E-1  
 2.050200000000000E10    1.917750157415867E-3  -2.469911901950836E-1  
 2.050400000000000E10   -1.192165768891573E-2  -2.540201475620270E-1  
 2.050600000000000E10   -3.040479682385922E-2  -2.616563906669617E-1  
 2.050800000000000E10   -4.521618136763574E-2  -2.683855006694794E-1  
 2.051000000000000E10   -5.786606177687646E-2  -2.776195988655091E-1  
 2.051200000000000E10   -7.038306629657745E-2  -2.826169772148133E-1  
 2.051400000000000E10   -8.542234414815905E-2  -2.816500930786133E-1  
 2.051600000000000E10   -9.389878284931184E-2  -2.822587642669678E-1  
 2.051800000000000E10   -1.015580106973648E-1  -2.832210438251496E-1  
 2.052000000000000E10   -1.091571294665337E-1  -2.776852991580963E-1  
 2.052200000000000E10   -1.117623016238213E-1  -2.754469358921052E-1  
 2.052400000000000E10   -1.181767175793648E-1  -2.638399004936218E-1  
 2.052600000000000E10   -1.188377617001534E-1  -2.533155293464661E-1  
 2.052800000000000E10   -1.160758720636368E-1  -2.448370770215989E-1  
 2.053000000000000E10   -1.152450219988823E-1  -2.332002819776535E-1  
 2.053200000000000E10   -1.147088566422463E-1  -2.162395355701447E-1  
 2.053400000000000E10   -1.041558114886284E-1  -1.984434026479722E-1  
 2.053600000000000E10   -9.993103790283203E-2  -1.842800217866898E-1  
 2.053800000000000E10   -9.012989348173142E-2  -1.641203653812409E-1  
 2.054000000000000E10   -8.429020541906358E-2  -1.457607951164246E-1  
 2.054200000000000E10   -6.877676123380662E-2  -1.273264610767365E-1  
 2.054400000000000E10   -5.712483665347101E-2  -1.072157462239266E-1  
 2.054600000000000E10   -4.262995934486390E-2  -8.923470127582552E-2  
 2.054800000000000E10   -2.902565348148347E-2  -7.111561053991319E-2  
 2.055000000000000E10   -1.513354486972094E-2  -5.497337967157365E-2  
 2.055200000000000E10   -4.939659498631954E-4  -3.510830679535866E-2  
 2.055400000000000E10    1.422158905863762E-2  -1.720489405840636E-2  
 2.055600000000000E10    2.835584172606469E-2  -3.411128582432867E-3  
