#  HZ   S   RI   R     50.00 
! Rohde & Schwarz ZVA40 4Ports - Version 3.90 - 1145.1110k42 SN: 100403
! Date: 2023-09-28 09:05:14
! Measurement: S22 
! 
 2.000000000000000E10    2.473959685564041E-1  -1.338956632614136E-1  
 2.000200000000000E10    2.374251325130463E-1  -1.384144459962845E-1  
 2.000400000000000E10    2.281046985387802E-1  -1.452735501527787E-1  
 2.000600000000000E10    2.093261969089509E-1  -1.545625032186508E-1  
 2.000800000000000E10    1.958202854394913E-1  -1.611635439395905E-1  
 2.001000000000000E10    1.803643202781677E-1  -1.699049988985062E-1  
 2.001200000000000E10    1.622685917615891E-1  -1.764465374946594E-1  
 2.001400000000000E10    1.432735944986343E-1  -1.813478169441223E-1  
 2.001600000000000E10    1.196441697478295E-1  -1.881401827335358E-1  
 2.001800000000000E10    9.713244116306306E-2  -1.930414630174637E-1  
 2.002000000000000E10    7.166911518573761E-2  -1.959344570636750E-1  
 2.002200000000000E10    4.938937571644785E-2  -2.019910380840302E-1  
 2.002400000000000E10    2.569990849494935E-2  -2.050445312261582E-1  
 2.002600000000000E10   -9.186646156013006E-5  -2.078210175037385E-1  
 2.002800000000000E10   -2.552299028635025E-2  -2.103741207122803E-1  
 2.003000000000000E10   -4.749884399771691E-2  -2.091808785200119E-1  
 2.003200000000000E10   -7.693482202291489E-2  -2.054516127109528E-1  
 2.003400000000000E10   -9.356621879339221E-2  -2.044034800529480E-1  
 2.003600000000000E10   -1.151399328708649E-1  -2.042915939092637E-1  
 2.003800000000000E10   -1.332626370191574E-1  -1.967773793935776E-1  
 2.004000000000000E10   -1.524425624608994E-1  -1.936821664571762E-1  
 2.004200000000000E10   -1.657689234018326E-1  -1.818196188211441E-1  
 2.004400000000000E10   -1.778529307842255E-1  -1.733954061269760E-1  
 2.004600000000000E10   -1.931050304174423E-1  -1.704231886863709E-1  
 2.004800000000000E10   -1.962624821662903E-1  -1.687674076557160E-1  
 2.005000000000000E10   -2.040240569114685E-1  -1.547020431756974E-1  
 2.005200000000000E10   -2.097768186330796E-1  -1.455402177572250E-1  
 2.005400000000000E10   -2.093465756177903E-1  -1.336763989925385E-1  
 2.005600000000000E10   -2.046617698669434E-1  -1.284397881031037E-1  
 2.005800000000000E10   -2.027050126791001E-1  -1.179673071503640E-1  
 2.006000000000000E10   -1.929727877378464E-1  -1.108002564907074E-1  
 2.006200000000000E10   -1.825825868844986E-1  -1.019143981933594E-1  
 2.006400000000000E10   -1.745041161775589E-1  -9.390567255020144E-2  
 2.006600000000000E10   -1.589404996633530E-1  -8.630109542608262E-2  
 2.006800000000000E10   -1.451331021785736E-1  -8.034752780199052E-2  
 2.007000000000000E10   -1.247478507161141E-1  -7.180991554260255E-2  
 2.007200000000000E10   -1.103915510177613E-1  -6.607468563318253E-2  
 2.007400000000000E10   -9.229890060424806E-2  -5.823557612299920E-2  
 2.007600000000000E10   -6.919688022136689E-2  -5.604551935195924E-2  
 2.007800000000000E10   -5.062724781036378E-2  -5.056536698341370E-2  
 2.008000000000000E10   -2.796609817445279E-2  -4.770866590738297E-2  
 2.008200000000000E10   -6.796184297651053E-3  -4.202640017867089E-2  
 2.008400000000000E10    1.106827398668975E-2  -4.602248752117157E-2  
 2.008600000000000E10    3.413281829655171E-2  -4.116256585717202E-2  
 2.008800000000000E10    5.299881577491761E-2  -4.005671119689942E-2  
 2.009000000000000E10    6.696770265698433E-2  -4.193526080250740E-2  
 2.009200000000000E10    8.913276869058610E-2  -4.078926563262940E-2  
 2.009400000000000E10    1.075391677021980E-1  -4.018860340118409E-2  
 2.009600000000000E10    1.178132315278054E-1  -4.268921282887459E-2  
 2.009800000000000E10    1.308493998050690E-1  -4.348757332563401E-2  
 2.010000000000000E10    1.419036883115769E-1  -4.704544055461885E-2  
 2.010200000000000E10    1.505478435754776E-1  -4.860102477669717E-2  
 2.010400000000000E10    1.564796534776688E-1  -5.433302846550942E-2  
 2.010600000000000E10    1.657803270816803E-1  -5.891555231809617E-2  
 2.010800000000000E10    1.677822273969651E-1  -6.656476813554765E-2  
 2.011000000000000E10    1.652011508941651E-1  -6.819759452342987E-2  
 2.011200000000000E10    1.628978824615479E-1  -7.460951215028763E-2  
 2.011400000000000E10    1.633647221326828E-1  -8.101125687360765E-2  
 2.011600000000000E10    1.565492266416550E-1  -8.717498511075975E-2  
 2.011800000000000E10    1.498880544900894E-1  -9.117632728815080E-2  
 2.012000000000000E10    1.359703998565674E-1  -9.788329720497133E-2  
 2.012200000000000E10    1.261745655536652E-1  -1.061000691056252E-1  
 2.012400000000000E10    1.202891615033150E-1  -1.110578570365906E-1  
 2.012600000000000E10    1.024600529074669E-1  -1.181594020724297E-1  
 2.012800000000000E10    8.777444523572925E-2  -1.235864062309265E-1  
 2.013000000000000E10    7.029214036464691E-2  -1.357761572599411E-1  
 2.013200000000000E10    5.101119619607926E-2  -1.419550063610077E-1  
 2.013400000000000E10    3.251691082119942E-2  -1.492727787494659E-1  
 2.013600000000000E10    1.318822412192822E-2  -1.534234064817429E-1  
 2.013800000000000E10   -8.537717960774899E-3  -1.590904096364975E-1  
 2.014000000000000E10   -3.203856995701791E-2  -1.655307508707047E-1  
 2.014200000000000E10   -5.402368569374086E-2  -1.738205769062042E-1  
 2.014400000000000E10   -7.572215062379839E-2  -1.769475382566452E-1  
 2.014600000000000E10   -9.670172476768495E-2  -1.770384775400162E-1  
 2.014800000000000E10   -1.139349176883698E-1  -1.840071786642075E-1  
 2.015000000000000E10   -1.345445601940155E-1  -1.888395836353302E-1  
 2.015200000000000E10   -1.528237583637238E-1  -1.848170861005783E-1  
 2.015400000000000E10   -1.687946695089340E-1  -1.856559733152390E-1  
 2.015600000000000E10   -1.851779189109802E-1  -1.864559354782105E-1  
 2.015800000000000E10   -2.007266508340836E-1  -1.905725183486939E-1  
 2.016000000000000E10   -2.142189347743989E-1  -1.830131745338440E-1  
 2.016200000000000E10   -2.276470476388932E-1  -1.788909941911698E-1  
 2.016400000000000E10   -2.360624593496323E-1  -1.736965821981430E-1  
 2.016600000000000E10   -2.464461110830307E-1  -1.661895073652268E-1  
 2.016800000000000E10   -2.482071106433869E-1  -1.601799372434616E-1  
 2.017000000000000E10   -2.563342292308808E-1  -1.533142294883728E-1  
 2.017200000000000E10   -2.555870079994201E-1  -1.392681757211685E-1  
 2.017400000000000E10   -2.540647947788239E-1  -1.306824207305908E-1  
 2.017600000000000E10   -2.549561653137207E-1  -1.206282987594605E-1  
 2.017800000000000E10   -2.482858277559281E-1  -1.084889177083969E-1  
 2.018000000000000E10   -2.419003268480301E-1  -9.104009222984315E-2  
 2.018200000000000E10   -2.279123809337617E-1  -7.572267156839371E-2  
 2.018400000000000E10   -2.150259263515473E-1  -6.402788203954697E-2  
 2.018600000000000E10   -2.012138993740082E-1  -4.641435673832894E-2  
 2.018800000000000E10   -1.843134943246842E-1  -2.943928728997708E-2  
 2.019000000000000E10   -1.656057925224304E-1  -1.174700539559126E-2  
 2.019200000000000E10   -1.466233153343201E-1   4.567177966237069E-4  
 2.019400000000000E10   -1.243833274841309E-1   1.777193363010883E-2  
 2.019600000000000E10   -1.039622591733933E-1   3.202028729021550E-2  
 2.019800000000000E10   -7.838566255569458E-2   4.446722576022149E-2  
 2.020000000000000E10   -5.787621915340424E-2   6.077728670835497E-2  
 2.020200000000000E10   -3.174583752453328E-2   7.039214754104615E-2  
 2.020400000000000E10   -6.285636130720378E-3   8.365881145000459E-2  
 2.020600000000000E10    1.739610922336579E-2   9.285047429800036E-2  
 2.020800000000000E10    4.193366706371308E-2   1.020494527816773E-1  
 2.021000000000000E10    6.409044438600541E-2   1.053059461116791E-1  
 2.021200000000000E10    8.610735780000688E-2   1.087710067629815E-1  
 2.021400000000000E10    1.037594165205956E-1   1.206752879619599E-1  
 2.021600000000000E10    1.182078166604042E-1   1.214214751720429E-1  
 2.021800000000000E10    1.346959037780762E-1   1.205346779823303E-1  
 2.022000000000000E10    1.534941743612290E-1   1.172502337098122E-1  
 2.022200000000000E10    1.625538223981857E-1   1.178897954225540E-1  
 2.022400000000000E10    1.724608244895935E-1   1.148237422704697E-1  
 2.022600000000000E10    1.781059958934784E-1   1.096317322254181E-1  
 2.022800000000000E10    1.812539219856263E-1   1.040325722694397E-1  
 2.023000000000000E10    1.782730805873871E-1   9.640959072113038E-2  
 2.023200000000000E10    1.793623720407486E-1   8.923440629243852E-2  
 2.023400000000000E10    1.738838111162186E-1   8.185790580511095E-2  
 2.023600000000000E10    1.697405965328217E-1   7.077290672063830E-2  
 2.023800000000000E10    1.614180021286011E-1   5.917303851246835E-2  
 2.024000000000000E10    1.486497485637665E-1   5.132915180921556E-2  
 2.024200000000000E10    1.398798816204071E-1   3.823910626769066E-2  
 2.024400000000000E10    1.239547607302666E-1   2.891149663925172E-2  
 2.024600000000000E10    1.042828516960144E-1   2.086110430955887E-2  
 2.024800000000000E10    9.250683915615082E-2   9.031792126595975E-3  
 2.025000000000000E10    7.213468223810196E-2  -1.222535762935877E-3  
 2.025200000000000E10    5.277503496408464E-2  -1.302361748367548E-2  
 2.025400000000000E10    3.480611145496369E-2  -1.727180708944798E-2  
 2.025600000000000E10    1.293172174692154E-2  -2.940354949235917E-2  
 2.025800000000000E10   -5.346112182363869E-3  -3.677535670995712E-2  
 2.026000000000000E10   -2.903489693999291E-2  -4.723838341236115E-2  
 2.026200000000000E10   -4.734127214550973E-2  -5.173128390312196E-2  
 2.026400000000000E10   -6.492850083112717E-2  -5.486284250020982E-2  
 2.026600000000000E10   -8.158214306831363E-2  -5.987710270285607E-2  
 2.026800000000000E10   -9.917603504657747E-2  -6.504307970404626E-2  
 2.027000000000000E10   -1.171686675548554E-1  -6.896248072385790E-2  
 2.027200000000000E10   -1.259899802207947E-1  -7.222159427404404E-2  
 2.027400000000000E10   -1.384637825489045E-1  -7.379286730289461E-2  
 2.027600000000000E10   -1.475159741640091E-1  -7.198835438489915E-2  
 2.027800000000000E10   -1.546640648841858E-1  -7.063134545087815E-2  
 2.028000000000000E10   -1.635870389938355E-1  -7.282247978448869E-2  
 2.028200000000000E10   -1.649712121486664E-1  -6.714582300186159E-2  
 2.028400000000000E10   -1.709277995824814E-1  -6.488152718544006E-2  
 2.028600000000000E10   -1.645977133512497E-1  -6.141399824619294E-2  
 2.028800000000000E10   -1.667679363489151E-1  -5.218736383318903E-2  
 2.029000000000000E10   -1.609887988567352E-1  -4.850542655587197E-2  
 2.029200000000000E10   -1.529225407838822E-1  -3.828411585092545E-2  
 2.029400000000000E10   -1.453616846799851E-1  -2.834286434948445E-2  
 2.029600000000000E10   -1.324698153734207E-1  -2.169232262670994E-2  
 2.029800000000000E10   -1.217690225243569E-1  -1.231240520626307E-2  
 2.030000000000000E10   -1.081303887367249E-1  -1.371560835861601E-3  
 2.030200000000000E10   -9.380782902240753E-2   1.107045986503363E-2  
 2.030400000000000E10   -7.644543224573136E-2   2.464486536383629E-2  
 2.030600000000000E10   -6.018081250786782E-2   3.300549033284188E-2  
 2.030800000000000E10   -3.937976893782616E-2   4.554830321669579E-2  
 2.031000000000000E10   -2.232471914589405E-2   5.796953549981118E-2  
 2.031200000000000E10   -1.833691028878093E-4   7.216375482082368E-2  
 2.031400000000000E10    2.328171043097973E-2   8.065126240253451E-2  
 2.031600000000000E10    4.122565740346910E-2   9.794312053918838E-2  
 2.031800000000000E10    6.742364782094956E-2   1.058276699185372E-1  
 2.032000000000000E10    8.619797611236572E-2   1.136842734217644E-1  
 2.032200000000000E10    1.050202167630196E-1   1.257352860569954E-1  
 2.032400000000000E10    1.251684175729752E-1   1.368666480779648E-1  
 2.032600000000000E10    1.498815554380417E-1   1.419776974916458E-1  
 2.032800000000000E10    1.689035524129868E-1   1.498653812408448E-1  
 2.033000000000000E10    1.827585881948471E-1   1.531161537170410E-1  
 2.033200000000000E10    2.006961970329285E-1   1.623723003864288E-1  
 2.033400000000000E10    2.160871070623398E-1   1.671408700942993E-1  
 2.033600000000000E10    2.294104559421540E-1   1.673396024703980E-1  
 2.033800000000000E10    2.406741267442704E-1   1.652234479188919E-1  
 2.034000000000000E10    2.545476617813111E-1   1.611599344015122E-1  
 2.034200000000000E10    2.562928750514985E-1   1.589367262125015E-1  
 2.034400000000000E10    2.653859043121338E-1   1.500267189741135E-1  
 2.034600000000000E10    2.698928329944611E-1   1.488042641878128E-1  
 2.034800000000000E10    2.731560573577881E-1   1.391367143392563E-1  
 2.035000000000000E10    2.693825569152832E-1   1.309148874282837E-1  
 2.035200000000000E10    2.724709098339081E-1   1.181648494005203E-1  
 2.035400000000000E10    2.648648276329040E-1   1.040201249122620E-1  
 2.035600000000000E10    2.596001918315888E-1   8.982666003704072E-2  
 2.035800000000000E10    2.512636842727661E-1   7.553972458839417E-2  
 2.036000000000000E10    2.378687305450440E-1   5.662875619530679E-2  
 2.036200000000000E10    2.271576819419861E-1   3.999638706445695E-2  
 2.036400000000000E10    2.143820111751557E-1   2.005299580097199E-2  
 2.036600000000000E10    1.960781371593476E-1   1.674044315703214E-3  
 2.036800000000000E10    1.836776016950608E-1  -1.896176889538765E-2  
 2.037000000000000E10    1.631992733478546E-1  -3.628323444724083E-2  
 2.037200000000000E10    1.427930699586869E-1  -5.597456267476083E-2  
 2.037400000000000E10    1.202583379745484E-1  -7.328752684593201E-2  
 2.037600000000000E10    1.009839347004891E-1  -9.538943117856981E-2  
 2.037800000000000E10    7.867557579278947E-2  -1.136845017075539E-1  
 2.038000000000000E10    5.779566824436187E-2  -1.237731428146362E-1  
 2.038200000000000E10    3.930322429537773E-2  -1.421897022724152E-1  
 2.038400000000000E10    1.758877709507942E-2  -1.586314867734909E-1  
 2.038600000000000E10   -6.995465243235233E-4  -1.686868177652359E-1  
 2.038800000000000E10   -2.061129207909108E-2  -1.807376104593277E-1  
 2.039000000000000E10   -3.634696328639984E-2  -1.909575551748276E-1  
 2.039200000000000E10   -5.468209788203240E-2  -1.935025010108948E-1  
 2.039400000000000E10   -6.862394165992738E-2  -2.009854593276978E-1  
 2.039600000000000E10   -7.916531234979631E-2  -2.069980359077454E-1  
 2.039800000000000E10   -8.982816135883331E-2  -2.073900229930878E-1  
 2.040000000000000E10   -9.668339377641680E-2  -2.072683389186860E-1  
 2.040200000000000E10   -1.041553217768669E-1  -2.068156714439393E-1  
 2.040400000000000E10   -1.117910294532776E-1  -2.014096336364746E-1  
 2.040600000000000E10   -1.086274721026421E-1  -1.977690584659577E-1  
 2.040800000000000E10   -1.068189272284508E-1  -1.920429576635361E-1  
 2.041000000000000E10   -1.057024300694466E-1  -1.803727484941483E-1  
 2.041200000000000E10   -9.550227046012880E-2  -1.745186777114868E-1  
 2.041400000000000E10   -9.241204357147217E-2  -1.650886207818985E-1  
 2.041600000000000E10   -8.192164915800096E-2  -1.492814787626267E-1  
 2.041800000000000E10   -7.681635987758637E-2  -1.373030781745911E-1  
 2.042000000000000E10   -6.516495454311372E-2  -1.290141453742981E-1  
 2.042200000000000E10   -5.147736704349519E-2  -1.147470397949219E-1  
 2.042400000000000E10   -3.007530625164509E-2  -9.933052629232408E-2  
 2.042600000000000E10   -2.095940120518208E-2  -8.335407418012619E-2  
 2.042800000000000E10   -1.630618069902994E-3  -7.034398746490479E-2  
 2.043000000000000E10    1.820609542727470E-2  -5.591427412629128E-2  
 2.043200000000000E10    3.523957103490830E-2  -4.276720774173737E-2  
 2.043400000000000E10    5.079145082831384E-2  -2.757070063054562E-2  
 2.043600000000000E10    7.369683700799944E-2  -1.560743662714958E-2  
 2.043800000000000E10    9.140730953216554E-2  -6.218715544790031E-3  
 2.044000000000000E10    1.114368724822998E-1   4.594113847240806E-3  
 2.044200000000000E10    1.253683869838715E-1   1.680354896932840E-2  
 2.044400000000000E10    1.454997172355652E-1   2.711369001865387E-2  
 2.044600000000000E10    1.608724907636643E-1   3.169697447121143E-2  
 2.044800000000000E10    1.727243847846985E-1   3.717653807997704E-2  
 2.045000000000000E10    1.885937565565110E-1   4.134214323759079E-2  
 2.045200000000000E10    2.001065512895585E-1   4.319285595417023E-2  
 2.045400000000000E10    2.042157421112061E-1   5.028486880660058E-2  
 2.045600000000000E10    2.213643605709076E-1   5.311733651161195E-2  
 2.045800000000000E10    2.291170073747635E-1   4.964975854754449E-2  
 2.046000000000000E10    2.308975096940995E-1   4.137018784880639E-2  
 2.046200000000000E10    2.334636582136155E-1   4.276334300637245E-2  
 2.046400000000000E10    2.356074588298798E-1   3.715315285325051E-2  
 2.046600000000000E10    2.372295339107514E-1   2.986389079689980E-2  
 2.046800000000000E10    2.301961777210236E-1   1.823881469666958E-2  
 2.047000000000000E10    2.352493065595627E-1   1.044858404621482E-2  
 2.047200000000000E10    2.210127120018006E-1  -4.319930497556926E-3  
 2.047400000000000E10    2.172893282175065E-1  -1.442221923172474E-2  
 2.047600000000000E10    2.105781089067459E-1  -3.266024276614189E-2  
 2.047800000000000E10    1.982836967706680E-1  -4.752410268783570E-2  
 2.048000000000000E10    1.901527686119080E-1  -6.325556099414827E-2  
 2.048200000000000E10    1.740509959459305E-1  -7.596314710378647E-2  
 2.048400000000000E10    1.588153221607208E-1  -9.616720545291903E-2  
 2.048600000000000E10    1.430611922740936E-1  -1.154365249872208E-1  
 2.048800000000000E10    1.257916045784951E-1  -1.310491935014725E-1  
 2.049000000000000E10    1.154617904424668E-1  -1.519003289937973E-1  
 2.049200000000000E10    9.620418757200243E-2  -1.632384846210480E-1  
 2.049400000000000E10    7.719209110736847E-2  -1.832382757663727E-1  
 2.049600000000000E10    5.909591680765153E-2  -1.991660002470017E-1  
 2.049800000000000E10    3.968577378988267E-2  -2.172629905939103E-1  
 2.050000000000000E10    2.344791345298291E-2  -2.321792861223221E-1  
 2.050200000000000E10    5.181710802018643E-3  -2.408707689046860E-1  
 2.050400000000000E10   -1.033143521845341E-2  -2.568477792739868E-1  
 2.050600000000000E10   -2.267221030592919E-2  -2.639523742198944E-1  
 2.050800000000000E10   -4.746802875399590E-2  -2.689838011264802E-1  
 2.051000000000000E10   -5.541182520985604E-2  -2.782093245983124E-1  
 2.051200000000000E10   -7.109771507978439E-2  -2.823808829784394E-1  
 2.051400000000000E10   -7.921134638786317E-2  -2.818276190757752E-1  
 2.051600000000000E10   -8.850065559148790E-2  -2.855753269195557E-1  
 2.051800000000000E10   -1.000908814072609E-1  -2.801174657344818E-1  
 2.052000000000000E10   -1.055751088857651E-1  -2.800362758636475E-1  
 2.052200000000000E10   -1.096629289388657E-1  -2.733743026256562E-1  
 2.052400000000000E10   -1.153925876617432E-1  -2.656733074188233E-1  
 2.052600000000000E10   -1.187389449477196E-1  -2.561775275468827E-1  
 2.052800000000000E10   -1.141403791308403E-1  -2.497072545289994E-1  
 2.053000000000000E10   -1.118676571249962E-1  -2.298202056884766E-1  
 2.053200000000000E10   -1.148561409115791E-1  -2.200627419948578E-1  
 2.053400000000000E10   -1.063298624753952E-1  -2.054287662506104E-1  
 2.053600000000000E10   -9.928987413644794E-2  -1.898273428678513E-1  
 2.053800000000000E10   -9.299894416332247E-2  -1.676590243577957E-1  
 2.054000000000000E10   -7.956830829381943E-2  -1.462151155471802E-1  
 2.054200000000000E10   -7.115528130531312E-2  -1.323477147817612E-1  
 2.054400000000000E10   -6.055689394474030E-2  -1.136002668142319E-1  
 2.054600000000000E10   -4.399492314457894E-2  -9.193713045120240E-2  
 2.054800000000000E10   -3.577136000990868E-2  -7.328843516111375E-2  
 2.055000000000000E10   -2.096701535582543E-2  -5.503720670938493E-2  
 2.055200000000000E10   -4.149492952972651E-3  -4.053343823552133E-2  
 2.055400000000000E10    1.190849758312106E-2  -1.695893450081349E-2  
 2.055600000000000E10    2.538511081039906E-2  -4.213171070441604E-3  
