#  HZ   S   RI   R     50.00 
! Rohde & Schwarz ZVA40 4Ports - Version 3.90 - 1145.1110k42 SN: 100403
! Date: 2023-09-28 07:45:21
! Measurement: S22 
! 
 2.000000000000000E10    2.464229598675826E-1  -1.461399193658797E-1  
 2.000200000000000E10    2.368491887335479E-1  -1.525753911199822E-1  
 2.000400000000000E10    2.170852967780994E-1  -1.624102350509439E-1  
 2.000600000000000E10    2.046644305347103E-1  -1.713476617628608E-1  
 2.000800000000000E10    1.862805597265140E-1  -1.757323513545915E-1  
 2.001000000000000E10    1.676175110688583E-1  -1.828566816280252E-1  
 2.001200000000000E10    1.485160026381616E-1  -1.884537246544933E-1  
 2.001400000000000E10    1.232864712997388E-1  -1.919876964538236E-1  
 2.001600000000000E10    1.002555750210393E-1  -1.986697675820703E-1  
 2.001800000000000E10    7.959403104487232E-2  -2.005221980449626E-1  
 2.002000000000000E10    5.564065874036209E-2  -2.050605799868201E-1  
 2.002200000000000E10    2.701102105730913E-2  -2.101445711940305E-1  
 2.002400000000000E10    3.103906311964955E-3  -2.093456214895494E-1  
 2.002600000000000E10   -2.259603179869196E-2  -2.094542700437187E-1  
 2.002800000000000E10   -4.562507386130030E-2  -2.078574481304458E-1  
 2.003000000000000E10   -7.154403908296363E-2  -2.064942759411897E-1  
 2.003200000000000E10   -9.519322258769605E-2  -2.034409617966978E-1  
 2.003400000000000E10   -1.128767862698308E-1  -1.994510667466984E-1  
 2.003600000000000E10   -1.301612291829620E-1  -1.936798728802509E-1  
 2.003800000000000E10   -1.521783042413672E-1  -1.876802116467272E-1  
 2.004000000000000E10   -1.642723214724394E-1  -1.806501057726263E-1  
 2.004200000000000E10   -1.742802033885294E-1  -1.692217624286249E-1  
 2.004400000000000E10   -1.863005083463409E-1  -1.590107983521373E-1  
 2.004600000000000E10   -1.986917242484945E-1  -1.501433088920630E-1  
 2.004800000000000E10   -2.017423672284191E-1  -1.470654376796218E-1  
 2.005000000000000E10   -2.070693561240664E-1  -1.396997564085181E-1  
 2.005200000000000E10   -2.044758939430381E-1  -1.279375302968769E-1  
 2.005400000000000E10   -2.017446414593723E-1  -1.202148980371645E-1  
 2.005600000000000E10   -1.993178842091543E-1  -1.131479288114401E-1  
 2.005800000000000E10   -1.894461384877550E-1  -1.017851343233298E-1  
 2.006000000000000E10   -1.776137284274718E-1  -9.342072902937273E-2  
 2.006200000000000E10   -1.685085294732614E-1  -8.653389520868132E-2  
 2.006400000000000E10   -1.553581850006886E-1  -8.240871021757881E-2  
 2.006600000000000E10   -1.393565453955915E-1  -7.149245629453857E-2  
 2.006800000000000E10   -1.217799006179735E-1  -6.547343752671436E-2  
 2.007000000000000E10   -1.064636816976375E-1  -6.061106035498363E-2  
 2.007200000000000E10   -8.600039716014207E-2  -5.713393679680474E-2  
 2.007400000000000E10   -6.692088975336158E-2  -5.102689860090884E-2  
 2.007600000000000E10   -4.729519068644560E-2  -5.164983907690946E-2  
 2.007800000000000E10   -2.343513569776630E-2  -4.512612839670152E-2  
 2.008000000000000E10   -4.165076113672464E-3  -4.523339241409484E-2  
 2.008200000000000E10    1.866463366205293E-2  -4.234345026343125E-2  
 2.008400000000000E10    3.605740270473165E-2  -4.405718133613389E-2  
 2.008600000000000E10    5.907266308845123E-2  -4.121497289140460E-2  
 2.008800000000000E10    7.493932759817137E-2  -4.305830230361203E-2  
 2.009000000000000E10    9.205842380378207E-2  -4.563484600696695E-2  
 2.009200000000000E10    1.076457461117211E-1  -4.768414585174989E-2  
 2.009400000000000E10    1.252396286681349E-1  -5.069116759493964E-2  
 2.009600000000000E10    1.345950844813754E-1  -5.375875148600305E-2  
 2.009800000000000E10    1.464708377981422E-1  -5.584081146247364E-2  
 2.010000000000000E10    1.555561933440977E-1  -6.121540426338575E-2  
 2.010200000000000E10    1.628894184473146E-1  -6.229959788636313E-2  
 2.010400000000000E10    1.660353712692417E-1  -6.878812025476205E-2  
 2.010600000000000E10    1.704880082989250E-1  -7.718267097105444E-2  
 2.010800000000000E10    1.719377977581378E-1  -8.021576454276035E-2  
 2.011000000000000E10    1.731879460909962E-1  -8.704445823082076E-2  
 2.011200000000000E10    1.671351002622657E-1  -9.270710645438093E-2  
 2.011400000000000E10    1.594609150107617E-1  -1.008947068967359E-1  
 2.011600000000000E10    1.558152005505299E-1  -1.048035715760901E-1  
 2.011800000000000E10    1.422623696916112E-1  -1.118106076847717E-1  
 2.012000000000000E10    1.318832731446017E-1  -1.192604412209604E-1  
 2.012200000000000E10    1.192060089786275E-1  -1.250788938891355E-1  
 2.012400000000000E10    1.059663384592801E-1  -1.324227020061318E-1  
 2.012600000000000E10    9.107876741649100E-2  -1.382115865947300E-1  
 2.012800000000000E10    7.313523518855117E-2  -1.434563533780234E-1  
 2.013000000000000E10    5.306935683767369E-2  -1.496943819372315E-1  
 2.013200000000000E10    3.202677847312144E-2  -1.581577242941259E-1  
 2.013400000000000E10    1.267347641483169E-2  -1.626732183080188E-1  
 2.013600000000000E10   -9.458316589105526E-3  -1.645806222126681E-1  
 2.013800000000000E10   -2.818986159488761E-2  -1.731097200460202E-1  
 2.014000000000000E10   -5.209611598030610E-2  -1.738642720789878E-1  
 2.014200000000000E10   -7.137501969627291E-2  -1.807605426041536E-1  
 2.014400000000000E10   -9.305539784256209E-2  -1.844642392149687E-1  
 2.014600000000000E10   -1.139437255405829E-1  -1.843121616831421E-1  
 2.014800000000000E10   -1.361367949827423E-1  -1.898634773188178E-1  
 2.015000000000000E10   -1.532917884141736E-1  -1.885695891369216E-1  
 2.015200000000000E10   -1.683376995187257E-1  -1.906260442063393E-1  
 2.015400000000000E10   -1.870898722496695E-1  -1.846659675528538E-1  
 2.015600000000000E10   -2.029627222530046E-1  -1.852562011602731E-1  
 2.015800000000000E10   -2.152573189788417E-1  -1.816155545791704E-1  
 2.016000000000000E10   -2.296197907992548E-1  -1.794386062803854E-1  
 2.016200000000000E10   -2.356099257619561E-1  -1.706690401744581E-1  
 2.016400000000000E10   -2.472959770368340E-1  -1.635220173110504E-1  
 2.016600000000000E10   -2.530117646179140E-1  -1.583119348160739E-1  
 2.016800000000000E10   -2.577956174991136E-1  -1.507816999920141E-1  
 2.017000000000000E10   -2.614615165659000E-1  -1.324443176808657E-1  
 2.017200000000000E10   -2.603556688093495E-1  -1.255211330195157E-1  
 2.017400000000000E10   -2.576966521382855E-1  -1.125584438836308E-1  
 2.017600000000000E10   -2.498118089645895E-1  -1.005227620915129E-1  
 2.017800000000000E10   -2.411856019322487E-1  -8.620239918017450E-2  
 2.018000000000000E10   -2.305386294949461E-1  -7.219289846972084E-2  
 2.018200000000000E10   -2.177447143067840E-1  -5.583866152236497E-2  
 2.018400000000000E10   -2.053922274820504E-1  -4.176568240776473E-2  
 2.018600000000000E10   -1.859412811238116E-1  -2.712313569211423E-2  
 2.018800000000000E10   -1.679955492643319E-1  -8.972205456657509E-3  
 2.019000000000000E10   -1.498593720211534E-1   5.044201805369557E-3  
 2.019200000000000E10   -1.268691636391053E-1   1.957322445461105E-2  
 2.019400000000000E10   -1.032906235465128E-1   3.381017612793427E-2  
 2.019600000000000E10   -8.039407445263148E-2   4.697536317154995E-2  
 2.019800000000000E10   -5.453529654270570E-2   6.009864900612812E-2  
 2.020000000000000E10   -3.084917885525516E-2   7.018646900397518E-2  
 2.020200000000000E10   -5.248171148059031E-3   8.031387697095464E-2  
 2.020400000000000E10    1.855857537559192E-2   8.651359596015118E-2  
 2.020600000000000E10    4.342373220898782E-2   9.301939806961600E-2  
 2.020800000000000E10    6.497168732207709E-2   9.931635443795761E-2  
 2.021000000000000E10    8.789201128951552E-2   1.040482198179501E-1  
 2.021200000000000E10    1.066662132227414E-1   1.069471845330128E-1  
 2.021400000000000E10    1.208008778978221E-1   1.094374500430706E-1  
 2.021600000000000E10    1.366182945553807E-1   1.061047518252005E-1  
 2.021800000000000E10    1.482318415917009E-1   1.052712363575261E-1  
 2.022000000000000E10    1.616874609468351E-1   1.035249028591333E-1  
 2.022200000000000E10    1.692416099314048E-1   1.010186993661248E-1  
 2.022400000000000E10    1.785934488197114E-1   9.540242514259373E-2  
 2.022600000000000E10    1.805789012892148E-1   9.051787206634156E-2  
 2.022800000000000E10    1.809393955522528E-1   8.191119231222706E-2  
 2.023000000000000E10    1.799235318413045E-1   7.573787798778711E-2  
 2.023200000000000E10    1.730855463705347E-1   6.565396206666171E-2  
 2.023400000000000E10    1.676603663851312E-1   5.826987016813596E-2  
 2.023600000000000E10    1.569182847340562E-1   4.953829398978834E-2  
 2.023800000000000E10    1.490552719332387E-1   3.818573842783811E-2  
 2.024000000000000E10    1.347925328668088E-1   2.992849175793311E-2  
 2.024200000000000E10    1.195515202437835E-1   2.245992359441589E-2  
 2.024400000000000E10    1.031522387528169E-1   9.936149816495533E-3  
 2.024600000000000E10    8.938649863481391E-2   3.450852475003558E-3  
 2.024800000000000E10    7.125665839872020E-2  -3.858983466704351E-3  
 2.025000000000000E10    5.291398117385932E-2  -1.632531022030866E-2  
 2.025200000000000E10    3.164284444221188E-2  -2.544206485735089E-2  
 2.025400000000000E10    1.138828758849636E-2  -3.214764839643712E-2  
 2.025600000000000E10   -1.067597030744306E-2  -4.067598703409589E-2  
 2.025800000000000E10   -3.043586404402400E-2  -4.741981160638168E-2  
 2.026000000000000E10   -5.152470815581486E-2  -5.205713781111750E-2  
 2.026200000000000E10   -6.840925009439529E-2  -5.573521769239768E-2  
 2.026400000000000E10   -8.927659541503483E-2  -5.938220924443875E-2  
 2.026600000000000E10   -1.037669022334496E-1  -6.286054099801015E-2  
 2.026800000000000E10   -1.177506396553741E-1  -6.388868464970446E-2  
 2.027000000000000E10   -1.341277781931321E-1  -6.500475371801963E-2  
 2.027200000000000E10   -1.424333687650343E-1  -6.444873108315440E-2  
 2.027400000000000E10   -1.527986678876436E-1  -6.247177395014000E-2  
 2.027600000000000E10   -1.620500847617814E-1  -6.069817468458024E-2  
 2.027800000000000E10   -1.685052379567654E-1  -6.217938743360750E-2  
 2.028000000000000E10   -1.732104766778746E-1  -5.851383205174833E-2  
 2.028200000000000E10   -1.739803656491537E-1  -5.366527231871891E-2  
 2.028400000000000E10   -1.755716286033140E-1  -5.188748733124017E-2  
 2.028600000000000E10   -1.730716796536347E-1  -4.268530483467398E-2  
 2.028800000000000E10   -1.655710764277340E-1  -3.801842413095995E-2  
 2.029000000000000E10   -1.623700879633734E-1  -2.689132579447778E-2  
 2.029200000000000E10   -1.538240772544021E-1  -1.940897483386767E-2  
 2.029400000000000E10   -1.435439282261136E-1  -1.092214853849185E-2  
 2.029600000000000E10   -1.303619257482300E-1  -1.805423636226653E-3  
 2.029800000000000E10   -1.236560314002049E-1   8.557453160951248E-3  
 2.030000000000000E10   -1.003373554881119E-1   2.127577240312586E-2  
 2.030200000000000E10   -8.937372090108074E-2   3.334940805405535E-2  
 2.030400000000000E10   -7.007361301921078E-2   4.314323850840848E-2  
 2.030600000000000E10   -5.450949012052354E-2   5.781917816635154E-2  
 2.030800000000000E10   -3.040779525324153E-2   6.606224417116072E-2  
 2.031000000000000E10   -7.695404165268859E-3   8.153043341047202E-2  
 2.031200000000000E10    1.376627245486973E-2   8.883842720177113E-2  
 2.031400000000000E10    3.510680402284770E-2   9.994959514607907E-2  
 2.031600000000000E10    6.078280018455774E-2   1.123699420742425E-1  
 2.031800000000000E10    7.953486796563196E-2   1.232650217151788E-1  
 2.032000000000000E10    1.002190305852973E-1   1.293284353463304E-1  
 2.032200000000000E10    1.194320609655969E-1   1.377622364726638E-1  
 2.032400000000000E10    1.457712996494120E-1   1.415661374598328E-1  
 2.032600000000000E10    1.632919272765175E-1   1.508871470750451E-1  
 2.032800000000000E10    1.813152087754824E-1   1.535626267730403E-1  
 2.033000000000000E10    2.016973683285033E-1   1.590082186400520E-1  
 2.033200000000000E10    2.124483191735746E-1   1.604876249447819E-1  
 2.033400000000000E10    2.281312704392821E-1   1.634992644484477E-1  
 2.033600000000000E10    2.400744510624044E-1   1.640497690752330E-1  
 2.033800000000000E10    2.516400912800793E-1   1.617606804022589E-1  
 2.034000000000000E10    2.646789149231721E-1   1.542010849776801E-1  
 2.034200000000000E10    2.693759325717927E-1   1.487035429849345E-1  
 2.034400000000000E10    2.774006226880401E-1   1.435181279050904E-1  
 2.034600000000000E10    2.762303342349550E-1   1.334974119759103E-1  
 2.034800000000000E10    2.783001728339378E-1   1.219556615399800E-1  
 2.035000000000000E10    2.745683872233421E-1   1.142206824848948E-1  
 2.035200000000000E10    2.692770778186220E-1   1.005900054360731E-1  
 2.035400000000000E10    2.671700554304994E-1   8.567448829504805E-2  
 2.035600000000000E10    2.581798750997527E-1   6.993454520903406E-2  
 2.035800000000000E10    2.452717705541573E-1   5.619149389507654E-2  
 2.036000000000000E10    2.358809776014075E-1   3.755259240938680E-2  
 2.036200000000000E10    2.185573836283865E-1   1.849309095920450E-2  
 2.036400000000000E10    2.046947648121635E-1   2.093517470470510E-3  
 2.036600000000000E10    1.875508683965182E-1  -1.806885166816906E-2  
 2.036800000000000E10    1.690585616993524E-1  -3.493691574550296E-2  
 2.037000000000000E10    1.472690318077840E-1  -5.481686739338085E-2  
 2.037200000000000E10    1.270764255163480E-1  -7.294618914817717E-2  
 2.037400000000000E10    1.080805965593974E-1  -8.891582173437702E-2  
 2.037600000000000E10    8.466445589592744E-2  -1.056490117636012E-1  
 2.037800000000000E10    6.119596782560881E-2  -1.236800652169389E-1  
 2.038000000000000E10    4.086892039925105E-2  -1.330332797140354E-1  
 2.038200000000000E10    2.349915993569201E-2  -1.498261511641089E-1  
 2.038400000000000E10    1.342480586706550E-3  -1.608725482636114E-1  
 2.038600000000000E10   -1.566883261689345E-2  -1.677632062601583E-1  
 2.038800000000000E10   -3.422963125425049E-2  -1.777351227153363E-1  
 2.039000000000000E10   -5.272647870332157E-2  -1.823193684651039E-1  
 2.039200000000000E10   -6.538457459772805E-2  -1.874739423411093E-1  
 2.039400000000000E10   -8.171309259571674E-2  -1.892130835688637E-1  
 2.039600000000000E10   -9.207649710943806E-2  -1.943236755937081E-1  
 2.039800000000000E10   -1.002457003559606E-1  -1.941585628528062E-1  
 2.040000000000000E10   -1.054876541795839E-1  -1.889377432087093E-1  
 2.040200000000000E10   -1.113580314450337E-1  -1.858944222228941E-1  
 2.040400000000000E10   -1.135697707217882E-1  -1.802372640703725E-1  
 2.040600000000000E10   -1.113151944576766E-1  -1.714735153676034E-1  
 2.040800000000000E10   -1.097867807534148E-1  -1.661135933638769E-1  
 2.041000000000000E10   -1.072062224388166E-1  -1.574396018207532E-1  
 2.041200000000000E10   -9.788348560323432E-2  -1.470376290792939E-1  
 2.041400000000000E10   -9.095553119569830E-2  -1.373059839702632E-1  
 2.041600000000000E10   -7.854000126402637E-2  -1.251386920886681E-1  
 2.041800000000000E10   -6.655501918150256E-2  -1.152433051942996E-1  
 2.042000000000000E10   -5.354112827213250E-2  -1.029581742430682E-1  
 2.042200000000000E10   -3.997744125509281E-2  -8.917315381377658E-2  
 2.042400000000000E10   -2.210240149958599E-2  -7.630951491599602E-2  
 2.042600000000000E10   -6.088293983740312E-3  -6.131141999801285E-2  
 2.042800000000000E10    1.292356208441188E-2  -5.176375653194188E-2  
 2.043000000000000E10    3.533576925094952E-2  -3.725286903558191E-2  
 2.043200000000000E10    5.054162337741792E-2  -2.604727181441277E-2  
 2.043400000000000E10    7.302352201431145E-2  -1.270640892662549E-2  
 2.043600000000000E10    9.203985270393351E-2  -3.798227775271117E-3  
 2.043800000000000E10    1.079928361639894E-1   6.059636274349446E-3  
 2.044000000000000E10    1.293310694845357E-1   1.545456654839597E-2  
 2.044200000000000E10    1.467701963649693E-1   2.102945978720924E-2  
 2.044400000000000E10    1.603270985540593E-1   3.083677296541315E-2  
 2.044600000000000E10    1.768540627924100E-1   3.227565356935490E-2  
 2.044800000000000E10    1.900288593668487E-1   3.739326517408069E-2  
 2.045000000000000E10    2.037838683782017E-1   4.155829205745678E-2  
 2.045200000000000E10    2.145950939127777E-1   4.196366940313304E-2  
 2.045400000000000E10    2.241528507677920E-1   4.412276633222613E-2  
 2.045600000000000E10    2.311124845607009E-1   4.218899865712515E-2  
 2.045800000000000E10    2.386404103223064E-1   3.833862017159335E-2  
 2.046000000000000E10    2.441505301943992E-1   3.413903266970421E-2  
 2.046200000000000E10    2.498897747949826E-1   2.414609765573382E-2  
 2.046400000000000E10    2.465619243921982E-1   1.601904051781014E-2  
 2.046600000000000E10    2.459446293716957E-1   1.346455139811294E-2  
 2.046800000000000E10    2.408716005780142E-1   2.607189366844748E-3  
 2.047000000000000E10    2.336199240504364E-1  -9.454976500591643E-3  
 2.047200000000000E10    2.304289962307371E-1  -2.587607000849040E-2  
 2.047400000000000E10    2.179113256395971E-1  -3.769958822045407E-2  
 2.047600000000000E10    2.072113881180446E-1  -5.437184087451075E-2  
 2.047800000000000E10    1.975531747031170E-1  -6.372152906901722E-2  
 2.048000000000000E10    1.819839085751053E-1  -8.567398821586907E-2  
 2.048200000000000E10    1.664788666575016E-1  -1.012968081153956E-1  
 2.048400000000000E10    1.531736855843542E-1  -1.169654332205590E-1  
 2.048600000000000E10    1.380793020328008E-1  -1.348186354743702E-1  
 2.048800000000000E10    1.154843980742562E-1  -1.500342060143450E-1  
 2.049000000000000E10    1.008820502842183E-1  -1.648712642817458E-1  
 2.049200000000000E10    8.224593404067408E-2  -1.855886602936293E-1  
 2.049400000000000E10    6.419071124080239E-2  -1.989914741718306E-1  
 2.049600000000000E10    4.360760563462311E-2  -2.082119105148999E-1  
 2.049800000000000E10    2.655526145899120E-2  -2.266676336279843E-1  
 2.050000000000000E10    8.990274281008759E-3  -2.366135920464951E-1  
 2.050200000000000E10   -9.880509120877283E-3  -2.488155399442153E-1  
 2.050400000000000E10   -2.680619612386555E-2  -2.579621337088855E-1  
 2.050600000000000E10   -4.155916823064806E-2  -2.628209813603872E-1  
 2.050800000000000E10   -5.614229875389591E-2  -2.693679701046621E-1  
 2.051000000000000E10   -7.043282928312578E-2  -2.747923198514531E-1  
 2.051200000000000E10   -8.165065658041154E-2  -2.785120415183280E-1  
 2.051400000000000E10   -9.301070459288757E-2  -2.759657215039681E-1  
 2.051600000000000E10   -1.048421564106012E-1  -2.733403677571178E-1  
 2.051800000000000E10   -1.110642422396504E-1  -2.692900324699238E-1  
 2.052000000000000E10   -1.171322298831907E-1  -2.646205735470448E-1  
 2.052200000000000E10   -1.208044779277539E-1  -2.576800215085468E-1  
 2.052400000000000E10   -1.226646251497142E-1  -2.465700228116645E-1  
 2.052600000000000E10   -1.213442227623977E-1  -2.364256746664179E-1  
 2.052800000000000E10   -1.200495214498796E-1  -2.252830127418160E-1  
 2.053000000000000E10   -1.179440536822690E-1  -2.106089698980826E-1  
 2.053200000000000E10   -1.111283005268138E-1  -1.933026834410696E-1  
 2.053400000000000E10   -1.050046050218891E-1  -1.776699383056804E-1  
 2.053600000000000E10   -9.826232578771001E-2  -1.635063243796923E-1  
 2.053800000000000E10   -8.866152005627032E-2  -1.454152533166031E-1  
 2.054000000000000E10   -7.525022269715453E-2  -1.284050543353290E-1  
 2.054200000000000E10   -6.090711925037393E-2  -1.061258926940675E-1  
 2.054400000000000E10   -4.680641963168267E-2  -9.158251000024932E-2  
 2.054600000000000E10   -3.239392313946453E-2  -7.309360596533719E-2  
 2.054800000000000E10   -1.526901187545128E-2  -5.814487268248437E-2  
 2.055000000000000E10   -1.835997787037367E-3  -4.277988928768664E-2  
 2.055200000000000E10    1.438353296426774E-2  -2.666053726551133E-2  
 2.055400000000000E10    2.913831403050485E-2  -1.246503489794434E-2  
 2.055600000000000E10    4.258518685360136E-2   2.356133545181352E-3  
