#  HZ   S   RI   R     50.00 
! Rohde & Schwarz ZVA40 4Ports - Version 3.90 - 1145.1110k42 SN: 100403
! Date: 2023-09-28 10:01:04
! Measurement: S12 
! 
 2.000000000000000E10    8.734912426187932E-2  -1.905454191249289E-2  
 2.000200000000000E10    8.354123898231847E-2  -3.288400975346451E-2  
 2.000400000000000E10    7.693264153949457E-2  -4.663636381007420E-2  
 2.000600000000000E10    6.790732765200641E-2  -5.922793339866708E-2  
 2.000800000000000E10    5.685855126773019E-2  -7.001219658645046E-2  
 2.001000000000000E10    4.395179019600821E-2  -7.880419264027494E-2  
 2.001200000000000E10    2.981061884807380E-2  -8.519130798682159E-2  
 2.001400000000000E10    1.484233853530846E-2  -8.907419113888819E-2  
 2.001600000000000E10   -8.098983398813896E-4  -9.027943311539775E-2  
 2.001800000000000E10   -1.619555561060809E-2  -8.869822266961035E-2  
 2.002000000000000E10   -3.112849239019281E-2  -8.449539088220341E-2  
 2.002200000000000E10   -4.598149461333169E-2  -7.731621395243413E-2  
 2.002400000000000E10   -5.840523413687337E-2  -6.837094530513713E-2  
 2.002600000000000E10   -6.909158026618281E-2  -5.735946255917993E-2  
 2.002800000000000E10   -7.769381051981249E-2  -4.476233155402115E-2  
 2.003000000000000E10   -8.399292199967198E-2  -3.091176066217978E-2  
 2.003200000000000E10   -8.786830946076568E-2  -1.631601871306596E-2  
 2.003400000000000E10   -8.924714617490602E-2  -1.241305834821132E-3  
 2.003600000000000E10   -8.814321557928051E-2   1.378191166537012E-2  
 2.003800000000000E10   -8.454566143805734E-2   2.833175836085457E-2  
 2.004000000000000E10   -7.859238246874699E-2   4.230157969688553E-2  
 2.004200000000000E10   -7.034160008281651E-2   5.497147624432779E-2  
 2.004400000000000E10   -5.993722950765272E-2   6.618326180308887E-2  
 2.004600000000000E10   -4.796104190016638E-2   7.532022447588395E-2  
 2.004800000000000E10   -3.435801591119714E-2   8.246419231059810E-2  
 2.005000000000000E10   -1.977743559618820E-2   8.714386799636306E-2  
 2.005200000000000E10   -4.772594670442500E-3   8.917818802121014E-2  
 2.005400000000000E10    1.059474107603671E-2   8.856962490538911E-2  
 2.005600000000000E10    2.535256803905103E-2   8.541781135855156E-2  
 2.005800000000000E10    3.947632298521792E-2   7.979383859294099E-2  
 2.006000000000000E10    5.222063040615456E-2   7.196904068202013E-2  
 2.006200000000000E10    6.370237176792566E-2   6.206223735061026E-2  
 2.006400000000000E10    7.327517848364440E-2   5.041697362508369E-2  
 2.006600000000000E10    8.076376392964600E-2   3.736162919313768E-2  
 2.006800000000000E10    8.602101739424956E-2   2.300155698479498E-2  
 2.007000000000000E10    8.864779857219690E-2   7.991135093006672E-3  
 2.007200000000000E10    8.865748327187734E-2  -7.179295610014171E-3  
 2.007400000000000E10    8.620085502880823E-2  -2.195852483369582E-2  
 2.007600000000000E10    8.126313022332619E-2  -3.633749976521822E-2  
 2.007800000000000E10    7.376463229133368E-2  -4.982730377329912E-2  
 2.008000000000000E10    6.425012470504055E-2  -6.155127068202368E-2  
 2.008200000000000E10    5.261572307534279E-2  -7.149348171746817E-2  
 2.008400000000000E10    3.977645064466816E-2  -7.922412273257104E-2  
 2.008600000000000E10    2.577075665812389E-2  -8.468216187960856E-2  
 2.008800000000000E10    1.100261311449342E-2  -8.774366392370381E-2  
 2.009000000000000E10   -3.742445448878331E-3  -8.826249128750068E-2  
 2.009200000000000E10   -1.872220359155979E-2  -8.629006924282370E-2  
 2.009400000000000E10   -3.290131484268199E-2  -8.189745889577932E-2  
 2.009600000000000E10   -4.625820749962428E-2  -7.522193475417875E-2  
 2.009800000000000E10   -5.826590582906617E-2  -6.644848538644391E-2  
 2.010000000000000E10   -6.863699415138273E-2  -5.568313408806118E-2  
 2.010200000000000E10   -7.718361967080856E-2  -4.316407679141127E-2  
 2.010400000000000E10   -8.335567333647891E-2  -2.971028624175022E-2  
 2.010600000000000E10   -8.729298047076872E-2  -1.523544673241583E-2  
 2.010800000000000E10   -8.873929610358722E-2  -2.028786211183175E-4  
 2.011000000000000E10   -8.764860819403367E-2   1.490303662858254E-2  
 2.011200000000000E10   -8.393652032870390E-2   2.957873027123861E-2  
 2.011400000000000E10   -7.777486477504556E-2   4.347579111496526E-2  
 2.011600000000000E10   -6.923400296059867E-2   5.619564543880692E-2  
 2.011800000000000E10   -5.850578084564045E-2   6.723481482615180E-2  
 2.012000000000000E10   -4.652347441509647E-2   7.598473687725396E-2  
 2.012200000000000E10   -3.289596948254958E-2   8.297058100407415E-2  
 2.012400000000000E10   -1.841596417971457E-2   8.744766575616114E-2  
 2.012600000000000E10   -3.304434221026855E-3   8.942833081668185E-2  
 2.012800000000000E10    1.202254741431521E-2   8.880274307520984E-2  
 2.013000000000000E10    2.702486310649386E-2   8.550056636876112E-2  
 2.013200000000000E10    4.132020332283461E-2   7.958151734155079E-2  
 2.013400000000000E10    5.418430831652993E-2   7.141258942632478E-2  
 2.013600000000000E10    6.567714918026461E-2   6.102528661894927E-2  
 2.013800000000000E10    7.509028241072038E-2   4.907425086189216E-2  
 2.014000000000000E10    8.236055635833062E-2   3.551493816691603E-2  
 2.014200000000000E10    8.722334635377614E-2   2.093973970878998E-2  
 2.014400000000000E10    8.947022040336540E-2   5.742512789780805E-3  
 2.014600000000000E10    8.911228582145449E-2  -9.320256217777781E-3  
 2.014800000000000E10    8.628662013547905E-2  -2.436789560811266E-2  
 2.015000000000000E10    8.091325431852058E-2  -3.866644196160216E-2  
 2.015200000000000E10    7.311173131186438E-2  -5.194198372524529E-2  
 2.015400000000000E10    6.337167832619854E-2  -6.341702929928270E-2  
 2.015600000000000E10    5.163274031931231E-2  -7.334680535617610E-2  
 2.015800000000000E10    3.837918588720708E-2  -8.121173115463337E-2  
 2.016000000000000E10    2.411631972962518E-2  -8.659500797845925E-2  
 2.016200000000000E10    8.956813717325559E-3  -8.944293425083522E-2  
 2.016400000000000E10   -6.382628191462346E-3  -8.962907299390562E-2  
 2.016600000000000E10   -2.146567599621168E-2  -8.723630989946556E-2  
 2.016800000000000E10   -3.592081527422370E-2  -8.234709723160115E-2  
 2.017000000000000E10   -4.932679749390222E-2  -7.515772383962016E-2  
 2.017200000000000E10   -6.148411969825570E-2  -6.564432111483175E-2  
 2.017400000000000E10   -7.179181467679249E-2  -5.420288561878178E-2  
 2.017600000000000E10   -7.987718207578144E-2  -4.125119530288572E-2  
 2.017800000000000E10   -8.577249687570340E-2  -2.704537975188621E-2  
 2.018000000000000E10   -8.914032116654627E-2  -1.231366624535965E-2  
 2.018200000000000E10   -9.002852936917646E-2   3.022014780885693E-3  
 2.018400000000000E10   -8.823398708385703E-2   1.834355151881505E-2  
 2.018600000000000E10   -8.390231934153392E-2   3.301806190781331E-2  
 2.018800000000000E10   -7.710666226987731E-2   4.675304974399445E-2  
 2.019000000000000E10   -6.810818005925379E-2   5.921151759813097E-2  
 2.019200000000000E10   -5.720004824357182E-2   6.999843944033796E-2  
 2.019400000000000E10   -4.436600132056499E-2   7.894583975065010E-2  
 2.019600000000000E10   -3.051429672867436E-2   8.538882716406501E-2  
 2.019800000000000E10   -1.526663429283923E-2   8.949740501670786E-2  
 2.020000000000000E10    2.474677779625975E-4   9.084765939060779E-2  
 2.020200000000000E10    1.563716275188341E-2   8.947655544238950E-2  
 2.020400000000000E10    3.072860791236144E-2   8.542005774032965E-2  
 2.020600000000000E10    4.468418143200081E-2   7.888603220504531E-2  
 2.020800000000000E10    5.736205244134754E-2   7.016354322002474E-2  
 2.021000000000000E10    6.846133589036543E-2   5.948760988079152E-2  
 2.021200000000000E10    7.760314670084463E-2   4.720110148837253E-2  
 2.021400000000000E10    8.463616589240432E-2   3.337149034454699E-2  
 2.021600000000000E10    8.926313768507191E-2   1.835890031560898E-2  
 2.021800000000000E10    9.117898075531206E-2   2.917115503976382E-3  
 2.022000000000000E10    9.040204334286470E-2  -1.286405306330838E-2  
 2.022200000000000E10    8.693620274580863E-2  -2.804387353557594E-2  
 2.022400000000000E10    8.082597346784182E-2  -4.263190522633029E-2  
 2.022600000000000E10    7.215725943325335E-2  -5.590925456164542E-2  
 2.022800000000000E10    6.141810254414321E-2  -6.721506644406672E-2  
 2.023000000000000E10    4.904633481825441E-2  -7.646583809120038E-2  
 2.023200000000000E10    3.537819927017462E-2  -8.362186061428663E-2  
 2.023400000000000E10    2.064973793239927E-2  -8.834848580967994E-2  
 2.023600000000000E10    5.321591498626184E-3  -9.050150377807142E-2  
 2.023800000000000E10   -1.001031038100780E-2  -8.997253578818486E-2  
 2.024000000000000E10   -2.493157217907502E-2  -8.694943221925289E-2  
 2.024200000000000E10   -3.925728505057917E-2  -8.149625731245577E-2  
 2.024400000000000E10   -5.246018643108517E-2  -7.370590775589794E-2  
 2.024600000000000E10   -6.424372997672248E-2  -6.374305200053973E-2  
 2.024800000000000E10   -7.404512942947857E-2  -5.197153372921094E-2  
 2.025000000000000E10   -8.175586686562039E-2  -3.865515489178544E-2  
 2.025200000000000E10   -8.713560627078867E-2  -2.432277657327683E-2  
 2.025400000000000E10   -9.004646418216847E-2  -9.302075976644803E-3  
 2.025600000000000E10   -9.036300677488532E-2   6.104980259935914E-3  
 2.025800000000000E10   -8.807718404943168E-2   2.134605619634965E-2  
 2.026000000000000E10   -8.328098517807028E-2   3.584849089713878E-2  
 2.026200000000000E10   -7.602956071870630E-2   4.961657350749229E-2  
 2.026400000000000E10   -6.642151046235777E-2   6.190369324138273E-2  
 2.026600000000000E10   -5.485001478363698E-2   7.226190385268477E-2  
 2.026800000000000E10   -4.169964526735936E-2   8.036321824069159E-2  
 2.027000000000000E10   -2.746473106108053E-2   8.615952742244865E-2  
 2.027200000000000E10   -1.258983535173596E-2   8.944877662917189E-2  
 2.027400000000000E10    2.712084798832757E-3   9.028859244439569E-2  
 2.027600000000000E10    1.766271417260139E-2   8.863296784509926E-2  
 2.027800000000000E10    3.242916933466512E-2   8.453619266411024E-2  
 2.028000000000000E10    4.649870084374549E-2   7.790742972208145E-2  
 2.028200000000000E10    5.912732198663524E-2   6.905147352671673E-2  
 2.028400000000000E10    7.013262963565164E-2   5.798043411794799E-2  
 2.028600000000000E10    7.915932518991459E-2   4.511581482963981E-2  
 2.028800000000000E10    8.576609196500717E-2   3.102032422342857E-2  
 2.029000000000000E10    8.988793260452903E-2   1.572776754800848E-2  
 2.029200000000000E10    9.119740967128660E-2   5.880615701104527E-5  
 2.029400000000000E10    8.978882431976940E-2  -1.544146690111798E-2  
 2.029600000000000E10    8.576343096825362E-2  -3.052876406331648E-2  
 2.029800000000000E10    7.917042401551253E-2  -4.471151699807328E-2  
 2.030000000000000E10    7.040044719068320E-2  -5.743786012954618E-2  
 2.030200000000000E10    5.961589668361916E-2  -6.847918732948832E-2  
 2.030400000000000E10    4.727610672969199E-2  -7.754461923707530E-2  
 2.030600000000000E10    3.339102529747472E-2  -8.459542924319320E-2  
 2.030800000000000E10    1.840486354213824E-2  -8.925456490229383E-2  
 2.031000000000000E10    2.954488767010608E-3  -9.112400861403505E-2  
 2.031200000000000E10   -1.289650960928231E-2  -9.027901463336469E-2  
 2.031400000000000E10   -2.830095126065352E-2  -8.657633574148682E-2  
 2.031600000000000E10   -4.210411850393088E-2  -8.059414953271529E-2  
 2.031800000000000E10   -5.516629921063083E-2  -7.212367167568355E-2  
 2.032000000000000E10   -6.669496097139355E-2  -6.145978108717602E-2  
 2.032200000000000E10   -7.601921712472062E-2  -4.924080332667359E-2  
 2.032400000000000E10   -8.320747728139724E-2  -3.548036005871044E-2  
 2.032600000000000E10   -8.787850378361461E-2  -2.081173724547747E-2  
 2.032800000000000E10   -9.008443980623516E-2  -5.466122325251464E-3  
 2.033000000000000E10   -8.962770080246929E-2   9.802168067112121E-3  
 2.033200000000000E10   -8.659746340138969E-2   2.493430059374196E-2  
 2.033400000000000E10   -8.112954236175307E-2   3.931483609225944E-2  
 2.033600000000000E10   -7.796327968081374E-2   4.554449998011188E-2  
 2.033800000000000E10   -6.302220013832338E-2   6.455360537002673E-2  
 2.034000000000000E10   -5.084700815539139E-2   7.456358164468047E-2  
 2.034200000000000E10   -3.732075953867554E-2   8.205925795328592E-2  
 2.034400000000000E10   -2.268482333738922E-2   8.710920256183515E-2  
 2.034600000000000E10   -7.282021115298016E-3   8.954340376021588E-2  
 2.034800000000000E10    8.131680141259395E-3   8.928116640788866E-2  
 2.035000000000000E10    2.311383335087130E-2   8.634353769632147E-2  
 2.035200000000000E10    3.743506323090694E-2   8.091054434385106E-2  
 2.035400000000000E10    5.037097637253716E-2   7.327417370113501E-2  
 2.035600000000000E10    6.197185405092300E-2   6.361236980516399E-2  
 2.035800000000000E10    7.170687163814479E-2   5.219044404808604E-2  
 2.036000000000000E10    7.948731547908712E-2   3.929583885954662E-2  
 2.036200000000000E10    8.498530707909344E-2   2.511238726400417E-2  
 2.036400000000000E10    8.801752491818440E-2   1.043533913846008E-2  
 2.036600000000000E10    8.854972180172255E-2  -4.540908420379185E-3  
 2.036800000000000E10    8.643934470422460E-2  -1.973549272629608E-2  
 2.037000000000000E10    8.168259103294744E-2  -3.418438325084723E-2  
 2.037200000000000E10    7.469846471395507E-2  -4.753003374443240E-2  
 2.037400000000000E10    6.538354097957269E-2  -5.956011451732365E-2  
 2.037600000000000E10    5.431572979483538E-2  -6.975299735286651E-2  
 2.037800000000000E10    4.156678820905782E-2  -7.795667304791801E-2  
 2.038000000000000E10    2.755386182567329E-2  -8.392504125338179E-2  
 2.038200000000000E10    1.278483504190460E-2  -8.721988848100676E-2  
 2.038400000000000E10   -2.281406456935994E-3  -8.794934572012235E-2  
 2.038600000000000E10   -1.703561293530378E-2  -8.611681382109553E-2  
 2.038800000000000E10   -3.133792387630083E-2  -8.192249038554761E-2  
 2.039000000000000E10   -4.468465146930874E-2  -7.544238142984165E-2  
 2.039200000000000E10   -5.689191656890508E-2  -6.685031874253630E-2  
 2.039400000000000E10   -6.752719444862618E-2  -5.624337110671958E-2  
 2.039600000000000E10   -7.625761933540946E-2  -4.391108617350990E-2  
 2.039800000000000E10   -8.262893775828481E-2  -3.019667505714312E-2  
 2.040000000000000E10   -8.654863268016158E-2  -1.555030539599638E-2  
 2.040200000000000E10   -8.780175510582848E-2  -3.258884262504660E-4  
 2.040400000000000E10   -8.629132655776950E-2   1.470739307227345E-2  
 2.040600000000000E10   -8.227264467459272E-2   2.903940445810700E-2  
 2.040800000000000E10   -7.586457577913609E-2   4.260172500278059E-2  
 2.041000000000000E10   -6.739304855979578E-2   5.464121773435587E-2  
 2.041200000000000E10   -5.705981629882088E-2   6.507615690930931E-2  
 2.041400000000000E10   -4.526418904590979E-2   7.362180931946338E-2  
 2.041600000000000E10   -3.234314070955134E-2   8.010519162818777E-2  
 2.041800000000000E10   -1.835493184439006E-2   8.445715731253153E-2  
 2.042000000000000E10   -3.877756029584613E-3   8.636843971305186E-2  
 2.042200000000000E10    1.073278719914231E-2   8.582003870738671E-2  
 2.042400000000000E10    2.524506538078229E-2   8.280167151266481E-2  
 2.042600000000000E10    3.901997080798013E-2   7.726488371112698E-2  
 2.042800000000000E10    5.146100562314725E-2   6.946464677043804E-2  
 2.043000000000000E10    6.244229908186471E-2   5.963507301640234E-2  
 2.043200000000000E10    7.162548166228311E-2   4.822978628254135E-2  
 2.043400000000000E10    7.876755954355007E-2   3.551787532114827E-2  
 2.043600000000000E10    8.367490550565825E-2   2.186477195356209E-2  
 2.043800000000000E10    8.636571475758162E-2   7.449179494896549E-3  
 2.044000000000000E10    8.655646731572171E-2  -7.329360742408300E-3  
 2.044200000000000E10    8.420502111235280E-2  -2.207463847072732E-2  
 2.044400000000000E10    7.923385611394718E-2  -3.625848779109286E-2  
 2.044600000000000E10    7.191945433555716E-2  -4.931629095217173E-2  
 2.044800000000000E10    6.235385428247897E-2  -6.092090345465535E-2  
 2.045000000000000E10    5.095317763298609E-2  -7.075603018591835E-2  
 2.045200000000000E10    3.818167741973304E-2  -7.836844851121667E-2  
 2.045400000000000E10    2.425245496939207E-2  -8.374454433092696E-2  
 2.045600000000000E10    9.608561813278920E-3  -8.665691581792416E-2  
 2.045800000000000E10   -5.388822170359848E-3  -8.702511037760291E-2  
 2.046000000000000E10   -2.015970476381817E-2  -8.475016418024531E-2  
 2.046200000000000E10   -3.427585223059920E-2  -8.004848064390920E-2  
 2.046400000000000E10   -4.744723836659870E-2  -7.293950821455239E-2  
 2.046600000000000E10   -5.917455617744267E-2  -6.366796493483533E-2  
 2.046800000000000E10   -6.908667374064716E-2  -5.265994254212382E-2  
 2.047000000000000E10   -7.703744067003018E-2  -4.001840428728737E-2  
 2.047200000000000E10   -8.271834614337595E-2  -2.640063094692630E-2  
 2.047400000000000E10   -8.596153370323795E-2  -1.202999067696600E-2  
 2.047600000000000E10   -8.675430425668451E-2   2.819954134276756E-3  
 2.047800000000000E10   -8.496098929938176E-2   1.761201710729031E-2  
 2.048000000000000E10   -8.073072882948365E-2   3.171276107592427E-2  
 2.048200000000000E10   -7.411531509107741E-2   4.495412137818147E-2  
 2.048400000000000E10   -6.532929567669632E-2   5.699911024993919E-2  
 2.048600000000000E10   -5.474427071908298E-2   6.717897860652561E-2  
 2.048800000000000E10   -4.235831430770830E-2   7.568779411743837E-2  
 2.049000000000000E10   -2.886902637245208E-2   8.181285558807772E-2  
 2.049200000000000E10   -1.451337828445387E-2   8.548722368316152E-2  
 2.049400000000000E10    2.232494396190508E-4   8.669891778475281E-2  
 2.049600000000000E10    1.505393890016234E-2   8.534374940219873E-2  
 2.049800000000000E10    2.921879927246781E-2   8.153636128421649E-2  
 2.050000000000000E10    4.274155767288561E-2   7.541143692325886E-2  
 2.050200000000000E10    5.505724378741396E-2   6.707726864723634E-2  
 2.050400000000000E10    6.566789579671466E-2   5.671303910164055E-2  
 2.050600000000000E10    7.448904828756503E-2   4.455381137522246E-2  
 2.050800000000000E10    8.100648556374876E-2   3.108525840895085E-2  
 2.051000000000000E10    8.506593501265128E-2   1.678779650071257E-2  
 2.051200000000000E10    8.660190799998704E-2   1.972857002537140E-3  
 2.051400000000000E10    8.561861611329372E-2  -1.287394926184090E-2  
 2.051600000000000E10    8.206110982228772E-2  -2.722491826479871E-2  
 2.051800000000000E10    7.610297763196576E-2  -4.087518971829904E-2  
 2.052000000000000E10    6.794537513614513E-2  -5.311186965443222E-2  
 2.052200000000000E10    5.784572044332891E-2  -6.382219824286935E-2  
 2.052400000000000E10    4.622912144417153E-2  -7.267399552464199E-2  
 2.052600000000000E10    3.324417683345491E-2  -7.943467935487310E-2  
 2.052800000000000E10    1.929710514612023E-2  -8.397127472823426E-2  
 2.053000000000000E10    4.619155696004024E-3  -8.604854071091626E-2  
 2.053200000000000E10   -1.010937751857523E-2  -8.561968254132826E-2  
 2.053400000000000E10   -2.448118973553617E-2  -8.263854796229544E-2  
 2.053600000000000E10   -3.828145986804322E-2  -7.725692632948676E-2  
 2.053800000000000E10   -5.092119992796329E-2  -6.960555251666514E-2  
 2.054000000000000E10   -6.213967184690148E-2  -5.985903076719848E-2  
 2.054200000000000E10   -7.143180910961985E-2  -4.836362991855166E-2  
 2.054400000000000E10   -7.853498862982028E-2  -3.544745472055577E-2  
 2.054600000000000E10   -8.341688841016892E-2  -2.157469620511569E-2  
 2.054800000000000E10   -8.593975553377362E-2  -7.117321850576721E-3  
 2.055000000000000E10   -8.603503272889128E-2   7.718835016654688E-3  
 2.055200000000000E10   -8.349484201678717E-2   2.237752731949674E-2  
 2.055400000000000E10   -7.844887975447554E-2   3.641100893134285E-2  
 2.055600000000000E10   -7.104240176245860E-2   4.935200529462916E-2  
