#  HZ   S   RI   R     50.00 
! Rohde & Schwarz ZVA40 4Ports - Version 3.90 - 1145.1110k42 SN: 100403
! Date: 2023-09-28 09:21:17
! Measurement: S12 
! 
 2.000000000000000E10   -2.617629467214577E-2   1.364642728748636E-1  
 2.000200000000000E10   -1.434106846941720E-2   1.389112050641221E-1  
 2.000400000000000E10    2.075448411865612E-3   1.388901096803171E-1  
 2.000600000000000E10    1.642941557821423E-2   1.374963456956448E-1  
 2.000800000000000E10    3.065481297518491E-2   1.355911985714249E-1  
 2.001000000000000E10    4.411163709965753E-2   1.300231606504064E-1  
 2.001200000000000E10    5.623712941023058E-2   1.264952609445823E-1  
 2.001400000000000E10    6.924346429698262E-2   1.202170873988313E-1  
 2.001600000000000E10    8.155881291554300E-2   1.114850373241146E-1  
 2.001800000000000E10    9.310858718161721E-2   1.026620028134236E-1  
 2.002000000000000E10    1.021644710084048E-1   9.302027554178435E-2  
 2.002200000000000E10    1.126381921670074E-1   8.168732371840459E-2  
 2.002400000000000E10    1.186096643408140E-1   7.002243350562737E-2  
 2.002600000000000E10    1.247576277687716E-1   5.835291047277765E-2  
 2.002800000000000E10    1.291326783566809E-1   4.333703388525136E-2  
 2.003000000000000E10    1.339514622840372E-1   3.162254413030276E-2  
 2.003200000000000E10    1.361180500974381E-1   1.572143182219792E-2  
 2.003400000000000E10    1.374688392558706E-1   2.610705493002701E-3  
 2.003600000000000E10    1.369545646165134E-1  -1.199775537161670E-2  
 2.003800000000000E10    1.342583587508143E-1  -2.769010539316101E-2  
 2.004000000000000E10    1.307399460562954E-1  -4.176107976478315E-2  
 2.004200000000000E10    1.243434386182224E-1  -5.357003707147430E-2  
 2.004400000000000E10    1.178503415160219E-1  -6.692488920786746E-2  
 2.004600000000000E10    1.106988708852741E-1  -7.862995512814189E-2  
 2.004800000000000E10    1.022062859049550E-1  -8.927873123452498E-2  
 2.005000000000000E10    9.209185930681818E-2  -9.994011942619160E-2  
 2.005200000000000E10    8.343690888258656E-2  -1.095855573322548E-1  
 2.005400000000000E10    6.827044539122916E-2  -1.168859916520708E-1  
 2.005600000000000E10    5.683406207848479E-2  -1.228026246092447E-1  
 2.005800000000000E10    4.476365348929731E-2  -1.283212939407600E-1  
 2.006000000000000E10    3.038337498657988E-2  -1.320872882020817E-1  
 2.006200000000000E10    1.498701135194842E-2  -1.330007319587739E-1  
 2.006400000000000E10    2.118988890572616E-3  -1.335992207865656E-1  
 2.006600000000000E10   -1.155571361674080E-2  -1.333746541552093E-1  
 2.006800000000000E10   -2.706024322060891E-2  -1.314294160393531E-1  
 2.007000000000000E10   -3.943259882215611E-2  -1.284271798751973E-1  
 2.007200000000000E10   -5.452664601214139E-2  -1.218802181413635E-1  
 2.007400000000000E10   -6.538437224096723E-2  -1.172485939023917E-1  
 2.007600000000000E10   -7.649008917465133E-2  -1.094445669908583E-1  
 2.007800000000000E10   -8.825386567002953E-2  -1.002042895727197E-1  
 2.008000000000000E10   -9.924569425514208E-2  -9.070231707253085E-2  
 2.008200000000000E10   -1.077730729562756E-1  -8.018494553772021E-2  
 2.008400000000000E10   -1.152680555795446E-1  -6.949892450016713E-2  
 2.008600000000000E10   -1.218176010704826E-1  -5.652710410609168E-2  
 2.008800000000000E10   -1.271872159875470E-1  -4.397630919951471E-2  
 2.009000000000000E10   -1.310698815579277E-1  -3.097422946811704E-2  
 2.009200000000000E10   -1.340566882135446E-1  -1.521800102382408E-2  
 2.009400000000000E10   -1.347457743230671E-1  -8.352523144533853E-4  
 2.009600000000000E10   -1.345509103050939E-1   1.290169725800125E-2  
 2.009800000000000E10   -1.330003197546359E-1   2.710712038041879E-2  
 2.010000000000000E10   -1.283650114335151E-1   4.004368124675359E-2  
 2.010200000000000E10   -1.241294150489839E-1   5.506016022751852E-2  
 2.010400000000000E10   -1.204246920016077E-1   6.831826180710225E-2  
 2.010600000000000E10   -1.106773598326577E-1   7.871019410988922E-2  
 2.010800000000000E10   -1.024382153043041E-1   9.146969495609465E-2  
 2.011000000000000E10   -9.322703160621504E-2   1.009920234236207E-1  
 2.011200000000000E10   -8.280239597637468E-2   1.107909005794506E-1  
 2.011400000000000E10   -7.049476189745799E-2   1.186805462518347E-1  
 2.011600000000000E10   -5.595421378688559E-2   1.256107251339979E-1  
 2.011800000000000E10   -4.378907839334552E-2   1.299480771331630E-1  
 2.012000000000000E10   -3.049279025031461E-2   1.349877574684198E-1  
 2.012200000000000E10   -1.555014308158753E-2   1.389705283038411E-1  
 2.012400000000000E10   -3.798255892220763E-4   1.401707085439698E-1  
 2.012600000000000E10    1.397043943343830E-2   1.387885369881681E-1  
 2.012800000000000E10    2.807962788659850E-2   1.361457586533739E-1  
 2.013000000000000E10    4.322828705050819E-2   1.327803335440012E-1  
 2.013200000000000E10    5.509105381467708E-2   1.276199926196793E-1  
 2.013400000000000E10    7.064499650840407E-2   1.217216775741106E-1  
 2.013600000000000E10    8.192735974803383E-2   1.138394102454186E-1  
 2.013800000000000E10    9.410165167517134E-2   1.029073131182557E-1  
 2.014000000000000E10    1.030741997155143E-1   9.267482900447807E-2  
 2.014200000000000E10    1.147033513941392E-1   8.343979440353536E-2  
 2.014400000000000E10    1.210664471174464E-1   6.900557798981177E-2  
 2.014600000000000E10    1.288519069368457E-1   5.555817865049889E-2  
 2.014800000000000E10    1.322844276212371E-1   4.167399592237708E-2  
 2.015000000000000E10    1.362761983900895E-1   2.960126037582940E-2  
 2.015200000000000E10    1.381377812030384E-1   1.504270315798835E-2  
 2.015400000000000E10    1.402953305730114E-1   7.094186026549620E-4  
 2.015600000000000E10    1.394006785296609E-1  -1.368085094133523E-2  
 2.015800000000000E10    1.362585828260139E-1  -2.802593297029965E-2  
 2.016000000000000E10    1.324037031381709E-1  -4.207000113379809E-2  
 2.016200000000000E10    1.282383237846595E-1  -5.548515310319364E-2  
 2.016400000000000E10    1.214014652947831E-1  -6.860036534782302E-2  
 2.016600000000000E10    1.131532817404457E-1  -8.102330421346697E-2  
 2.016800000000000E10    1.050114765640640E-1  -9.213143574848098E-2  
 2.017000000000000E10    9.525631217922204E-2  -1.022795628556990E-1  
 2.017200000000000E10    8.368291488154926E-2  -1.110350174423108E-1  
 2.017400000000000E10    7.167251831219522E-2  -1.191495471162561E-1  
 2.017600000000000E10    5.712872203976040E-2  -1.256716856617987E-1  
 2.017800000000000E10    4.700697397376285E-2  -1.312163253257304E-1  
 2.018000000000000E10    3.156386329619973E-2  -1.361815246289650E-1  
 2.018200000000000E10    1.607818661617890E-2  -1.385617151917744E-1  
 2.018400000000000E10    2.075071222390290E-3  -1.384844491143286E-1  
 2.018600000000000E10   -1.264073491219140E-2  -1.394046982865275E-1  
 2.018800000000000E10   -2.655135526670596E-2  -1.366744790180230E-1  
 2.019000000000000E10   -4.053489218462152E-2  -1.342935223025059E-1  
 2.019200000000000E10   -5.468847743645619E-2  -1.293904858606833E-1  
 2.019400000000000E10   -6.764487676905018E-2  -1.247868006244118E-1  
 2.019600000000000E10   -7.966630991716936E-2  -1.151636036519161E-1  
 2.019800000000000E10   -9.304699421296886E-2  -1.061890542261885E-1  
 2.020000000000000E10   -1.039159438676305E-1  -9.705289508457539E-2  
 2.020200000000000E10   -1.127415368095838E-1  -8.549286897290392E-2  
 2.020400000000000E10   -1.211663045510343E-1  -7.321989953272629E-2  
 2.020600000000000E10   -1.275609683230090E-1  -5.945733345953036E-2  
 2.020800000000000E10   -1.331650401952336E-1  -4.668729772231707E-2  
 2.021000000000000E10   -1.396904278071329E-1  -3.063120787250408E-2  
 2.021200000000000E10   -1.418983964517774E-1  -1.530771271743402E-2  
 2.021400000000000E10   -1.435472854861507E-1  -9.525477817452635E-4  
 2.021600000000000E10   -1.416937207243570E-1   1.456534242786375E-2  
 2.021800000000000E10   -1.382475016416346E-1   2.893080051083869E-2  
 2.022000000000000E10   -1.343861039528631E-1   4.357074467856208E-2  
 2.022200000000000E10   -1.306825323114670E-1   5.590979603153689E-2  
 2.022400000000000E10   -1.247729291763816E-1   6.891758666362294E-2  
 2.022600000000000E10   -1.175455796865770E-1   8.172385710379715E-2  
 2.022800000000000E10   -1.064250856760598E-1   9.357248832291537E-2  
 2.023000000000000E10   -9.693312657222827E-2   1.043976135705234E-1  
 2.023200000000000E10   -8.534304693402578E-2   1.142835948508954E-1  
 2.023400000000000E10   -7.378358869150344E-2   1.221730168525574E-1  
 2.023600000000000E10   -6.117113313250581E-2   1.284001307109747E-1  
 2.023800000000000E10   -4.518144087168415E-2   1.342157893220093E-1  
 2.024000000000000E10   -3.339875139939932E-2   1.390636415515908E-1  
 2.024200000000000E10   -1.878398971885075E-2   1.410094272697904E-1  
 2.024400000000000E10   -3.316091078452368E-3   1.424845569295648E-1  
 2.024600000000000E10    1.152188752858359E-2   1.412711971949158E-1  
 2.024800000000000E10    2.497136775296903E-2   1.389260948808105E-1  
 2.025000000000000E10    4.023435543226117E-2   1.359530755399186E-1  
 2.025200000000000E10    5.290141284711078E-2   1.311103743903431E-1  
 2.025400000000000E10    6.636803428577298E-2   1.255604222171591E-1  
 2.025600000000000E10    7.891739674924334E-2   1.162798272545446E-1  
 2.025800000000000E10    9.054344929294822E-2   1.075234743057455E-1  
 2.026000000000000E10    1.017615764781281E-1   9.745336305580024E-2  
 2.026200000000000E10    1.098775252270601E-1   8.701992458031503E-2  
 2.026400000000000E10    1.181340442640791E-1   7.640031798754210E-2  
 2.026600000000000E10    1.249883257067253E-1   6.251688485528217E-2  
 2.026800000000000E10    1.296949937265106E-1   5.000802960415437E-2  
 2.027000000000000E10    1.352934564459962E-1   3.478543132298278E-2  
 2.027200000000000E10    1.385667444256598E-1   2.150982928772768E-2  
 2.027400000000000E10    1.410709353999346E-1   9.305854285818069E-3  
 2.027600000000000E10    1.399683304161692E-1  -7.311370461382004E-3  
 2.027800000000000E10    1.391569930952763E-1  -2.144063264131546E-2  
 2.028000000000000E10    1.362311190661089E-1  -3.604177098889901E-2  
 2.028200000000000E10    1.303653586425899E-1  -5.077862195333337E-2  
 2.028400000000000E10    1.245006297718841E-1  -6.341209254944277E-2  
 2.028600000000000E10    1.179002373490805E-1  -7.621143169609118E-2  
 2.028800000000000E10    1.094339528569469E-1  -8.918629099189501E-2  
 2.029000000000000E10    9.940749388418083E-2  -1.009520799105550E-1  
 2.029200000000000E10    8.867555142307479E-2  -1.100317029121481E-1  
 2.029400000000000E10    7.634410866126112E-2  -1.193057293447938E-1  
 2.029600000000000E10    6.292910000056397E-2  -1.256997146846826E-1  
 2.029800000000000E10    4.815451552470526E-2  -1.331269819550063E-1  
 2.030000000000000E10    3.398112819334608E-2  -1.371179355515374E-1  
 2.030200000000000E10    2.090427983904817E-2  -1.402536374305992E-1  
 2.030400000000000E10    2.685681116717404E-3  -1.411939605518624E-1  
 2.030600000000000E10   -1.219836482969822E-2  -1.419634499544960E-1  
 2.030800000000000E10   -2.707631157810796E-2  -1.371475012336739E-1  
 2.031000000000000E10   -4.268009241655040E-2  -1.330140926587729E-1  
 2.031200000000000E10   -5.635986001893818E-2  -1.293502299751274E-1  
 2.031400000000000E10   -6.929398165563498E-2  -1.227573736459630E-1  
 2.031600000000000E10   -8.277477701137097E-2  -1.129224309276161E-1  
 2.031800000000000E10   -9.314329305916658E-2  -1.045777539841432E-1  
 2.032000000000000E10   -1.038169822513812E-1  -9.522366223266589E-2  
 2.032200000000000E10   -1.128759642012816E-1  -8.356686451552828E-2  
 2.032400000000000E10   -1.205394147845453E-1  -7.043473122051225E-2  
 2.032600000000000E10   -1.264284964451574E-1  -5.694917958888990E-2  
 2.032800000000000E10   -1.327771272188352E-1  -4.326112677224379E-2  
 2.033000000000000E10   -1.363120941222941E-1  -3.079487406361251E-2  
 2.033200000000000E10   -1.393969292625969E-1  -1.522784705040019E-2  
 2.033400000000000E10   -1.400546820320711E-1  -1.680576496416493E-5  
 2.033600000000000E10   -1.391805405479400E-1   1.522106685725505E-2  
 2.033800000000000E10   -1.368009893859856E-1   2.936351231065553E-2  
 2.034000000000000E10   -1.326958747435009E-1   4.410022911098269E-2  
 2.034200000000000E10   -1.260578326972915E-1   5.778324627030044E-2  
 2.034400000000000E10   -1.195256521488414E-1   6.925835625992882E-2  
 2.034600000000000E10   -1.118358181705200E-1   8.265262366935551E-2  
 2.034800000000000E10   -1.028412080412049E-1   9.446861653170960E-2  
 2.035000000000000E10   -9.206507698375993E-2   1.032025907571914E-1  
 2.035200000000000E10   -8.013681515499399E-2   1.141016859821822E-1  
 2.035400000000000E10   -6.937578277578080E-2   1.198121861481863E-1  
 2.035600000000000E10   -5.597044081415660E-2   1.272059859930243E-1  
 2.035800000000000E10   -4.221037513128034E-2   1.318643316319941E-1  
 2.036000000000000E10   -2.880649710909575E-2   1.363790645398230E-1  
 2.036200000000000E10   -1.550396358586633E-2   1.376277530880132E-1  
 2.036400000000000E10   -6.296380119754669E-4   1.388859788699406E-1  
 2.036600000000000E10    1.438838550859273E-2   1.399646689617095E-1  
 2.036800000000000E10    2.852306730370709E-2   1.356739435544230E-1  
 2.037000000000000E10    4.324901048783904E-2   1.319320177958336E-1  
 2.037200000000000E10    5.587202249240483E-2   1.270167448025182E-1  
 2.037400000000000E10    7.015024186897671E-2   1.202682285826393E-1  
 2.037600000000000E10    8.059855654774381E-2   1.118693522219795E-1  
 2.037800000000000E10    9.214913280903068E-2   1.039777992316235E-1  
 2.038000000000000E10    1.026946411395270E-1   9.287403986900433E-2  
 2.038200000000000E10    1.115169107239433E-1   8.283245312088312E-2  
 2.038400000000000E10    1.188134162269012E-1   6.970129885668619E-2  
 2.038600000000000E10    1.251796400289477E-1   5.680849018349570E-2  
 2.038800000000000E10    1.327165719658259E-1   4.278794593281217E-2  
 2.039000000000000E10    1.355029412625749E-1   2.911360767275219E-2  
 2.039200000000000E10    1.378851692372389E-1   1.479188897052911E-2  
 2.039400000000000E10    1.399589389439964E-1   1.122301741438025E-3  
 2.039600000000000E10    1.395612490888486E-1  -1.486241049037427E-2  
 2.039800000000000E10    1.341775264514327E-1  -2.969330866579657E-2  
 2.040000000000000E10    1.311477479130153E-1  -4.334199995783622E-2  
 2.040200000000000E10    1.265502682438603E-1  -5.739112077242554E-2  
 2.040400000000000E10    1.196830350246449E-1  -7.075616380069483E-2  
 2.040600000000000E10    1.108803370729886E-1  -8.288848912151754E-2  
 2.040800000000000E10    1.009244855968550E-1  -9.340998196184883E-2  
 2.041000000000000E10    9.114667460506346E-2  -1.031065620022056E-1  
 2.041200000000000E10    7.949411571639067E-2  -1.127129270093431E-1  
 2.041400000000000E10    6.737571326180251E-2  -1.190210727691160E-1  
 2.041600000000000E10    5.438329728603855E-2  -1.274581543580005E-1  
 2.041800000000000E10    4.005024537689402E-2  -1.311056808311753E-1  
 2.042000000000000E10    2.719097166732261E-2  -1.347180791965728E-1  
 2.042200000000000E10    1.224409975878005E-2  -1.374068518970238E-1  
 2.042400000000000E10   -3.525533652078714E-3  -1.366504126615485E-1  
 2.042600000000000E10   -1.690658800487901E-2  -1.360374768820319E-1  
 2.042800000000000E10   -3.196878535788001E-2  -1.325478189521366E-1  
 2.043000000000000E10   -4.451135812718192E-2  -1.300659371011051E-1  
 2.043200000000000E10   -5.954260319287395E-2  -1.241292104186345E-1  
 2.043400000000000E10   -7.024094263099349E-2  -1.163514216311675E-1  
 2.043600000000000E10   -8.317856116549960E-2  -1.084427978582834E-1  
 2.043800000000000E10   -9.468948240142794E-2  -9.873351181853458E-2  
 2.044000000000000E10   -1.025812214110123E-1  -8.855504797074040E-2  
 2.044200000000000E10   -1.116819458672539E-1  -7.573831280685749E-2  
 2.044400000000000E10   -1.203856310297432E-1  -6.460702370223687E-2  
 2.044600000000000E10   -1.254344519089770E-1  -5.250354083599869E-2  
 2.044800000000000E10   -1.315035328820900E-1  -3.949042549165188E-2  
 2.045000000000000E10   -1.347329793152986E-1  -2.606041949441649E-2  
 2.045200000000000E10   -1.358486223858570E-1  -1.156175072944950E-2  
 2.045400000000000E10   -1.365890710810085E-1   1.624656904875895E-3  
 2.045600000000000E10   -1.346884171781226E-1   1.661502932478126E-2  
 2.045800000000000E10   -1.312345485873674E-1   3.171040254181305E-2  
 2.046000000000000E10   -1.296292227604753E-1   4.486327181443757E-2  
 2.046200000000000E10   -1.247693251189872E-1   5.957491616162745E-2  
 2.046400000000000E10   -1.178985726195599E-1   7.146047935686976E-2  
 2.046600000000000E10   -1.092658369752115E-1   8.242953915164306E-2  
 2.046800000000000E10   -9.981182766426738E-2   9.462271029811829E-2  
 2.047000000000000E10   -8.872098441967749E-2   1.030284348767972E-1  
 2.047200000000000E10   -7.921992469226383E-2   1.116172037865399E-1  
 2.047400000000000E10   -6.628404692612559E-2   1.193492681462579E-1  
 2.047600000000000E10   -5.512571111014842E-2   1.257789252103602E-1  
 2.047800000000000E10   -4.151904917180294E-2   1.312343053856995E-1  
 2.048000000000000E10   -2.764493988926519E-2   1.335111097911749E-1  
 2.048200000000000E10   -1.296325946617642E-2   1.379558406616925E-1  
 2.048400000000000E10    1.352305891502020E-3   1.364296346657561E-1  
 2.048600000000000E10    1.528026418829406E-2   1.355230324430231E-1  
 2.048800000000000E10    3.060319532214860E-2   1.342551072315915E-1  
 2.049000000000000E10    4.364944992916575E-2   1.299818317586012E-1  
 2.049200000000000E10    5.599212543770610E-2   1.243239970180233E-1  
 2.049400000000000E10    7.114684587888759E-2   1.169591712853546E-1  
 2.049600000000000E10    8.203784612471185E-2   1.088058193953930E-1  
 2.049800000000000E10    9.116197214940940E-2   9.949179901262371E-2  
 2.050000000000000E10    1.023428402994396E-1   8.987897435210861E-2  
 2.050200000000000E10    1.105702673027545E-1   7.873500895843585E-2  
 2.050400000000000E10    1.175758619428662E-1   6.629984013337659E-2  
 2.050600000000000E10    1.244417967374433E-1   5.275195510483083E-2  
 2.050800000000000E10    1.281701988030854E-1   3.897645440979750E-2  
 2.051000000000000E10    1.319122386812673E-1   2.698266150529493E-2  
 2.051200000000000E10    1.330615247105375E-1   1.296887206825823E-2  
 2.051400000000000E10    1.321237673484740E-1  -2.937711023154512E-3  
 2.051600000000000E10    1.328494058837616E-1  -1.602610057304180E-2  
 2.051800000000000E10    1.297586757091829E-1  -3.015529865651956E-2  
 2.052000000000000E10    1.253695331605864E-1  -4.299340627075714E-2  
 2.052200000000000E10    1.202969382758494E-1  -5.674487042696879E-2  
 2.052400000000000E10    1.126588470160716E-1  -6.742178204128282E-2  
 2.052600000000000E10    1.054640373391379E-1  -8.026326502914782E-2  
 2.052800000000000E10    9.612675136867377E-2  -9.029736412773408E-2  
 2.053000000000000E10    8.538229883085063E-2  -9.947954455520884E-2  
 2.053200000000000E10    7.529877006639671E-2  -1.080749881733592E-1  
 2.053400000000000E10    6.333065532730442E-2  -1.157949641040323E-1  
 2.053600000000000E10    4.957952039170659E-2  -1.202398191508933E-1  
 2.053800000000000E10    3.699484370924809E-2  -1.260996025530890E-1  
 2.054000000000000E10    2.395934488915613E-2  -1.280053017561328E-1  
 2.054200000000000E10    1.219332588016374E-2  -1.302567833858263E-1  
 2.054400000000000E10   -2.368828333500359E-3  -1.302711317936580E-1  
 2.054600000000000E10   -1.556201108229259E-2  -1.285537451260375E-1  
 2.054800000000000E10   -3.130363552627986E-2  -1.278908675835457E-1  
 2.055000000000000E10   -4.439220203416339E-2  -1.242393782906572E-1  
 2.055200000000000E10   -5.632812111282055E-2  -1.183390683904597E-1  
 2.055400000000000E10   -6.950899881958472E-2  -1.114769847795306E-1  
 2.055600000000000E10   -8.060515564655572E-2  -1.029038768982201E-1  
