#  HZ   S   RI   R     50.00 
! Rohde & Schwarz ZVA40 4Ports - Version 3.90 - 1145.1110k42 SN: 100403
! Date: 2023-09-28 10:03:02
! Measurement: S12 
! 
 2.000000000000000E10    6.410671663337800E-2  -6.562982950763760E-2  
 2.000200000000000E10    5.290019124090691E-2  -7.524098215179068E-2  
 2.000400000000000E10    3.938894639599096E-2  -8.321600905497426E-2  
 2.000600000000000E10    2.448267029609856E-2  -8.881483036791907E-2  
 2.000800000000000E10    8.918729854996019E-3  -9.166768573788796E-2  
 2.001000000000000E10   -7.143371610028532E-3  -9.177347445960588E-2  
 2.001200000000000E10   -2.275155914540535E-2  -8.909210994686316E-2  
 2.001400000000000E10   -3.768610515414796E-2  -8.375061804422626E-2  
 2.001600000000000E10   -5.154856579821929E-2  -7.581867148306312E-2  
 2.001800000000000E10   -6.360679405625946E-2  -6.570056637513584E-2  
 2.002000000000000E10   -7.374937075328197E-2  -5.362273600170617E-2  
 2.002200000000000E10   -8.211536078706809E-2  -3.919198550477877E-2  
 2.002400000000000E10   -8.754598220957888E-2  -2.462893684451187E-2  
 2.002600000000000E10   -9.031467828391632E-2  -9.339468945033966E-3  
 2.002800000000000E10   -9.037286390613183E-2   6.210686342610476E-3  
 2.003000000000000E10   -8.777075851823513E-2   2.143669898825653E-2  
 2.003200000000000E10   -8.264568540613036E-2   3.593168193680228E-2  
 2.003400000000000E10   -7.510196866885080E-2   4.933444055455197E-2  
 2.003600000000000E10   -6.546129468541513E-2   6.114474103939376E-2  
 2.003800000000000E10   -5.413941776520861E-2   7.108479490098829E-2  
 2.004000000000000E10   -4.131620972384499E-2   7.905973697083002E-2  
 2.004200000000000E10   -2.731899403052582E-2   8.484083984864231E-2  
 2.004400000000000E10   -1.254331619405055E-2   8.819209293109173E-2  
 2.004600000000000E10    2.451954140999147E-3   8.901229341343347E-2  
 2.004800000000000E10    1.769861966161807E-2   8.729828149199306E-2  
 2.005000000000000E10    3.239831015811536E-2   8.296077637259479E-2  
 2.005200000000000E10    4.596740633280202E-2   7.614724331189701E-2  
 2.005400000000000E10    5.826180624787002E-2   6.698664340590377E-2  
 2.005600000000000E10    6.863275213908510E-2   5.600621342066279E-2  
 2.005800000000000E10    7.704207056488005E-2   4.339670183381392E-2  
 2.006000000000000E10    8.304434302521078E-2   2.974341071625604E-2  
 2.006200000000000E10    8.681413609699265E-2   1.509988367856577E-2  
 2.006400000000000E10    8.797645257441020E-2   2.459898185654537E-4  
 2.006600000000000E10    8.666299722887737E-2  -1.461024180268595E-2  
 2.006800000000000E10    8.285468594736528E-2  -2.915285928052610E-2  
 2.007000000000000E10    7.652228395756992E-2  -4.279412657292367E-2  
 2.007200000000000E10    6.802310108428725E-2  -5.504509146154252E-2  
 2.007400000000000E10    5.780463218738279E-2  -6.554615552667706E-2  
 2.007600000000000E10    4.585224366701281E-2  -7.440326418450516E-2  
 2.007800000000000E10    3.243384519025961E-2  -8.112963969039391E-2  
 2.008000000000000E10    1.825763011648322E-2  -8.538796878491488E-2  
 2.008200000000000E10    3.402905640912569E-3  -8.717916563403469E-2  
 2.008400000000000E10   -1.138560188684826E-2  -8.638998705843494E-2  
 2.008600000000000E10   -2.586970387715723E-2  -8.313398503581254E-2  
 2.008800000000000E10   -3.968204748684360E-2  -7.741099550519547E-2  
 2.009000000000000E10   -5.206743113500431E-2  -6.946424233360597E-2  
 2.009200000000000E10   -6.308322020485971E-2  -5.941114356804154E-2  
 2.009400000000000E10   -7.201784479113085E-2  -4.784378387394861E-2  
 2.009600000000000E10   -7.896907779211615E-2  -3.492534566540241E-2  
 2.009800000000000E10   -8.358876534092868E-2  -2.118394661496455E-2  
 2.010000000000000E10   -8.590689239886493E-2  -6.783068531437495E-3  
 2.010200000000000E10   -8.578579108546340E-2   7.936743494871985E-3  
 2.010400000000000E10   -8.325477914821321E-2   2.211823463170113E-2  
 2.010600000000000E10   -7.836853548312214E-2   3.591006415348916E-2  
 2.010800000000000E10   -7.118288081469709E-2   4.874203596148778E-2  
 2.011000000000000E10   -6.188835185249328E-2   6.021001091558293E-2  
 2.011200000000000E10   -5.082669686901954E-2   6.985577358534127E-2  
 2.011400000000000E10   -3.820284270053483E-2   7.752734065388356E-2  
 2.011600000000000E10   -2.425236240111704E-2   8.292729239663133E-2  
 2.011800000000000E10   -9.574355644405850E-3   8.575840459668099E-2  
 2.012000000000000E10    4.926919554981018E-3   8.603462095290901E-2  
 2.012200000000000E10    1.963168824881472E-2   8.387686314202297E-2  
 2.012400000000000E10    3.354250603101941E-2   7.926151349588125E-2  
 2.012600000000000E10    4.652235488832474E-2   7.229436688625546E-2  
 2.012800000000000E10    5.806807296588932E-2   6.327638253160703E-2  
 2.013000000000000E10    6.792060864773779E-2   5.235014930613842E-2  
 2.013200000000000E10    7.570130681194157E-2   3.988517641928227E-2  
 2.013400000000000E10    8.110733345171434E-2   2.650673562157901E-2  
 2.013600000000000E10    8.427604623879444E-2   1.224359153909329E-2  
 2.013800000000000E10    8.509394639768020E-2  -2.005767920889098E-3  
 2.014000000000000E10    8.351355281025695E-2  -1.643527330758538E-2  
 2.014200000000000E10    7.950803629152041E-2  -3.037444259484284E-2  
 2.014400000000000E10    7.315078836995591E-2  -4.345288845212098E-2  
 2.014600000000000E10    6.469789371394408E-2  -5.507490442142676E-2  
 2.014800000000000E10    5.435146339779928E-2  -6.523089671054741E-2  
 2.015000000000000E10    4.245608059759571E-2  -7.345208029894779E-2  
 2.015200000000000E10    2.923686481343656E-2  -7.953095866075971E-2  
 2.015400000000000E10    1.548798646565650E-2  -8.311899129010951E-2  
 2.015600000000000E10    1.104242319989604E-3  -8.446004233403948E-2  
 2.015800000000000E10   -1.320783472535770E-2  -8.340506324994446E-2  
 2.016000000000000E10   -2.706874593991482E-2  -8.002643203042729E-2  
 2.016200000000000E10   -4.027870286875747E-2  -7.426015848604331E-2  
 2.016400000000000E10   -5.227230873899998E-2  -6.634933034427967E-2  
 2.016600000000000E10   -6.278540727844903E-2  -5.647486263618096E-2  
 2.016800000000000E10   -7.139949817239559E-2  -4.503382559506780E-2  
 2.017000000000000E10   -7.800475609997182E-2  -3.231100141321755E-2  
 2.017200000000000E10   -8.240543173086087E-2  -1.847994563634406E-2  
 2.017400000000000E10   -8.434688887552350E-2  -4.117938325039904E-3  
 2.017600000000000E10   -8.370522899012456E-2   1.033384134535004E-2  
 2.017800000000000E10   -8.064120143474354E-2   2.450849653289502E-2  
 2.018000000000000E10   -7.529607908473907E-2   3.768729737061803E-2  
 2.018200000000000E10   -6.772495556808263E-2   4.998944578115026E-2  
 2.018400000000000E10   -5.820961012770561E-2   6.077490572230594E-2  
 2.018600000000000E10   -4.701003964985948E-2   6.974818854095946E-2  
 2.018800000000000E10   -3.437537209334644E-2   7.662635747566418E-2  
 2.019000000000000E10   -2.082415621780454E-2   8.128126117278156E-2  
 2.019200000000000E10   -6.694704376333340E-3   8.363445897056908E-2  
 2.019400000000000E10    7.813714356921731E-3   8.353846355712083E-2  
 2.019600000000000E10    2.185639570461037E-2   8.095871283668232E-2  
 2.019800000000000E10    3.560813182233664E-2   7.584896285708678E-2  
 2.020000000000000E10    4.799138471562314E-2   6.852003431350853E-2  
 2.020200000000000E10    5.882704970525654E-2   5.914335811759471E-2  
 2.020400000000000E10    6.788460743084793E-2   4.802986679053219E-2  
 2.020600000000000E10    7.478440753324989E-2   3.571861835067573E-2  
 2.020800000000000E10    7.949872475050446E-2   2.239951405583589E-2  
 2.021000000000000E10    8.191372854779047E-2   8.599780410241328E-3  
 2.021200000000000E10    8.204299672323534E-2  -5.295191603734033E-3  
 2.021400000000000E10    7.985090661367943E-2  -1.907699069201926E-2  
 2.021600000000000E10    7.532664364952950E-2  -3.243641707783906E-2  
 2.021800000000000E10    6.859555677128640E-2  -4.469227126075882E-2  
 2.022000000000000E10    5.980869328394314E-2  -5.568631417032882E-2  
 2.022200000000000E10    4.940431341574385E-2  -6.483431905075859E-2  
 2.022400000000000E10    3.744427421392026E-2  -7.219676257372926E-2  
 2.022600000000000E10    2.443441551127844E-2  -7.727315208831276E-2  
 2.022800000000000E10    1.094538987571977E-2  -7.998836908760063E-2  
 2.023000000000000E10   -2.774450541558393E-3  -8.029314586851521E-2  
 2.023200000000000E10   -1.624106183737622E-2  -7.838713645768719E-2  
 2.023400000000000E10   -2.914671902975342E-2  -7.422799607497596E-2  
 2.023600000000000E10   -4.111893185156540E-2  -6.800831002673222E-2  
 2.023800000000000E10   -5.173177383976081E-2  -5.992174472743571E-2  
 2.024000000000000E10   -6.080675365350394E-2  -5.025034427634388E-2  
 2.024200000000000E10   -6.821929387890927E-2  -3.920908825962937E-2  
 2.024400000000000E10   -7.368612369505691E-2  -2.714234902330552E-2  
 2.024600000000000E10   -7.703475405763996E-2  -1.425772540690661E-2  
 2.024800000000000E10   -7.808464034651741E-2  -1.146443089763175E-3  
 2.025000000000000E10   -7.690411311134986E-2   1.200348808557532E-2  
 2.025200000000000E10   -7.361119356946774E-2   2.464237851632525E-2  
 2.025400000000000E10   -6.833375781861649E-2   3.656961178462242E-2  
 2.025600000000000E10   -6.109610940293263E-2   4.743217784439956E-2  
 2.025800000000000E10   -5.218957702924717E-2   5.693496100815490E-2  
 2.026000000000000E10   -4.182207170082158E-2   6.472174462704088E-2  
 2.026200000000000E10   -3.019878258721029E-2   7.080652265132796E-2  
 2.026400000000000E10   -1.774877567570448E-2   7.477931961455642E-2  
 2.026600000000000E10   -4.728006826081623E-3   7.651021179087246E-2  
 2.026800000000000E10    8.270997769897013E-3   7.590623374663008E-2  
 2.027000000000000E10    2.084449190844957E-2   7.310413592414214E-2  
 2.027200000000000E10    3.268850111024445E-2   6.827595451407076E-2  
 2.027400000000000E10    4.354517509922930E-2   6.158792594393696E-2  
 2.027600000000000E10    5.296902109429064E-2   5.342996783483303E-2  
 2.027800000000000E10    6.110165853867672E-2   4.369433069050584E-2  
 2.028000000000000E10    6.750540289645930E-2   3.272940782054756E-2  
 2.028200000000000E10    7.194697744711651E-2   2.092368067630983E-2  
 2.028400000000000E10    7.435162105708380E-2   8.446201022533508E-3  
 2.028600000000000E10    7.459231469385919E-2  -4.319431139206973E-3  
 2.028800000000000E10    7.269736314917075E-2  -1.687105610606449E-2  
 2.029000000000000E10    6.855223638540955E-2  -2.900165107421783E-2  
 2.029200000000000E10    6.238125734573504E-2  -4.009782868255771E-2  
 2.029400000000000E10    5.445633517826990E-2  -4.989179073783543E-2  
 2.029600000000000E10    4.505455878666578E-2  -5.814784770833485E-2  
 2.029800000000000E10    3.440655278103673E-2  -6.467808289232652E-2  
 2.030000000000000E10    2.292185837596029E-2  -6.923803245567398E-2  
 2.030200000000000E10    1.098535340343475E-2  -7.182211746459444E-2  
 2.030400000000000E10   -1.055993659861500E-3  -7.239927519192821E-2  
 2.030600000000000E10   -1.325558596715985E-2  -7.104723721715442E-2  
 2.030800000000000E10   -2.504207261482263E-2  -6.769893789240883E-2  
 2.031000000000000E10   -3.591340808581101E-2  -6.234184393162190E-2  
 2.031200000000000E10   -4.593109622936320E-2  -5.512487593574622E-2  
 2.031400000000000E10   -5.447769753753075E-2  -4.632421428221412E-2  
 2.031600000000000E10   -6.100378337632940E-2  -3.659312785085456E-2  
 2.031800000000000E10   -6.597095293645985E-2  -2.565549585525966E-2  
 2.032000000000000E10   -6.898906633232173E-2  -1.402378520146775E-2  
 2.032200000000000E10   -7.000060368700733E-2  -2.367063679175070E-3  
 2.032400000000000E10   -6.904649656038957E-2   9.315492223799083E-3  
 2.032600000000000E10   -6.621173172697974E-2   2.059663704287657E-2  
 2.032800000000000E10   -6.158354748930850E-2   3.126420159681044E-2  
 2.033000000000000E10   -5.527906695295341E-2   4.084102030116589E-2  
 2.033200000000000E10   -4.747012500917421E-2   4.930987537730264E-2  
 2.033400000000000E10   -3.848028798148389E-2   5.630143262629511E-2  
 2.033600000000000E10   -3.424618678964869E-2   5.882793570465229E-2  
 2.033800000000000E10   -1.760108092078762E-2   6.548960512038474E-2  
 2.034000000000000E10   -6.267058018828662E-3   6.735230780519086E-2  
 2.034200000000000E10    4.999376567885126E-3   6.720959522507686E-2  
 2.034400000000000E10    1.609739795125793E-2   6.518517573197580E-2  
 2.034600000000000E10    2.666700858653552E-2   6.126805283827360E-2  
 2.034800000000000E10    3.634717018303034E-2   5.571450739001072E-2  
 2.035000000000000E10    4.482277237482648E-2   4.864079497433772E-2  
 2.035200000000000E10    5.199100558301646E-2   4.036661426526832E-2  
 2.035400000000000E10    5.762461029085277E-2   3.118649460946457E-2  
 2.035600000000000E10    6.176492698112973E-2   2.121312295037032E-2  
 2.035800000000000E10    6.423252365291632E-2   1.080202084309453E-2  
 2.036000000000000E10    6.500333109218533E-2   9.095313760288255E-5  
 2.036200000000000E10    6.397306771530760E-2  -1.066748458540308E-2  
 2.036400000000000E10    6.124598966338823E-2  -2.096072279087721E-2  
 2.036600000000000E10    5.687568829547030E-2  -3.066735904391522E-2  
 2.036800000000000E10    5.082845676525746E-2  -3.965894032100874E-2  
 2.037000000000000E10    4.343305926860222E-2  -4.737280093641644E-2  
 2.037200000000000E10    3.501197606523381E-2  -5.377665932247509E-2  
 2.037400000000000E10    2.555109396879759E-2  -5.870330889059348E-2  
 2.037600000000000E10    1.553856729696806E-2  -6.195629013506879E-2  
 2.037800000000000E10    5.037634089786131E-3  -6.355194488283589E-2  
 2.038000000000000E10   -5.520762955751074E-3  -6.338293936214738E-2  
 2.038200000000000E10   -1.582361380132737E-2  -6.142157762967176E-2  
 2.038400000000000E10   -2.562566524583713E-2  -5.780907471335217E-2  
 2.038600000000000E10   -3.455779793806736E-2  -5.268898311762926E-2  
 2.038800000000000E10   -4.259920472051855E-2  -4.624069278938724E-2  
 2.039000000000000E10   -4.944603363322384E-2  -3.870360184506502E-2  
 2.039200000000000E10   -5.512040743130092E-2  -3.017939395799407E-2  
 2.039400000000000E10   -5.938077396187169E-2  -2.080610543369257E-2  
 2.039600000000000E10   -6.212760864200846E-2  -1.082911526815071E-2  
 2.039800000000000E10   -6.315671008428445E-2  -4.759619162518204E-4  
 2.040000000000000E10   -6.242247248103487E-2   1.009158263402046E-2  
 2.040200000000000E10   -5.982374108629675E-2   2.037472969166941E-2  
 2.040400000000000E10   -5.549645631324936E-2   2.993542167769423E-2  
 2.040600000000000E10   -4.968874621109307E-2   3.853397160075717E-2  
 2.040800000000000E10   -4.258893216221835E-2   4.611700521074344E-2  
 2.041000000000000E10   -3.443024069621825E-2   5.233874455346770E-2  
 2.041200000000000E10   -2.538307630470371E-2   5.719782172477839E-2  
 2.041400000000000E10   -1.580922456247104E-2   6.048578518360701E-2  
 2.041600000000000E10   -5.944471806505828E-3   6.230487195178013E-2  
 2.041800000000000E10    4.311301296342733E-3   6.259665495644060E-2  
 2.042000000000000E10    1.440281206618170E-2   6.121475298954134E-2  
 2.042200000000000E10    2.419630827799913E-2   5.823051022722607E-2  
 2.042400000000000E10    3.352587481768959E-2   5.363842463250319E-2  
 2.042600000000000E10    4.200495224055175E-2   4.751568777064061E-2  
 2.042800000000000E10    4.928512400653821E-2   4.007447922576293E-2  
 2.043000000000000E10    5.531419147497468E-2   3.146419151026574E-2  
 2.043200000000000E10    5.986916133693629E-2   2.208081097613435E-2  
 2.043400000000000E10    6.289022482547757E-2   1.205784134826387E-2  
 2.043600000000000E10    6.427491843338845E-2   1.755158020061765E-3  
 2.043800000000000E10    6.402835779607752E-2  -8.809984848930487E-3  
 2.044000000000000E10    6.204190601878412E-2  -1.934987108864025E-2  
 2.044200000000000E10    5.831329714045261E-2  -2.948679728548127E-2  
 2.044400000000000E10    5.281773489074808E-2  -3.896644489532480E-2  
 2.044600000000000E10    4.579833857373426E-2  -4.742750236745225E-2  
 2.044800000000000E10    3.737029528133426E-2  -5.462330282152587E-2  
 2.045000000000000E10    2.781730461015217E-2  -6.033719626760797E-2  
 2.045200000000000E10    1.747238960309376E-2  -6.433294829842991E-2  
 2.045400000000000E10    6.534266210558782E-3  -6.656323523635885E-2  
 2.045600000000000E10   -4.598108073529342E-3  -6.692824184179655E-2  
 2.045800000000000E10   -1.574005496339591E-2  -6.543455689248660E-2  
 2.046000000000000E10   -2.644290847765024E-2  -6.211722543250768E-2  
 2.046200000000000E10   -3.649725898974357E-2  -5.709331605006240E-2  
 2.046400000000000E10   -4.565600566155462E-2  -5.037870535193924E-2  
 2.046600000000000E10   -5.359914907462901E-2  -4.221085327095064E-2  
 2.046800000000000E10   -6.007185240691090E-2  -3.286703198306362E-2  
 2.047000000000000E10   -6.500993389651033E-2  -2.241024737838488E-2  
 2.047200000000000E10   -6.813294749172956E-2  -1.138264271060694E-2  
 2.047400000000000E10   -6.934496741632026E-2   8.010766446250476E-5  
 2.047600000000000E10   -6.858423362364036E-2   1.172885816537279E-2  
 2.047800000000000E10   -6.590452439385024E-2   2.312027588938533E-2  
 2.048000000000000E10   -6.142863588742219E-2   3.380138657198361E-2  
 2.048200000000000E10   -5.513499460155885E-2   4.378599360819242E-2  
 2.048400000000000E10   -4.722561385158698E-2   5.265321108197085E-2  
 2.048600000000000E10   -3.798164507392696E-2   5.997157624857122E-2  
 2.048800000000000E10   -2.741083544553792E-2   6.589819834371453E-2  
 2.049000000000000E10   -1.611584460068353E-2   6.987278634864466E-2  
 2.049200000000000E10   -4.189920618029419E-3   7.187670493340052E-2  
 2.049400000000000E10    7.940493592433366E-3   7.187094365709121E-2  
 2.049600000000000E10    1.999777573066825E-2   6.982233394949494E-2  
 2.049800000000000E10    3.150528556290870E-2   6.576714749375749E-2  
 2.050000000000000E10    4.237099706591007E-2   5.986448053263061E-2  
 2.050200000000000E10    5.213429644411415E-2   5.210379282865064E-2  
 2.050400000000000E10    6.045176902928142E-2   4.273744182946779E-2  
 2.050600000000000E10    6.709511240863894E-2   3.195292317483313E-2  
 2.050800000000000E10    7.180013990283762E-2   2.017416668580350E-2  
 2.051000000000000E10    7.439522697837561E-2   7.752061523287671E-3  
 2.051200000000000E10    7.481990740343622E-2  -4.946472339264824E-3  
 2.051400000000000E10    7.316090904372757E-2  -1.752796947691578E-2  
 2.051600000000000E10    6.934043059634180E-2  -2.965964404355320E-2  
 2.051800000000000E10    6.351661887239649E-2  -4.110850904421012E-2  
 2.052000000000000E10    5.587450833611923E-2  -5.132636222344156E-2  
 2.052200000000000E10    4.661225586326217E-2  -6.018266005263602E-2  
 2.052400000000000E10    3.601336467241308E-2  -6.740278201678870E-2  
 2.052600000000000E10    2.426389736726017E-2  -7.279026669116206E-2  
 2.052800000000000E10    1.169544032196779E-2  -7.619774115452419E-2  
 2.053000000000000E10   -1.439219651498804E-3  -7.739870987958572E-2  
 2.053200000000000E10   -1.462485337623464E-2  -7.632998998939711E-2  
 2.053400000000000E10   -2.739224019781403E-2  -7.295615080113505E-2  
 2.053600000000000E10   -3.953675564896744E-2  -6.745126091196241E-2  
 2.053800000000000E10   -5.054113608836727E-2  -5.999444227658880E-2  
 2.054000000000000E10   -6.022001750397626E-2  -5.067335503270021E-2  
 2.054200000000000E10   -6.812368168761017E-2  -3.994931092078570E-2  
 2.054400000000000E10   -7.407671766557546E-2  -2.792019530462706E-2  
 2.054600000000000E10   -7.798706376602826E-2  -1.505110186648653E-2  
 2.054800000000000E10   -7.974359698224476E-2  -1.729176012522852E-3  
 2.055000000000000E10   -7.927046842029628E-2   1.193451504968523E-2  
 2.055200000000000E10   -7.640165004828904E-2   2.536950587859915E-2  
 2.055400000000000E10   -7.121861957944846E-2   3.819500146552715E-2  
 2.055600000000000E10   -6.383934249692269E-2   4.998730494383957E-2  
