#  HZ   S   RI   R     50.00 
! Rohde & Schwarz ZVA40 4Ports - Version 3.90 - 1145.1110k42 SN: 100403
! Date: 2023-09-26 11:05:56
! Measurement: S12 
! 
 2.300000000000000E10   -9.874023736082020E-4  -5.662254547793419E-4  
 2.304000000000000E10   -4.777108782157303E-4  -1.709228556789458E-4  
 2.308000000000000E10   -7.162577871792019E-4   1.233976723961533E-3  
 2.312000000000000E10    1.042656202986837E-3   6.467023213766517E-4  
 2.316000000000000E10    1.350019444227219E-3  -7.244180869497360E-4  
 2.320000000000000E10   -1.172002570229233E-4  -1.888559831567109E-3  
 2.324000000000000E10   -7.010251020640136E-4   3.817027136683458E-6  
 2.328000000000000E10    5.093878439627591E-5   8.778159081004562E-4  
 2.332000000000000E10    8.198824787698689E-4   7.809330657124520E-4  
 2.336000000000000E10    6.330592551268638E-4  -1.028081784173846E-3  
 2.340000000000000E10    4.961539103649555E-5  -1.457695082705468E-3  
 2.344000000000000E10   -7.520068022049966E-4  -2.452934974012897E-4  
 2.348000000000000E10   -6.662628181464972E-4   7.518482623249294E-4  
 2.352000000000000E10   -3.005777300149203E-4   8.453674248419704E-4  
 2.356000000000000E10    1.394003357328475E-3  -5.113029533624649E-4  
 2.360000000000000E10   -1.228057062800509E-4  -1.468958310112358E-3  
 2.364000000000000E10   -1.470106861330569E-3  -4.025535217626021E-4  
 2.368000000000000E10   -1.961911505833268E-3   1.453680507279933E-3  
 2.372000000000000E10    7.577928618434819E-4   1.742941039055586E-3  
 2.376000000000000E10    1.325471969246864E-3  -6.390296768397093E-4  
 2.380000000000000E10    9.875263682857625E-5  -1.700531234629453E-3  
 2.384000000000000E10   -1.261645943783224E-3  -3.121705052442849E-5  
 2.388000000000000E10   -3.394084339775145E-4   1.715379976201803E-4  
 2.392000000000000E10   -2.321463540801779E-4   9.354299025796356E-4  
 2.396000000000000E10    1.330519402921200E-3   1.777775492519135E-6  
 2.400000000000000E10    1.245784497596324E-3   3.291423925338314E-4  
 2.404000000000000E10   -8.321954849362375E-4   3.397611789684744E-4  
 2.408000000000000E10   -6.185834279004485E-4   7.872306244075300E-4  
 2.412000000000000E10    5.270293208956718E-4   7.695007793046535E-4  
 2.416000000000000E10    1.496605517007411E-3   4.500303722918034E-4  
 2.420000000000000E10    2.515542495697737E-3  -3.699223007075481E-5  
 2.424000000000000E10   -9.792960361763835E-4  -1.141593270190060E-3  
 2.428000000000000E10   -2.487584980055690E-3  -1.274362551113591E-3  
 2.432000000000000E10    1.611422263681889E-3   7.951238752156496E-4  
 2.436000000000000E10    2.376655395701528E-3   1.717293570740149E-3  
 2.440000000000000E10    6.479593698494137E-4  -6.007124375784771E-4  
 2.444000000000000E10   -1.483728812113404E-3  -7.032291416078807E-4  
 2.448000000000000E10   -1.616632974259556E-3  -1.630852359570563E-3  
 2.452000000000000E10    4.943486369028688E-4   1.038882969096303E-3  
 2.456000000000000E10    7.996823506802322E-4   6.585685527510943E-4  
 2.460000000000000E10    8.056942518800498E-4   6.040910955239088E-4  
 2.464000000000000E10   -1.448057104088367E-3  -8.405760448053481E-4  
 2.468000000000000E10   -6.685633622854951E-4  -2.116226332709193E-3  
 2.472000000000000E10   -5.180442595761271E-4   1.230503005906940E-3  
 2.476000000000000E10    1.218366087004543E-3   1.361194614879788E-3  
 2.480000000000000E10    1.949039354175330E-4   9.846910296753052E-4  
 2.484000000000000E10   -8.601742412708702E-4  -2.731162356361748E-3  
 2.488000000000000E10   -2.993101051822304E-4  -6.447014292329551E-4  
 2.492000000000000E10   -6.190993101987989E-4   9.958131401613356E-4  
 2.496000000000000E10    7.564469629246743E-4   1.508055819664151E-3  
 2.500000000000000E10    1.017902004867793E-3  -6.058934219181539E-4  
 2.504000000000000E10    1.178633449804038E-3  -1.134075961075723E-3  
 2.508000000000000E10   -1.258290757164359E-3  -3.914809309411794E-4  
 2.512000000000000E10   -2.717011229321362E-4   1.775329472031445E-3  
 2.516000000000000E10    4.506903840787709E-4   1.945439387764783E-4  
 2.520000000000000E10    9.766879215836527E-4  -2.377989188954234E-4  
 2.524000000000000E10    5.861188342003153E-4  -6.648009471595289E-4  
 2.528000000000000E10   -1.167344813346863E-3  -1.433303087786771E-4  
 2.532000000000000E10   -2.372577495314181E-4   5.067314466461541E-4  
 2.536000000000000E10    3.962012076936662E-4   6.155659995833412E-4  
 2.540000000000000E10    1.430831209681929E-3   6.052888471260667E-4  
 2.544000000000000E10    1.239253610335291E-3  -9.493957484513522E-4  
 2.548000000000000E10   -5.158738190261648E-4  -9.227888951823118E-4  
 2.552000000000000E10    4.305328611657024E-4   3.989080621884206E-4  
 2.556000000000000E10    2.266685386560857E-4   8.651745849102737E-4  
 2.560000000000000E10    2.487736800778658E-4   6.188718760386145E-6  
 2.564000000000000E10    2.361835761927068E-4   5.375138683244589E-5  
 2.568000000000000E10   -3.451492264866475E-7  -1.233600309342146E-3  
 2.572000000000000E10   -1.096683875471354E-3  -6.748993284301833E-4  
 2.576000000000000E10   -6.328369570896029E-4   6.591615401208401E-4  
 2.580000000000000E10    2.048459886386991E-3  -3.337136872345582E-4  
 2.584000000000000E10    1.917715687677265E-3   4.489202409982681E-4  
 2.588000000000000E10    3.172033738286701E-4  -6.741261870600284E-4  
 2.592000000000000E10   -1.233006469346583E-3  -5.117748074233532E-4  
 2.596000000000000E10   -1.138944568275474E-3   8.687328089959920E-4  
 2.600000000000000E10    1.060478221159429E-4   2.943163120187820E-4  
 2.604000000000000E10    1.161516804248095E-3  -5.196350786602125E-4  
 2.608000000000000E10    1.204951785504818E-4  -2.269053227081895E-3  
 2.612000000000000E10   -1.967006051028148E-3  -7.450934033840892E-5  
 2.616000000000000E10   -1.014919588156045E-3   6.711530675180258E-4  
 2.620000000000000E10    1.139516737684608E-3   1.122045882232488E-3  
 2.624000000000000E10   -5.038910919800400E-4  -5.392520184628667E-4  
 2.628000000000000E10   -1.023327684029937E-4  -6.025192766217516E-4  
 2.632000000000000E10   -9.506966356188061E-4  -8.217663567513229E-4  
 2.636000000000000E10   -1.669353505596519E-4   9.869772981386633E-4  
 2.640000000000000E10    1.377084937132895E-3   9.528353209374475E-4  
 2.644000000000000E10    2.402513507287950E-4  -1.209968503564596E-4  
 2.648000000000000E10    6.111555498093369E-4  -1.320519080013037E-3  
 2.652000000000000E10    1.309816121356563E-4  -1.076606808044017E-3  
 2.656000000000000E10   -1.124289998039603E-3  -8.893971052020791E-5  
 2.660000000000000E10   -9.305228218901904E-4   2.631630186922848E-4  
 2.664000000000000E10    1.006324033066631E-3   3.243572225794197E-4  
 2.668000000000000E10    8.311250947415829E-4  -8.679813815280796E-4  
 2.672000000000000E10   -3.285689149051906E-4  -1.931608085893095E-3  
 2.676000000000000E10   -8.238513583317402E-4   2.419315870851278E-4  
 2.680000000000000E10   -3.418983098308673E-4   9.204808801412583E-4  
 2.684000000000000E10    1.078070118092001E-3   1.014214540645480E-3  
 2.688000000000000E10    4.584774984454271E-4  -8.585764780174943E-4  
 2.692000000000000E10   -6.760226295329632E-4  -1.394159211264923E-3  
 2.696000000000000E10   -1.226259238738567E-3  -1.423614451661707E-4  
 2.700000000000000E10    9.687749106436970E-4  -3.462556437123568E-4  
