#  HZ   S   RI   R     50.00 
! Rohde & Schwarz ZVA40 4Ports - Version 3.90 - 1145.1110k42 SN: 100403
! Date: 2023-09-26 11:02:50
! Measurements: S11 S21 S12 S22 
! 
 2.300000000000000E10    1.961595585412100E-1   8.199469173154979E-3  -8.483483070302409E-4  -7.832493297529273E-4  -1.194665671739723E-3  -3.156053728462948E-4  -1.736337021918721E-1  -2.382206660169187E-1  
 2.304000000000000E10    5.186506730314736E-2   1.806624279771937E-1  -5.558428221129092E-4   8.457643456223220E-5  -6.171465799667300E-4   2.704986994104916E-4  -9.571816779969233E-2  -1.528288136074711E-1  
 2.308000000000000E10    8.732636619441837E-2  -9.676888129902111E-2  -8.123829002874151E-4   9.394562009124339E-4  -5.140480949030661E-4   1.425226469113354E-3  -1.788851488617214E-1   5.018706303617851E-3  
 2.312000000000000E10    2.804590493791365E-1  -1.155588453283316E-2   1.010435998264086E-3   8.974398408361257E-4   1.174617910914454E-3   4.413322869123931E-4  -1.588010217236079E-1  -5.272714099248703E-2  
 2.316000000000000E10   -9.059357291905351E-3  -2.979639667385649E-2   1.126402023715028E-3  -7.683430123905715E-4   8.970282301286988E-4  -1.002503395923886E-3   2.641845256743783E-3   6.966755569980926E-2  
 2.320000000000000E10    2.904356781578740E-2  -3.308531896563274E-1   6.439721264472593E-5  -1.876851793704636E-3  -6.328334090529324E-4  -1.807187534130065E-3  -7.832218836611009E-2   1.557630867756618E-1  
 2.324000000000000E10    1.458077825833233E-1  -1.116326393660927E-1  -9.055647687162892E-4   1.335453263794155E-4  -7.187143209557284E-4   7.429184986615282E-4  -7.703148874690133E-3  -1.175665526723925E-2  
 2.328000000000000E10   -1.551875062323959E-1  -3.983813234514892E-2   2.089121051671359E-4   1.005048867481318E-3   3.594418117321478E-4   8.200151465259535E-4   1.710676530809163E-1   1.245940583243115E-2  
 2.332000000000000E10   -9.133981930690158E-2  -1.918674048909538E-1   6.575576823897502E-4   6.896558359793209E-4   1.219255862977339E-3   4.419829734567357E-4   8.086746640213184E-2  -1.278062757801585E-2  
 2.336000000000000E10   -5.074094422482531E-2   2.868722989786403E-2   6.204418838375886E-4  -8.592700054808406E-4   2.565403891508554E-4  -1.110663885902902E-3   1.122362968661279E-1  -1.956562026778760E-1  
 2.340000000000000E10   -2.242003891812940E-1  -1.016778482990546E-2   1.778748374494397E-4  -1.219750724508450E-3  -1.838700988394273E-4  -1.254883090983303E-3   1.388194338095607E-1  -1.475461942266338E-1  
 2.344000000000000E10    1.423337124502026E-2  -4.350500712245080E-2  -7.169945487615805E-4  -2.015055934762162E-4  -7.250162033253726E-4   2.581294221164872E-4  -3.830722187483559E-2  -1.825314304929706E-1  
 2.348000000000000E10    4.763865120076667E-2   2.337341122998879E-1  -6.179941330138087E-4   8.570011847486898E-4  -1.632082928277154E-4   1.258441468850860E-3  -2.152333938008653E-2  -2.727194624754189E-1  
 2.352000000000000E10   -6.363684433220622E-2   6.304797663895373E-2  -1.368910632717416E-5   3.542239782071383E-4   2.077312875492515E-4   1.429301195077354E-4  -3.995308218986306E-2  -1.225080349693089E-1  
 2.356000000000000E10    2.114261626704185E-1  -5.572010480286385E-2   1.665274287489660E-3  -2.013055615255656E-4   1.560274649544881E-3  -9.470528966104609E-4  -1.794551778672614E-1  -9.812361206924641E-2  
 2.360000000000000E10    1.415828040545221E-1   7.071128406798548E-2   1.872837685161375E-4  -1.786755766136169E-3  -5.504654848220770E-4  -1.654798964725891E-3  -1.028189528664614E-1  -7.425915270970568E-2  
 2.364000000000000E10    2.570565606798337E-2  -1.770380720532277E-1  -1.385591920537960E-3  -6.454127137384728E-4  -1.494892658764287E-3   1.130342892680087E-4  -1.052054137951560E-1   8.371465565351130E-2  
 2.368000000000000E10    2.194990544198868E-1  -1.577521591741004E-1  -1.745911523440864E-3   1.145343901977686E-3  -1.141717646735880E-3   1.715714833834179E-3  -1.246196673889796E-1   4.386094195964371E-2  
 2.372000000000000E10   -2.805084877034119E-3   3.140769747915332E-3   5.642473017749285E-4   1.933095937113347E-3   1.087444882905436E-3   1.722139469444446E-3   4.109419837742873E-2   4.745229770558687E-2  
 2.376000000000000E10   -1.125805227271273E-1  -2.540043606175690E-1   1.534470368624838E-3  -4.682067716700461E-4   1.215799373518311E-3  -7.506205921334241E-4   3.198348421994669E-2   1.143382674889997E-1  
 2.380000000000000E10    6.781164109773535E-2  -1.584511542516096E-1   1.253556450820153E-4  -1.514043620998020E-3  -4.150756352825029E-4  -1.545283735215525E-3   1.894849405297043E-2  -5.125923858213465E-2  
 2.384000000000000E10   -1.444129977007102E-1   3.078147517198351E-2  -1.302015113620395E-3   5.938356284687035E-6  -1.294348600616018E-3   3.404918977882669E-4   1.313939321644875E-1  -1.059744315992128E-1  
 2.388000000000000E10   -1.253629475252067E-1  -9.973987920811403E-2  -2.900055898926685E-4   4.427628870269957E-4  -6.027917432663441E-5   4.934526085054159E-4   4.627750325297923E-2  -1.047390404221817E-1  
 2.392000000000000E10    7.246816785887633E-2   1.092414199656892E-1   4.825318696217828E-6   8.571006409291827E-4   4.247255495860156E-5   6.256257083351033E-4   9.776525318293957E-3  -2.286052421836560E-1  
 2.396000000000000E10   -9.923824174922555E-2   1.448549125015460E-1   1.230036597977626E-3   3.006534985652931E-4   1.211781862072558E-3   1.480486150229486E-4   3.864644413661502E-2  -1.541345262771253E-1  
 2.400000000000000E10    6.739277178010070E-2  -1.157659151756711E-1   7.508958077748444E-4   4.087058891654547E-4   8.009208035392065E-4   2.695497446329969E-4  -1.126568885284014E-1  -7.697338854053902E-2  
 2.404000000000000E10    2.410401431170560E-1   4.223300476005787E-2  -1.347951331372631E-3   9.159372442445199E-5  -1.311627635187230E-3  -2.795172754962497E-4  -1.189252985772768E-1  -1.058394666868321E-1  
 2.408000000000000E10    1.735130105203641E-2   2.858922478017533E-2  -9.450917974608531E-4   7.711228809040813E-4   4.023603448692905E-4   1.844907848273265E-3  -5.474761914126768E-2   3.628805955093158E-2  
 2.412000000000000E10    9.233551254910499E-2  -1.622738386810327E-1   3.198477036687507E-4   2.479645842262075E-4   8.328437921493654E-5   9.900414327358980E-5  -1.243474106702169E-1   9.504493200249810E-2  
 2.416000000000000E10    8.061848805952696E-2  -4.272531797009054E-2   1.495616810018370E-3   4.084345369110500E-4   8.285427549151040E-4  -2.113823647623642E-4  -1.969455581765613E-2   5.526113222977611E-2  
 2.420000000000000E10   -1.173760361616437E-1  -1.901073824715634E-1   1.004085380216213E-3   2.319740007548975E-4   7.994723716258637E-4  -2.586035127666394E-4   6.730251486362766E-2   1.183783609209302E-1  
 2.424000000000000E10    5.083605598799136E-2  -2.291815078661481E-1  -5.022969935574163E-4  -1.445402370080044E-3  -1.063332963555225E-3  -7.126736500802688E-4   6.077713009248305E-2   2.380798499615266E-2  
 2.428000000000000E10   -4.745929186946712E-2   8.880099573909674E-2  -2.091624325081753E-3  -8.016819160580060E-4  -2.325783238995709E-3  -1.716804209486231E-4   1.966632283983159E-1  -8.100115059289834E-2  
 2.432000000000000E10   -2.223939752551007E-1   1.096036240476440E-2   7.907979618534055E-4   1.062722015647989E-3   2.129156060609592E-3  -5.151419708419328E-5   1.546927810419838E-1  -5.464650500245763E-2  
 2.436000000000000E10    3.434997295813935E-2   2.892288289753405E-2   1.428419820398488E-3   1.390723934613137E-3   1.237132559727704E-3   1.086731658056037E-3   3.861778254038906E-2  -1.595129707800234E-1  
 2.440000000000000E10    3.509713177814791E-4   2.125766447099738E-1   7.722660985031916E-4  -5.253324012998129E-4   3.649539022962950E-4  -1.664626457487492E-3   2.389691319582563E-2  -1.865307476732141E-1  
 2.444000000000000E10    1.541131005796727E-2  -1.878399397919228E-2  -1.348568561174104E-3  -1.054492969510610E-3  -1.627810460355025E-3  -6.942213571510133E-4  -1.110711743252816E-1  -1.268605988826209E-1  
 2.448000000000000E10    2.927755525248445E-1   2.951631750641431E-2  -1.030700248728650E-3  -1.954317518326280E-3  -1.970264861788972E-3  -5.680275068743985E-4  -1.548714208083101E-1  -1.517689233421333E-1  
 2.452000000000000E10    1.010705844296883E-1   1.293558883343384E-1   1.493764627093537E-4   1.864806110210203E-3   1.197096128066914E-3   1.715938760470278E-3  -1.125492415650933E-1  -7.435561971483046E-3  
 2.456000000000000E10    7.453125858744962E-2  -2.304935223231281E-1   9.107133976371766E-4   6.310327878517380E-4   1.968705011356952E-4   3.101184598591811E-4  -1.853235164163340E-1   1.187602236048293E-1  
 2.460000000000000E10    2.739151583817660E-1  -1.934046232921412E-1   1.040312930794007E-3   1.337108694093826E-4   1.733560142283944E-3  -1.817879944408695E-3  -1.126755385272985E-1   1.048162926695194E-1  
 2.464000000000000E10   -1.232572924708377E-2  -1.134507557732877E-1  -1.062772854639368E-3  -1.597271899277468E-3  -2.335211299855554E-3  -5.244122737915828E-4   5.441087401310800E-2   2.257159742149684E-1  
 2.468000000000000E10   -7.405390218938837E-2  -3.147133984839869E-1  -1.587384146886762E-5  -9.003653213404453E-4  -8.102134208214521E-4  -1.011246467881980E-3   6.771190931185306E-2   2.146971809273365E-1  
 2.472000000000000E10   -2.826751796334094E-2  -7.497187492041298E-2  -1.286926276804461E-3   1.119929003591056E-3  -4.676069463536059E-4   8.729475977576956E-4   2.024620497441959E-1   7.880074507804900E-2  
 2.476000000000000E10   -3.215205346380854E-1   1.161296758247056E-2   3.503144412499638E-4   8.723784470888843E-4   3.577891850327243E-4   1.151242904338020E-3   2.850542367430982E-1   7.861490174271056E-2  
 2.480000000000000E10   -1.570786207713570E-1  -1.245263138323061E-1   9.404662976712868E-5  -2.050059870743937E-4   1.205402358650941E-3  -3.937811827754092E-4   1.766336214929833E-1  -6.191617956087611E-2  
 2.484000000000000E10    3.304460391151640E-2   1.997861533995390E-1   1.559979769640967E-4  -2.220815446126084E-3  -1.575441067819739E-3  -1.757775211708350E-3   1.978189842325453E-1  -2.186672998972356E-1  
 2.488000000000000E10   -1.267865753189694E-1   2.279210148141279E-1  -3.099475936909250E-4  -2.196892683624500E-4  -1.672289981568517E-4   1.121854780050345E-3   1.120035654414831E-1  -1.857355720235220E-1  
 2.492000000000000E10    1.306317185012782E-1   8.276459705956020E-2  -9.664399394803255E-4   1.111426199741773E-3  -1.845944308531018E-3   1.873911182990322E-3  -7.184167703520303E-2  -2.571643691001372E-1  
 2.496000000000000E10    2.351593747814705E-1   2.477234704010872E-1   2.354717093286287E-4   1.321880544959553E-3   9.457441813838246E-4   1.624074332804481E-3  -6.468655640393711E-2  -2.391529967777320E-1  
 2.500000000000000E10    1.271063770603399E-1   1.228328766639505E-2   1.020046910021068E-3  -9.092601564878930E-4   3.288646438509433E-4  -2.034481009639561E-3  -1.929434349812106E-1  -4.286419197512505E-2  
 2.504000000000000E10    4.011516834354869E-1  -1.751412080248306E-1   6.827888005759571E-4  -1.105807056999395E-3   2.905734010241237E-4  -1.827462916474773E-3  -2.868074471691525E-1  -2.474867045990520E-2  
 2.508000000000000E10    2.969869789686688E-1  -2.830614217754083E-3  -8.902984853667000E-4   2.345258729399833E-5   7.053656127771850E-4   6.387916660223025E-4  -1.227547457161996E-1   8.035923686951216E-2  
 2.512000000000000E10    7.841648213916390E-4  -2.623133887634908E-1  -1.457547149099469E-3   1.408843373805123E-3  -6.633413563247677E-4   1.242738068256796E-3  -6.046003188845443E-2   2.704231565418843E-1  
 2.516000000000000E10    1.203400666396069E-1  -3.267425906444570E-1   3.211889546785808E-4   1.154023227250556E-3  -2.535645365640214E-4   5.617016530982506E-4   1.240827435211194E-2   2.359258586606617E-1  
 2.520000000000000E10   -9.539788364915985E-2  -1.077872470275861E-1   9.144286509694349E-4  -2.319982440691473E-4   1.572682688901416E-4  -9.911043088644137E-4   2.085805876696217E-1   2.440212654875065E-1  
 2.524000000000000E10   -2.411483098782019E-1  -2.628223825025551E-1   1.185351348591612E-4  -7.793854508833886E-4  -8.894370275198903E-5  -1.254841823564248E-3   2.071114184578491E-1   2.512711791824321E-1  
 2.528000000000000E10   -3.407196001566569E-2  -9.139904931278516E-2  -8.804066292750765E-4  -2.222445835688936E-4  -1.495068737809656E-3  -5.515715128743323E-6   2.304443389960639E-1   5.610510482825412E-2  
 2.532000000000000E10   -2.272113685639234E-1   2.086513393182899E-1  -8.350012874686559E-4   1.174746375522046E-4  -6.351707202432695E-4   6.635537663952156E-4   2.863798911018692E-1  -1.180879401346265E-2  
 2.536000000000000E10   -2.381515365080240E-1   2.963087523039724E-2   3.508811480493865E-4   8.805059604385559E-4   7.818362713396486E-4   1.676315553453725E-3   1.628654789864224E-1  -9.540406002614195E-2  
 2.540000000000000E10    1.025008432246929E-1   1.453830373412736E-1   1.481919055287386E-3   5.038070497919295E-4   7.098925789607196E-4  -2.059642884201109E-4   1.240588221934260E-1  -2.430573982651922E-1  
 2.544000000000000E10    6.291803875377981E-2   2.553247006780901E-1   1.010992344961072E-3  -5.371903879370219E-4  -3.245029533199329E-4  -5.633444743387435E-4   7.471120462149600E-2  -1.860543914462375E-1  
 2.548000000000000E10    1.923496027556529E-1   3.072843208741506E-2  -1.046891195597952E-3  -8.819579037033091E-4  -1.352393126028580E-3   3.694798336903500E-4  -8.961570409950197E-2  -1.385888026315764E-1  
 2.552000000000000E10    3.415542293255582E-1   1.279384552897359E-1   2.728819502762452E-6   7.222572165030614E-4   4.708109355193640E-4   1.804442842774561E-4  -1.178699854208039E-1  -1.025110056141430E-1  
 2.556000000000000E10    8.786025703952294E-2   3.586924743865975E-2   4.146513196387603E-4   1.457409104013215E-3   6.244715846329298E-4   1.823739249980620E-3  -1.393824209466824E-1   3.612706123311384E-2  
 2.560000000000000E10    1.795693695366259E-1  -2.910867033874479E-1   8.468011866337558E-4   4.134072409900184E-4   1.247446616332272E-3   4.479932353465060E-4  -1.292236415773619E-1   6.020304312893193E-2  
 2.564000000000000E10    2.665470161907291E-1  -1.454004000453776E-1   2.527270467501902E-4  -1.376446440451368E-4  -8.935485151728144E-4   3.534151172177750E-5   7.877081850267325E-3   1.486876523613717E-1  
 2.568000000000000E10   -2.218386613722220E-2  -1.552915938036895E-1   4.940605261168240E-4  -1.181936851436400E-3  -1.779669322130214E-4  -7.746512059731236E-4   3.802691744333107E-2   2.303880831342901E-1  
 2.572000000000000E10    3.786588831958905E-3  -2.703542143046427E-1  -1.050341916345299E-3  -5.982538352001948E-4  -2.205206131415895E-3   2.798219086987185E-4   1.018862034474039E-1   1.279005279378382E-1  
 2.576000000000000E10   -5.058693980043055E-2  -4.417429356681285E-2  -3.885990906881281E-4   7.807049826828164E-4  -5.294859110962483E-4   1.652566920671054E-3   2.411232140623708E-1   1.300563132853198E-1  
 2.580000000000000E10   -2.308407346737728E-1  -9.367580314357682E-2   1.487451809022391E-3   8.392322503422531E-4   1.716554580076503E-3   1.391823211416223E-3   1.882947560780145E-1   1.367338290040492E-1  
 2.584000000000000E10    7.978764205982919E-3  -8.811863529643799E-2   1.093075998396505E-3   3.604021566780891E-4   1.126402869999479E-3   9.640765737005917E-6   1.461737641871520E-1  -1.647387608204070E-2  
 2.588000000000000E10    1.068492990986320E-2   2.213929374970596E-1   1.497646794438363E-4  -4.432262559254480E-4   2.031488229715787E-4  -2.788195335174022E-4   1.715543709313262E-1  -3.828443681595958E-2  
 2.592000000000000E10   -1.371015043542903E-1   9.530337158230370E-2  -1.185261610124564E-3  -2.307159993780950E-4  -8.451878481195753E-4   6.206259849552304E-6   7.274555975354398E-2  -5.717525056024907E-2  
 2.596000000000000E10    1.193828042077092E-1   3.508093679776644E-3  -1.186771187505522E-3  -9.654155605165338E-5   4.039318341857654E-4  -8.380684758612089E-4   6.801848326351247E-2  -1.123822372769389E-1  
 2.600000000000000E10    1.178201412366822E-1   1.397867802129102E-1   3.558062386145747E-4   8.882028976249724E-4   1.095845316181998E-3   6.233667909480282E-5   6.758156944741291E-2  -2.118483512086213E-2  
 2.604000000000000E10    7.318353036201374E-2  -6.310146088407380E-2   1.529244922170922E-3  -1.210337571660844E-4   5.241662451828890E-4  -1.144268077058126E-3  -2.388496866666464E-2   5.423249911061039E-2  
 2.608000000000000E10    2.869738878982428E-1  -6.227085033489900E-2   6.055859596785863E-4  -1.760747699269995E-3  -5.763739883967231E-4  -1.217579658485018E-3   2.502776120347777E-2   4.444342800939608E-2  
 2.612000000000000E10    1.189376837175197E-1   8.753663421275042E-2  -1.756763834896109E-3  -3.895499126354543E-4  -2.400019163625334E-3   5.189578037015174E-4   7.162730651861601E-2   1.164542645407745E-1  
 2.616000000000000E10   -2.754426127341884E-2  -1.377896876703024E-1  -1.160627591003446E-3   6.125419403546916E-4   4.016855403229327E-5   2.257216481616175E-3   7.041490188991900E-2   9.229649763691313E-2  
 2.620000000000000E10    1.135323670558001E-1  -1.222184591235227E-1   1.078932008882987E-3   1.181380157650486E-3   1.272411450295354E-3   1.477187056816415E-3   1.692735410172977E-1   6.692215991868372E-2  
 2.624000000000000E10   -2.065443473025112E-2   1.806190505628481E-2   4.221876770019464E-4  -1.555608836127864E-4  -4.343275928970061E-5  -5.436264513162700E-4   1.733362574707739E-1   9.848918935380036E-2  
 2.628000000000000E10   -3.351754259664239E-2  -8.928524847173579E-2  -3.003149741890411E-4  -8.098001293764714E-4  -5.599017227956051E-5  -1.374452723464976E-4   1.619270468611145E-1   2.291390977515808E-2  
 2.632000000000000E10    8.084577565967235E-2   4.284386628814407E-2  -1.206332950833046E-3  -1.167932579363895E-3  -2.218366731410482E-3  -8.625767418729722E-4   1.906143256691732E-1  -5.718577988376015E-3  
 2.636000000000000E10   -6.586282223676861E-2   9.747928643443969E-2  -9.975124170400977E-4   9.144125632981508E-4   1.648711691195126E-4   1.761664550400425E-3   9.755061574658090E-2  -3.353058237625632E-3  
 2.640000000000000E10    2.374324043263908E-2  -5.790365772972244E-2   1.326307603347711E-4   1.308802316577294E-3   2.361746578724747E-3   1.061165348681686E-3   5.874011250538994E-2  -6.351213132330427E-2  
 2.644000000000000E10    1.742788430101091E-1   6.991355124964990E-2   1.102706085725187E-3  -4.954914659269700E-4  -3.015980151295424E-6  -1.537827321532320E-3   5.108851439482903E-2  -7.426025930777900E-3  
 2.648000000000000E10    6.934211165344040E-2   7.179356763036227E-2   2.856393829373833E-4  -9.547694931231012E-4   5.963941061410959E-4  -1.057312762257955E-3  -3.704549320861159E-2   3.406775280267751E-2  
 2.652000000000000E10    1.641969217498734E-1  -4.524558029443951E-2  -2.010569015857995E-4   2.685234809856815E-6  -4.340225326192139E-4  -4.442255084358979E-4   4.012248738079979E-3   2.822186093129693E-2  
 2.656000000000000E10    1.335797480130983E-1   7.495867666231211E-2  -8.131437632419406E-4   4.369653348100889E-4   2.616253350760782E-4   3.862174436231887E-4   5.626867480850616E-2   1.255727367641039E-1  
 2.660000000000000E10   -7.103361517504910E-2  -7.367077248087119E-2  -3.004857572383796E-4   5.260659801947277E-4  -1.506371115645500E-3  -3.242222012530628E-5   4.159157089893566E-2   1.365191964228257E-1  
 2.664000000000000E10    1.117398085913215E-1  -1.978482311372153E-1   6.851391579624686E-4   4.489774062094186E-4   5.225158435803880E-4   1.827974375922429E-4   1.325133327872294E-1   1.269664539707198E-1  
 2.668000000000000E10    1.320969400786748E-1   5.571281187275951E-2   6.554613090393174E-4  -9.794276255789640E-4   2.247582485534160E-3  -4.399390577361110E-4   1.844683846227923E-1   1.806096319002666E-1  
 2.672000000000000E10   -9.957636394476002E-2   4.423442714591390E-2  -2.324289492625715E-4  -4.128322805758105E-4  -5.580234593598687E-4  -1.330265398011218E-3   1.803671229352995E-1   1.115048162694288E-1  
