#  HZ   S   RI   R     50.00 
! Rohde & Schwarz ZVA40 4Ports - Version 3.90 - 1145.1110k42 SN: 100403
! Date: 2023-09-26 11:04:25
! Measurement: S12 
! 
 2.300000000000000E10   -1.806521060341929E-4   1.596053037218636E-3  
 2.304000000000000E10    9.946177360015960E-5   1.292885238292749E-4  
 2.308000000000000E10    1.130669181760674E-3   7.224060662035543E-4  
 2.312000000000000E10    2.482410536149341E-4  -3.713718963251695E-4  
 2.316000000000000E10    4.421154881961627E-5  -6.130619323343587E-4  
 2.320000000000000E10   -1.645632046384055E-3  -3.237360742943732E-4  
 2.324000000000000E10    2.434468732885394E-4   4.983232391827331E-5  
 2.328000000000000E10    1.708649797291078E-3   1.809012601372991E-4  
 2.332000000000000E10    1.186945557152622E-3  -3.966708399849997E-4  
 2.336000000000000E10   -1.322654823759380E-4  -3.294642242915374E-4  
 2.340000000000000E10   -1.179747405506929E-3  -2.227142703372921E-4  
 2.344000000000000E10   -4.638672747563039E-4  -4.137747702809106E-4  
 2.348000000000000E10    1.481682836765167E-3   2.283481096839436E-4  
 2.352000000000000E10    9.599911612372440E-4  -5.256321909809342E-4  
 2.356000000000000E10   -7.429494153697517E-4  -1.652747373699931E-4  
 2.360000000000000E10   -2.131849295714625E-3  -1.113119061923722E-4  
 2.364000000000000E10   -6.903046937779896E-4   5.175112604806753E-4  
 2.368000000000000E10    4.103992208091028E-4   6.172647972736787E-4  
 2.372000000000000E10    9.100296015686492E-4  -4.083069170600629E-4  
 2.376000000000000E10   -1.663078151450498E-4  -8.239699341982550E-4  
 2.380000000000000E10   -1.696982365392476E-3  -4.083394695460110E-4  
 2.384000000000000E10   -1.580844440354209E-3   9.251546555015243E-4  
 2.388000000000000E10    1.634209430034461E-3   5.232367488204596E-4  
 2.392000000000000E10    1.716479859333133E-3  -4.226168581862404E-4  
 2.396000000000000E10   -9.153237071010468E-4  -1.102452262502189E-3  
 2.400000000000000E10   -1.307992535909219E-3   3.608090501524145E-4  
 2.404000000000000E10   -6.525210068570273E-4   2.203155579757143E-4  
 2.408000000000000E10    2.773663173922593E-3   1.125324204752835E-3  
 2.412000000000000E10    1.851367167150427E-3  -1.541761538921964E-4  
 2.416000000000000E10   -1.550379009120919E-3  -1.524583977940942E-3  
 2.420000000000000E10   -1.125292023627173E-3  -6.776063909485642E-4  
 2.424000000000000E10    3.249816876144982E-4   9.473355676282931E-5  
 2.428000000000000E10    1.107908592601052E-3   1.026131206138878E-3  
 2.432000000000000E10    9.850430905602454E-4   1.063179897928700E-3  
 2.436000000000000E10   -1.127506010760449E-3  -2.020718356996742E-3  
 2.440000000000000E10   -1.208242060285618E-4  -1.090960488443220E-3  
 2.444000000000000E10    8.104687763258670E-5   1.100705993457375E-3  
 2.448000000000000E10   -1.771488640519512E-4   1.283709551056975E-3  
 2.452000000000000E10    7.161493781636377E-4   2.989043753935708E-4  
 2.456000000000000E10    6.771334693570058E-4  -3.203184884813407E-3  
 2.460000000000000E10    4.794009736227955E-4  -1.120096026816035E-3  
 2.464000000000000E10   -1.283417762817148E-5   2.145919609421308E-3  
 2.468000000000000E10    6.094357929789657E-4   1.383087170248867E-3  
 2.472000000000000E10    1.925586701406020E-4   4.878784068773615E-5  
 2.476000000000000E10    4.509719628962214E-4  -2.138401883101744E-3  
 2.480000000000000E10   -7.254933392833884E-4  -3.641060825446329E-4  
 2.484000000000000E10   -1.252051805932673E-3   1.075598844939467E-3  
 2.488000000000000E10   -2.482515107526458E-4  -1.343418611478845E-4  
 2.492000000000000E10    1.024192613757266E-3  -8.837263235449131E-4  
 2.496000000000000E10    1.000317074071768E-3  -5.570341243654833E-4  
 2.500000000000000E10   -4.508600966201400E-4  -7.460750079120774E-4  
 2.504000000000000E10   -1.336669325034809E-3   4.084976193046657E-4  
 2.508000000000000E10   -2.190882809763587E-4   9.716969353197803E-4  
 2.512000000000000E10    2.309884711372284E-3   1.008597007361806E-3  
 2.516000000000000E10    4.789286966344896E-4  -2.564851128077809E-4  
 2.520000000000000E10   -7.425910522225627E-4  -1.034690801408460E-3  
 2.524000000000000E10   -1.534208227870285E-3  -2.210651318234734E-4  
 2.528000000000000E10    6.122400932293595E-4   1.008001203453157E-3  
 2.532000000000000E10    1.195423852272200E-3   1.353043941275995E-3  
 2.536000000000000E10    7.191487300791769E-4  -1.506133857524446E-3  
 2.540000000000000E10   -2.502171908643950E-4  -6.781319904716660E-4  
 2.544000000000000E10   -8.958088080407894E-4  -5.259835782717688E-4  
 2.548000000000000E10    6.022217001669327E-4   1.326836471439436E-3  
 2.552000000000000E10    7.555830051501840E-4   5.406576151103205E-4  
 2.556000000000000E10    2.000186230005916E-3  -1.810288764651934E-3  
 2.560000000000000E10   -1.585839563378886E-4  -5.171699407471252E-4  
 2.564000000000000E10   -1.015220862102424E-3   7.280248540982865E-4  
 2.568000000000000E10   -1.484357227667895E-3   1.151748292764484E-3  
 2.572000000000000E10    1.336218311978365E-3   4.312273080837049E-4  
 2.576000000000000E10    8.585454695066450E-4  -6.408645917662789E-4  
 2.580000000000000E10   -3.139020124004953E-4  -8.041824690598128E-4  
 2.584000000000000E10   -8.435358503393473E-4   6.825042774993394E-4  
 2.588000000000000E10    4.807320650101557E-4   7.977376725482061E-4  
 2.592000000000000E10    9.118402751536314E-4   6.556311279698821E-4  
 2.596000000000000E10    9.168951383293515E-4  -4.959396648988681E-4  
 2.600000000000000E10    3.731173534039253E-4  -1.040407902657040E-3  
 2.604000000000000E10   -1.054727770841764E-3   1.666703542957873E-4  
 2.608000000000000E10   -1.176383310059301E-3   4.147092790859390E-4  
 2.612000000000000E10    1.895712398684722E-4   4.492384955608692E-4  
 2.616000000000000E10    5.425386947475304E-4   4.747486011380322E-4  
 2.620000000000000E10   -3.304599511898409E-4  -1.199997818256418E-3  
 2.624000000000000E10   -3.823857196766421E-4  -4.461178867865147E-4  
 2.628000000000000E10   -4.567694157655121E-4   9.384519193087859E-4  
 2.632000000000000E10   -5.613613693238757E-4   2.423230084822419E-3  
 2.636000000000000E10    8.857350929659670E-4  -2.313083738047392E-4  
 2.640000000000000E10    1.024950164807612E-3  -1.693593996941132E-3  
 2.644000000000000E10   -9.296737287491439E-4  -1.014982951510683E-3  
 2.648000000000000E10   -2.035922689254558E-3   9.760524459233146E-4  
 2.652000000000000E10    8.609095550403339E-4   1.943966696388738E-3  
 2.656000000000000E10    1.721279967307856E-3  -8.597322992170162E-4  
 2.660000000000000E10    1.111609703007974E-3  -1.569697762378494E-3  
 2.664000000000000E10   -1.163169537241666E-3  -4.609477279356534E-4  
 2.668000000000000E10   -1.304561546769133E-3   8.998737331082771E-4  
 2.672000000000000E10   -2.173485926624002E-4   6.658184731237977E-4  
 2.676000000000000E10    1.410263844806820E-3   5.994568582682550E-4  
 2.680000000000000E10    4.485224486693442E-4  -2.834459363151989E-4  
 2.684000000000000E10   -9.539478959360296E-4  -3.924014747550795E-4  
 2.688000000000000E10   -6.210108043826440E-4   4.599001528474328E-4  
 2.692000000000000E10    1.037298584899006E-3   1.063272461468344E-3  
 2.696000000000000E10    2.242295832880241E-3  -1.056920429876365E-3  
 2.700000000000000E10    7.380421389063484E-4   1.782383452349080E-4  
