#  HZ   S   RI   R     50.00 
! Rohde & Schwarz ZVA40 4Ports - Version 3.90 - 1145.1110k42 SN: 100403
! Date: 2023-09-26 11:07:04
! Measurement: S12 
! 
 2.300000000000000E10   -1.046256846569479E-3  -8.430156292393806E-4  
 2.304000000000000E10    4.438173490948977E-5   3.257576287395788E-4  
 2.308000000000000E10    9.420004995837809E-4   1.030690858528018E-3  
 2.312000000000000E10    6.455198105089368E-4  -5.447021029368044E-4  
 2.316000000000000E10    2.636209390275181E-4  -1.143082752577961E-3  
 2.320000000000000E10    9.219713061861697E-5  -4.508100448772311E-4  
 2.324000000000000E10   -1.239200649457051E-5   5.938207021728160E-4  
 2.328000000000000E10   -3.256884509240045E-4   1.288632105302066E-3  
 2.332000000000000E10    6.021464744657279E-4  -4.113711582385005E-4  
 2.336000000000000E10    2.486694071590901E-4  -1.815075645022095E-3  
 2.340000000000000E10   -6.870176318772139E-4  -9.707799589633943E-4  
 2.344000000000000E10   -3.199782060962171E-4   7.755958170816306E-4  
 2.348000000000000E10   -2.260604456111396E-4   8.586680886894466E-4  
 2.352000000000000E10    9.401730595156552E-4   3.478425741475076E-4  
 2.356000000000000E10    5.831450062841178E-4  -1.339871880777181E-3  
 2.360000000000000E10   -5.952267875671388E-4  -5.211720267869534E-4  
 2.364000000000000E10   -6.531914859488608E-4   8.833954742625356E-4  
 2.368000000000000E10    7.425695117562839E-7   9.545416669026019E-4  
 2.372000000000000E10    4.915390517190100E-4   5.578435373883695E-4  
 2.376000000000000E10    8.346002695262435E-4  -1.052883467428386E-3  
 2.380000000000000E10   -3.386203083177098E-4  -2.610417471774854E-4  
 2.384000000000000E10   -5.234804048873486E-4  -1.114574731896428E-4  
 2.388000000000000E10    3.864489544301761E-4   8.290864330418410E-4  
 2.392000000000000E10    3.204739657696337E-4   1.003712690114975E-3  
 2.396000000000000E10    1.753833831809461E-3  -2.083958005299793E-4  
 2.400000000000000E10   -3.935812365133317E-4  -1.960318333394826E-3  
 2.404000000000000E10   -1.255932012095116E-3   7.833165125735109E-5  
 2.408000000000000E10   -4.459217491578311E-4   1.627581436101639E-3  
 2.412000000000000E10    1.548457819879055E-3  -1.242268399335471E-6  
 2.416000000000000E10    3.716852079853416E-4  -1.015546771619469E-3  
 2.420000000000000E10   -4.211290101483465E-4  -1.862726657405496E-3  
 2.424000000000000E10   -2.002719632148743E-3   4.142698427736760E-4  
 2.428000000000000E10   -8.566893582567575E-4   1.497670176833868E-3  
 2.432000000000000E10    1.362476293340326E-3  -2.908595253080132E-4  
 2.436000000000000E10    1.535767706677318E-3  -1.304304932970554E-3  
 2.440000000000000E10   -1.619479083465412E-4   6.996176547855142E-4  
 2.444000000000000E10   -1.448272472560406E-3   4.766930422224106E-4  
 2.448000000000000E10   -8.216234880387785E-4  -2.551228852299974E-4  
 2.452000000000000E10    6.631826084228235E-4   3.225977823622526E-4  
 2.456000000000000E10    1.983461151003838E-3   4.433350172964858E-4  
 2.460000000000000E10   -1.116939723603428E-3  -1.272432610392571E-4  
 2.464000000000000E10   -1.821026876568795E-3  -9.386093757972123E-4  
 2.468000000000000E10   -1.357210977477954E-4   3.258151617646211E-5  
 2.472000000000000E10    1.414828074123711E-3  -3.018630682099611E-4  
 2.476000000000000E10    1.193129096686840E-3   2.687655146867037E-4  
 2.480000000000000E10   -1.090273200232536E-3  -1.303951284028590E-3  
 2.484000000000000E10   -1.632484304189683E-3  -7.611248953742907E-4  
 2.488000000000000E10    1.984521173983813E-4   9.091617728006097E-4  
 2.492000000000000E10    1.532711860023439E-3   1.230461407791823E-3  
 2.496000000000000E10    7.954788024276498E-4   1.928006318807603E-4  
 2.500000000000000E10   -2.727062524929644E-4  -1.547703772351146E-3  
 2.504000000000000E10   -6.150190531760458E-4  -7.910467682555318E-4  
 2.508000000000000E10    4.016298007871956E-4   1.649921776590869E-3  
 2.512000000000000E10    9.014648754559458E-4   1.393366680657492E-3  
 2.516000000000000E10   -2.051477836189443E-4  -3.616097502633930E-4  
 2.520000000000000E10    5.360075198858977E-4  -1.470213531084359E-3  
 2.524000000000000E10   -2.898522456921638E-4  -2.344998967498541E-4  
 2.528000000000000E10   -4.518304284624756E-4   2.128043885812164E-3  
 2.532000000000000E10    4.538755011372268E-4   6.627907471247019E-4  
 2.536000000000000E10    1.759691685631872E-3  -2.796881601959468E-4  
 2.540000000000000E10   -4.587454181499780E-4  -1.133501667097211E-3  
 2.544000000000000E10   -6.458579072952271E-4  -1.455751299716533E-3  
 2.548000000000000E10   -1.152589432321489E-3   7.646663227081300E-4  
 2.552000000000000E10    9.000569284707311E-4   3.702029728144409E-4  
 2.556000000000000E10    1.336839259464294E-3   5.921553913056852E-4  
 2.560000000000000E10   -1.894803289175034E-4  -1.409209076046944E-3  
 2.564000000000000E10   -1.517277671426535E-3  -2.274144438002259E-4  
 2.568000000000000E10   -9.813344896733762E-4   3.432528904490173E-4  
 2.572000000000000E10    9.598305132687094E-4   1.308065670240671E-3  
 2.576000000000000E10    1.110224407717586E-3   1.341280047595501E-4  
 2.580000000000000E10   -3.746979191116990E-4  -9.131781188324095E-4  
 2.584000000000000E10   -1.012469114705921E-3  -2.009327213659883E-3  
 2.588000000000000E10   -5.001366663090884E-4   1.135446889055893E-3  
 2.592000000000000E10    4.130270288400355E-4   1.314505565661937E-3  
 2.596000000000000E10    1.395971410375089E-3   2.890433665513993E-4  
 2.600000000000000E10   -1.004414098005742E-3  -1.329295919612050E-3  
 2.604000000000000E10   -4.634039509855211E-4  -1.055071968413890E-3  
 2.608000000000000E10   -1.714470724090934E-4   5.771607860997319E-4  
 2.612000000000000E10   -1.929914335757494E-4   1.493498386330903E-3  
 2.616000000000000E10    6.213997730659324E-4   1.005334823764861E-4  
 2.620000000000000E10    2.702713657170566E-6  -1.085608131818474E-3  
 2.624000000000000E10   -3.730702932775021E-4  -1.514679564923048E-3  
 2.628000000000000E10   -6.050551443994046E-4   8.448515726178886E-4  
 2.632000000000000E10   -7.942208258919421E-4   7.900590156838300E-4  
 2.636000000000000E10    1.476357747949660E-3  -9.332442719340327E-4  
 2.640000000000000E10    1.148858906667680E-3  -3.464517732020467E-4  
 2.644000000000000E10   -2.791438865615056E-4  -4.819518076851966E-4  
 2.648000000000000E10   -2.001202055007220E-3   5.767293376103044E-4  
 2.652000000000000E10   -2.904471196830273E-4   3.797482886714862E-4  
 2.656000000000000E10    1.405287166215480E-3   9.490054032951597E-4  
 2.660000000000000E10    3.849480983018876E-4  -8.122284923419358E-4  
 2.664000000000000E10    1.215504975914955E-4  -1.072366655860097E-3  
 2.668000000000000E10   -2.023316669657827E-3   7.273873778805144E-5  
 2.672000000000000E10    2.074571495763958E-4   1.188969847422093E-3  
 2.676000000000000E10    1.040727470904589E-3   4.295624100789428E-4  
 2.680000000000000E10   -1.012373152747749E-5  -4.269387618452311E-4  
 2.684000000000000E10    3.787356572616846E-4  -1.512587364427746E-3  
 2.688000000000000E10   -4.814979164926335E-4  -2.988841171041132E-4  
 2.692000000000000E10   -5.661571318060161E-4   8.855719175562265E-4  
 2.696000000000000E10    1.089447609093040E-3   1.007680639620871E-3  
 2.700000000000000E10    1.130997350609396E-4  -2.319515208065510E-3  
