#  HZ   S   RI   R     50.00 
! Rohde & Schwarz ZVA40 4Ports - Version 3.90 - 1145.1110k42 SN: 100403
! Date: 2023-09-26 11:07:59
! Measurement: S12 
! 
 2.300000000000000E10   -8.977460034657271E-5  -4.527464202605188E-4  
 2.304000000000000E10   -1.784053775481880E-3   1.192648635059595E-3  
 2.308000000000000E10    4.806258392054589E-4   1.320178966224194E-3  
 2.312000000000000E10    1.470811912789941E-3  -1.341589664854110E-3  
 2.316000000000000E10    3.238532486837358E-4  -1.408962731622160E-3  
 2.320000000000000E10   -9.327988345175983E-4   4.343171395361424E-4  
 2.324000000000000E10   -1.121555509325117E-3   4.292908307164909E-4  
 2.328000000000000E10    6.002803090959788E-4   1.046759357675910E-4  
 2.332000000000000E10    2.127248860523105E-3  -3.829622361343354E-4  
 2.336000000000000E10    5.646754514891654E-4  -1.610189710161649E-4  
 2.340000000000000E10   -1.645363206788898E-3  -6.399726230651140E-4  
 2.344000000000000E10   -1.569849026948214E-3   2.071322929114104E-4  
 2.348000000000000E10    6.894764571450653E-4   3.458313924726099E-4  
 2.352000000000000E10    1.077677381224931E-3  -8.402329508215192E-4  
 2.356000000000000E10   -3.324343059211970E-4  -9.752645364962520E-4  
 2.360000000000000E10   -2.052734253741801E-3  -3.462635003495962E-4  
 2.364000000000000E10   -1.288735930901021E-3   9.456382160075010E-4  
 2.368000000000000E10    4.331252522300930E-4   1.122063144110144E-3  
 2.372000000000000E10    1.484750896319747E-3   1.358472266583704E-4  
 2.376000000000000E10   -3.183358449023217E-5  -6.001364097930491E-4  
 2.380000000000000E10   -1.653255645744503E-3  -9.381193095818162E-4  
 2.384000000000000E10   -5.110170180443675E-4   1.193009908497334E-3  
 2.388000000000000E10    8.299259935505689E-4   1.759233405813575E-4  
 2.392000000000000E10    5.558701047673821E-4  -6.710154727799820E-4  
 2.396000000000000E10    4.827123048715294E-4  -2.981017036829145E-4  
 2.400000000000000E10    2.353769502602518E-4  -1.548630974953994E-4  
 2.404000000000000E10   -1.129844762943685E-3   4.075281953439118E-4  
 2.408000000000000E10    7.355419054161759E-4   9.154786584898831E-4  
 2.412000000000000E10    1.589409299567342E-3   2.125765466596932E-4  
 2.416000000000000E10   -3.139536324888468E-4  -1.298179979436099E-4  
 2.420000000000000E10   -1.289979588706047E-3  -1.606242591515184E-3  
 2.424000000000000E10   -1.777865322493017E-3  -1.067761129327119E-3  
 2.428000000000000E10    2.195064157131129E-4   1.554528753086925E-3  
 2.432000000000000E10    2.019662037305534E-3   9.806940617039799E-4  
 2.436000000000000E10    7.837531195022166E-4  -4.426532093435526E-4  
 2.440000000000000E10   -9.755804412066940E-4  -1.536044156923891E-3  
 2.444000000000000E10   -6.218287210911513E-4   3.655751450918616E-4  
 2.448000000000000E10    5.767025871668012E-4   1.356681857258082E-3  
 2.452000000000000E10    1.961362396180630E-3   3.141223959159106E-4  
 2.456000000000000E10   -7.718926165252928E-4  -2.302377981878817E-3  
 2.460000000000000E10   -3.937201924622060E-4  -1.934764090925455E-3  
 2.464000000000000E10    9.105837454636004E-4   2.077077660337091E-3  
 2.468000000000000E10   -2.294490264728665E-4   1.573460248671472E-3  
 2.472000000000000E10   -5.457846978679300E-4  -2.362340772524476E-4  
 2.476000000000000E10   -6.810233679367232E-4  -1.675658459123225E-3  
 2.480000000000000E10   -3.489287376403810E-4  -9.171472141519192E-4  
 2.484000000000000E10   -1.451834823004902E-3   1.015520413313061E-3  
 2.488000000000000E10   -8.140957491472364E-4   2.413080821931363E-3  
 2.492000000000000E10    1.743917895480992E-4  -6.889823794364931E-4  
 2.496000000000000E10    1.104505264107138E-3  -2.025670478492976E-3  
 2.500000000000000E10   -7.430978070944548E-4  -2.202039849013091E-4  
 2.504000000000000E10   -7.436210529878737E-4   2.389059797301889E-3  
 2.508000000000000E10    3.287443303503096E-4   1.625227328948677E-3  
 2.512000000000000E10    1.882863897085190E-3  -4.887168756220491E-4  
 2.516000000000000E10    5.682526333024726E-4  -3.546106043271721E-4  
 2.520000000000000E10   -9.175073250196875E-4   1.808448213501834E-4  
 2.524000000000000E10   -7.147689314559102E-4   4.254128903383390E-4  
 2.528000000000000E10   -4.374060760717839E-4   7.426145693287255E-4  
 2.532000000000000E10    1.271901274286211E-3   9.675145114772024E-4  
 2.536000000000000E10    5.934344341512770E-4  -4.365350863430650E-4  
 2.540000000000000E10   -5.800901727750898E-4  -1.162664335034788E-3  
 2.544000000000000E10   -6.152750043198468E-4   4.909705109894277E-5  
 2.548000000000000E10   -4.310429941862822E-4   1.033264151215553E-3  
 2.552000000000000E10    1.692917626816779E-3   1.482527325255797E-3  
 2.556000000000000E10    2.341675468720497E-4  -1.184079810976982E-3  
 2.560000000000000E10   -3.582224077545107E-4  -6.524691034108400E-4  
 2.564000000000000E10   -8.369055425748232E-4   4.788095328956844E-4  
 2.568000000000000E10   -4.632725568488240E-4   1.442379325255752E-3  
 2.572000000000000E10   -3.604042487218977E-4   1.635390827432272E-5  
 2.576000000000000E10    1.093000049935654E-3  -1.489478358998895E-3  
 2.580000000000000E10    5.157371424254962E-4  -2.070069910958410E-4  
 2.584000000000000E10   -1.689371736068279E-3   5.771819656714798E-4  
 2.588000000000000E10   -1.111771222017706E-3   1.059129838971421E-3  
 2.592000000000000E10    8.905194388702513E-4  -3.183879948686809E-4  
 2.596000000000000E10    1.297612319979817E-3  -6.598942017182710E-4  
 2.600000000000000E10    8.193552237004043E-4   1.278807690367104E-4  
 2.604000000000000E10   -1.368416881375015E-3   1.365983142098412E-3  
 2.608000000000000E10   -3.273063206113876E-4   1.388711568340659E-3  
 2.612000000000000E10    8.208592332899572E-4  -2.827601590659470E-4  
 2.616000000000000E10    1.229377736710012E-3  -2.894232184160501E-4  
 2.620000000000000E10   -3.580905389506371E-4  -4.215998478233814E-4  
 2.624000000000000E10   -1.493968962132931E-3   1.396896732226014E-3  
 2.628000000000000E10    9.260384384542706E-4   2.420769603922963E-4  
 2.632000000000000E10    1.661615810170770E-3   1.781128982082011E-4  
 2.636000000000000E10    7.527652336750180E-4   2.772308183833957E-4  
 2.640000000000000E10   -2.029585342481733E-3   1.249194582924247E-5  
 2.644000000000000E10   -1.178875188156963E-3   1.392354937270287E-5  
 2.648000000000000E10    1.138111230358482E-3   5.874890573446466E-4  
 2.652000000000000E10    1.474884080141783E-3   4.863353171385825E-4  
 2.656000000000000E10    1.250774364452810E-4  -2.160464655607939E-4  
 2.660000000000000E10   -2.752940288628452E-4  -2.198866127431393E-3  
 2.664000000000000E10   -1.057248092070222E-3  -2.198173583950848E-4  
 2.668000000000000E10   -1.072927004843951E-3   1.230991373769939E-3  
 2.672000000000000E10    2.456040766090155E-4   9.933308287523688E-4  
 2.676000000000000E10    7.378487536683679E-4  -7.704614942893388E-4  
 2.680000000000000E10   -3.316889642737807E-4  -1.452775883674622E-3  
 2.684000000000000E10   -1.103072034753859E-3   2.068029574817047E-4  
 2.688000000000000E10   -1.941257197409868E-4   1.268428482487798E-3  
 2.692000000000000E10    6.026955030334649E-4   7.462477141991259E-4  
 2.696000000000000E10    8.822753786109389E-4  -2.240936462010723E-4  
 2.700000000000000E10    3.518514815485105E-4  -1.049457570351660E-3  
