#  HZ   S   RI   R     50.00 
! Rohde & Schwarz ZVA40 4Ports - Version 3.90 - 1145.1110k42 SN: 100403
! Date: 2023-09-26 11:08:48
! Measurement: S12 
! 
 2.300000000000000E10    5.306132426019758E-4   8.494556806981566E-5  
 2.304000000000000E10    7.331346387043597E-4  -1.080167447682470E-4  
 2.308000000000000E10    4.588603628799321E-4   3.056869165506215E-4  
 2.312000000000000E10   -1.141318764165044E-3  -6.811448558233680E-4  
 2.316000000000000E10   -5.723123623058201E-4  -6.785875025205316E-4  
 2.320000000000000E10    1.236608937755227E-3   9.465844205580653E-4  
 2.324000000000000E10    1.901475495100022E-3   7.535324339696672E-5  
 2.328000000000000E10   -2.800612863153219E-4  -2.661689043976367E-4  
 2.332000000000000E10   -7.577764020301402E-4  -6.740772053599360E-4  
 2.336000000000000E10   -4.167974432930353E-5   7.975191529840232E-4  
 2.340000000000000E10    1.044414597749710E-3   1.556493878737092E-3  
 2.344000000000000E10    1.359569133445621E-3  -7.541835568845272E-5  
 2.348000000000000E10   -9.704828161746265E-4  -1.292482579685748E-3  
 2.352000000000000E10   -1.720511513203383E-3  -1.168733981251717E-3  
 2.356000000000000E10   -2.769613463431597E-4   9.290875034639614E-5  
 2.360000000000000E10    5.717835979885422E-4   7.899981476366521E-4  
 2.364000000000000E10    8.440418407320978E-4   5.089652423281223E-4  
 2.368000000000000E10   -3.863142383284867E-4  -9.769454768858853E-4  
 2.372000000000000E10   -1.128630759008229E-3  -4.481682844460011E-4  
 2.376000000000000E10   -8.510635144077243E-4   9.852539223618806E-4  
 2.380000000000000E10    7.722948722541334E-4   9.375631797127427E-4  
 2.384000000000000E10    5.702079550363124E-4  -8.538480156566951E-4  
 2.388000000000000E10   -6.203933274373414E-4  -1.797382559254766E-3  
 2.392000000000000E10   -1.374396679177881E-3   1.093968239962124E-4  
 2.396000000000000E10    6.511951191350818E-4   1.496161966025830E-3  
 2.400000000000000E10    2.075479492917658E-3   1.037367176450789E-3  
 2.404000000000000E10    1.003549348562956E-3   1.014115576283075E-4  
 2.408000000000000E10   -1.413415432209149E-3  -5.566911210305990E-4  
 2.412000000000000E10   -1.529848854988814E-3  -5.563554028747603E-4  
 2.416000000000000E10    1.013994335383177E-3   2.518319021910438E-5  
 2.420000000000000E10    9.791756151244046E-4   5.197289930656567E-5  
 2.424000000000000E10   -3.384833827149124E-4  -9.959047746378930E-4  
 2.428000000000000E10   -4.720526150427760E-4  -9.006887521594765E-4  
 2.432000000000000E10   -2.843217789195478E-4  -1.154825922101736E-3  
 2.436000000000000E10    3.377122323028744E-4   1.742058913782239E-3  
 2.440000000000000E10    8.280025255866353E-4   6.114748986437917E-4  
 2.444000000000000E10    5.247738314792514E-4  -5.181040676310659E-4  
 2.448000000000000E10   -5.458723623043626E-4  -9.569496555253865E-4  
 2.452000000000000E10   -1.504410905879922E-4   1.013498168438673E-3  
 2.456000000000000E10   -6.809676356613637E-4   1.908647041767836E-3  
 2.460000000000000E10    2.021789852064104E-4  -7.732700172346087E-4  
 2.464000000000000E10    1.324160458217375E-3  -1.826671938970685E-3  
 2.468000000000000E10    5.630487713031472E-4  -1.688068043638487E-3  
 2.472000000000000E10   -1.147369125392288E-3   1.625809269305319E-3  
 2.476000000000000E10   -4.758916435763241E-4   1.220383158326149E-3  
 2.480000000000000E10    7.223852697992699E-4   1.858980866149068E-4  
 2.484000000000000E10    5.421331385616215E-4  -5.680237215012313E-4  
 2.488000000000000E10    9.072173394262791E-4  -1.028141960129142E-3  
 2.492000000000000E10   -1.743947368115187E-3  -1.239794308505952E-3  
 2.496000000000000E10   -1.462867781147361E-3  -1.275082774460315E-4  
 2.500000000000000E10    5.811015083454550E-4  -2.258283234667034E-4  
 2.504000000000000E10    2.217963007092476E-3  -3.085040088742972E-4  
 2.508000000000000E10   -1.077446480095387E-3  -1.079050352703780E-3  
 2.512000000000000E10   -2.175798369944096E-3   1.427251959871501E-3  
 2.516000000000000E10    3.778736825101078E-4   1.413317975401879E-3  
 2.520000000000000E10    2.224307736009360E-3   8.134545498527588E-4  
 2.524000000000000E10   -3.738398700952526E-5  -6.360682345926762E-4  
 2.528000000000000E10   -8.148965178057554E-4  -1.269098261371255E-3  
 2.532000000000000E10   -9.054747780784965E-4  -4.983115755021573E-4  
 2.536000000000000E10    8.837970369495453E-4   6.180203987285495E-4  
 2.540000000000000E10    1.426453977450729E-3   1.232099856808782E-3  
 2.544000000000000E10    4.709968436509377E-5  -8.275048272218556E-4  
 2.548000000000000E10   -3.961358468979598E-4  -9.430976606905461E-4  
 2.552000000000000E10    1.072545381262899E-4   1.361462261993435E-5  
 2.556000000000000E10    5.055050020106136E-4   1.076157155819237E-3  
 2.560000000000000E10    7.755116442684085E-4   1.029118772223592E-3  
 2.564000000000000E10    8.064090669155121E-4  -4.244529169052839E-4  
 2.568000000000000E10   -4.292141660582274E-4  -6.890372179448606E-4  
 2.572000000000000E10   -6.664000188931823E-4   7.894061475526542E-4  
 2.576000000000000E10   -8.069857148453594E-4   6.109962482005361E-5  
 2.580000000000000E10    1.624327692762018E-3   1.910983273992316E-4  
 2.584000000000000E10    4.126352362334728E-4  -9.484200251288713E-4  
 2.588000000000000E10   -1.254626099951565E-3  -8.492583123967052E-4  
 2.592000000000000E10   -7.190144948195668E-4  -8.779783984646200E-5  
 2.596000000000000E10    4.900368984788656E-4   4.375997859984637E-4  
 2.600000000000000E10    1.868426862917841E-3   1.727192858699709E-4  
 2.604000000000000E10    5.960589745081964E-5  -1.092378023825586E-3  
 2.608000000000000E10   -1.268433871120215E-3  -3.026617168216035E-4  
 2.612000000000000E10   -1.781404080707580E-3  -1.043287541717290E-4  
 2.616000000000000E10   -1.369496105238795E-4   8.363081552088262E-4  
 2.620000000000000E10    9.735133331269027E-4   1.859271978773177E-3  
 2.624000000000000E10    3.706902843900026E-4  -2.894796087988653E-4  
 2.628000000000000E10   -1.168303485028446E-3  -7.105156430043281E-4  
 2.632000000000000E10   -1.121748043969274E-3   1.556349234655500E-4  
 2.636000000000000E10    6.169806423014962E-4   2.246182192862034E-3  
 2.640000000000000E10    1.575934413494543E-3   7.900599172338846E-4  
 2.644000000000000E10    8.687702259048820E-4  -5.232063515693882E-4  
 2.648000000000000E10   -3.584626389667394E-4  -1.753206845372915E-4  
 2.652000000000000E10   -1.011931544635445E-4  -1.936876227613539E-4  
 2.656000000000000E10   -6.267602052539579E-5   1.968312807194889E-3  
 2.660000000000000E10    1.460416648164392E-3  -1.291639765957371E-4  
 2.664000000000000E10    9.212232321500779E-4  -1.458858889155090E-3  
 2.668000000000000E10   -1.294767392985523E-3  -1.381438514590263E-3  
 2.672000000000000E10   -1.251520647760481E-3   7.671486027538778E-4  
 2.676000000000000E10    2.049084297381341E-4   4.382702578324825E-4  
 2.680000000000000E10    2.336949403397739E-4   2.610828031785787E-4  
 2.684000000000000E10    9.740890011191369E-4  -1.084539468167349E-4  
 2.688000000000000E10    3.114243004005402E-4  -1.021068138442934E-3  
 2.692000000000000E10   -2.138640903308988E-3   3.961881679948421E-4  
 2.696000000000000E10   -6.148638756712897E-6   1.715271914005280E-3  
 2.700000000000000E10    1.199758945778012E-3   3.411554326303304E-4  
