#  HZ   S   RI   R     50.00 
! Rohde & Schwarz ZVA40 4Ports - Version 3.90 - 1145.1110k42 SN: 100403
! Date: 2023-09-26 11:09:58
! Measurement: S12 
! 
 2.300000000000000E10    7.759037181721629E-4   6.724582503885033E-5  
 2.304000000000000E10   -7.677580686661603E-4  -1.227036318784654E-3  
 2.308000000000000E10   -4.561368766519801E-4  -7.956354778341950E-4  
 2.312000000000000E10   -6.036014994572103E-4   1.208574456376136E-3  
 2.316000000000000E10    1.230832634773106E-4   7.513949553602935E-4  
 2.320000000000000E10    5.601499625911006E-5  -4.034358223599196E-4  
 2.324000000000000E10    1.229206126242876E-4  -1.346780257707537E-3  
 2.328000000000000E10    3.311310200445355E-4   1.333745850461722E-4  
 2.332000000000000E10    6.086760842214527E-4   6.516627849857510E-4  
 2.336000000000000E10   -4.843990492517503E-4   7.531361664068701E-4  
 2.340000000000000E10    3.864434298969806E-4  -3.055635644026846E-4  
 2.344000000000000E10    4.146785590252282E-4  -1.166900215292573E-3  
 2.348000000000000E10   -1.260926457699836E-3  -3.962961105535925E-4  
 2.352000000000000E10   -8.569704850411419E-4   1.206321107261479E-3  
 2.356000000000000E10    3.997665681123734E-4   3.862924663190545E-4  
 2.360000000000000E10    8.821497130778433E-4   6.696881280409173E-5  
 2.364000000000000E10    5.500121965514870E-4  -4.683602811783553E-4  
 2.368000000000000E10   -1.973531898197532E-4  -1.885443901476451E-4  
 2.372000000000000E10   -6.257021476060898E-4   6.588982937327029E-4  
 2.376000000000000E10    1.200960709154234E-4   7.958523807273062E-4  
 2.380000000000000E10    2.361271880856158E-4  -9.480087595099585E-5  
 2.384000000000000E10    2.766361973008515E-4  -8.677641398118438E-4  
 2.388000000000000E10   -1.421476720907688E-3  -4.708493031453902E-4  
 2.392000000000000E10   -5.551417313827576E-4   4.164904870078714E-4  
 2.396000000000000E10    6.043757172348352E-4   7.253371659056843E-4  
 2.400000000000000E10    1.422164044940174E-3  -3.096302070598305E-4  
 2.404000000000000E10    2.524126227672400E-4  -9.934458066020908E-4  
 2.408000000000000E10   -4.644125029388352E-4  -1.200675363614708E-3  
 2.412000000000000E10   -1.113938114553904E-3   1.883957697778643E-3  
 2.416000000000000E10    8.450952590012552E-4   1.159968224540949E-3  
 2.420000000000000E10    2.176782536692024E-3  -1.421624478145242E-3  
 2.424000000000000E10   -1.300290653457046E-3  -2.309507732793093E-3  
 2.428000000000000E10   -1.418001422290206E-3   2.145484428595426E-4  
 2.432000000000000E10   -6.140753367330229E-4   6.235986149944361E-5  
 2.436000000000000E10    1.281199092163369E-3  -1.624240398764610E-5  
 2.440000000000000E10    1.839508182259798E-3  -5.901327979803086E-4  
 2.444000000000000E10    3.103910559472442E-4  -4.260512055094541E-4  
 2.448000000000000E10   -2.409234193282426E-3   7.614937773558499E-4  
 2.452000000000000E10   -8.650604462417962E-4  -2.248650569280982E-4  
 2.456000000000000E10    1.668004278168586E-3   3.785317888849973E-4  
 2.460000000000000E10    1.065193462081552E-3  -6.675652775142361E-5  
 2.464000000000000E10   -1.321696206296683E-3  -6.585206418475509E-4  
 2.468000000000000E10   -1.684120018550456E-3  -5.940459664839508E-4  
 2.472000000000000E10    4.360808226197959E-4   5.771635527195037E-4  
 2.476000000000000E10    1.731121773967743E-3   8.400740669076147E-4  
 2.480000000000000E10    8.097669145524535E-5   5.509753310486676E-4  
 2.484000000000000E10   -1.271172267440856E-3  -8.105171075633171E-4  
 2.488000000000000E10   -4.868670982078837E-4  -1.746335154461115E-4  
 2.492000000000000E10    9.776221408064293E-4   1.628985171558261E-3  
 2.496000000000000E10    7.372463614244016E-4   1.130743792024255E-3  
 2.500000000000000E10   -8.469795404303075E-4  -1.440680054645539E-3  
 2.504000000000000E10    5.533307466242458E-5  -9.753241457891467E-4  
 2.508000000000000E10   -3.873139867186547E-4   6.059041782602668E-4  
 2.512000000000000E10    1.346184200573713E-3   1.780540058858097E-3  
 2.516000000000000E10   -1.220224795755371E-4   1.243887484645546E-3  
 2.520000000000000E10    3.098775193911978E-4  -1.288903689450324E-3  
 2.524000000000000E10   -1.899833440572026E-5  -5.616177810007336E-4  
 2.528000000000000E10   -7.263174460104109E-4  -2.463352175948770E-4  
 2.532000000000000E10   -1.707917041018605E-4   1.171722276963890E-3  
 2.536000000000000E10    9.320247779799999E-4   6.328922035641411E-4  
 2.540000000000000E10    6.382669030664863E-4  -9.156949508336189E-4  
 2.544000000000000E10   -1.630786792042703E-3  -1.021469848018885E-3  
 2.548000000000000E10   -7.796870966392756E-4   4.538874830052257E-5  
 2.552000000000000E10    6.072557368901373E-4   1.316928230513781E-3  
 2.556000000000000E10    2.028086215149910E-3  -2.127215920576453E-4  
 2.560000000000000E10   -5.251913196504118E-4   6.305961981281646E-5  
 2.564000000000000E10   -9.922050482033195E-4  -5.952792843383553E-4  
 2.568000000000000E10   -2.437997484933213E-4   1.076572512037605E-3  
 2.572000000000000E10   -3.124752389967438E-5   4.794333324079216E-4  
 2.576000000000000E10    1.573850069707334E-3   1.204113622793257E-3  
 2.580000000000000E10   -4.429373252501992E-4  -1.387546159096957E-3  
 2.584000000000000E10   -8.446775149812552E-4  -1.285927196558926E-3  
 2.588000000000000E10   -8.817522906866672E-4   1.993143300685288E-4  
 2.592000000000000E10    7.386024298946561E-4   1.719414839407206E-3  
 2.596000000000000E10    1.563249797416926E-3   1.166590589934588E-4  
 2.600000000000000E10    6.167604002562912E-4  -2.128297863625288E-3  
 2.604000000000000E10   -8.142563989600542E-4   6.295117345058919E-4  
 2.608000000000000E10   -3.943260552468898E-4   1.372398605840207E-3  
 2.612000000000000E10   -1.457821666169912E-4   8.682772821870448E-4  
 2.616000000000000E10    5.625351403920353E-4  -2.919149684640765E-4  
 2.620000000000000E10    4.672029082888366E-4  -1.860657421520949E-3  
 2.624000000000000E10   -5.977295042246586E-5   4.098975943088538E-5  
 2.628000000000000E10    1.136174388810992E-4   1.816206618212462E-3  
 2.632000000000000E10    7.084818476268649E-4   6.689596062642338E-4  
 2.636000000000000E10    8.504685910969230E-4  -7.862878265839816E-4  
 2.640000000000000E10   -3.155470070506446E-5  -4.327159629596772E-4  
 2.644000000000000E10   -8.925700841444732E-4  -5.582283781898023E-4  
 2.648000000000000E10   -2.238864496520907E-4   1.100073101826608E-3  
 2.652000000000000E10    6.036265682183580E-4   4.052461650283635E-4  
 2.656000000000000E10    1.836069524759651E-3   2.935174233928324E-4  
 2.660000000000000E10    2.197180484320224E-4  -1.037987571600378E-3  
 2.664000000000000E10   -1.298075890273154E-3  -4.127693485619130E-4  
 2.668000000000000E10   -1.577450308803917E-3   1.308736855636687E-3  
 2.672000000000000E10    7.035283994288745E-4   5.757575536435844E-4  
 2.676000000000000E10    1.026582792314291E-3  -1.084308178082132E-3  
 2.680000000000000E10   -2.815213101007044E-4  -5.142037124700846E-4  
 2.684000000000000E10   -8.670028001835199E-4  -5.661750178340079E-4  
 2.688000000000000E10   -1.344440994532407E-4   4.934381588059666E-4  
 2.692000000000000E10    1.773428480973095E-4   1.012189580869526E-3  
 2.696000000000000E10    8.755211780521275E-4  -5.360164661727848E-4  
 2.700000000000000E10   -7.096690283698959E-5  -1.181246042198390E-3  
