#  HZ   S   RI   R     50.00 
! Rohde & Schwarz ZVA40 4Ports - Version 3.90 - 1145.1110k42 SN: 100403
! Date: 2023-09-26 11:11:03
! Measurement: S12 
! 
 2.300000000000000E10    2.902577916138620E-4  -1.447466604255140E-3  
 2.304000000000000E10    4.765276598650218E-4  -6.411349307262898E-4  
 2.308000000000000E10   -8.827473754706981E-4   3.229479055252393E-4  
 2.312000000000000E10   -1.286999126808644E-3   7.374221248286963E-4  
 2.316000000000000E10    7.324887142713370E-4   8.990713724049930E-4  
 2.320000000000000E10    1.289564756585360E-3  -7.761251910704375E-4  
 2.324000000000000E10   -4.048186535520853E-4  -6.102493543034422E-4  
 2.328000000000000E10   -5.040817442806067E-4  -2.906343461342160E-5  
 2.332000000000000E10    4.649335558882357E-4   1.855482048306614E-4  
 2.336000000000000E10    1.448075852479041E-3  -3.935518952457653E-4  
 2.340000000000000E10    4.185307673311607E-4  -1.794503620171920E-4  
 2.344000000000000E10   -1.221554140505493E-3  -5.561416451444478E-4  
 2.348000000000000E10   -7.971890535895528E-4   2.537624428911881E-4  
 2.352000000000000E10   -4.080408285985888E-4   8.343982309632005E-4  
 2.356000000000000E10    1.093545359940231E-3   6.279887191097439E-4  
 2.360000000000000E10    4.941256039628387E-4  -6.133545159678907E-4  
 2.364000000000000E10   -5.938096034794674E-4  -7.047380486626925E-4  
 2.368000000000000E10   -9.715462298172713E-4   4.428326286378504E-4  
 2.372000000000000E10    5.727587772393227E-4   7.469608590838315E-4  
 2.376000000000000E10    1.530893556168378E-3   5.192427484977246E-4  
 2.380000000000000E10   -3.088908036022261E-4  -5.955291296736898E-4  
 2.384000000000000E10   -1.131958611120135E-3   6.817869896402957E-4  
 2.388000000000000E10   -5.635767595560849E-4   5.881701254488529E-4  
 2.392000000000000E10    3.606502368548513E-4  -1.190142312213779E-4  
 2.396000000000000E10    6.686478246794641E-4  -3.168977318102122E-4  
 2.400000000000000E10    3.861207083702088E-4  -4.918695341651889E-4  
 2.404000000000000E10   -2.908728596395255E-4  -3.232526651254297E-4  
 2.408000000000000E10   -7.196697962757947E-4  -2.434094267244638E-4  
 2.412000000000000E10    5.463262921068075E-4   9.427875093342790E-6  
 2.416000000000000E10    1.256801298208833E-3   6.246525817504712E-4  
 2.420000000000000E10    8.337015149863067E-4  -1.484693389265835E-3  
 2.424000000000000E10   -1.564434222255945E-3  -1.143433376167417E-3  
 2.428000000000000E10   -6.400273677188905E-4  -5.955099001553655E-4  
 2.432000000000000E10    1.226881158531159E-3   2.639066142139957E-4  
 2.436000000000000E10    4.501389278883487E-4   6.295584110906723E-4  
 2.440000000000000E10   -3.112158542481065E-4  -8.502635626438263E-4  
 2.444000000000000E10   -1.097735151423812E-3  -2.244880140908957E-3  
 2.448000000000000E10   -7.204538075290621E-4   1.847269771227241E-3  
 2.452000000000000E10    2.413814575291277E-3   1.027520012161732E-3  
 2.456000000000000E10   -4.938193315494801E-5   9.802085043221711E-5  
 2.460000000000000E10   -9.889462572079898E-4  -7.762069069957735E-4  
 2.464000000000000E10    3.765660591408610E-4   8.497092052400114E-5  
 2.468000000000000E10    3.600514185243845E-4   1.008241988148392E-3  
 2.472000000000000E10    4.439232265417651E-4   1.782783338774443E-3  
 2.476000000000000E10   -1.919479898139837E-5  -1.222246463512182E-3  
 2.480000000000000E10   -7.213257763793321E-4  -1.622067667797208E-3  
 2.484000000000000E10   -6.523054366418721E-4   1.418127612964809E-3  
 2.488000000000000E10   -2.960628557875753E-4   1.719565156562329E-3  
 2.492000000000000E10    8.021909228214623E-4   1.178494410968721E-3  
 2.496000000000000E10    8.864633600240947E-4  -1.481148646734655E-3  
 2.500000000000000E10   -3.155070167499782E-4  -1.023065086898506E-3  
 2.504000000000000E10   -9.809815446804467E-4   1.077599605685175E-3  
 2.508000000000000E10    9.685168131381275E-5   1.220557719913647E-3  
 2.512000000000000E10    1.104480145547390E-3  -1.174300141462386E-3  
 2.516000000000000E10    1.031565658013900E-3  -1.530753181216121E-3  
 2.520000000000000E10   -5.730607795388997E-4  -9.781310276171565E-4  
 2.524000000000000E10   -8.195424388971928E-4   3.600414035502077E-4  
 2.528000000000000E10    8.772427637696263E-5   3.032343574218079E-4  
 2.532000000000000E10    1.769334367688597E-3   4.759259612308812E-5  
 2.536000000000000E10   -2.874952235996723E-4  -8.854944894937427E-4  
 2.540000000000000E10   -4.305737530545893E-4   5.565201406791811E-5  
 2.544000000000000E10   -1.322934549294412E-3   3.289167442294955E-4  
 2.548000000000000E10    5.810449532289804E-4   6.155960521824659E-4  
 2.552000000000000E10    1.017185196022988E-3   4.670459109804036E-4  
 2.556000000000000E10    1.254576188440472E-3  -1.016646498789788E-3  
 2.560000000000000E10   -1.010785852799863E-3  -3.718749357789756E-4  
 2.564000000000000E10   -5.661319137200716E-4   1.421294986988642E-3  
 2.568000000000000E10    2.330076204277575E-4   1.435887653523088E-3  
 2.572000000000000E10    1.320243573752418E-3   2.884887138895691E-4  
 2.576000000000000E10    2.234978659264743E-4  -2.272668547469377E-3  
 2.580000000000000E10   -1.577057731464505E-4  -6.439513985119762E-4  
 2.584000000000000E10   -1.556206419816613E-3  -9.434334710451077E-5  
 2.588000000000000E10   -2.507036053486170E-4  -4.433393316552044E-4  
 2.592000000000000E10    3.738066611945630E-4  -6.321945896409456E-5  
 2.596000000000000E10    6.026006609514357E-4  -1.374782837793977E-3  
 2.600000000000000E10   -6.926350387081504E-4   4.509517048943789E-4  
 2.604000000000000E10   -1.143797406390309E-3   1.190860417826474E-3  
 2.608000000000000E10    2.672366247057916E-4   1.744475462925434E-3  
 2.612000000000000E10    1.490848824632168E-3   4.166428188383582E-4  
 2.616000000000000E10    8.146863491537051E-4  -6.000166378021240E-4  
 2.620000000000000E10   -1.680931814438105E-3  -1.009467213770747E-3  
 2.624000000000000E10   -1.113788479407132E-3   6.797116745293141E-4  
 2.628000000000000E10    1.393464953112603E-3   2.979432217232884E-4  
 2.632000000000000E10    1.190445519807190E-3   4.385280305892105E-6  
 2.636000000000000E10   -7.910568556562068E-4  -4.784270870976151E-4  
 2.640000000000000E10   -5.210246472716332E-4  -4.042143821001053E-4  
 2.644000000000000E10   -5.238630860716106E-4   9.480411447536202E-4  
 2.648000000000000E10    1.071612597550452E-3  -2.373936773091556E-5  
 2.652000000000000E10    9.670067023783925E-4  -4.891534355279059E-4  
 2.656000000000000E10    2.536351975038648E-4  -7.853219342544677E-4  
 2.660000000000000E10   -1.384051966698468E-3   5.676982473716140E-4  
 2.664000000000000E10   -5.862192731466144E-4   1.680643097299338E-3  
 2.668000000000000E10    1.389309554341436E-3   5.476140762865544E-4  
 2.672000000000000E10    2.619522660069168E-4  -1.039379865385593E-4  
 2.676000000000000E10   -2.593212467253210E-4  -5.224574156381190E-4  
 2.680000000000000E10   -5.206834319815040E-4   5.526679045006634E-4  
 2.684000000000000E10   -2.094808961845934E-4   1.261746453608573E-3  
 2.688000000000000E10   -1.417004712074995E-4   2.055239554299042E-4  
 2.692000000000000E10    8.655581975653771E-4  -7.873665515942502E-4  
 2.696000000000000E10   -9.197798918902874E-4  -1.790131057319046E-3  
 2.700000000000000E10   -1.239471137420833E-3   6.818535918928689E-5  
